#  HZ   S   RI   R     50.00 
! Rohde & Schwarz Vector Network Analyzer 
! Rohde-Schwarz,ZNB20-2Port,1311601062101988,3.16
! Created: UTC 12/23/2023, 4:02:51 AM
! freq[Hz]                re:S11                  im:S11                  re:S21                  im:S21                  re:S12                  im:S12                  re:S22                  im:S22
 6.517203278000000E9    -2.288736637556103E-1   -1.295753576099131E-2    1.379054322858229E-2   -5.914107283902181E-3    1.386761472924264E-2   -5.488317330418528E-3    2.177593748764297E-1    5.036957075410807E-1
 6.517214532725000E9    -2.287569708903857E-1   -1.281159009422699E-2    1.375633856483135E-2   -6.017686233092172E-3    1.388921528634640E-2   -5.458735532652653E-3    2.184425298283662E-1    5.033114063323602E-1
 6.517225787450000E9    -2.285426361848456E-1   -1.258753554690241E-2    1.380548461411798E-2   -5.969410856294530E-3    1.398906904059314E-2   -5.552932632292690E-3    2.192650837431300E-1    5.029014953524577E-1
 6.517237042175000E9    -2.285616237869524E-1   -1.237228350504242E-2    1.392065625748751E-2   -6.179821571404740E-3    1.411136870126353E-2   -5.568642928691839E-3    2.201451877066981E-1    5.026291656077033E-1
 6.517248296900000E9    -2.282772903259623E-1   -1.216994794984893E-2    1.397499074196122E-2   -6.321408124093063E-3    1.404756707843478E-2   -5.534683086264420E-3    2.211513892641474E-1    5.021986995606833E-1
 6.517259551625000E9    -2.282318798866847E-1   -1.210670788497448E-2    1.391462727509847E-2   -6.189413183268227E-3    1.411514930087299E-2   -5.753438696521110E-3    2.219290748052331E-1    5.019466232800832E-1
 6.517270806350000E9    -2.281287371168081E-1   -1.192841123535847E-2    1.393074982349025E-2   -6.339354081961872E-3    1.421655576401944E-2   -5.752244504872331E-3    2.225763625443706E-1    5.016155174839976E-1
 6.517282061075000E9    -2.279820863479401E-1   -1.174928924509789E-2    1.409998680700165E-2   -6.376548483803320E-3    1.424674355440336E-2   -5.843330341326815E-3    2.234643360505164E-1    5.012306064349761E-1
 6.517293315800000E9    -2.278116720079039E-1   -1.152136020927397E-2    1.409600296258772E-2   -6.357010078003818E-3    1.439251288871284E-2   -5.876725495338382E-3    2.243880638008220E-1    5.008390045527275E-1
 6.517304570525000E9    -2.277360436357669E-1   -1.142712285116323E-2    1.418443861365365E-2   -6.412543342722519E-3    1.435635209654223E-2   -5.924132545823564E-3    2.251050639084829E-1    5.003766047487009E-1
 6.517315825250000E9    -2.275809610358829E-1   -1.130436540844347E-2    1.414938598842959E-2   -6.492564475658551E-3    1.451851187771880E-2   -5.972328599329941E-3    2.260047558438526E-1    5.000554867649126E-1
 6.517327079975000E9    -2.275350104687172E-1   -1.107622053558737E-2    1.430984765937361E-2   -6.602918625631039E-3    1.445389770394114E-2   -5.962453289434760E-3    2.268383544326049E-1    4.997548423722071E-1
 6.517338334700000E9    -2.274516893593368E-1   -1.088355155210936E-2    1.448746987866074E-2   -6.664752883990144E-3    1.458617923586553E-2   -5.971796848931451E-3    2.275118685490362E-1    4.993483216346298E-1
 6.517349589425000E9    -2.271698745069222E-1   -1.077168138781369E-2    1.452467189094412E-2   -6.652325958305175E-3    1.467815056151087E-2   -6.195791650659666E-3    2.284880512699752E-1    4.990668128330198E-1
 6.517360844150000E9    -2.271387455852679E-1   -1.063069019333204E-2    1.446302963410841E-2   -6.667800286142440E-3    1.470811331750634E-2   -6.284351196964836E-3    2.293380552710013E-1    4.987061975648314E-1
 6.517372098875000E9    -2.269035386795252E-1   -1.048244428153217E-2    1.459040194800880E-2   -6.899998577249725E-3    1.473984433733465E-2   -6.209387286765461E-3    2.301294847200641E-1    4.982963040725517E-1
 6.517383353600000E9    -2.268383940189501E-1   -1.025892683369462E-2    1.454768818864858E-2   -6.956522433691537E-3    1.484925191403533E-2   -6.456142370179174E-3    2.309841333384245E-1    4.978418440131133E-1
 6.517394608325000E9    -2.267087836389154E-1   -1.021092238615782E-2    1.474319267331379E-2   -6.802188364587726E-3    1.497431783984638E-2   -6.436435843200395E-3    2.317767248940180E-1    4.975098781690498E-1
 6.517405863050000E9    -2.266057098670469E-1   -9.933186338002588E-3    1.486871100862981E-2   -7.054939976301795E-3    1.491101150223275E-2   -6.502520875594033E-3    2.325297667999184E-1    4.972182196455765E-1
 6.517417117775000E9    -2.264287786158828E-1   -9.791655244610115E-3    1.473902738725654E-2   -7.060616976419812E-3    1.515588878280662E-2   -6.620903265316880E-3    2.334658090225397E-1    4.968103535025202E-1
 6.517428372500000E9    -2.262706044720094E-1   -9.691877132661229E-3    1.489434923287359E-2   -7.204070997619685E-3    1.500935777181867E-2   -6.684098300980756E-3    2.342738948616945E-1    4.963883876901627E-1
 6.517439627225000E9    -2.261207584039066E-1   -9.535609336205128E-3    1.493385871330261E-2   -7.187014982116326E-3    1.522180501919989E-2   -6.685908627107572E-3    2.350575440351075E-1    4.960442820697394E-1
 6.517450881950000E9    -2.260477284618837E-1   -9.416894279092643E-3    1.509538836141831E-2   -7.194865182767785E-3    1.524129568484593E-2   -6.748350480216006E-3    2.358979495687485E-1    4.956248397632650E-1
 6.517462136675000E9    -2.257303033919598E-1   -9.254182619114209E-3    1.520713721785439E-2   -7.335389294694552E-3    1.528541612992946E-2   -6.821449334455346E-3    2.367028050672609E-1    4.953439957030248E-1
 6.517473391400000E9    -2.258164215187808E-1   -8.997583453526088E-3    1.517392167831096E-2   -7.433533912055266E-3    1.531202850899876E-2   -6.898634200401440E-3    2.375524279368207E-1    4.948284825488643E-1
 6.517484646125000E9    -2.255540884777041E-1   -8.942047824051377E-3    1.519682582344111E-2   -7.401947748482940E-3    1.535696611186853E-2   -6.937710510719106E-3    2.383787526392975E-1    4.944855625628795E-1
 6.517495900850000E9    -2.254476548313935E-1   -8.816836990178493E-3    1.524633568648755E-2   -7.456731198317179E-3    1.550623182422025E-2   -6.868260462240453E-3    2.392169835667060E-1    4.941467077532816E-1
 6.517507155575000E9    -2.251510284661968E-1   -8.699753838467642E-3    1.539568657662263E-2   -7.586829583523279E-3    1.556940013902105E-2   -7.037445480832167E-3    2.399525385969929E-1    4.937108199867990E-1
 6.517518410300000E9    -2.251894100634804E-1   -8.432340682579866E-3    1.532126900247627E-2   -7.685074064198993E-3    1.561733274784185E-2   -7.157451940178747E-3    2.407760978698237E-1    4.933001885582216E-1
 6.517529665025000E9    -2.250097350965971E-1   -8.396949226705381E-3    1.555398410503521E-2   -7.594612881175803E-3    1.574916273753160E-2   -7.182748198625449E-3    2.417240392265890E-1    4.928293507314289E-1
 6.517540919750000E9    -2.248571994116852E-1   -8.199572937709480E-3    1.555256914197349E-2   -7.806246752810411E-3    1.584505134587891E-2   -7.236337772759425E-3    2.424086071981538E-1    4.924393191734379E-1
 6.517552174475000E9    -2.246327723906011E-1   -7.917854846552446E-3    1.554933058311579E-2   -7.779140926930469E-3    1.591421736860824E-2   -7.339609452971033E-3    2.433404970059626E-1    4.920587092857211E-1
 6.517563429200000E9    -2.246173167547001E-1   -7.908263432794983E-3    1.578645898752527E-2   -8.010918322840661E-3    1.604931880947484E-2   -7.532885462912214E-3    2.441365511794426E-1    4.915994831537036E-1
 6.517574683925000E9    -2.244093104475214E-1   -7.704995884186627E-3    1.580578927315643E-2   -8.062543906588540E-3    1.603502012537274E-2   -7.529455492614361E-3    2.449403461367443E-1    4.913194537711098E-1
 6.517585938650000E9    -2.242703135516343E-1   -7.601096063520637E-3    1.591160445097316E-2   -8.174566830545250E-3    1.616323746882886E-2   -7.566447895911820E-3    2.458208298300190E-1    4.907466932527371E-1
 6.517597193375000E9    -2.239929894843053E-1   -7.521483438758503E-3    1.593101009729215E-2   -8.225322534547615E-3    1.609985014756409E-2   -7.616755899179297E-3    2.465591339305042E-1    4.903549064353094E-1
 6.517608448100000E9    -2.238771617229397E-1   -7.268617380884052E-3    1.606826650782922E-2   -8.203695379321113E-3    1.626415809709638E-2   -7.879355453923384E-3    2.474821734896373E-1    4.899822900649704E-1
 6.517619702825000E9    -2.238540921590101E-1   -7.160434466772113E-3    1.614450733650905E-2   -8.355066883162218E-3    1.628654276890586E-2   -7.923843935156584E-3    2.483245087379737E-1    4.895673934436381E-1
 6.517630957550000E9    -2.236641249434797E-1   -7.133465064754138E-3    1.624849067658474E-2   -8.499138094783464E-3    1.640131396299719E-2   -7.926211262473294E-3    2.492567695151928E-1    4.890828867574187E-1
 6.517642212275000E9    -2.234719636271826E-1   -6.937539430186320E-3    1.619264754152443E-2   -8.457598117504392E-3    1.649126704109299E-2   -7.922152135214883E-3    2.499630731796445E-1    4.887757386719263E-1
 6.517653467000000E9    -2.233411495929660E-1   -6.772909167504830E-3    1.624233729525948E-2   -8.746999744777027E-3    1.658250724650688E-2   -8.096233865998059E-3    2.507595355069106E-1    4.884396005477110E-1
 6.517664721725000E9    -2.230891090878955E-1   -6.600960127955917E-3    1.646052320590265E-2   -8.712310777223769E-3    1.668214057560056E-2   -8.097444217320065E-3    2.515558994236540E-1    4.879543204304234E-1
 6.517675976450000E9    -2.229951158084507E-1   -6.438582548299359E-3    1.654702111778618E-2   -8.946069603100107E-3    1.675661488984964E-2   -8.323056297179729E-3    2.523714650932381E-1    4.875852867597372E-1
 6.517687231175000E9    -2.228244068181190E-1   -6.389798870299466E-3    1.662266427458362E-2   -8.957959100822312E-3    1.701920452025968E-2   -8.394912482504620E-3    2.531548994670947E-1    4.871467163387845E-1
 6.517698485900000E9    -2.226302079936308E-1   -6.258065079807465E-3    1.674242546423875E-2   -9.149800054967443E-3    1.703685193685177E-2   -8.413871269885369E-3    2.541833460932045E-1    4.866552476360995E-1
 6.517709740625000E9    -2.225449641599507E-1   -6.158795928824062E-3    1.672186986838599E-2   -9.143990714574467E-3    1.698244552488420E-2   -8.544506309269921E-3    2.548521019174007E-1    4.862014678641340E-1
 6.517720995350000E9    -2.223780915193541E-1   -5.926123679338665E-3    1.690233429615418E-2   -9.145944413261980E-3    1.719550135176766E-2   -8.664962446830772E-3    2.558608066611061E-1    4.857244672656830E-1
 6.517732250075000E9    -2.221088759761546E-1   -5.867336523733563E-3    1.688790950414715E-2   -9.181762766107488E-3    1.704739664522910E-2   -8.724292575406124E-3    2.565774546402587E-1    4.852273573466402E-1
 6.517743504800000E9    -2.220722167754997E-1   -5.753115377789720E-3    1.699911603679575E-2   -9.387943875832265E-3    1.737176567224913E-2   -8.915588325641760E-3    2.573719911380097E-1    4.848757396848352E-1
 6.517754759525000E9    -2.218401572746562E-1   -5.598194091935383E-3    1.715215555656499E-2   -9.462038857608658E-3    1.740191896555339E-2   -8.934200223670892E-3    2.583685521510953E-1    4.843813451950285E-1
 6.517766014250000E9    -2.216403412185950E-1   -5.387325444825155E-3    1.720953480778811E-2   -9.580346308357048E-3    1.740878723096432E-2   -9.033384790880053E-3    2.590798172225745E-1    4.840307848019103E-1
 6.517777268975000E9    -2.215490517158133E-1   -5.367055176630344E-3    1.739874715705225E-2   -9.754928366623658E-3    1.762238093098761E-2   -9.057679054389841E-3    2.599341067675948E-1    4.834517283682104E-1
 6.517788523700000E9    -2.213086428768808E-1   -5.148905192417174E-3    1.726080272713289E-2   -9.743656017246636E-3    1.756084402951625E-2   -9.212814350473960E-3    2.608047364747539E-1    4.831113128301103E-1
 6.517799778425000E9    -2.212364672286137E-1   -5.162277481632992E-3    1.752580979706886E-2   -9.820548766216023E-3    1.773454526447702E-2   -9.270905862465052E-3    2.616744294082514E-1    4.827229964879933E-1
 6.517811033150000E9    -2.208680891675339E-1   -5.052758408968634E-3    1.751313215773143E-2   -9.968655311603536E-3    1.793813317071116E-2   -9.421437738331416E-3    2.621957331919176E-1    4.821776595518089E-1
 6.517822287875000E9    -2.207674467818939E-1   -4.891268243833117E-3    1.776931069903298E-2   -1.009404111652770E-2    1.796861119673253E-2   -9.601810262688675E-3    2.633206436416306E-1    4.817755392287940E-1
 6.517833542600000E9    -2.205897777707243E-1   -4.797138649214739E-3    1.768039252170141E-2   -1.015187552037093E-2    1.812137767451205E-2   -9.582398207158420E-3    2.641388821132754E-1    4.813157622980057E-1
 6.517844797325000E9    -2.203396663066167E-1   -4.652271544935706E-3    1.784174334218780E-2   -1.035046319877318E-2    1.813372505027891E-2   -9.679835500799150E-3    2.649157851092587E-1    4.808656362883617E-1
 6.517856052050000E9    -2.202944994869330E-1   -4.624115948665287E-3    1.784599713865663E-2   -1.037565682222881E-2    1.823904008608676E-2   -9.869722841305266E-3    2.657915755783200E-1    4.802969730914080E-1
 6.517867306775000E9    -2.200803501705187E-1   -4.464962265457196E-3    1.794812853650126E-2   -1.056465381829188E-2    1.835876672376710E-2   -9.900889005931134E-3    2.665057684521949E-1    4.799496224609803E-1
 6.517878561500000E9    -2.198106697414378E-1   -4.304814112157255E-3    1.804983388673343E-2   -1.060185690499178E-2    1.838633173252317E-2   -9.985220569237606E-3    2.674885557517594E-1    4.794729134064168E-1
 6.517889816225000E9    -2.196940669950993E-1   -4.252682630385847E-3    1.821293747874315E-2   -1.069743935629314E-2    1.855945827733970E-2   -1.016339469808029E-2    2.682298255704317E-1    4.788747815124241E-1
 6.517901070950000E9    -2.195603871719091E-1   -4.267571518885494E-3    1.840134802692030E-2   -1.087675769592559E-2    1.873925754517262E-2   -1.032840515291663E-2    2.689503501675698E-1    4.784556208905566E-1
 6.517912325675000E9    -2.193081684663887E-1   -3.970665512514747E-3    1.836332004161644E-2   -1.100183507300000E-2    1.873832776073603E-2   -1.028841131751369E-2    2.698660608993856E-1    4.779469114032838E-1
 6.517923580400000E9    -2.190808442478376E-1   -4.068101086920103E-3    1.845914664711430E-2   -1.112144916477223E-2    1.885671507289824E-2   -1.044769160658844E-2    2.707826454769537E-1    4.774356494640051E-1
 6.517934835125000E9    -2.188326659465619E-1   -3.912277908342103E-3    1.857575708647569E-2   -1.127868867717728E-2    1.892413255527904E-2   -1.060073223312217E-2    2.715679129045014E-1    4.769209593366326E-1
 6.517946089850000E9    -2.186648298296346E-1   -3.903182683664521E-3    1.865422836402994E-2   -1.132621069212280E-2    1.910513628992948E-2   -1.073920083377786E-2    2.723203632995030E-1    4.764964917974571E-1
 6.517957344575000E9    -2.185255541426439E-1   -3.775434568069704E-3    1.875962355421019E-2   -1.152052937097875E-2    1.921715164287064E-2   -1.086033311834593E-2    2.732977482576602E-1    4.761345033394878E-1
 6.517968599300000E9    -2.184242852741804E-1   -3.609789759877063E-3    1.888029256688959E-2   -1.160422098360919E-2    1.935806875472071E-2   -1.102093197234721E-2    2.742328778610487E-1    4.755770407947410E-1
 6.517979854025000E9    -2.180275958188919E-1   -3.505246543081587E-3    1.897826115465894E-2   -1.171624215820086E-2    1.941850215425985E-2   -1.113068227542922E-2    2.749404870875160E-1    4.750290036795688E-1
 6.517991108750000E9    -2.178038986495639E-1   -3.476852350339031E-3    1.919425139622435E-2   -1.187781041685754E-2    1.956799736196476E-2   -1.122198865331262E-2    2.756622333230075E-1    4.744738139003268E-1
 6.518002363475000E9    -2.176216277629303E-1   -3.335263059782153E-3    1.933548383867598E-2   -1.202504017720845E-2    1.969563835748047E-2   -1.135317117753381E-2    2.765006335224341E-1    4.739279309191458E-1
 6.518013618200000E9    -2.175086823002348E-1   -3.227789118762734E-3    1.955210694175758E-2   -1.217608975890263E-2    1.976465874587666E-2   -1.153237078816798E-2    2.775287392222007E-1    4.735416273626958E-1
 6.518024872925000E9    -2.173720818472324E-1   -3.221105644178078E-3    1.950652213636410E-2   -1.235981629571422E-2    1.993712922168161E-2   -1.168109456116268E-2    2.782319445469017E-1    4.731173652671702E-1
 6.518036127650000E9    -2.171123986228792E-1   -3.234940682711334E-3    1.970156126456169E-2   -1.252453753037323E-2    1.998310711248553E-2   -1.180868620078728E-2    2.791572321583580E-1    4.726898045376587E-1
 6.518047382375000E9    -2.168431367989450E-1   -3.029751581261184E-3    1.974913224526865E-2   -1.266719621278870E-2    2.000838532162661E-2   -1.195546329995393E-2    2.799847007303518E-1    4.721003293349321E-1
 6.518058637100000E9    -2.165445442079686E-1   -3.073249297332461E-3    1.989434194066202E-2   -1.274274683703972E-2    2.023688426894970E-2   -1.212099521550264E-2    2.806225712677473E-1    4.715793719303963E-1
 6.518069891825000E9    -2.163273515723907E-1   -2.994570039079829E-3    1.993468827799054E-2   -1.289732133028570E-2    2.050422077739152E-2   -1.222993343085946E-2    2.816112529194290E-1    4.709767334622316E-1
 6.518081146550000E9    -2.160861379852489E-1   -2.996298802772983E-3    2.008658794776581E-2   -1.296560471556088E-2    2.055318348200384E-2   -1.248151183046162E-2    2.824741172854185E-1    4.706016966141421E-1
 6.518092401275000E9    -2.160606610828573E-1   -2.811648007221005E-3    2.033996886667933E-2   -1.322246970053670E-2    2.062744565561894E-2   -1.249480767126904E-2    2.832069930057833E-1    4.699327511069237E-1
 6.518103656000000E9    -2.157101436823347E-1   -2.816077088897968E-3    2.043343725640729E-2   -1.335466363034050E-2    2.090683880084549E-2   -1.269502658757604E-2    2.841426689082209E-1    4.694072942923154E-1
 6.518114910725000E9    -2.155203830362783E-1   -2.776766989255255E-3    2.052242013518371E-2   -1.353104594132528E-2    2.093431345160000E-2   -1.286928421709750E-2    2.848828337963773E-1    4.689009674306517E-1
 6.518126165450000E9    -2.151969316713834E-1   -2.679104745618981E-3    2.047984502156687E-2   -1.360619994120350E-2    2.100463569805345E-2   -1.306642291602571E-2    2.857822948700239E-1    4.682617839056700E-1
 6.518137420175000E9    -2.150086536833422E-1   -2.564064504741928E-3    2.075297264491067E-2   -1.386004520099157E-2    2.112172182604173E-2   -1.318225276554508E-2    2.866843231573965E-1    4.677632821291915E-1
 6.518148674900000E9    -2.147517111899335E-1   -2.591908028433629E-3    2.083118395881422E-2   -1.392501927064978E-2    2.124337427962873E-2   -1.335635010796212E-2    2.875115199332652E-1    4.672413483222605E-1
 6.518159929625000E9    -2.145553772598313E-1   -2.613664161488910E-3    2.105916016646902E-2   -1.427503044303500E-2    2.157621613234780E-2   -1.351801738456319E-2    2.883582619346575E-1    4.666708940877374E-1
 6.518171184350000E9    -2.142842656578871E-1   -2.489466915723490E-3    2.119606253428181E-2   -1.430093980423712E-2    2.166805722451889E-2   -1.378200628609491E-2    2.891335210134491E-1    4.662084272677554E-1
 6.518182439075000E9    -2.140566556809828E-1   -2.385952415342246E-3    2.122864699302680E-2   -1.466786266908521E-2    2.177517235599124E-2   -1.393324002683403E-2    2.900641930633541E-1    4.655342324890345E-1
 6.518193693800000E9    -2.137557448179331E-1   -2.289977194451379E-3    2.151852973059301E-2   -1.478698649132782E-2    2.192767486817962E-2   -1.408490142146408E-2    2.908166937474721E-1    4.648711796339604E-1
 6.518204948525000E9    -2.135478141901704E-1   -2.369293052656292E-3    2.151298635517747E-2   -1.492425336777956E-2    2.199086367667493E-2   -1.413559736515780E-2    2.916471661193797E-1    4.645585946827536E-1
 6.518216203250000E9    -2.133245541201488E-1   -2.410393080044844E-3    2.172957841132533E-2   -1.513488331373665E-2    2.212870581399563E-2   -1.432524641843692E-2    2.926175795321749E-1    4.638270338674503E-1
