#  HZ   S   RI   R     50.00 
! Rohde & Schwarz Vector Network Analyzer 
! Rohde-Schwarz,ZNB20-2Port,1311601062101988,3.16
! Created: UTC 12/23/2023, 3:37:45 AM
! freq[Hz]                re:S11                  im:S11                  re:S21                  im:S21                  re:S12                  im:S12                  re:S22                  im:S22
 6.517088464000000E9    -2.299826603025776E-1   -1.541273289911002E-2    1.362386044615651E-2   -5.673843979088344E-3    1.364190100978132E-2   -5.202464846007448E-3    2.101954432888511E-1    5.068287851493651E-1
 6.517100020600000E9    -2.299260574870806E-1   -1.525262935978974E-2    1.343734409938730E-2   -5.677207152234017E-3    1.363636356235063E-2   -5.236178778495102E-3    2.110264576966416E-1    5.063972927269501E-1
 6.517111577200000E9    -2.298362352062582E-1   -1.508074500112240E-2    1.365284118249645E-2   -5.717467630896053E-3    1.366825576103716E-2   -5.305132200909638E-3    2.118625228339254E-1    5.061750072375512E-1
 6.517123133800000E9    -2.297505165016452E-1   -1.473819622954154E-2    1.354704781062948E-2   -5.834175904920700E-3    1.376619387211626E-2   -5.353896562298480E-3    2.127804201101500E-1    5.056910467075796E-1
 6.517134690400000E9    -2.296102272332471E-1   -1.474391094358541E-2    1.352130918925673E-2   -5.875684979447925E-3    1.374972898945900E-2   -5.315132761015008E-3    2.136035245560113E-1    5.054931266876550E-1
 6.517146247000000E9    -2.294776610717035E-1   -1.459857886606132E-2    1.371406236882512E-2   -5.879044994673394E-3    1.388357631353645E-2   -5.407532827357011E-3    2.144125250300637E-1    5.050155761476292E-1
 6.517157803600000E9    -2.294415078250760E-1   -1.436323474081956E-2    1.379781559877450E-2   -5.897512577166152E-3    1.390564586295818E-2   -5.431547713512510E-3    2.152065472751254E-1    5.048324632437390E-1
 6.517169360200000E9    -2.293209113459184E-1   -1.414182611142552E-2    1.374836249036351E-2   -6.035311859583029E-3    1.394370745182580E-2   -5.429067310362660E-3    2.160422350836508E-1    5.045152858695814E-1
 6.517180916800000E9    -2.290401742258759E-1   -1.394373431661331E-2    1.395922879188735E-2   -5.991610660868820E-3    1.400686773557420E-2   -5.598499392423795E-3    2.169571292712742E-1    5.040452457396284E-1
 6.517192473400000E9    -2.290354982726581E-1   -1.372629016068551E-2    1.394207788673821E-2   -6.117590120885503E-3    1.403374766936893E-2   -5.603513308446405E-3    2.179068055686356E-1    5.035069177084349E-1
 6.517204030000000E9    -2.289040516165261E-1   -1.363630215749520E-2    1.393480020007552E-2   -6.171920759069457E-3    1.412047057793132E-2   -5.552966648973544E-3    2.186482763098166E-1    5.033218032211926E-1
 6.517215586600000E9    -2.287733721734708E-1   -1.341178115628816E-2    1.406544816010919E-2   -6.286810723023862E-3    1.419835065794407E-2   -5.732687630569404E-3    2.195333308860146E-1    5.028561007840636E-1
 6.517227143200000E9    -2.286713465847967E-1   -1.329828005458511E-2    1.411780410983389E-2   -6.212083595638661E-3    1.419267925882884E-2   -5.805478578932355E-3    2.204183805313634E-1    5.025808841871282E-1
 6.517238699800000E9    -2.285515416896890E-1   -1.314853110697194E-2    1.415503366346911E-2   -6.332468243811410E-3    1.435678621495433E-2   -5.834686525900391E-3    2.211988750973853E-1    5.022412679127880E-1
 6.517250256400000E9    -2.283774214318904E-1   -1.298045454044639E-2    1.421499869337924E-2   -6.379343815495832E-3    1.432981848956336E-2   -5.901277579039659E-3    2.220467392510028E-1    5.019272921801088E-1
 6.517261813000000E9    -2.282184755953335E-1   -1.279315440507296E-2    1.427624596793397E-2   -6.464206092405106E-3    1.452815667260527E-2   -6.036411377745482E-3    2.229955216115456E-1    5.014943046396232E-1
 6.517273369600000E9    -2.280442078570525E-1   -1.255091170994321E-2    1.443935544735489E-2   -6.363659240309188E-3    1.453837145194477E-2   -6.014524945654065E-3    2.237986990053446E-1    5.011197169070329E-1
 6.517284926200000E9    -2.279542005284827E-1   -1.243235715274823E-2    1.439082051637879E-2   -6.653993964594111E-3    1.440656513634641E-2   -6.158914080352293E-3    2.247159041207908E-1    5.007325732914273E-1
 6.517296482800000E9    -2.277743506418556E-1   -1.230575026726435E-2    1.454202747191140E-2   -6.684065450803655E-3    1.464627957411438E-2   -6.033038441301854E-3    2.255956468243221E-1    5.003336360375586E-1
 6.517308039400000E9    -2.275651670837456E-1   -1.210414820286038E-2    1.464074659011845E-2   -6.694154927461947E-3    1.476460714102426E-2   -6.152427306738963E-3    2.263224206498789E-1    5.000426145756839E-1
 6.517319596000000E9    -2.276278715582850E-1   -1.196727179280110E-2    1.452077881030689E-2   -6.723278486574889E-3    1.482425101399423E-2   -6.327462159702564E-3    2.273330418989359E-1    4.995659866596372E-1
 6.517331152600000E9    -2.274869591093983E-1   -1.173376075788520E-2    1.466406359916226E-2   -6.907373027327966E-3    1.482360503604722E-2   -6.329461144505080E-3    2.278990679079068E-1    4.992375254140261E-1
 6.517342709200000E9    -2.272935280966772E-1   -1.154370814806226E-2    1.479313435449619E-2   -6.938579870668304E-3    1.485359064352476E-2   -6.430495557324999E-3    2.289856517869016E-1    4.988705078982205E-1
 6.517354265800000E9    -2.271169087417019E-1   -1.152834400811687E-2    1.485137669503679E-2   -6.960929476388790E-3    1.497016948528757E-2   -6.486914696572454E-3    2.298135148785165E-1    4.984828973618908E-1
 6.517365822400000E9    -2.269607957373311E-1   -1.133118239497430E-2    1.491186402415597E-2   -7.074452525380092E-3    1.508935869077073E-2   -6.557904299555373E-3    2.304762104744572E-1    4.980922679538881E-1
 6.517377379000000E9    -2.268490628330057E-1   -1.114545147187040E-2    1.487655492124173E-2   -7.116292746334085E-3    1.511487831015805E-2   -6.639384046446413E-3    2.315080168697993E-1    4.976789685977765E-1
 6.517388935600000E9    -2.267085285852109E-1   -1.094319377517309E-2    1.504184805803647E-2   -7.201710812092238E-3    1.520475458334712E-2   -6.715307657167146E-3    2.323011902079976E-1    4.973758702921269E-1
 6.517400492200000E9    -2.266227562166795E-1   -1.077658834996651E-2    1.500027129728162E-2   -7.363520350017626E-3    1.522351997349059E-2   -6.636699628507937E-3    2.332333574503819E-1    4.969638720810545E-1
 6.517412048800000E9    -2.264081428005242E-1   -1.072643550310505E-2    1.518803092544620E-2   -7.257421488984631E-3    1.536959942318157E-2   -6.811022974839110E-3    2.340427495766944E-1    4.967662736297197E-1
 6.517423605400000E9    -2.263157036646946E-1   -1.044966037813147E-2    1.523020170495559E-2   -7.389181776734036E-3    1.544241716623437E-2   -6.896196703978626E-3    2.348184272825639E-1    4.961383705291748E-1
 6.517435162000000E9    -2.261967223824156E-1   -1.034468235590613E-2    1.527730734578945E-2   -7.470334940894272E-3    1.542415521209801E-2   -6.920005094333173E-3    2.355701153164744E-1    4.958524767360860E-1
 6.517446718600000E9    -2.260086772432557E-1   -1.011084044279967E-2    1.526082868568956E-2   -7.464692787626973E-3    1.557192559567408E-2   -7.002712084452100E-3    2.364988438226875E-1    4.953416118970710E-1
 6.517458275200000E9    -2.259447407807028E-1   -1.002356832915996E-2    1.545600688671524E-2   -7.602457336422934E-3    1.554865666376175E-2   -7.054818679261002E-3    2.373952374676073E-1    4.950129491595860E-1
 6.517469831800000E9    -2.257164955138616E-1   -9.825419668841307E-3    1.542786049259334E-2   -7.734369495802917E-3    1.568396511690220E-2   -7.144693931963817E-3    2.383738922798708E-1    4.945991045590860E-1
 6.517481388400000E9    -2.256433317229373E-1   -9.761904053994510E-3    1.551446831997730E-2   -7.682834463116684E-3    1.586683062486602E-2   -7.330904072556765E-3    2.389851188177247E-1    4.942096735913589E-1
 6.517492945000000E9    -2.254374038884094E-1   -9.531925272848041E-3    1.567296675767558E-2   -7.763273422166810E-3    1.579638242877449E-2   -7.366566775205682E-3    2.399797226363996E-1    4.937926078457927E-1
 6.517504501600000E9    -2.252662280093642E-1   -9.401556138371500E-3    1.577478622169190E-2   -7.908107686787022E-3    1.604929235003589E-2   -7.296032732807749E-3    2.407651958224711E-1    4.933423659577351E-1
 6.517516058200000E9    -2.251587519251664E-1   -9.321798869522885E-3    1.569956964689193E-2   -7.921594966145321E-3    1.598668866022574E-2   -7.480431030306755E-3    2.417238812130370E-1    4.928488365773314E-1
 6.517527614800000E9    -2.250283226238033E-1   -9.237004037628161E-3    1.578855505897365E-2   -8.098391687371552E-3    1.608054198325980E-2   -7.504586720902137E-3    2.426246268416218E-1    4.924298095592022E-1
 6.517539171400000E9    -2.249411024079314E-1   -8.993749773398963E-3    1.587120084195786E-2   -8.093182248644389E-3    1.609093474391963E-2   -7.607757457954395E-3    2.434287981307892E-1    4.920581931985484E-1
 6.517550728000000E9    -2.247012147104214E-1   -8.845459740472843E-3    1.608907769567311E-2   -8.287571550288982E-3    1.632936663426770E-2   -7.698985951672370E-3    2.442060231038161E-1    4.916244988732184E-1
 6.517562284600000E9    -2.244750721414034E-1   -8.668358806718004E-3    1.613532019122028E-2   -8.446908954963122E-3    1.640984600802658E-2   -7.844283446238056E-3    2.451676193056643E-1    4.912504821723589E-1
 6.517573841200000E9    -2.243182601357316E-1   -8.549703315559596E-3    1.613336840202764E-2   -8.450567330427601E-3    1.645223482467611E-2   -7.858541814504209E-3    2.460611872340741E-1    4.907600788622149E-1
 6.517585397800000E9    -2.242223622667592E-1   -8.493245391593291E-3    1.634115691276431E-2   -8.520527409876126E-3    1.643511180978960E-2   -8.008331767392941E-3    2.468053555674182E-1    4.904112008452177E-1
 6.517596954400000E9    -2.239485173887272E-1   -8.366130529991198E-3    1.628848177993417E-2   -8.515777119773346E-3    1.651861705387929E-2   -7.989331881070431E-3    2.477093073227735E-1    4.900073443865771E-1
 6.517608511000000E9    -2.237859674220382E-1   -8.133087001867580E-3    1.649298216613571E-2   -8.649271501346180E-3    1.657313370053968E-2   -8.129545203903422E-3    2.484759261559749E-1    4.894960762040533E-1
 6.517620067600000E9    -2.236403708007917E-1   -8.026286186955124E-3    1.653279485204539E-2   -8.688982590472252E-3    1.685723179378034E-2   -8.182430918152538E-3    2.493607415079481E-1    4.890591280162825E-1
 6.517631624200000E9    -2.235186687340899E-1   -7.830334101292219E-3    1.657565361849318E-2   -8.723526837270949E-3    1.687982500420827E-2   -8.322655601548743E-3    2.501319707121832E-1    4.886836925819010E-1
 6.517643180800000E9    -2.234325869774399E-1   -7.716441462296269E-3    1.666085031538175E-2   -9.027622693876500E-3    1.697375242661870E-2   -8.478688209504814E-3    2.510989661224611E-1    4.882118797177650E-1
 6.517654737400000E9    -2.231473378918030E-1   -7.589843401961421E-3    1.677948906786250E-2   -8.901797759180451E-3    1.706376172826870E-2   -8.484930789950789E-3    2.520124154188201E-1    4.876075635029584E-1
 6.517666294000000E9    -2.231473865280119E-1   -7.428390718995388E-3    1.673624547871476E-2   -9.167592346112603E-3    1.708454922004015E-2   -8.701275054485813E-3    2.527004033772730E-1    4.873428053669423E-1
 6.517677850600000E9    -2.226715078210867E-1   -7.356406277485697E-3    1.681256476341883E-2   -9.205756787954638E-3    1.717511305395631E-2   -8.773902742924541E-3    2.536706177907081E-1    4.869267890157846E-1
 6.517689407200000E9    -2.226513094794100E-1   -7.192094649172835E-3    1.694704914716980E-2   -9.296081766381420E-3    1.725307181658330E-2   -8.760283584810239E-3    2.544895857101401E-1    4.865235020977942E-1
 6.517700963800000E9    -2.225069793011483E-1   -7.120475034133663E-3    1.709001110328602E-2   -9.437459020947232E-3    1.735996895009290E-2   -8.851918890437951E-3    2.554359945797595E-1    4.859605195725304E-1
 6.517712520400000E9    -2.223418575487276E-1   -6.876911779111932E-3    1.711069041369575E-2   -9.584455993310407E-3    1.747740501081446E-2   -9.030852541144205E-3    2.560762011963222E-1    4.856276649745412E-1
 6.517724077000000E9    -2.221192259986544E-1   -6.869232144153335E-3    1.725589159126750E-2   -9.659209635958893E-3    1.760817945285578E-2   -9.198287079121429E-3    2.570674811372443E-1    4.851800782463672E-1
 6.517735633600000E9    -2.219931418368029E-1   -6.665850771979312E-3    1.740351859563077E-2   -9.638276115762571E-3    1.773032959221619E-2   -9.163589783244139E-3    2.577835130005099E-1    4.846302127582954E-1
 6.517747190200000E9    -2.218564296170469E-1   -6.589496091619042E-3    1.755382987598136E-2   -9.798947198491476E-3    1.773781622664801E-2   -9.227501508357720E-3    2.587928222509005E-1    4.841402637803005E-1
 6.517758746800000E9    -2.216162769046116E-1   -6.467810559813402E-3    1.755494920498067E-2   -1.001045165885672E-2    1.793147579536475E-2   -9.300911634644497E-3    2.597170647637567E-1    4.836592126650203E-1
 6.517770303400000E9    -2.213343403789310E-1   -6.382697351918544E-3    1.774955478556826E-2   -9.965272963495229E-3    1.803814782077877E-2   -9.533279584947743E-3    2.605005425396814E-1    4.833045128817303E-1
 6.517781860000000E9    -2.212988507972495E-1   -6.272425816049212E-3    1.770186892107268E-2   -1.017851915039875E-2    1.798689212284538E-2   -9.561480107072834E-3    2.613378285075548E-1    4.828518463322407E-1
 6.517793416600000E9    -2.209422848648811E-1   -6.120781247634622E-3    1.780936544322332E-2   -1.033484342909847E-2    1.814987627470105E-2   -9.665262831398298E-3    2.622036919560694E-1    4.822102877482483E-1
 6.517804973200000E9    -2.208711666513883E-1   -6.178305382726110E-3    1.790769743128080E-2   -1.040656098185551E-2    1.827765660922545E-2   -9.796767671677436E-3    2.629966185888214E-1    4.818693594814965E-1
 6.517816529800000E9    -2.206884902529299E-1   -5.941844692939303E-3    1.798475037540992E-2   -1.058842845774048E-2    1.832509909429467E-2   -9.949274914672816E-3    2.638832809058442E-1    4.813251639956483E-1
 6.517828086400000E9    -2.204887261746382E-1   -5.872772765064791E-3    1.815328072865959E-2   -1.064776082963372E-2    1.856106721354623E-2   -9.941156042157080E-3    2.647887965896847E-1    4.809092311122524E-1
 6.517839643000000E9    -2.202765186616364E-1   -5.682395674505749E-3    1.832527261054876E-2   -1.074987344366395E-2    1.856329096149576E-2   -1.010490871423264E-2    2.656824500068227E-1    4.802985252742866E-1
 6.517851199600000E9    -2.200882648913092E-1   -5.596715888781645E-3    1.841763870016093E-2   -1.087012072580990E-2    1.871623016853784E-2   -1.021594982534328E-2    2.665007850458130E-1    4.800590799281383E-1
 6.517862756200000E9    -2.198612791749946E-1   -5.496646257070700E-3    1.847017009429595E-2   -1.106405994881082E-2    1.881750459395818E-2   -1.045365761596445E-2    2.674385102744334E-1    4.794059304372774E-1
 6.517874312800000E9    -2.197389912730726E-1   -5.412806321466977E-3    1.875952842318378E-2   -1.119347098286284E-2    1.886304530447882E-2   -1.054638127917017E-2    2.681882642746460E-1    4.789960332672811E-1
 6.517885869400000E9    -2.195870074280384E-1   -5.360730077690811E-3    1.859226586371688E-2   -1.123037618902427E-2    1.895853984347624E-2   -1.064507550902973E-2    2.691045869414169E-1    4.785889258756119E-1
 6.517897426000000E9    -2.192589161030768E-1   -5.195762102323987E-3    1.877416810994377E-2   -1.146955868265224E-2    1.913011924543263E-2   -1.074008373454887E-2    2.698390963613466E-1    4.780085983251002E-1
 6.517908982600000E9    -2.191194541059231E-1   -5.102766511645326E-3    1.887071069122154E-2   -1.142528478599929E-2    1.932713484075352E-2   -1.087681082553654E-2    2.707591826920840E-1    4.775056255003677E-1
 6.517920539200000E9    -2.189089777607602E-1   -5.096116473065971E-3    1.899105965993218E-2   -1.161917346747541E-2    1.936012485052669E-2   -1.100021390976329E-2    2.716442596680564E-1    4.768930595743889E-1
 6.517932095800000E9    -2.186125010367336E-1   -4.919163678046154E-3    1.917494135151905E-2   -1.165351091823844E-2    1.945413849549750E-2   -1.111961988094602E-2    2.724852428221889E-1    4.764808980142572E-1
 6.517943652400000E9    -2.185278109301528E-1   -4.801644206288143E-3    1.918888979082257E-2   -1.192136053745144E-2    1.960330969963450E-2   -1.126253525842248E-2    2.734721111221807E-1    4.759102209161279E-1
 6.517955209000000E9    -2.182783657645666E-1   -4.761635685679763E-3    1.948075792660310E-2   -1.209657042701104E-2    1.977575785427483E-2   -1.140199377646310E-2    2.741428379295501E-1    4.754197888028199E-1
 6.517966765600000E9    -2.180607552177538E-1   -4.749013159911736E-3    1.940857357289880E-2   -1.218448825459029E-2    1.982938620218674E-2   -1.156933377280938E-2    2.751008872193438E-1    4.749844176524325E-1
 6.517978322200000E9    -2.178452169333761E-1   -4.646277344062285E-3    1.958280808329849E-2   -1.234830762694272E-2    1.995327035423356E-2   -1.164539469961366E-2    2.759571118416585E-1    4.744481529993692E-1
 6.517989878800000E9    -2.176969645575896E-1   -4.594509038079041E-3    1.975996821889487E-2   -1.257939845373955E-2    2.007785493260169E-2   -1.188345897382730E-2    2.768737296436433E-1    4.739088750010493E-1
 6.518001435400000E9    -2.173322399487980E-1   -4.509384843483308E-3    1.984832036069599E-2   -1.262225083570011E-2    2.021191658921309E-2   -1.200491536679597E-2    2.776230199112536E-1    4.733960547823153E-1
 6.518012992000000E9    -2.171082554278795E-1   -4.441863268911181E-3    1.994851729162026E-2   -1.288955860192123E-2    2.036679117910548E-2   -1.217695248281342E-2    2.785158767805814E-1    4.729091866505774E-1
 6.518024548600000E9    -2.170180624760524E-1   -4.324386992480464E-3    2.015643138152157E-2   -1.289894430528326E-2    2.046866050402244E-2   -1.233715269787651E-2    2.795368726806146E-1    4.722681926183106E-1
 6.518036105200000E9    -2.167081319722460E-1   -4.285863789276581E-3    2.029415698472335E-2   -1.312632051299708E-2    2.063266802352885E-2   -1.245669398354378E-2    2.802735782638893E-1    4.716773050954523E-1
 6.518047661800000E9    -2.166022239711899E-1   -4.264206698352307E-3    2.023937445155869E-2   -1.332788260178389E-2    2.074808952878430E-2   -1.273124013061547E-2    2.811291995134522E-1    4.711801926190569E-1
 6.518059218400000E9    -2.162197302866908E-1   -4.189226901674846E-3    2.034185230756958E-2   -1.341943635277778E-2    2.088613336026092E-2   -1.276981593790657E-2    2.820148096442933E-1    4.705615688269728E-1
 6.518070775000000E9    -2.159939258005943E-1   -4.063952214446368E-3    2.047290347461094E-2   -1.363636383768534E-2    2.105166500754699E-2   -1.288204159812335E-2    2.830165290381947E-1    4.702205957635783E-1
 6.518082331600000E9    -2.158132378240158E-1   -4.108862243777657E-3    2.082631567421124E-2   -1.389609564716496E-2    2.118659529806074E-2   -1.326341740305202E-2    2.837666988921995E-1    4.695168266715992E-1
 6.518093888200000E9    -2.155838567633539E-1   -4.135748519336874E-3    2.086746453249853E-2   -1.385200970075425E-2    2.127023799173486E-2   -1.332843029472301E-2    2.845027954476311E-1    4.689044887089392E-1
 6.518105444800000E9    -2.151761432540586E-1   -4.026775264758795E-3    2.094599820562822E-2   -1.417518566745614E-2    2.149251367386648E-2   -1.351845520132857E-2    2.855311552250740E-1    4.682877421951865E-1
 6.518117001400000E9    -2.150639060641377E-1   -3.826808281262404E-3    2.112945528346764E-2   -1.424912796664449E-2    2.159380418792678E-2   -1.370555190872157E-2    2.863305358482078E-1    4.678600897621291E-1
 6.518128558000000E9    -2.147878176392298E-1   -3.860961165252806E-3    2.121794674536780E-2   -1.455105587072023E-2    2.177790936001907E-2   -1.384206727531464E-2    2.872816842636474E-1    4.672314186906366E-1
