#  HZ   S   RI   R     50.00 
! Rohde & Schwarz Vector Network Analyzer 
! Rohde-Schwarz,ZNB20-2Port,1311601062101988,3.16
! Created: UTC 12/23/2023, 3:44:45 AM
! freq[Hz]                re:S11                  im:S11                  re:S21                  im:S21                  re:S12                  im:S12                  re:S22                  im:S22
 6.516940753000000E9    -2.308301796640827E-1   -1.831232380454199E-2    1.311142444178550E-2   -5.269893512086901E-3    1.317089483552627E-2   -4.755878960742854E-3    1.992949059586324E-1    5.108748108888947E-1
 6.516952794725000E9    -2.307846030164342E-1   -1.824489172021359E-2    1.308515465604914E-2   -5.235342353183047E-3    1.321746790782141E-2   -4.807713715050769E-3    2.000561837243730E-1    5.104930543422838E-1
 6.516964836450000E9    -2.307605615903220E-1   -1.807184688691833E-2    1.314893068252501E-2   -5.254058432652812E-3    1.315237048502390E-2   -4.883084854246413E-3    2.010539195943386E-1    5.101211749845243E-1
 6.516976878175000E9    -2.305848995636088E-1   -1.769125790362367E-2    1.323744698413192E-2   -5.240584275243534E-3    1.330362725327247E-2   -4.889159030744620E-3    2.020274228599155E-1    5.097627121433432E-1
 6.516988919900000E9    -2.304805713191558E-1   -1.763309028411457E-2    1.331056818873368E-2   -5.291213777323208E-3    1.326380818859110E-2   -5.001591064188926E-3    2.027848761321178E-1    5.094005501883158E-1
 6.517000961625000E9    -2.302810170974774E-1   -1.744490059301610E-2    1.326663547078168E-2   -5.318424024538728E-3    1.343399770572457E-2   -5.073123337012665E-3    2.038735788559315E-1    5.090408677531845E-1
 6.517013003350000E9    -2.302135774583954E-1   -1.731633222821394E-2    1.339972068258287E-2   -5.522605625044152E-3    1.345723994310197E-2   -5.085803051725907E-3    2.045950613651246E-1    5.087281284796062E-1
 6.517025045075000E9    -2.300597571611504E-1   -1.710776959636325E-2    1.337652687973344E-2   -5.611729492034683E-3    1.363186645190715E-2   -5.018221157467369E-3    2.054404287406077E-1    5.084014418280799E-1
 6.517037086800000E9    -2.300267034255545E-1   -1.690997860031474E-2    1.361683059888806E-2   -5.658825391583033E-3    1.359874876968491E-2   -5.150768979745447E-3    2.064488440963052E-1    5.081249206935792E-1
 6.517049128525000E9    -2.298473303347512E-1   -1.672096949961672E-2    1.350561021499581E-2   -5.599228799396627E-3    1.366742488684420E-2   -5.136725333668017E-3    2.072920679568750E-1    5.077173655279539E-1
 6.517061170250000E9    -2.296711338656343E-1   -1.652797716557654E-2    1.361804953848045E-2   -5.859503092480426E-3    1.372640715491353E-2   -5.278199226251156E-3    2.081415894711753E-1    5.073613129361256E-1
 6.517073211975000E9    -2.295824025659801E-1   -1.629953744826516E-2    1.369903425867725E-2   -5.756441097311608E-3    1.378991492998191E-2   -5.216379818484042E-3    2.089797327367663E-1    5.070525778112932E-1
 6.517085253700000E9    -2.294619653770403E-1   -1.617114601569915E-2    1.380344509676218E-2   -5.932175527335632E-3    1.375819155090010E-2   -5.265721254517400E-3    2.099654743178119E-1    5.067217275328615E-1
 6.517097295425000E9    -2.293866607591274E-1   -1.602390018333381E-2    1.365133927519706E-2   -5.890731091464574E-3    1.393534650144440E-2   -5.381955617478600E-3    2.108123755140585E-1    5.062654500774861E-1
 6.517109337150000E9    -2.291948775339792E-1   -1.569984033232005E-2    1.372896504565863E-2   -5.995859773797870E-3    1.393041968397986E-2   -5.425784748198697E-3    2.116475552300227E-1    5.058314992072699E-1
 6.517121378875000E9    -2.290746921161064E-1   -1.553497867640259E-2    1.393613652072928E-2   -5.891980475977576E-3    1.399486865220588E-2   -5.505152832572728E-3    2.126204232069148E-1    5.055916968296561E-1
 6.517133420600000E9    -2.289652623853349E-1   -1.554885575840884E-2    1.396097824023343E-2   -5.983740036792480E-3    1.401943806238709E-2   -5.654073764372242E-3    2.135398731598706E-1    5.051321413801605E-1
 6.517145462325000E9    -2.288499521342059E-1   -1.534094928563137E-2    1.402700236408477E-2   -6.037924774036585E-3    1.415430170981068E-2   -5.556544022257781E-3    2.142757661612634E-1    5.048623659056956E-1
 6.517157504050000E9    -2.287562854777438E-1   -1.496462566887719E-2    1.384019767551294E-2   -6.126960398788355E-3    1.426289844155628E-2   -5.618887663817573E-3    2.153681235341523E-1    5.044035580501099E-1
 6.517169545775000E9    -2.286563830486578E-1   -1.482972859059068E-2    1.409445373313561E-2   -6.134702187577184E-3    1.429489168637297E-2   -5.736865473510817E-3    2.161740710828588E-1    5.041255599784042E-1
 6.517181587500000E9    -2.284624798323645E-1   -1.469760667693660E-2    1.422269593863140E-2   -6.269526673114271E-3    1.432275907573858E-2   -5.758921722156066E-3    2.170263211187724E-1    5.037063650158335E-1
 6.517193629225000E9    -2.283362190651351E-1   -1.448115605808597E-2    1.420743229919903E-2   -6.239479161849617E-3    1.439080035367057E-2   -5.889737470981721E-3    2.180441453720438E-1    5.033687420824753E-1
 6.517205670950000E9    -2.282298120964655E-1   -1.432615160797217E-2    1.421123434230082E-2   -6.522782947607055E-3    1.437706038344821E-2   -5.953202171594942E-3    2.188536252126447E-1    5.030264236885214E-1
 6.517217712675000E9    -2.281150907699031E-1   -1.416906606064364E-2    1.444759083278320E-2   -6.538806446065227E-3    1.444677818367667E-2   -5.969189916017947E-3    2.197069698317657E-1    5.026211953338726E-1
 6.517229754400000E9    -2.278739476534516E-1   -1.385480739071173E-2    1.446977806687524E-2   -6.541396279612656E-3    1.450174122209602E-2   -6.001952791426177E-3    2.206000160048374E-1    5.022849731831066E-1
 6.517241796125000E9    -2.278760738145464E-1   -1.382837355282651E-2    1.452598475909657E-2   -6.532141923503394E-3    1.464435764402329E-2   -6.133663202102364E-3    2.216274763995294E-1    5.017488440401464E-1
 6.517253837850000E9    -2.275700116454986E-1   -1.365320518380918E-2    1.451715798848696E-2   -6.677618845712770E-3    1.470152926360425E-2   -6.142613550555503E-3    2.224298542257981E-1    5.014406019224736E-1
 6.517265879575000E9    -2.273618151888105E-1   -1.348747797385554E-2    1.467770502852201E-2   -6.646047808254981E-3    1.469494377630705E-2   -6.272423831607576E-3    2.233474873886338E-1    5.011442508803980E-1
 6.517277921300000E9    -2.273109736633103E-1   -1.328144797500654E-2    1.468949831033007E-2   -6.839162831862852E-3    1.484927836153442E-2   -6.273311137321010E-3    2.241332723908460E-1    5.006977973506691E-1
 6.517289963025000E9    -2.272320529964021E-1   -1.309060878091914E-2    1.476427373136460E-2   -6.847529615128710E-3    1.493757012430608E-2   -6.207003974156458E-3    2.251539127809589E-1    5.001060532165995E-1
 6.517302004750000E9    -2.271131647213756E-1   -1.295397373288852E-2    1.488624518419010E-2   -6.906217391887255E-3    1.494106942850307E-2   -6.378518883743829E-3    2.258606917584621E-1    5.000097888859819E-1
 6.517314046475000E9    -2.269619876109565E-1   -1.283598720802008E-2    1.484462755250696E-2   -6.931060379951661E-3    1.509010093261050E-2   -6.581443255792639E-3    2.268285151192351E-1    4.995512623825362E-1
 6.517326088200000E9    -2.267243798475055E-1   -1.262404603982587E-2    1.492306257598890E-2   -7.043411608857035E-3    1.511738165585246E-2   -6.479362895439400E-3    2.278531479634343E-1    4.992449959891822E-1
 6.517338129925000E9    -2.266188063443768E-1   -1.239623598871811E-2    1.511239719031157E-2   -7.141826370686078E-3    1.517359355933955E-2   -6.665117098135317E-3    2.286153649275989E-1    4.988923151742418E-1
 6.517350171650000E9    -2.265178712782561E-1   -1.211082301844975E-2    1.519459217080244E-2   -7.225970676528280E-3    1.531381994051612E-2   -6.725870091389884E-3    2.294276548592657E-1    4.982263812327397E-1
 6.517362213375000E9    -2.263922770442771E-1   -1.214140648314863E-2    1.515915663539590E-2   -7.400196213907855E-3    1.530085116300300E-2   -6.851623986685651E-3    2.305516300319349E-1    4.979246854011699E-1
 6.517374255100000E9    -2.263058641574625E-1   -1.200668193301423E-2    1.528276730852103E-2   -7.407910520097365E-3    1.552270366091675E-2   -6.880514912738548E-3    2.313486117224950E-1    4.976014910723294E-1
 6.517386296825000E9    -2.260179133327487E-1   -1.171125277497132E-2    1.538609810777459E-2   -7.596949392771052E-3    1.552577272928361E-2   -6.868479804874593E-3    2.322164627890236E-1    4.971329980711636E-1
 6.517398338550000E9    -2.259240494668857E-1   -1.166874507035087E-2    1.541622211924509E-2   -7.566975548307064E-3    1.551223271519626E-2   -6.899536467270974E-3    2.331371836315855E-1    4.966985111428658E-1
 6.517410380275000E9    -2.258387525471340E-1   -1.138925173474474E-2    1.556860982666764E-2   -7.600635152136880E-3    1.562024481206238E-2   -7.088907343019590E-3    2.339973030977569E-1    4.963701095875056E-1
 6.517422422000000E9    -2.255688143998535E-1   -1.128572866425434E-2    1.555038007318029E-2   -7.800164599254162E-3    1.573363192238793E-2   -7.092250738520056E-3    2.348563365847229E-1    4.958542239766685E-1
 6.517434463725000E9    -2.254556538583633E-1   -1.118254345641455E-2    1.557206784086773E-2   -7.860600905803403E-3    1.581016493693623E-2   -7.267051410996663E-3    2.357701315035055E-1    4.955106233952016E-1
 6.517446505450000E9    -2.253250828209503E-1   -1.099884750437663E-2    1.576241281161759E-2   -7.900630369615689E-3    1.588296452780448E-2   -7.359443498949537E-3    2.365712233958374E-1    4.950209746752219E-1
 6.517458547175000E9    -2.250854930380362E-1   -1.090072514973962E-2    1.578169202254874E-2   -7.931397518345502E-3    1.593231149002455E-2   -7.342129741486666E-3    2.374938646614152E-1    4.946022944331372E-1
 6.517470588900000E9    -2.250650737548246E-1   -1.060801938795326E-2    1.589143045187393E-2   -7.897026459403099E-3    1.595130410789323E-2   -7.356290939369839E-3    2.383005578813330E-1    4.941853140611663E-1
 6.517482630625000E9    -2.248210667661607E-1   -1.062149904370702E-2    1.588749646483125E-2   -8.050250734522774E-3    1.618034085287247E-2   -7.661384635296182E-3    2.392952163867322E-1    4.938022599690040E-1
 6.517494672350000E9    -2.245702579386694E-1   -1.027273685767036E-2    1.600846476227707E-2   -8.043228259092362E-3    1.618587242040594E-2   -7.702209486941938E-3    2.402344395217632E-1    4.933522732077711E-1
 6.517506714075000E9    -2.244070643860855E-1   -1.022519136295442E-2    1.617868929354038E-2   -8.273947480155554E-3    1.626405224977164E-2   -7.687410242840019E-3    2.411479659678238E-1    4.928008743776609E-1
 6.517518755800000E9    -2.243532936707212E-1   -1.009717115819699E-2    1.610373606719320E-2   -8.395695917138500E-3    1.644844307895892E-2   -7.918704522400621E-3    2.420047498194220E-1    4.924976480452550E-1
 6.517530797525000E9    -2.241737567457048E-1   -9.968855374175368E-3    1.627730710722700E-2   -8.505172649398521E-3    1.635627826245387E-2   -7.940896719366701E-3    2.430278938142950E-1    4.920766057073694E-1
 6.517542839250000E9    -2.239750268206196E-1   -9.739154742771738E-3    1.646787937121645E-2   -8.588489647080822E-3    1.655991945138629E-2   -7.941042272243270E-3    2.438161437260459E-1    4.915422923560898E-1
 6.517554880975000E9    -2.239003708839370E-1   -9.635360023855422E-3    1.635598442249194E-2   -8.665514714723222E-3    1.662149668792291E-2   -8.144189820231606E-3    2.446227875261351E-1    4.910784643583123E-1
 6.517566922700000E9    -2.237205992751433E-1   -9.539469074416621E-3    1.633116875063233E-2   -8.704901391784000E-3    1.674416559648497E-2   -8.187941031501368E-3    2.455370298275665E-1    4.907770891165998E-1
 6.517578964425000E9    -2.235537525405811E-1   -9.335053172361203E-3    1.660895112631436E-2   -8.652574856704084E-3    1.681381796323541E-2   -8.332059852924152E-3    2.464767308617358E-1    4.902398314403788E-1
 6.517591006150000E9    -2.233788331217681E-1   -9.217680509416220E-3    1.668397785873545E-2   -8.963738724789090E-3    1.691134325212914E-2   -8.366755244419044E-3    2.472230482555979E-1    4.898007156739231E-1
 6.517603047875000E9    -2.231458889738160E-1   -9.047669742711061E-3    1.664901326159473E-2   -9.048128767524014E-3    1.700914905551891E-2   -8.329920425917249E-3    2.482764077109518E-1    4.893637722775081E-1
 6.517615089600000E9    -2.229369485509707E-1   -8.922572178996474E-3    1.685863601068853E-2   -9.015384186258777E-3    1.708947563196652E-2   -8.635745850322006E-3    2.491294259456042E-1    4.888890100192266E-1
 6.517627131325000E9    -2.227846665082893E-1   -8.809652421259020E-3    1.702506661920258E-2   -9.335636066022810E-3    1.720996709741407E-2   -8.627840593576259E-3    2.499032439585627E-1    4.885175136826334E-1
 6.517639173050000E9    -2.225921836055382E-1   -8.567550273519577E-3    1.699296632982554E-2   -9.296186151272211E-3    1.740215482476562E-2   -8.721896545387938E-3    2.509716504836030E-1    4.879788935183946E-1
 6.517651214775000E9    -2.224108103635196E-1   -8.688544181849747E-3    1.711221356245299E-2   -9.354633379938615E-3    1.744833958279297E-2   -8.819740438010253E-3    2.516464136593915E-1    4.875308427061947E-1
 6.517663256500000E9    -2.221274927960138E-1   -8.407232861245574E-3    1.727278773965967E-2   -9.586789119804874E-3    1.753230651388811E-2   -8.884641207686327E-3    2.526232036351678E-1    4.871098298742127E-1
 6.517675298225000E9    -2.220830991952840E-1   -8.329251752976325E-3    1.730259144831866E-2   -9.646162771051263E-3    1.756173311731666E-2   -9.034687841713478E-3    2.534538032646786E-1    4.865749476050182E-1
 6.517687339950000E9    -2.218937150401379E-1   -8.136477033955401E-3    1.737044919298495E-2   -9.881277472351593E-3    1.764588308543170E-2   -9.095616306859396E-3    2.546029057363196E-1    4.862161406995470E-1
 6.517699381675000E9    -2.217602392927616E-1   -8.039045464170969E-3    1.754835182736516E-2   -9.851344620308726E-3    1.782121684022852E-2   -9.345295402052704E-3    2.553051104701102E-1    4.856381464381825E-1
 6.517711423400000E9    -2.215591369894901E-1   -7.825014186046851E-3    1.768821993052088E-2   -9.853392377187631E-3    1.790706043759951E-2   -9.330870905625741E-3    2.561286930323527E-1    4.851932023427797E-1
 6.517723465125000E9    -2.213524911428283E-1   -7.819339756665392E-3    1.778296371325741E-2   -9.968083824620550E-3    1.807128427696027E-2   -9.477986561444145E-3    2.570896865980897E-1    4.847090966506819E-1
 6.517735506850000E9    -2.211855889654662E-1   -7.690482430464272E-3    1.774020897977428E-2   -1.025839033252032E-2    1.814982138300764E-2   -9.588156437042528E-3    2.579530020878515E-1    4.840910265795244E-1
 6.517747548575000E9    -2.209386864007494E-1   -7.533607384840058E-3    1.787848658862025E-2   -1.030578896374264E-2    1.815364486404411E-2   -9.713431024929517E-3    2.588449040898375E-1    4.837212395464250E-1
 6.517759590300000E9    -2.206888747359572E-1   -7.454070386635724E-3    1.806407625659293E-2   -1.048668221473735E-2    1.835979837144148E-2   -9.907336932424082E-3    2.597319111150976E-1    4.832047429347645E-1
 6.517771632025000E9    -2.204816909393097E-1   -7.315851255829434E-3    1.807789451005652E-2   -1.063433756350685E-2    1.843448327200045E-2   -9.984778921721603E-3    2.607004440818260E-1    4.827566839307099E-1
 6.517783673750000E9    -2.203520268563453E-1   -7.274118113383890E-3    1.819435327300999E-2   -1.069767355090429E-2    1.851885772943846E-2   -1.005871815531164E-2    2.615235912307141E-1    4.823268941210978E-1
 6.517795715475000E9    -2.201541739097266E-1   -7.129026229350322E-3    1.835838163317107E-2   -1.084647328805353E-2    1.863408781696943E-2   -1.026698130297498E-2    2.625954190931939E-1    4.817036079186915E-1
 6.517807757200000E9    -2.199584845043426E-1   -7.017036636933897E-3    1.849214603982826E-2   -1.095923356627047E-2    1.869873531705667E-2   -1.030772100089001E-2    2.635021098943007E-1    4.812294578723524E-1
 6.517819798925000E9    -2.196873295652245E-1   -6.850935109562299E-3    1.863474041853355E-2   -1.098278244918856E-2    1.882777146666681E-2   -1.042871036520213E-2    2.643084265463028E-1    4.806724662026588E-1
 6.517831840650000E9    -2.195440052253212E-1   -6.879938716136010E-3    1.871572173328313E-2   -1.110730654142729E-2    1.904726691659537E-2   -1.066018351675814E-2    2.652250530581104E-1    4.803128634246873E-1
 6.517843882375000E9    -2.193627616792387E-1   -6.793387003155869E-3    1.884556509759435E-2   -1.132050491678251E-2    1.906471013098984E-2   -1.069247911759484E-2    2.661854667771298E-1    4.796235709930000E-1
 6.517855924100000E9    -2.190207603961964E-1   -6.652020429438143E-3    1.899702658308442E-2   -1.142218016471800E-2    1.921587213653245E-2   -1.091814944297068E-2    2.670700169410877E-1    4.793337452990552E-1
 6.517867965825000E9    -2.188971569111452E-1   -6.499827944080465E-3    1.893814603658051E-2   -1.172904258641159E-2    1.937252184662160E-2   -1.103882152573846E-2    2.679624156957497E-1    4.787075420040831E-1
 6.517880007550000E9    -2.186689690055396E-1   -6.428572633985352E-3    1.904399268519459E-2   -1.172516951703542E-2    1.946008659882038E-2   -1.107621015890410E-2    2.689506146750544E-1    4.781265215675281E-1
 6.517892049275000E9    -2.183753624443513E-1   -6.383248319376929E-3    1.921009729743999E-2   -1.187295435758159E-2    1.962729569353206E-2   -1.124527655643472E-2    2.697719494361810E-1    4.775613763601141E-1
 6.517904091000000E9    -2.181869468612388E-1   -6.306454444827313E-3    1.937754894986158E-2   -1.204200819633750E-2    1.977351728258657E-2   -1.148959998597009E-2    2.706535539903613E-1    4.771381474035544E-1
 6.517916132725000E9    -2.181266968836639E-1   -6.220172384136869E-3    1.952145751572527E-2   -1.228304344953682E-2    1.991214614037111E-2   -1.153901104936410E-2    2.715276650143533E-1    4.765600429603850E-1
 6.517928174450000E9    -2.178132070182494E-1   -6.160448680942347E-3    1.944672531353628E-2   -1.248318081149498E-2    2.004071494445478E-2   -1.168817049719117E-2    2.724143298107902E-1    4.761776504876440E-1
 6.517940216175000E9    -2.175951657364928E-1   -6.040227682222778E-3    1.982105771295941E-2   -1.251722956700157E-2    2.007653256461218E-2   -1.186195217026446E-2    2.733450976386506E-1    4.754614106820586E-1
 6.517952257900000E9    -2.173744822967535E-1   -6.040162825415120E-3    1.981706235550010E-2   -1.257410626668632E-2    2.037291935725261E-2   -1.200367337234648E-2    2.741670127958351E-1    4.749807703987670E-1
 6.517964299625000E9    -2.170583088453811E-1   -5.901622406687234E-3    1.992084575073591E-2   -1.287685089424406E-2    2.037587146711298E-2   -1.215961004212233E-2    2.751023896312908E-1    4.743876441154557E-1
 6.517976341350000E9    -2.169209220479969E-1   -5.866990164622660E-3    2.008597306161584E-2   -1.302809837623393E-2    2.051643543435628E-2   -1.236266842753876E-2    2.760021442621610E-1    4.738223213078294E-1
 6.517988383075000E9    -2.164730468129971E-1   -5.807247471814114E-3    2.027082120623470E-2   -1.320352023399203E-2    2.064804617194954E-2   -1.255628724363069E-2    2.770000097154103E-1    4.733698052575612E-1
 6.518000424800000E9    -2.164064868336307E-1   -5.678584940651162E-3    2.045803060305043E-2   -1.325563368885891E-2    2.087168337829163E-2   -1.271817969019556E-2    2.777026215971729E-1    4.727732926534500E-1
 6.518012466525000E9    -2.161028077289597E-1   -5.701065309138035E-3    2.037141067896839E-2   -1.337801977017969E-2    2.091447426024569E-2   -1.287275433486761E-2    2.788210265248829E-1    4.720941783663807E-1
 6.518024508250000E9    -2.159866732252893E-1   -5.655100792881411E-3    2.057988107216167E-2   -1.376085879258819E-2    2.116979671784511E-2   -1.303896603923127E-2    2.795983808054711E-1    4.715628350983586E-1
