#  HZ   S   RI   R     50.00 
! Rohde & Schwarz Vector Network Analyzer 
! Rohde-Schwarz,ZNB20-2Port,1311601062101988,3.16
! Created: UTC 12/23/2023, 3:45:28 AM
! freq[Hz]                re:S11                  im:S11                  re:S21                  im:S21                  re:S12                  im:S12                  re:S22                  im:S22
 7.837016122000000E9     5.651064457521759E-1    3.438084875062009E-2    1.212964239589957E-3    3.760538613514125E-3    1.237952771445066E-3    3.685852641029708E-3    4.666340916843631E-1   -2.710814717012147E-1
 7.837049465950000E9     5.654089414401905E-1    3.214826732831670E-2    1.223044597003540E-3    3.754873839566980E-3    1.252212755476295E-3    3.676364071502697E-3    4.653178337839819E-1   -2.731781688498037E-1
 7.837082809900000E9     5.654801549994816E-1    3.013785978819992E-2    1.237623099952277E-3    3.765168694413240E-3    1.236573711205332E-3    3.722575894345583E-3    4.640790380488165E-1   -2.752431329395932E-1
 7.837116153850000E9     5.658013345132360E-1    2.782773584195335E-2    1.268616050214201E-3    3.758052295534383E-3    1.268059025440937E-3    3.660136622498433E-3    4.629435025539881E-1   -2.771210861712937E-1
 7.837149497800000E9     5.657835017921850E-1    2.563151307291925E-2    1.306288502448976E-3    3.774254915399974E-3    1.320965444045215E-3    3.720837646625340E-3    4.618629612094630E-1   -2.792722229159583E-1
 7.837182841750000E9     5.658760986909765E-1    2.348695390872635E-2    1.272580207114691E-3    3.774276487902197E-3    1.330009276153659E-3    3.680177989696928E-3    4.606224924772791E-1   -2.812062941844290E-1
 7.837216185700000E9     5.660040068264420E-1    2.128291953738156E-2    1.331775321668224E-3    3.747467336565198E-3    1.363601901246053E-3    3.678874016364313E-3    4.593765756350983E-1   -2.832361469454132E-1
 7.837249529650000E9     5.661080376498755E-1    1.898225568956750E-2    1.352854265698056E-3    3.757627257630858E-3    1.356312525362746E-3    3.666135160464216E-3    4.582516004870241E-1   -2.850343404740082E-1
 7.837282873600000E9     5.661949200993800E-1    1.674510220267708E-2    1.335763670151706E-3    3.738003267533975E-3    1.396411576114223E-3    3.676192317407297E-3    4.569258899183422E-1   -2.871924924968826E-1
 7.837316217550000E9     5.662097800595122E-1    1.476960004757186E-2    1.378768305682254E-3    3.749238827292996E-3    1.411337142399099E-3    3.679539292447909E-3    4.557509807212903E-1   -2.890967420436031E-1
 7.837349561500000E9     5.662826304646734E-1    1.233365841535748E-2    1.406273052733603E-3    3.759913785002091E-3    1.435690248321336E-3    3.701863185924100E-3    4.545594847901493E-1   -2.910430049886151E-1
 7.837382905450000E9     5.662506205208815E-1    1.024202705405757E-2    1.437692544469118E-3    3.774223978707284E-3    1.429273137762701E-3    3.665737671431864E-3    4.531856166624511E-1   -2.930129275866472E-1
 7.837416249400000E9     5.663872091948455E-1    7.912814929078582E-3    1.450777109163642E-3    3.752756159592664E-3    1.441537222454534E-3    3.670515608343247E-3    4.519450582744650E-1   -2.951409001068766E-1
 7.837449593350000E9     5.665638575317298E-1    5.740991171261222E-3    1.442681152112188E-3    3.756669430398215E-3    1.473496915217187E-3    3.699682340837093E-3    4.505847173308035E-1   -2.969174750169566E-1
 7.837482937300000E9     5.665568566886554E-1    3.446101206237033E-3    1.465311549838628E-3    3.746936424992560E-3    1.524853476770461E-3    3.689332354379788E-3    4.492727274476963E-1   -2.989115136550648E-1
 7.837516281250000E9     5.665131587949442E-1    1.300283370382359E-3    1.466410406313005E-3    3.748346412228766E-3    1.500100537400159E-3    3.724028148517206E-3    4.480759897977108E-1   -3.009584624914432E-1
 7.837549625200000E9     5.666235741773146E-1   -9.139728996689572E-4    1.517256281259293E-3    3.725002308410105E-3    1.551266163884146E-3    3.677892213524834E-3    4.468201677386174E-1   -3.027327498296545E-1
 7.837582969150000E9     5.665184730650805E-1   -3.087500370889666E-3    1.512383767658587E-3    3.759127013017938E-3    1.520517067952570E-3    3.690689313746178E-3    4.454789856416539E-1   -3.049384298112828E-1
 7.837616313100000E9     5.664857985460277E-1   -5.453384589288218E-3    1.528891591233072E-3    3.756921951612089E-3    1.535117048713838E-3    3.684008839714962E-3    4.442168836847476E-1   -3.065777901816961E-1
 7.837649657050000E9     5.665348406327944E-1   -7.594244027402513E-3    1.567637021084367E-3    3.721971114014006E-3    1.550117626515659E-3    3.673986754856614E-3    4.427776138734682E-1   -3.086006936586868E-1
 7.837683001000000E9     5.665180649927531E-1   -9.743704492386925E-3    1.585688091418895E-3    3.736612669301565E-3    1.588018780969517E-3    3.692715571317818E-3    4.414416089417868E-1   -3.107090058402287E-1
 7.837716344950000E9     5.665431284284139E-1   -1.207247514441001E-2    1.598324299709884E-3    3.747485807141490E-3    1.599420815355405E-3    3.666211808168235E-3    4.401048279700727E-1   -3.125601216110675E-1
 7.837749688900000E9     5.664505067088702E-1   -1.411791110629587E-2    1.627545054610037E-3    3.731470609106649E-3    1.635863282160479E-3    3.664218564455991E-3    4.389015998968854E-1   -3.144651765529843E-1
 7.837783032850000E9     5.662610231674744E-1   -1.647439590185675E-2    1.662251886953836E-3    3.732423357198310E-3    1.645615574864926E-3    3.646672860614993E-3    4.375333850774369E-1   -3.163422064393390E-1
 7.837816376800000E9     5.663008714110512E-1   -1.863702694181608E-2    1.671952164836610E-3    3.744148565206117E-3    1.654207877752024E-3    3.686169042849430E-3    4.360429593561713E-1   -3.180219199976538E-1
 7.837849720750000E9     5.664039617399945E-1   -2.090063875993549E-2    1.690316345654797E-3    3.736488566028936E-3    1.685952124616115E-3    3.663673447131276E-3    4.346906346029609E-1   -3.202749650325130E-1
 7.837883064700000E9     5.662620173895782E-1   -2.311541512249774E-2    1.707871583810391E-3    3.693276620560068E-3    1.692514821784544E-3    3.663234344842298E-3    4.332396253649095E-1   -3.219646949039256E-1
 7.837916408650000E9     5.661584802074869E-1   -2.532631898341930E-2    1.744966649151959E-3    3.734847257534638E-3    1.712799242141238E-3    3.650036012808103E-3    4.320040269508333E-1   -3.238140531962525E-1
 7.837949752600000E9     5.658981308253125E-1   -2.766298242836631E-2    1.774586485829189E-3    3.723128745772005E-3    1.759091592493446E-3    3.648169077448096E-3    4.306271408360469E-1   -3.257641668836777E-1
 7.837983096550000E9     5.659260502011932E-1   -2.966622684543435E-2    1.759186839565895E-3    3.733322630470811E-3    1.750916842534354E-3    3.700196743939845E-3    4.290340142271917E-1   -3.276803469362730E-1
 7.838016440500000E9     5.658048213882689E-1   -3.188913164917042E-2    1.782993465299648E-3    3.725184805419934E-3    1.791767647700106E-3    3.677141751405343E-3    4.278084809550673E-1   -3.295859089858104E-1
 7.838049784450000E9     5.657836982077377E-1   -3.425830351228279E-2    1.795900539264605E-3    3.749817166713991E-3    1.795832839451053E-3    3.636406345481904E-3    4.263917056761075E-1   -3.313797503149699E-1
 7.838083128400000E9     5.655652107578460E-1   -3.641952567945772E-2    1.860036323937388E-3    3.718563293730762E-3    1.810936731019385E-3    3.664878301847550E-3    4.248651068006876E-1   -3.331965714947867E-1
 7.838116472350000E9     5.654888449314297E-1   -3.866510804123808E-2    1.845279576821793E-3    3.716666000171843E-3    1.807170106517507E-3    3.649796785211539E-3    4.235433635217032E-1   -3.350844999092626E-1
 7.838149816300000E9     5.652107488856459E-1   -4.081564637616428E-2    1.885717449445525E-3    3.718591178683834E-3    1.858064784349582E-3    3.675587398956977E-3    4.218994624181937E-1   -3.367916884706283E-1
 7.838183160250000E9     5.651938831480225E-1   -4.306336765298573E-2    1.882054632893821E-3    3.714167449401043E-3    1.879323824485877E-3    3.652468788547975E-3    4.205043913058177E-1   -3.387823145975517E-1
 7.838216504200000E9     5.649929740250665E-1   -4.526115589875001E-2    1.910935155220295E-3    3.725158807244083E-3    1.907543221273169E-3    3.644821033399897E-3    4.192154981518580E-1   -3.405163583107944E-1
 7.838249848150000E9     5.648239875645074E-1   -4.747722213157857E-2    1.917262024072742E-3    3.693065500771207E-3    1.929282974790168E-3    3.697651182249275E-3    4.175545586107442E-1   -3.422183363495434E-1
 7.838283192100000E9     5.645543159635233E-1   -4.963109583927686E-2    1.947975536388100E-3    3.709562782055286E-3    1.961687422365072E-3    3.651994014502569E-3    4.162337054284267E-1   -3.442327800026612E-1
 7.838316536050000E9     5.643640403437503E-1   -5.190874451724774E-2    1.963322328689837E-3    3.734809061568127E-3    1.971675818072744E-3    3.619410746272493E-3    4.147566618810359E-1   -3.460887127929902E-1
 7.838349880000000E9     5.642462199867261E-1   -5.410844907695511E-2    1.989359319453799E-3    3.722580561685413E-3    1.952798865133477E-3    3.656336746518802E-3    4.131319717251933E-1   -3.477066925091395E-1
 7.838383223950000E9     5.639493936740659E-1   -5.653722836940262E-2    2.006269945378278E-3    3.702730826402600E-3    2.005508216149842E-3    3.636849347301596E-3    4.115652393728633E-1   -3.495330289158665E-1
 7.838416567900000E9     5.638033456257325E-1   -5.858812835217157E-2    2.062125001162313E-3    3.688309080569344E-3    2.024332472499600E-3    3.632560173794985E-3    4.100899979910738E-1   -3.514169230784143E-1
 7.838449911850000E9     5.634914497079119E-1   -6.078674837626857E-2    2.046080301343846E-3    3.687841031849186E-3    2.019119249756073E-3    3.670547455690745E-3    4.087683143228138E-1   -3.531452930249614E-1
 7.838483255800000E9     5.631214613643166E-1   -6.293463956862400E-2    2.093067793520297E-3    3.719793041209419E-3    2.051329560566402E-3    3.632576097171423E-3    4.072856460202416E-1   -3.547546482448538E-1
 7.838516599750000E9     5.630818660594163E-1   -6.519981919423137E-2    2.097222250061766E-3    3.738740785309830E-3    2.084676276858024E-3    3.625976920401594E-3    4.055496710410967E-1   -3.567050071177521E-1
 7.838549943700000E9     5.628656386882663E-1   -6.741761359467194E-2    2.138274212844336E-3    3.675500090949604E-3    2.090741613241743E-3    3.609547091157796E-3    4.040027937268932E-1   -3.583259483484286E-1
 7.838583287650000E9     5.625261101782218E-1   -6.970375221932851E-2    2.181903528885102E-3    3.678913444681767E-3    2.126763538193732E-3    3.640754932704846E-3    4.024539310587468E-1   -3.602034458254986E-1
 7.838616631600000E9     5.623117092034466E-1   -7.184899697037771E-2    2.174746133962138E-3    3.666106085140250E-3    2.159156297226116E-3    3.613633261127499E-3    4.009103195191719E-1   -3.620745189373579E-1
 7.838649975550000E9     5.620251844525737E-1   -7.400897731922133E-2    2.196409633657897E-3    3.707527375770691E-3    2.158377178012810E-3    3.626464772659801E-3    3.995162336066221E-1   -3.637356668706785E-1
 7.838683319500000E9     5.618390434656706E-1   -7.635148805617120E-2    2.198505973788611E-3    3.688705766303894E-3    2.200320470085480E-3    3.630401426422535E-3    3.977957404690845E-1   -3.654514566087420E-1
 7.838716663450000E9     5.615760049509818E-1   -7.848007350777926E-2    2.245568083211585E-3    3.684395233081713E-3    2.239105764640276E-3    3.643222016563609E-3    3.963378335557836E-1   -3.672984892311675E-1
 7.838750007400000E9     5.611468746050717E-1   -8.060936449982856E-2    2.251421374777358E-3    3.692613345071323E-3    2.262481813857555E-3    3.630548530319097E-3    3.946152704928954E-1   -3.688726323213026E-1
 7.838783351350000E9     5.608150982270836E-1   -8.282920715452112E-2    2.270244150672293E-3    3.714840285122785E-3    2.271448327070001E-3    3.631927971455594E-3    3.930592630545404E-1   -3.706542804054310E-1
 7.838816695300000E9     5.603936835038743E-1   -8.524797426088068E-2    2.297159337775676E-3    3.694615675650598E-3    2.259595588273662E-3    3.630095976061338E-3    3.915994367738517E-1   -3.722814879834270E-1
 7.838850039250000E9     5.600758476748487E-1   -8.731911366562979E-2    2.314710879532886E-3    3.667682601026752E-3    2.323525575707233E-3    3.659399334931669E-3    3.898032850211224E-1   -3.739883994052781E-1
 7.838883383200000E9     5.598049848128522E-1   -8.954676078688797E-2    2.360741810588372E-3    3.681382292963115E-3    2.327206359393399E-3    3.647079416642206E-3    3.882501419358073E-1   -3.756783079855987E-1
 7.838916727150000E9     5.594443395287342E-1   -9.182770928421388E-2    2.349300004022459E-3    3.659857029054341E-3    2.358852966164478E-3    3.639894955706978E-3    3.866408325420040E-1   -3.774173644231792E-1
 7.838950071100000E9     5.591716993711057E-1   -9.386148569764367E-2    2.381237303479466E-3    3.677618322960946E-3    2.358917701652841E-3    3.595745583349612E-3    3.849868287179920E-1   -3.791645276763109E-1
 7.838983415050000E9     5.586580770567593E-1   -9.598084706073762E-2    2.404877122481839E-3    3.676941366357957E-3    2.375277186617295E-3    3.612449684008204E-3    3.833037975838166E-1   -3.807947110860699E-1
 7.839016759000000E9     5.583607059514158E-1   -9.825176510156743E-2    2.429112666064880E-3    3.665500357538407E-3    2.406498011649604E-3    3.620826029409083E-3    3.817898711153829E-1   -3.824707862007087E-1
 7.839050102950000E9     5.578622158438493E-1   -1.004781266848669E-1    2.447235004425405E-3    3.649565510624481E-3    2.432610374694706E-3    3.586715532354693E-3    3.801093401533749E-1   -3.840249556180251E-1
 7.839083446900000E9     5.575055599435027E-1   -1.027447905439190E-1    2.506896795019284E-3    3.660718141786980E-3    2.491130280883917E-3    3.610390097431127E-3    3.784126610076822E-1   -3.856262736398151E-1
 7.839116790850000E9     5.570819235330862E-1   -1.050493313226086E-1    2.520225632992813E-3    3.662913371574808E-3    2.490455516757645E-3    3.597367361214533E-3    3.766945234681409E-1   -3.872816753106912E-1
 7.839150134800000E9     5.567627876659051E-1   -1.071372648124732E-1    2.530643171332165E-3    3.664715520875172E-3    2.493900897172002E-3    3.635672085441537E-3    3.750941939531303E-1   -3.889382048404088E-1
 7.839183478750000E9     5.562733290000086E-1   -1.092200776158985E-1    2.552444748622634E-3    3.631890519824314E-3    2.506452624389188E-3    3.616989324712598E-3    3.734173749182746E-1   -3.906572150502680E-1
 7.839216822700000E9     5.559448661052045E-1   -1.114400555595731E-1    2.585871582893487E-3    3.649035809781742E-3    2.571343193278766E-3    3.615372450937418E-3    3.719244052667329E-1   -3.922308219969521E-1
 7.839250166650000E9     5.554586556707620E-1   -1.135813870056300E-1    2.605992725873825E-3    3.633303223425398E-3    2.571654769813991E-3    3.608602585157745E-3    3.699659826576777E-1   -3.937685814357279E-1
 7.839283510600000E9     5.550452296066721E-1   -1.159195321734479E-1    2.647239580334265E-3    3.639673751086089E-3    2.612749067039154E-3    3.611454399131897E-3    3.682324196424018E-1   -3.954269860635319E-1
 7.839316854550000E9     5.545243471797747E-1   -1.180806591625632E-1    2.650238455028369E-3    3.655297758729894E-3    2.653764787179070E-3    3.613558969568732E-3    3.665893014893951E-1   -3.971463100592341E-1
 7.839350198500000E9     5.539964674392395E-1   -1.201885711637539E-1    2.669610838014360E-3    3.614555450664473E-3    2.647864573452870E-3    3.618086522467745E-3    3.648906799263698E-1   -3.987186493933037E-1
 7.839383542450000E9     5.536470283352433E-1   -1.223579773313973E-1    2.710140343587271E-3    3.632920143674582E-3    2.671785709953445E-3    3.570496649606035E-3    3.632242306780341E-1   -4.001300469764079E-1
 7.839416886400000E9     5.529784842028985E-1   -1.246500600471268E-1    2.733252826476805E-3    3.635486089945589E-3    2.723982269419772E-3    3.615773900372743E-3    3.613406794337335E-1   -4.018081482475189E-1
 7.839450230350000E9     5.526296605065425E-1   -1.268767002625988E-1    2.784744178977007E-3    3.615742058114217E-3    2.747147313801580E-3    3.595104274145151E-3    3.598528965858200E-1   -4.032637414785843E-1
 7.839483574300000E9     5.521330581865841E-1   -1.291184187842149E-1    2.795016684262315E-3    3.619154522460931E-3    2.749493386481543E-3    3.606630666432572E-3    3.580413063957141E-1   -4.048159409854981E-1
 7.839516918250000E9     5.515872849992279E-1   -1.310548581548639E-1    2.813045685118349E-3    3.646833871047696E-3    2.758398039149520E-3    3.613389440164831E-3    3.562940900160090E-1   -4.065391435696474E-1
 7.839550262200000E9     5.510744432913168E-1   -1.333783795974051E-1    2.852154297508180E-3    3.635579544697072E-3    2.788857829036390E-3    3.579713713100733E-3    3.544102452471638E-1   -4.078865936244053E-1
 7.839583606150000E9     5.506038288031267E-1   -1.355309185865927E-1    2.854667619468866E-3    3.606921930030042E-3    2.802843204896574E-3    3.581526987579827E-3    3.527243668529534E-1   -4.096512325039002E-1
 7.839616950100000E9     5.498904562512313E-1   -1.376164178676490E-1    2.876331519449996E-3    3.632690468348840E-3    2.862328748149527E-3    3.551461381257098E-3    3.508443576633107E-1   -4.110342842147622E-1
 7.839650294050000E9     5.493705394837199E-1   -1.398329490938457E-1    2.912150963888654E-3    3.600882098689923E-3    2.860814593040753E-3    3.578577725040900E-3    3.491132657946103E-1   -4.125894028098195E-1
 7.839683638000000E9     5.488948032532861E-1   -1.419923873463266E-1    2.950434519365193E-3    3.607568811023820E-3    2.909598606156901E-3    3.578649845819812E-3    3.474715551397767E-1   -4.141702243241539E-1
 7.839716981950000E9     5.483178174519628E-1   -1.443465512451617E-1    2.950980940434564E-3    3.634771711739516E-3    2.906438980296442E-3    3.592968636915362E-3    3.457096979919188E-1   -4.156687403467472E-1
 7.839750325900000E9     5.476510032607758E-1   -1.462449531634460E-1    2.989293891040360E-3    3.608597035089691E-3    2.960631272213021E-3    3.564205849603527E-3    3.438135950373916E-1   -4.172465212049857E-1
 7.839783669850000E9     5.470770442815199E-1   -1.484332052160420E-1    3.031365820060156E-3    3.597387319849332E-3    2.980396929591663E-3    3.612364701304201E-3    3.418870884395722E-1   -4.186261612143208E-1
 7.839817013800000E9     5.465638380863377E-1   -1.507275326592963E-1    3.056610131098857E-3    3.604358553643776E-3    3.003524861766031E-3    3.585254256745525E-3    3.401441607192449E-1   -4.200210829045731E-1
 7.839850357750000E9     5.458935763112046E-1   -1.529009121418126E-1    3.067586395525951E-3    3.591697151326081E-3    3.044076313767189E-3    3.571804403439147E-3    3.384649913410070E-1   -4.216461051406857E-1
 7.839883701700000E9     5.452536011019571E-1   -1.550651151006321E-1    3.126247473897853E-3    3.587685565559978E-3    3.098284352184984E-3    3.572922587089315E-3    3.365184944023336E-1   -4.230548724078000E-1
 7.839917045650000E9     5.447758390182914E-1   -1.571601961159446E-1    3.151277933328681E-3    3.611830563296191E-3    3.080745222154527E-3    3.582416947779883E-3    3.346858267377034E-1   -4.244499613458519E-1
 7.839950389600000E9     5.440495276058104E-1   -1.593930083537754E-1    3.180314015726730E-3    3.590899522482004E-3    3.128448679244698E-3    3.590892365314468E-3    3.328628784484620E-1   -4.261183067714624E-1
 7.839983733550000E9     5.434025776394349E-1   -1.616184665894870E-1    3.189056588807664E-3    3.606314708400827E-3    3.119638061762068E-3    3.565212975244003E-3    3.310615349689400E-1   -4.274240772132214E-1
 7.840017077500000E9     5.426304075386646E-1   -1.636953838816196E-1    3.236059360103301E-3    3.572160219544525E-3    3.169477287478263E-3    3.563373313704070E-3    3.291616911334793E-1   -4.289272187870894E-1
