#  HZ   S   RI   R     50.00 
! Rohde & Schwarz Vector Network Analyzer 
! Rohde-Schwarz,ZNB20-2Port,1311601062101988,3.16
! Created: UTC 3/20/2024, 11:40:55 AM
! freq[Hz]                re:S11                  im:S11                  re:S21                  im:S21                  re:S12                  im:S12                  re:S22                  im:S22
 8.117186192000000E9     5.048202898498763E-1   -3.167916748052113E-2    1.000970300547878E-3    3.902678063695134E-3    1.104574651612887E-3    3.977599292423836E-3    4.129460190345993E-1   -1.818113565583340E-1
 8.117188764950000E9     5.048687079666562E-1   -3.192486535061745E-2    1.039079185579338E-3    3.910573422551068E-3    1.098988296665178E-3    3.974125296828334E-3    4.129924348190606E-1   -1.819886303985144E-1
 8.117191337900000E9     5.047648352951914E-1   -3.205729861790976E-2    1.014459255784750E-3    3.907558576186551E-3    1.066957872111941E-3    3.967159442236483E-3    4.128635209543809E-1   -1.820000124847893E-1
 8.117193910850000E9     5.046635020594673E-1   -3.226956696499081E-2    1.030424637533796E-3    3.912274032100751E-3    1.083290486754238E-3    4.014507021735272E-3    4.128874601541444E-1   -1.823185170069138E-1
 8.117196483800000E9     5.048703817447084E-1   -3.257075497179987E-2    1.010750339112853E-3    3.874653812644297E-3    1.083291964585057E-3    3.977225536473407E-3    4.127937520390562E-1   -1.825189391576008E-1
 8.117199056750000E9     5.047230365616454E-1   -3.282016654088364E-2    1.055785767117054E-3    3.911096838152123E-3    1.102998442123181E-3    3.984380566943340E-3    4.126519804621217E-1   -1.825627905437786E-1
 8.117201629700000E9     5.047882041702534E-1   -3.298022995883078E-2    1.026618692967075E-3    3.922257439049648E-3    1.102034333724012E-3    3.971586078229217E-3    4.126959184905680E-1   -1.829307247658882E-1
 8.117204202650000E9     5.047008670826478E-1   -3.317638888348802E-2    1.032262270387484E-3    3.913080729216004E-3    1.114527592110493E-3    3.989279021554999E-3    4.125398422926135E-1   -1.829479646265424E-1
 8.117206775600000E9     5.047138946710611E-1   -3.346550876199934E-2    1.061767905966837E-3    3.911003353328874E-3    1.099659731718923E-3    3.994713449626168E-3    4.123508757982177E-1   -1.832154398849839E-1
 8.117209348550000E9     5.045263768302209E-1   -3.359603725158958E-2    1.057802815913979E-3    3.952161578530853E-3    1.118392845882003E-3    3.990728127269165E-3    4.123002197304153E-1   -1.833970080464689E-1
 8.117211921500000E9     5.045949377255469E-1   -3.372539431731814E-2    1.029319781619761E-3    3.928581086072898E-3    1.117857640084162E-3    3.981023317477897E-3    4.122127655932458E-1   -1.835203421853928E-1
 8.117214494450000E9     5.047271813043515E-1   -3.401974393716790E-2    1.077935658395975E-3    3.925929818790765E-3    1.104312800780774E-3    4.018547490043775E-3    4.121550019633364E-1   -1.836142609193579E-1
 8.117217067400000E9     5.045932385076768E-1   -3.427180236552820E-2    1.057355602787857E-3    3.950893285713655E-3    1.137021195013396E-3    3.987622892141711E-3    4.122177954571392E-1   -1.837972531406853E-1
 8.117219640350000E9     5.045964763616261E-1   -3.451318118550240E-2    1.051224141030487E-3    3.930067158293177E-3    1.166331712268787E-3    3.976854909711183E-3    4.120873113017849E-1   -1.839848685100509E-1
 8.117222213300000E9     5.046004322192177E-1   -3.476976380676962E-2    1.065798329516869E-3    3.943433587804527E-3    1.147190768357673E-3    4.013116733981615E-3    4.120602587930462E-1   -1.840839318167147E-1
 8.117224786250000E9     5.045002785728341E-1   -3.489426600674660E-2    1.082940011938572E-3    3.948358423305890E-3    1.166725125485997E-3    3.990853084540465E-3    4.119825141233264E-1   -1.842794289018528E-1
 8.117227359200000E9     5.044986261255633E-1   -3.511398176181155E-2    1.076451269613513E-3    3.957584297077121E-3    1.145774223894589E-3    4.010017686447475E-3    4.120623968372594E-1   -1.845343742811564E-1
 8.117229932150000E9     5.045339409642481E-1   -3.529790926785348E-2    1.084099970732743E-3    3.958608650278277E-3    1.155605774962142E-3    4.032890336844122E-3    4.118746917511511E-1   -1.846738520357781E-1
 8.117232505100000E9     5.044460125934319E-1   -3.555733291558947E-2    1.067150744615223E-3    3.954556464918184E-3    1.150062562403492E-3    4.039785351752161E-3    4.117665110853752E-1   -1.847738169063433E-1
 8.117235078050000E9     5.044854826930550E-1   -3.575067928315386E-2    1.078707117465772E-3    3.969615760047493E-3    1.141881827186515E-3    4.055246346927579E-3    4.117526083080674E-1   -1.850467050117116E-1
 8.117237651000000E9     5.043546248863919E-1   -3.601304582348974E-2    1.088882451319046E-3    3.969813281819550E-3    1.134293699381982E-3    4.049775335105801E-3    4.116424537086237E-1   -1.850721165310499E-1
 8.117240223950000E9     5.044011009682109E-1   -3.615399822383485E-2    1.106967475110010E-3    3.982684537480755E-3    1.168446553871446E-3    4.011339120707652E-3    4.115365444223542E-1   -1.852156095444462E-1
 8.117242796900000E9     5.044795500081917E-1   -3.638257426265088E-2    1.099097113037772E-3    3.968726054176340E-3    1.147716593738664E-3    4.025425218039208E-3    4.115153882051808E-1   -1.855258864773081E-1
 8.117245369850000E9     5.043215244766260E-1   -3.652168690493773E-2    1.124776089431590E-3    3.979223270485667E-3    1.149916982784735E-3    4.076278226386260E-3    4.114148815816170E-1   -1.857771247956831E-1
 8.117247942800000E9     5.042524655376138E-1   -3.680483108782730E-2    1.098872445312540E-3    3.971438870162953E-3    1.137782904285379E-3    4.035367622789707E-3    4.113323975551258E-1   -1.856888546853022E-1
 8.117250515750000E9     5.043265168128924E-1   -3.697143855324418E-2    1.109751678316547E-3    3.980005853815315E-3    1.151560806657035E-3    4.049884299413944E-3    4.112990348296721E-1   -1.859985057662637E-1
 8.117253088700000E9     5.042966821324044E-1   -3.721424737371962E-2    1.104231521763087E-3    4.006071830074789E-3    1.152012671323632E-3    4.052057478607998E-3    4.111844050942009E-1   -1.861499895080874E-1
 8.117255661650000E9     5.042458842294357E-1   -3.734594222484017E-2    1.108365775129601E-3    4.018182077708944E-3    1.155878616662626E-3    4.059504717042754E-3    4.111778121046756E-1   -1.863404958285222E-1
 8.117258234600000E9     5.042061078235001E-1   -3.765510504563303E-2    1.125394936911772E-3    3.986543706328335E-3    1.212187197738686E-3    4.079770225063895E-3    4.111173597331125E-1   -1.866263305397400E-1
 8.117260807550000E9     5.041673577140559E-1   -3.784686455728697E-2    1.121967521837320E-3    4.005412325729992E-3    1.191391715074739E-3    4.056549233531228E-3    4.109591063122108E-1   -1.868011917401506E-1
 8.117263380500000E9     5.041957630802824E-1   -3.804424228405048E-2    1.128776933759956E-3    4.025666413741891E-3    1.178599133337848E-3    4.051969247260910E-3    4.109839966194969E-1   -1.868855603625197E-1
 8.117265953450000E9     5.040756774283720E-1   -3.824706748133710E-2    1.131620548072869E-3    4.033406998510212E-3    1.201629468772054E-3    4.096409371476274E-3    4.109345380211789E-1   -1.870052967700057E-1
 8.117268526400000E9     5.041559224364528E-1   -3.862859111009561E-2    1.117361746539369E-3    4.031206099965097E-3    1.218489757837935E-3    4.115108454026809E-3    4.107668201167302E-1   -1.871804350906259E-1
 8.117271099350000E9     5.040602127258274E-1   -3.868454378809096E-2    1.141216163872734E-3    4.025386032220345E-3    1.184240301346846E-3    4.080834310667637E-3    4.106995155682104E-1   -1.873298222353200E-1
 8.117273672300000E9     5.040506235605089E-1   -3.896323332323752E-2    1.153339880411019E-3    4.025323120481926E-3    1.212046712161417E-3    4.128867602708462E-3    4.106468756611069E-1   -1.875558988973652E-1
 8.117276245250000E9     5.040753541667576E-1   -3.923094515189132E-2    1.110933610375076E-3    4.035167814290778E-3    1.227604231792489E-3    4.089257104042895E-3    4.107124516369180E-1   -1.875970047147427E-1
 8.117278818200000E9     5.040776561057311E-1   -3.929069667139910E-2    1.169134781299211E-3    4.042327520450223E-3    1.205754394589859E-3    4.105678378013117E-3    4.106060062938456E-1   -1.877592055151262E-1
 8.117281391150000E9     5.040767998095261E-1   -3.956204132452044E-2    1.158590707190881E-3    4.036038069242680E-3    1.223444558534288E-3    4.098310923791237E-3    4.104747889988474E-1   -1.880280155887924E-1
 8.117283964100000E9     5.040378829945583E-1   -3.981602193877974E-2    1.134911541227621E-3    4.032227993470461E-3    1.179358085740081E-3    4.082444798103636E-3    4.103211377522648E-1   -1.881627183374849E-1
 8.117286537050000E9     5.039268597442977E-1   -4.004720015910471E-2    1.166777001374631E-3    4.056546705689339E-3    1.217201250287391E-3    4.104007951514723E-3    4.103699284053179E-1   -1.883586289060561E-1
 8.117289110000000E9     5.039264648899329E-1   -4.026069027272335E-2    1.153096071448506E-3    4.050172970273609E-3    1.252636254611144E-3    4.162760019342849E-3    4.102915941714904E-1   -1.884703229759913E-1
 8.117291682950000E9     5.039295878907517E-1   -4.044244727358649E-2    1.173892071209538E-3    4.063770055589077E-3    1.255931974941945E-3    4.113627421768719E-3    4.103470940418527E-1   -1.887313211324352E-1
 8.117294255900000E9     5.039106298089437E-1   -4.064610193826854E-2    1.192564887756321E-3    4.064933663482924E-3    1.212972429730673E-3    4.122183458539954E-3    4.101561892346550E-1   -1.887910696171189E-1
 8.117296828850000E9     5.039475502031394E-1   -4.091446105044631E-2    1.193717655343571E-3    4.055165179577776E-3    1.286105984164371E-3    4.132761467296664E-3    4.101106030161001E-1   -1.889808424535275E-1
 8.117299401800000E9     5.039133739602095E-1   -4.100996067236162E-2    1.175029263973000E-3    4.054818684529168E-3    1.217211149999562E-3    4.129421209707706E-3    4.100371163039384E-1   -1.891264050492524E-1
 8.117301974750000E9     5.040768238556429E-1   -4.149267811166713E-2    1.172346752906678E-3    4.080844733676131E-3    1.273345773531095E-3    4.171555236542454E-3    4.099083831892388E-1   -1.892547057215791E-1
 8.117304547700000E9     5.038171946690111E-1   -4.153536612998393E-2    1.180155461081534E-3    4.083665643880210E-3    1.265063914648106E-3    4.208799760672909E-3    4.098506718867666E-1   -1.893992656345909E-1
 8.117307120650000E9     5.037160228503090E-1   -4.182671974926829E-2    1.232947299915895E-3    4.102598045855140E-3    1.249081733780465E-3    4.168639533089871E-3    4.097581216046364E-1   -1.897003664417482E-1
 8.117309693600000E9     5.037665561676972E-1   -4.200796992540261E-2    1.208246949594864E-3    4.113128751582072E-3    1.274136784723326E-3    4.178124186100526E-3    4.096487505192971E-1   -1.898264182266019E-1
 8.117312266550000E9     5.036914520289048E-1   -4.217423262238736E-2    1.196005913212228E-3    4.111075389051038E-3    1.271367187408086E-3    4.159208138223302E-3    4.095994410094739E-1   -1.899427691485613E-1
 8.117314839500000E9     5.036556465698534E-1   -4.252652591959977E-2    1.227971233643161E-3    4.106955326118064E-3    1.284291683197722E-3    4.141105898250519E-3    4.094996283386999E-1   -1.901312160982088E-1
 8.117317412450000E9     5.036491653214431E-1   -4.258399892175204E-2    1.200847741427718E-3    4.089123852260015E-3    1.264467610744934E-3    4.199824534403309E-3    4.094468752093797E-1   -1.903471218864396E-1
 8.117319985400000E9     5.035428691641075E-1   -4.285587626923342E-2    1.212467171256044E-3    4.100086573566114E-3    1.288935988663254E-3    4.185318143901922E-3    4.094602124214209E-1   -1.905411568547349E-1
 8.117322558350000E9     5.036705647864849E-1   -4.309652935303768E-2    1.230456434689800E-3    4.099503659706571E-3    1.274704692985713E-3    4.170679687466448E-3    4.093319043431670E-1   -1.905952355763466E-1
 8.117325131300000E9     5.035725216355017E-1   -4.328256277429188E-2    1.243867741040779E-3    4.108179703830813E-3    1.298282755612076E-3    4.221715218084479E-3    4.092333444993727E-1   -1.909025232177226E-1
 8.117327704250000E9     5.035329001948571E-1   -4.345566414332224E-2    1.221183268476263E-3    4.163186647765816E-3    1.287011117592615E-3    4.176409036007149E-3    4.091990864317003E-1   -1.910389821373270E-1
 8.117330277200000E9     5.034014696233386E-1   -4.379071681765186E-2    1.224715949739744E-3    4.128564795038204E-3    1.331961566152055E-3    4.205064170846802E-3    4.091247711376930E-1   -1.911228267999554E-1
 8.117332850150000E9     5.034959557926166E-1   -4.388609731650243E-2    1.240104269155679E-3    4.157925669883027E-3    1.334296812454519E-3    4.232947283211585E-3    4.090041743387020E-1   -1.911582572252232E-1
 8.117335423100000E9     5.035219876195167E-1   -4.418164052660699E-2    1.230293211294927E-3    4.166192534138939E-3    1.335463206831804E-3    4.207391988464667E-3    4.089569013705798E-1   -1.914044178008573E-1
 8.117337996050000E9     5.033543455851737E-1   -4.444676169379051E-2    1.240356090771683E-3    4.157968118213219E-3    1.334046570427507E-3    4.237790650930991E-3    4.089361358410987E-1   -1.916135435129722E-1
 8.117340569000000E9     5.034566942094975E-1   -4.463164848383116E-2    1.273865959408822E-3    4.124998330498041E-3    1.329176819832980E-3    4.226564532890468E-3    4.089228740039924E-1   -1.919120084423618E-1
 8.117343141950000E9     5.034523004620112E-1   -4.483058164409290E-2    1.276191510553045E-3    4.206010534054542E-3    1.316098708816593E-3    4.230259792937605E-3    4.087281641003730E-1   -1.919688975994342E-1
 8.117345714900000E9     5.032511537173531E-1   -4.511615720097263E-2    1.293302356814091E-3    4.195628305010231E-3    1.341223490444512E-3    4.244632908478420E-3    4.087607226363417E-1   -1.921164825313844E-1
 8.117348287850000E9     5.033011896457555E-1   -4.531738201091681E-2    1.258745247755411E-3    4.187800354586573E-3    1.343379320770149E-3    4.263637467771226E-3    4.086420438675483E-1   -1.922437934181885E-1
 8.117350860800000E9     5.032588888284760E-1   -4.561597973531696E-2    1.277288071820266E-3    4.208343553004919E-3    1.353392807480640E-3    4.255499639222201E-3    4.085090256203117E-1   -1.923691321199714E-1
 8.117353433750000E9     5.032226868904960E-1   -4.566218553819653E-2    1.269464204305118E-3    4.223256185638228E-3    1.356389909198611E-3    4.291642425861870E-3    4.084973315493707E-1   -1.926725512922240E-1
 8.117356006700000E9     5.030808023818982E-1   -4.599537851968219E-2    1.298435508136947E-3    4.212658011474460E-3    1.357202845863418E-3    4.293604952053474E-3    4.084863940294107E-1   -1.927211115690974E-1
 8.117358579650000E9     5.031982882492094E-1   -4.618983053680475E-2    1.310896207188995E-3    4.219196160268982E-3    1.360936255550288E-3    4.259558405570409E-3    4.083167623819028E-1   -1.930107355452828E-1
 8.117361152600000E9     5.030882547230525E-1   -4.645708409622412E-2    1.299704865974514E-3    4.231074646029824E-3    1.381923185642185E-3    4.308837389126323E-3    4.083176761698181E-1   -1.931567699573564E-1
 8.117363725550000E9     5.031079027112901E-1   -4.660868234174610E-2    1.341188658569423E-3    4.244310680328457E-3    1.391381102869810E-3    4.299261273372716E-3    4.083298918614625E-1   -1.931653371338024E-1
 8.117366298500000E9     5.029977760480224E-1   -4.677507414756840E-2    1.317960661991706E-3    4.243090153844135E-3    1.371454527745208E-3    4.303020909615925E-3    4.083534433254581E-1   -1.935341545406457E-1
 8.117368871450000E9     5.030701303303492E-1   -4.705325502885179E-2    1.313609880061121E-3    4.240690622628126E-3    1.433655850523691E-3    4.338159501819034E-3    4.081850803625379E-1   -1.937421360068232E-1
 8.117371444400000E9     5.029432848621725E-1   -4.733637129598213E-2    1.336201153089921E-3    4.238784687816084E-3    1.399091508459368E-3    4.321608635289169E-3    4.080611406584261E-1   -1.936883965589856E-1
 8.117374017350000E9     5.029758904404417E-1   -4.754798547840279E-2    1.328274540532118E-3    4.264110144763441E-3    1.409568537593938E-3    4.318654661747109E-3    4.080046034666782E-1   -1.939644057956426E-1
 8.117376590300000E9     5.029041872293678E-1   -4.768658967544766E-2    1.332388427868882E-3    4.252423943140743E-3    1.453010205617208E-3    4.341251803655217E-3    4.078812607459655E-1   -1.941527847651278E-1
 8.117379163250000E9     5.029667025877689E-1   -4.795118243118687E-2    1.375658764139901E-3    4.268648248780461E-3    1.414188740880234E-3    4.347886362222605E-3    4.078298409592820E-1   -1.942654867680164E-1
 8.117381736200000E9     5.028989919997133E-1   -4.823210785870831E-2    1.332327867010845E-3    4.261467603314439E-3    1.444661701555724E-3    4.374217848513615E-3    4.075669109742602E-1   -1.944932122998161E-1
 8.117384309150000E9     5.028403937622795E-1   -4.839652189900642E-2    1.362544540407458E-3    4.291517104624568E-3    1.414039202206600E-3    4.356832899093180E-3    4.077349984108645E-1   -1.944297110024807E-1
 8.117386882100000E9     5.027829628491325E-1   -4.883384096108161E-2    1.333155784822230E-3    4.304637374901083E-3    1.446984814453970E-3    4.339524791443101E-3    4.075520473503697E-1   -1.949134870835651E-1
 8.117389455050000E9     5.027370481880391E-1   -4.907567989650029E-2    1.386521379339209E-3    4.317580607636036E-3    1.455388151821481E-3    4.366336100522025E-3    4.077148295171920E-1   -1.950581617775939E-1
 8.117392028000000E9     5.025951555518655E-1   -4.919357446586298E-2    1.373219461949103E-3    4.306416253496598E-3    1.439532706562386E-3    4.324107514032003E-3    4.075771704549639E-1   -1.952291562243228E-1
 8.117394600950000E9     5.026630150366337E-1   -4.947178023260166E-2    1.412235691853249E-3    4.318869562954119E-3    1.466387369606004E-3    4.361636999748035E-3    4.073683864127979E-1   -1.953238754437872E-1
 8.117397173900000E9     5.026751961738839E-1   -4.971186226069061E-2    1.401567298841361E-3    4.356571910599805E-3    1.476963972651985E-3    4.403382049942528E-3    4.073551608037560E-1   -1.955929927536385E-1
 8.117399746850000E9     5.026007765542975E-1   -4.993060131300198E-2    1.389492962794312E-3    4.344024457006387E-3    1.489307190038989E-3    4.395615936341387E-3    4.072390248080682E-1   -1.957243270178710E-1
 8.117402319800000E9     5.024356359273554E-1   -5.015446156446510E-2    1.410012413791279E-3    4.350520823089007E-3    1.455535348906329E-3    4.402282762509114E-3    4.072675098037204E-1   -1.957802850204018E-1
 8.117404892750000E9     5.023602139398688E-1   -5.039499051481052E-2    1.437512960447318E-3    4.344980193794486E-3    1.477980570726653E-3    4.408812364185172E-3    4.072502794880780E-1   -1.960113947672344E-1
 8.117407465700000E9     5.024481258165913E-1   -5.049794345069247E-2    1.409409686881099E-3    4.381034865482213E-3    1.515205054076583E-3    4.453812644115361E-3    4.069957877062865E-1   -1.961914954892759E-1
 8.117410038650000E9     5.023907138639101E-1   -5.078999548670776E-2    1.388548978210595E-3    4.372238616441587E-3    1.518282283937045E-3    4.409398786942348E-3    4.069493968191051E-1   -1.963406750580596E-1
 8.117412611600000E9     5.022797541732661E-1   -5.104150169069789E-2    1.459793067332222E-3    4.365910838421684E-3    1.510763050860321E-3    4.446918163341448E-3    4.069118772752705E-1   -1.964561032628822E-1
 8.117415184550000E9     5.023116897695301E-1   -5.128768570404849E-2    1.448074994352751E-3    4.398740024825989E-3    1.515945338805350E-3    4.492329560270895E-3    4.068575507160275E-1   -1.967074063158012E-1
 8.117417757500000E9     5.021805920358835E-1   -5.149884642368224E-2    1.457854484296266E-3    4.387808471483759E-3    1.527343777277260E-3    4.441158309815544E-3    4.067545244113875E-1   -1.969293502641731E-1
