#  HZ   S   RI   R     50.00 
! Rohde & Schwarz Vector Network Analyzer 
! Rohde-Schwarz,ZNB20-2Port,1311601062101988,3.16
! Created: UTC 3/20/2024, 11:41:05 AM
! freq[Hz]                re:S11                  im:S11                  re:S21                  im:S21                  re:S12                  im:S12                  re:S22                  im:S22
 8.117161259000000E9     5.050728462449319E-1   -2.957763984933339E-2    9.908628404350357E-4    3.869889777631332E-3    1.055530211507331E-3    3.949952260936103E-3    4.135827102725638E-1   -1.801344296557840E-1
 8.117163933500000E9     5.049068070208059E-1   -2.997855542299970E-2    1.027493337491219E-3    3.865878697104449E-3    1.049819724711420E-3    3.924308898613979E-3    4.135024915054327E-1   -1.804263544864867E-1
 8.117166608000000E9     5.049929240026301E-1   -3.003189799967276E-2    9.978857832861235E-4    3.873394421154979E-3    1.089067865310967E-3    3.957999966609128E-3    4.134538722228665E-1   -1.806162557590634E-1
 8.117169282500000E9     5.050259257836539E-1   -3.024857565652328E-2    1.031461011585485E-3    3.894830836810483E-3    1.059229983482196E-3    3.941152702534461E-3    4.134623518558191E-1   -1.807560838761694E-1
 8.117171957000000E9     5.049523341706819E-1   -3.057504128200542E-2    1.001556459848584E-3    3.890241153671023E-3    1.051701750838766E-3    3.927162253922256E-3    4.134086447122621E-1   -1.808224715273744E-1
 8.117174631500000E9     5.049860086421873E-1   -3.078710521171357E-2    1.016657670012588E-3    3.871276892149169E-3    1.080071213128699E-3    3.952164432595444E-3    4.131692484524475E-1   -1.809625576058617E-1
 8.117177306000000E9     5.048296057622748E-1   -3.102606166714790E-2    9.995223588069261E-4    3.909826357862499E-3    1.098351256315153E-3    3.953236613216569E-3    4.131789477882595E-1   -1.813025774200284E-1
 8.117179980500000E9     5.048915123265252E-1   -3.116697208218945E-2    1.021301500939731E-3    3.857123553457992E-3    1.094175900910065E-3    3.965539425664634E-3    4.130989179977653E-1   -1.813536708999909E-1
 8.117182655000000E9     5.048500835200949E-1   -3.142224757940409E-2    1.045721220182159E-3    3.910652257449721E-3    1.096678654674440E-3    3.967684043856823E-3    4.130888036845576E-1   -1.815565333527228E-1
 8.117185329500000E9     5.050014087815962E-1   -3.160746949469877E-2    1.025850983617203E-3    3.885280069961152E-3    1.073142955298044E-3    3.931473881946275E-3    4.129891119671664E-1   -1.817184538179095E-1
 8.117188004000000E9     5.049071705897845E-1   -3.179464747202808E-2    1.030926640226617E-3    3.893468452548943E-3    1.066713009183139E-3    3.952063331472199E-3    4.129944341403024E-1   -1.818498557107245E-1
 8.117190678500000E9     5.049048921916091E-1   -3.211204447056370E-2    1.053962136791012E-3    3.928816421819283E-3    1.082448410666374E-3    3.980446110662850E-3    4.128941146587357E-1   -1.820362722045840E-1
 8.117193353000000E9     5.047177169200229E-1   -3.238063863734637E-2    1.026237839113698E-3    3.910765195833254E-3    1.121516506485367E-3    3.961466104007813E-3    4.127333158424786E-1   -1.823068812593991E-1
 8.117196027500000E9     5.048529358697610E-1   -3.257363593959121E-2    1.052215196291679E-3    3.915700616480036E-3    1.096187877205913E-3    3.954290397007424E-3    4.127251993898629E-1   -1.823361443529787E-1
 8.117198702000000E9     5.047799067329493E-1   -3.270263029691492E-2    1.041746432718989E-3    3.914617653490735E-3    1.098249521628961E-3    3.974901315379335E-3    4.127319038160577E-1   -1.824980991333892E-1
 8.117201376500000E9     5.046364025270944E-1   -3.293415953015837E-2    1.034484423748673E-3    3.923633116924813E-3    1.116363698321791E-3    3.986563385949241E-3    4.126263743932752E-1   -1.828021320547962E-1
 8.117204051000000E9     5.048019130834916E-1   -3.327410382249369E-2    1.050334077451157E-3    3.917613985652903E-3    1.114207868872547E-3    3.986478721806784E-3    4.125479573449650E-1   -1.827506315819903E-1
 8.117206725500000E9     5.046202807784353E-1   -3.343675770874893E-2    1.037179125978022E-3    3.923298068617875E-3    1.114449100403768E-3    3.994030071713357E-3    4.124400530076290E-1   -1.832328984066601E-1
 8.117209400000000E9     5.046212035970697E-1   -3.371490189153205E-2    1.043214503290290E-3    3.919217304468967E-3    1.129043747848069E-3    3.975401190401234E-3    4.123474867447436E-1   -1.832351048266795E-1
 8.117212074500000E9     5.047348913516017E-1   -3.385172336060257E-2    1.032632926645615E-3    3.936640667970188E-3    1.100308316450803E-3    3.985823770293519E-3    4.123477585542964E-1   -1.834453032281964E-1
 8.117214749000000E9     5.046025909749884E-1   -3.397189039881091E-2    1.059647338674575E-3    3.952329100585838E-3    1.122082489159071E-3    4.011925020596599E-3    4.123211934559143E-1   -1.835775986140805E-1
 8.117217423500000E9     5.046067778541713E-1   -3.425892370468178E-2    1.063050178822585E-3    3.926340417039973E-3    1.145823602399441E-3    3.999579609579636E-3    4.121783228140697E-1   -1.838718003862950E-1
 8.117220098000000E9     5.046447917006064E-1   -3.449239976137699E-2    1.050750821869227E-3    3.972732478762083E-3    1.158549351028926E-3    4.031563599875863E-3    4.122620534808701E-1   -1.838540973016068E-1
 8.117222772500000E9     5.045877273112290E-1   -3.486087439604143E-2    1.088592626391334E-3    3.926596000163767E-3    1.130522276181725E-3    3.993371815363296E-3    4.120057776803178E-1   -1.841174791864404E-1
 8.117225447000000E9     5.044876161177444E-1   -3.497642953078724E-2    1.071390602109501E-3    3.952677999940444E-3    1.134454271441418E-3    4.023514483243827E-3    4.120147728362102E-1   -1.843871879023414E-1
 8.117228121500000E9     5.043867811690519E-1   -3.505318241116482E-2    1.100222473534663E-3    3.954041569068745E-3    1.140183750629100E-3    4.016843837311413E-3    4.119725226466723E-1   -1.846201044970308E-1
 8.117230796000000E9     5.045489612132309E-1   -3.533024289554463E-2    1.072129250579624E-3    3.967440656812669E-3    1.137534304905973E-3    3.992808622026522E-3    4.118141268242077E-1   -1.848179781213662E-1
 8.117233470500000E9     5.044394391174216E-1   -3.565760258183694E-2    1.095855458296408E-3    3.953377174407512E-3    1.154839661025436E-3    4.013341126938984E-3    4.118365643054741E-1   -1.849739315571241E-1
 8.117236145000000E9     5.044426953928178E-1   -3.577000181762658E-2    1.096055756491787E-3    3.965866691917229E-3    1.150102607206622E-3    4.004477975139293E-3    4.118644779059501E-1   -1.850895894962553E-1
 8.117238819500000E9     5.044031229122874E-1   -3.598251343771425E-2    1.109796063333245E-3    3.987578067025497E-3    1.147542102576203E-3    4.018681942381737E-3    4.116387675067026E-1   -1.851882330167056E-1
 8.117241494000000E9     5.043601051805425E-1   -3.624906002273141E-2    1.094589060765302E-3    3.991163554249645E-3    1.153520151119742E-3    4.043227144436394E-3    4.116290081581812E-1   -1.853921933186958E-1
 8.117244168500000E9     5.043955828020489E-1   -3.658910222430364E-2    1.106603786889032E-3    3.975237996518125E-3    1.172066711073781E-3    4.054001751631841E-3    4.115017812977914E-1   -1.854604581619925E-1
 8.117246843000000E9     5.043025223238518E-1   -3.672004516658146E-2    1.102279496151593E-3    3.985437543102276E-3    1.159115414887973E-3    4.044122010947952E-3    4.113873987730614E-1   -1.857074746139176E-1
 8.117249517500000E9     5.044854893495514E-1   -3.697779746096420E-2    1.095549092600507E-3    3.983501409362532E-3    1.160060493301390E-3    4.062301793871996E-3    4.113818162437041E-1   -1.858898040071575E-1
 8.117252192000000E9     5.042710836802182E-1   -3.711875578618336E-2    1.103924825585604E-3    3.989152971808851E-3    1.167768681103505E-3    4.059370189775498E-3    4.112675994678388E-1   -1.861089930461969E-1
 8.117254866500000E9     5.042639846806846E-1   -3.742957465401048E-2    1.128411226709792E-3    3.993505417467754E-3    1.192288722573720E-3    4.061372536625262E-3    4.112331897506713E-1   -1.862232775148313E-1
 8.117257541000000E9     5.042436844770903E-1   -3.750318858424132E-2    1.117402378126765E-3    3.998197283523484E-3    1.171218656291646E-3    4.067837543018631E-3    4.112690553314403E-1   -1.864055476872085E-1
 8.117260215500000E9     5.042159162669849E-1   -3.775670586750344E-2    1.105042085777198E-3    4.013274969971007E-3    1.163605650667589E-3    4.078972264980502E-3    4.111460898609345E-1   -1.866071760494130E-1
 8.117262890000000E9     5.042538261551307E-1   -3.804466620805443E-2    1.137298698689437E-3    3.989028162844027E-3    1.170510595566480E-3    4.052407300857440E-3    4.110598786375473E-1   -1.867786889007693E-1
 8.117265564500000E9     5.042163112015049E-1   -3.817714042432439E-2    1.130154732496542E-3    4.024492063763683E-3    1.200103619641374E-3    4.092302142815064E-3    4.109300104805868E-1   -1.869284792119203E-1
 8.117268239000000E9     5.041658830195161E-1   -3.856017223736559E-2    1.160210112481082E-3    4.018093253316761E-3    1.205878369367624E-3    4.090274261464691E-3    4.110044363000563E-1   -1.871450656619006E-1
 8.117270913500000E9     5.041233467223117E-1   -3.876458066205370E-2    1.153651547370023E-3    4.034870391504268E-3    1.215257431328937E-3    4.079593979052887E-3    4.108050980933605E-1   -1.873406326067852E-1
 8.117273588000000E9     5.041256145557010E-1   -3.890620807604061E-2    1.136864376401669E-3    4.048042670041835E-3    1.195576160114226E-3    4.099358603255514E-3    4.107015271699821E-1   -1.875442913969403E-1
 8.117276262500000E9     5.041110126656876E-1   -3.920288148583506E-2    1.127639801797219E-3    4.025709708035194E-3    1.221055308022986E-3    4.095378225866577E-3    4.107162963875967E-1   -1.875342368663894E-1
 8.117278937000000E9     5.040744555638170E-1   -3.934613547699473E-2    1.134748126695053E-3    4.048077380290610E-3    1.209237171210527E-3    4.111788378999353E-3    4.105804448133167E-1   -1.878317572553534E-1
 8.117281611500000E9     5.040378502791797E-1   -3.960548189675493E-2    1.125757725434619E-3    4.065684840105496E-3    1.213036242316595E-3    4.119527178528622E-3    4.104674711714038E-1   -1.879336784194175E-1
 8.117284286000000E9     5.039635329480615E-1   -3.990213948074296E-2    1.180058239198635E-3    4.042659909580945E-3    1.221006339412684E-3    4.113613234790592E-3    4.104658483488522E-1   -1.881620556468087E-1
 8.117286960500000E9     5.040081086264364E-1   -4.004635972234941E-2    1.156555037364062E-3    4.047128407666698E-3    1.215185361892036E-3    4.141436205362574E-3    4.103028811153414E-1   -1.883267469654750E-1
 8.117289635000000E9     5.039695390190199E-1   -4.034175610166400E-2    1.183392493362584E-3    4.046938460025996E-3    1.235373790453646E-3    4.128227300601806E-3    4.103986466884931E-1   -1.885520993837562E-1
 8.117292309500000E9     5.039978376711732E-1   -4.042111766064600E-2    1.171768411553853E-3    4.069192724944153E-3    1.236083778845898E-3    4.111472856415430E-3    4.103256539234545E-1   -1.885997144204315E-1
 8.117294984000000E9     5.039146942378505E-1   -4.066798806870661E-2    1.207536999603524E-3    4.101889189111677E-3    1.229693059226002E-3    4.114106117946584E-3    4.101206682130361E-1   -1.889372343293690E-1
 8.117297658500000E9     5.039080094120287E-1   -4.102635285033158E-2    1.170031629831497E-3    4.070636876681178E-3    1.286149411141497E-3    4.156104667276500E-3    4.100637175727120E-1   -1.890668225832280E-1
 8.117300333000000E9     5.039251718098999E-1   -4.117948282800341E-2    1.184928061664466E-3    4.100307653477651E-3    1.271104155127237E-3    4.174058159535252E-3    4.099461444868792E-1   -1.892767869761852E-1
 8.117303007500000E9     5.037847253910335E-1   -4.138303837774365E-2    1.190083567804115E-3    4.100085580833741E-3    1.256511464817135E-3    4.148927767060950E-3    4.098044861425098E-1   -1.894501229325142E-1
 8.117305682000000E9     5.037829178225153E-1   -4.156939709321197E-2    1.202645295923270E-3    4.105351079884588E-3    1.293250578485982E-3    4.172012181401523E-3    4.097125940140485E-1   -1.896667525636184E-1
 8.117308356500000E9     5.037686977838801E-1   -4.197311053969235E-2    1.195905265282920E-3    4.112663911203194E-3    1.261596429908109E-3    4.171305556493980E-3    4.098587713832638E-1   -1.897981419061673E-1
 8.117311031000000E9     5.037631060122184E-1   -4.222371787113215E-2    1.189896792203500E-3    4.093568437989201E-3    1.271984186327790E-3    4.202248725181541E-3    4.097135121053508E-1   -1.898229294532907E-1
 8.117313705500000E9     5.037040153257462E-1   -4.226772075495508E-2    1.207083238678554E-3    4.113838662455776E-3    1.285330756059430E-3    4.180591879860134E-3    4.096541586063442E-1   -1.900895825205727E-1
 8.117316380000000E9     5.036128802419988E-1   -4.252559555226024E-2    1.219891963718270E-3    4.117279061241081E-3    1.262116764262575E-3    4.198465050702036E-3    4.095972303304868E-1   -1.902491653086370E-1
 8.117319054500000E9     5.037121211044064E-1   -4.279757372787291E-2    1.209087535329282E-3    4.144407263548351E-3    1.287207225313274E-3    4.187466108740132E-3    4.095161820959030E-1   -1.903831255334744E-1
 8.117321729000000E9     5.036630102959713E-1   -4.286802008406201E-2    1.225601925992950E-3    4.150105182797611E-3    1.304686826587079E-3    4.210638843347618E-3    4.094585109172417E-1   -1.906233975678838E-1
 8.117324403500000E9     5.035578979559954E-1   -4.330567835199441E-2    1.233055561866686E-3    4.135578906413047E-3    1.317090177829510E-3    4.166382764259722E-3    4.092889587408351E-1   -1.907779021355820E-1
 8.117327078000000E9     5.035136879978157E-1   -4.349433526970133E-2    1.253053076719105E-3    4.123982951039070E-3    1.317297943137032E-3    4.203704179844081E-3    4.092235402924932E-1   -1.909671527627715E-1
 8.117329752500000E9     5.035806845985277E-1   -4.369340265712234E-2    1.216526407166224E-3    4.134016068827552E-3    1.319254956093846E-3    4.216055780295539E-3    4.091910965404608E-1   -1.910607780818518E-1
 8.117332427000000E9     5.034774651070497E-1   -4.393894406466712E-2    1.247483574774337E-3    4.170746251080559E-3    1.281034675693668E-3    4.262632854830458E-3    4.090639342174378E-1   -1.913483021545337E-1
 8.117335101500000E9     5.034795132151040E-1   -4.417177833830400E-2    1.265312994044348E-3    4.161550143597648E-3    1.319950296734359E-3    4.273599033817307E-3    4.090854018174045E-1   -1.914262261465439E-1
 8.117337776000000E9     5.033623238219939E-1   -4.434784816887905E-2    1.257025572191869E-3    4.145438870818889E-3    1.345914746522009E-3    4.253728426186451E-3    4.091742137144755E-1   -1.916496334461351E-1
 8.117340450500000E9     5.033965170147492E-1   -4.468224407189521E-2    1.266696536645921E-3    4.194404406140996E-3    1.317960996983080E-3    4.242005193781784E-3    4.088670938275002E-1   -1.917843791516768E-1
 8.117343125000000E9     5.034061485162137E-1   -4.484510600883148E-2    1.269536251280887E-3    4.193440617270499E-3    1.325853917814781E-3    4.240358075103003E-3    4.087336090624670E-1   -1.920691496157609E-1
 8.117345799500000E9     5.031823398127893E-1   -4.504230912057947E-2    1.264566395781328E-3    4.179203289484392E-3    1.370141640381268E-3    4.229570748892629E-3    4.089350258493815E-1   -1.920823945838404E-1
 8.117348474000000E9     5.032403978995575E-1   -4.532928344003365E-2    1.296911789822195E-3    4.205652086204177E-3    1.360935439471035E-3    4.245253815373876E-3    4.086370195309749E-1   -1.924540464917948E-1
 8.117351148500000E9     5.033145742868450E-1   -4.570221337662679E-2    1.303143006860848E-3    4.232523963111124E-3    1.357700387002650E-3    4.265611469118485E-3    4.086393208185638E-1   -1.923314261136457E-1
 8.117353823000000E9     5.031953340121917E-1   -4.588540710222765E-2    1.280812863991465E-3    4.241241266470727E-3    1.376937713384197E-3    4.284394970351526E-3    4.086099857165024E-1   -1.926347163998281E-1
 8.117356497500000E9     5.032107481144763E-1   -4.606898411486715E-2    1.296503213489567E-3    4.219013819417241E-3    1.368980867084069E-3    4.255707827092624E-3    4.085142632360909E-1   -1.927054435591039E-1
 8.117359172000000E9     5.030855290714004E-1   -4.639611187640490E-2    1.296095654763233E-3    4.210553851317647E-3    1.362916536759148E-3    4.277742292622038E-3    4.084529231917584E-1   -1.929882387419322E-1
 8.117361846500000E9     5.032159850070143E-1   -4.656531255846464E-2    1.316366245454622E-3    4.226983682157553E-3    1.412792589312345E-3    4.345510650695845E-3    4.083583214239218E-1   -1.931694188781804E-1
 8.117364521000000E9     5.030883521272772E-1   -4.670423052000525E-2    1.359354414633181E-3    4.243461744086675E-3    1.371474019498890E-3    4.312196772841248E-3    4.082485795726212E-1   -1.934491614810752E-1
 8.117367195500000E9     5.030043983790710E-1   -4.692384032630274E-2    1.334222342433110E-3    4.246268210033825E-3    1.404726527182715E-3    4.314540391293718E-3    4.081543684434321E-1   -1.934407394181432E-1
 8.117369870000000E9     5.030022984382019E-1   -4.726033697140396E-2    1.299657431755199E-3    4.243458238914235E-3    1.383893376213819E-3    4.335748544915878E-3    4.082082588262264E-1   -1.938033674126211E-1
 8.117372544500000E9     5.029753866039636E-1   -4.743111285829359E-2    1.321327716560269E-3    4.288127681949666E-3    1.387905604093399E-3    4.345050635865725E-3    4.079873189710342E-1   -1.937858394485039E-1
 8.117375219000000E9     5.028711416836540E-1   -4.767852436707565E-2    1.347933669410013E-3    4.267601117007170E-3    1.413556015808623E-3    4.346157735249759E-3    4.079263218127948E-1   -1.941822675428021E-1
 8.117377893500000E9     5.028284150783339E-1   -4.794284821032910E-2    1.353280631599115E-3    4.257326069680555E-3    1.434712646108786E-3    4.355527002879308E-3    4.079067569548664E-1   -1.942806203146965E-1
 8.117380568000000E9     5.028517268874245E-1   -4.815620632651368E-2    1.344245097259827E-3    4.299023792310646E-3    1.432017664071835E-3    4.373510387865959E-3    4.079366672743304E-1   -1.944629393808798E-1
 8.117383242500000E9     5.028667861378504E-1   -4.836518439344462E-2    1.348541036606207E-3    4.292160030690652E-3    1.418394579428766E-3    4.342435247136441E-3    4.076661945352684E-1   -1.946323654387709E-1
 8.117385917000000E9     5.028580013006529E-1   -4.859784599883805E-2    1.341599110186306E-3    4.314566474658213E-3    1.439807893862456E-3    4.354579911392749E-3    4.077178731502653E-1   -1.946314711439069E-1
 8.117388591500000E9     5.028380992048332E-1   -4.887684526217385E-2    1.395216709491616E-3    4.315666394049174E-3    1.457289025158223E-3    4.380416513135461E-3    4.076548955605218E-1   -1.948017615512624E-1
 8.117391266000000E9     5.026355647089360E-1   -4.912216510532616E-2    1.392133626668872E-3    4.323022237792176E-3    1.463868409869321E-3    4.418439409242204E-3    4.075109432383553E-1   -1.950750921708793E-1
 8.117393940500000E9     5.026870265742440E-1   -4.940399898003497E-2    1.388555017793466E-3    4.329533985728046E-3    1.453052285034966E-3    4.395478165884305E-3    4.075425265837654E-1   -1.951608095628472E-1
 8.117396615000000E9     5.026150999702540E-1   -4.958796441615633E-2    1.395948746646951E-3    4.357954739708379E-3    1.479274299504502E-3    4.414584302901346E-3    4.074188479769489E-1   -1.955691474841153E-1
 8.117399289500000E9     5.025863686069625E-1   -4.984992275988455E-2    1.394059229654451E-3    4.350430227881862E-3    1.480351845279165E-3    4.403837768088371E-3    4.073001438777576E-1   -1.955425566765369E-1
 8.117401964000000E9     5.023524721123571E-1   -5.013710440902784E-2    1.404099851016509E-3    4.365189188722389E-3    1.476374548889732E-3    4.403164430764067E-3    4.072661977611713E-1   -1.957386440197726E-1
