#  HZ   S   RI   R     50.00 
! Rohde & Schwarz Vector Network Analyzer 
! Rohde-Schwarz,ZNB20-2Port,1311601062101988,3.16
! Created: UTC 3/20/2024, 11:41:10 AM
! freq[Hz]                re:S11                  im:S11                  re:S21                  im:S21                  re:S12                  im:S12                  re:S22                  im:S22
 8.117141435000000E9     5.051391327023909E-1   -2.796487637635838E-2    9.618166655505153E-4    3.855523674235356E-3    1.056459215433518E-3    3.907344426703447E-3    4.141991486374283E-1   -1.788399311569626E-1
 8.117144193225000E9     5.052658510030869E-1   -2.820243749116015E-2    9.839716094907085E-4    3.876909449091801E-3    1.048154287183994E-3    3.908985232403866E-3    4.140203805657240E-1   -1.789706953401127E-1
 8.117146951450000E9     5.051343034659677E-1   -2.854231791402619E-2    9.659867244886393E-4    3.853488794291426E-3    1.055631190435099E-3    3.911852060398802E-3    4.139601087291988E-1   -1.791539392119675E-1
 8.117149709675000E9     5.051347955890874E-1   -2.876624904742173E-2    9.919224397778648E-4    3.841673372024910E-3    1.054628884038559E-3    3.925928819978156E-3    4.138916308107916E-1   -1.793808745199010E-1
 8.117152467900000E9     5.052185619739010E-1   -2.891340540620145E-2    9.851592573759959E-4    3.895991441793627E-3    1.036732789801908E-3    3.917709108028266E-3    4.138135402273837E-1   -1.796783344596606E-1
 8.117155226125000E9     5.051293405055031E-1   -2.912131578421488E-2    9.889477227929726E-4    3.844588039408668E-3    1.076323423928981E-3    3.920573055219321E-3    4.137951353786938E-1   -1.797549465620026E-1
 8.117157984350000E9     5.052038963793113E-1   -2.928966396027419E-2    9.998503170474138E-4    3.887727358657436E-3    1.039041022023303E-3    3.949301404347887E-3    4.136276262378947E-1   -1.799144790521404E-1
 8.117160742575000E9     5.051201274644914E-1   -2.976903684551853E-2    1.004455928391961E-3    3.888375111177198E-3    1.050421920060469E-3    3.932089798410519E-3    4.136002366273007E-1   -1.800772700975147E-1
 8.117163500800000E9     5.050720076799454E-1   -2.992513385665805E-2    1.010085928143633E-3    3.867113361392512E-3    1.059582007423442E-3    3.919705346410154E-3    4.137388328183165E-1   -1.802113344761739E-1
 8.117166259025000E9     5.050523773922131E-1   -3.012544785586528E-2    1.010174374010348E-3    3.879897881594525E-3    1.045965039184282E-3    3.925382804651512E-3    4.134932231676911E-1   -1.805238773742696E-1
 8.117169017250000E9     5.049897441516048E-1   -3.036854352321385E-2    1.025829682014120E-3    3.878549045196054E-3    1.084813530673856E-3    3.959130532606166E-3    4.134124484617508E-1   -1.806922170200302E-1
 8.117171775475000E9     5.050438538616475E-1   -3.049604729988979E-2    1.023623890898139E-3    3.890154910303932E-3    1.067418929637451E-3    3.925893158779604E-3    4.133935241701662E-1   -1.808016660560293E-1
 8.117174533700000E9     5.050261483085793E-1   -3.086304090269724E-2    1.026597183174007E-3    3.866449453179390E-3    1.070565680786553E-3    3.938362059945776E-3    4.132031792605863E-1   -1.810761969148448E-1
 8.117177291925000E9     5.048726243109259E-1   -3.103123224721440E-2    1.015754599102126E-3    3.881865746617625E-3    1.051049948368036E-3    3.947436034794510E-3    4.131192909405232E-1   -1.812415197864652E-1
 8.117180050150000E9     5.049265095802670E-1   -3.131942786699256E-2    1.016424112729272E-3    3.870143522712176E-3    1.101890192894395E-3    3.982984990481852E-3    4.131693563674088E-1   -1.813835535513688E-1
 8.117182808375000E9     5.048631630369865E-1   -3.158478557272564E-2    1.012894824758730E-3    3.894331482208011E-3    1.067864820952417E-3    3.969253303700678E-3    4.131141057532143E-1   -1.816565437343086E-1
 8.117185566600000E9     5.048298119929169E-1   -3.161711869395623E-2    1.028490230291903E-3    3.906913424672289E-3    1.061165196387542E-3    3.978641514700941E-3    4.130874585489834E-1   -1.817596056619501E-1
 8.117188324825000E9     5.049117719092630E-1   -3.190240141602783E-2    1.015263257258752E-3    3.916065939919650E-3    1.100923281723145E-3    3.940781225232154E-3    4.129377183662016E-1   -1.818308945362444E-1
 8.117191083050000E9     5.049093624229086E-1   -3.227576824576576E-2    1.019186105482212E-3    3.911482743706052E-3    1.097567698817858E-3    3.969746398608931E-3    4.128879256392812E-1   -1.820998166009163E-1
 8.117193841275000E9     5.049037563928213E-1   -3.231711545941403E-2    1.033635293173906E-3    3.901742508116568E-3    1.088471278314963E-3    3.978730034357981E-3    4.128700671652824E-1   -1.823499656757849E-1
 8.117196599500000E9     5.047720494816474E-1   -3.256091135576063E-2    1.023467357738343E-3    3.933626991049087E-3    1.100236685423817E-3    3.971209566720282E-3    4.128117900481922E-1   -1.824829684583867E-1
 8.117199357725000E9     5.047296965514935E-1   -3.274497106746121E-2    1.062217826915465E-3    3.911210474364644E-3    1.123011317943256E-3    3.978857792494603E-3    4.126078775827356E-1   -1.826665068382422E-1
 8.117202115950000E9     5.048027347904694E-1   -3.306036660342954E-2    1.047573036763038E-3    3.922170029769195E-3    1.101922391757944E-3    3.963094190423259E-3    4.126291092605662E-1   -1.827115676772543E-1
 8.117204874175000E9     5.047979224405703E-1   -3.328935707088078E-2    1.043210379712005E-3    3.912131226610561E-3    1.124813601547994E-3    3.991931272407499E-3    4.125390602393105E-1   -1.831545259085019E-1
 8.117207632400000E9     5.047721566872470E-1   -3.355890025145577E-2    1.061811262094456E-3    3.954794345251259E-3    1.117190654289254E-3    4.011192734527789E-3    4.123195749827527E-1   -1.831904944112128E-1
 8.117210390625000E9     5.046483331502949E-1   -3.372060885389334E-2    1.065397837968325E-3    3.914774727735885E-3    1.102054749362346E-3    3.977332589190196E-3    4.124082684225054E-1   -1.833380867578909E-1
 8.117213148850000E9     5.046475044370962E-1   -3.396852297141290E-2    1.049768889287609E-3    3.923474174314241E-3    1.123189525030179E-3    3.999626272257814E-3    4.121672924270469E-1   -1.835364312990851E-1
 8.117215907075000E9     5.045976719991337E-1   -3.414949714240356E-2    1.060879432493722E-3    3.956796023981759E-3    1.129820993054774E-3    3.972488045139903E-3    4.123651900521237E-1   -1.836886884903272E-1
 8.117218665300000E9     5.045649150433287E-1   -3.440629805723049E-2    1.060100888572669E-3    3.958109057102821E-3    1.137280766054957E-3    4.025999396329821E-3    4.122911921842360E-1   -1.837681414390863E-1
 8.117221423525000E9     5.045844818222696E-1   -3.450969548109575E-2    1.070272888404706E-3    3.954068744521497E-3    1.130572607225775E-3    4.039170894120576E-3    4.120833560769072E-1   -1.841012203574879E-1
 8.117224181750000E9     5.045067069905488E-1   -3.480665502300660E-2    1.074894659402769E-3    3.951010520451763E-3    1.096380671126727E-3    3.980965555695755E-3    4.120050790503065E-1   -1.841753780228186E-1
 8.117226939975000E9     5.046764626082362E-1   -3.512203947392633E-2    1.077787053619276E-3    3.960064234965446E-3    1.131821237777690E-3    4.042989980112542E-3    4.120147439610318E-1   -1.844773581627770E-1
 8.117229698200000E9     5.046225050847631E-1   -3.519947808904006E-2    1.094948660343430E-3    3.977794626230208E-3    1.128031985771652E-3    4.029854086766611E-3    4.119472672189523E-1   -1.845294679971855E-1
 8.117232456425000E9     5.045184925910916E-1   -3.553354558515891E-2    1.080764329195943E-3    3.955693638790797E-3    1.160597178319523E-3    4.051403251870945E-3    4.119308951081173E-1   -1.848718582871299E-1
 8.117235214650000E9     5.045210601024728E-1   -3.574203641078454E-2    1.066603795483909E-3    3.979533884125045E-3    1.147745595581224E-3    4.041426461062982E-3    4.117845237545343E-1   -1.848997531642129E-1
 8.117237972875000E9     5.045065345020776E-1   -3.600083715704900E-2    1.092301472430216E-3    3.972871315929546E-3    1.163032172298772E-3    4.036509552372474E-3    4.116847788823657E-1   -1.850791430390466E-1
 8.117240731100000E9     5.044479375527874E-1   -3.613784995735689E-2    1.119731609909333E-3    3.966068625009735E-3    1.150540297246472E-3    4.039066344252449E-3    4.116189397447609E-1   -1.853713830712790E-1
 8.117243489325000E9     5.045366640571958E-1   -3.644031003947705E-2    1.094730725385937E-3    3.953229302186895E-3    1.208244749914422E-3    4.060977658915456E-3    4.115064551575927E-1   -1.855093167054872E-1
 8.117246247550000E9     5.043074895862568E-1   -3.673099066424951E-2    1.086634015950444E-3    4.003871814650502E-3    1.169598099792809E-3    4.052773778407517E-3    4.113935546707289E-1   -1.857817870078050E-1
 8.117249005775000E9     5.043252211168548E-1   -3.694285328016198E-2    1.109580698893415E-3    3.988759446869175E-3    1.164337180936974E-3    4.105805481041986E-3    4.114445110932301E-1   -1.856980585210457E-1
 8.117251764000000E9     5.042936921042854E-1   -3.710509806744312E-2    1.114747153073050E-3    4.014035131265642E-3    1.188785477302198E-3    4.082721937735029E-3    4.111694289823377E-1   -1.859862756274456E-1
 8.117254522225000E9     5.043737753401054E-1   -3.728712435791098E-2    1.109350288271752E-3    4.008571787782038E-3    1.194869410561315E-3    4.025589048545812E-3    4.112717918279101E-1   -1.861298453180961E-1
 8.117257280450000E9     5.042104437001991E-1   -3.755101702607606E-2    1.110373075743469E-3    4.012617510556917E-3    1.191044151266569E-3    4.048908167823169E-3    4.112169844654960E-1   -1.862723357516218E-1
 8.117260038675000E9     5.042639771196993E-1   -3.765910456025248E-2    1.104866480751967E-3    4.006067142912672E-3    1.215510214218492E-3    4.055885071125946E-3    4.111964885839435E-1   -1.864877144133243E-1
 8.117262796900000E9     5.042256816017716E-1   -3.802095196064350E-2    1.106402593549857E-3    4.011345972759758E-3    1.229626282754374E-3    4.068476133927564E-3    4.110745836883537E-1   -1.868143955543805E-1
 8.117265555125000E9     5.042027613817509E-1   -3.819709067544744E-2    1.129708575732667E-3    4.004216419715699E-3    1.215765027131368E-3    4.071287420475473E-3    4.110457233074497E-1   -1.869396961161264E-1
 8.117268313350000E9     5.041582010099421E-1   -3.850621544988719E-2    1.095776350735067E-3    4.026020565602108E-3    1.173588935230718E-3    4.078200637280753E-3    4.109217154880595E-1   -1.872117795589062E-1
 8.117271071575000E9     5.041803538300368E-1   -3.867486185769221E-2    1.147532900199681E-3    4.022151420661454E-3    1.215348845756944E-3    4.082203982610578E-3    4.106909382199700E-1   -1.873007944411292E-1
 8.117273829800000E9     5.041411021081439E-1   -3.903656827755234E-2    1.100777930596668E-3    4.034384362002749E-3    1.207265033290727E-3    4.117244847034661E-3    4.107912708980198E-1   -1.875300003164376E-1
 8.117276588025000E9     5.041503990239125E-1   -3.910824051399839E-2    1.141043183935998E-3    4.073198313597363E-3    1.214807345955793E-3    4.096002204571451E-3    4.106596362777337E-1   -1.877268270622339E-1
 8.117279346250000E9     5.039188593551119E-1   -3.933527813256765E-2    1.149154041166243E-3    4.014594834969824E-3    1.235180187358494E-3    4.094462284387730E-3    4.105070187588390E-1   -1.875863554577157E-1
 8.117282104475000E9     5.041794399983940E-1   -3.965992719819442E-2    1.160934228442458E-3    4.067369851663781E-3    1.233806285839581E-3    4.143459870105148E-3    4.105724005635421E-1   -1.879042622044786E-1
 8.117284862700000E9     5.039581372499287E-1   -3.992503888040954E-2    1.167951210448614E-3    4.068140346326139E-3    1.235991942630805E-3    4.127346509030243E-3    4.103952906390077E-1   -1.880963346972640E-1
 8.117287620925000E9     5.039967266490410E-1   -4.010662536308476E-2    1.162061498099537E-3    4.041276120441293E-3    1.275708575606438E-3    4.126178687504509E-3    4.105240887046282E-1   -1.884081713881820E-1
 8.117290379150000E9     5.040799324565565E-1   -4.022389016212322E-2    1.170097523790585E-3    4.095932305563257E-3    1.219239229718476E-3    4.144625042012886E-3    4.102788823739623E-1   -1.885394609444918E-1
 8.117293137375000E9     5.039171238999197E-1   -4.057433658766098E-2    1.197219625939299E-3    4.100989154410610E-3    1.268013317118726E-3    4.179667421405344E-3    4.101901224613699E-1   -1.889207995581034E-1
 8.117295895600000E9     5.039355636027218E-1   -4.069237203493106E-2    1.194356887927483E-3    4.106790237447810E-3    1.250310385836925E-3    4.130109215811915E-3    4.101876445812643E-1   -1.888107211630689E-1
 8.117298653825000E9     5.039273153893833E-1   -4.093766983915208E-2    1.176967012578961E-3    4.087328126248727E-3    1.303606104318144E-3    4.157645743048367E-3    4.100716414023069E-1   -1.890514218376309E-1
 8.117301412050000E9     5.039080988012480E-1   -4.136000431840565E-2    1.183025543216181E-3    4.088766883739331E-3    1.235578464278590E-3    4.156996530449917E-3    4.101372248689935E-1   -1.892173900362577E-1
 8.117304170275000E9     5.038448933505478E-1   -4.140506204092521E-2    1.214398299296370E-3    4.086936396536793E-3    1.278968387168615E-3    4.141495680371460E-3    4.098708529927422E-1   -1.894609451262775E-1
 8.117306928500000E9     5.037822977157286E-1   -4.173808421415495E-2    1.212546754047163E-3    4.115598307702484E-3    1.284954765454647E-3    4.178988572329525E-3    4.097690418153425E-1   -1.897487662098191E-1
 8.117309686725000E9     5.037593803023892E-1   -4.206248464347490E-2    1.211074914110486E-3    4.096936673159811E-3    1.297257514169685E-3    4.156874846552955E-3    4.097223782456595E-1   -1.897855507979030E-1
 8.117312444950000E9     5.036828281671051E-1   -4.217505418489478E-2    1.210767647919656E-3    4.108673148121126E-3    1.281764981112729E-3    4.172035166843139E-3    4.096566688018448E-1   -1.899036062599181E-1
 8.117315203175000E9     5.037435681876657E-1   -4.240738388106582E-2    1.247821204050452E-3    4.110027852854512E-3    1.284113312707610E-3    4.162752185993897E-3    4.096866301416664E-1   -1.902904472989072E-1
 8.117317961400000E9     5.036207608662310E-1   -4.262652238586593E-2    1.231698609235987E-3    4.107875295831132E-3    1.293578222997511E-3    4.215189479544456E-3    4.095448221991744E-1   -1.902046355102739E-1
 8.117320719625000E9     5.035895680236538E-1   -4.289067105970990E-2    1.245724503329420E-3    4.168290738293919E-3    1.294974990721724E-3    4.187297186624661E-3    4.094931711313636E-1   -1.905375786211755E-1
 8.117323477850000E9     5.036389948534367E-1   -4.315932262363949E-2    1.225516675130506E-3    4.157315777856220E-3    1.293311485026407E-3    4.206605973097624E-3    4.093636883070205E-1   -1.906629118474019E-1
 8.117326236075000E9     5.035858451606665E-1   -4.332490908970495E-2    1.245022168270365E-3    4.177031383173085E-3    1.304546870733255E-3    4.214512276665673E-3    4.093235054818550E-1   -1.909038786871124E-1
 8.117328994300000E9     5.034781845209624E-1   -4.365524633784322E-2    1.259635964057291E-3    4.167231901739535E-3    1.278458583721422E-3    4.208266618944389E-3    4.092180131148085E-1   -1.911247435654162E-1
 8.117331752525000E9     5.035425944843598E-1   -4.380505892924300E-2    1.240334957502466E-3    4.170696177040247E-3    1.339454966040741E-3    4.228137563205412E-3    4.091928187902890E-1   -1.912225565214683E-1
 8.117334510750000E9     5.035349619192233E-1   -4.407795668936836E-2    1.255114493510166E-3    4.153905299764823E-3    1.329780510057443E-3    4.235254212436125E-3    4.090796103660899E-1   -1.913521625330526E-1
 8.117337268975000E9     5.034358774362879E-1   -4.430839872157082E-2    1.267354057779211E-3    4.177309049847143E-3    1.355435941060937E-3    4.209005950556665E-3    4.090975935343262E-1   -1.915639502043898E-1
 8.117340027200000E9     5.033533992552435E-1   -4.452525953672368E-2    1.280562798049492E-3    4.164769430661497E-3    1.393742772775953E-3    4.280288993363034E-3    4.090051458806493E-1   -1.917809979295261E-1
 8.117342785425000E9     5.032876792492657E-1   -4.480043238860527E-2    1.264861842141613E-3    4.213596217264728E-3    1.349778606646881E-3    4.250318473681552E-3    4.089233187938647E-1   -1.920396445872468E-1
 8.117345543650000E9     5.033960969526130E-1   -4.503941351331373E-2    1.269469592958222E-3    4.194047616650381E-3    1.342974467498767E-3    4.263965545735246E-3    4.088580211924837E-1   -1.921744903068489E-1
 8.117348301875000E9     5.033877389094731E-1   -4.526119872616752E-2    1.265524302934138E-3    4.182024178444766E-3    1.371748427626749E-3    4.271424058509984E-3    4.088624370263602E-1   -1.922226285913115E-1
 8.117351060100000E9     5.033044808709105E-1   -4.552141629338300E-2    1.311630118405252E-3    4.200625873301136E-3    1.339196143726473E-3    4.289137220764789E-3    4.087967499423792E-1   -1.924928180868177E-1
 8.117353818325000E9     5.031517914618998E-1   -4.569886550845179E-2    1.289255907610205E-3    4.211441012049425E-3    1.408633393771212E-3    4.276559914803381E-3    4.085691661900003E-1   -1.926629863783033E-1
 8.117356576550000E9     5.032714863800255E-1   -4.596882393271644E-2    1.313957954923285E-3    4.239752092876753E-3    1.385191588192060E-3    4.265540533112242E-3    4.085699419224453E-1   -1.928829146785243E-1
 8.117359334775000E9     5.031887676849340E-1   -4.625032015389718E-2    1.303620479612723E-3    4.225497303773041E-3    1.390394053499140E-3    4.290627642352871E-3    4.084397172034873E-1   -1.930298768167082E-1
 8.117362093000000E9     5.030366652965530E-1   -4.643715119530076E-2    1.337674383234339E-3    4.227682503010405E-3    1.392466501412659E-3    4.320935039972460E-3    4.084148797944049E-1   -1.931761643889676E-1
 8.117364851225000E9     5.031725584651858E-1   -4.681011324674176E-2    1.320375140099626E-3    4.249381440301505E-3    1.373530138001107E-3    4.310692178067578E-3    4.083091669713745E-1   -1.933411772856791E-1
 8.117367609450000E9     5.030089308361431E-1   -4.690736094023204E-2    1.327919406416125E-3    4.260324974849741E-3    1.407083640026609E-3    4.326747100995613E-3    4.082678917652369E-1   -1.934465625575865E-1
 8.117370367675000E9     5.030701377434752E-1   -4.723892153777969E-2    1.328801746937185E-3    4.262733028103708E-3    1.412533728591934E-3    4.299282768460796E-3    4.081825865493854E-1   -1.937359488860832E-1
 8.117373125900000E9     5.029253009970662E-1   -4.752757067940575E-2    1.333760660380418E-3    4.290679920134178E-3    1.434157714387318E-3    4.333775081420275E-3    4.081184346636161E-1   -1.940178426296083E-1
 8.117375884125000E9     5.029109779219505E-1   -4.767417169120049E-2    1.346053866515664E-3    4.286526196343833E-3    1.417984758642696E-3    4.336192366978255E-3    4.079895410040165E-1   -1.940898429587333E-1
 8.117378642350000E9     5.028486439479728E-1   -4.795636264997601E-2    1.346439039063850E-3    4.295704042450921E-3    1.422143346867540E-3    4.365729426380136E-3    4.077990158375258E-1   -1.941623118590547E-1
 8.117381400575000E9     5.028434024794265E-1   -4.819206822760236E-2    1.351626913631899E-3    4.269440469646580E-3    1.437131432636827E-3    4.386174772830619E-3    4.078309265398191E-1   -1.945034521530856E-1
 8.117384158800000E9     5.028124870345673E-1   -4.844055218238557E-2    1.389414174874094E-3    4.306449907180198E-3    1.447187531409156E-3    4.366442468846503E-3    4.077875247067221E-1   -1.946607198342596E-1
 8.117386917025000E9     5.027070584815913E-1   -4.872466345778209E-2    1.369498433158100E-3    4.314070773851663E-3    1.468743612825554E-3    4.381932193795359E-3    4.075536973877895E-1   -1.947365247833599E-1
 8.117389675250000E9     5.028239354860163E-1   -4.897338162492873E-2    1.419725292170054E-3    4.329500110552728E-3    1.475782516410516E-3    4.364551662890860E-3    4.075333693211304E-1   -1.949472619660492E-1
