#  HZ   S   RI   R     50.00 
! Rohde & Schwarz Vector Network Analyzer 
! Rohde-Schwarz,ZNB20-2Port,1311601062101988,3.16
! Created: UTC 12/23/2023, 3:35:39 AM
! freq[Hz]                re:S11                  im:S11                  re:S21                  im:S21                  re:S12                  im:S12                  re:S22                  im:S22
 6.517151301000000E9    -2.297075919948615E-1   -1.392459767901037E-2    1.373359149855407E-2   -5.853755565357343E-3    1.375841921655419E-2   -5.336995785421112E-3    2.150298445100089E-1    5.049798167169052E-1
 6.517162643950000E9    -2.296953588814715E-1   -1.377582010715603E-2    1.359931752491885E-2   -5.855782314792571E-3    1.386337679157402E-2   -5.470804838421738E-3    2.158251384727640E-1    5.046203827047908E-1
 6.517173986900000E9    -2.294489122422064E-1   -1.356849864544735E-2    1.374868102897000E-2   -6.058866799285021E-3    1.386118652017672E-2   -5.497661292222902E-3    2.165347940903249E-1    5.042371982394822E-1
 6.517185329850000E9    -2.293786073744941E-1   -1.345124692080079E-2    1.370179341422888E-2   -5.941539619224341E-3    1.395445737061452E-2   -5.492577017138145E-3    2.172790043561148E-1    5.038460320569250E-1
 6.517196672800000E9    -2.293550451166711E-1   -1.320570390028188E-2    1.383708010765861E-2   -6.015697388854570E-3    1.402957816317854E-2   -5.567397453856580E-3    2.182427851060497E-1    5.035696217996810E-1
 6.517208015750000E9    -2.291545187452034E-1   -1.313292777174261E-2    1.381951953320545E-2   -6.173080345936030E-3    1.402885094992895E-2   -5.611042782238119E-3    2.190544191410530E-1    5.031874897901241E-1
 6.517219358700000E9    -2.290203632774032E-1   -1.284734041804131E-2    1.388886582976280E-2   -6.065133815619392E-3    1.410367606699438E-2   -5.685014168299953E-3    2.199688210789091E-1    5.028488921905820E-1
 6.517230701650000E9    -2.289300757756259E-1   -1.275691622330897E-2    1.407411362602312E-2   -6.211863509539833E-3    1.422055811736326E-2   -5.718347444804647E-3    2.207508353252444E-1    5.026033677639544E-1
 6.517242044600000E9    -2.287718958394550E-1   -1.257976757812562E-2    1.415853197802681E-2   -6.193953731847218E-3    1.429472402808640E-2   -5.822164250673550E-3    2.214996171580371E-1    5.022353743828515E-1
 6.517253387550000E9    -2.287057616541767E-1   -1.239896816262798E-2    1.412262091655533E-2   -6.308562370014557E-3    1.436202112911583E-2   -5.928338246422091E-3    2.222872360524753E-1    5.017040337597918E-1
 6.517264730500000E9    -2.285514394029675E-1   -1.220020715417609E-2    1.419465769190188E-2   -6.458500818384375E-3    1.434949351511061E-2   -5.848746068674081E-3    2.232290479697746E-1    5.013228439246969E-1
 6.517276073450000E9    -2.284005419819255E-1   -1.204185470173371E-2    1.430073947289871E-2   -6.558909105648680E-3    1.428864990830294E-2   -5.983083935252697E-3    2.241050851775503E-1    5.012051117432140E-1
 6.517287416400000E9    -2.283262769825065E-1   -1.189323043824389E-2    1.428852468520878E-2   -6.459575370952595E-3    1.448431235514585E-2   -6.082459819542820E-3    2.249290492622011E-1    5.008454968107163E-1
 6.517298759350000E9    -2.282007429451285E-1   -1.171524784847885E-2    1.437852325081658E-2   -6.544706309769659E-3    1.451102250864197E-2   -6.105319085049857E-3    2.257412538089153E-1    5.002722855285383E-1
 6.517310102300000E9    -2.280037332132842E-1   -1.148120234058662E-2    1.437301533679188E-2   -6.648550579394471E-3    1.456856264536689E-2   -6.135241885019597E-3    2.266457977487017E-1    4.998791372638422E-1
 6.517321445250000E9    -2.280221437396493E-1   -1.133740626281685E-2    1.452472319622755E-2   -6.636654084214196E-3    1.459643419005384E-2   -6.247874530588383E-3    2.274269439351491E-1    4.994723603553134E-1
 6.517332788200000E9    -2.277913452241623E-1   -1.124341627421127E-2    1.443885068835633E-2   -6.796445154239984E-3    1.466866222095396E-2   -6.207835614158387E-3    2.282877999235249E-1    4.992542647151334E-1
 6.517344131150000E9    -2.276710655452162E-1   -1.103467208308312E-2    1.458877357340907E-2   -6.799611615873976E-3    1.478231399072896E-2   -6.328481255680747E-3    2.290752536330157E-1    4.989329907006785E-1
 6.517355474100000E9    -2.275563883798555E-1   -1.093427624748936E-2    1.462827865596803E-2   -6.755639230521548E-3    1.481435501223877E-2   -6.415659719299379E-3    2.298983418328288E-1    4.984900977418986E-1
 6.517366817050000E9    -2.274005103347182E-1   -1.075171783904844E-2    1.466489058443307E-2   -6.949360637529363E-3    1.493277494603457E-2   -6.358470556505472E-3    2.307856375795043E-1    4.981551260965230E-1
 6.517378160000000E9    -2.273486744415215E-1   -1.057356217589256E-2    1.488494573454217E-2   -7.074168504334724E-3    1.496516705570728E-2   -6.509260721486373E-3    2.315822941995020E-1    4.976662313170582E-1
 6.517389502950000E9    -2.271843633275964E-1   -1.039581910930554E-2    1.498299664563226E-2   -7.050852346704752E-3    1.509901092963204E-2   -6.626962326788436E-3    2.324181581911542E-1    4.973992548162174E-1
 6.517400845900000E9    -2.269520766199060E-1   -1.034102994923671E-2    1.497484186448831E-2   -7.114181274148175E-3    1.517335954661805E-2   -6.474356631191291E-3    2.333302380056355E-1    4.968716595509924E-1
 6.517412188850000E9    -2.269573436351015E-1   -1.006769881277514E-2    1.498110030622395E-2   -7.165016926734484E-3    1.516937257273434E-2   -6.747752157633973E-3    2.340485762004931E-1    4.966702433137516E-1
 6.517423531800000E9    -2.268012260917304E-1   -9.811261680411302E-3    1.507077228718334E-2   -7.314384732295096E-3    1.523104746451962E-2   -6.647268684100033E-3    2.348667537562122E-1    4.961515603802803E-1
 6.517434874750000E9    -2.265801282671207E-1   -9.926886741609322E-3    1.512128493606539E-2   -7.358475519054581E-3    1.540333962205687E-2   -6.910833443579442E-3    2.357015177537070E-1    4.957402319720087E-1
 6.517446217700000E9    -2.264168921167102E-1   -9.640318398952120E-3    1.516282559427681E-2   -7.283990025591608E-3    1.539867945733754E-2   -6.927932221407038E-3    2.366655232342924E-1    4.955046977566175E-1
 6.517457560650000E9    -2.263268932056106E-1   -9.422815578707501E-3    1.525675715272434E-2   -7.592777988004219E-3    1.545787965483057E-2   -7.022517575266856E-3    2.373730479223968E-1    4.949662099842523E-1
 6.517468903600000E9    -2.260636513771197E-1   -9.375206832268338E-3    1.528319554332199E-2   -7.659418463608861E-3    1.556408422082198E-2   -7.033517934170790E-3    2.383488278286635E-1    4.946486698511686E-1
 6.517480246550000E9    -2.259590372807288E-1   -9.239965002796311E-3    1.551271915599440E-2   -7.719027900383527E-3    1.560044391263401E-2   -7.192879401186105E-3    2.391081649757342E-1    4.943371182635456E-1
 6.517491589500000E9    -2.259410681597771E-1   -9.070748057855614E-3    1.547955714659729E-2   -7.762119813780263E-3    1.568665097382970E-2   -7.211547669924889E-3    2.398613861721979E-1    4.937642520367519E-1
 6.517502932450000E9    -2.257670481647137E-1   -8.919845746968406E-3    1.560896439474098E-2   -7.844355689538255E-3    1.585748567145922E-2   -7.404300175881660E-3    2.407574423558166E-1    4.935477653655106E-1
 6.517514275400000E9    -2.255370697984673E-1   -8.727737388282003E-3    1.570024720330642E-2   -7.767208929050139E-3    1.577041723329745E-2   -7.430541674026188E-3    2.415721928629247E-1    4.929807258867149E-1
 6.517525618350000E9    -2.253706123471107E-1   -8.647419442774468E-3    1.568870971197891E-2   -8.014659389493537E-3    1.593146926670412E-2   -7.565059927383238E-3    2.424145517836489E-1    4.925986330430345E-1
 6.517536961300000E9    -2.252280222851774E-1   -8.417339787632212E-3    1.580318911660795E-2   -8.042498484306868E-3    1.608622381561528E-2   -7.563722695958547E-3    2.434145783079090E-1    4.924202445524400E-1
 6.517548304250000E9    -2.250297154552506E-1   -8.326368086909492E-3    1.582929570977793E-2   -8.205644121596942E-3    1.603482267628906E-2   -7.511867421531116E-3    2.441759567021941E-1    4.918915583413762E-1
 6.517559647200000E9    -2.249458340254852E-1   -8.159112854920384E-3    1.590218089649389E-2   -8.201471879994829E-3    1.615308464692621E-2   -7.586235848941699E-3    2.450984434619458E-1    4.914485600009622E-1
 6.517570990150000E9    -2.247376466889721E-1   -8.007368853798715E-3    1.601108052224347E-2   -8.310409020869037E-3    1.621629201228177E-2   -7.766655681612141E-3    2.456484302359897E-1    4.910890715759997E-1
 6.517582333100000E9    -2.246330315881584E-1   -7.850577440532929E-3    1.603950991897535E-2   -8.342435626144061E-3    1.634824690140665E-2   -7.913011304541681E-3    2.465634655639618E-1    4.906224914242974E-1
 6.517593676050000E9    -2.245211249540699E-1   -7.712179372129982E-3    1.617081047304574E-2   -8.452654918387037E-3    1.642252516319089E-2   -7.859498847316569E-3    2.473767964436869E-1    4.901648317230901E-1
 6.517605019000000E9    -2.243894703982544E-1   -7.548348978259809E-3    1.629787475711851E-2   -8.468085762363516E-3    1.634806916492225E-2   -7.860794598981329E-3    2.483553272319202E-1    4.897695533851361E-1
 6.517616361950000E9    -2.242013708692877E-1   -7.630579864600306E-3    1.626506983320737E-2   -8.580531343712134E-3    1.661400467197922E-2   -8.167453347047571E-3    2.491890334830819E-1    4.893722957418279E-1
 6.517627704900000E9    -2.241105844440282E-1   -7.329241312176570E-3    1.622165460726753E-2   -8.596588585931431E-3    1.661810167770629E-2   -8.055202581838779E-3    2.499370064249430E-1    4.889516567522605E-1
 6.517639047850000E9    -2.239812091140977E-1   -7.195553287380437E-3    1.659807531886653E-2   -8.722357134812918E-3    1.670246224130402E-2   -8.277535203426124E-3    2.507736155469884E-1    4.884442101668029E-1
 6.517650390800000E9    -2.237162295836859E-1   -7.101810799468194E-3    1.666786538581665E-2   -8.845375955089736E-3    1.678109722693973E-2   -8.238801939640376E-3    2.516564523026855E-1    4.880763221968175E-1
 6.517661733750000E9    -2.235034349793199E-1   -6.878197924331785E-3    1.666753304421271E-2   -8.970683031444847E-3    1.686271022502805E-2   -8.346575990659440E-3    2.523788991995082E-1    4.877386198565649E-1
 6.517673076700000E9    -2.233606713719126E-1   -6.842077192077316E-3    1.680959259464627E-2   -9.098422515698574E-3    1.696547540224309E-2   -8.538780735740468E-3    2.532758370285423E-1    4.872307634643696E-1
 6.517684419650000E9    -2.232166539418475E-1   -6.730655563615693E-3    1.672573606132642E-2   -9.110901902005216E-3    1.697435502198017E-2   -8.667626503086362E-3    2.541579441652271E-1    4.867000450360643E-1
 6.517695762600000E9    -2.229457312355820E-1   -6.481304406747844E-3    1.691372179465488E-2   -9.293004421156343E-3    1.721041548146533E-2   -8.737589097831558E-3    2.549668485611529E-1    4.864007990740630E-1
 6.517707105550000E9    -2.228426958232269E-1   -6.400043322864988E-3    1.698628648430411E-2   -9.322556839633135E-3    1.718094331474045E-2   -8.795385350119204E-3    2.557044254670788E-1    4.859364808999518E-1
 6.517718448500000E9    -2.226422811726024E-1   -6.304198875282640E-3    1.703548062598418E-2   -9.218079138833163E-3    1.735237190464608E-2   -8.773599834561692E-3    2.567384364298680E-1    4.854809618428872E-1
 6.517729791450000E9    -2.224932678561517E-1   -6.099747174149740E-3    1.708705484063399E-2   -9.462071136523293E-3    1.740050855453011E-2   -8.990680060315623E-3    2.573581600783723E-1    4.849966118279534E-1
 6.517741134400000E9    -2.223844669948988E-1   -6.086781802963357E-3    1.729823857980569E-2   -9.667024589789389E-3    1.759707308223944E-2   -9.039410358496116E-3    2.583030148378066E-1    4.845420632670221E-1
 6.517752477350000E9    -2.222499386549509E-1   -5.936218676254550E-3    1.739597316281631E-2   -9.793882384654215E-3    1.765562241097627E-2   -9.189154320452510E-3    2.590783936936562E-1    4.840675807782510E-1
 6.517763820300000E9    -2.219283809193761E-1   -5.842155363215235E-3    1.756592665299462E-2   -9.902563429637051E-3    1.787758599112005E-2   -9.303046926020533E-3    2.601852710143691E-1    4.836307375321802E-1
 6.517775163250000E9    -2.218298290020738E-1   -5.784284807070536E-3    1.742480134681538E-2   -9.826219867425020E-3    1.795320402875332E-2   -9.358515188305619E-3    2.608665734239176E-1    4.832391379232054E-1
 6.517786506200000E9    -2.217071707991637E-1   -5.579913382952465E-3    1.762063368438924E-2   -1.006880690618028E-2    1.792161144819563E-2   -9.474978416171561E-3    2.616860600935978E-1    4.827768958231977E-1
 6.517797849150000E9    -2.214457673414373E-1   -5.587836598093219E-3    1.783162092081838E-2   -1.022319984192693E-2    1.801615438236941E-2   -9.637773577857603E-3    2.625046647487894E-1    4.823671798765650E-1
 6.517809192100000E9    -2.212675522295858E-1   -5.338298918938860E-3    1.763760479906408E-2   -1.019827522967664E-2    1.814137950624370E-2   -9.632526876465443E-3    2.633253370454506E-1    4.818061254795957E-1
 6.517820535050000E9    -2.211350536991026E-1   -5.230685249470274E-3    1.797492718554972E-2   -1.034134117007289E-2    1.823715852049954E-2   -9.803581169821772E-3    2.641332942103602E-1    4.813511230954193E-1
 6.517831878000000E9    -2.209288736212989E-1   -5.056115979304557E-3    1.802426223523079E-2   -1.039691224578663E-2    1.836006465849309E-2   -9.953454436836829E-3    2.650902271286583E-1    4.808962406637756E-1
 6.517843220950000E9    -2.207748184772399E-1   -5.112325778811544E-3    1.811374961695308E-2   -1.058410873503731E-2    1.845125341136704E-2   -1.003252857645484E-2    2.658144029150924E-1    4.804603084536571E-1
 6.517854563900000E9    -2.205211404402336E-1   -4.801052984807453E-3    1.815231888578277E-2   -1.061409335428950E-2    1.864403460362428E-2   -1.012958973965631E-2    2.668790335401378E-1    4.799294958385827E-1
 6.517865906850000E9    -2.202370190790610E-1   -4.905115418721885E-3    1.832505232555796E-2   -1.086501192572199E-2    1.856140952142707E-2   -1.030927198316818E-2    2.674369836004931E-1    4.794323308550685E-1
 6.517877249800000E9    -2.201088888602436E-1   -4.775577324787008E-3    1.837699085402377E-2   -1.097540151192336E-2    1.872166554644776E-2   -1.042224983193283E-2    2.684618201895973E-1    4.788035486368971E-1
 6.517888592750000E9    -2.199920241383373E-1   -4.721834666237861E-3    1.851640350011687E-2   -1.104593030162699E-2    1.886996409047053E-2   -1.044406039244743E-2    2.692542354516953E-1    4.784032081610110E-1
 6.517899935700000E9    -2.197094929407773E-1   -4.582497521992107E-3    1.874231962972724E-2   -1.120360878475864E-2    1.894790468631830E-2   -1.069887146442340E-2    2.700807248825450E-1    4.781494703394715E-1
 6.517911278650000E9    -2.195012143563428E-1   -4.435151423405048E-3    1.881039350326853E-2   -1.137232898007894E-2    1.902590006129908E-2   -1.066237310287781E-2    2.710344471653776E-1    4.774586563450781E-1
 6.517922621600000E9    -2.193766571856458E-1   -4.372096908192797E-3    1.877907572975576E-2   -1.153879495123773E-2    1.921275379827449E-2   -1.083700969897237E-2    2.719159560165656E-1    4.770240534014524E-1
 6.517933964550000E9    -2.191376374106367E-1   -4.276475402614806E-3    1.907731169232451E-2   -1.164574401523977E-2    1.922797391413981E-2   -1.091943331299701E-2    2.726259673835409E-1    4.765911197495215E-1
 6.517945307500000E9    -2.189352777169830E-1   -4.268180413782341E-3    1.910081154994506E-2   -1.174154574468773E-2    1.945782747285724E-2   -1.114158502502369E-2    2.734052888215460E-1    4.761312177353259E-1
 6.517956650450000E9    -2.186443476258855E-1   -4.086055389501534E-3    1.910173076072728E-2   -1.182768874657203E-2    1.939511408871213E-2   -1.119287804272486E-2    2.742831281605263E-1    4.755744100121329E-1
 6.517967993400000E9    -2.184599493425228E-1   -4.016125376780719E-3    1.939670744313267E-2   -1.192561344679326E-2    1.953181585611071E-2   -1.131410369954909E-2    2.751309656869020E-1    4.748979339771614E-1
 6.517979336350000E9    -2.182965973180191E-1   -4.010365562203149E-3    1.934517400276430E-2   -1.219658850906957E-2    1.976280491790586E-2   -1.156138724651488E-2    2.760102789141313E-1    4.745357103408468E-1
 6.517990679300000E9    -2.180554731672941E-1   -3.826023277298834E-3    1.945888791140990E-2   -1.211341313724086E-2    1.995678377734943E-2   -1.165380191961214E-2    2.769774167188530E-1    4.739534167309105E-1
 6.518002022250000E9    -2.178178349700317E-1   -3.766033890477099E-3    1.970137801003978E-2   -1.238621586744384E-2    2.008325350153147E-2   -1.179127770811244E-2    2.775565475269537E-1    4.734708315789166E-1
 6.518013365200000E9    -2.176598859807424E-1   -3.734804137624516E-3    1.983982026357047E-2   -1.255318029793025E-2    2.014672884728554E-2   -1.199042771871226E-2    2.785553073061073E-1    4.728485981356926E-1
 6.518024708150000E9    -2.173967553806494E-1   -3.686500126921079E-3    1.974525828818695E-2   -1.266045335221537E-2    2.026328338797834E-2   -1.205365608895820E-2    2.794763660374173E-1    4.725022230021510E-1
 6.518036051100000E9    -2.171111870817287E-1   -3.624784370304461E-3    1.995679100958006E-2   -1.292078042826204E-2    2.036908079296023E-2   -1.224726235981992E-2    2.802809244894728E-1    4.719050040165043E-1
 6.518047394050000E9    -2.170043289843012E-1   -3.491659299023941E-3    2.010781191174775E-2   -1.298997239454127E-2    2.050700406549738E-2   -1.237741415291185E-2    2.810866653104898E-1    4.714825860547725E-1
 6.518058737000000E9    -2.167694686192540E-1   -3.495612001346180E-3    2.022823354252280E-2   -1.326104625914773E-2    2.059120737229943E-2   -1.258683896663074E-2    2.820511798447363E-1    4.709032920822145E-1
 6.518070079950000E9    -2.166280339975669E-1   -3.495927095922710E-3    2.034648402181149E-2   -1.338568552643772E-2    2.075404791638442E-2   -1.268273714297590E-2    2.827665623805660E-1    4.702957549925368E-1
 6.518081422900000E9    -2.162562951348131E-1   -3.451359413703584E-3    2.045323584290836E-2   -1.351949524535827E-2    2.091653781112843E-2   -1.295388037856931E-2    2.837049959079791E-1    4.697369140923708E-1
 6.518092765850000E9    -2.160682488866691E-1   -3.260852002926888E-3    2.061778731391224E-2   -1.358121842521105E-2    2.092973042525062E-2   -1.298608082785687E-2    2.845167400274363E-1    4.692230437113317E-1
 6.518104108800000E9    -2.159006474744872E-1   -3.229995905717998E-3    2.057030190867571E-2   -1.393663322708692E-2    2.123811297473325E-2   -1.315771868207099E-2    2.852486670763800E-1    4.686851509734466E-1
 6.518115451750000E9    -2.156002059815662E-1   -3.086823388858143E-3    2.092210036372783E-2   -1.415640199484966E-2    2.135643100434494E-2   -1.340677516479350E-2    2.861664063449538E-1    4.682538000397097E-1
 6.518126794700000E9    -2.155016395194431E-1   -3.069407576153465E-3    2.099190997200399E-2   -1.417346377877814E-2    2.149735707078835E-2   -1.352658482246323E-2    2.870477400149407E-1    4.676304696963365E-1
 6.518138137650000E9    -2.152449047257135E-1   -3.204120449545028E-3    2.120270954713829E-2   -1.430952051185833E-2    2.151771301497685E-2   -1.363862962614002E-2    2.879543814027716E-1    4.670392313855346E-1
 6.518149480600000E9    -2.149177050380538E-1   -3.074154672622913E-3    2.122204552797996E-2   -1.468340769574026E-2    2.180034655219342E-2   -1.383423094620909E-2    2.887145628505753E-1    4.664545569604675E-1
 6.518160823550000E9    -2.146540683242040E-1   -3.059819212770687E-3    2.136538547259943E-2   -1.477859441348905E-2    2.190604078416100E-2   -1.411972536645677E-2    2.896585963010505E-1    4.658418286587409E-1
 6.518172166500000E9    -2.144444576177363E-1   -2.964777688180246E-3    2.164904929513752E-2   -1.488259913713744E-2    2.207703952897436E-2   -1.426439664910016E-2    2.904670752182328E-1    4.652466332467445E-1
