#  HZ   S   RI   R     50.00 
! Rohde & Schwarz Vector Network Analyzer 
! Rohde-Schwarz,ZNB20-2Port,1311601062101988,3.16
! Created: UTC 12/23/2023, 3:48:17 AM
! freq[Hz]                re:S11                  im:S11                  re:S21                  im:S21                  re:S12                  im:S12                  re:S22                  im:S22
 7.836931485000000E9     5.647148017839735E-1    4.022011394420907E-2    1.172143645708178E-3    3.735801267087163E-3    1.183186805645381E-3    3.711574374850390E-3    4.692930363351964E-1   -2.661327934819606E-1
 7.836964971100000E9     5.649587607987724E-1    3.794916259475593E-2    1.212389357857351E-3    3.758859963023508E-3    1.198060707853363E-3    3.674376997775392E-3    4.682052621476621E-1   -2.681020122292916E-1
 7.836998457200000E9     5.651734935641485E-1    3.575799922472944E-2    1.228854397748488E-3    3.768353793190178E-3    1.241115895023569E-3    3.689151069279668E-3    4.671140848300280E-1   -2.700274636719022E-1
 7.837031943300000E9     5.652325669930205E-1    3.365885596282032E-2    1.227656081500613E-3    3.769623887240181E-3    1.261436976611742E-3    3.704680733404061E-3    4.659022276653966E-1   -2.720167332028380E-1
 7.837065429400000E9     5.652896764561559E-1    3.134616936453416E-2    1.235372865696378E-3    3.756545393263642E-3    1.258123913674910E-3    3.695289651871241E-3    4.646785246455721E-1   -2.741442500180634E-1
 7.837098915500000E9     5.654898346697769E-1    2.912373116494075E-2    1.261655179920559E-3    3.764842710626922E-3    1.288960658092055E-3    3.675541966533739E-3    4.636686134993441E-1   -2.760350699513657E-1
 7.837132401600000E9     5.657839669978272E-1    2.694977183150206E-2    1.301407654384492E-3    3.778429338242287E-3    1.307389949057896E-3    3.718514276429212E-3    4.624072394123565E-1   -2.781210556269648E-1
 7.837165887700000E9     5.657592578970408E-1    2.465943394256086E-2    1.311796161276042E-3    3.752073755530915E-3    1.304262699143647E-3    3.709370165711495E-3    4.611666319352734E-1   -2.801707999242228E-1
 7.837199373800000E9     5.658272746466688E-1    2.251614242253389E-2    1.321181991918724E-3    3.754831776782268E-3    1.350908810950313E-3    3.698335584354041E-3    4.599159589380628E-1   -2.821627176214601E-1
 7.837232859900000E9     5.660184839837575E-1    2.026388469321241E-2    1.341814804280389E-3    3.775624854151913E-3    1.327587312667512E-3    3.717745221536115E-3    4.587483582399131E-1   -2.841032519810033E-1
 7.837266346000000E9     5.658947996328600E-1    1.790303973652963E-2    1.335904550134334E-3    3.762587019674079E-3    1.387094435085699E-3    3.666878355364426E-3    4.576426977141407E-1   -2.861577869106046E-1
 7.837299832100000E9     5.660585166207066E-1    1.587166621275648E-2    1.370199657146781E-3    3.741488329968136E-3    1.386139152915109E-3    3.713446079052477E-3    4.562054322869485E-1   -2.880608762727281E-1
 7.837333318200000E9     5.662421215180533E-1    1.351583170076682E-2    1.414412592800874E-3    3.750904050965261E-3    1.411203674526935E-3    3.729308110596604E-3    4.550920693156500E-1   -2.901776484326760E-1
 7.837366804300000E9     5.662595681130785E-1    1.128553996689951E-2    1.383803494801147E-3    3.762431615926345E-3    1.395300763554555E-3    3.711325088490521E-3    4.538470996544381E-1   -2.920992398948739E-1
 7.837400290400000E9     5.663175713013563E-1    9.034808909632680E-3    1.441021522804499E-3    3.764991572604708E-3    1.438497987594637E-3    3.702756618468118E-3    4.525165280327012E-1   -2.940924931780459E-1
 7.837433776500000E9     5.664398853500929E-1    6.813548588882777E-3    1.448249815052534E-3    3.738652436782031E-3    1.465251825441201E-3    3.668199067032063E-3    4.513186451029164E-1   -2.960378079576159E-1
 7.837467262600000E9     5.664874660939430E-1    4.707747625801516E-3    1.473141636028780E-3    3.740252743507977E-3    1.459008404911650E-3    3.692162363479948E-3    4.500012363450996E-1   -2.980440551963758E-1
 7.837500748700000E9     5.665124416162646E-1    2.412147920242532E-3    1.502882360269102E-3    3.766690948670585E-3    1.508308529830361E-3    3.727283848134663E-3    4.487171196337402E-1   -3.000336572465576E-1
 7.837534234800000E9     5.664655627480428E-1    1.911203008700141E-4    1.528040596218067E-3    3.769262141920290E-3    1.479004387700093E-3    3.680150278155655E-3    4.474125186869475E-1   -3.019344996599631E-1
 7.837567720900000E9     5.663728889970958E-1   -1.958773558678027E-3    1.546300794762007E-3    3.724134944387488E-3    1.576855054935310E-3    3.730480953221119E-3    4.460979417858484E-1   -3.040774311875329E-1
 7.837601207000000E9     5.664680752885710E-1   -4.113439569048655E-3    1.508522838992591E-3    3.747886721067591E-3    1.573568877344452E-3    3.682924477448362E-3    4.447580205449703E-1   -3.058565263249836E-1
 7.837634693100000E9     5.663962522928038E-1   -6.355400492422857E-3    1.571905705608149E-3    3.751741997707843E-3    1.591967569812137E-3    3.666009567278865E-3    4.433334227242462E-1   -3.078107893284787E-1
 7.837668179200000E9     5.663912513800412E-1   -8.661012026129910E-3    1.596509444859856E-3    3.747574722370527E-3    1.572739139261800E-3    3.690488298224042E-3    4.422373525661426E-1   -3.097755979977447E-1
 7.837701665300000E9     5.665163506370846E-1   -1.086553817041669E-2    1.612752600927051E-3    3.772255294664078E-3    1.633249619086632E-3    3.686079657704803E-3    4.407955207801919E-1   -3.117063881027229E-1
 7.837735151400000E9     5.665188803505971E-1   -1.314441197347573E-2    1.630776807673938E-3    3.757162073805000E-3    1.631195333760165E-3    3.664483545343922E-3    4.392300324232332E-1   -3.136037471554447E-1
 7.837768637500000E9     5.664322343779818E-1   -1.541709651923481E-2    1.626719211109249E-3    3.750966213332168E-3    1.637232628393545E-3    3.682837827800942E-3    4.379204796341695E-1   -3.155474010236737E-1
 7.837802123600000E9     5.664592922916545E-1   -1.756316773499344E-2    1.682924460611451E-3    3.756694622259720E-3    1.681046698817687E-3    3.659028579515543E-3    4.367465955123342E-1   -3.174353674388349E-1
 7.837835609700000E9     5.662931644709612E-1   -1.984386946574390E-2    1.679565452788377E-3    3.745699769291630E-3    1.702560570071164E-3    3.660003091653000E-3    4.353502141847889E-1   -3.192864568185539E-1
 7.837869095800000E9     5.661562001329608E-1   -2.204442178688586E-2    1.718827181851114E-3    3.724542887359934E-3    1.718823313378557E-3    3.673352329190190E-3    4.339152274420223E-1   -3.210447987894574E-1
 7.837902581900000E9     5.660529840215774E-1   -2.419133372738513E-2    1.748654644366728E-3    3.752174395958501E-3    1.722962968360865E-3    3.680952781317572E-3    4.324578680570073E-1   -3.228714587355940E-1
 7.837936068000000E9     5.659669164187728E-1   -2.666933146765481E-2    1.762741244574200E-3    3.732745029606496E-3    1.738079590909392E-3    3.659433637228661E-3    4.311919732710270E-1   -3.250217476972993E-1
 7.837969554100000E9     5.659036865904763E-1   -2.873688670844569E-2    1.789119410054385E-3    3.724167735441103E-3    1.776922666806723E-3    3.659982865480367E-3    4.297620141410844E-1   -3.267129449335825E-1
 7.838003040200000E9     5.657779465675531E-1   -3.092909359818441E-2    1.788836940536876E-3    3.734123371414223E-3    1.776504200560153E-3    3.693173428910027E-3    4.283940694837262E-1   -3.288181100993160E-1
 7.838036526300000E9     5.655753886887139E-1   -3.341014779314802E-2    1.828698897315634E-3    3.768597367600290E-3    1.815420596326724E-3    3.672640900133207E-3    4.269110429505487E-1   -3.306796305168772E-1
 7.838070012400000E9     5.656262937979172E-1   -3.542282339841319E-2    1.829750616647790E-3    3.705956444571890E-3    1.831154930626262E-3    3.630401727430661E-3    4.254313169215871E-1   -3.324884475945051E-1
 7.838103498500000E9     5.654077992204599E-1   -3.768314265150033E-2    1.866273051780037E-3    3.710274184223922E-3    1.851505942617688E-3    3.619242888719479E-3    4.241001487018044E-1   -3.343351243157589E-1
 7.838136984600000E9     5.652503447184244E-1   -3.985651113709897E-2    1.855291810371019E-3    3.730524140191325E-3    1.904515718030976E-3    3.620357477805206E-3    4.226678194814523E-1   -3.362463852609159E-1
 7.838170470700000E9     5.652057089495903E-1   -4.203377324406991E-2    1.883004213174244E-3    3.704559286941196E-3    1.878963897862197E-3    3.626253387725346E-3    4.210693054501913E-1   -3.379285336865180E-1
 7.838203956800000E9     5.650458115151029E-1   -4.445052155580818E-2    1.908193887267456E-3    3.749732030840400E-3    1.872429887667985E-3    3.661855803431297E-3    4.196139161450987E-1   -3.398096681845429E-1
 7.838237442900000E9     5.647674767782761E-1   -4.652610402335613E-2    1.944601052278283E-3    3.735157680660994E-3    1.922008244540503E-3    3.683109303410030E-3    4.182679745951548E-1   -3.415472897416357E-1
 7.838270929000000E9     5.646094358889752E-1   -4.876138766178022E-2    1.973249619137458E-3    3.722914697346627E-3    1.933464309144462E-3    3.652740265667344E-3    4.167837024719523E-1   -3.434999180243621E-1
 7.838304415100000E9     5.643726814941654E-1   -5.115109454635212E-2    1.980418398331928E-3    3.720121139913307E-3    1.958630343036768E-3    3.649251771329248E-3    4.152393187958456E-1   -3.453958207245039E-1
 7.838337901200000E9     5.642299883008158E-1   -5.326537653154029E-2    1.987201261476511E-3    3.696731002077934E-3    2.018009943084896E-3    3.653319134358788E-3    4.137652847378683E-1   -3.471955925798247E-1
 7.838371387300000E9     5.639276720232134E-1   -5.543499254922128E-2    2.026314916179721E-3    3.705946914478107E-3    1.992322966694057E-3    3.639543676702404E-3    4.122127044744627E-1   -3.489029104583595E-1
 7.838404873400000E9     5.639548368163452E-1   -5.760732037890134E-2    2.063118558065911E-3    3.716470677353806E-3    2.020527661364636E-3    3.637314323343070E-3    4.106541449661397E-1   -3.506767634107490E-1
 7.838438359500000E9     5.635699635781859E-1   -5.988166066148624E-2    2.052487835154515E-3    3.695599358296907E-3    2.034018884009055E-3    3.609190841263109E-3    4.091668582363855E-1   -3.525119653590559E-1
 7.838471845600000E9     5.634454025605233E-1   -6.213140961444669E-2    2.106112747650419E-3    3.696406336759819E-3    2.088808792970900E-3    3.637649028587594E-3    4.076618384452517E-1   -3.542045089887309E-1
 7.838505331700000E9     5.631499906347759E-1   -6.450372281675813E-2    2.123907147176350E-3    3.729736382535647E-3    2.074182807182903E-3    3.659746100291452E-3    4.060577490207657E-1   -3.561063648547069E-1
 7.838538817800000E9     5.628242913140246E-1   -6.656968651978605E-2    2.120922109291812E-3    3.710813112282705E-3    2.103734351002099E-3    3.673621439335289E-3    4.045193097116521E-1   -3.579689825643325E-1
 7.838572303900000E9     5.625262411019109E-1   -6.872553676429428E-2    2.149857228353948E-3    3.699600639465804E-3    2.122023318840327E-3    3.643648093765228E-3    4.030995098529815E-1   -3.595845290067509E-1
 7.838605790000000E9     5.623425715539961E-1   -7.096804311659954E-2    2.185230616429372E-3    3.711950560386508E-3    2.140951029510023E-3    3.615597283339102E-3    4.013651244652842E-1   -3.614112088734228E-1
 7.838639276100000E9     5.620813457294529E-1   -7.329027688269607E-2    2.190753863887937E-3    3.704451945157830E-3    2.171856048890361E-3    3.620126410378299E-3    3.998828906398003E-1   -3.631847594700827E-1
 7.838672762200000E9     5.617735934022309E-1   -7.551457026379382E-2    2.221852509224670E-3    3.690872362516028E-3    2.206278690414524E-3    3.645476399748564E-3    3.983031860430271E-1   -3.647208275960572E-1
 7.838706248300000E9     5.615156553037174E-1   -7.766781092537794E-2    2.252230329033740E-3    3.713599603835166E-3    2.213906137288030E-3    3.627837727123091E-3    3.966808137216449E-1   -3.665956863719147E-1
 7.838739734400000E9     5.610660321544585E-1   -7.987656756283382E-2    2.265771076653965E-3    3.672985861819169E-3    2.250662933903517E-3    3.616276160045589E-3    3.952432387758238E-1   -3.683537028954765E-1
 7.838773220500000E9     5.608898547464121E-1   -8.211354433888560E-2    2.276998684020601E-3    3.699613054157419E-3    2.262438593146134E-3    3.641582169236610E-3    3.935360322016174E-1   -3.700514241325134E-1
 7.838806706600000E9     5.605889285612492E-1   -8.433172375214364E-2    2.294448396000398E-3    3.663196116121568E-3    2.303936065184447E-3    3.648294582812815E-3    3.919250101255038E-1   -3.716970116366493E-1
 7.838840192700000E9     5.601987714892895E-1   -8.647482817474739E-2    2.358300671236554E-3    3.672652032454188E-3    2.301150039342935E-3    3.660701529058401E-3    3.902744670886144E-1   -3.734107872003102E-1
 7.838873678800000E9     5.597750691960427E-1   -8.880586742046431E-2    2.357987939870241E-3    3.678289767313618E-3    2.336517952521008E-3    3.628620967299794E-3    3.886499958233988E-1   -3.751477539387489E-1
 7.838907164900000E9     5.594024735275154E-1   -9.099000279077224E-2    2.370757827336671E-3    3.684565287474194E-3    2.356367136510729E-3    3.638846915596291E-3    3.870232114614962E-1   -3.768447901134910E-1
 7.838940651000000E9     5.591134900983791E-1   -9.316294562035625E-2    2.406853395695800E-3    3.682802039184444E-3    2.352535355836473E-3    3.641459982272788E-3    3.855613540755478E-1   -3.784567189826950E-1
 7.838974137100000E9     5.587490074521518E-1   -9.529998750503917E-2    2.423355062591588E-3    3.681425733255178E-3    2.390894485741979E-3    3.618554120656272E-3    3.837520223868261E-1   -3.802610669370799E-1
 7.839007623200000E9     5.584333756667419E-1   -9.767597257570025E-2    2.439866779943475E-3    3.680751623296421E-3    2.425059919652882E-3    3.606093304828062E-3    3.821109897034468E-1   -3.820556718520061E-1
 7.839041109300000E9     5.580235434844505E-1   -9.989180788496999E-2    2.470852870377630E-3    3.680046244270164E-3    2.440525692296166E-3    3.637336520662829E-3    3.804293964043652E-1   -3.835243805412991E-1
 7.839074595400000E9     5.574880706283356E-1   -1.019651153498373E-1    2.493431177217804E-3    3.670651590839723E-3    2.464412747369500E-3    3.622865903643551E-3    3.788582510097698E-1   -3.851762851840746E-1
 7.839108081500000E9     5.571529203947675E-1   -1.042827116644103E-1    2.525028071589875E-3    3.677303550929234E-3    2.495278071419434E-3    3.648575097830355E-3    3.771053909441864E-1   -3.868544636308189E-1
 7.839141567600000E9     5.567530027840772E-1   -1.064201448078128E-1    2.533297173454810E-3    3.659853917612192E-3    2.503037948393384E-3    3.644025259180864E-3    3.755025528887360E-1   -3.885786702297825E-1
 7.839175053700000E9     5.562909308368252E-1   -1.087819801503138E-1    2.589934661624762E-3    3.649663446916169E-3    2.548973382284915E-3    3.609106253200277E-3    3.738044608588839E-1   -3.902324901564880E-1
 7.839208539800000E9     5.560502881792110E-1   -1.108908375266278E-1    2.612326902560989E-3    3.637882787364609E-3    2.559141910939580E-3    3.628288558447639E-3    3.720405637923319E-1   -3.917956553480041E-1
 7.839242025900000E9     5.555411185302521E-1   -1.130361174392895E-1    2.631247638029102E-3    3.635365751516643E-3    2.588084632741224E-3    3.625637665246065E-3    3.704166961849262E-1   -3.934186034051085E-1
 7.839275512000000E9     5.550127565416630E-1   -1.152919317005856E-1    2.632509645798947E-3    3.654546325443078E-3    2.633579989318161E-3    3.618821048875817E-3    3.686764490950125E-1   -3.949859646011117E-1
 7.839308998100000E9     5.545394280557675E-1   -1.174529922343227E-1    2.637433999707412E-3    3.656538426309560E-3    2.634157317154584E-3    3.602821102700953E-3    3.668934682583981E-1   -3.965887742748015E-1
 7.839342484200000E9     5.540702879071964E-1   -1.196196324367524E-1    2.687997378643537E-3    3.655504888598922E-3    2.668512737247150E-3    3.629688259800993E-3    3.653173933959274E-1   -3.983665772370132E-1
 7.839375970300000E9     5.535923903231651E-1   -1.219572219435742E-1    2.698996691936874E-3    3.651236424711793E-3    2.696536943938467E-3    3.617914598926793E-3    3.635836509336878E-1   -3.998887195020842E-1
 7.839409456400000E9     5.530372907699165E-1   -1.239973362764081E-1    2.731294324541520E-3    3.632075201823977E-3    2.718683935749343E-3    3.602616454439770E-3    3.617940324744747E-1   -4.013958730080527E-1
 7.839442942500000E9     5.527267022814265E-1   -1.262230726158305E-1    2.757678893040064E-3    3.651459416707437E-3    2.726485385278330E-3    3.586670668629757E-3    3.600798941270859E-1   -4.030226853070366E-1
 7.839476428600000E9     5.521276052164293E-1   -1.284734227834451E-1    2.798183627188399E-3    3.667565193330702E-3    2.809704663570136E-3    3.623980938973096E-3    3.583714679706373E-1   -4.045503875356244E-1
 7.839509914700000E9     5.517257380798080E-1   -1.305427171256513E-1    2.811500442283734E-3    3.638851349992773E-3    2.778488496640762E-3    3.590741843899323E-3    3.565859629159028E-1   -4.061868363751134E-1
 7.839543400800000E9     5.511603042271526E-1   -1.327385370377604E-1    2.841850755891140E-3    3.632277071363016E-3    2.816082132422413E-3    3.626479652886248E-3    3.548488907330931E-1   -4.077909925272484E-1
 7.839576886900000E9     5.505356973283901E-1   -1.349445827800327E-1    2.893014951171761E-3    3.641816392852991E-3    2.861521838233376E-3    3.594580745933046E-3    3.530223562652885E-1   -4.092009567113840E-1
 7.839610373000000E9     5.499347465927760E-1   -1.371375385010198E-1    2.894023749694790E-3    3.640452562956556E-3    2.882724171086411E-3    3.591455008373517E-3    3.512619463573996E-1   -4.108116059166720E-1
 7.839643859100000E9     5.494861522868493E-1   -1.393338601964528E-1    2.945557821228914E-3    3.619949491375208E-3    2.882206101124026E-3    3.597254700594037E-3    3.494517498915751E-1   -4.122672579321334E-1
 7.839677345200000E9     5.490166342254700E-1   -1.415691650911316E-1    2.946459233132311E-3    3.635114435211855E-3    2.919056253556182E-3    3.623923757747704E-3    3.476706305791078E-1   -4.137346137603215E-1
 7.839710831300000E9     5.482956166612718E-1   -1.437246957816479E-1    2.999173099836753E-3    3.612220682470233E-3    2.971911985582941E-3    3.591352830570451E-3    3.458207333313074E-1   -4.152775370338516E-1
 7.839744317400000E9     5.478108727714533E-1   -1.460147460053248E-1    3.011375696142702E-3    3.600215083006267E-3    2.974899990351678E-3    3.574908569355566E-3    3.441225189304444E-1   -4.166823780745499E-1
 7.839777803500000E9     5.471731522325889E-1   -1.481923789389570E-1    3.066034821469234E-3    3.614688401500634E-3    2.976398864575919E-3    3.590885377665424E-3    3.422687140760743E-1   -4.184369371152356E-1
 7.839811289600000E9     5.465404029639812E-1   -1.502457785124483E-1    3.093657946730242E-3    3.610506003481925E-3    3.019779709681958E-3    3.588369383580085E-3    3.404911364809133E-1   -4.198038989601539E-1
 7.839844775700000E9     5.459739219424081E-1   -1.524356667675550E-1    3.124398186688658E-3    3.595365833585384E-3    3.046019836629812E-3    3.583468846226793E-3    3.387066789445154E-1   -4.213059080430313E-1
 7.839878261800000E9     5.452748033166858E-1   -1.546179617226213E-1    3.148728942120878E-3    3.612516048847900E-3    3.098166504142744E-3    3.566354256866061E-3    3.367740542842185E-1   -4.228377969802851E-1
 7.839911747900000E9     5.446631142862802E-1   -1.567667200874177E-1    3.160311956748091E-3    3.599644070816828E-3    3.105705231012864E-3    3.609078816520044E-3    3.351328454518445E-1   -4.241312734802485E-1
 7.839945234000000E9     5.440894161126125E-1   -1.589133188230903E-1    3.174715621525775E-3    3.638446738602981E-3    3.136215067865280E-3    3.558729286351836E-3    3.332267604033421E-1   -4.256904188323182E-1
