#  HZ   S   RI   R     50.00 
! Rohde & Schwarz Vector Network Analyzer 
! Rohde-Schwarz,ZNB20-2Port,1311601062101988,3.16
! Created: UTC 12/23/2023, 3:48:33 AM
! freq[Hz]                re:S11                  im:S11                  re:S21                  im:S21                  re:S12                  im:S12                  re:S22                  im:S22
 6.516832288000000E9    -2.315327937290366E-1   -2.028344801890694E-2    1.269937437590193E-2   -4.858994893870033E-3    1.275712179743778E-2   -4.390339998845590E-3    1.913537412157970E-1    5.135143746528501E-1
 6.516844716650000E9    -2.313527518586535E-1   -1.995956903261620E-2    1.295750869239372E-2   -4.829326181421708E-3    1.288337522197744E-2   -4.465029450294532E-3    1.922599946733392E-1    5.132988516176341E-1
 6.516857145300000E9    -2.313084195018507E-1   -1.989340478893284E-2    1.293285020633089E-2   -4.953002607150265E-3    1.297859182156809E-2   -4.557901152399068E-3    1.931551970605643E-1    5.130093085112921E-1
 6.516869573950000E9    -2.312037775985269E-1   -1.978829897358982E-2    1.295455272838141E-2   -5.040228360040391E-3    1.300014226846888E-2   -4.528159313826760E-3    1.940960991214153E-1    5.125580140583423E-1
 6.516882002600000E9    -2.310467413788490E-1   -1.949193819148090E-2    1.301757123763363E-2   -5.060068139530522E-3    1.299756783042311E-2   -4.565035133054600E-3    1.949443336759599E-1    5.121017718312332E-1
 6.516894431250000E9    -2.309822740527949E-1   -1.921998891778416E-2    1.305038598008576E-2   -5.052973167003386E-3    1.306008066401171E-2   -4.621632615180194E-3    1.959052012862298E-1    5.120216625158083E-1
 6.516906859900000E9    -2.309696512160893E-1   -1.907619533180333E-2    1.302086971778363E-2   -5.240050768926047E-3    1.313961035082378E-2   -4.642575209396737E-3    1.968625170632081E-1    5.114007039794000E-1
 6.516919288550000E9    -2.306802991908676E-1   -1.897247957952060E-2    1.310757690870461E-2   -5.301564418103026E-3    1.318337604678777E-2   -4.725588114600037E-3    1.976926478367425E-1    5.112373700837284E-1
 6.516931717200000E9    -2.305934796423722E-1   -1.871640306679764E-2    1.326070532483255E-2   -5.366205009557762E-3    1.330014729436549E-2   -4.783369949176559E-3    1.987065199431365E-1    5.109149334779027E-1
 6.516944145850000E9    -2.305876481264365E-1   -1.835700771018401E-2    1.316992249248367E-2   -5.235498161774017E-3    1.320071491545117E-2   -4.915856476437253E-3    1.995945168170347E-1    5.104908554827066E-1
 6.516956574500000E9    -2.303995352342747E-1   -1.823901418808690E-2    1.333432136677601E-2   -5.348806224425648E-3    1.331614597697603E-2   -4.911795743181429E-3    2.003780067117751E-1    5.100887149634939E-1
 6.516969003150000E9    -2.302277067490308E-1   -1.811353626069893E-2    1.339153463191827E-2   -5.406685967531845E-3    1.343458478173049E-2   -4.957251857995631E-3    2.012736473472642E-1    5.098224663571812E-1
 6.516981431800000E9    -2.301954911913066E-1   -1.788840257693099E-2    1.331717094685360E-2   -5.420786936441832E-3    1.342955585307019E-2   -4.983682940138025E-3    2.023557105661936E-1    5.094410575474039E-1
 6.516993860450000E9    -2.300715084276801E-1   -1.770315139323099E-2    1.328220259585286E-2   -5.594865348845055E-3    1.352188562239396E-2   -5.010981501278689E-3    2.032232621877811E-1    5.089828251136697E-1
 6.517006289100000E9    -2.300230543658328E-1   -1.740426983792666E-2    1.349589760502816E-2   -5.675904877895103E-3    1.358276747169683E-2   -5.048891663035485E-3    2.040472708907602E-1    5.086739062162886E-1
 6.517018717750000E9    -2.298636276516941E-1   -1.730333299806282E-2    1.343316634112520E-2   -5.711156562412861E-3    1.346409520450094E-2   -5.162150997508489E-3    2.049766294986650E-1    5.082822893269419E-1
 6.517031146400000E9    -2.296327331061948E-1   -1.710801707050815E-2    1.361288451003248E-2   -5.696791849958540E-3    1.372619122730361E-2   -5.232865938360103E-3    2.060279445026902E-1    5.080367709430692E-1
 6.517043575050000E9    -2.295487388125196E-1   -1.693627597209890E-2    1.373767084545270E-2   -5.690886084150082E-3    1.376290685629395E-2   -5.184888492252116E-3    2.070173273558813E-1    5.077448566269566E-1
 6.517056003700000E9    -2.293248929101004E-1   -1.672026920813422E-2    1.373403655636632E-2   -5.823643153616175E-3    1.379217474448625E-2   -5.291582002160550E-3    2.078998767685949E-1    5.072098549355774E-1
 6.517068432350000E9    -2.293269520218941E-1   -1.658991096053157E-2    1.380896686206307E-2   -5.997845172929061E-3    1.379227266503395E-2   -5.343580644820373E-3    2.088576234821410E-1    5.070305364786905E-1
 6.517080861000000E9    -2.290743509758228E-1   -1.641601776598823E-2    1.389460325150894E-2   -5.946892932405626E-3    1.390012098138619E-2   -5.501575670402907E-3    2.097761866359200E-1    5.065735801641021E-1
 6.517093289650000E9    -2.289140060633888E-1   -1.606853942999991E-2    1.385240129824632E-2   -5.856841003264833E-3    1.404278842605774E-2   -5.541313892864831E-3    2.105835467404302E-1    5.061379637675049E-1
 6.517105718300000E9    -2.288436294495540E-1   -1.598904492700432E-2    1.397886009975872E-2   -5.983186114620655E-3    1.406277896283676E-2   -5.473564718781933E-3    2.114496472089175E-1    5.057107147815796E-1
 6.517118146950000E9    -2.287446049837771E-1   -1.579771569921721E-2    1.406566482311269E-2   -6.067239372458651E-3    1.417781815814581E-2   -5.604240603727351E-3    2.124151532077565E-1    5.053492653372916E-1
 6.517130575600000E9    -2.286661760147791E-1   -1.560536694276522E-2    1.418108895790215E-2   -6.146595800105085E-3    1.422031651307590E-2   -5.750892928866957E-3    2.135090014356216E-1    5.051517256480330E-1
 6.517143004250000E9    -2.284681152568962E-1   -1.547365831195059E-2    1.422770801036783E-2   -6.105070835186925E-3    1.430152866011810E-2   -5.838342634559878E-3    2.142515540176965E-1    5.047271235250632E-1
 6.517155432900000E9    -2.284026363246088E-1   -1.524293200355387E-2    1.429581940380385E-2   -6.454619786695866E-3    1.424643631978221E-2   -5.846625218447646E-3    2.152503551874246E-1    5.043199106732090E-1
 6.517167861550000E9    -2.282331040980601E-1   -1.503546582319795E-2    1.423308519281706E-2   -6.377124505292389E-3    1.438314715061138E-2   -5.865879674501607E-3    2.162083845326779E-1    5.039617191309005E-1
 6.517180290200000E9    -2.280075482268732E-1   -1.484558411379246E-2    1.421817305281126E-2   -6.352238685281526E-3    1.446481992134814E-2   -5.820631680834380E-3    2.169918891038718E-1    5.035250046158801E-1
 6.517192718850000E9    -2.279968479523752E-1   -1.467236556022923E-2    1.435949739182143E-2   -6.457353272762876E-3    1.455845225284226E-2   -6.041313839200797E-3    2.180460493983056E-1    5.032055059833931E-1
 6.517205147500000E9    -2.277786946589748E-1   -1.452375575707521E-2    1.455957267643536E-2   -6.540583305294670E-3    1.465690599110985E-2   -5.980976221155587E-3    2.187260220890652E-1    5.027112406919590E-1
 6.517217576150000E9    -2.276264302546513E-1   -1.443829245385440E-2    1.451949621107100E-2   -6.659774810854225E-3    1.477584930491571E-2   -6.059481408878851E-3    2.198073622393689E-1    5.023296277377264E-1
 6.517230004800000E9    -2.275133111121008E-1   -1.408806729450272E-2    1.464307360160536E-2   -6.674566303876446E-3    1.479042538954512E-2   -6.054466953973929E-3    2.208069974850745E-1    5.020414796561917E-1
 6.517242433450000E9    -2.273686848326906E-1   -1.385052719371391E-2    1.465633423356381E-2   -6.781073422431530E-3    1.489342228386575E-2   -6.206941943198145E-3    2.216582568745823E-1    5.015023904616911E-1
 6.517254862100000E9    -2.272278356692863E-1   -1.380475654809659E-2    1.482322476726143E-2   -6.752285004128887E-3    1.484551031744264E-2   -6.285869284298658E-3    2.225964972457793E-1    5.012118433108715E-1
 6.517267290750000E9    -2.271122818006202E-1   -1.358641776572985E-2    1.473207975606966E-2   -7.029871187684409E-3    1.494857313125923E-2   -6.324120428760297E-3    2.234991035193234E-1    5.006741426359659E-1
 6.517279719400000E9    -2.269391776651735E-1   -1.338926530161109E-2    1.491136302355467E-2   -6.995707428448494E-3    1.501045743928079E-2   -6.468724076004984E-3    2.245761705516504E-1    5.003933038002411E-1
 6.517292148050000E9    -2.268396206318892E-1   -1.325150205283818E-2    1.489234386928786E-2   -7.088760968512465E-3    1.517656581867287E-2   -6.488500105300137E-3    2.253639706569112E-1    5.000755610080420E-1
 6.517304576700000E9    -2.265819735204022E-1   -1.318324461323891E-2    1.495935409556471E-2   -7.192944251452998E-3    1.518314285628145E-2   -6.622411305041890E-3    2.262894357528835E-1    4.996517475121672E-1
 6.517317005350000E9    -2.264835451104199E-1   -1.291274618829242E-2    1.494904139294987E-2   -7.163400092906058E-3    1.531492937252113E-2   -6.722397275285446E-3    2.270573676677252E-1    4.991763588039791E-1
 6.517329434000000E9    -2.263392164982830E-1   -1.289629715398458E-2    1.505585521911213E-2   -7.386264858821765E-3    1.533007126232543E-2   -6.749757726757564E-3    2.280753396099573E-1    4.988216119495916E-1
 6.517341862650000E9    -2.262040659956492E-1   -1.264635108740207E-2    1.515158537820399E-2   -7.368069517058191E-3    1.553334283140179E-2   -6.834589093470905E-3    2.290937766584849E-1    4.983265968182034E-1
 6.517354291300000E9    -2.259895351674032E-1   -1.238941390577551E-2    1.530898939813594E-2   -7.420008847712326E-3    1.548951047606340E-2   -6.914763429006589E-3    2.300103981188431E-1    4.978945315922263E-1
 6.517366719950000E9    -2.258490855945124E-1   -1.225098037306219E-2    1.547541909705714E-2   -7.553970811942620E-3    1.554345646320818E-2   -7.023433872646821E-3    2.307507748946111E-1    4.974527816544292E-1
 6.517379148600000E9    -2.257167035728896E-1   -1.206003423960983E-2    1.541568550186130E-2   -7.630818838135626E-3    1.557509272037094E-2   -7.057042082561534E-3    2.317857208029289E-1    4.970561629931611E-1
 6.517391577250000E9    -2.254981969991651E-1   -1.200107071736877E-2    1.561529413241004E-2   -7.676939913658251E-3    1.574401933514325E-2   -7.178988349531015E-3    2.327439041866524E-1    4.966732038229484E-1
 6.517404005900000E9    -2.254185391258679E-1   -1.164850446099815E-2    1.573115210197154E-2   -7.746742866177298E-3    1.591053703500651E-2   -7.195494901312461E-3    2.334827111213829E-1    4.963155611066439E-1
 6.517416434550000E9    -2.252924966022491E-1   -1.145054311530974E-2    1.567756829982805E-2   -7.877440309811018E-3    1.577946503767498E-2   -7.412578564953890E-3    2.345753894408003E-1    4.957933185568715E-1
 6.517428863200000E9    -2.251994500151371E-1   -1.141236069284210E-2    1.574637616668425E-2   -7.865844917871369E-3    1.598526286195852E-2   -7.399120317252973E-3    2.354039156501538E-1    4.953738091146584E-1
 6.517441291850000E9    -2.250295491781117E-1   -1.122036728137550E-2    1.582106750248576E-2   -7.918166367015129E-3    1.623816295336025E-2   -7.465168240206317E-3    2.363696160763716E-1    4.949979536042696E-1
 6.517453720500000E9    -2.247544221861857E-1   -1.119515238992007E-2    1.602325317258237E-2   -8.156781268079914E-3    1.608615536409625E-2   -7.616788602663790E-3    2.372777891096555E-1    4.945185456571421E-1
 6.517466149150000E9    -2.245575796708310E-1   -1.091212955554848E-2    1.608015537485796E-2   -8.215419329060574E-3    1.620492727654840E-2   -7.550239856187171E-3    2.382279567789284E-1    4.940057025412957E-1
 6.517478577800000E9    -2.243651682618573E-1   -1.075272147981836E-2    1.617367215900324E-2   -8.259051158692497E-3    1.636639657486114E-2   -7.774288109604282E-3    2.392025364301279E-1    4.936586864501695E-1
 6.517491006450000E9    -2.241675792979936E-1   -1.063673604760104E-2    1.615205857249582E-2   -8.333473403634316E-3    1.635141167310709E-2   -7.817305750979090E-3    2.400111344326686E-1    4.930643110911737E-1
 6.517503435100000E9    -2.240667081168382E-1   -1.045654662394728E-2    1.622359680189244E-2   -8.472221770368745E-3    1.654279844673083E-2   -7.897185183234619E-3    2.410025666826699E-1    4.926871510365307E-1
 6.517515863750000E9    -2.238897598333622E-1   -1.041948357309904E-2    1.635100461410740E-2   -8.490899413786428E-3    1.656979157080945E-2   -8.019345092359549E-3    2.418499266165794E-1    4.922486431959969E-1
 6.517528292400000E9    -2.237655808056986E-1   -1.016112924724897E-2    1.636506361002088E-2   -8.681185618552087E-3    1.662427714393734E-2   -8.093505269715997E-3    2.427519774774740E-1    4.918018669475652E-1
 6.517540721050000E9    -2.235488567159682E-1   -1.010862274955127E-2    1.653738933596787E-2   -8.811426892394902E-3    1.680010075349904E-2   -8.273174182286961E-3    2.438245758834851E-1    4.914277521067082E-1
 6.517553149700000E9    -2.233610887010960E-1   -9.976646609382184E-3    1.676002899747753E-2   -8.830961975309510E-3    1.686698765832905E-2   -8.302246215795048E-3    2.447194116060140E-1    4.909462096937826E-1
 6.517565578350000E9    -2.231833471922871E-1   -9.767285307711282E-3    1.670452879227398E-2   -8.972603965262008E-3    1.713491388602752E-2   -8.471572067942773E-3    2.455783629160837E-1    4.904318747396075E-1
 6.517578007000000E9    -2.230334349288064E-1   -9.717980192830173E-3    1.682584721163425E-2   -8.990859506569353E-3    1.715150103555850E-2   -8.521379671796865E-3    2.465169754332735E-1    4.899962022331241E-1
 6.517590435650000E9    -2.229501942042053E-1   -9.523679380743097E-3    1.686214826860015E-2   -9.293593957014356E-3    1.719866066193048E-2   -8.678208689195315E-3    2.474293514297794E-1    4.895096916449785E-1
 6.517602864300000E9    -2.226798739580702E-1   -9.460761306190689E-3    1.707235030412644E-2   -9.395190324273450E-3    1.733229017844008E-2   -8.710754652984501E-3    2.482896038512512E-1    4.890486456794187E-1
 6.517615292950000E9    -2.225279755171587E-1   -9.129687878139423E-3    1.711375241005601E-2   -9.294331969471395E-3    1.732829709353006E-2   -8.833156718025916E-3    2.491505555599864E-1    4.885344705581483E-1
 6.517627721600000E9    -2.223604316576008E-1   -9.025849538832269E-3    1.705517952481524E-2   -9.560838849968207E-3    1.754913964608848E-2   -8.925699572731136E-3    2.502203744971099E-1    4.881352320422464E-1
 6.517640150250000E9    -2.221973000666666E-1   -9.099297195080557E-3    1.724436886504566E-2   -9.557923107416225E-3    1.751906197271922E-2   -9.003490289892236E-3    2.510764293675824E-1    4.876399818495770E-1
 6.517652578900000E9    -2.218416853447078E-1   -8.800915796251581E-3    1.738819078056773E-2   -9.677236134223992E-3    1.762155505583862E-2   -9.155421745820130E-3    2.519839103892988E-1    4.871944780005513E-1
 6.517665007550000E9    -2.218193270679919E-1   -8.667957966292293E-3    1.730306760725256E-2   -9.771928656346416E-3    1.782038765341897E-2   -9.320325760184734E-3    2.529944525325655E-1    4.866843105053152E-1
 6.517677436200000E9    -2.215043577959423E-1   -8.567469196241888E-3    1.760338689359156E-2   -9.947300505966129E-3    1.791443492591540E-2   -9.445199185127569E-3    2.538494424623349E-1    4.862060987868614E-1
 6.517689864850000E9    -2.213956820871977E-1   -8.419906634549447E-3    1.778690826799868E-2   -1.006595876854597E-2    1.803119131429363E-2   -9.409408397650622E-3    2.548275790256056E-1    4.856251103919294E-1
 6.517702293500000E9    -2.211425435341413E-1   -8.399043763613978E-3    1.778287685396342E-2   -1.032805709685375E-2    1.809816206247311E-2   -9.551583911613530E-3    2.557078211622403E-1    4.851736392919649E-1
 6.517714722150000E9    -2.209887102208135E-1   -8.119263897060936E-3    1.798853057986315E-2   -1.045118333625233E-2    1.831830354715970E-2   -9.688536224011944E-3    2.567822556934437E-1    4.846870126210594E-1
 6.517727150800000E9    -2.207645260119222E-1   -8.043125881890647E-3    1.817246457249177E-2   -1.048736161388642E-2    1.844112863489302E-2   -9.816263528803569E-3    2.575576361233042E-1    4.841916360349175E-1
 6.517739579450000E9    -2.205967639311615E-1   -8.052710459546975E-3    1.822220275770846E-2   -1.050477827120326E-2    1.843206424801154E-2   -9.957964799969117E-3    2.585849191207518E-1    4.836701844140097E-1
 6.517752008100000E9    -2.203706914466412E-1   -7.912711241274271E-3    1.824207115150291E-2   -1.067158133314385E-2    1.848313696398841E-2   -1.008946804040532E-2    2.593789790262842E-1    4.832171510613105E-1
 6.517764436750000E9    -2.201611454729252E-1   -7.888795000856558E-3    1.831313338028057E-2   -1.073960502895198E-2    1.875910835943358E-2   -1.026686548877657E-2    2.603162656378172E-1    4.826439726485594E-1
 6.517776865400000E9    -2.200082061945064E-1   -7.708903921784922E-3    1.839566568890067E-2   -1.101367550934761E-2    1.877357433625264E-2   -1.036148620413246E-2    2.612633029897587E-1    4.822649290060466E-1
 6.517789294050000E9    -2.196724228124322E-1   -7.667463177662163E-3    1.849119154167356E-2   -1.112438464046581E-2    1.890651401189095E-2   -1.040755898277489E-2    2.624024171416426E-1    4.815916335936782E-1
 6.517801722700000E9    -2.196675609253054E-1   -7.376112032875383E-3    1.879878927755252E-2   -1.122221572465913E-2    1.894590300567917E-2   -1.065490731955150E-2    2.630760811426519E-1    4.811425562216986E-1
 6.517814151350000E9    -2.193793001287091E-1   -7.301395955154643E-3    1.879894267624732E-2   -1.142819519583156E-2    1.922380707674454E-2   -1.074646353444152E-2    2.641044110805435E-1    4.805654246879874E-1
 6.517826580000000E9    -2.191489103532783E-1   -7.177770261386650E-3    1.892525169451950E-2   -1.150719835858904E-2    1.928237478945289E-2   -1.084459543225283E-2    2.649998143014696E-1    4.799965559172014E-1
 6.517839008650000E9    -2.188914656527711E-1   -7.232595420580699E-3    1.900420921554567E-2   -1.158841302616065E-2    1.931657745208291E-2   -1.106197581059935E-2    2.659569760259595E-1    4.794253671577376E-1
 6.517851437300000E9    -2.186188031505191E-1   -7.021229745075686E-3    1.910290907287194E-2   -1.189967507096245E-2    1.949305615483344E-2   -1.114742257863680E-2    2.668807144134769E-1    4.789642728189594E-1
 6.517863865950000E9    -2.183740815530669E-1   -7.061918870368951E-3    1.927632322489158E-2   -1.184198378728390E-2    1.957227408491094E-2   -1.139296569352759E-2    2.677837499189163E-1    4.784212579942385E-1
 6.517876294600000E9    -2.182523635520150E-1   -6.929880642774658E-3    1.923253898747573E-2   -1.202939877124719E-2    1.981716917473084E-2   -1.146180006194943E-2    2.688004346869106E-1    4.777738346008059E-1
 6.517888723250000E9    -2.179592717657428E-1   -6.839506783519560E-3    1.952900791289663E-2   -1.226338386305720E-2    1.987581663420974E-2   -1.155944174263000E-2    2.695294733787693E-1    4.772589101239759E-1
 6.517901151900000E9    -2.177561360934397E-1   -6.725601626060215E-3    1.965254706233313E-2   -1.243438443515627E-2    2.000273709623607E-2   -1.182346479856283E-2    2.705567062938266E-1    4.768519281319092E-1
 6.517913580550000E9    -2.175022690721045E-1   -6.523754930371022E-3    1.974576040329041E-2   -1.257418073703304E-2    2.016637460441785E-2   -1.201153252194052E-2    2.715417532817932E-1    4.761120622031307E-1
 6.517926009200000E9    -2.172355292129068E-1   -6.585532638772544E-3    1.989053949804674E-2   -1.282853438271112E-2    2.029110163549595E-2   -1.211346550165199E-2    2.723901078505525E-1    4.756619262581287E-1
 6.517938437850000E9    -2.170849506949842E-1   -6.559326756413396E-3    2.008869389302539E-2   -1.291851110995328E-2    2.036143288630201E-2   -1.232843417848362E-2    2.733310012450784E-1    4.750147084503170E-1
 6.517950866500000E9    -2.167979318762517E-1   -6.405300922172334E-3    2.000554611750084E-2   -1.308917948724585E-2    2.056653790388323E-2   -1.250968167629721E-2    2.743760813088104E-1    4.745187928524001E-1
