#  HZ   S   RI   R     50.00 
! Rohde & Schwarz Vector Network Analyzer 
! Rohde-Schwarz,ZNB20-2Port,1311601062101988,3.16
! Created: UTC 12/23/2023, 3:35:50 AM
! freq[Hz]                re:S11                  im:S11                  re:S21                  im:S21                  re:S12                  im:S12                  re:S22                  im:S22
 6.517146851000000E9    -2.298031573359915E-1   -1.398219278793136E-2    1.367920081838707E-2   -5.801075690084914E-3    1.377531479222086E-2   -5.285852857996719E-3    2.146273113422242E-1    5.051674608913896E-1
 6.517158202725000E9    -2.297175087753824E-1   -1.384741855940996E-2    1.371069166701951E-2   -5.865586679230018E-3    1.385237628255394E-2   -5.422924829775957E-3    2.152857334747947E-1    5.047382613227496E-1
 6.517169554450000E9    -2.296430678544835E-1   -1.361574169027407E-2    1.387473911369387E-2   -5.869827498090409E-3    1.391037286726208E-2   -5.449025526613221E-3    2.161275816044534E-1    5.044824899049640E-1
 6.517180906175000E9    -2.294681013883323E-1   -1.348954303780641E-2    1.381400443945566E-2   -5.920744577935389E-3    1.383163997511214E-2   -5.538954754651069E-3    2.171118348008575E-1    5.040648769844087E-1
 6.517192257900000E9    -2.292211576878782E-1   -1.333068592413688E-2    1.383943837403484E-2   -6.089799601946035E-3    1.400814237151272E-2   -5.583893274965148E-3    2.178610887937222E-1    5.037018775702362E-1
 6.517203609625000E9    -2.292405048641310E-1   -1.318489412468169E-2    1.372916100656369E-2   -5.960160342893483E-3    1.405190150946834E-2   -5.510411081222217E-3    2.187605266207107E-1    5.034072918341616E-1
 6.517214961350000E9    -2.291830483730470E-1   -1.293622187808013E-2    1.397690228567429E-2   -6.210661514675809E-3    1.413111445002840E-2   -5.681203763973909E-3    2.197338003977935E-1    5.029999874562443E-1
 6.517226313075000E9    -2.290236646062843E-1   -1.291895552371941E-2    1.406685131424008E-2   -6.128283171456676E-3    1.413414368651456E-2   -5.768272044814250E-3    2.204188062546351E-1    5.027212967610305E-1
 6.517237664800000E9    -2.288434565515782E-1   -1.257983111569053E-2    1.411251906285817E-2   -6.217399971117445E-3    1.423985850263609E-2   -5.736853091456011E-3    2.212113774250428E-1    5.024818335537810E-1
 6.517249016525000E9    -2.286178873123599E-1   -1.242719059045371E-2    1.403796632150412E-2   -6.200540363479104E-3    1.413452272031615E-2   -5.841141901518596E-3    2.221649462655637E-1    5.019419970237065E-1
 6.517260368250000E9    -2.285946213261761E-1   -1.231182628289506E-2    1.416949535225518E-2   -6.390130342106458E-3    1.426722873884154E-2   -5.926276317444312E-3    2.229703941172581E-1    5.016862456690888E-1
 6.517271719975000E9    -2.285061228284608E-1   -1.215958545740571E-2    1.411569211598074E-2   -6.423751921277927E-3    1.440583965701625E-2   -5.977118128535706E-3    2.237948463313147E-1    5.012171306999236E-1
 6.517283071700000E9    -2.283991595774605E-1   -1.199171418878973E-2    1.438469023421383E-2   -6.679265130568106E-3    1.444800109935235E-2   -6.040695010778916E-3    2.245866086913500E-1    5.008995682585508E-1
 6.517294423425000E9    -2.282850456589257E-1   -1.179308328753780E-2    1.431051490132222E-2   -6.654283029075322E-3    1.451856859997476E-2   -6.135530823877313E-3    2.254240170719122E-1    5.004976026589576E-1
 6.517305775150000E9    -2.281309464438179E-1   -1.176567656094200E-2    1.447981959463077E-2   -6.493103545189624E-3    1.455513445342364E-2   -6.106050182649267E-3    2.262138336437635E-1    5.000941181174148E-1
 6.517317126875000E9    -2.279943880786427E-1   -1.151703186952536E-2    1.456418062774396E-2   -6.721268515719219E-3    1.461671408495864E-2   -6.106477418949105E-3    2.269937170722568E-1    4.998058666307685E-1
 6.517328478600000E9    -2.278184342092908E-1   -1.136809239401251E-2    1.454448978765981E-2   -6.781087907048598E-3    1.472459642329551E-2   -6.213627771141548E-3    2.279604110914237E-1    4.993760805454633E-1
 6.517339830325000E9    -2.277547134211647E-1   -1.129431112577870E-2    1.460297373089924E-2   -6.795989516288525E-3    1.485315804610583E-2   -6.274077999682453E-3    2.287519567155601E-1    4.989938514459296E-1
 6.517351182050000E9    -2.276186730995066E-1   -1.109411680143120E-2    1.471695690931841E-2   -6.834765962860340E-3    1.479804509472048E-2   -6.306319106173790E-3    2.296086765245456E-1    4.986969517798052E-1
 6.517362533775000E9    -2.274215558740088E-1   -1.085224330428475E-2    1.475375606118694E-2   -6.943586461043596E-3    1.495667656922032E-2   -6.384735673628105E-3    2.305172042766192E-1    4.981018294481477E-1
 6.517373885500000E9    -2.272548309797627E-1   -1.071056267789271E-2    1.469637216373194E-2   -6.955755188175484E-3    1.496471533372195E-2   -6.595694945901812E-3    2.314037948781709E-1    4.978856777850525E-1
 6.517385237225000E9    -2.270779735494860E-1   -1.048374617501822E-2    1.487695890385005E-2   -7.122578494407703E-3    1.501314980364937E-2   -6.589425830495477E-3    2.323503117821075E-1    4.975473380534872E-1
 6.517396588950000E9    -2.269751181119147E-1   -1.030039734596295E-2    1.494944097188677E-2   -7.101436975449828E-3    1.515319529041335E-2   -6.567890666008828E-3    2.329572488924951E-1    4.972516708398731E-1
 6.517407940675000E9    -2.268282532729934E-1   -1.018784836228110E-2    1.501839246601145E-2   -7.266697964717250E-3    1.522356710138289E-2   -6.725880233831127E-3    2.337415046785904E-1    4.968193121938311E-1
 6.517419292400000E9    -2.266582219496917E-1   -1.012750397171606E-2    1.497420746348280E-2   -7.279307832831554E-3    1.525452295609347E-2   -6.723398257178123E-3    2.347594505771707E-1    4.963460404381150E-1
 6.517430644125000E9    -2.264701824711363E-1   -9.957397310469620E-3    1.515950348758154E-2   -7.370636464961323E-3    1.534729638857301E-2   -6.823374994045062E-3    2.353476921933247E-1    4.960519530445414E-1
 6.517441995850000E9    -2.265572219596334E-1   -9.664903069615576E-3    1.515869866295161E-2   -7.357208710890897E-3    1.538832498101039E-2   -6.962929516957599E-3    2.364152715739971E-1    4.954979219535662E-1
 6.517453347575000E9    -2.263417332275022E-1   -9.607065979638700E-3    1.534032024915158E-2   -7.516852199553438E-3    1.541012197198512E-2   -6.931790236159183E-3    2.371061613748237E-1    4.952598647026691E-1
 6.517464699300000E9    -2.261860749260666E-1   -9.506585834852263E-3    1.543806478138849E-2   -7.626988192047024E-3    1.554190089460802E-2   -7.023342819820698E-3    2.379268676813218E-1    4.947737500486004E-1
 6.517476051025000E9    -2.259923002940770E-1   -9.238675686224669E-3    1.530800274617472E-2   -7.663657206078959E-3    1.562945586115461E-2   -7.118883661105051E-3    2.387096743180188E-1    4.943729853413668E-1
 6.517487402750000E9    -2.259228240443742E-1   -9.113283582135494E-3    1.554934601239776E-2   -7.640375686592349E-3    1.571859153058789E-2   -7.161392356606017E-3    2.397402159342232E-1    4.941006448091276E-1
 6.517498754475000E9    -2.258087595163031E-1   -9.021195425988412E-3    1.551834493822058E-2   -7.827215527509077E-3    1.579433372924545E-2   -7.281419559626531E-3    2.404740497962991E-1    4.936188431028358E-1
 6.517510106200000E9    -2.256462806079183E-1   -8.818550156207134E-3    1.566298036777635E-2   -7.790619994280443E-3    1.573889415794304E-2   -7.283749086679025E-3    2.412378328487947E-1    4.931948429213167E-1
 6.517521457925000E9    -2.253699468529305E-1   -8.707819709145522E-3    1.566023981102527E-2   -7.914027219790964E-3    1.588691695674392E-2   -7.510922417863888E-3    2.420594704060706E-1    4.928957401197975E-1
 6.517532809650000E9    -2.252559913171234E-1   -8.610423915329143E-3    1.580768671412489E-2   -7.964519412577701E-3    1.595868986386404E-2   -7.500838938730026E-3    2.430056560205285E-1    4.922823813364200E-1
 6.517544161375000E9    -2.251192388059504E-1   -8.364982336095598E-3    1.593040204706962E-2   -8.202725053509753E-3    1.602322775768873E-2   -7.579861928231722E-3    2.438409684324584E-1    4.920000623941600E-1
 6.517555513100000E9    -2.250091319528882E-1   -8.240077754076433E-3    1.594480033696274E-2   -8.089683686703788E-3    1.611670183378153E-2   -7.621413363478170E-3    2.446481806973996E-1    4.916022472027422E-1
 6.517566864825000E9    -2.248240864555781E-1   -8.099301796747551E-3    1.602659414643710E-2   -8.366647587657455E-3    1.612661373663468E-2   -7.698518117236822E-3    2.454794426273381E-1    4.911499478866362E-1
 6.517578216550000E9    -2.246771377037948E-1   -7.996101235209623E-3    1.609169285935539E-2   -8.267548004120242E-3    1.622409110740262E-2   -7.719994763492403E-3    2.463651121869307E-1    4.907693034721753E-1
 6.517589568275000E9    -2.244106489069109E-1   -8.009957566929836E-3    1.614738244124473E-2   -8.388212581265176E-3    1.630260131929591E-2   -7.834583748540416E-3    2.473065465650113E-1    4.904789024261654E-1
 6.517600920000000E9    -2.243878292730116E-1   -7.662742087878848E-3    1.618995953861622E-2   -8.511430196217463E-3    1.635085801666234E-2   -8.004167173374852E-3    2.481251806204009E-1    4.898967079618647E-1
 6.517612271725000E9    -2.241769380258677E-1   -7.632385994840627E-3    1.619837045371288E-2   -8.623670878948130E-3    1.657162976577206E-2   -8.066027784275138E-3    2.488421189283007E-1    4.894631494990172E-1
 6.517623623450000E9    -2.240745603882503E-1   -7.404901733787127E-3    1.648710614760288E-2   -8.831372801829015E-3    1.659257247063969E-2   -8.223021079621992E-3    2.497571900687087E-1    4.890029721920488E-1
 6.517634975175000E9    -2.237907015612463E-1   -7.348264085810016E-3    1.656998815476526E-2   -8.741313147713954E-3    1.661570114332238E-2   -8.313138439360714E-3    2.504409730164898E-1    4.885993233683507E-1
 6.517646326900000E9    -2.236711488656598E-1   -7.181273581130519E-3    1.660550581758961E-2   -8.854575973797629E-3    1.676976591735435E-2   -8.297786812025143E-3    2.514100285981725E-1    4.882508058701168E-1
 6.517657678625000E9    -2.235932085593052E-1   -7.100540742337855E-3    1.669800290229953E-2   -8.906844110258511E-3    1.689636769045741E-2   -8.266889896819172E-3    2.522854509679469E-1    4.878404856196445E-1
 6.517669030350000E9    -2.234472845795824E-1   -6.886547901623715E-3    1.667922138830419E-2   -9.035549253465044E-3    1.695409440052422E-2   -8.444705935909168E-3    2.529900321074392E-1    4.874023858326182E-1
 6.517680382075000E9    -2.232811977477696E-1   -6.778204444577740E-3    1.681062575528034E-2   -9.206630949929660E-3    1.710638476436954E-2   -8.624767620356681E-3    2.538563558989306E-1    4.868631310621630E-1
 6.517691733800000E9    -2.230179382585327E-1   -6.597817492438003E-3    1.685670864476697E-2   -9.185944444026907E-3    1.714025912330026E-2   -8.610220583886760E-3    2.546195178239495E-1    4.864501877607662E-1
 6.517703085525000E9    -2.229087143023103E-1   -6.629345156955974E-3    1.708084249992740E-2   -9.332962192262751E-3    1.729633661234736E-2   -8.815855807807717E-3    2.555911500000161E-1    4.860483834174907E-1
 6.517714437250000E9    -2.227883259478678E-1   -6.445848037480968E-3    1.717387605672694E-2   -9.219523596982400E-3    1.740570138228809E-2   -8.858699802133923E-3    2.564677034061474E-1    4.856163530546875E-1
 6.517725788975000E9    -2.225957127217854E-1   -6.277592489597485E-3    1.709241125922048E-2   -9.496715074942090E-3    1.748457645706089E-2   -9.088968394522256E-3    2.572837528098811E-1    4.851995341996129E-1
 6.517737140700000E9    -2.223522125515074E-1   -6.191046435290660E-3    1.732633533405604E-2   -9.595939724304982E-3    1.744457287079374E-2   -8.985787272450137E-3    2.581839678922725E-1    4.845921693537563E-1
 6.517748492425000E9    -2.222116946442901E-1   -5.922939923015858E-3    1.729711632521663E-2   -9.632727869813999E-3    1.760128416394176E-2   -9.039143746423301E-3    2.589121898651054E-1    4.842622932797180E-1
 6.517759844150000E9    -2.220289498066886E-1   -5.964668624826834E-3    1.753029083326081E-2   -9.811707796187834E-3    1.773398795014761E-2   -9.253260679705225E-3    2.597945305793003E-1    4.838600869564820E-1
 6.517771195875000E9    -2.218803838345420E-1   -5.730167558992263E-3    1.747206824121383E-2   -9.951842553319988E-3    1.784055787262586E-2   -9.350791205756328E-3    2.606149435473740E-1    4.832939037532410E-1
 6.517782547600000E9    -2.216901140348590E-1   -5.552567979946298E-3    1.751954016274199E-2   -1.005247238716944E-2    1.785819754335935E-2   -9.441530395347848E-3    2.614578080402826E-1    4.828444592114864E-1
 6.517793899325000E9    -2.215120569269692E-1   -5.618319649905732E-3    1.762707837243144E-2   -1.017092876231215E-2    1.797166615846179E-2   -9.594917161389828E-3    2.621574437675185E-1    4.823581934424918E-1
 6.517805251050000E9    -2.213596803762394E-1   -5.475657868007278E-3    1.772454118428454E-2   -1.025559465497282E-2    1.801476750923383E-2   -9.583077672561233E-3    2.631723460016370E-1    4.819031328574075E-1
 6.517816602775000E9    -2.211460741467985E-1   -5.328678393021901E-3    1.783000339318959E-2   -1.038354883382253E-2    1.822682103761480E-2   -9.746773656369367E-3    2.638529328862954E-1    4.815058149942537E-1
 6.517827954500000E9    -2.207963847260646E-1   -5.250498028774456E-3    1.788371020645076E-2   -1.047143446464901E-2    1.829241235208060E-2   -9.817951341748373E-3    2.649081630509927E-1    4.810894220186156E-1
 6.517839306225000E9    -2.207221868474157E-1   -5.105981376672922E-3    1.807635868426903E-2   -1.054645209129608E-2    1.846430013720808E-2   -1.002743109188026E-2    2.656938916850823E-1    4.805799509151641E-1
 6.517850657950000E9    -2.205111753762671E-1   -5.040651524619536E-3    1.819575389826626E-2   -1.080302521710822E-2    1.847729490773946E-2   -1.000375738667438E-2    2.663308185420311E-1    4.800986274764044E-1
 6.517862009675000E9    -2.203315643406399E-1   -4.992856765701568E-3    1.827131877578491E-2   -1.085985949168861E-2    1.859674107420999E-2   -1.023333936736506E-2    2.672879262490361E-1    4.795169140028220E-1
 6.517873361400000E9    -2.202130556083739E-1   -4.859268128337863E-3    1.837413043950343E-2   -1.103681045078981E-2    1.864606371852787E-2   -1.040273647720524E-2    2.682256660474787E-1    4.790822866754180E-1
 6.517884713125000E9    -2.200141185220991E-1   -4.737828886295817E-3    1.852585521044979E-2   -1.097172812227002E-2    1.886759044143108E-2   -1.035855428694828E-2    2.689383228283160E-1    4.785407541409883E-1
 6.517896064850000E9    -2.197759837391369E-1   -4.636985610677787E-3    1.851765295275400E-2   -1.123113910462652E-2    1.899782979356664E-2   -1.061256467748083E-2    2.700058863402982E-1    4.781451576262749E-1
 6.517907416575000E9    -2.196261515381085E-1   -4.538809073864938E-3    1.866545404149344E-2   -1.138230239124484E-2    1.905775664832400E-2   -1.063586656907845E-2    2.707043660892731E-1    4.776977149680476E-1
 6.517918768300000E9    -2.193579034499825E-1   -4.381048952689984E-3    1.876645326565875E-2   -1.150059523510711E-2    1.926001555538556E-2   -1.081286231808108E-2    2.714438113888585E-1    4.771694858980788E-1
 6.517930120025000E9    -2.192180632012900E-1   -4.406980555812732E-3    1.894141116822994E-2   -1.153258266730761E-2    1.925388802281976E-2   -1.090125658044905E-2    2.723211225399654E-1    4.766978699688084E-1
 6.517941471750000E9    -2.189660106841995E-1   -4.316996199091435E-3    1.896235740428190E-2   -1.178049441099589E-2    1.944735144332383E-2   -1.104679357537215E-2    2.732005868284144E-1    4.761968284403412E-1
 6.517952823475000E9    -2.188127255733623E-1   -4.161357893121332E-3    1.913570745769616E-2   -1.183064963589524E-2    1.943707493897993E-2   -1.134573709762452E-2    2.741113589561668E-1    4.757694913092093E-1
 6.517964175200000E9    -2.185992338546788E-1   -4.080298783016155E-3    1.929176759414743E-2   -1.196160881182129E-2    1.960016511295461E-2   -1.135402537138836E-2    2.747838187373756E-1    4.752611186395111E-1
 6.517975526925000E9    -2.184329198318255E-1   -4.003944634114279E-3    1.933844289981878E-2   -1.211540739768585E-2    1.975715358189232E-2   -1.144473756366338E-2    2.757671008161046E-1    4.747676787755873E-1
 6.517986878650000E9    -2.181440444216627E-1   -3.931295546682410E-3    1.949229115069435E-2   -1.220209495784253E-2    1.985538635257752E-2   -1.161510753931258E-2    2.766529834494315E-1    4.742193971363228E-1
 6.517998230375000E9    -2.178526077575618E-1   -3.860712249109501E-3    1.958752462346108E-2   -1.254153349762668E-2    1.998113269474520E-2   -1.176716531585912E-2    2.775193969298992E-1    4.735582316021880E-1
 6.518009582100000E9    -2.176944035907857E-1   -3.777735214300507E-3    1.976261018341262E-2   -1.263332528889313E-2    2.005990455404031E-2   -1.187350371132847E-2    2.783133246916146E-1    4.730670682253645E-1
 6.518020933825000E9    -2.175641377153060E-1   -3.707021957620290E-3    1.982182945022284E-2   -1.270275987157582E-2    2.022126213067621E-2   -1.211994744651244E-2    2.792610273811961E-1    4.726792735618374E-1
 6.518032285550000E9    -2.172751497960258E-1   -3.674571604782314E-3    1.988394067070905E-2   -1.285147913042019E-2    2.046560389489697E-2   -1.230572817103366E-2    2.800682178004028E-1    4.720834366868815E-1
 6.518043637275000E9    -2.170453084336148E-1   -3.621163631343442E-3    2.010955715658820E-2   -1.292614248226274E-2    2.045992007802349E-2   -1.241285987808860E-2    2.809375651584566E-1    4.716516329642039E-1
 6.518054989000000E9    -2.168184667598113E-1   -3.563447265498053E-3    2.017651491184308E-2   -1.326627361440164E-2    2.054007573391730E-2   -1.252184736596838E-2    2.818172805039041E-1    4.711991551167400E-1
 6.518066340725000E9    -2.165210328652740E-1   -3.500243218437119E-3    2.023185599205540E-2   -1.324353627415306E-2    2.079314845404798E-2   -1.260142063720622E-2    2.824344431450823E-1    4.703729271014480E-1
 6.518077692450000E9    -2.163048528904378E-1   -3.402537745993847E-3    2.051653446270237E-2   -1.345679239306312E-2    2.076686940036454E-2   -1.277040051528907E-2    2.833846988663767E-1    4.698820700900377E-1
 6.518089044175000E9    -2.161141881386175E-1   -3.364058642169145E-3    2.062466482254528E-2   -1.352693316775594E-2    2.099267733977536E-2   -1.297880666786926E-2    2.842583915102215E-1    4.692520745050018E-1
 6.518100395900000E9    -2.158365709948809E-1   -3.361084831360537E-3    2.084688162235790E-2   -1.385599653870262E-2    2.111798309373687E-2   -1.323413528495410E-2    2.851087340700008E-1    4.688969595036344E-1
 6.518111747625000E9    -2.156443465672990E-1   -3.311009742268670E-3    2.081624189808516E-2   -1.401369746189181E-2    2.136235432313611E-2   -1.336252686701212E-2    2.857947455640137E-1    4.683231362492964E-1
 6.518123099350000E9    -2.153345005515652E-1   -3.309063581288345E-3    2.093144996148779E-2   -1.419127274248634E-2    2.139551202433697E-2   -1.349607526452212E-2    2.868048952420131E-1    4.677386847783831E-1
 6.518134451075000E9    -2.152003663094021E-1   -3.252910817065071E-3    2.111558888858485E-2   -1.429358302128399E-2    2.149638032667905E-2   -1.366084194780396E-2    2.876093306449913E-1    4.671332835464329E-1
 6.518145802800000E9    -2.149442140436293E-1   -3.141648564666332E-3    2.132511670323128E-2   -1.449802929197446E-2    2.173150822730489E-2   -1.382080013245305E-2    2.884357039404495E-1    4.666645328404255E-1
 6.518157154525000E9    -2.146015468484390E-1   -3.073690785291525E-3    2.133980392423009E-2   -1.460452013865611E-2    2.185466898697763E-2   -1.396552221097981E-2    2.893176079301593E-1    4.661873708134858E-1
 6.518168506250000E9    -2.144077280557740E-1   -3.175967367811373E-3    2.154890566749693E-2   -1.483821259240375E-2    2.205074442176269E-2   -1.421223957140080E-2    2.901868360695780E-1    4.655723370412396E-1
