#  HZ   S   RI   R     50.00 
! Rohde & Schwarz Vector Network Analyzer 
! Rohde-Schwarz,ZNB20-2Port,1311601062101988,3.16
! Created: UTC 12/23/2023, 3:49:00 AM
! freq[Hz]                re:S11                  im:S11                  re:S21                  im:S21                  re:S12                  im:S12                  re:S22                  im:S22
 1.000937622000000E+10  -3.969705798046164E-1    3.273005458118516E-1   -1.625421378075867E-2   -1.269713716240354E-2   -1.487858688098008E-2   -1.292124239451091E-2   -2.187296437078298E-1    4.692342354534138E-1
 1.000938975882500E+10  -3.963568962344926E-1    3.282889107557999E-1   -1.624365181904003E-2   -1.260191254898566E-2   -1.505245395983484E-2   -1.299230661394984E-2   -2.177973424001567E-1    4.697502717019708E-1
 1.000940329765000E+10  -3.956382326108170E-1    3.289773561414985E-1   -1.633994521953692E-2   -1.271184972771562E-2   -1.509080030995525E-2   -1.298291765310313E-2   -2.173820421022518E-1    4.700304509317573E-1
 1.000941683647500E+10  -3.949470201495227E-1    3.299301262025308E-1   -1.651887651747188E-2   -1.265350988960092E-2   -1.513377635007698E-2   -1.308422924371359E-2   -2.165407854831660E-1    4.703772473973830E-1
 1.000943037530000E+10  -3.942328606930394E-1    3.306962692198456E-1   -1.635629556864066E-2   -1.275291646446898E-2   -1.543690286120943E-2   -1.296137412835138E-2   -2.154540562860747E-1    4.707214049610582E-1
 1.000944391412500E+10  -3.933925668108871E-1    3.315208995879526E-1   -1.665450955298187E-2   -1.265328979224156E-2   -1.538494642208827E-2   -1.304489903885342E-2   -2.147478117941672E-1    4.711365918675589E-1
 1.000945745295000E+10  -3.927116635623258E-1    3.323305381037446E-1   -1.671307454992470E-2   -1.279865747750841E-2   -1.552726418999130E-2   -1.294399557259988E-2   -2.141104266614882E-1    4.714881972934326E-1
 1.000947099177500E+10  -3.922129338197839E-1    3.332768360487205E-1   -1.681182018453979E-2   -1.272460818151710E-2   -1.570624339248232E-2   -1.305339377383314E-2   -2.130848235589831E-1    4.719204091780922E-1
 1.000948453060000E+10  -3.914201390786173E-1    3.341966474597797E-1   -1.683922730104277E-2   -1.279623480498627E-2   -1.574258121734776E-2   -1.311584951298511E-2   -2.121954013733730E-1    4.723890261013948E-1
 1.000949806942500E+10  -3.907464618925547E-1    3.348695493889324E-1   -1.693786376536787E-2   -1.278506699489073E-2   -1.578378225407868E-2   -1.327116631955514E-2   -2.115581356783879E-1    4.726326871840019E-1
 1.000951160825000E+10  -3.899346633490910E-1    3.358329829266590E-1   -1.697021372949734E-2   -1.282182867648866E-2   -1.598835695938009E-2   -1.310874351760418E-2   -2.106252395039282E-1    4.732036567971603E-1
 1.000952514707500E+10  -3.892153661463033E-1    3.366380312596540E-1   -1.719616625004489E-2   -1.269967753774234E-2   -1.584430550563721E-2   -1.325597705236002E-2   -2.099520370012931E-1    4.734514605446192E-1
 1.000953868590000E+10  -3.886135516097876E-1    3.374693358173011E-1   -1.715992849998967E-2   -1.288682097497707E-2   -1.610248427168433E-2   -1.329698941505930E-2   -2.090946960317332E-1    4.738142105066585E-1
 1.000955222472500E+10  -3.878566080887261E-1    3.382924072447035E-1   -1.741393012608463E-2   -1.290563217749323E-2   -1.615830392842768E-2   -1.317739710037536E-2   -2.082732378011009E-1    4.742071459720574E-1
 1.000956576355000E+10  -3.871909498523707E-1    3.392210981761365E-1   -1.739602016382522E-2   -1.284037275495906E-2   -1.637103090278574E-2   -1.330371056360998E-2   -2.074932297829156E-1    4.745142281384429E-1
 1.000957930237500E+10  -3.863191574032839E-1    3.399768182946670E-1   -1.755536462470147E-2   -1.278742178726341E-2   -1.624341908513136E-2   -1.324566916711890E-2   -2.067477024198241E-1    4.748878588337982E-1
 1.000959284120000E+10  -3.855857702840105E-1    3.407533136435963E-1   -1.752604354483633E-2   -1.297488285413054E-2   -1.645167087411058E-2   -1.332590660746472E-2   -2.058387672186718E-1    4.753695526928332E-1
 1.000960638002500E+10  -3.849238287479412E-1    3.418198183617432E-1   -1.764440809546340E-2   -1.296057733304881E-2   -1.646864217112725E-2   -1.319348719623922E-2   -2.050170276121099E-1    4.756893165574299E-1
 1.000961991885000E+10  -3.841545462807157E-1    3.426384603891342E-1   -1.772575047440566E-2   -1.301176381586937E-2   -1.655381618476559E-2   -1.324666210380121E-2   -2.041328965066738E-1    4.760433703616107E-1
 1.000963345767500E+10  -3.832095642727715E-1    3.433719654519228E-1   -1.794943886706003E-2   -1.302106755456229E-2   -1.666530738030495E-2   -1.334532544203392E-2   -2.032365782563579E-1    4.763079041605975E-1
 1.000964699650000E+10  -3.827427442738991E-1    3.441598120659430E-1   -1.797360520586161E-2   -1.287532586481400E-2   -1.670662152189509E-2   -1.341989842615640E-2   -2.026293873264999E-1    4.768008241114604E-1
 1.000966053532500E+10  -3.819286289175984E-1    3.451308585977481E-1   -1.810873364390040E-2   -1.299937076410324E-2   -1.688362664615736E-2   -1.335059287207882E-2   -2.016844120401923E-1    4.771302615298314E-1
 1.000967407415000E+10  -3.812313887571711E-1    3.459045859252396E-1   -1.830956040449469E-2   -1.297330378551268E-2   -1.698119467980575E-2   -1.332237806924995E-2   -2.008412661505254E-1    4.776055093846822E-1
 1.000968761297500E+10  -3.804253739298480E-1    3.467320215851133E-1   -1.846006257454940E-2   -1.319212689724742E-2   -1.712303506293348E-2   -1.337921271148377E-2   -2.002221627251813E-1    4.779824547912938E-1
 1.000970115180000E+10  -3.796392424698100E-1    3.475632848537070E-1   -1.843644728517949E-2   -1.293780223771286E-2   -1.719954830676014E-2   -1.334343352110742E-2   -1.992532936996463E-1    4.782237906765621E-1
 1.000971469062500E+10  -3.788895295774485E-1    3.483279522464742E-1   -1.872339733219759E-2   -1.292025693662319E-2   -1.740671683332847E-2   -1.347292850810008E-2   -1.985329710618944E-1    4.785682762086579E-1
 1.000972822945000E+10  -3.781148654420692E-1    3.491989676104790E-1   -1.882357154432329E-2   -1.302533745813277E-2   -1.756885926345308E-2   -1.335519499168187E-2   -1.976979354204247E-1    4.789482610918913E-1
 1.000974176827500E+10  -3.772796489857621E-1    3.500845895577386E-1   -1.892153285271699E-2   -1.314539005376960E-2   -1.759858067966612E-2   -1.341405168949152E-2   -1.965263438042571E-1    4.793339244872485E-1
 1.000975530710000E+10  -3.766837323797758E-1    3.510420155898393E-1   -1.899070336364416E-2   -1.322175567721874E-2   -1.772860482498518E-2   -1.346405684428418E-2   -1.959383613660615E-1    4.798127012467965E-1
 1.000976884592500E+10  -3.757118195615083E-1    3.518591515608895E-1   -1.903778123380807E-2   -1.309556982927947E-2   -1.783810397443560E-2   -1.356946712476738E-2   -1.952133588964908E-1    4.800480246841912E-1
 1.000978238475000E+10  -3.750032625496848E-1    3.526447781508418E-1   -1.910190771971780E-2   -1.310997614657506E-2   -1.787569036244251E-2   -1.355318998813871E-2   -1.942250039156442E-1    4.802874182151181E-1
 1.000979592357500E+10  -3.741210013118447E-1    3.535805518796324E-1   -1.920709103052756E-2   -1.320692623449245E-2   -1.805330850823032E-2   -1.348014856117267E-2   -1.934789372248052E-1    4.807683066304807E-1
 1.000980946240000E+10  -3.733520304336400E-1    3.543790071499238E-1   -1.933817103236522E-2   -1.316916545312104E-2   -1.803127216590924E-2   -1.360119295252289E-2   -1.925592767096662E-1    4.811468079617478E-1
 1.000982300122500E+10  -3.725016257967976E-1    3.552505650005295E-1   -1.941988445681145E-2   -1.330194144499331E-2   -1.823252982055451E-2   -1.349408057525606E-2   -1.917723156400893E-1    4.814683063673760E-1
 1.000983654005000E+10  -3.717744867195136E-1    3.559060526483334E-1   -1.953488061999684E-2   -1.328129385647904E-2   -1.844085540819516E-2   -1.358666049222119E-2   -1.909481935633497E-1    4.818723418133147E-1
 1.000985007887500E+10  -3.709593201118846E-1    3.569154715429816E-1   -1.980704589677131E-2   -1.334086762425013E-2   -1.847046027930797E-2   -1.359492816461790E-2   -1.900002807458620E-1    4.820517890702316E-1
 1.000986361770000E+10  -3.701980569227433E-1    3.576356602210276E-1   -1.987046018569734E-2   -1.312477451882499E-2   -1.857765837936196E-2   -1.359728784015147E-2   -1.893469651266165E-1    4.825474590560565E-1
 1.000987715652500E+10  -3.692078124727454E-1    3.585658880743929E-1   -2.011536613518868E-2   -1.324162343778883E-2   -1.879128966556735E-2   -1.358888383925624E-2   -1.884674152270099E-1    4.828957911255717E-1
 1.000989069535000E+10  -3.684785593327840E-1    3.592936451218214E-1   -2.007195589836066E-2   -1.326996841683873E-2   -1.875043883807131E-2   -1.368144343674743E-2   -1.875717419827769E-1    4.830894051627113E-1
 1.000990423417500E+10  -3.674862273465386E-1    3.603289821678844E-1   -2.028219377723799E-2   -1.328649573615828E-2   -1.886246051858771E-2   -1.373116270201463E-2   -1.867142102286104E-1    4.835089278324260E-1
 1.000991777300000E+10  -3.668122141711525E-1    3.612179468344479E-1   -2.032292319283159E-2   -1.309505914899998E-2   -1.904449481687932E-2   -1.372179341435547E-2   -1.861005064086747E-1    4.839517567866327E-1
 1.000993131182500E+10  -3.660097940751479E-1    3.619326787584091E-1   -2.059514994287036E-2   -1.334060746745581E-2   -1.922490840459033E-2   -1.368781166576118E-2   -1.851891903237083E-1    4.841297012551479E-1
 1.000994485065000E+10  -3.651940530904040E-1    3.627461389325924E-1   -2.072851469185003E-2   -1.329913321411726E-2   -1.927060223107195E-2   -1.378705522236836E-2   -1.843748288660476E-1    4.845417971656719E-1
 1.000995838947500E+10  -3.642904261354984E-1    3.635422194660917E-1   -2.092340486609853E-2   -1.347419988963781E-2   -1.946557785950281E-2   -1.377995925136638E-2   -1.834233240084664E-1    4.849219346922884E-1
 1.000997192830000E+10  -3.634036213573326E-1    3.645082578550063E-1   -2.093166262291490E-2   -1.335091590296730E-2   -1.968655593394456E-2   -1.382528397764880E-2   -1.826363295374629E-1    4.851530604382785E-1
 1.000998546712500E+10  -3.626353890571817E-1    3.653167377615300E-1   -2.094377043816952E-2   -1.338866609978167E-2   -1.968591442883592E-2   -1.384985418329280E-2   -1.815622000782715E-1    4.854331001490865E-1
 1.000999900595000E+10  -3.617150773234577E-1    3.662646835299825E-1   -2.122882132372172E-2   -1.353129940198419E-2   -2.006537638986755E-2   -1.370889427015452E-2   -1.806471491946820E-1    4.859129085155623E-1
 1.001001254477500E+10  -3.607761409209763E-1    3.670693447003020E-1   -2.135623762408246E-2   -1.352171510957563E-2   -2.002583931330959E-2   -1.389314427471892E-2   -1.799944652618895E-1    4.860649390768911E-1
 1.001002608360000E+10  -3.598375259907327E-1    3.677939799110171E-1   -2.156389098641290E-2   -1.348990313868708E-2   -2.016831641972092E-2   -1.391875179988242E-2   -1.790908923096927E-1    4.865115930846390E-1
 1.001003962242500E+10  -3.592049071860731E-1    3.686942742765834E-1   -2.170632890051581E-2   -1.346785458021858E-2   -2.024712425027709E-2   -1.394679125937471E-2   -1.782981065150306E-1    4.868077461319743E-1
 1.001005316125000E+10  -3.582902170521491E-1    3.695551726620689E-1   -2.188138534783129E-2   -1.336375657065199E-2   -2.044114574472166E-2   -1.397060914007293E-2   -1.775644746432297E-1    4.871253069892404E-1
 1.001006670007500E+10  -3.574350567730663E-1    3.703528646904211E-1   -2.202474469545485E-2   -1.337806249227079E-2   -2.064387151202522E-2   -1.404293021789130E-2   -1.766854213471468E-1    4.874126914390599E-1
 1.001008023890000E+10  -3.563555402740261E-1    3.713421517939387E-1   -2.223150432546709E-2   -1.342399614565403E-2   -2.055960288090177E-2   -1.399475103086271E-2   -1.757508813886390E-1    4.877668119562654E-1
 1.001009377772500E+10  -3.554885413285170E-1    3.721393790375548E-1   -2.235402547503667E-2   -1.337484805283511E-2   -2.083679128834095E-2   -1.395152290903914E-2   -1.749374254389785E-1    4.881268614196508E-1
 1.001010731655000E+10  -3.544596207970728E-1    3.729565880211736E-1   -2.236945850784101E-2   -1.342644137443512E-2   -2.103055843958383E-2   -1.395785701521911E-2   -1.741587745939627E-1    4.883726022699710E-1
 1.001012085537500E+10  -3.537618389554460E-1    3.738656875915565E-1   -2.265173583369583E-2   -1.361580674141272E-2   -2.115488183651203E-2   -1.399224513623754E-2   -1.731956954810235E-1    4.886719296451880E-1
 1.001013439420000E+10  -3.527354820428883E-1    3.747325396900394E-1   -2.264429686379968E-2   -1.355509015156016E-2   -2.132082990466132E-2   -1.403285455131784E-2   -1.723908555272084E-1    4.889756974172744E-1
 1.001014793302500E+10  -3.517155122669546E-1    3.754490944066875E-1   -2.300448068333358E-2   -1.348848735269235E-2   -2.151494695843637E-2   -1.395899268438416E-2   -1.714700936547757E-1    4.894275763211349E-1
 1.001016147185000E+10  -3.507022470481680E-1    3.764061596742479E-1   -2.307439749962379E-2   -1.348630563571383E-2   -2.173179331354634E-2   -1.415216141167653E-2   -1.707341753805641E-1    4.896724426418079E-1
 1.001017501067500E+10  -3.499977904177710E-1    3.771383508696248E-1   -2.323160745887430E-2   -1.359664273976048E-2   -2.180771585474520E-2   -1.428026284403069E-2   -1.696321123800180E-1    4.900699178043965E-1
 1.001018854950000E+10  -3.488584350480175E-1    3.780332217885624E-1   -2.350150258169548E-2   -1.367120303889070E-2   -2.189407594017971E-2   -1.436656725291247E-2   -1.689158059780624E-1    4.903124086940490E-1
 1.001020208832500E+10  -3.478758077479363E-1    3.789092099635075E-1   -2.358946975155472E-2   -1.364530324794458E-2   -2.199883925119831E-2   -1.418849798131798E-2   -1.680736897883802E-1    4.906069387732692E-1
 1.001021562715000E+10  -3.469174423584105E-1    3.798130836675840E-1   -2.375350035150388E-2   -1.356498402414401E-2   -2.228558332034287E-2   -1.416750925075939E-2   -1.671925151775963E-1    4.908794193460265E-1
 1.001022916597500E+10  -3.460006411974184E-1    3.806216293903945E-1   -2.393795788464116E-2   -1.372245949386875E-2   -2.241156821170591E-2   -1.415456578268994E-2   -1.663221849964286E-1    4.910777948507714E-1
 1.001024270480000E+10  -3.451140019163223E-1    3.815239818947004E-1   -2.406369908136264E-2   -1.373325157513169E-2   -2.273661075418678E-2   -1.432213319951283E-2   -1.654307094131654E-1    4.913652546576144E-1
 1.001025624362500E+10  -3.440831877972046E-1    3.822350325274029E-1   -2.432341871716628E-2   -1.361482936862207E-2   -2.279418308604634E-2   -1.409676575800036E-2   -1.645410759980470E-1    4.918625526098725E-1
 1.001026978245000E+10  -3.431620161852056E-1    3.831704261079448E-1   -2.447647189665698E-2   -1.373716243037522E-2   -2.298000131646074E-2   -1.427166915424302E-2   -1.636800562117787E-1    4.921919451637193E-1
 1.001028332127500E+10  -3.420952027249877E-1    3.841396537207216E-1   -2.476345777709004E-2   -1.371062812682804E-2   -2.315605480596207E-2   -1.414690005378398E-2   -1.629239930152065E-1    4.923675912571962E-1
 1.001029686010000E+10  -3.410668359744253E-1    3.850390935944306E-1   -2.498044422060705E-2   -1.351736341504639E-2   -2.330925457878899E-2   -1.432520401489733E-2   -1.619155639897889E-1    4.925550956899012E-1
 1.001031039892500E+10  -3.402554765628919E-1    3.857258772145092E-1   -2.524868817127717E-2   -1.365472024452838E-2   -2.349399924043011E-2   -1.443001560382769E-2   -1.612088277186458E-1    4.929390464953303E-1
 1.001032393775000E+10  -3.390398359117368E-1    3.865932149252306E-1   -2.516629726598834E-2   -1.366288594108115E-2   -2.369595229955226E-2   -1.442318116750262E-2   -1.600463075812896E-1    4.932196714176678E-1
 1.001033747657500E+10  -3.379332457384077E-1    3.874379617704424E-1   -2.538365987727408E-2   -1.370485305532035E-2   -2.381205845433413E-2   -1.445793363163880E-2   -1.593025541290057E-1    4.934560869451811E-1
 1.001035101540000E+10  -3.369360004228452E-1    3.884089959508116E-1   -2.567743171455949E-2   -1.379141529342900E-2   -2.402631774943345E-2   -1.436180706788464E-2   -1.584713268296508E-1    4.938411836333640E-1
 1.001036455422500E+10  -3.359856843711632E-1    3.892101420419161E-1   -2.569872924252740E-2   -1.388134148195527E-2   -2.421043553396537E-2   -1.432830922479868E-2   -1.575821875632258E-1    4.942586655503498E-1
 1.001037809305000E+10  -3.348992207013704E-1    3.900981588247067E-1   -2.601658186649392E-2   -1.383754520616485E-2   -2.439520892314348E-2   -1.447316268715798E-2   -1.567470681313327E-1    4.943328233284374E-1
 1.001039163187500E+10  -3.337643389642030E-1    3.909793436554491E-1   -2.625680758732121E-2   -1.391733049866537E-2   -2.472694698850453E-2   -1.436351093556413E-2   -1.558917395536815E-1    4.947817860406944E-1
 1.001040517070000E+10  -3.325580078130172E-1    3.918110495324343E-1   -2.650689674907854E-2   -1.378015715457450E-2   -2.491580080183785E-2   -1.446333950217714E-2   -1.548223863113811E-1    4.950919392873609E-1
 1.001041870952500E+10  -3.315608385509117E-1    3.925756809416584E-1   -2.665697635471424E-2   -1.399176561714731E-2   -2.510773865016016E-2   -1.449925487361438E-2   -1.540010403885107E-1    4.953213146202936E-1
 1.001043224835000E+10  -3.305676761573635E-1    3.934689920292252E-1   -2.696032456949264E-2   -1.369186645230740E-2   -2.526378533308102E-2   -1.448691894617131E-2   -1.531839772662147E-1    4.955482755664948E-1
 1.001044578717500E+10  -3.294154517785487E-1    3.944901224246072E-1   -2.712055051751917E-2   -1.378070806765288E-2   -2.537713096499125E-2   -1.450894732958259E-2   -1.521518536245889E-1    4.958676600857560E-1
 1.001045932600000E+10  -3.281796377511246E-1    3.952133070178434E-1   -2.746570211867194E-2   -1.375833599967267E-2   -2.565655131790996E-2   -1.453398755553289E-2   -1.513993852103698E-1    4.959871570003672E-1
 1.001047286482500E+10  -3.272395025425634E-1    3.960286098706832E-1   -2.767816852849187E-2   -1.378316006586491E-2   -2.583686435509967E-2   -1.480069430152218E-2   -1.504359264200378E-1    4.962714000271888E-1
 1.001048640365000E+10  -3.258772001699988E-1    3.968964917160373E-1   -2.774657623820994E-2   -1.383018691663058E-2   -2.616136645738796E-2   -1.463561075673189E-2   -1.495788051462363E-1    4.967664872422762E-1
 1.001049994247500E+10  -3.247452068560227E-1    3.978309724874946E-1   -2.817199188019342E-2   -1.376044991334711E-2   -2.640497602107026E-2   -1.455355549735989E-2   -1.486220779434395E-1    4.968433238279164E-1
 1.001051348130000E+10  -3.236698223148909E-1    3.986860922283457E-1   -2.827868386566598E-2   -1.385228035086138E-2   -2.664690695139926E-2   -1.445701031666195E-2   -1.477526198254491E-1    4.971239203568641E-1
 1.001052702012500E+10  -3.223397100316909E-1    3.996618334999892E-1   -2.855882185339003E-2   -1.393876781415971E-2   -2.688134206810927E-2   -1.471918485769404E-2   -1.468496275722519E-1    4.973695983470237E-1
 1.001054055895000E+10  -3.213205607509966E-1    4.004348337407838E-1   -2.870369157897728E-2   -1.392123105542526E-2   -2.711195779238511E-2   -1.476081705104265E-2   -1.460058712477528E-1    4.976149739441507E-1
 1.001055409777500E+10  -3.200101610509639E-1    4.012543080558947E-1   -2.907069686254208E-2   -1.404045423079851E-2   -2.733497543529412E-2   -1.461141558646953E-2   -1.450759077230207E-1    4.980456746516871E-1
 1.001056763660000E+10  -3.188556631176502E-1    4.021124482133230E-1   -2.924624449323243E-2   -1.399217880085738E-2   -2.759573654481663E-2   -1.495973959540989E-2   -1.440910329144775E-1    4.981715192269918E-1
 1.001058117542500E+10  -3.176277520487496E-1    4.030173979263144E-1   -2.940691629028205E-2   -1.395469289305948E-2   -2.775758643532333E-2   -1.496802572035827E-2   -1.432485803897506E-1    4.983984293325405E-1
 1.001059471425000E+10  -3.164326892710302E-1    4.039036211085605E-1   -2.968131336410177E-2   -1.407623214535195E-2   -2.802428480634807E-2   -1.476344089161930E-2   -1.423538656718870E-1    4.987202644644257E-1
