#  HZ   S   RI   R     50.00 
! Rohde & Schwarz Vector Network Analyzer 
! Rohde-Schwarz,ZNB20-2Port,1311601062101988,3.16
! Created: UTC 3/20/2024, 11:42:29 AM
! freq[Hz]                re:S11                  im:S11                  re:S21                  im:S21                  re:S12                  im:S12                  re:S22                  im:S22
 8.117024299000000E9     5.057614794546696E-1   -1.896515064003733E-2    8.737292671762884E-4    3.783865114354395E-3    9.230727870134736E-4    3.815681729538464E-3    4.170947449412093E-1   -1.711150570337772E-1
 8.117027488650000E9     5.057621714004523E-1   -1.925058827141756E-2    8.628338468266905E-4    3.770768531986656E-3    9.487428349406976E-4    3.796060271690027E-3    4.168732113934172E-1   -1.713322962903198E-1
 8.117030678300000E9     5.058042963754200E-1   -1.952202661727584E-2    8.862418296446175E-4    3.758473349749323E-3    9.614966130548648E-4    3.811136509557445E-3    4.167817619310399E-1   -1.714853616540843E-1
 8.117033867950000E9     5.056790711222368E-1   -1.976480034924849E-2    8.720347734857123E-4    3.767966616296291E-3    9.234143383687680E-4    3.853837492495694E-3    4.167689574832091E-1   -1.717825291144964E-1
 8.117037057600000E9     5.057470354347113E-1   -1.996248831512186E-2    8.751355942470801E-4    3.785695564251005E-3    9.274681905163008E-4    3.840543407988259E-3    4.166612943594269E-1   -1.719391881828218E-1
 8.117040247250000E9     5.057085862831697E-1   -2.015658513400707E-2    8.847767135183593E-4    3.786378005036240E-3    9.339501028266337E-4    3.848752399621033E-3    4.166438912939575E-1   -1.721376284297629E-1
 8.117043436900000E9     5.056230469981244E-1   -2.051535139197030E-2    8.981096931881328E-4    3.752523586323932E-3    9.511500044330903E-4    3.803617179856451E-3    4.165558782447490E-1   -1.723397178417956E-1
 8.117046626550000E9     5.056979848794850E-1   -2.075947569077172E-2    9.075415110938590E-4    3.771029261434321E-3    9.597728137047931E-4    3.856230011204911E-3    4.164668985727975E-1   -1.726107441771155E-1
 8.117049816200000E9     5.057106576370902E-1   -2.091966386112920E-2    9.058781958355557E-4    3.788724611691004E-3    9.543702082272290E-4    3.830909517532532E-3    4.163878105931526E-1   -1.727552759901545E-1
 8.117053005850000E9     5.057307775617832E-1   -2.121305752978134E-2    8.945572320677679E-4    3.796378438131025E-3    9.568758532866787E-4    3.836230694599119E-3    4.162312117382558E-1   -1.729758386160342E-1
 8.117056195500000E9     5.055403885969149E-1   -2.148683147178784E-2    9.280593455231665E-4    3.803029065692734E-3    9.739456306881585E-4    3.842569149568659E-3    4.162651349636293E-1   -1.730027230758776E-1
 8.117059385150000E9     5.054893259104536E-1   -2.176668824991837E-2    8.806306318551117E-4    3.783971445992328E-3    9.622450058866578E-4    3.863485932681919E-3    4.161066435903375E-1   -1.734313102680912E-1
 8.117062574800000E9     5.055151222471528E-1   -2.195541498016395E-2    9.105384460024185E-4    3.788921653242527E-3    1.005101589398290E-3    3.845908602151834E-3    4.160682780934170E-1   -1.737239228912235E-1
 8.117065764450000E9     5.055194215909942E-1   -2.227291287127968E-2    9.123035407727639E-4    3.768800660372815E-3    9.815153297825555E-4    3.860541085527058E-3    4.161073000548934E-1   -1.738807050664497E-1
 8.117068954100000E9     5.054893337125297E-1   -2.248892315363882E-2    8.931586741378419E-4    3.795286147621329E-3    9.840779651616284E-4    3.859013074148596E-3    4.159967229485949E-1   -1.739481547212629E-1
 8.117072143750000E9     5.055526230187383E-1   -2.276240400699378E-2    8.976661073525580E-4    3.779579414001131E-3    9.534567132009225E-4    3.875594859285053E-3    4.159349961178859E-1   -1.743568853747724E-1
 8.117075333400000E9     5.054888248673716E-1   -2.303334910140974E-2    9.032903355004886E-4    3.822418876357015E-3    9.783490809781364E-4    3.867990126642656E-3    4.158132787201895E-1   -1.744574541557402E-1
 8.117078523050000E9     5.055447120633488E-1   -2.328505019202042E-2    9.270887268672844E-4    3.826288457519160E-3    9.648719638790793E-4    3.863796929956911E-3    4.157156146713739E-1   -1.747399395135025E-1
 8.117081712700000E9     5.055343691379134E-1   -2.347836506475391E-2    9.363017266608039E-4    3.808518916626371E-3    1.013645487201958E-3    3.880332852511309E-3    4.155272151181885E-1   -1.748688462665351E-1
 8.117084902350000E9     5.055018739483823E-1   -2.386800924644270E-2    9.301821852008430E-4    3.834341349112650E-3    9.919962172711550E-4    3.840945689070028E-3    4.154754035439490E-1   -1.750784599719273E-1
 8.117088092000000E9     5.054288724084649E-1   -2.402300102005255E-2    9.430074652470280E-4    3.825783518348054E-3    9.761129498294364E-4    3.892503570691827E-3    4.156108533666541E-1   -1.753073529029087E-1
 8.117091281650000E9     5.053682142324182E-1   -2.428231985552844E-2    9.438509182172236E-4    3.826876169206101E-3    1.017087027115211E-3    3.874885918983172E-3    4.153169430665411E-1   -1.755638420533336E-1
 8.117094471300000E9     5.054069638991721E-1   -2.451006450138834E-2    9.366300983892804E-4    3.815539551233637E-3    1.004561178259614E-3    3.880139321467389E-3    4.152925711514776E-1   -1.757239875164127E-1
 8.117097660950000E9     5.055329622794233E-1   -2.485962100530401E-2    9.585595910715271E-4    3.839138253871072E-3    1.021523000209213E-3    3.890181049943216E-3    4.152220326527626E-1   -1.759738479830419E-1
 8.117100850600000E9     5.053606733965955E-1   -2.491835574290715E-2    9.476637045162247E-4    3.823202292734591E-3    1.036895232598813E-3    3.915235402364923E-3    4.150784799739548E-1   -1.761462901369093E-1
 8.117104040250000E9     5.054248204283669E-1   -2.523673843083644E-2    9.704315120458252E-4    3.860825039957874E-3    9.832035562110447E-4    3.856204692476782E-3    4.149225008805194E-1   -1.763079392895908E-1
 8.117107229900000E9     5.052664425200744E-1   -2.551228763996172E-2    9.564600895432224E-4    3.800882926043084E-3    1.040696414374781E-3    3.895198390027155E-3    4.148796303750185E-1   -1.765349366638591E-1
 8.117110419550000E9     5.053357438944918E-1   -2.581510172085533E-2    9.560125712309496E-4    3.838717116989012E-3    1.058787024898050E-3    3.887972640036691E-3    4.149004894096316E-1   -1.767187911159548E-1
 8.117113609200000E9     5.052649789927637E-1   -2.603974891778460E-2    9.669603712258765E-4    3.840108670153112E-3    1.051709700936568E-3    3.928579852153499E-3    4.147671845921505E-1   -1.771364009470771E-1
 8.117116798850000E9     5.052146472003374E-1   -2.631585538814647E-2    9.416818562065331E-4    3.857058305170150E-3    9.901881620757694E-4    3.905041293667005E-3    4.147396254129047E-1   -1.772365150609554E-1
 8.117119988500000E9     5.052894415461774E-1   -2.657775105844894E-2    9.596490873942887E-4    3.831181484594015E-3    1.013022685037986E-3    3.953545395338823E-3    4.146472318594696E-1   -1.774212632249449E-1
 8.117123178150000E9     5.052213466146316E-1   -2.683471008151710E-2    9.890783649132316E-4    3.850378886858171E-3    1.053756844030007E-3    3.933956476763251E-3    4.145088635030320E-1   -1.776608332051377E-1
 8.117126367800000E9     5.053072635346293E-1   -2.690055656364694E-2    9.829228907437964E-4    3.878546992810771E-3    1.036170640835076E-3    3.925195635991598E-3    4.144964256352501E-1   -1.777171426158613E-1
 8.117129557450000E9     5.052019223606006E-1   -2.741082994970443E-2    1.002686308677953E-3    3.886445361568844E-3    1.023304170414725E-3    3.949401288642917E-3    4.143278842580839E-1   -1.779441165655320E-1
 8.117132747100000E9     5.051414667791957E-1   -2.769089462510876E-2    9.778201942596087E-4    3.884991436528458E-3    1.070192573519324E-3    3.915733146036590E-3    4.144241572901388E-1   -1.782788636730483E-1
 8.117135936750000E9     5.051763431203594E-1   -2.783822123946168E-2    9.778182600112622E-4    3.896638621739822E-3    1.039437090035533E-3    3.942263811557993E-3    4.142853989235234E-1   -1.785957123779817E-1
 8.117139126400000E9     5.050201281323136E-1   -2.807565934647977E-2    9.997489842378188E-4    3.884245904040772E-3    1.047013250374925E-3    3.930657543698302E-3    4.142499742625040E-1   -1.787295446459666E-1
 8.117142316050000E9     5.050442011856699E-1   -2.837180627078268E-2    9.938396910415264E-4    3.853096887360773E-3    1.041086298223002E-3    3.910514182966493E-3    4.140051038795092E-1   -1.789042029736807E-1
 8.117145505700000E9     5.051580507414748E-1   -2.877992759439182E-2    1.023876140806624E-3    3.875121338588722E-3    1.078023663163521E-3    3.920242009237328E-3    4.139353368395087E-1   -1.789502056276607E-1
 8.117148695350000E9     5.050415429828622E-1   -2.880957174018203E-2    9.730836483112756E-4    3.898639851026015E-3    1.053556850576398E-3    3.955109071366981E-3    4.139455313108322E-1   -1.792249099604734E-1
 8.117151885000000E9     5.049562626686303E-1   -2.921816826701844E-2    1.004139742115964E-3    3.895049497633745E-3    1.065041239695811E-3    3.967469440551838E-3    4.138377133112839E-1   -1.794322356555922E-1
 8.117155074650000E9     5.050071995139166E-1   -2.941471823500423E-2    9.889992404273074E-4    3.908367029686748E-3    1.050766967468305E-3    3.977672139441705E-3    4.137538038065460E-1   -1.796795926687416E-1
 8.117158264300000E9     5.050008886953015E-1   -2.960666781106884E-2    1.012364749797759E-3    3.898138639051914E-3    1.096745263026978E-3    3.958781857734858E-3    4.136630152109189E-1   -1.799682260976662E-1
 8.117161453950000E9     5.049132954438138E-1   -2.995990615531063E-2    1.018779064271200E-3    3.876613769342182E-3    1.086287976492239E-3    3.965362806568359E-3    4.137630917061052E-1   -1.801336174425943E-1
 8.117164643600000E9     5.048292683327233E-1   -3.017704076117379E-2    1.023099710505443E-3    3.913290471473646E-3    1.080568951503152E-3    3.977565452869305E-3    4.134611819602809E-1   -1.802166633663947E-1
 8.117167833250000E9     5.048903943730536E-1   -3.044553087988341E-2    1.013085733890657E-3    3.930738934779627E-3    1.062096749836201E-3    3.975635495120250E-3    4.134751086428804E-1   -1.805801112382227E-1
 8.117171022900000E9     5.049472024547278E-1   -3.070575161353025E-2    1.030049550497144E-3    3.934021079982183E-3    1.113992645324454E-3    3.964121116685339E-3    4.134838381987390E-1   -1.806437889883779E-1
 8.117174212550000E9     5.048213179709663E-1   -3.107403323944474E-2    1.050576694738732E-3    3.900491751988818E-3    1.097918906316032E-3    3.997508860966631E-3    4.133408110327162E-1   -1.808541835782179E-1
 8.117177402200000E9     5.047591923985850E-1   -3.132010685214927E-2    1.056760804607336E-3    3.933414266000710E-3    1.127548176364819E-3    3.986741115164696E-3    4.131833995145657E-1   -1.811742956037753E-1
 8.117180591850000E9     5.047681053516647E-1   -3.156393999388714E-2    1.034225551207569E-3    3.936358734235488E-3    1.103115283946140E-3    4.003762703884648E-3    4.131556306945542E-1   -1.813940213771535E-1
 8.117183781500000E9     5.046376708940784E-1   -3.172917175990300E-2    1.002219181048979E-3    3.910647912978833E-3    1.099401051253154E-3    4.018237383355267E-3    4.130765437274515E-1   -1.816245523872478E-1
 8.117186971150000E9     5.047102073002318E-1   -3.198284407404262E-2    1.054030743194626E-3    3.936236630267475E-3    1.095535982640307E-3    3.982606418737209E-3    4.129984901307486E-1   -1.817416103371579E-1
 8.117190160800000E9     5.046914081009328E-1   -3.243368052858830E-2    1.047062485768283E-3    3.937650158896661E-3    1.139217185952158E-3    4.023608404287858E-3    4.129395281429321E-1   -1.819097918439463E-1
 8.117193350450000E9     5.048002333042900E-1   -3.250647927488449E-2    1.043589508553490E-3    3.947954246592326E-3    1.109389408788637E-3    4.018016210513062E-3    4.127616618793644E-1   -1.821339252638507E-1
 8.117196540100000E9     5.045963718710311E-1   -3.280312215961546E-2    1.069022324571120E-3    3.940812122823770E-3    1.128009492062616E-3    4.015405068078412E-3    4.126984993565039E-1   -1.823752353553357E-1
 8.117199729750000E9     5.045680460470956E-1   -3.303149843005639E-2    1.077141500178076E-3    3.935527791060901E-3    1.143328933658364E-3    4.036951359907483E-3    4.126902389220711E-1   -1.825364831099970E-1
 8.117202919400000E9     5.045252659181670E-1   -3.316563849247924E-2    1.067817239629888E-3    3.944445365249411E-3    1.131482531674496E-3    4.010567481219802E-3    4.125831475321531E-1   -1.827748587943620E-1
 8.117206109050000E9     5.045364920267101E-1   -3.351461718048286E-2    1.085884453663569E-3    3.964762871111448E-3    1.120957403082789E-3    4.043175018364848E-3    4.125564170190514E-1   -1.829694238281545E-1
 8.117209298700000E9     5.044299603503808E-1   -3.375817206963498E-2    1.082382564010941E-3    3.966577351322575E-3    1.164893298385156E-3    4.046036590072474E-3    4.123486168214049E-1   -1.831595901454358E-1
 8.117212488350000E9     5.045495172026953E-1   -3.402288371750307E-2    1.092488500897034E-3    3.980937023000028E-3    1.161671680417022E-3    4.011155059201785E-3    4.123855892124708E-1   -1.833299135428119E-1
 8.117215678000000E9     5.045794696126032E-1   -3.431715362563462E-2    1.112034153370118E-3    3.981957745271847E-3    1.148885394637353E-3    4.066638374348762E-3    4.123088736352900E-1   -1.836035585907439E-1
 8.117218867650000E9     5.044668274236637E-1   -3.455439990147866E-2    1.099829036825314E-3    3.972792215699122E-3    1.177501659117283E-3    4.064743725646421E-3    4.121039467108593E-1   -1.838058185437815E-1
 8.117222057300000E9     5.044229839550224E-1   -3.492013731084572E-2    1.076949329500861E-3    3.983021482697272E-3    1.176797259180603E-3    4.018890035797598E-3    4.120711054481164E-1   -1.838772244689810E-1
 8.117225246950000E9     5.043961869776519E-1   -3.523065969814462E-2    1.082035490616567E-3    4.020397676887177E-3    1.197504990273778E-3    4.072575526273616E-3    4.120628658054135E-1   -1.842503250137572E-1
 8.117228436600000E9     5.044077741480547E-1   -3.542694894387005E-2    1.113731882595340E-3    4.020895292512362E-3    1.165568284171436E-3    4.073767907708246E-3    4.118687152338886E-1   -1.844536412348684E-1
 8.117231626250000E9     5.043437935654607E-1   -3.564868481187226E-2    1.120830317290979E-3    3.987407979510616E-3    1.156967654414214E-3    4.074829461306757E-3    4.117735280930265E-1   -1.846026630762403E-1
 8.117234815900000E9     5.042817611458913E-1   -3.594631044944125E-2    1.137254477304303E-3    4.004660536743555E-3    1.184183788904019E-3    4.046818301035860E-3    4.116835155214383E-1   -1.848955676586733E-1
 8.117238005550000E9     5.042839812192487E-1   -3.628582849897916E-2    1.123471893290140E-3    4.015044873119880E-3    1.186098130158249E-3    4.061179291767825E-3    4.116136954363274E-1   -1.850362575760796E-1
 8.117241195200000E9     5.042435252064765E-1   -3.648491262132653E-2    1.130425984661468E-3    4.021269129031712E-3    1.232747573336361E-3    4.079478664403757E-3    4.115140169277129E-1   -1.852848388774976E-1
 8.117244384850000E9     5.041902086534452E-1   -3.664666714833627E-2    1.123877156232105E-3    4.053381117401541E-3    1.217124740448652E-3    4.090364670070191E-3    4.114546941403741E-1   -1.856137732774812E-1
 8.117247574500000E9     5.042349350055153E-1   -3.699848139387096E-2    1.129589228267918E-3    4.031730130141921E-3    1.199082598792923E-3    4.119215310758479E-3    4.114591145178259E-1   -1.857231838884952E-1
 8.117250764150000E9     5.042313743095366E-1   -3.725531465115697E-2    1.154298267536984E-3    4.028582372853826E-3    1.225051073678587E-3    4.093494756934924E-3    4.112847155260448E-1   -1.859264216468622E-1
 8.117253953800000E9     5.041225963608046E-1   -3.748791492426685E-2    1.161700071555382E-3    4.034947398117245E-3    1.234269304849660E-3    4.087927935829351E-3    4.111754198864430E-1   -1.860543786755633E-1
 8.117257143450000E9     5.041133890210338E-1   -3.784131106814351E-2    1.170645164499800E-3    4.049521419328346E-3    1.226165495382121E-3    4.119337902941328E-3    4.110280224188920E-1   -1.862483167351070E-1
 8.117260333100000E9     5.040802603328703E-1   -3.809877701033221E-2    1.169497916597566E-3    4.059041446304617E-3    1.251775828648910E-3    4.117848458772822E-3    4.110835217636752E-1   -1.865162979012224E-1
 8.117263522750000E9     5.041256735173683E-1   -3.839456813431549E-2    1.144832706135476E-3    4.042436634667812E-3    1.214668857643850E-3    4.138242349815000E-3    4.110898755953551E-1   -1.868770355479702E-1
 8.117266712400000E9     5.040523133025969E-1   -3.871217647676165E-2    1.198190522548003E-3    4.063135357732665E-3    1.250884098077424E-3    4.120673387407782E-3    4.109158274806484E-1   -1.869907189686083E-1
 8.117269902050000E9     5.039777163689541E-1   -3.882872777667579E-2    1.192390854810606E-3    4.088598450458485E-3    1.246431475921364E-3    4.165759326379857E-3    4.108741340837174E-1   -1.871024099228547E-1
 8.117273091700000E9     5.040053213871153E-1   -3.921437414362195E-2    1.182463645468753E-3    4.056535396627388E-3    1.254213837790589E-3    4.169176867110739E-3    4.107262234221001E-1   -1.873464518122160E-1
 8.117276281350000E9     5.040220682256867E-1   -3.935023639767281E-2    1.185060980456320E-3    4.106723887600588E-3    1.282940587530307E-3    4.206589730391262E-3    4.107230397070121E-1   -1.876400581173132E-1
 8.117279471000000E9     5.038909601039456E-1   -3.964717379895687E-2    1.181804516058848E-3    4.088023142976846E-3    1.272299152429024E-3    4.168767300811226E-3    4.105652423209376E-1   -1.878748814166981E-1
 8.117282660650000E9     5.037662264254805E-1   -3.993995175271284E-2    1.196554161419739E-3    4.108526998594528E-3    1.290464792690546E-3    4.163582049609034E-3    4.105220040387437E-1   -1.880630729854018E-1
 8.117285850300000E9     5.038735056381780E-1   -4.018850084142724E-2    1.218314146178727E-3    4.100730158001221E-3    1.259664124485762E-3    4.171390821375006E-3    4.104070400963643E-1   -1.882029464362422E-1
 8.117289039950000E9     5.039446886864033E-1   -4.044592105835138E-2    1.210992959213840E-3    4.129599532092884E-3    1.262247552607345E-3    4.176344937232540E-3    4.102347197697891E-1   -1.883171077603501E-1
 8.117292229600000E9     5.037743440017192E-1   -4.075514005735533E-2    1.202030557465611E-3    4.094929390997746E-3    1.321806742837250E-3    4.225293252466492E-3    4.101958264433673E-1   -1.886400199838684E-1
 8.117295419250000E9     5.037313277646176E-1   -4.097849852694460E-2    1.252438740818267E-3    4.137690732697697E-3    1.310899767826786E-3    4.162157747837115E-3    4.101847794401227E-1   -1.888574869665810E-1
 8.117298608900000E9     5.036808631584491E-1   -4.133603494037154E-2    1.219615900151725E-3    4.154719995321801E-3    1.316878293109373E-3    4.173182539363289E-3    4.100767045779338E-1   -1.890692543388051E-1
 8.117301798550000E9     5.036486501264746E-1   -4.151709527131336E-2    1.233006470757511E-3    4.136521462101256E-3    1.312232452935581E-3    4.213971153293973E-3    4.099783467971126E-1   -1.892238348892017E-1
 8.117304988200000E9     5.036115162889191E-1   -4.194630381130031E-2    1.243332563456601E-3    4.148708863718271E-3    1.275889446895781E-3    4.220281915808212E-3    4.099829784480652E-1   -1.894074655816563E-1
 8.117308177850000E9     5.035730671866805E-1   -4.208372748180354E-2    1.234730772967542E-3    4.152905668792888E-3    1.286328729835019E-3    4.221537383342342E-3    4.098485761007518E-1   -1.896227326710999E-1
 8.117311367500000E9     5.035973741878972E-1   -4.233821182164411E-2    1.240136254898987E-3    4.194671846111251E-3    1.338040075942272E-3    4.248733476585914E-3    4.097138907190746E-1   -1.897505381742273E-1
