#  HZ   S   RI   R     50.00 
! Rohde & Schwarz Vector Network Analyzer 
! Rohde-Schwarz,ZNB20-2Port,1311601062101988,3.16
! Created: UTC 3/20/2024, 11:42:39 AM
! freq[Hz]                re:S11                  im:S11                  re:S21                  im:S21                  re:S12                  im:S12                  re:S22                  im:S22
 8.116983096000000E9     5.059291991764213E-1   -1.575223141407594E-2    8.500130821778376E-4    3.718464735513145E-3    9.196054142965874E-4    3.794525919824020E-3    4.181032541702424E-1   -1.683390375096349E-1
 8.116986452625000E9     5.058983034686508E-1   -1.600740838940306E-2    8.510668017190385E-4    3.732038244513995E-3    9.073335183829282E-4    3.809327701435105E-3    4.179957870200597E-1   -1.685159632123283E-1
 8.116989809250000E9     5.059820172509856E-1   -1.633144526113118E-2    8.443178381096639E-4    3.700885611151077E-3    9.133821811031244E-4    3.820965402624519E-3    4.178829905411714E-1   -1.688101771293076E-1
 8.116993165875000E9     5.059499363939327E-1   -1.671401387657194E-2    8.604084835473658E-4    3.746238819979897E-3    8.948542733105475E-4    3.814928422449322E-3    4.176825688224272E-1   -1.691331172501442E-1
 8.116996522500000E9     5.058974963997447E-1   -1.689800660060628E-2    8.525011335181342E-4    3.758873140968922E-3    8.869253156710111E-4    3.765714130207376E-3    4.176923993285994E-1   -1.691866700042765E-1
 8.116999879125000E9     5.058385033091650E-1   -1.709272385729354E-2    8.605873973154828E-4    3.752354217787926E-3    9.146411213738550E-4    3.778877438884226E-3    4.176149296171631E-1   -1.696601187443090E-1
 8.117003235750000E9     5.058670372739247E-1   -1.733476193771225E-2    8.450433557708356E-4    3.762457094280150E-3    9.351955692084492E-4    3.811340874664434E-3    4.175601977613485E-1   -1.697973918516641E-1
 8.117006592375000E9     5.058755851533457E-1   -1.756200531015038E-2    8.411377637677033E-4    3.749853872052579E-3    9.184607990662543E-4    3.833344797444124E-3    4.173891408419163E-1   -1.699938557128587E-1
 8.117009949000000E9     5.057409774670736E-1   -1.776620399114557E-2    8.757171488224906E-4    3.762695686841241E-3    8.907497523952411E-4    3.832110981817154E-3    4.174953854525119E-1   -1.700566424889362E-1
 8.117013305625000E9     5.058572408931528E-1   -1.812686227405272E-2    8.466202797849844E-4    3.755694528786710E-3    9.372926334072570E-4    3.805293119372746E-3    4.171992922459180E-1   -1.703223337882931E-1
 8.117016662250000E9     5.058504745197162E-1   -1.838476938468590E-2    8.782511647511242E-4    3.768268943521567E-3    9.015955511465486E-4    3.827421867138756E-3    4.171298242495188E-1   -1.706319105700465E-1
 8.117020018875000E9     5.058458443463043E-1   -1.866928221716643E-2    8.814226043862859E-4    3.780243747577990E-3    9.086911502339669E-4    3.832162941018242E-3    4.171944786740160E-1   -1.708480483278526E-1
 8.117023375500000E9     5.058413374803492E-1   -1.903840236879820E-2    8.747306083641616E-4    3.750116311513429E-3    9.425885986430308E-4    3.839748052302785E-3    4.171708836842663E-1   -1.711683401537957E-1
 8.117026732125000E9     5.057317664586004E-1   -1.917095423491032E-2    8.646185580647952E-4    3.764049251568080E-3    9.258119557908436E-4    3.855644585441794E-3    4.169132656258988E-1   -1.713542994990764E-1
 8.117030088750000E9     5.057763048875682E-1   -1.947368177749665E-2    8.983585607963469E-4    3.751695613227989E-3    9.375237987580451E-4    3.806250624425152E-3    4.169427384221892E-1   -1.714932388818610E-1
 8.117033445375000E9     5.058215983690987E-1   -1.980797734416578E-2    8.666006365211214E-4    3.773993456914137E-3    9.327644827494688E-4    3.835665580113572E-3    4.167604348633999E-1   -1.717447554952810E-1
 8.117036802000000E9     5.057175913979537E-1   -2.001430403579905E-2    8.593352849611834E-4    3.796405239298797E-3    9.942330153696036E-4    3.855509009938999E-3    4.168492823796979E-1   -1.718486302666216E-1
 8.117040158625000E9     5.057074582964490E-1   -2.030270660532740E-2    9.113889562799803E-4    3.779964252532910E-3    9.710270889326961E-4    3.862492217782609E-3    4.166937326551553E-1   -1.721376147674158E-1
 8.117043515250000E9     5.056342054680983E-1   -2.055885975875741E-2    9.070103987199441E-4    3.798286415006309E-3    9.360169104808219E-4    3.842598567437929E-3    4.165792894293552E-1   -1.724161938556364E-1
 8.117046871875000E9     5.057434704385981E-1   -2.076555386082833E-2    9.260475508373211E-4    3.796776329763606E-3    9.445597187598770E-4    3.823836385042337E-3    4.164107008674128E-1   -1.725029649987513E-1
 8.117050228500000E9     5.056838709088760E-1   -2.102916244196811E-2    8.920147401554174E-4    3.791953753365873E-3    9.611938125786698E-4    3.849804454318481E-3    4.165175889859699E-1   -1.727261954443329E-1
 8.117053585125000E9     5.055797294502242E-1   -2.132660623627571E-2    8.896559505163783E-4    3.781868595038131E-3    1.003033575112917E-3    3.852732916302030E-3    4.163559094193470E-1   -1.729688425848262E-1
 8.117056941750000E9     5.056619980716117E-1   -2.165220120126130E-2    9.227270623357823E-4    3.777758998764035E-3    9.607779394202761E-4    3.826280091343598E-3    4.162939562414285E-1   -1.731423794475829E-1
 8.117060298375000E9     5.055616836710026E-1   -2.187932531268066E-2    9.128533187273338E-4    3.795897189114187E-3    9.686930361613649E-4    3.852228789111867E-3    4.161521725972309E-1   -1.733892129558364E-1
 8.117063655000000E9     5.055622601727545E-1   -2.220601257521938E-2    9.188588198340541E-4    3.824182648251520E-3    9.743161211386654E-4    3.851018938480129E-3    4.161198644309234E-1   -1.735613352803268E-1
 8.117067011625000E9     5.055735755790710E-1   -2.235968220222498E-2    9.291784459659583E-4    3.796811204379223E-3    9.842626042114214E-4    3.873223322512341E-3    4.161480254028029E-1   -1.737869009483678E-1
 8.117070368250000E9     5.055125870903855E-1   -2.262749989123821E-2    9.090055077905599E-4    3.790915023608862E-3    9.703681507899729E-4    3.868783587269941E-3    4.161109386153614E-1   -1.741771171693406E-1
 8.117073724875000E9     5.055008651508599E-1   -2.296579451694500E-2    9.386360318498189E-4    3.821830211616718E-3    9.690926289590338E-4    3.890426111130598E-3    4.158305184896886E-1   -1.743827256902954E-1
 8.117077081500000E9     5.055603866745962E-1   -2.321801229089265E-2    9.072021032326441E-4    3.824225045653051E-3    1.018073478296080E-3    3.877415610361365E-3    4.159056110427838E-1   -1.745940305078742E-1
 8.117080438125000E9     5.055264314928458E-1   -2.342173365680500E-2    9.447137033155493E-4    3.826630456329454E-3    9.832436425539100E-4    3.875334862898287E-3    4.156792204062515E-1   -1.747527264008520E-1
 8.117083794750000E9     5.054019645417456E-1   -2.374879263371022E-2    9.583559060785507E-4    3.832235692504016E-3    9.967236983657007E-4    3.839793606708815E-3    4.156632113762053E-1   -1.750079327222233E-1
 8.117087151375000E9     5.055598587015568E-1   -2.396386161573118E-2    9.302575418078738E-4    3.821653059915419E-3    9.900514473957249E-4    3.888300313366604E-3    4.155286444872495E-1   -1.751249185015966E-1
 8.117090508000000E9     5.053612761132487E-1   -2.427345603789521E-2    9.509820746144080E-4    3.825864712961279E-3    9.812841324785436E-4    3.879442742631567E-3    4.154422114459017E-1   -1.754308695348099E-1
 8.117093864625000E9     5.053384309879361E-1   -2.450376235452133E-2    9.459206320357741E-4    3.813581585690964E-3    1.000646927222095E-3    3.923641222632600E-3    4.154932245031298E-1   -1.756156381622811E-1
 8.117097221250000E9     5.053285606159242E-1   -2.481875202410157E-2    9.120778219168258E-4    3.840037883653234E-3    1.014404931084688E-3    3.918618424327328E-3    4.153535398309864E-1   -1.757534629405412E-1
 8.117100577875000E9     5.054200314396096E-1   -2.507861387279477E-2    9.551959784649289E-4    3.858299577745168E-3    1.044994407360487E-3    3.891799578716707E-3    4.152652311840823E-1   -1.761133664762358E-1
 8.117103934500000E9     5.053443644157718E-1   -2.531172247642897E-2    9.288564637370328E-4    3.829820605557161E-3    1.046139623023244E-3    3.908796169459613E-3    4.152108131120429E-1   -1.764179786703147E-1
 8.117107291125000E9     5.053489300710565E-1   -2.564818541332774E-2    9.462334469413770E-4    3.832833434857762E-3    1.021671526607289E-3    3.911552757487677E-3    4.151464833657652E-1   -1.765382303383043E-1
 8.117110647750000E9     5.053147630563660E-1   -2.587378440595419E-2    9.696602007344732E-4    3.831670159405485E-3    1.066640547969422E-3    3.898653818205700E-3    4.149909344196763E-1   -1.767648671589256E-1
 8.117114004375000E9     5.052089326228280E-1   -2.620384693907824E-2    9.763903368536917E-4    3.842761045529549E-3    1.008407925079302E-3    3.904807859501730E-3    4.150541021495928E-1   -1.769346905262526E-1
 8.117117361000000E9     5.050876588746487E-1   -2.638945448332184E-2    9.728854059838127E-4    3.853571844149017E-3    1.010672052150676E-3    3.918493526569900E-3    4.148819985926919E-1   -1.770963650191476E-1
 8.117120717625000E9     5.051587318269891E-1   -2.664630473569116E-2    9.667865768194830E-4    3.849350530343478E-3    1.037814672340877E-3    3.914688955210081E-3    4.146672156757242E-1   -1.773775396515127E-1
 8.117124074250000E9     5.052840033401208E-1   -2.695428664609967E-2    9.749628781043047E-4    3.878166229945520E-3    1.049660756569570E-3    3.902424697661938E-3    4.146313433910112E-1   -1.775993667308828E-1
 8.117127430875000E9     5.051955740886519E-1   -2.720459009446760E-2    9.800971708089142E-4    3.867570110518188E-3    1.054116258498344E-3    3.867943325047017E-3    4.145105017226763E-1   -1.778881775740849E-1
 8.117130787500000E9     5.051145202310053E-1   -2.751072633594076E-2    9.792717154175014E-4    3.864530468092471E-3    1.025265179472537E-3    3.929689522143955E-3    4.143602331246058E-1   -1.779793092437033E-1
 8.117134144125000E9     5.051939462346285E-1   -2.781997530827197E-2    9.825973700313946E-4    3.861302268179626E-3    1.064530355350753E-3    3.913933334406992E-3    4.144124165819689E-1   -1.782325617903103E-1
 8.117137500750000E9     5.050098538345814E-1   -2.796524075356784E-2    9.909219905202362E-4    3.879527751751582E-3    1.058288125869732E-3    3.955836952729668E-3    4.142386727110117E-1   -1.786028138585965E-1
 8.117140857375000E9     5.051379899976290E-1   -2.826861213785693E-2    9.900287602988389E-4    3.877842083038742E-3    1.069737259332717E-3    3.943824028646063E-3    4.142023612029883E-1   -1.787250592532752E-1
 8.117144214000000E9     5.050025012713926E-1   -2.864890186522059E-2    1.020931561974312E-3    3.888178746621751E-3    1.092081867046511E-3    3.960029612170945E-3    4.140691005498904E-1   -1.789603344666637E-1
 8.117147570625000E9     5.049513603752805E-1   -2.886435214514631E-2    1.013805008268381E-3    3.903726377032367E-3    1.074200925384703E-3    3.947652250876716E-3    4.140596636555340E-1   -1.791139009377151E-1
 8.117150927250000E9     5.048493459812122E-1   -2.912480244995871E-2    1.017606319266503E-3    3.912667102805390E-3    1.115111418200954E-3    4.009571642663653E-3    4.139325490447289E-1   -1.793817234293173E-1
 8.117154283875000E9     5.048973219044690E-1   -2.941933314537339E-2    1.048734882908255E-3    3.911503921727048E-3    1.066826358331004E-3    3.984384061678839E-3    4.139319749982822E-1   -1.796107160229008E-1
 8.117157640500000E9     5.049653084851494E-1   -2.964088999962512E-2    1.027139602613363E-3    3.902602644447312E-3    1.057645282477081E-3    3.989077696278839E-3    4.138719813295241E-1   -1.797162098425278E-1
 8.117160997125000E9     5.049365141483659E-1   -2.995354522049645E-2    1.014428974450329E-3    3.928198492702858E-3    1.108595204778437E-3    3.967026039131012E-3    4.137640488944253E-1   -1.800388010487831E-1
 8.117164353750000E9     5.049711551687990E-1   -3.025403534710008E-2    1.043712035305519E-3    3.903887668700532E-3    1.089306641830038E-3    3.980739761178405E-3    4.136444861996538E-1   -1.802631781871645E-1
 8.117167710375000E9     5.049163843456671E-1   -3.052395750993911E-2    1.033590767098958E-3    3.911237360363896E-3    1.096471536540246E-3    3.991374565499364E-3    4.135320510966499E-1   -1.803974303955806E-1
 8.117171067000000E9     5.049049978656164E-1   -3.068551517498416E-2    1.034728266831876E-3    3.915796166543725E-3    1.088110875702141E-3    3.951554415881017E-3    4.134420069255211E-1   -1.806871391325464E-1
 8.117174423625000E9     5.048538800755277E-1   -3.096257145186029E-2    1.037975229939341E-3    3.954831586456079E-3    1.117817450553932E-3    3.955787972345888E-3    4.135147164220376E-1   -1.808980003503839E-1
 8.117177780250000E9     5.047355112523575E-1   -3.126128513304000E-2    1.062558604219077E-3    3.926627282104593E-3    1.121116556332288E-3    3.978773717636359E-3    4.133715272128065E-1   -1.810806738679552E-1
 8.117181136875000E9     5.048792509716467E-1   -3.158516088514059E-2    1.039716916851423E-3    3.906774723263433E-3    1.111367093271552E-3    3.990449135662005E-3    4.131529873208579E-1   -1.812883540456320E-1
 8.117184493500000E9     5.048286070866651E-1   -3.173909390559607E-2    1.015890258499330E-3    3.933716082908739E-3    1.136002253551091E-3    3.970185758506806E-3    4.132206360624864E-1   -1.814547169997482E-1
 8.117187850125000E9     5.046844776517303E-1   -3.210123797956205E-2    1.054956197277870E-3    3.975357789422978E-3    1.131068389204956E-3    3.999116684863109E-3    4.130750580023071E-1   -1.818681531948063E-1
 8.117191206750000E9     5.046818221342946E-1   -3.233620832707755E-2    1.044806657290207E-3    3.965820487865806E-3    1.136604875800013E-3    3.999100961547549E-3    4.129961575521005E-1   -1.819977087813376E-1
 8.117194563375000E9     5.046893365633690E-1   -3.275969910614627E-2    1.066521018093753E-3    3.926603257860280E-3    1.172637759842172E-3    4.036146657531991E-3    4.128984678740116E-1   -1.820493892366835E-1
 8.117197920000000E9     5.046862285823682E-1   -3.294937807880540E-2    1.083770817214461E-3    3.970571520420465E-3    1.144195022707887E-3    4.037062902835617E-3    4.127654595359483E-1   -1.825743582522941E-1
 8.117201276625000E9     5.046820029224086E-1   -3.322519199365856E-2    1.079280299987541E-3    3.982240298851920E-3    1.138928051529787E-3    3.970606039030665E-3    4.126538626815434E-1   -1.826349622513995E-1
 8.117204633250000E9     5.044509795993398E-1   -3.345681448036962E-2    1.074704590931615E-3    3.971089741167290E-3    1.152732667894552E-3    4.019253483759128E-3    4.127608904894053E-1   -1.828063224909100E-1
 8.117207989875000E9     5.045268170917148E-1   -3.371948268715316E-2    1.085049307039093E-3    3.999948283098652E-3    1.156976403397422E-3    4.042520436092807E-3    4.124817609306585E-1   -1.830726005929899E-1
 8.117211346500000E9     5.044703733533813E-1   -3.399541022379101E-2    1.072943030528724E-3    3.967782987207464E-3    1.156413229213742E-3    4.054629214453627E-3    4.123745417054416E-1   -1.833382069375897E-1
 8.117214703125000E9     5.044627941141084E-1   -3.433388323009655E-2    1.097957738290819E-3    3.984835175018386E-3    1.165261794127390E-3    4.052167828465751E-3    4.123919348726017E-1   -1.835099471347816E-1
 8.117218059750000E9     5.044975881388419E-1   -3.460147856905282E-2    1.115428080476457E-3    3.975209220828464E-3    1.175302608898729E-3    4.071979372374301E-3    4.122527511281890E-1   -1.837166639169710E-1
 8.117221416375000E9     5.043739334600503E-1   -3.480470274636573E-2    1.105251743079296E-3    3.965904065232502E-3    1.180890656453909E-3    4.047589736148627E-3    4.120176043115465E-1   -1.840022403448907E-1
 8.117224773000000E9     5.044891233141969E-1   -3.506929411149299E-2    1.115211023847463E-3    4.005003912104019E-3    1.195200772741719E-3    4.104924618597243E-3    4.121232105602036E-1   -1.841794557020136E-1
 8.117228129625000E9     5.043147858538065E-1   -3.540112195643710E-2    1.118276445128809E-3    4.024172240018391E-3    1.187316524320895E-3    4.070321432577627E-3    4.118806697539212E-1   -1.843099952495562E-1
 8.117231486250000E9     5.044321561462446E-1   -3.567164858329315E-2    1.138430056482936E-3    3.986115772717468E-3    1.171338956362216E-3    4.077750918651315E-3    4.118487129383357E-1   -1.847708409464227E-1
 8.117234842875000E9     5.044550334953278E-1   -3.600941953184666E-2    1.143916086426861E-3    4.017033247744448E-3    1.167400379559073E-3    4.075042278599964E-3    4.118007224880496E-1   -1.848579088086331E-1
 8.117238199500000E9     5.042836975942708E-1   -3.624322058380863E-2    1.147879754321439E-3    4.011027700881987E-3    1.185092963311112E-3    4.097751815333850E-3    4.116395537020275E-1   -1.850136476261148E-1
 8.117241556125000E9     5.042483051227280E-1   -3.662182193578847E-2    1.123553249879050E-3    4.027485284451343E-3    1.208187410237039E-3    4.090339352073988E-3    4.116857471011218E-1   -1.853855817883891E-1
 8.117244912750000E9     5.042883751661910E-1   -3.679717398550662E-2    1.146647113237892E-3    4.035271409555358E-3    1.199552474367490E-3    4.116084253360494E-3    4.114456712470780E-1   -1.854606582521157E-1
 8.117248269375000E9     5.041032581562186E-1   -3.713779484654819E-2    1.163111115716980E-3    4.045334902444567E-3    1.187539484807926E-3    4.116839687591149E-3    4.113506985892390E-1   -1.857111477839755E-1
 8.117251626000000E9     5.042328584877808E-1   -3.738264638485270E-2    1.147580726642679E-3    4.070468432570044E-3    1.192336307898046E-3    4.108389830191681E-3    4.113563706014349E-1   -1.859263534106864E-1
 8.117254982625000E9     5.041272024796849E-1   -3.750799465480172E-2    1.171910651269575E-3    4.055663023913526E-3    1.227447875428718E-3    4.117038216097937E-3    4.112803415469317E-1   -1.861308481037908E-1
 8.117258339250000E9     5.040644966001855E-1   -3.792351849057624E-2    1.140559264920262E-3    4.071249996262863E-3    1.232661879330745E-3    4.125370812560833E-3    4.112442476255100E-1   -1.863270931421576E-1
 8.117261695875000E9     5.039685731670064E-1   -3.816367885653339E-2    1.169020496347111E-3    4.094133445278742E-3    1.255901844518597E-3    4.167247954755301E-3    4.110539423762470E-1   -1.865570449798591E-1
 8.117265052500000E9     5.039510410781052E-1   -3.852250532183175E-2    1.182698866127893E-3    4.067296046483000E-3    1.262708619102547E-3    4.151583672981358E-3    4.109282366614121E-1   -1.868712239815536E-1
 8.117268409125000E9     5.040061280138945E-1   -3.884534994381272E-2    1.197226698784059E-3    4.079212553020308E-3    1.274172938701435E-3    4.124545228966106E-3    4.107868815800803E-1   -1.868536411056526E-1
 8.117271765750000E9     5.039585112687979E-1   -3.904955716058360E-2    1.201326838669785E-3    4.086142065175119E-3    1.238436762175131E-3    4.160116337861537E-3    4.108623523981556E-1   -1.871991188944278E-1
 8.117275122375000E9     5.038599713442199E-1   -3.935655055063501E-2    1.199641622168363E-3    4.105755232201346E-3    1.273049205461849E-3    4.130546666202297E-3    4.107820900643764E-1   -1.874146121709427E-1
 8.117278479000000E9     5.040038717625134E-1   -3.957588600762773E-2    1.218544518582109E-3    4.086328945075942E-3    1.272419473633119E-3    4.191827389231740E-3    4.107601606230425E-1   -1.876803593234152E-1
 8.117281835625000E9     5.038088603193521E-1   -3.993734390133986E-2    1.190339676360324E-3    4.121948831159758E-3    1.258024518129397E-3    4.158062040784906E-3    4.106182971161218E-1   -1.878372516902481E-1
 8.117285192250000E9     5.037526561629762E-1   -4.024461340549929E-2    1.206414936431322E-3    4.115254007084061E-3    1.284806549759263E-3    4.193719364530230E-3    4.105250682583870E-1   -1.879734566624353E-1
