#  HZ   S   RI   R     50.00 
! Rohde & Schwarz Vector Network Analyzer 
! Rohde-Schwarz,ZNB20-2Port,1311601062101988,3.16
! Created: UTC 12/23/2023, 3:49:28 AM
! freq[Hz]                re:S11                  im:S11                  re:S21                  im:S21                  re:S12                  im:S12                  re:S22                  im:S22
 6.516808401000000E9    -2.315148428474395E-1   -2.080586221215348E-2    1.262876543367766E-2   -4.801338263700131E-3    1.275727080505342E-2   -4.339846831953089E-3    1.896423867238689E-1    5.140009393643191E-1
 6.516820908825000E9    -2.315261986994144E-1   -2.045262604443237E-2    1.265344353180032E-2   -4.875204916863206E-3    1.294273366514788E-2   -4.365126996754776E-3    1.906377940316577E-1    5.136553018699889E-1
 6.516833416650000E9    -2.315000429554709E-1   -2.037255343441688E-2    1.276302869868253E-2   -4.958395281525735E-3    1.282364897541738E-2   -4.423055090690449E-3    1.915643899360546E-1    5.133489445268717E-1
 6.516845924475000E9    -2.313261581572916E-1   -2.012363627791043E-2    1.290854561278682E-2   -4.964584037778011E-3    1.292201455275808E-2   -4.545221137674534E-3    1.925190832135584E-1    5.129744041089251E-1
 6.516858432300000E9    -2.311092888897269E-1   -1.977747583727755E-2    1.290371670188858E-2   -5.095585323811701E-3    1.299236730701057E-2   -4.506960590103419E-3    1.934331198764156E-1    5.125714166256111E-1
 6.516870940125000E9    -2.311399811936065E-1   -1.973152264549567E-2    1.292240909884567E-2   -4.979286681444497E-3    1.300737927292254E-2   -4.570088533341441E-3    1.942712751619241E-1    5.124860137130482E-1
 6.516883447950000E9    -2.309869942656785E-1   -1.957822733379508E-2    1.301773395237284E-2   -4.929070921610658E-3    1.305294785652843E-2   -4.533192192254737E-3    1.951736122921253E-1    5.119769601783124E-1
 6.516895955775000E9    -2.309147033079874E-1   -1.930278933443401E-2    1.306670218402959E-2   -5.089575495092114E-3    1.307498845654075E-2   -4.673870693257973E-3    1.961065524461589E-1    5.116530083162819E-1
 6.516908463600000E9    -2.307581329744385E-1   -1.919559623751974E-2    1.299244059484132E-2   -5.140443949401231E-3    1.314906946963763E-2   -4.611044945428061E-3    1.970026571325249E-1    5.114510882184928E-1
 6.516920971425000E9    -2.306531678533764E-1   -1.880398135435388E-2    1.313026524810597E-2   -5.262419162389938E-3    1.325752012327523E-2   -4.633818985670314E-3    1.980222132794033E-1    5.109364809459883E-1
 6.516933479250000E9    -2.305480775627877E-1   -1.876532269654742E-2    1.322478006859423E-2   -5.311274236098721E-3    1.333880158124790E-2   -4.778385236067545E-3    1.988478725265763E-1    5.106891784245382E-1
 6.516945987075000E9    -2.303705022415835E-1   -1.842353130192644E-2    1.324402118822270E-2   -5.271927461397499E-3    1.332446748986534E-2   -4.885249639539932E-3    1.999511835922035E-1    5.102685532111892E-1
 6.516958494900000E9    -2.302269522623298E-1   -1.830356698930211E-2    1.322362018460374E-2   -5.329871817403874E-3    1.338709887511553E-2   -4.845728861840375E-3    2.008480761406345E-1    5.099410529447904E-1
 6.516971002725000E9    -2.301225799439870E-1   -1.808570504387506E-2    1.342076326046913E-2   -5.441151877142892E-3    1.349264764667137E-2   -4.980356442419372E-3    2.017451309034913E-1    5.096588515526170E-1
 6.516983510550000E9    -2.300440693366259E-1   -1.788626065395697E-2    1.348872653929738E-2   -5.573957554168891E-3    1.345649097483882E-2   -5.071390012574092E-3    2.024987111887635E-1    5.093523281673644E-1
 6.516996018375000E9    -2.298065524457169E-1   -1.774914619484606E-2    1.347046677730536E-2   -5.599981460922786E-3    1.356834468103083E-2   -5.159164025305778E-3    2.035474043264355E-1    5.090475220422228E-1
 6.517008526200000E9    -2.298404052076481E-1   -1.758037185385103E-2    1.365879762315991E-2   -5.646147537570874E-3    1.361572941735665E-2   -5.220136304591958E-3    2.044977990383918E-1    5.086057924092752E-1
 6.517021034025000E9    -2.294786584176083E-1   -1.717787881265502E-2    1.362402979131383E-2   -5.726910287636837E-3    1.370281654842592E-2   -5.246520232781480E-3    2.053601321458061E-1    5.081074879014317E-1
 6.517033541850000E9    -2.294584489442514E-1   -1.714046638844492E-2    1.362828443320367E-2   -5.708499846674663E-3    1.367505846064340E-2   -5.266989721731617E-3    2.063707437733394E-1    5.078265752843045E-1
 6.517046049675000E9    -2.293224897864081E-1   -1.690208793852996E-2    1.362901024538813E-2   -5.823335058289135E-3    1.386382851197884E-2   -5.326427174058563E-3    2.074150378333159E-1    5.075516014897069E-1
 6.517058557500000E9    -2.292964167381423E-1   -1.682573454393414E-2    1.373135012286277E-2   -5.809866846485118E-3    1.380347492840083E-2   -5.468307692619059E-3    2.082703972256406E-1    5.069668061047091E-1
 6.517071065325000E9    -2.290861480500687E-1   -1.650589051778781E-2    1.383875980811383E-2   -5.928641203983540E-3    1.394601170986741E-2   -5.345515466256705E-3    2.092081303740107E-1    5.066585505547643E-1
 6.517083573150000E9    -2.290721136004928E-1   -1.639262193311577E-2    1.388620872400466E-2   -6.047388523705194E-3    1.396411814906701E-2   -5.548269594958046E-3    2.100161515558493E-1    5.063717483232421E-1
 6.517096080975000E9    -2.288144489630687E-1   -1.622961903376212E-2    1.393787488324663E-2   -6.199470401965277E-3    1.388358839530161E-2   -5.554826191472071E-3    2.111987700021093E-1    5.059814735461017E-1
 6.517108588800000E9    -2.287579727522190E-1   -1.601611261954267E-2    1.396451701794525E-2   -6.004212846817628E-3    1.408718712557616E-2   -5.550629675371464E-3    2.118664987610166E-1    5.055531331291919E-1
 6.517121096625000E9    -2.285780740734227E-1   -1.568455741803510E-2    1.411541959830455E-2   -6.182698519911760E-3    1.425100055799826E-2   -5.755675912742501E-3    2.128918596970329E-1    5.051633879443563E-1
 6.517133604450000E9    -2.284395024709290E-1   -1.554741188650012E-2    1.413811680952132E-2   -6.313985037515208E-3    1.420889658806253E-2   -5.717792621527417E-3    2.138223121673848E-1    5.048033089135794E-1
 6.517146112275000E9    -2.283315580657048E-1   -1.544422909335618E-2    1.427825790690219E-2   -6.337406336722457E-3    1.427731914936307E-2   -5.751962650931610E-3    2.146486219819276E-1    5.045463017836562E-1
 6.517158620100000E9    -2.281841317917691E-1   -1.529958760984487E-2    1.425433352128807E-2   -6.283099219997501E-3    1.433493365409045E-2   -5.849958473233176E-3    2.156640163601169E-1    5.042362535897408E-1
 6.517171127925000E9    -2.280351044347297E-1   -1.500748679911049E-2    1.428817812577232E-2   -6.391956908676636E-3    1.448823709524062E-2   -5.952590114447185E-3    2.165046007189425E-1    5.035145461704083E-1
 6.517183635750000E9    -2.279201805910405E-1   -1.487273216079367E-2    1.441292323534559E-2   -6.463132740559382E-3    1.454223815219409E-2   -5.976114909977068E-3    2.176109177701901E-1    5.033613398105656E-1
 6.517196143575000E9    -2.278538004631966E-1   -1.474675953274888E-2    1.439938048634542E-2   -6.446621590285019E-3    1.456421723141716E-2   -6.097923252900917E-3    2.182688944700127E-1    5.028650785460017E-1
 6.517208651400000E9    -2.276575983954350E-1   -1.453269333428998E-2    1.463933871038047E-2   -6.674549762497134E-3    1.466409198892191E-2   -6.105467951699526E-3    2.193968432951217E-1    5.025549772391459E-1
 6.517221159225000E9    -2.275571726291082E-1   -1.435956512311557E-2    1.454304261150001E-2   -6.655688887286745E-3    1.473937606717240E-2   -6.119674094917303E-3    2.203237197017703E-1    5.022766599581379E-1
 6.517233667050000E9    -2.273777351579871E-1   -1.413759819361638E-2    1.478815468803065E-2   -6.742009600148671E-3    1.481533503628745E-2   -6.249922022346280E-3    2.211169650625485E-1    5.018333542643274E-1
 6.517246174875000E9    -2.271138215158875E-1   -1.397054897352723E-2    1.477666960061880E-2   -6.794372955938170E-3    1.491212674178112E-2   -6.357643011515623E-3    2.219653083102810E-1    5.013632840449134E-1
 6.517258682700000E9    -2.270464277683427E-1   -1.379943265120696E-2    1.480493495527775E-2   -6.874136712122567E-3    1.499229020897903E-2   -6.375730421786523E-3    2.230428812559505E-1    5.009212937060508E-1
 6.517271190525000E9    -2.269666570240722E-1   -1.362593727648710E-2    1.494286642274239E-2   -6.977115099540767E-3    1.511642890478646E-2   -6.410979756655079E-3    2.239207781525075E-1    5.004809650692026E-1
 6.517283698350000E9    -2.268671135393606E-1   -1.346460388901607E-2    1.485848560598731E-2   -6.963231352157822E-3    1.505392203334797E-2   -6.577127857585074E-3    2.248312009976668E-1    5.002219316570667E-1
 6.517296206175000E9    -2.264873733731128E-1   -1.335552367850046E-2    1.508100639167431E-2   -7.166423830400642E-3    1.510871486118439E-2   -6.689419143999953E-3    2.257622096958714E-1    4.996402581723765E-1
 6.517308714000000E9    -2.264715080795425E-1   -1.307394583123651E-2    1.499120514334813E-2   -7.199532632776516E-3    1.526001745230054E-2   -6.743408870245819E-3    2.266398023731141E-1    4.992877437845767E-1
 6.517321221825000E9    -2.263160367263432E-1   -1.288663785770373E-2    1.515289000408908E-2   -7.231749357356910E-3    1.540259993603774E-2   -6.712633186136649E-3    2.278209967044374E-1    4.989217688948014E-1
 6.517333729650000E9    -2.260981788329248E-1   -1.281279939790675E-2    1.524818633271977E-2   -7.362420991965212E-3    1.541606421320304E-2   -6.776437769999325E-3    2.286943197264197E-1    4.983898544716518E-1
 6.517346237475000E9    -2.260606385685620E-1   -1.259759732990218E-2    1.535127084211330E-2   -7.514188516513028E-3    1.544521076631271E-2   -6.866766447989281E-3    2.294997624327643E-1    4.981711982336622E-1
 6.517358745300000E9    -2.258192910776457E-1   -1.248342801441411E-2    1.550183303889956E-2   -7.473097880835884E-3    1.570593086788240E-2   -6.948111243129058E-3    2.305100570425163E-1    4.976158366972923E-1
 6.517371253125000E9    -2.257075123324142E-1   -1.225649743956386E-2    1.547178314462051E-2   -7.568752115232399E-3    1.547191807741619E-2   -7.008510583329754E-3    2.314022174664550E-1    4.971863292500486E-1
 6.517383760950000E9    -2.255024184564338E-1   -1.211181973693091E-2    1.545946107249712E-2   -7.782125024224731E-3    1.574690463994779E-2   -7.152233831936813E-3    2.324324401679281E-1    4.967226310256863E-1
 6.517396268775000E9    -2.253971252208598E-1   -1.198054796496124E-2    1.559585627470595E-2   -7.799727027102001E-3    1.582124850093216E-2   -7.302646062402935E-3    2.332109950725105E-1    4.964332679948413E-1
 6.517408776600000E9    -2.252272054533236E-1   -1.175002177021150E-2    1.578534968883679E-2   -7.790690443618999E-3    1.590143725692965E-2   -7.296760264288374E-3    2.340497877519667E-1    4.959354500082985E-1
 6.517421284425000E9    -2.250775605928644E-1   -1.167995802423817E-2    1.564568375066662E-2   -8.000383156121338E-3    1.596984157056547E-2   -7.377685474822446E-3    2.349702346552912E-1    4.954638286754888E-1
 6.517433792250000E9    -2.248233550069630E-1   -1.159758566315549E-2    1.591694182268038E-2   -8.038859515710310E-3    1.604954430078343E-2   -7.416120849046115E-3    2.359783582924585E-1    4.950788946494402E-1
 6.517446300075000E9    -2.246991997185563E-1   -1.140463638816494E-2    1.588206324633944E-2   -8.034758743335462E-3    1.624977943264853E-2   -7.559466170879868E-3    2.369336755450567E-1    4.946025475743718E-1
 6.517458807900000E9    -2.244989645626323E-1   -1.111742591525614E-2    1.612288676423082E-2   -8.116297753274453E-3    1.625026554712259E-2   -7.644473122818037E-3    2.378638523140855E-1    4.942291884708664E-1
 6.517471315725000E9    -2.243630451230591E-1   -1.099440764800503E-2    1.608467187177755E-2   -8.328775379550398E-3    1.628997928727072E-2   -7.863849098520800E-3    2.388037884865450E-1    4.938440624267804E-1
 6.517483823550000E9    -2.242315060646074E-1   -1.084070293072651E-2    1.630943183390236E-2   -8.425828873758402E-3    1.650842824210680E-2   -7.859806956385631E-3    2.395121668617979E-1    4.933440381553139E-1
 6.517496331375000E9    -2.241032205560724E-1   -1.069720830943669E-2    1.626620313100956E-2   -8.591626199156800E-3    1.650651321913313E-2   -7.947753755280890E-3    2.405814112215081E-1    4.927697143526716E-1
 6.517508839200000E9    -2.239096444261930E-1   -1.054135384741480E-2    1.640438510696081E-2   -8.495166027699093E-3    1.663094305763095E-2   -8.041268670608122E-3    2.415606363649035E-1    4.923519859798464E-1
 6.517521347025000E9    -2.237026041702444E-1   -1.055194774872872E-2    1.640326396215673E-2   -8.681704124018882E-3    1.678109172799382E-2   -8.187654015088601E-3    2.423721574798489E-1    4.919382095217973E-1
 6.517533854850000E9    -2.235242537663017E-1   -1.025491613556851E-2    1.664387994675365E-2   -8.893408078210006E-3    1.675391497553819E-2   -8.213998408874058E-3    2.434119721685529E-1    4.914586125127548E-1
 6.517546362675000E9    -2.233095224167936E-1   -1.016540334767415E-2    1.674053074092335E-2   -8.987477056637043E-3    1.688412067869615E-2   -8.287189648218857E-3    2.441392611734200E-1    4.909540670903894E-1
 6.517558870500000E9    -2.232359709694288E-1   -9.997572671140046E-3    1.700569104404944E-2   -8.884972600090817E-3    1.703612996435144E-2   -8.380776070629268E-3    2.453291515357741E-1    4.905894293751319E-1
 6.517571378325000E9    -2.229760778790461E-1   -9.860350032065614E-3    1.684695305889245E-2   -9.033902299342304E-3    1.700378668169335E-2   -8.445140896998989E-3    2.461733973723436E-1    4.900985009660124E-1
 6.517583886150000E9    -2.228502604532297E-1   -9.638017291884135E-3    1.702629888683124E-2   -9.120063111215666E-3    1.713232995817266E-2   -8.753249819117447E-3    2.469964350993933E-1    4.897396208351856E-1
 6.517596393975000E9    -2.225649580557061E-1   -9.543333853279197E-3    1.703468114115834E-2   -9.252628046747228E-3    1.735930377610300E-2   -8.805044457550527E-3    2.481479383629195E-1    4.890429768666157E-1
 6.517608901800000E9    -2.224941709589918E-1   -9.370932793873053E-3    1.710656982141295E-2   -9.535755062408550E-3    1.741653968936334E-2   -8.735130183742133E-3    2.490360297120600E-1    4.886368095837120E-1
 6.517621409625000E9    -2.222744634835535E-1   -9.273393985701242E-3    1.710752010434996E-2   -9.467882481995411E-3    1.745922005225574E-2   -8.963618455181612E-3    2.498889540033931E-1    4.881169380604304E-1
 6.517633917450000E9    -2.220051214714676E-1   -9.142486005341734E-3    1.727562099236620E-2   -9.715239176123198E-3    1.759325333469695E-2   -8.954245992637774E-3    2.509501218743833E-1    4.876788271666801E-1
 6.517646425275000E9    -2.218374992595490E-1   -9.047205784055370E-3    1.748491234493618E-2   -9.726593285254711E-3    1.779842095836520E-2   -9.140327332080546E-3    2.517722529760707E-1    4.872879786636985E-1
 6.517658933100000E9    -2.217751162972469E-1   -8.853898386261251E-3    1.745568125808476E-2   -9.852751943763378E-3    1.772853279263360E-2   -9.272123249498937E-3    2.526180822751203E-1    4.867194192319474E-1
 6.517671440925000E9    -2.215257388839895E-1   -8.782099022174901E-3    1.765179959669545E-2   -9.910281379317026E-3    1.804212521110423E-2   -9.498451890923885E-3    2.536897564379765E-1    4.863147987983488E-1
 6.517683948750000E9    -2.212371190943194E-1   -8.610486536260866E-3    1.762752602999828E-2   -1.006063692360986E-2    1.807562458742406E-2   -9.489639885385287E-3    2.545735268670157E-1    4.856692152654858E-1
 6.517696456575000E9    -2.211083345878799E-1   -8.524759482285876E-3    1.782343226454575E-2   -1.037183630039322E-2    1.812432086683435E-2   -9.704327766883607E-3    2.553966644475546E-1    4.852663737845316E-1
 6.517708964400000E9    -2.208648326519810E-1   -8.380935292977912E-3    1.785759303485894E-2   -1.030707707250440E-2    1.825198491576155E-2   -9.671449746198553E-3    2.564991521102298E-1    4.846345282259275E-1
 6.517721472225000E9    -2.207651640372887E-1   -8.248138956047238E-3    1.801648315679688E-2   -1.046600609977521E-2    1.835867607933393E-2   -9.836328492403946E-3    2.572867842059121E-1    4.843142864534675E-1
 6.517733980050000E9    -2.205035950154680E-1   -8.134075237513602E-3    1.812870789853339E-2   -1.067097741558038E-2    1.849523997836736E-2   -9.993634177909518E-3    2.582249367376889E-1    4.836339084517711E-1
 6.517746487875000E9    -2.203313349084443E-1   -8.055886132893339E-3    1.817851198213717E-2   -1.067307607500458E-2    1.849623950843043E-2   -1.004022201654123E-2    2.592102138605265E-1    4.832128365644737E-1
 6.517758995700000E9    -2.201497852298806E-1   -7.964317591426628E-3    1.828771007662470E-2   -1.081894992619024E-2    1.861238794174458E-2   -1.024787340355752E-2    2.602311668920546E-1    4.828322697357815E-1
 6.517771503525000E9    -2.199581864816751E-1   -7.828193113050448E-3    1.842175454894741E-2   -1.108139211298531E-2    1.884896263703853E-2   -1.039516478179005E-2    2.610745841084764E-1    4.821565101203966E-1
 6.517784011350000E9    -2.196769062860850E-1   -7.718763209085577E-3    1.841750292529078E-2   -1.106902521127472E-2    1.896959959532234E-2   -1.051030927343559E-2    2.619680128392319E-1    4.815834668120151E-1
 6.517796519175000E9    -2.194082947147979E-1   -7.596078631704091E-3    1.872052294072116E-2   -1.116301057950497E-2    1.897989755375624E-2   -1.067941379399135E-2    2.628941891248138E-1    4.810549225318464E-1
 6.517809027000000E9    -2.192625700074447E-1   -7.532364352010644E-3    1.885869686319076E-2   -1.137013997747125E-2    1.919581797479500E-2   -1.081111271696657E-2    2.638907600721283E-1    4.805424256554364E-1
 6.517821534825000E9    -2.190255820489276E-1   -7.438579905188860E-3    1.894750296194555E-2   -1.160102324621464E-2    1.928435360668182E-2   -1.091381971814807E-2    2.648129031815734E-1    4.801359202840642E-1
 6.517834042650000E9    -2.188619864508890E-1   -7.319638618980730E-3    1.896415752641413E-2   -1.169121109160610E-2    1.939953063565759E-2   -1.116205057030092E-2    2.658198593268414E-1    4.794647126476132E-1
 6.517846550475000E9    -2.185954023425385E-1   -7.225277415328603E-3    1.920091491730556E-2   -1.186274665754886E-2    1.948362464044468E-2   -1.127093930769984E-2    2.665484078712052E-1    4.789213971297089E-1
 6.517859058300000E9    -2.183921704667725E-1   -7.204969266922333E-3    1.925292532168648E-2   -1.209407313506653E-2    1.959609328458472E-2   -1.134349758230718E-2    2.676594036020340E-1    4.784514737563760E-1
 6.517871566125000E9    -2.181379388518034E-1   -7.025934699676053E-3    1.932681129094699E-2   -1.212574064467941E-2    1.978773375354689E-2   -1.147741230545913E-2    2.684688973761366E-1    4.779175962711149E-1
 6.517884073950000E9    -2.179139043639884E-1   -6.951302699495842E-3    1.947319552979622E-2   -1.240229779832461E-2    1.997400749950652E-2   -1.165592029764296E-2    2.694913614587726E-1    4.773008421881657E-1
 6.517896581775000E9    -2.176634851386563E-1   -6.755171310020656E-3    1.969308064346274E-2   -1.251287258590107E-2    2.010533971844129E-2   -1.183305684761849E-2    2.704268037724870E-1    4.767175885761634E-1
 6.517909089600000E9    -2.174300037905463E-1   -6.832796417419643E-3    1.981209788892776E-2   -1.259007694312624E-2    2.020679873521617E-2   -1.199403077838138E-2    2.715304732647434E-1    4.761256634695322E-1
 6.517921597425000E9    -2.172212514671207E-1   -6.686418204060373E-3    1.994435623826442E-2   -1.283296218100209E-2    2.031759031423431E-2   -1.225748793089875E-2    2.722340424091360E-1    4.756135275737658E-1
 6.517934105250000E9    -2.170318490547043E-1   -6.617071904067083E-3    2.002690433024422E-2   -1.299866642645589E-2    2.057516061857378E-2   -1.231588125531990E-2    2.731546417655473E-1    4.751177630364687E-1
