#  HZ   S   RI   R     50.00 
! Rohde & Schwarz Vector Network Analyzer 
! Rohde-Schwarz,ZNB20-2Port,1311601062101988,3.16
! Created: UTC 12/23/2023, 3:49:39 AM
! freq[Hz]                re:S11                  im:S11                  re:S21                  im:S21                  re:S12                  im:S12                  re:S22                  im:S22
 6.516805290000000E9    -2.317011940258932E-1   -2.083354562632696E-2    1.258104900937237E-2   -4.901318405594056E-3    1.267363857627542E-2   -4.361743873801460E-3    1.893972324446852E-1    5.143188451545585E-1
 6.516817804600000E9    -2.315373421022818E-1   -2.058129945956602E-2    1.268062452143565E-2   -4.680718222434471E-3    1.278335161578730E-2   -4.359482262632323E-3    1.903104263527903E-1    5.139555760904895E-1
 6.516830319200000E9    -2.314936529919749E-1   -2.035950059520999E-2    1.271167129969798E-2   -4.854658910136915E-3    1.288147128193209E-2   -4.374877055080326E-3    1.913470413800410E-1    5.135395990316952E-1
 6.516842833800000E9    -2.313328791812302E-1   -2.008403214939635E-2    1.282236744041742E-2   -4.890874302049839E-3    1.278451066536185E-2   -4.415316958368951E-3    1.922188574859740E-1    5.129728729469009E-1
 6.516855348400000E9    -2.312189871403344E-1   -1.992083486773977E-2    1.288048856505897E-2   -4.954960193769796E-3    1.298267343903837E-2   -4.481517440785979E-3    1.931777692429110E-1    5.127513980391064E-1
 6.516867863000000E9    -2.311046436322537E-1   -1.978040664249634E-2    1.283377766916987E-2   -4.946591957817493E-3    1.308544068333803E-2   -4.589669477598403E-3    1.940858939457710E-1    5.123322974532157E-1
 6.516880377600000E9    -2.310134099886444E-1   -1.955425589268875E-2    1.288850700880331E-2   -4.988925602077431E-3    1.310059585043831E-2   -4.543712694026827E-3    1.949991520719778E-1    5.120609225055636E-1
 6.516892892200000E9    -2.308059220597129E-1   -1.947748257431143E-2    1.311562475726926E-2   -5.134206661399424E-3    1.303633223059176E-2   -4.660022521357953E-3    1.958418571275135E-1    5.117292839044630E-1
 6.516905406800000E9    -2.308198984470403E-1   -1.915035837822531E-2    1.306371584963681E-2   -5.066397569917652E-3    1.325097228770136E-2   -4.784276752787186E-3    1.969591762854263E-1    5.114464813257206E-1
 6.516917921400000E9    -2.305582294127120E-1   -1.894894671696149E-2    1.311577132018153E-2   -5.178754933366764E-3    1.323157269229192E-2   -4.753885744292880E-3    1.977962773472597E-1    5.109984177084330E-1
 6.516930436000000E9    -2.306064103753589E-1   -1.875475567325365E-2    1.319213539080864E-2   -5.280165505622463E-3    1.326594446246306E-2   -4.853858634421691E-3    1.986495934635760E-1    5.108216213673922E-1
 6.516942950600000E9    -2.303502238854675E-1   -1.854709540377834E-2    1.323943528970467E-2   -5.349576614266396E-3    1.333394990913251E-2   -4.771248723334652E-3    1.996672031239707E-1    5.104531716877602E-1
 6.516955465200000E9    -2.302374317512338E-1   -1.830825162742940E-2    1.324074602303524E-2   -5.394338738546902E-3    1.341885480167489E-2   -4.912646006735865E-3    2.005793886434913E-1    5.100171698535095E-1
 6.516967979800000E9    -2.301291058878749E-1   -1.809001687522890E-2    1.331116396766208E-2   -5.450885211897691E-3    1.343464332657159E-2   -4.967972298784779E-3    2.016126038641888E-1    5.097533469683515E-1
 6.516980494400000E9    -2.300287480376893E-1   -1.795957167828109E-2    1.354203094170467E-2   -5.547559115181680E-3    1.343039595917219E-2   -5.125234336091113E-3    2.024344046821596E-1    5.093790369242901E-1
 6.516993009000000E9    -2.299591052841812E-1   -1.777681566358548E-2    1.348117426343845E-2   -5.538265138633523E-3    1.352543864435678E-2   -5.038244375262433E-3    2.032743648556123E-1    5.090793273071353E-1
 6.517005523600000E9    -2.296296868388976E-1   -1.765212813381604E-2    1.350114922796702E-2   -5.671892897828732E-3    1.365349540062421E-2   -5.155684509047211E-3    2.042193262976838E-1    5.087724199830372E-1
 6.517018038200000E9    -2.297300849077105E-1   -1.744568929327340E-2    1.357962467119449E-2   -5.674413528518117E-3    1.369532796868153E-2   -5.143537828482568E-3    2.051167782222096E-1    5.083119527449206E-1
 6.517030552800000E9    -2.294895218448829E-1   -1.724036559362252E-2    1.377911062072923E-2   -5.747003874052407E-3    1.364619273865536E-2   -5.223163702750872E-3    2.061389819284952E-1    5.079273354892695E-1
 6.517043067400000E9    -2.293813176092872E-1   -1.701138617577551E-2    1.370991175210025E-2   -5.816056723044867E-3    1.379284768615428E-2   -5.374800189796336E-3    2.070736952158259E-1    5.077581234502223E-1
 6.517055582000000E9    -2.292088546304347E-1   -1.677166745353560E-2    1.371636067624007E-2   -5.887690216444178E-3    1.386533450700293E-2   -5.382397772809688E-3    2.080203103031503E-1    5.071482178802198E-1
 6.517068096600000E9    -2.291313132677920E-1   -1.662474812705736E-2    1.384136200690595E-2   -5.853553197055409E-3    1.395390022781215E-2   -5.358874673349818E-3    2.090883290071036E-1    5.067617999397626E-1
 6.517080611200000E9    -2.289360749692640E-1   -1.648879273047920E-2    1.389524492681541E-2   -5.792805517191113E-3    1.406831112267560E-2   -5.411663313199233E-3    2.098833827475669E-1    5.063495136199412E-1
 6.517093125800000E9    -2.289105331311549E-1   -1.622276212370584E-2    1.396218091901545E-2   -6.027263590655151E-3    1.409826454778419E-2   -5.514042147706249E-3    2.107517044333918E-1    5.062284574778608E-1
 6.517105640400000E9    -2.287711874303032E-1   -1.606680859652166E-2    1.418369515930951E-2   -6.085495565897411E-3    1.409963464292343E-2   -5.650089721920491E-3    2.118522394755196E-1    5.056689491492428E-1
 6.517118155000000E9    -2.286656000776033E-1   -1.590478800600370E-2    1.410048374399112E-2   -6.256156775157977E-3    1.417933394534548E-2   -5.693893949866462E-3    2.126982886207261E-1    5.051784734101460E-1
 6.517130669600000E9    -2.284405534529086E-1   -1.573214860438726E-2    1.416537406519112E-2   -6.240414049066867E-3    1.432704800442129E-2   -5.732975519850234E-3    2.136494070350531E-1    5.049758977554007E-1
 6.517143184200000E9    -2.283246698464424E-1   -1.548337522225308E-2    1.423435693280342E-2   -6.277081520000535E-3    1.438627205465771E-2   -5.799234748650633E-3    2.144817338015744E-1    5.046056350507843E-1
 6.517155698800000E9    -2.281677284347170E-1   -1.525524070421006E-2    1.419337690414690E-2   -6.400594742066964E-3    1.441304916022184E-2   -5.882752527787523E-3    2.153135256716448E-1    5.040965833642891E-1
 6.517168213400000E9    -2.280267407720535E-1   -1.520203403579791E-2    1.444466889588700E-2   -6.334658551116581E-3    1.443851558617527E-2   -5.988137240764548E-3    2.161314551398917E-1    5.038204970919931E-1
 6.517180728000000E9    -2.278624862513718E-1   -1.497067855818619E-2    1.441403783300068E-2   -6.481795785984052E-3    1.452702345866252E-2   -5.979657115208181E-3    2.172268213548083E-1    5.035502301133090E-1
 6.517193242600000E9    -2.278172885506741E-1   -1.484942050958767E-2    1.450433038745394E-2   -6.597395798736114E-3    1.463101238823581E-2   -6.005970837946737E-3    2.180943677552845E-1    5.030358130834468E-1
 6.517205757200000E9    -2.275686256999420E-1   -1.457870523141587E-2    1.453032940632351E-2   -6.660133100435878E-3    1.465850232647189E-2   -6.162390681367471E-3    2.190892340025165E-1    5.026072766767502E-1
 6.517218271800000E9    -2.273840694886619E-1   -1.452727179745515E-2    1.468125167431275E-2   -6.845477781159072E-3    1.472538249081877E-2   -6.128401448134972E-3    2.200011062944855E-1    5.021922756266012E-1
 6.517230786400000E9    -2.273930863559456E-1   -1.429235116514766E-2    1.475663694287145E-2   -6.649823457396866E-3    1.484120186479768E-2   -6.314939019407531E-3    2.209237938409490E-1    5.019858388871585E-1
 6.517243301000000E9    -2.271692590585719E-1   -1.398912425947979E-2    1.471820992095257E-2   -6.817230402505756E-3    1.488354226559803E-2   -6.251265035114498E-3    2.218669954008049E-1    5.014189439985105E-1
 6.517255815600000E9    -2.271300826147427E-1   -1.375894935880487E-2    1.488301071121912E-2   -6.895573557260387E-3    1.492474964365158E-2   -6.423749138358063E-3    2.227717279900737E-1    5.010656382016414E-1
 6.517268330200000E9    -2.269287245770285E-1   -1.375189176672440E-2    1.481755896181071E-2   -6.932266223267154E-3    1.503868544298238E-2   -6.441431051721880E-3    2.238080526810188E-1    5.005989428218340E-1
 6.517280844800000E9    -2.267561202354122E-1   -1.373900102666538E-2    1.494748064380967E-2   -7.162319139745961E-3    1.512949040199720E-2   -6.640595721069642E-3    2.247225337253046E-1    5.003819652102849E-1
 6.517293359400000E9    -2.266157846347973E-1   -1.329439276199476E-2    1.499530053752163E-2   -7.117755895707752E-3    1.519117235170124E-2   -6.690302171065135E-3    2.255969016960211E-1    4.997989928765435E-1
 6.517305874000000E9    -2.265695776071633E-1   -1.324727385249307E-2    1.500806137282501E-2   -7.076402433695502E-3    1.524317118599357E-2   -6.636943367492449E-3    2.266531744591381E-1    4.994536621015196E-1
 6.517318388600000E9    -2.262420483400914E-1   -1.295732139103446E-2    1.510862363638139E-2   -7.352475418137074E-3    1.540657825439618E-2   -6.738039652148326E-3    2.274546843015527E-1    4.990237185823227E-1
 6.517330903200000E9    -2.262324095669797E-1   -1.290979350402745E-2    1.517710066580115E-2   -7.228644868440832E-3    1.534115408332030E-2   -6.768305477385331E-3    2.284775533275966E-1    4.986097974161335E-1
 6.517343417800000E9    -2.260204725832956E-1   -1.270803090701791E-2    1.523351086162342E-2   -7.413752443143485E-3    1.545178978087590E-2   -6.901936447622828E-3    2.292662932647232E-1    4.981348622322365E-1
 6.517355932400000E9    -2.257925157561776E-1   -1.245985410960334E-2    1.533909204101158E-2   -7.554874402992366E-3    1.558285067083101E-2   -6.962439731955983E-3    2.302903181769269E-1    4.978241764673426E-1
 6.517368447000000E9    -2.256053469968591E-1   -1.237241114374022E-2    1.540347891574628E-2   -7.586498459174136E-3    1.561069645759639E-2   -7.036429644547118E-3    2.311695449656050E-1    4.972426871925544E-1
 6.517380961600000E9    -2.255367462412484E-1   -1.212877454951420E-2    1.555252503641085E-2   -7.663442045292459E-3    1.587967996126876E-2   -7.049531767070511E-3    2.322468339251178E-1    4.969756215789798E-1
 6.517393476200000E9    -2.252893364112445E-1   -1.201908197671996E-2    1.563769443006548E-2   -7.761817902705481E-3    1.589440474970285E-2   -7.199455490242299E-3    2.330873945203310E-1    4.963983766822107E-1
 6.517405990800000E9    -2.252099084008887E-1   -1.183646137785246E-2    1.571494723469867E-2   -7.873173506739859E-3    1.596891025642201E-2   -7.227942837853417E-3    2.339815777670709E-1    4.961547844713671E-1
 6.517418505400000E9    -2.250432600120361E-1   -1.171769077173682E-2    1.581422712740829E-2   -7.885138563875684E-3    1.596286389602736E-2   -7.353399020591340E-3    2.349455363020194E-1    4.956364352538008E-1
 6.517431020000000E9    -2.249103971031080E-1   -1.153590449964579E-2    1.579861274146621E-2   -7.987981569083279E-3    1.606464107935314E-2   -7.586936038513629E-3    2.357006287646690E-1    4.951022434241539E-1
 6.517443534600000E9    -2.246333344529126E-1   -1.135926111643448E-2    1.593832886626546E-2   -8.142136095698624E-3    1.620382687790164E-2   -7.548495325395154E-3    2.366847210488259E-1    4.947882121273495E-1
 6.517456049200000E9    -2.245614695643368E-1   -1.127703480483234E-2    1.603376511907818E-2   -8.305155702423250E-3    1.617796080413934E-2   -7.725866601182118E-3    2.376795719729310E-1    4.942294111021776E-1
 6.517468563800000E9    -2.243836066416750E-1   -1.095613050792952E-2    1.625086944712423E-2   -8.272809178976912E-3    1.634297456498261E-2   -7.749179558891491E-3    2.386131651553554E-1    4.937793798543442E-1
 6.517481078400000E9    -2.243159147743435E-1   -1.083858314615918E-2    1.623796542732475E-2   -8.461939954947539E-3    1.644921385774375E-2   -7.825497275094047E-3    2.396132940148709E-1    4.933255770075309E-1
 6.517493593000000E9    -2.240397009820439E-1   -1.078377645099718E-2    1.620031611274278E-2   -8.571368919643094E-3    1.654693635131314E-2   -7.856268261526134E-3    2.404436957798323E-1    4.929374913291473E-1
 6.517506107600000E9    -2.238970875198452E-1   -1.056105006702277E-2    1.629958942141874E-2   -8.518546563115714E-3    1.659703087588816E-2   -8.056158683434650E-3    2.413508250624464E-1    4.924468319954481E-1
 6.517518622200000E9    -2.236811464426073E-1   -1.047487865578643E-2    1.647041572495027E-2   -8.560386396158994E-3    1.681358087266494E-2   -8.027434401162320E-3    2.422264624622809E-1    4.919850677976824E-1
 6.517531136800000E9    -2.234723228857875E-1   -1.041348616304035E-2    1.655968324253149E-2   -8.774744374205177E-3    1.687456283371591E-2   -8.177115938692400E-3    2.434289848202432E-1    4.917720474841256E-1
 6.517543651400000E9    -2.233832449647341E-1   -1.013221987321123E-2    1.674238268321995E-2   -8.945766987443954E-3    1.699959124306746E-2   -8.293002325751260E-3    2.441992734748692E-1    4.911163032357556E-1
 6.517556166000000E9    -2.231151985356506E-1   -9.981813124151433E-3    1.673466982093528E-2   -9.026091015457548E-3    1.695324721120496E-2   -8.359126043195801E-3    2.450180401253176E-1    4.906681803651968E-1
 6.517568680600000E9    -2.229995431516447E-1   -9.898419457817227E-3    1.678399844627240E-2   -9.056819447386002E-3    1.709805597939786E-2   -8.473003945917094E-3    2.460737524540803E-1    4.900580085481256E-1
 6.517581195200000E9    -2.228221568571524E-1   -9.731990807233510E-3    1.685239699204077E-2   -9.205179190523678E-3    1.718857154935608E-2   -8.638670493490087E-3    2.468775953729715E-1    4.897469753337592E-1
 6.517593709800000E9    -2.226403957614366E-1   -9.646831631409520E-3    1.697316276721133E-2   -9.252954499284854E-3    1.727194788006718E-2   -8.728199945357831E-3    2.478281959465086E-1    4.892108814655456E-1
 6.517606224400000E9    -2.224392871446723E-1   -9.501624032433962E-3    1.713797756414501E-2   -9.518510038277229E-3    1.737179495768757E-2   -8.770941244672531E-3    2.488441573453825E-1    4.886873491164585E-1
 6.517618739000000E9    -2.223347656139071E-1   -9.304250679559537E-3    1.731473968646974E-2   -9.399458471306993E-3    1.742427937159622E-2   -8.920439445286534E-3    2.497088218071901E-1    4.883241150914859E-1
 6.517631253600000E9    -2.221917519206657E-1   -9.092357687826989E-3    1.727947627650830E-2   -9.630794335767587E-3    1.761589005127260E-2   -8.990341622623035E-3    2.507769904373859E-1    4.878132090573175E-1
 6.517643768200000E9    -2.219679687901989E-1   -9.032138330910117E-3    1.733153080963304E-2   -9.589810534058840E-3    1.767012663270119E-2   -9.136429408689308E-3    2.516103863878690E-1    4.873029090857325E-1
 6.517656282800000E9    -2.216541346089116E-1   -8.961838143653349E-3    1.762186365170522E-2   -9.862254184905102E-3    1.773978245887344E-2   -9.302014273216593E-3    2.525874981461308E-1    4.867526125299719E-1
 6.517668797400000E9    -2.215322332993250E-1   -8.869575761636305E-3    1.758195223553850E-2   -9.977011081566954E-3    1.787885337025696E-2   -9.333031836506226E-3    2.534469038705114E-1    4.862983929482463E-1
 6.517681312000000E9    -2.213154571236431E-1   -8.728072849982411E-3    1.776216174231326E-2   -1.001980338350591E-2    1.798936927344558E-2   -9.522743623712840E-3    2.543709855418972E-1    4.859325051159568E-1
 6.517693826600000E9    -2.210971846006756E-1   -8.583720377732985E-3    1.781112289044201E-2   -1.023750000278066E-2    1.814451858005608E-2   -9.577980646089421E-3    2.552831826691976E-1    4.853758052642309E-1
 6.517706341200000E9    -2.207905503241640E-1   -8.436288038172582E-3    1.806539813262216E-2   -1.041974475484583E-2    1.828198584473278E-2   -9.706089264932546E-3    2.562663197454259E-1    4.848712442280715E-1
 6.517718855800000E9    -2.208159405885314E-1   -8.268421910766819E-3    1.808115424418098E-2   -1.041634339836009E-2    1.833187707041385E-2   -9.879548605834381E-3    2.571677763250872E-1    4.843625923222400E-1
 6.517731370400000E9    -2.205674977213290E-1   -8.296755396210522E-3    1.830867530457728E-2   -1.054533997869300E-2    1.838597242752505E-2   -9.999830419454733E-3    2.581531401565302E-1    4.838825842003752E-1
 6.517743885000000E9    -2.202776761802870E-1   -8.168047754364260E-3    1.828693567539837E-2   -1.071343827242289E-2    1.841220462771144E-2   -1.008168849247397E-2    2.591707736342836E-1    4.833432018284975E-1
 6.517756399600000E9    -2.201101055994356E-1   -7.936205078607542E-3    1.838281302811612E-2   -1.100217596323958E-2    1.861304408031436E-2   -1.029553282108536E-2    2.597777992543776E-1    4.827828922446418E-1
 6.517768914200000E9    -2.199229351937826E-1   -7.932344438352593E-3    1.847778287640433E-2   -1.087381722519951E-2    1.874482700053606E-2   -1.042242768593720E-2    2.609837952286062E-1    4.823516685505117E-1
 6.517781428800000E9    -2.196445006141909E-1   -7.827449254970757E-3    1.853249196375215E-2   -1.112578319148223E-2    1.892099573712025E-2   -1.053434316690869E-2    2.617482726395763E-1    4.817846826736396E-1
 6.517793943400000E9    -2.194497795116809E-1   -7.702489353911980E-3    1.880984464292136E-2   -1.125249202119482E-2    1.897022445144843E-2   -1.062164459539347E-2    2.628306842481148E-1    4.814027311436056E-1
 6.517806458000000E9    -2.192561894729342E-1   -7.656414192846771E-3    1.879696488422280E-2   -1.136663348895823E-2    1.905504112144255E-2   -1.080125676821549E-2    2.635304045273617E-1    4.806331783960326E-1
 6.517818972600000E9    -2.190169908414275E-1   -7.485699152842756E-3    1.895297623855590E-2   -1.154275446503450E-2    1.929695409961094E-2   -1.093860906770561E-2    2.645571277355048E-1    4.800394391806802E-1
 6.517831487200000E9    -2.187597797177126E-1   -7.426292424089037E-3    1.904565775913580E-2   -1.173393221630638E-2    1.940681971673859E-2   -1.111764752296429E-2    2.655700927372258E-1    4.796405710545309E-1
 6.517844001800000E9    -2.185610949351124E-1   -7.313252398218029E-3    1.917458345913129E-2   -1.184399831450131E-2    1.945978059284782E-2   -1.125732041670465E-2    2.664545426716541E-1    4.789846012286559E-1
 6.517856516400000E9    -2.184015242981013E-1   -7.239657706110476E-3    1.931289138399616E-2   -1.212860388955214E-2    1.968564741643202E-2   -1.138660011645866E-2    2.673413074713689E-1    4.786433580843995E-1
 6.517869031000000E9    -2.181436731704295E-1   -7.095680653169439E-3    1.957955542485887E-2   -1.206543633445062E-2    1.964063038886416E-2   -1.153961711028697E-2    2.683620876911518E-1    4.780239223850233E-1
 6.517881545600000E9    -2.178853995694715E-1   -6.934899197030524E-3    1.957180215875172E-2   -1.228108566541579E-2    1.995845833200619E-2   -1.172984342987145E-2    2.693748506513868E-1    4.773626926863526E-1
 6.517894060200000E9    -2.176591449177342E-1   -6.946655647778480E-3    1.979096058271110E-2   -1.253274799415709E-2    2.004557783829431E-2   -1.178004882183187E-2    2.702416877110579E-1    4.768272840025919E-1
 6.517906574800000E9    -2.174278045252609E-1   -6.924149222568815E-3    1.976517587298596E-2   -1.267304155991222E-2    2.020574722866290E-2   -1.199927868443148E-2    2.712041128823892E-1    4.764172499834120E-1
 6.517919089400000E9    -2.173186672300937E-1   -6.741225651363941E-3    1.989629877589488E-2   -1.280721028405106E-2    2.031004025499844E-2   -1.210497704481353E-2    2.721384120851776E-1    4.757544441381393E-1
 6.517931604000000E9    -2.169361045528321E-1   -6.783563145585479E-3    1.998711208994897E-2   -1.295102427578184E-2    2.046195243719906E-2   -1.224443949796915E-2    2.732497018160924E-1    4.751039829862944E-1
