#  HZ   S   RI   R     50.00 
! Rohde & Schwarz Vector Network Analyzer 
! Rohde-Schwarz,ZNB20-2Port,1311601062101988,3.16
! Created: UTC 12/23/2023, 3:49:45 AM
! freq[Hz]                re:S11                  im:S11                  re:S21                  im:S21                  re:S12                  im:S12                  re:S22                  im:S22
 7.836649253000000E9     5.628824590154504E-1    5.884197894871036E-2    1.006223042593019E-3    3.764983584003088E-3    1.030945761234386E-3    3.730203176827354E-3    4.787065726372372E-1   -2.486055194987286E-1
 7.836683966100000E9     5.632180518777742E-1    5.671236096476084E-2    1.014890479118430E-3    3.790877104157485E-3    1.072734486511774E-3    3.699986676817309E-3    4.775278313720414E-1   -2.508394631494054E-1
 7.836718679200000E9     5.634197391011244E-1    5.443029148588532E-2    1.033691190456781E-3    3.773617846878720E-3    1.070613894953500E-3    3.737812518349576E-3    4.763926147468216E-1   -2.529710501333651E-1
 7.836753392300000E9     5.636092949700529E-1    5.199111331661735E-2    1.069207830241324E-3    3.751337384167870E-3    1.106013981080391E-3    3.698133012755252E-3    4.754651327871621E-1   -2.552539270595066E-1
 7.836788105400000E9     5.638215067951861E-1    4.972141605782842E-2    1.071463012597405E-3    3.739239109496472E-3    1.122625952650519E-3    3.698147746193094E-3    4.741868789937256E-1   -2.572433012842319E-1
 7.836822818500000E9     5.640893436648594E-1    4.739460443149837E-2    1.109274502432061E-3    3.799293966970079E-3    1.147438454048324E-3    3.707056751658721E-3    4.731236999094974E-1   -2.593119784301172E-1
 7.836857531600000E9     5.642568653898437E-1    4.521377848189923E-2    1.171625722819475E-3    3.788191031890050E-3    1.196248194993582E-3    3.714032987371555E-3    4.718704908543871E-1   -2.615498141176654E-1
 7.836892244700000E9     5.645502026909386E-1    4.289160952840664E-2    1.155980071450854E-3    3.745228858560937E-3    1.163059350160179E-3    3.721985019244448E-3    4.706633653822140E-1   -2.636131999997549E-1
 7.836926957800000E9     5.646928999860795E-1    4.058432415398363E-2    1.160906230241785E-3    3.783541537977445E-3    1.200964769968399E-3    3.707434567133194E-3    4.695225164375501E-1   -2.656530634270762E-1
 7.836961670900000E9     5.647993453580176E-1    3.832004106692227E-2    1.189181386223453E-3    3.753211309849753E-3    1.207401909380489E-3    3.688448663817253E-3    4.682270964322320E-1   -2.678654433947180E-1
 7.836996384000000E9     5.649828454915686E-1    3.605465081472260E-2    1.217476533695973E-3    3.762143233104505E-3    1.232836267090255E-3    3.723329399244714E-3    4.670806676775620E-1   -2.699710793183605E-1
 7.837031097100000E9     5.652210624454593E-1    3.366804348456857E-2    1.246020947909545E-3    3.746391850682548E-3    1.266689296026564E-3    3.705468178695473E-3    4.659385986244093E-1   -2.720799791992441E-1
 7.837065810200000E9     5.654544021640679E-1    3.125565264673880E-2    1.234442528047033E-3    3.759308550430858E-3    1.280197355232298E-3    3.698498633824726E-3    4.646222681058876E-1   -2.742303621875641E-1
 7.837100523300000E9     5.655398131442814E-1    2.909902969532534E-2    1.241648350155130E-3    3.766601155182608E-3    1.293595098759790E-3    3.731240202463441E-3    4.634509557368449E-1   -2.763619356571994E-1
 7.837135236400000E9     5.657598099480461E-1    2.675953302703037E-2    1.283304734236045E-3    3.769552885438988E-3    1.286620842598854E-3    3.678409312157324E-3    4.622216399253267E-1   -2.784001335775666E-1
 7.837169949500000E9     5.657633085029429E-1    2.453746416274202E-2    1.290077683822290E-3    3.775938153559097E-3    1.302647564628434E-3    3.679986205408315E-3    4.609959343579664E-1   -2.805974855807318E-1
 7.837204662600000E9     5.658623837688355E-1    2.222594821776202E-2    1.311412724837226E-3    3.774178247140855E-3    1.338118551087294E-3    3.692083559527921E-3    4.598592126566191E-1   -2.826028157075845E-1
 7.837239375700000E9     5.659774018965875E-1    1.981066224805821E-2    1.345257072872883E-3    3.737457304295370E-3    1.381814839604616E-3    3.692954187559672E-3    4.585040606963223E-1   -2.846955003381247E-1
 7.837274088800000E9     5.659769370253228E-1    1.756004231145473E-2    1.366236662576251E-3    3.750962414943443E-3    1.392777418779462E-3    3.699961060441594E-3    4.571786985407291E-1   -2.867858240710328E-1
 7.837308801900000E9     5.660077822470361E-1    1.525895792141602E-2    1.396264690201280E-3    3.757582353361779E-3    1.394409604097228E-3    3.714538071285110E-3    4.558987703496233E-1   -2.888441018275384E-1
 7.837343515000000E9     5.662032442521159E-1    1.294004190138544E-2    1.394889216360541E-3    3.747083409987028E-3    1.431538795755378E-3    3.664471622555460E-3    4.545378850281421E-1   -2.909055512452030E-1
 7.837378228100000E9     5.662803472855936E-1    1.059525408376719E-2    1.442166751400357E-3    3.753361096275151E-3    1.424201729197690E-3    3.663155693871759E-3    4.532355560726009E-1   -2.928927795319105E-1
 7.837412941200000E9     5.663663275111229E-1    8.226274319161951E-3    1.437580168499511E-3    3.764195043740370E-3    1.492851937112917E-3    3.688369660756772E-3    4.519285539734589E-1   -2.950169060679615E-1
 7.837447654300000E9     5.664381508585492E-1    5.968315858306798E-3    1.435029579005001E-3    3.766467754564309E-3    1.488608031270132E-3    3.726949562817982E-3    4.506490621364040E-1   -2.970796233587044E-1
 7.837482367400000E9     5.665100469605397E-1    3.686095539008691E-3    1.474983006338913E-3    3.733598806831343E-3    1.495256094893351E-3    3.668206778005938E-3    4.492284733864240E-1   -2.990371818463464E-1
 7.837517080500000E9     5.664607686091807E-1    1.375246760078156E-3    1.519102826688566E-3    3.763437430581279E-3    1.507361271271347E-3    3.682444697079346E-3    4.478565805421493E-1   -3.012073083115993E-1
 7.837551793600000E9     5.665141323071767E-1   -8.968928831240729E-4    1.518344307200070E-3    3.744235865720367E-3    1.543283767316483E-3    3.663130710453666E-3    4.465953408356833E-1   -3.030400647550519E-1
 7.837586506700000E9     5.664711585184051E-1   -3.221409268418888E-3    1.558420415787551E-3    3.755930579488684E-3    1.571850931900394E-3    3.686222219346395E-3    4.453186346986922E-1   -3.050007337210631E-1
 7.837621219800000E9     5.664470117351909E-1   -5.493250065087418E-3    1.564371508569183E-3    3.759141450554306E-3    1.596086032407084E-3    3.664656951121641E-3    4.439020386977736E-1   -3.069940103467522E-1
 7.837655932900000E9     5.665119219835751E-1   -7.789318974717838E-3    1.591026485059727E-3    3.756731873998620E-3    1.617132686294821E-3    3.678690906674643E-3    4.425643683421244E-1   -3.089244024665567E-1
 7.837690646000000E9     5.663387857536125E-1   -1.015479972651326E-2    1.612704783975898E-3    3.759730771684578E-3    1.603547518218907E-3    3.687117157481028E-3    4.409922335149923E-1   -3.111283229753005E-1
 7.837725359100000E9     5.663090306999575E-1   -1.242208550835049E-2    1.627862134395039E-3    3.747209395427064E-3    1.650760620495805E-3    3.706749439612054E-3    4.397747595821741E-1   -3.130604135466258E-1
 7.837760072200000E9     5.663797469472680E-1   -1.471764356927545E-2    1.655034825259241E-3    3.770000190719633E-3    1.636348037743416E-3    3.690245994190669E-3    4.382104462576003E-1   -3.151180454151618E-1
 7.837794785300000E9     5.663087173617509E-1   -1.714511044710617E-2    1.648029482659930E-3    3.735800379819195E-3    1.639502256391560E-3    3.683399339338731E-3    4.368882970297258E-1   -3.171066565299459E-1
 7.837829498400000E9     5.663196190372405E-1   -1.936265256346877E-2    1.677648861178544E-3    3.764091572751398E-3    1.667883425566052E-3    3.659292660806276E-3    4.355301334379700E-1   -3.191780518552965E-1
 7.837864211500000E9     5.660885213064299E-1   -2.161407607964913E-2    1.705704602599788E-3    3.742665312819259E-3    1.691184565334501E-3    3.693732274311249E-3    4.340183838134250E-1   -3.209988036563895E-1
 7.837898924600000E9     5.660903649200335E-1   -2.402945399876653E-2    1.705288021474557E-3    3.740265152065409E-3    1.740361782821766E-3    3.689365430163433E-3    4.325139286208889E-1   -3.230470484993366E-1
 7.837933637700000E9     5.660403296582939E-1   -2.641245606069037E-2    1.735805694456423E-3    3.718462223208329E-3    1.764998946901935E-3    3.676503121642939E-3    4.310349062861869E-1   -3.250256564218519E-1
 7.837968350800000E9     5.658467870520729E-1   -2.863226110042727E-2    1.785919366908585E-3    3.726442711790953E-3    1.793631678580321E-3    3.707403880765954E-3    4.297065648369699E-1   -3.267656861442931E-1
 7.838003063900000E9     5.658026896789367E-1   -3.093564791997599E-2    1.778006251413154E-3    3.727880007262697E-3    1.792155314854177E-3    3.663132075035350E-3    4.282423330537817E-1   -3.288833010507393E-1
 7.838037777000000E9     5.657534437851268E-1   -3.320053994291242E-2    1.800965581408197E-3    3.758509563137226E-3    1.829884562780690E-3    3.675480861943111E-3    4.266350508753830E-1   -3.307442797573341E-1
 7.838072490100000E9     5.654487870097058E-1   -3.542052093264930E-2    1.821616520972744E-3    3.710143304534700E-3    1.863791262714606E-3    3.638685460597228E-3    4.252178663228671E-1   -3.325537234281554E-1
 7.838107203200000E9     5.654051781856407E-1   -3.791123964451257E-2    1.835945036880834E-3    3.725119571760241E-3    1.853610379014897E-3    3.707849183813693E-3    4.238485146314147E-1   -3.346649048318627E-1
 7.838141916300000E9     5.653459467110372E-1   -4.033024489443953E-2    1.875082811353661E-3    3.706631329979770E-3    1.895264624858663E-3    3.664346122679052E-3    4.223015274545983E-1   -3.365664210867921E-1
 7.838176629400000E9     5.651193002547539E-1   -4.256638351290448E-2    1.920569209330307E-3    3.710265222458505E-3    1.872466394265079E-3    3.681518994662750E-3    4.208056752160569E-1   -3.383777663116046E-1
 7.838211342500000E9     5.649128899488651E-1   -4.472772940579123E-2    1.909529745904979E-3    3.739399091551892E-3    1.917459306505785E-3    3.716332771677047E-3    4.192483202093240E-1   -3.402863252424538E-1
 7.838246055600000E9     5.648337935601500E-1   -4.710593291806871E-2    1.935094334546178E-3    3.734076581689669E-3    1.955412514101931E-3    3.663365588562731E-3    4.177359039489820E-1   -3.421508023092159E-1
 7.838280768700000E9     5.646297010742098E-1   -4.946604727108501E-2    1.968677676087498E-3    3.701368015893507E-3    1.968317962887829E-3    3.647326505074716E-3    4.161846269433002E-1   -3.442168128402117E-1
 7.838315481800000E9     5.644091875727180E-1   -5.183993440610776E-2    2.010800864148954E-3    3.723599580312708E-3    1.977067518133524E-3    3.667764449914639E-3    4.145727997025332E-1   -3.460685081498541E-1
 7.838350194900000E9     5.641096970627485E-1   -5.408356485815492E-2    2.023989876048680E-3    3.716266338271512E-3    2.006474836738210E-3    3.635127135740834E-3    4.130643895526841E-1   -3.478765315528909E-1
 7.838384908000000E9     5.638672743286732E-1   -5.639699696759955E-2    2.011486495407322E-3    3.708216177126513E-3    2.012504240063922E-3    3.645330006963776E-3    4.115797393871371E-1   -3.498622418376510E-1
 7.838419621100000E9     5.637802953167483E-1   -5.861306705524973E-2    2.059138699356066E-3    3.696756448405680E-3    2.044146416014362E-3    3.624295208374878E-3    4.098800868511672E-1   -3.515216555971397E-1
 7.838454334200000E9     5.634612351701169E-1   -6.102133012300222E-2    2.080957162772591E-3    3.713628293933036E-3    2.051871073691746E-3    3.640700937518619E-3    4.084152245199728E-1   -3.534869560576956E-1
 7.838489047300000E9     5.631489080165821E-1   -6.330203449895883E-2    2.116541372844811E-3    3.692685906651658E-3    2.089360011036662E-3    3.665594269295882E-3    4.067480131582145E-1   -3.554297397493401E-1
 7.838523760400000E9     5.629560459687565E-1   -6.558837239854952E-2    2.152881721368490E-3    3.693053635138809E-3    2.107404613452748E-3    3.643452147442120E-3    4.052073626507119E-1   -3.571260464678743E-1
 7.838558473500000E9     5.625574545834864E-1   -6.779311239775794E-2    2.162932393544703E-3    3.704975595439897E-3    2.101185097164403E-3    3.652667018605363E-3    4.036602565605274E-1   -3.591297210198843E-1
 7.838593186600000E9     5.624320704798036E-1   -7.034534122448892E-2    2.150436375703840E-3    3.701003881699228E-3    2.156492539944455E-3    3.641335125487976E-3    4.020001190790152E-1   -3.607517922304423E-1
 7.838627899700000E9     5.620232884497957E-1   -7.248718364010459E-2    2.201492293990868E-3    3.714014697248507E-3    2.183214102984189E-3    3.622486935960051E-3    4.004053806394773E-1   -3.625635717513011E-1
 7.838662612800000E9     5.617404567013170E-1   -7.475528423702774E-2    2.220936274196773E-3    3.697684610556384E-3    2.216754261187485E-3    3.641416838704873E-3    3.987373935189215E-1   -3.643698482278721E-1
 7.838697325900000E9     5.613115345949949E-1   -7.711534657523485E-2    2.245128297681432E-3    3.689892352644505E-3    2.198412898465924E-3    3.627554374256279E-3    3.971117602520576E-1   -3.663040289207837E-1
 7.838732039000000E9     5.613038675658508E-1   -7.937736061354991E-2    2.256268627273447E-3    3.712391557871295E-3    2.250086803634397E-3    3.684364085480794E-3    3.954777091635616E-1   -3.679001557741766E-1
 7.838766752100000E9     5.608523028553174E-1   -8.162096212585690E-2    2.267369016578774E-3    3.685059302047315E-3    2.245729975221321E-3    3.608553565155251E-3    3.937715680882212E-1   -3.698002458483386E-1
 7.838801465200000E9     5.604998284910708E-1   -8.374522060124583E-2    2.293761696129783E-3    3.668507111064638E-3    2.327336535143792E-3    3.641690024133753E-3    3.921535973233868E-1   -3.714883206347150E-1
 7.838836178300000E9     5.602786390229357E-1   -8.622854682486311E-2    2.328499031326028E-3    3.702811436905667E-3    2.297157594910639E-3    3.629841441644306E-3    3.905097919216991E-1   -3.732783663069519E-1
 7.838870891400000E9     5.598204782533899E-1   -8.857555461126002E-2    2.379456876806860E-3    3.708604156557469E-3    2.325945908017768E-3    3.643110081255535E-3    3.886818184647547E-1   -3.749771133973187E-1
 7.838905604500000E9     5.594549311244700E-1   -9.084238605218692E-2    2.370421048048637E-3    3.681213799849766E-3    2.365634338766812E-3    3.630271124232107E-3    3.869730499804134E-1   -3.768389259561842E-1
 7.838940317600000E9     5.591723651372804E-1   -9.315519310772365E-2    2.392548175748672E-3    3.685684162100776E-3    2.409745860017818E-3    3.643917386064281E-3    3.852706176283330E-1   -3.785418281906052E-1
 7.838975030700000E9     5.587012733028182E-1   -9.543965265537888E-2    2.445680341158100E-3    3.687158107132295E-3    2.391501048477871E-3    3.602293173039065E-3    3.836821601634361E-1   -3.803509042035023E-1
 7.839009743800000E9     5.581817971119946E-1   -9.774782659694402E-2    2.472842288520888E-3    3.668640589277150E-3    2.438982221216657E-3    3.626864763459385E-3    3.819646360301548E-1   -3.821664209917364E-1
 7.839044456900000E9     5.580279069567694E-1   -9.990113342843952E-2    2.504778675730445E-3    3.645911571344695E-3    2.464787350492094E-3    3.671793461857768E-3    3.801118771637455E-1   -3.838521363770173E-1
 7.839079170000000E9     5.575249153186566E-1   -1.023364038437096E-1    2.532875781793171E-3    3.679662394517771E-3    2.492452713488373E-3    3.632640899403710E-3    3.785177994574436E-1   -3.854383512478151E-1
 7.839113883100000E9     5.571157101520617E-1   -1.045480792621903E-1    2.537390681313244E-3    3.671019301919606E-3    2.528534552434587E-3    3.633952133442025E-3    3.767524851554092E-1   -3.873402467017351E-1
 7.839148596200000E9     5.567229673196882E-1   -1.069092077408264E-1    2.538318210107115E-3    3.677789165376586E-3    2.519456073580904E-3    3.643317585200626E-3    3.749918835951366E-1   -3.890882118000580E-1
 7.839183309300000E9     5.562935963106154E-1   -1.091622620325808E-1    2.581165420258282E-3    3.688870760614070E-3    2.528827808851614E-3    3.614949798492180E-3    3.733701136043824E-1   -3.907407073450383E-1
 7.839218022400000E9     5.557960535142167E-1   -1.115326940658168E-1    2.581168827277170E-3    3.666172426266950E-3    2.563990521825546E-3    3.591700267480388E-3    3.714779447235564E-1   -3.921578071823518E-1
 7.839252735500000E9     5.553222484474988E-1   -1.137247130576247E-1    2.637403836030322E-3    3.649799950700735E-3    2.622862101414637E-3    3.624976312580987E-3    3.697549634633810E-1   -3.940777860843612E-1
 7.839287448600000E9     5.549081165186746E-1   -1.159080900395579E-1    2.642322572886002E-3    3.666691191661388E-3    2.625745033413539E-3    3.636535336653128E-3    3.680184454421829E-1   -3.956550085554144E-1
 7.839322161700000E9     5.543571421559409E-1   -1.181894535130640E-1    2.673334220862335E-3    3.641698546600794E-3    2.653870422916567E-3    3.615553660771373E-3    3.664351115263484E-1   -3.971906985203760E-1
 7.839356874800000E9     5.539159224278538E-1   -1.204813064561452E-1    2.701903594708933E-3    3.644763165149748E-3    2.709547877078028E-3    3.604924191496489E-3    3.643533389648145E-1   -3.989082771614614E-1
 7.839391587900000E9     5.534359449370738E-1   -1.228649895857787E-1    2.710146940837424E-3    3.656605715275027E-3    2.709469433965138E-3    3.604838437483269E-3    3.626763672701407E-1   -4.005968153937899E-1
 7.839426301000000E9     5.529121358173719E-1   -1.251092233874621E-1    2.762618845453469E-3    3.658149132442912E-3    2.756783245870120E-3    3.635156010393392E-3    3.607359846199036E-1   -4.023298024542996E-1
 7.839461014100000E9     5.522736812023058E-1   -1.274252515727620E-1    2.817509947309212E-3    3.659846053424954E-3    2.755867385320244E-3    3.602437639448423E-3    3.590934309459304E-1   -4.038729560731267E-1
 7.839495727200000E9     5.518424798717797E-1   -1.295430858435143E-1    2.817133972492033E-3    3.633554865675224E-3    2.783678560668866E-3    3.620236345708909E-3    3.573666678828384E-1   -4.055511179190929E-1
 7.839530440300000E9     5.512209105779268E-1   -1.317997652670845E-1    2.849854574287942E-3    3.653123840961822E-3    2.817200538539851E-3    3.571023341123580E-3    3.554325160865902E-1   -4.072027691183656E-1
 7.839565153400000E9     5.507353367183425E-1   -1.341326165496200E-1    2.852608754428525E-3    3.630179194732903E-3    2.822494680463864E-3    3.616120172581738E-3    3.534206042174074E-1   -4.087579208712029E-1
 7.839599866500000E9     5.502331392928742E-1   -1.365480573954895E-1    2.903051104049132E-3    3.664732986654717E-3    2.895028651853031E-3    3.632842886756054E-3    3.517123124144663E-1   -4.104770300595372E-1
 7.839634579600000E9     5.494765614723248E-1   -1.387692406320676E-1    2.909791826027754E-3    3.622365906579212E-3    2.905336514536513E-3    3.603525506646562E-3    3.498118631189972E-1   -4.120955534358876E-1
 7.839669292700000E9     5.489596689065904E-1   -1.409893248445759E-1    2.955149668383863E-3    3.623706187987875E-3    2.926129619967959E-3    3.633075728666215E-3    3.480881764867372E-1   -4.134528710340816E-1
 7.839704005800000E9     5.484087340985702E-1   -1.432763106150163E-1    3.007622491282346E-3    3.599834019723730E-3    2.967638964125723E-3    3.606382243207073E-3    3.461934123042997E-1   -4.150813330565143E-1
 7.839738718900000E9     5.477693878118517E-1   -1.455931963913506E-1    3.008382026626989E-3    3.628931871971907E-3    2.971804745720221E-3    3.577909001563618E-3    3.441848329986188E-1   -4.166960155111526E-1
 7.839773432000000E9     5.471721779682568E-1   -1.476968269310767E-1    3.053079167361012E-3    3.617289456968365E-3    3.031823469785306E-3    3.631931669552185E-3    3.423563673386921E-1   -4.183598137011824E-1
