#  HZ   S   RI   R     50.00 
! Rohde & Schwarz Vector Network Analyzer 
! Rohde-Schwarz,ZNB20-2Port,1311601062101988,3.16
! Created: UTC 12/23/2023, 3:50:05 AM
! freq[Hz]                re:S11                  im:S11                  re:S21                  im:S21                  re:S12                  im:S12                  re:S22                  im:S22
 7.836710672000000E9     5.633633975162698E-1    5.487521744128518E-2    1.054559550166693E-3    3.776551223371435E-3    1.110004340448252E-3    3.693344283254499E-3    4.766842680627446E-1   -2.525874196829064E-1
 7.836744995375000E9     5.635728280013080E-1    5.258297859976969E-2    1.063630511025527E-3    3.781411025984022E-3    1.121666852572588E-3    3.726157640466357E-3    4.755429609944744E-1   -2.546559770326802E-1
 7.836779318750000E9     5.638359274721966E-1    5.025915438131387E-2    1.110664018076608E-3    3.780028984210599E-3    1.134741005634615E-3    3.697891940099513E-3    4.744339710974676E-1   -2.567389044371260E-1
 7.836813642125000E9     5.642204909858557E-1    4.817778884884964E-2    1.113031056374782E-3    3.788076676645937E-3    1.138372871797954E-3    3.704765479771127E-3    4.733637658915373E-1   -2.587653815211767E-1
 7.836847965500000E9     5.642485712976970E-1    4.571400591599580E-2    1.128359942119166E-3    3.773799168326376E-3    1.144935368974575E-3    3.722720468778697E-3    4.721966154324190E-1   -2.611085350721803E-1
 7.836882288875000E9     5.643518296162839E-1    4.338236276055549E-2    1.158840308447595E-3    3.774720917807351E-3    1.187161830124922E-3    3.689678443160227E-3    4.709416859040463E-1   -2.629118944719355E-1
 7.836916612250000E9     5.646515693867927E-1    4.121907368018827E-2    1.160772890951713E-3    3.801296497233787E-3    1.186005752322461E-3    3.706230173065527E-3    4.697714892449659E-1   -2.652686820611859E-1
 7.836950935625000E9     5.649351857834410E-1    3.910296525704742E-2    1.212201070910233E-3    3.767533064683124E-3    1.204418852279530E-3    3.711766075848719E-3    4.686739850555052E-1   -2.673053882967852E-1
 7.836985259000000E9     5.648516253901745E-1    3.672072122376070E-2    1.185436941178593E-3    3.763123246252626E-3    1.234644835913884E-3    3.675559523020474E-3    4.673862212073686E-1   -2.693552286704515E-1
 7.837019582375000E9     5.652651674987988E-1    3.449638124634408E-2    1.229168265873699E-3    3.761993442654187E-3    1.230554578587267E-3    3.683159221186325E-3    4.663681430702379E-1   -2.713673445350108E-1
 7.837053905750000E9     5.653856120260256E-1    3.214985882883716E-2    1.248087578111013E-3    3.784397805964802E-3    1.324668167300326E-3    3.721322637647050E-3    4.650874472417005E-1   -2.736189769465737E-1
 7.837088229125000E9     5.654403382025058E-1    2.991459648587183E-2    1.273367682969437E-3    3.786238721570463E-3    1.268690898204078E-3    3.673969381210510E-3    4.637953201541115E-1   -2.755642756652679E-1
 7.837122552500000E9     5.655123925456812E-1    2.753578374574360E-2    1.279708156409663E-3    3.784642470058186E-3    1.345354033739566E-3    3.690947702065560E-3    4.625541032170962E-1   -2.777044971596595E-1
 7.837156875875000E9     5.657007451398939E-1    2.525488362903583E-2    1.286212892067653E-3    3.785269706750341E-3    1.308880282156841E-3    3.691658725878212E-3    4.614060617777244E-1   -2.797953779047022E-1
 7.837191199250000E9     5.657328204700842E-1    2.305390925515608E-2    1.322092222204309E-3    3.772158160286839E-3    1.327782719441085E-3    3.710027385744021E-3    4.601807052668626E-1   -2.817666624302490E-1
 7.837225522625000E9     5.660345439651485E-1    2.080387603485324E-2    1.352006327542969E-3    3.767138626932052E-3    1.378143442920842E-3    3.722748222814723E-3    4.590375343701099E-1   -2.838085452227856E-1
 7.837259846000000E9     5.660334846381267E-1    1.851572951708568E-2    1.343845142258234E-3    3.772031857568193E-3    1.383709717639552E-3    3.686007604219202E-3    4.577007823642269E-1   -2.859566342518705E-1
 7.837294169375000E9     5.660973595624516E-1    1.617570441119326E-2    1.367499515646738E-3    3.767036922095094E-3    1.402443261383508E-3    3.700321635917033E-3    4.563795692157013E-1   -2.879870860909700E-1
 7.837328492750000E9     5.662405256788139E-1    1.373554309689630E-2    1.419453222491729E-3    3.763191965353084E-3    1.420596787904881E-3    3.735800406371188E-3    4.550600091591980E-1   -2.898805110635217E-1
 7.837362816125000E9     5.662034967223984E-1    1.167303110460168E-2    1.406685287231172E-3    3.752145914148151E-3    1.406197945343680E-3    3.699451409698675E-3    4.537909066867464E-1   -2.920052283518583E-1
 7.837397139500000E9     5.663537537923810E-1    9.275828458914706E-3    1.428037099731862E-3    3.758249380929134E-3    1.427607838022012E-3    3.700228954761847E-3    4.525373755164858E-1   -2.941216523189255E-1
 7.837431462875000E9     5.665174246891149E-1    6.968333828421422E-3    1.483064391291572E-3    3.770586069437741E-3    1.449537953603524E-3    3.696264576186461E-3    4.512479626606936E-1   -2.960972749682395E-1
 7.837465786250000E9     5.663243133532044E-1    4.801317805165451E-3    1.484528175503463E-3    3.761050067271549E-3    1.480646705558880E-3    3.719362701189888E-3    4.499468476502186E-1   -2.980416371328970E-1
 7.837500109625000E9     5.663707963307103E-1    2.448312951818887E-3    1.512136021163057E-3    3.766328129343455E-3    1.525009013613656E-3    3.696152438625900E-3    4.487331475018148E-1   -2.999669659842550E-1
 7.837534433000000E9     5.664571747819895E-1    2.198646708619013E-4    1.523164763294648E-3    3.747088010847321E-3    1.516575770390001E-3    3.659647882262215E-3    4.473516977499056E-1   -3.021089537169533E-1
 7.837568756375000E9     5.666146725372027E-1   -2.066420826763395E-3    1.535723421062747E-3    3.779731839272418E-3    1.545155355498944E-3    3.695961698782876E-3    4.459651295790194E-1   -3.040451230047893E-1
 7.837603079750000E9     5.662271176373052E-1   -4.322763107906117E-3    1.560556672407988E-3    3.769795151913496E-3    1.565000379689802E-3    3.706349600283871E-3    4.445501334829935E-1   -3.060530737527508E-1
 7.837637403125000E9     5.664080906921700E-1   -6.638932558839493E-3    1.568568756718510E-3    3.742604483032500E-3    1.558003391781100E-3    3.685760461663403E-3    4.432316412949783E-1   -3.082123827539552E-1
 7.837671726500000E9     5.665426454443193E-1   -8.993210281375711E-3    1.592595298233248E-3    3.758468376301827E-3    1.636262828692333E-3    3.696413613041665E-3    4.417402342927391E-1   -3.099978402682873E-1
 7.837706049875000E9     5.663747400875664E-1   -1.123413695128784E-2    1.604991745135127E-3    3.752476595483308E-3    1.658101331957544E-3    3.670478343858743E-3    4.404721119465905E-1   -3.120172003096467E-1
 7.837740373250000E9     5.664276428109571E-1   -1.346001474790036E-2    1.650701635136359E-3    3.766635441822264E-3    1.659293029880278E-3    3.701150933612083E-3    4.390779215138187E-1   -3.139888422612391E-1
 7.837774696625000E9     5.663347951603642E-1   -1.583108424040446E-2    1.653133691647647E-3    3.770933164637384E-3    1.646147950154713E-3    3.707283305091134E-3    4.375968135301873E-1   -3.159839395329183E-1
 7.837809020000000E9     5.662122004128078E-1   -1.802187281869289E-2    1.691078531381813E-3    3.766703871954731E-3    1.686155203221057E-3    3.668355048532315E-3    4.362986076670332E-1   -3.178656625533680E-1
 7.837843343375000E9     5.662961323452398E-1   -2.034474609148007E-2    1.695565148287876E-3    3.740413541362148E-3    1.684866866839273E-3    3.679706132738512E-3    4.349061892550621E-1   -3.199037319846043E-1
 7.837877666750000E9     5.661835537182927E-1   -2.264630534390967E-2    1.716436217521628E-3    3.739813364333078E-3    1.739735617197119E-3    3.684410773202840E-3    4.334135272809241E-1   -3.218079114345341E-1
 7.837911990125000E9     5.659995217154508E-1   -2.490555806337440E-2    1.739912618300310E-3    3.744394300179656E-3    1.726814508047717E-3    3.679574968651715E-3    4.320548741387272E-1   -3.236222537122697E-1
 7.837946313500000E9     5.660318059348717E-1   -2.714740947418336E-2    1.760074994009315E-3    3.748331950581390E-3    1.730022743604220E-3    3.683593554565416E-3    4.307307996824995E-1   -3.255746712760340E-1
 7.837980636875000E9     5.658928869543057E-1   -2.938658992003800E-2    1.771798234130242E-3    3.747351758349541E-3    1.791314282447269E-3    3.704122208333287E-3    4.290764727009094E-1   -3.274916759932606E-1
 7.838014960250000E9     5.656950433493269E-1   -3.175391297743363E-2    1.801678946396282E-3    3.755236124787649E-3    1.807745459847059E-3    3.685708382266570E-3    4.277026388416654E-1   -3.295692575872531E-1
 7.838049283625000E9     5.656285070362842E-1   -3.394288593773408E-2    1.846847952378850E-3    3.745172569335758E-3    1.814479185476147E-3    3.668004645775794E-3    4.262391803368943E-1   -3.312923005125099E-1
 7.838083607000000E9     5.655794960635309E-1   -3.629943515312373E-2    1.863039720953840E-3    3.744694401709086E-3    1.845176204963489E-3    3.672631812981771E-3    4.247251974153308E-1   -3.332207911094692E-1
 7.838117930375000E9     5.653580908952339E-1   -3.852794508054398E-2    1.868337306523612E-3    3.734416074837053E-3    1.882097675911726E-3    3.676599290914847E-3    4.233417995954774E-1   -3.352890100845234E-1
 7.838152253750000E9     5.652608657601483E-1   -4.085692883953600E-2    1.903783893043630E-3    3.741054762458798E-3    1.908737336481405E-3    3.675477856846295E-3    4.217205858913302E-1   -3.370603148536750E-1
 7.838186577125000E9     5.649395038624170E-1   -4.322888399280502E-2    1.910143494442137E-3    3.754325396963592E-3    1.914622091785960E-3    3.687906752801033E-3    4.202646348576574E-1   -3.388978840480131E-1
 7.838220900500000E9     5.649401905656237E-1   -4.553736786971483E-2    1.922894738780899E-3    3.726267054842288E-3    1.938401230145079E-3    3.674837611304772E-3    4.186868022951403E-1   -3.407943980754740E-1
 7.838255223875000E9     5.647553026373827E-1   -4.779653824662116E-2    1.968198390648386E-3    3.722913229838292E-3    1.932379373054064E-3    3.703799684691825E-3    4.173103766057893E-1   -3.426929067901774E-1
 7.838289547250000E9     5.644642125203739E-1   -5.000339344359458E-2    1.965782511372202E-3    3.722348342149872E-3    1.988627981136167E-3    3.650471446773987E-3    4.157746243282864E-1   -3.445636613707400E-1
 7.838323870625000E9     5.642514121335321E-1   -5.220919665590392E-2    2.006132277209042E-3    3.723210660896213E-3    1.973690335442883E-3    3.677616152690458E-3    4.143063885988804E-1   -3.464743184042037E-1
 7.838358194000000E9     5.641421250448508E-1   -5.457373566113317E-2    2.009363829865510E-3    3.722604207604797E-3    1.978638634533106E-3    3.645750145892645E-3    4.126756785752865E-1   -3.482790124517686E-1
 7.838392517375000E9     5.639374358425633E-1   -5.690411936177685E-2    2.043498664439004E-3    3.738849190839185E-3    2.041103868149698E-3    3.657462614396100E-3    4.110783559295404E-1   -3.499588740540192E-1
 7.838426840750000E9     5.635860632132922E-1   -5.911991304890586E-2    2.085969469595497E-3    3.742844388561587E-3    2.070252998015062E-3    3.681142206983450E-3    4.094335902691864E-1   -3.520518829515915E-1
 7.838461164125000E9     5.634188493878910E-1   -6.139832938642450E-2    2.077861410682892E-3    3.715710342900189E-3    2.069577687608971E-3    3.682664814305461E-3    4.079784331321058E-1   -3.538680250606744E-1
 7.838495487500000E9     5.632584128613570E-1   -6.370483171857656E-2    2.095841676905075E-3    3.736512530228171E-3    2.090021443008830E-3    3.651030242812543E-3    4.064880068492945E-1   -3.556270330889305E-1
 7.838529810875000E9     5.630024953500706E-1   -6.598513422436313E-2    2.121779972833712E-3    3.698943619973607E-3    2.156760242364335E-3    3.656853705834580E-3    4.047820326975586E-1   -3.573980609594935E-1
 7.838564134250000E9     5.628060007326172E-1   -6.835756201067178E-2    2.141586087666126E-3    3.749168328881091E-3    2.144386679606627E-3    3.679640889051122E-3    4.032924555272939E-1   -3.591974112417561E-1
 7.838598457625000E9     5.623605159258639E-1   -7.067272528822256E-2    2.179821185608393E-3    3.705994782883673E-3    2.161489831397388E-3    3.697609602088755E-3    4.015950862864119E-1   -3.609551668679007E-1
 7.838632781000000E9     5.621630463723780E-1   -7.270924167967208E-2    2.189297708002113E-3    3.711788185373678E-3    2.214650303207126E-3    3.666126267260559E-3    4.000122880849561E-1   -3.626874827607052E-1
 7.838667104375000E9     5.617102659459502E-1   -7.506943384208509E-2    2.250408587382973E-3    3.701062789809526E-3    2.194933715822224E-3    3.648786717345379E-3    3.984572480752281E-1   -3.646975065701971E-1
 7.838701427750000E9     5.614923132990660E-1   -7.740103511383943E-2    2.264819520951155E-3    3.711590790592191E-3    2.225167974367337E-3    3.653201505531747E-3    3.968337436829913E-1   -3.665081489968490E-1
 7.838735751125000E9     5.611757264111897E-1   -7.965156811189332E-2    2.291621065911774E-3    3.682407744608420E-3    2.258670093394598E-3    3.666483647626762E-3    3.952656247285335E-1   -3.682450016485913E-1
 7.838770074500000E9     5.608522227631163E-1   -8.184777831163316E-2    2.300748516868443E-3    3.719337801857871E-3    2.241529952906030E-3    3.677196146009072E-3    3.936120389831835E-1   -3.697834888459423E-1
 7.838804397875000E9     5.604395227249641E-1   -8.413211328975545E-2    2.322883384317618E-3    3.734732793500447E-3    2.260047213806821E-3    3.638340515709245E-3    3.918961633662548E-1   -3.717078928140285E-1
 7.838838721250000E9     5.602835677547499E-1   -8.632818648654141E-2    2.333669283767216E-3    3.700006839501687E-3    2.305138509825684E-3    3.637343655221115E-3    3.902136604856226E-1   -3.735854760096640E-1
 7.838873044625000E9     5.598552787034687E-1   -8.874567259145547E-2    2.378457987237719E-3    3.720284177215211E-3    2.342576265876382E-3    3.635931891756066E-3    3.884933608973229E-1   -3.752163397171303E-1
 7.838907368000000E9     5.594391745151162E-1   -9.109337529701804E-2    2.435660657096451E-3    3.682662265281611E-3    2.395699029265330E-3    3.625006850744818E-3    3.868435229532916E-1   -3.769186453046241E-1
 7.838941691375000E9     5.590427123558515E-1   -9.336632977940605E-2    2.417295101240544E-3    3.673088015877073E-3    2.409038223789365E-3    3.655514364090293E-3    3.852290836300028E-1   -3.787261250794259E-1
 7.838976014750000E9     5.587172635764093E-1   -9.555216453103844E-2    2.428722287214851E-3    3.675554443715103E-3    2.398332909875376E-3    3.634667383384195E-3    3.836146708169004E-1   -3.802501366714229E-1
 7.839010338125000E9     5.582097748716577E-1   -9.762760938359916E-2    2.455259295839481E-3    3.716503643913174E-3    2.449529568983398E-3    3.632031364951655E-3    3.819304882945878E-1   -3.821053807807960E-1
 7.839044661500000E9     5.579466944216934E-1   -9.997991632082685E-2    2.506075217621354E-3    3.669640702483856E-3    2.447333696682834E-3    3.618959660524961E-3    3.802067820340501E-1   -3.837986512774726E-1
 7.839078984875000E9     5.575304617657543E-1   -1.023755850762540E-1    2.534726479742015E-3    3.682172749091064E-3    2.462845416789588E-3    3.622481485322226E-3    3.785525506396933E-1   -3.854867336098331E-1
 7.839113308250000E9     5.571571302393870E-1   -1.046224787648861E-1    2.556876831756327E-3    3.681242619369960E-3    2.524248836231857E-3    3.640680455313944E-3    3.768465050908905E-1   -3.871372574350844E-1
 7.839147631625000E9     5.566403539334865E-1   -1.068272490113031E-1    2.562208123975984E-3    3.679563720892598E-3    2.535704518850981E-3    3.637003214548456E-3    3.750508968368987E-1   -3.889431706234887E-1
 7.839181955000000E9     5.562950123055632E-1   -1.091288367472559E-1    2.634542457842802E-3    3.683689973741851E-3    2.551469072134254E-3    3.611729456807683E-3    3.734459163460064E-1   -3.905937829935388E-1
 7.839216278375000E9     5.558184726550788E-1   -1.112613418928023E-1    2.592050589782227E-3    3.685126641527448E-3    2.583023653579365E-3    3.627619191088148E-3    3.716514091184558E-1   -3.922351884721064E-1
 7.839250601750000E9     5.552229229101763E-1   -1.137271421102642E-1    2.634606413332694E-3    3.668347148037645E-3    2.634933979152578E-3    3.642908646366733E-3    3.698683352067907E-1   -3.938465828839286E-1
 7.839284925125000E9     5.548759153602228E-1   -1.160574364505263E-1    2.691940695287987E-3    3.703828041739889E-3    2.662832815082398E-3    3.641902079127392E-3    3.680414663026345E-1   -3.954835647562836E-1
 7.839319248500000E9     5.542956336067243E-1   -1.181949557241237E-1    2.676087870250009E-3    3.682391227960304E-3    2.686607955113484E-3    3.618608472042915E-3    3.663229902227810E-1   -3.970810133757179E-1
 7.839353571875000E9     5.538436437267077E-1   -1.204499240605788E-1    2.724913469054600E-3    3.667606651402510E-3    2.706803268620271E-3    3.630626150583457E-3    3.646035140126854E-1   -3.989014480032140E-1
 7.839387895250000E9     5.533127086837625E-1   -1.224771766760872E-1    2.753333221847325E-3    3.656890718565573E-3    2.686835784741947E-3    3.615690846532998E-3    3.628913361086190E-1   -4.005184869656656E-1
 7.839422218625000E9     5.528758903475797E-1   -1.249153405196678E-1    2.802535756218661E-3    3.651622992573204E-3    2.748788032187750E-3    3.640663035042984E-3    3.610093762069189E-1   -4.022209254460355E-1
 7.839456542000000E9     5.523642705811915E-1   -1.273071345765520E-1    2.803113953602304E-3    3.641652427704507E-3    2.751811775047830E-3    3.594977324629373E-3    3.594086323926716E-1   -4.037010437834834E-1
 7.839490865375000E9     5.519042347596975E-1   -1.294731675807637E-1    2.841502504089353E-3    3.667303175521846E-3    2.794389175310126E-3    3.609271931333459E-3    3.574042921547116E-1   -4.051845665625098E-1
 7.839525188750000E9     5.513603573284784E-1   -1.315066546867350E-1    2.867154075086893E-3    3.652789471860968E-3    2.800447946572172E-3    3.652802459094545E-3    3.556397752327313E-1   -4.069230277759794E-1
 7.839559512125000E9     5.506953578891216E-1   -1.337774670699276E-1    2.894459004454393E-3    3.664390389626542E-3    2.838084747842052E-3    3.606861588553323E-3    3.538314419802768E-1   -4.083757510690173E-1
 7.839593835500000E9     5.501656869911705E-1   -1.361384983321203E-1    2.933039426349174E-3    3.647233560679586E-3    2.881650113757123E-3    3.615985800328950E-3    3.519214812720421E-1   -4.101366854944464E-1
 7.839628158875000E9     5.497132854811856E-1   -1.384959554648248E-1    2.928088689662703E-3    3.645793467196756E-3    2.915445860186618E-3    3.570892842914123E-3    3.502732484458444E-1   -4.116698569864448E-1
 7.839662482250000E9     5.491607346953792E-1   -1.405522283550982E-1    2.966025975737080E-3    3.638597575312867E-3    2.920872699276338E-3    3.611151403765841E-3    3.484282087530256E-1   -4.132514107336628E-1
 7.839696805625000E9     5.485631287514307E-1   -1.428686156315669E-1    2.974638796908183E-3    3.665043345688723E-3    2.953612832992009E-3    3.626896766736158E-3    3.464877764840684E-1   -4.148823142018060E-1
 7.839731129000000E9     5.479698502019841E-1   -1.451755482263334E-1    3.039137802196019E-3    3.644746879852543E-3    2.973118930980571E-3    3.625292838332570E-3    3.447526747242928E-1   -4.163143308591418E-1
 7.839765452375000E9     5.474173652160309E-1   -1.473121684209236E-1    3.067225164970103E-3    3.647138383136709E-3    3.009349030401554E-3    3.609651131948985E-3    3.428166406396770E-1   -4.179556277029375E-1
 7.839799775750000E9     5.467645312717145E-1   -1.494996446002953E-1    3.103436746639887E-3    3.618370849030191E-3    3.072979702979056E-3    3.570646301178519E-3    3.410852402751924E-1   -4.194618215105191E-1
