#  HZ   S   RI   R     50.00 
! Rohde & Schwarz Vector Network Analyzer 
! Rohde-Schwarz,ZNB20-2Port,1311601062101988,3.16
! Created: UTC 3/20/2024, 11:42:56 AM
! freq[Hz]                re:S11                  im:S11                  re:S21                  im:S21                  re:S12                  im:S12                  re:S22                  im:S22
 8.116949000000000E9     5.059930068681524E-1   -1.300698870212697E-2    7.807346415168015E-4    3.761270087673625E-3    8.737665036655783E-4    3.775044524889295E-3    4.188191089653481E-1   -1.660630822100346E-1
 8.116952485650000E9     5.061085450032606E-1   -1.339012477438062E-2    7.974249118149233E-4    3.724168389533249E-3    9.180653093858910E-4    3.769357102394675E-3    4.187702075726566E-1   -1.661732482110835E-1
 8.116955971300000E9     5.059281400685984E-1   -1.363645768263084E-2    8.387145851558289E-4    3.730914571943531E-3    8.744330229231998E-4    3.793908923516436E-3    4.187377883250950E-1   -1.665540315917770E-1
 8.116959456950000E9     5.060322913994776E-1   -1.390731553536496E-2    8.183229629072490E-4    3.710327544358689E-3    8.754866902398906E-4    3.788698049463799E-3    4.186279262018164E-1   -1.667936502686216E-1
 8.116962942600000E9     5.059666009645537E-1   -1.425807127234522E-2    8.060949713332577E-4    3.707271660184951E-3    9.003548655925652E-4    3.780380711317323E-3    4.185470438789445E-1   -1.671829731315781E-1
 8.116966428250000E9     5.061557911496537E-1   -1.445876065605090E-2    8.190690463236734E-4    3.714492748234299E-3    8.914746511476156E-4    3.775245064396186E-3    4.184921082341899E-1   -1.673181021303998E-1
 8.116969913900000E9     5.059779394601920E-1   -1.474655076551662E-2    8.392365774408017E-4    3.745114175310924E-3    9.293858984318264E-4    3.812804936925445E-3    4.185502334737237E-1   -1.674266631765389E-1
 8.116973399550000E9     5.059998929192685E-1   -1.494479872636464E-2    8.350428889271489E-4    3.733518677889817E-3    8.853169314965168E-4    3.784036013785523E-3    4.182566480647777E-1   -1.676441316792578E-1
 8.116976885200000E9     5.059987263601026E-1   -1.534371647227519E-2    8.457453884054540E-4    3.747227558134747E-3    9.098489889553242E-4    3.812721537475526E-3    4.182252600733550E-1   -1.679369365481376E-1
 8.116980370850000E9     5.059898733086902E-1   -1.539900458360463E-2    8.191457184227237E-4    3.745438693171663E-3    8.662203804429028E-4    3.801877098553616E-3    4.181808047319558E-1   -1.682022398753066E-1
 8.116983856500000E9     5.060165631866163E-1   -1.587069678613224E-2    8.626089079071296E-4    3.759317959644848E-3    8.930024301059074E-4    3.802858247107478E-3    4.181007575780260E-1   -1.682664005565433E-1
 8.116987342150000E9     5.059940066367604E-1   -1.608539399553935E-2    8.722245892309085E-4    3.737543837478867E-3    9.164300342594015E-4    3.834248676043363E-3    4.179680836761477E-1   -1.686056469666853E-1
 8.116990827800000E9     5.057773325126714E-1   -1.644948839897286E-2    8.553578475904342E-4    3.757729256550176E-3    9.081817240688174E-4    3.806818373045795E-3    4.179851100337481E-1   -1.687970778229170E-1
 8.116994313450000E9     5.060315412948200E-1   -1.661807023916378E-2    8.556495291267543E-4    3.756848407281689E-3    8.834027260516459E-4    3.831307349611209E-3    4.180446033501718E-1   -1.690263083403935E-1
 8.116997799100000E9     5.058414108003139E-1   -1.700415872999224E-2    8.456338513732930E-4    3.754441963983823E-3    9.113378492254750E-4    3.830081345763297E-3    4.177523548717216E-1   -1.692267510053563E-1
 8.117001284750000E9     5.058420211240857E-1   -1.715827336285998E-2    8.760821685064131E-4    3.738302231357092E-3    9.325119617452990E-4    3.815888144040611E-3    4.176146407892598E-1   -1.695401098636664E-1
 8.117004770400000E9     5.059036740676114E-1   -1.758757052399118E-2    8.535932838295114E-4    3.783133293559455E-3    9.366638610968121E-4    3.815293590754794E-3    4.176828126836232E-1   -1.697516984493667E-1
 8.117008256050000E9     5.058459083501013E-1   -1.766856257551430E-2    8.521233808658696E-4    3.738184370306232E-3    9.239468527526063E-4    3.789139927387990E-3    4.174738218558151E-1   -1.700645059534354E-1
 8.117011741700000E9     5.057891075883868E-1   -1.802705840662635E-2    8.401005654320781E-4    3.792457732600173E-3    9.705667185119730E-4    3.800053362067399E-3    4.175313921938775E-1   -1.702733005908742E-1
 8.117015227350000E9     5.057679796050714E-1   -1.821288295128569E-2    8.549778672434988E-4    3.745338320233128E-3    9.549674878399996E-4    3.830548990781835E-3    4.173745989036622E-1   -1.702763789487218E-1
 8.117018713000000E9     5.058015909065829E-1   -1.869939180701532E-2    8.783659929601090E-4    3.756409151944519E-3    9.377880348568622E-4    3.816104200674116E-3    4.172570818315986E-1   -1.706265755493885E-1
 8.117022198650000E9     5.057999006241802E-1   -1.880765834616732E-2    8.458370800892121E-4    3.773698431333227E-3    9.113272844130097E-4    3.837626976380221E-3    4.171693083447069E-1   -1.707483504218178E-1
 8.117025684300000E9     5.057633404809025E-1   -1.918394043682179E-2    8.743580376502613E-4    3.755159621266603E-3    9.415533679863695E-4    3.861644842102206E-3    4.169698806960878E-1   -1.709509927133724E-1
 8.117029169950000E9     5.056849785032409E-1   -1.946481880261628E-2    8.842886666379561E-4    3.773737953410810E-3    9.524806460084388E-4    3.832799959096315E-3    4.171602653417149E-1   -1.713299025164794E-1
 8.117032655600000E9     5.056221885278452E-1   -1.972882412722224E-2    8.656725279587890E-4    3.761584083711265E-3    9.600657418357669E-4    3.863489498470107E-3    4.167102970310206E-1   -1.716051016093524E-1
 8.117036141250000E9     5.057177146851956E-1   -1.996257398059539E-2    8.968371229294416E-4    3.791595443563855E-3    9.604414856239432E-4    3.830180193375848E-3    4.168292282631044E-1   -1.718129133713038E-1
 8.117039626900000E9     5.056655633949613E-1   -2.021985842684475E-2    9.026155184784718E-4    3.786395996939306E-3    9.633666380251647E-4    3.854812816681884E-3    4.167344739818757E-1   -1.721066101335069E-1
 8.117043112550000E9     5.055500276855610E-1   -2.046975749050632E-2    8.799814536664320E-4    3.804490548010416E-3    9.234789697912971E-4    3.865270095833434E-3    4.166841424642606E-1   -1.722579729347443E-1
 8.117046598200000E9     5.056331098958113E-1   -2.077307160231092E-2    9.180392416659748E-4    3.777393704078411E-3    9.576255924327196E-4    3.854232623320205E-3    4.165743740884408E-1   -1.723656418048795E-1
 8.117050083850000E9     5.056019506484574E-1   -2.107799404387048E-2    9.223157454984381E-4    3.792658501660844E-3    9.616751744437592E-4    3.901781674648270E-3    4.165590879243944E-1   -1.726859097916063E-1
 8.117053569500000E9     5.055763369822430E-1   -2.134680660222381E-2    9.137280912775406E-4    3.800682369772100E-3    9.839103396185149E-4    3.854208639643076E-3    4.164716107461063E-1   -1.728283088725622E-1
 8.117057055150000E9     5.055729800689583E-1   -2.160813490109028E-2    9.123040981919047E-4    3.801055634525494E-3    9.889610904175142E-4    3.887782617379763E-3    4.163390821127672E-1   -1.732342907088872E-1
 8.117060540800000E9     5.054846114679924E-1   -2.191774920198124E-2    9.107770381825581E-4    3.822091957446245E-3    9.804901177901525E-4    3.856728412681885E-3    4.162536128501656E-1   -1.733978800622391E-1
 8.117064026450000E9     5.055606656051930E-1   -2.216887099315825E-2    9.003528872295617E-4    3.774229977869371E-3    9.514737097867936E-4    3.848921071123557E-3    4.162030259473338E-1   -1.736313396490008E-1
 8.117067512100000E9     5.055765484789614E-1   -2.248862663124014E-2    9.309056646667154E-4    3.797343006530314E-3    9.723118431662276E-4    3.879923417268503E-3    4.159827561993877E-1   -1.740195361599731E-1
 8.117070997750000E9     5.056142313065889E-1   -2.273836138014278E-2    9.333241077616928E-4    3.777776648105933E-3    1.006516628661494E-3    3.888392421199329E-3    4.159203496897177E-1   -1.740516035403742E-1
 8.117074483400000E9     5.054444058774158E-1   -2.307000352614299E-2    9.436472578642464E-4    3.816662605439748E-3    1.005569897605451E-3    3.896131955878851E-3    4.160466900369544E-1   -1.742545056627010E-1
 8.117077969050000E9     5.053509257374944E-1   -2.324512286466275E-2    9.315742574498123E-4    3.812994183590792E-3    9.817847803369978E-4    3.900368247947644E-3    4.158069280461917E-1   -1.746147411570839E-1
 8.117081454700000E9     5.054370656658047E-1   -2.354521426766396E-2    9.263647091089092E-4    3.847316204771600E-3    9.676486242815303E-4    3.895000604715173E-3    4.156192223865268E-1   -1.747275849132505E-1
 8.117084940350000E9     5.054505720398386E-1   -2.385412454621530E-2    9.358284003523045E-4    3.829665800046211E-3    1.004094089082724E-3    3.895826612936426E-3    4.156987365510332E-1   -1.750745663133493E-1
 8.117088426000000E9     5.052899306045960E-1   -2.403900613564033E-2    9.402767987438969E-4    3.814984323975667E-3    1.017699173001155E-3    3.891154902594342E-3    4.155482495476971E-1   -1.751952017214441E-1
 8.117091911650000E9     5.053402392988654E-1   -2.447562081996317E-2    9.620649460736967E-4    3.832371843530990E-3    1.007507223742377E-3    3.915172935730133E-3    4.154451936744644E-1   -1.754726235017338E-1
 8.117095397300000E9     5.052990353660390E-1   -2.462835909695382E-2    9.493747594987918E-4    3.863414095365950E-3    9.943276467758474E-4    3.928411643284796E-3    4.152831487038107E-1   -1.757943968296905E-1
 8.117098882950000E9     5.053131023825944E-1   -2.504295779812586E-2    9.562497922717047E-4    3.833394538665087E-3    1.027811635055151E-3    3.893212693448115E-3    4.153663471711280E-1   -1.759220713486810E-1
 8.117102368600000E9     5.053590906110856E-1   -2.525238746013895E-2    9.579117837462000E-4    3.843362340957984E-3    1.051353868092517E-3    3.889197356730620E-3    4.152680309623566E-1   -1.761263007946456E-1
 8.117105854250000E9     5.053452824733587E-1   -2.558996088003353E-2    9.660306482059116E-4    3.847828236128171E-3    1.019455199756379E-3    3.888953486126760E-3    4.152123935512070E-1   -1.763986191300332E-1
 8.117109339900000E9     5.052862964650726E-1   -2.574960347942442E-2    9.616408541161918E-4    3.852300339593274E-3    1.022601521281761E-3    3.921456628751610E-3    4.152163087655376E-1   -1.766543930914460E-1
 8.117112825550000E9     5.051850277888783E-1   -2.611686804624265E-2    9.543720516891559E-4    3.863782781245749E-3    1.048326388601528E-3    3.931428429618160E-3    4.150026924040293E-1   -1.767442643228794E-1
 8.117116311200000E9     5.052195271692090E-1   -2.622807514019249E-2    9.906171234135008E-4    3.864107493654364E-3    1.057586216787350E-3    3.912360892373667E-3    4.149478204239171E-1   -1.771040679499340E-1
 8.117119796850000E9     5.051426571593407E-1   -2.665626448287721E-2    9.467468751066143E-4    3.883872788972192E-3    1.061376318244642E-3    3.941245950390112E-3    4.149048898194033E-1   -1.773133184822446E-1
 8.117123282500000E9     5.052255208924075E-1   -2.681740880739667E-2    9.980128698856849E-4    3.867091782243769E-3    1.028760167548378E-3    3.931832638833382E-3    4.148404094565307E-1   -1.774524618831451E-1
 8.117126768150000E9     5.052000251779096E-1   -2.710199381505896E-2    9.864037990307598E-4    3.877037470261867E-3    1.052333915584666E-3    3.907593308035404E-3    4.145863371978554E-1   -1.777719184721542E-1
 8.117130253800000E9     5.051464406246307E-1   -2.735323023109702E-2    9.925887278311959E-4    3.878541270221637E-3    1.033603190337729E-3    3.947027562378667E-3    4.145753960836526E-1   -1.778644510043102E-1
 8.117133739450000E9     5.052210922907673E-1   -2.776583391528981E-2    1.010268249951188E-3    3.895859096108587E-3    1.054563946298944E-3    3.927801508483502E-3    4.144590891679291E-1   -1.782193092160292E-1
 8.117137225100000E9     5.050632687935026E-1   -2.800619888454971E-2    9.937264723972974E-4    3.881588634130212E-3    1.032321663844867E-3    3.944405304022442E-3    4.143981033187922E-1   -1.783822446050144E-1
 8.117140710750000E9     5.051160492636246E-1   -2.824622826280492E-2    9.964177838372582E-4    3.893625522368730E-3    1.077193230374805E-3    3.970418786905016E-3    4.141315552333600E-1   -1.787252455834007E-1
 8.117144196400000E9     5.051228745425886E-1   -2.847348200325937E-2    9.929505395202660E-4    3.886638686521302E-3    1.081657970285964E-3    3.920386169341805E-3    4.141898258718116E-1   -1.788162566050867E-1
 8.117147682050000E9     5.050154242614437E-1   -2.879349802334105E-2    1.003209375817461E-3    3.900922387644206E-3    1.089891128728958E-3    3.962006366011447E-3    4.141920038426238E-1   -1.790065252814929E-1
 8.117151167700000E9     5.050255038907151E-1   -2.920195260835740E-2    1.016255373435116E-3    3.908800372214522E-3    1.083503936093467E-3    3.963267822240553E-3    4.140466468092611E-1   -1.793770836397433E-1
 8.117154653350000E9     5.049675262459491E-1   -2.930071708078757E-2    1.039963141566169E-3    3.909511184720037E-3    1.078442761836660E-3    3.965685949343592E-3    4.139520027095210E-1   -1.795355543542274E-1
 8.117158139000000E9     5.049186016543002E-1   -2.971239090004756E-2    1.027619307881946E-3    3.913154066042707E-3    1.074108628722198E-3    3.961699185492268E-3    4.138696459298937E-1   -1.797729021112617E-1
 8.117161624650000E9     5.049546830560167E-1   -2.990775664412799E-2    1.016569655049203E-3    3.911979365493167E-3    1.118446204640939E-3    3.982868471542838E-3    4.139057117785400E-1   -1.800698565263818E-1
 8.117165110300000E9     5.049132247046126E-1   -3.024289492218581E-2    1.051151741936425E-3    3.934826492396330E-3    1.082958944352556E-3    3.971428494425554E-3    4.137190611873021E-1   -1.801499934137487E-1
 8.117168595950000E9     5.049890023293934E-1   -3.054333379284680E-2    1.034059639240379E-3    3.945563766039408E-3    1.107482098817050E-3    3.965819193903899E-3    4.136653154679530E-1   -1.805082379409487E-1
 8.117172081600000E9     5.048942966446183E-1   -3.089523356235978E-2    1.030817248061892E-3    3.927140549223320E-3    1.091316183141034E-3    3.973587348693753E-3    4.135575467720407E-1   -1.807535145806896E-1
 8.117175567250000E9     5.047375289340706E-1   -3.117327895883815E-2    1.062621242145377E-3    3.942661728355877E-3    1.125168518293351E-3    3.994570708981745E-3    4.134864655427829E-1   -1.808919730219286E-1
 8.117179052900000E9     5.047721471468590E-1   -3.136601207926826E-2    1.045022973969575E-3    3.926757163690317E-3    1.125498639660768E-3    4.000530508027900E-3    4.134602464337989E-1   -1.811944907202873E-1
 8.117182538550000E9     5.048108345191316E-1   -3.175743029893310E-2    1.045935758342301E-3    3.945462944985193E-3    1.123667635192557E-3    4.000621208149309E-3    4.132198459823869E-1   -1.813639888682942E-1
 8.117186024200000E9     5.047169574994782E-1   -3.203326989624648E-2    1.078043273572245E-3    3.954522283992032E-3    1.113355155142530E-3    3.989285555575011E-3    4.131255136865766E-1   -1.815809326761164E-1
 8.117189509850000E9     5.047149815401268E-1   -3.219357342216799E-2    1.052430689283911E-3    3.963464174194260E-3    1.126440614983554E-3    4.011952410894712E-3    4.130286602140690E-1   -1.817727412912838E-1
 8.117192995500000E9     5.045944825130636E-1   -3.247662760199360E-2    1.068425103122474E-3    3.951169129114043E-3    1.127350514459777E-3    4.020540338660401E-3    4.130026946522616E-1   -1.820127314165973E-1
 8.117196481150000E9     5.045231947806884E-1   -3.292298614099433E-2    1.080842512601237E-3    3.968805234150764E-3    1.173885910583351E-3    4.028353317681961E-3    4.130274567047497E-1   -1.822601786815963E-1
 8.117199966800000E9     5.046497984211403E-1   -3.308918835865268E-2    1.098628645582820E-3    3.972603240406723E-3    1.136048051250144E-3    4.035332039733721E-3    4.127089380010948E-1   -1.824956160515128E-1
 8.117203452450000E9     5.046660694672230E-1   -3.339199674663480E-2    1.077446208339013E-3    3.982153709897421E-3    1.148074910593404E-3    4.031342540382286E-3    4.126718572703685E-1   -1.826254872979171E-1
 8.117206938100000E9     5.045795865431812E-1   -3.359983559899517E-2    1.091579976123027E-3    3.971830029250569E-3    1.155110204637821E-3    4.061124558187503E-3    4.126838184538433E-1   -1.829755694118889E-1
 8.117210423750000E9     5.044873652086302E-1   -3.385556439886997E-2    1.079765831201287E-3    3.972788467399227E-3    1.125626363913362E-3    4.021263773491847E-3    4.125497110323303E-1   -1.830730326494292E-1
 8.117213909400000E9     5.044877279257384E-1   -3.418394603023116E-2    1.102071139798830E-3    3.987409821620199E-3    1.140179434400909E-3    4.055273087501409E-3    4.125043513221190E-1   -1.833202872824061E-1
 8.117217395050000E9     5.043984509536960E-1   -3.450497047110817E-2    1.111186039048076E-3    4.002203047221298E-3    1.176047081939808E-3    4.052241259468243E-3    4.123459854204314E-1   -1.836262400375508E-1
 8.117220880700000E9     5.045024026209279E-1   -3.484975129961564E-2    1.125200685514448E-3    4.021027676362154E-3    1.187630479013423E-3    4.062769020378826E-3    4.122190913704623E-1   -1.838608428897767E-1
 8.117224366350000E9     5.044311625590989E-1   -3.503879561007642E-2    1.102439416794090E-3    4.043079926597826E-3    1.215396487700452E-3    4.060990642591688E-3    4.121496939212769E-1   -1.840011683046017E-1
 8.117227852000000E9     5.043754298134457E-1   -3.536570389199889E-2    1.135410413535398E-3    4.009700453696260E-3    1.203606741770959E-3    4.113284960840664E-3    4.120743352532527E-1   -1.842534890544914E-1
 8.117231337650000E9     5.043376860540406E-1   -3.567651448432860E-2    1.131124754191297E-3    3.995669992083953E-3    1.204916083931954E-3    4.093628183068631E-3    4.119533614256007E-1   -1.843551833269855E-1
 8.117234823300000E9     5.042457590446242E-1   -3.603158001987967E-2    1.125720954210374E-3    4.056621509806294E-3    1.188788309939194E-3    4.092665535667079E-3    4.119548256456638E-1   -1.846492832086967E-1
 8.117238308950000E9     5.042654490834659E-1   -3.628052768325399E-2    1.132985401453154E-3    4.014521518496603E-3    1.222462478840148E-3    4.093043739148890E-3    4.117513370597799E-1   -1.849930283290484E-1
 8.117241794600000E9     5.042510942034207E-1   -3.652471915262902E-2    1.123281858605862E-3    4.030344196714309E-3    1.244381961099442E-3    4.144895019362714E-3    4.116932500376015E-1   -1.851714187149391E-1
 8.117245280250000E9     5.041582807283094E-1   -3.692220441460266E-2    1.171051802442130E-3    4.022723368759171E-3    1.202325119983033E-3    4.119009794985649E-3    4.116350936901089E-1   -1.852842898512380E-1
 8.117248765900000E9     5.040629167993105E-1   -3.717250050026615E-2    1.151015965230306E-3    4.059812762743021E-3    1.199498549725654E-3    4.113567729787847E-3    4.113743742100566E-1   -1.855631345504979E-1
 8.117252251550000E9     5.040833263902689E-1   -3.744226288664261E-2    1.170967499603300E-3    4.032884043565399E-3    1.238554127619629E-3    4.139701944273846E-3    4.114677123778159E-1   -1.858268428430790E-1
 8.117255737200000E9     5.040085784462894E-1   -3.771183639574405E-2    1.166237229974018E-3    4.082403310997664E-3    1.256603627078848E-3    4.132070903747566E-3    4.111906843203834E-1   -1.861206439272359E-1
 8.117259222850000E9     5.040447871898377E-1   -3.799966250383879E-2    1.191782334025091E-3    4.068303418859955E-3    1.224004521370128E-3    4.142885998896104E-3    4.113273886321859E-1   -1.863836117228053E-1
 8.117262708500000E9     5.038355092054297E-1   -3.835623358772852E-2    1.163513141711445E-3    4.060281836203415E-3    1.258309914684850E-3    4.110786236706139E-3    4.112582109741006E-1   -1.865104414065692E-1
