#  HZ   S   RI   R     50.00 
! Rohde & Schwarz Vector Network Analyzer 
! Rohde-Schwarz,ZNB20-2Port,1311601062101988,3.16
! Created: UTC 3/20/2024, 11:43:01 AM
! freq[Hz]                re:S11                  im:S11                  re:S21                  im:S21                  re:S12                  im:S12                  re:S22                  im:S22
 8.116941436000000E9     5.060504494849787E-1   -1.247976807440853E-2    8.032133181000786E-4    3.720684107428460E-3    8.549601656047842E-4    3.748788116075943E-3    4.191223539756108E-1   -1.655693847242475E-1
 8.116944949100000E9     5.060434039431860E-1   -1.270539701781637E-2    8.088855634099416E-4    3.724618200635246E-3    8.640137036280246E-4    3.753824768222073E-3    4.189199941442822E-1   -1.658497216579200E-1
 8.116948462200000E9     5.061063985828319E-1   -1.308277997895170E-2    8.099597561710007E-4    3.709229851337726E-3    8.751510448293410E-4    3.770208909767989E-3    4.188521771731737E-1   -1.659892772022997E-1
 8.116951975300000E9     5.059923993370868E-1   -1.323033784458082E-2    8.230659578721143E-4    3.751024708310081E-3    8.567375958897159E-4    3.771393548744801E-3    4.189043642057048E-1   -1.662584612363982E-1
 8.116955488400000E9     5.060472377022226E-1   -1.353556802552485E-2    8.077138184403955E-4    3.717975890870635E-3    9.064365132873090E-4    3.816294839140054E-3    4.187152351079946E-1   -1.665140449493328E-1
 8.116959001500000E9     5.060188961213090E-1   -1.388636969331058E-2    8.324436942745837E-4    3.731786583702302E-3    8.966583142945751E-4    3.762178779809961E-3    4.187673402668238E-1   -1.668546804597190E-1
 8.116962514600000E9     5.060211324439060E-1   -1.417103505683852E-2    8.193470113993181E-4    3.748041608013308E-3    8.816563248725794E-4    3.745426932681235E-3    4.187090221534543E-1   -1.669147927214878E-1
 8.116966027700000E9     5.060805706267096E-1   -1.434737457207512E-2    8.262146294780796E-4    3.733461726833546E-3    8.916561325734214E-4    3.789594279375063E-3    4.185617952063475E-1   -1.672094789019883E-1
 8.116969540800000E9     5.059480222891106E-1   -1.472584113454995E-2    8.126570928579851E-4    3.714287484804760E-3    9.119204341827774E-4    3.781646609600000E-3    4.182841962990257E-1   -1.673642276549739E-1
 8.116973053900000E9     5.060049932804704E-1   -1.499208268173679E-2    8.132402521531325E-4    3.734579582384812E-3    9.205575573200770E-4    3.796149248569719E-3    4.185141883384965E-1   -1.675989830644546E-1
 8.116976567000000E9     5.059293590450170E-1   -1.531227510132551E-2    8.436705001227643E-4    3.755032138487145E-3    9.006974081191948E-4    3.775215877466362E-3    4.183473609154769E-1   -1.677500897879174E-1
 8.116980080100000E9     5.059339246030018E-1   -1.551095952662931E-2    8.485219463687304E-4    3.724502066226809E-3    9.063356539914673E-4    3.795040495361312E-3    4.182538136563256E-1   -1.681069523927804E-1
 8.116983593200000E9     5.059398226649915E-1   -1.574362004962239E-2    8.453003621470202E-4    3.738035633693316E-3    9.066416516265807E-4    3.771201837765316E-3    4.181758522408995E-1   -1.683290286085296E-1
 8.116987106300000E9     5.058894490130850E-1   -1.612154431614092E-2    8.224103549823149E-4    3.737934476892791E-3    8.983501928856272E-4    3.798775301235517E-3    4.178986658398434E-1   -1.686416403121721E-1
 8.116990619400000E9     5.059184140492318E-1   -1.643246564801288E-2    8.511095885669137E-4    3.761810342034160E-3    9.450352557921981E-4    3.823994498170710E-3    4.179867551234032E-1   -1.687152282133178E-1
 8.116994132500000E9     5.059260456294022E-1   -1.671317753683349E-2    8.512678440719466E-4    3.758414262553368E-3    9.290948635437308E-4    3.744218949817605E-3    4.178523577595645E-1   -1.690138424632254E-1
 8.116997645600000E9     5.057665232847347E-1   -1.701694150727715E-2    8.770619394940219E-4    3.745481221958856E-3    8.967986992850832E-4    3.776438023233934E-3    4.177912002996026E-1   -1.693660673964250E-1
 8.117001158700000E9     5.058044121890314E-1   -1.727604369073155E-2    8.599580389731997E-4    3.777487155646740E-3    9.411559614975469E-4    3.821721939554339E-3    4.176428628089810E-1   -1.694065544543942E-1
 8.117004671800000E9     5.058263768420893E-1   -1.738650041314516E-2    8.665187985121092E-4    3.758462086213337E-3    9.253661398028010E-4    3.832444782531649E-3    4.174391552812093E-1   -1.696515802921158E-1
 8.117008184900000E9     5.058708203417456E-1   -1.772584656652026E-2    8.771063911201055E-4    3.765030711161356E-3    9.442227141035889E-4    3.816257186493696E-3    4.175990204610558E-1   -1.699957601736937E-1
 8.117011698000000E9     5.058357870018312E-1   -1.807743667056316E-2    8.679556070845539E-4    3.749108369628791E-3    9.529686137761250E-4    3.844805913500466E-3    4.174058144926137E-1   -1.702148730885699E-1
 8.117015211100000E9     5.057204201560217E-1   -1.824480877290154E-2    8.592490885798638E-4    3.773512775509551E-3    9.475966079186696E-4    3.808093355740852E-3    4.173655140583917E-1   -1.703979583636406E-1
 8.117018724200000E9     5.057040754126545E-1   -1.859686338919490E-2    8.781347633955232E-4    3.778418505587889E-3    9.063921828133110E-4    3.840586696333122E-3    4.173283349159296E-1   -1.706315084864677E-1
 8.117022237300000E9     5.057636388408083E-1   -1.881158601081619E-2    8.775187457923466E-4    3.782089423886875E-3    9.785682164492188E-4    3.838940880752672E-3    4.170706682240153E-1   -1.708252412345991E-1
 8.117025750400000E9     5.057731308437120E-1   -1.907380456723888E-2    8.903044781856349E-4    3.764252980405963E-3    9.421212379460788E-4    3.887069544081639E-3    4.171469704351873E-1   -1.711816154594050E-1
 8.117029263500000E9     5.057204323249790E-1   -1.938824459604281E-2    8.903352324768676E-4    3.775635188796049E-3    9.375255834115301E-4    3.843866314046012E-3    4.170346850318142E-1   -1.714071839405643E-1
 8.117032776600000E9     5.057354573378656E-1   -1.976410686840268E-2    8.649493894294951E-4    3.765463252596083E-3    9.414049927612484E-4    3.842979511414082E-3    4.170654423133165E-1   -1.714638259568713E-1
 8.117036289700000E9     5.056280020901185E-1   -2.003089344137311E-2    8.816674425311579E-4    3.786858410925644E-3    9.502737535808369E-4    3.844493238718250E-3    4.168164040963893E-1   -1.717546472500006E-1
 8.117039802800000E9     5.056527509297354E-1   -2.034944810332001E-2    8.781072521310713E-4    3.766169680851035E-3    9.459068217994007E-4    3.857242772224713E-3    4.166183679377198E-1   -1.719229993080569E-1
 8.117043315900000E9     5.056231037202831E-1   -2.048098793004948E-2    9.142502907629015E-4    3.790915560838176E-3    9.740320047016747E-4    3.835888186930679E-3    4.166904474608116E-1   -1.722112111945327E-1
 8.117046829000000E9     5.055994360452033E-1   -2.080232307789341E-2    9.093793409737203E-4    3.799619932678599E-3    9.467987918203987E-4    3.837148472239030E-3    4.167050564744154E-1   -1.724978160187175E-1
 8.117050342100000E9     5.056377476548699E-1   -2.113933664767345E-2    9.140398084439426E-4    3.813360527050970E-3    9.807014885413405E-4    3.840295572735948E-3    4.166576534407408E-1   -1.727429894641639E-1
 8.117053855200000E9     5.055575527879601E-1   -2.145113138039728E-2    9.143608165903622E-4    3.807442307056517E-3    9.499849507380743E-4    3.865513874175605E-3    4.164321822717887E-1   -1.729827014722622E-1
 8.117057368300000E9     5.054956551197827E-1   -2.158549830322068E-2    9.062745571658782E-4    3.789978123774092E-3    9.614483247739880E-4    3.859336413439944E-3    4.163606670468505E-1   -1.732633323767872E-1
 8.117060881400000E9     5.054748281848624E-1   -2.199118991868488E-2    9.271368021164689E-4    3.808718410403717E-3    9.649188445102646E-4    3.887581080107532E-3    4.163461059976354E-1   -1.735624783364353E-1
 8.117064394500000E9     5.055073932596700E-1   -2.227086382355598E-2    9.496115584898867E-4    3.806497719363302E-3    9.767430454058451E-4    3.875708965549781E-3    4.161963505217238E-1   -1.736592054404056E-1
 8.117067907600000E9     5.055055188388785E-1   -2.255488523254262E-2    9.292366393424871E-4    3.836410366906282E-3    9.980014002705820E-4    3.855139712203829E-3    4.160985921449292E-1   -1.738847849369152E-1
 8.117071420700000E9     5.053874049269393E-1   -2.280807846696083E-2    9.390997723690491E-4    3.804173491897123E-3    1.007283818101502E-3    3.869306638025932E-3    4.159308487914745E-1   -1.740992917997972E-1
 8.117074933800000E9     5.054772227192160E-1   -2.300818875574804E-2    9.288723595473510E-4    3.798595132149453E-3    9.572906632617686E-4    3.871336220407863E-3    4.158628690374641E-1   -1.743449958304517E-1
 8.117078446900000E9     5.054735444140752E-1   -2.327818328074033E-2    9.410576762143977E-4    3.811585362399546E-3    9.983116253146419E-4    3.863557662140167E-3    4.158533683542446E-1   -1.746631062548984E-1
 8.117081960000000E9     5.053914007229448E-1   -2.357345184088941E-2    9.398913153528064E-4    3.812307479180388E-3    9.887731818062138E-4    3.898544193495372E-3    4.157463785523664E-1   -1.747443988950622E-1
 8.117085473100000E9     5.054280967729102E-1   -2.391313831561253E-2    9.469777688527074E-4    3.838870863196536E-3    1.010973897752665E-3    3.911221708709301E-3    4.155816814633512E-1   -1.750109306381177E-1
 8.117088986200000E9     5.054121629715493E-1   -2.408957914702965E-2    9.427949367285230E-4    3.830924300039147E-3    1.011439186845102E-3    3.870060339796982E-3    4.156474605617860E-1   -1.751559119500063E-1
 8.117092499300000E9     5.054227208162557E-1   -2.451600514636562E-2    9.202525405056360E-4    3.824449913641006E-3    1.016060953154216E-3    3.871265680617366E-3    4.154833278802238E-1   -1.754994587829899E-1
 8.117096012400000E9     5.054250468390594E-1   -2.477425688819224E-2    9.582395003758385E-4    3.866192160253335E-3    9.892249443674448E-4    3.909131025710551E-3    4.155365745712182E-1   -1.757205180765417E-1
 8.117099525500000E9     5.053399415623443E-1   -2.495474759319587E-2    9.641883386492153E-4    3.862534728869695E-3    1.018498610341982E-3    3.924900268322533E-3    4.153975740443630E-1   -1.760104368682817E-1
 8.117103038600000E9     5.053049479167323E-1   -2.524547572996888E-2    9.444123864738884E-4    3.834429072219613E-3    1.024904563187454E-3    3.917180489073794E-3    4.153019294918839E-1   -1.762566100307979E-1
 8.117106551700000E9     5.052713045934577E-1   -2.550866217271708E-2    9.622449563715539E-4    3.872110989210825E-3    1.038356417566920E-3    3.887031614381848E-3    4.151102319189851E-1   -1.763496359566895E-1
 8.117110064800000E9     5.052264877297304E-1   -2.585887117466712E-2    9.794204592010192E-4    3.862919876021545E-3    1.030373948200105E-3    3.915727702766294E-3    4.150914998779113E-1   -1.765734581111262E-1
 8.117113577900000E9     5.050799245111697E-1   -2.597195494741240E-2    9.716030723262979E-4    3.857262124524444E-3    1.031576662635479E-3    3.924576071688762E-3    4.150148429878563E-1   -1.769104397514761E-1
 8.117117091000000E9     5.052611327356915E-1   -2.638907545393260E-2    9.782134207657908E-4    3.872742256366096E-3    1.056642312036955E-3    3.930185203879569E-3    4.149471199558651E-1   -1.770828201176298E-1
 8.117120604100000E9     5.052460210476076E-1   -2.668385789715671E-2    9.624318370414983E-4    3.853671408653495E-3    1.053111678019765E-3    3.957429997068835E-3    4.147173427615682E-1   -1.773574631829031E-1
 8.117124117200000E9     5.051807660609602E-1   -2.700695755003914E-2    9.947373417053562E-4    3.887627430830571E-3    1.046102283071119E-3    3.924560041206303E-3    4.146596276897182E-1   -1.775725007244217E-1
 8.117127630300000E9     5.051176281181136E-1   -2.722060882164899E-2    9.593904151002700E-4    3.845584917250201E-3    1.042125113853433E-3    3.918946398015623E-3    4.147897018287792E-1   -1.776595633623473E-1
 8.117131143400000E9     5.051870787097963E-1   -2.765014464463997E-2    9.936357086975638E-4    3.881912628883150E-3    1.042726423311017E-3    3.921572242506805E-3    4.145628081573454E-1   -1.780038365742381E-1
 8.117134656500000E9     5.050714198293295E-1   -2.785109025825923E-2    9.892113587499044E-4    3.878748881032644E-3    1.066367861148967E-3    3.973250128946108E-3    4.144855121118127E-1   -1.782927469101294E-1
 8.117138169600000E9     5.050802990682447E-1   -2.801824358145858E-2    1.004251148152727E-3    3.904481698467226E-3    1.080178664311836E-3    3.979978894387025E-3    4.143549244321714E-1   -1.783666580742260E-1
 8.117141682700000E9     5.051035263827423E-1   -2.841509506749310E-2    9.846001044539095E-4    3.901606089497888E-3    1.069908520352890E-3    3.947562317281511E-3    4.142812471018613E-1   -1.786469100470663E-1
 8.117145195800000E9     5.050845724367070E-1   -2.867242513608005E-2    9.890515786284766E-4    3.895924301563885E-3    1.033670001073547E-3    3.942523181525779E-3    4.141602792997204E-1   -1.787925653174206E-1
 8.117148708900000E9     5.049543479715201E-1   -2.897136665334676E-2    1.021472134671070E-3    3.898241215215027E-3    1.086501074245987E-3    3.977408477812728E-3    4.140886154540008E-1   -1.791776539129023E-1
 8.117152222000000E9     5.049599717429855E-1   -2.913507391388240E-2    1.000362229937361E-3    3.909710341842856E-3    1.069082545857988E-3    3.937198246964532E-3    4.140334640147144E-1   -1.793347524897806E-1
 8.117155735100000E9     5.049128183502108E-1   -2.940440279309792E-2    1.026856238969385E-3    3.919696479394826E-3    1.124340545533087E-3    3.956987994316745E-3    4.139279626992069E-1   -1.795885870121630E-1
 8.117159248200000E9     5.048614899831015E-1   -2.985421204226638E-2    1.006959536992180E-3    3.915983440586216E-3    1.102322257641252E-3    3.972520518124459E-3    4.139065201361231E-1   -1.798394973145473E-1
 8.117162761300000E9     5.049715246362594E-1   -2.999372880245000E-2    1.026762533664026E-3    3.889310701491554E-3    1.109490844282519E-3    3.971020418044749E-3    4.138229987505934E-1   -1.800850469982170E-1
 8.117166274400000E9     5.048545416236562E-1   -3.036617687119137E-2    1.032764186878096E-3    3.900952245334790E-3    1.123580863985401E-3    3.998072358539544E-3    4.136734917975242E-1   -1.803379062339286E-1
 8.117169787500000E9     5.048083239755705E-1   -3.062968366023942E-2    1.038025873105704E-3    3.953613954343820E-3    1.120397009777791E-3    3.999101293981224E-3    4.135063376843970E-1   -1.804574818640544E-1
 8.117173300600000E9     5.049152198144014E-1   -3.095045310500254E-2    1.059140176375122E-3    3.925838306189794E-3    1.123859408923620E-3    3.978397839033847E-3    4.135509978639253E-1   -1.807432514337798E-1
 8.117176813700000E9     5.048088718710159E-1   -3.114516476210709E-2    1.068850902883831E-3    3.919325436223537E-3    1.120091971173754E-3    3.973829025182912E-3    4.133063493847767E-1   -1.810065722124058E-1
 8.117180326800000E9     5.046528011685699E-1   -3.143272730827946E-2    1.074458594979370E-3    3.937463204413613E-3    1.119859431493553E-3    4.008987978019455E-3    4.132667338366057E-1   -1.812169407944847E-1
 8.117183839900000E9     5.047231444517736E-1   -3.185759850245908E-2    1.065476038884114E-3    3.934347657387739E-3    1.110956989548612E-3    3.987544785740376E-3    4.131705828070049E-1   -1.813224064996153E-1
 8.117187353000000E9     5.047265613367826E-1   -3.205880979309654E-2    1.061662842268813E-3    3.955814540491523E-3    1.128464178259321E-3    4.026539782785984E-3    4.131574202155743E-1   -1.816487571158677E-1
 8.117190866100000E9     5.046779992484495E-1   -3.224300045782679E-2    1.044068765222185E-3    3.969834185831975E-3    1.151579187999082E-3    3.996241576582735E-3    4.130209282343583E-1   -1.819065800780406E-1
 8.117194379200000E9     5.046731813155222E-1   -3.261145172813860E-2    1.079959887366795E-3    3.971447209607112E-3    1.127575908035897E-3    4.046397124985268E-3    4.130501140955012E-1   -1.821664905786643E-1
 8.117197892300000E9     5.045623023439397E-1   -3.292832749038426E-2    1.089192806776503E-3    3.953561596030112E-3    1.142319048815194E-3    4.046552100964087E-3    4.128400527402240E-1   -1.824160438532803E-1
 8.117201405400000E9     5.045997902655317E-1   -3.318056219310370E-2    1.072934783339504E-3    3.950007018123843E-3    1.162939473095372E-3    4.061864158066511E-3    4.127569263008226E-1   -1.824762292844946E-1
 8.117204918500000E9     5.045445234541347E-1   -3.342377682579011E-2    1.088369633512438E-3    3.972301120504096E-3    1.122042720410280E-3    4.043260172149342E-3    4.126995791910703E-1   -1.828936519018153E-1
 8.117208431600000E9     5.046371260193915E-1   -3.367201747565962E-2    1.094324336828775E-3    3.982874087126847E-3    1.132420966526104E-3    4.083070332696570E-3    4.125106109771479E-1   -1.829465548442560E-1
 8.117211944700000E9     5.045402270409085E-1   -3.413489620766837E-2    1.104746431080495E-3    4.007376828963125E-3    1.155448517957308E-3    4.067419413338901E-3    4.125248264052608E-1   -1.833235535813640E-1
 8.117215457800000E9     5.044717074030365E-1   -3.441867917262396E-2    1.123918358066170E-3    3.997202541354931E-3    1.181683647213716E-3    4.072107441310552E-3    4.122918297100556E-1   -1.834481897263493E-1
 8.117218970900000E9     5.043183788231435E-1   -3.469861126897368E-2    1.112798939715715E-3    4.036741263074398E-3    1.184942750619938E-3    4.066899300510827E-3    4.123184751493884E-1   -1.836920035988791E-1
 8.117222484000000E9     5.043585056909629E-1   -3.486120476764725E-2    1.112228733291389E-3    3.995227766445154E-3    1.191762479640322E-3    4.068897772413580E-3    4.121390162454256E-1   -1.839973279236194E-1
 8.117225997100000E9     5.043148185299283E-1   -3.518528975198477E-2    1.122580326871093E-3    4.010941132529902E-3    1.189839775942864E-3    4.065214058309119E-3    4.120608268656514E-1   -1.841302270964707E-1
 8.117229510200000E9     5.041960453581216E-1   -3.554754293580049E-2    1.108899279218366E-3    4.023972302033777E-3    1.194558516463005E-3    4.105797741145997E-3    4.118395804187946E-1   -1.843254437208117E-1
 8.117233023300000E9     5.043065096649472E-1   -3.586167470745023E-2    1.112443161142123E-3    4.022807729780618E-3    1.187185005376138E-3    4.111019293399606E-3    4.118738459253891E-1   -1.845775856405753E-1
 8.117236536400000E9     5.042055622773499E-1   -3.609863625388762E-2    1.140591196986593E-3    4.039977809039991E-3    1.176946426135865E-3    4.078082266589852E-3    4.118188762888646E-1   -1.847909434684079E-1
 8.117240049500000E9     5.041024794923483E-1   -3.646196223169886E-2    1.157874063615317E-3    4.048833554374110E-3    1.202524137487483E-3    4.090653675264528E-3    4.117497628055259E-1   -1.850765894311038E-1
 8.117243562600000E9     5.041680076346778E-1   -3.676366061915193E-2    1.151539405138174E-3    4.030571823724382E-3    1.202518441344246E-3    4.123509596225746E-3    4.116539289519186E-1   -1.852792141218605E-1
 8.117247075700000E9     5.042571788658207E-1   -3.700382803047680E-2    1.148865807166539E-3    4.076658791153161E-3    1.220517403095934E-3    4.136478788793700E-3    4.115949327871200E-1   -1.856162998206966E-1
 8.117250588800000E9     5.040422162903007E-1   -3.732899948004051E-2    1.170624021444096E-3    4.092758681418051E-3    1.238941677484142E-3    4.121204548190805E-3    4.114028730398922E-1   -1.858520419617928E-1
 8.117254101900000E9     5.040493821608488E-1   -3.748497092700039E-2    1.150224085431909E-3    4.054347653609278E-3    1.229477070402489E-3    4.141890500691880E-3    4.113688866097482E-1   -1.860085545780224E-1
 8.117257615000000E9     5.040188406191007E-1   -3.783907561064602E-2    1.179197103987304E-3    4.075684276280495E-3    1.220577695300233E-3    4.128542115576236E-3    4.113387632312688E-1   -1.860312181544551E-1
