#  HZ   S   RI   R     50.00 
! Rohde & Schwarz Vector Network Analyzer 
! Rohde-Schwarz,ZNB20-2Port,1311601062101988,3.16
! Created: UTC 3/20/2024, 11:43:08 AM
! freq[Hz]                re:S11                  im:S11                  re:S21                  im:S21                  re:S12                  im:S12                  re:S22                  im:S22
 8.116942231000000E9     5.060005011505845E-1   -1.250423234549155E-2    8.207019090847081E-4    3.703966540431758E-3    8.919422879352655E-4    3.795982261203610E-3    4.190955766222772E-1   -1.655671021798751E-1
 8.116945729400000E9     5.060693531057552E-1   -1.291386946578536E-2    8.378545002752253E-4    3.716578456115039E-3    8.619848176140840E-4    3.775009233607139E-3    4.189166856854563E-1   -1.658871045485789E-1
 8.116949227800000E9     5.060945808051850E-1   -1.306073280886216E-2    8.195364719328987E-4    3.741029694952498E-3    8.757353327834978E-4    3.766424185758963E-3    4.189078944040558E-1   -1.661484215690929E-1
 8.116952726200000E9     5.060590358589682E-1   -1.335046145904240E-2    8.387579124431087E-4    3.710505474756649E-3    8.834625717939837E-4    3.761091228518536E-3    4.187708121433756E-1   -1.664309541232429E-1
 8.116956224600000E9     5.060190065388323E-1   -1.363770065108764E-2    8.249889094363172E-4    3.718196852356682E-3    8.952936981852405E-4    3.787437002945411E-3    4.186626683415274E-1   -1.663725465421274E-1
 8.116959723000000E9     5.061795356395246E-1   -1.399235217111791E-2    8.188463077540796E-4    3.705863293091310E-3    8.944631566796373E-4    3.771075777172760E-3    4.187405119461330E-1   -1.666560057089812E-1
 8.116963221400000E9     5.061041355211250E-1   -1.420625195228244E-2    8.321061681747928E-4    3.737210294742250E-3    9.123983040416606E-4    3.821899354476782E-3    4.186107071905261E-1   -1.669378393370283E-1
 8.116966719800000E9     5.059469907494952E-1   -1.445806985556250E-2    8.278449924468665E-4    3.715632562210300E-3    8.793029018036593E-4    3.836949003601912E-3    4.185349281919677E-1   -1.672513336442470E-1
 8.116970218200000E9     5.060646204417975E-1   -1.472651279054498E-2    8.355461903644210E-4    3.732098101766621E-3    8.776797343357131E-4    3.813708820979769E-3    4.183486915546877E-1   -1.675313644333319E-1
 8.116973716600000E9     5.059990904083308E-1   -1.515877396756018E-2    8.349703636029787E-4    3.737655799262801E-3    9.074680083948915E-4    3.785937230165396E-3    4.184340513959801E-1   -1.676620350543410E-1
 8.116977215000000E9     5.060649599509690E-1   -1.531765622447696E-2    8.139895940781519E-4    3.749445672591963E-3    9.156366246663484E-4    3.772435947127032E-3    4.182819479656747E-1   -1.679171221862960E-1
 8.116980713400000E9     5.059709267255161E-1   -1.557110807481388E-2    8.341781535399902E-4    3.728017354607613E-3    9.112229349498117E-4    3.805410788910328E-3    4.180963913746644E-1   -1.681588823976018E-1
 8.116984211800000E9     5.059114007991622E-1   -1.591488989163126E-2    8.505971898659489E-4    3.725891906983486E-3    9.225695155755624E-4    3.770539971177730E-3    4.181918517985903E-1   -1.683423578727108E-1
 8.116987710200000E9     5.058798535831406E-1   -1.617443126535599E-2    8.566809421992638E-4    3.739716376871916E-3    8.760544729578666E-4    3.798354815741032E-3    4.179199199955160E-1   -1.686558063394812E-1
 8.116991208600000E9     5.058241809574067E-1   -1.638812687496546E-2    8.456546167028393E-4    3.759178289740744E-3    8.957380520481224E-4    3.836737433400135E-3    4.178990710827160E-1   -1.688875503954889E-1
 8.116994707000000E9     5.059261945859614E-1   -1.662948293304683E-2    8.555827388198962E-4    3.784869224405039E-3    9.009380055926812E-4    3.816742090585755E-3    4.178614091433545E-1   -1.690312657895119E-1
 8.116998205400000E9     5.058849821202405E-1   -1.690315652969364E-2    8.488912525959629E-4    3.780089967773585E-3    9.350121024839386E-4    3.807549966165632E-3    4.177137244269539E-1   -1.691891838992435E-1
 8.117001703800000E9     5.058265782446528E-1   -1.729752109051660E-2    8.369717561239802E-4    3.777399544979424E-3    9.315630178032372E-4    3.833121386710409E-3    4.177503130207442E-1   -1.695646274039989E-1
 8.117005202200000E9     5.059096154306374E-1   -1.752989286279158E-2    8.750230581120690E-4    3.751675485754633E-3    9.275590082590467E-4    3.825209272945669E-3    4.176116163956601E-1   -1.697873943393328E-1
 8.117008700600000E9     5.057812694652797E-1   -1.788284588984180E-2    8.858629590878735E-4    3.790109774883718E-3    9.350008896981514E-4    3.812275543086424E-3    4.174924094159540E-1   -1.699768097942335E-1
 8.117012199000000E9     5.059049585228591E-1   -1.803500701104392E-2    8.906143939262578E-4    3.769325032885096E-3    9.463100530269235E-4    3.826103912497458E-3    4.175151034560161E-1   -1.702371010265298E-1
 8.117015697400000E9     5.058448086944515E-1   -1.835047815988233E-2    8.785572441407418E-4    3.781559379372010E-3    9.366914269268593E-4    3.811221202136646E-3    4.173373822666502E-1   -1.704139170319026E-1
 8.117019195800000E9     5.059205996366528E-1   -1.866938973546358E-2    8.910872492598586E-4    3.764112264181621E-3    9.601629187422471E-4    3.817595484720702E-3    4.171128898127253E-1   -1.707507416850300E-1
 8.117022694200000E9     5.057496361721471E-1   -1.892067156966201E-2    8.886086331690544E-4    3.770015829248118E-3    8.920852314704225E-4    3.816674161091179E-3    4.172380986227238E-1   -1.709619769545198E-1
 8.117026192600000E9     5.057299139183237E-1   -1.926002142375634E-2    8.923958211651314E-4    3.785871926634144E-3    9.363336285565717E-4    3.842701718222893E-3    4.170452805848221E-1   -1.711144036273955E-1
 8.117029691000000E9     5.056905144625240E-1   -1.946522444987845E-2    8.657932408433047E-4    3.794633668754338E-3    9.623040050488207E-4    3.838381367698530E-3    4.168672026781945E-1   -1.713185014131950E-1
 8.117033189400000E9     5.057051819872012E-1   -1.979312476658706E-2    8.914071363499490E-4    3.785922900365517E-3    9.741572188233576E-4    3.788555890430320E-3    4.169356981669558E-1   -1.716534255604663E-1
 8.117036687800000E9     5.057352661571565E-1   -1.999937522719791E-2    8.669011567262167E-4    3.770808810521967E-3    9.516079785273665E-4    3.842377205716099E-3    4.168747895704678E-1   -1.718254681477167E-1
 8.117040186200000E9     5.056647459914722E-1   -2.036924812659429E-2    8.973064619525221E-4    3.792618337308863E-3    9.530266466664195E-4    3.837510159960800E-3    4.168291058529067E-1   -1.721759825287775E-1
 8.117043684600000E9     5.055306621100498E-1   -2.061777031892200E-2    8.994164238046163E-4    3.818160722519228E-3    9.483152344477088E-4    3.857537232051601E-3    4.166169855668123E-1   -1.722077286431168E-1
 8.117047183000000E9     5.056419015824679E-1   -2.085513034384860E-2    9.128044427655151E-4    3.789903303505493E-3    9.803066913601111E-4    3.824513907279909E-3    4.165955866754189E-1   -1.724567018960616E-1
 8.117050681400000E9     5.056489964792609E-1   -2.130482845049780E-2    9.082426528649904E-4    3.801964681407780E-3    9.476067812409600E-4    3.872177560406623E-3    4.165473659646719E-1   -1.727886901402255E-1
 8.117054179800000E9     5.055817108923971E-1   -2.134382024079080E-2    9.080868384397247E-4    3.811348410490813E-3    9.831920148777578E-4    3.867615911438841E-3    4.164507483952782E-1   -1.730164828911874E-1
 8.117057678200000E9     5.055667074702167E-1   -2.162568928300207E-2    9.126192341979093E-4    3.794301788962370E-3    9.546837241908015E-4    3.840946325822069E-3    4.162505153013618E-1   -1.732168812194931E-1
 8.117061176600000E9     5.055156266535056E-1   -2.202988112002120E-2    8.985874222970532E-4    3.792568093448477E-3    9.984981549819596E-4    3.873295424099740E-3    4.162335187816933E-1   -1.734860291100215E-1
 8.117064675000000E9     5.055935117919378E-1   -2.216932357313206E-2    9.494015216778861E-4    3.811897738559322E-3    9.579219253909903E-4    3.881873905164464E-3    4.161494199050170E-1   -1.736592018835490E-1
 8.117068173400000E9     5.055263239557611E-1   -2.256563405283177E-2    9.533890836996700E-4    3.814922394985475E-3    9.887800666477764E-4    3.885902337332950E-3    4.160193890140131E-1   -1.739600193766278E-1
 8.117071671800000E9     5.054770114798645E-1   -2.276338245756884E-2    9.303253463033461E-4    3.820743216323797E-3    9.745048215070557E-4    3.881178856828009E-3    4.159910516168898E-1   -1.741593701516946E-1
 8.117075170200000E9     5.055031723527372E-1   -2.309749398341883E-2    9.405876513550090E-4    3.824721340376773E-3    9.815929597550167E-4    3.852855617640149E-3    4.158724700032323E-1   -1.743880242005627E-1
 8.117078668600000E9     5.054319374154030E-1   -2.336832332833380E-2    9.460195620350145E-4    3.825900228086029E-3    1.030316903554421E-3    3.872174821795396E-3    4.158065191968482E-1   -1.746633519661597E-1
 8.117082167000000E9     5.053926412633193E-1   -2.362046124279844E-2    9.478167720020915E-4    3.843775430548139E-3    1.003526347906186E-3    3.905695649012865E-3    4.157489678614928E-1   -1.746845966841378E-1
 8.117085665400000E9     5.054742727148496E-1   -2.393979495036689E-2    9.291987037263056E-4    3.824356246678485E-3    1.034461772023201E-3    3.911014159408004E-3    4.157713057909295E-1   -1.750804933028796E-1
 8.117089163800000E9     5.054520940390769E-1   -2.426186510456340E-2    9.349077912223167E-4    3.831847523312300E-3    9.909305635456913E-4    3.865058146330845E-3    4.154278438805152E-1   -1.753743411108388E-1
 8.117092662200000E9     5.053039791371913E-1   -2.444144963907011E-2    9.364339463595144E-4    3.834362209663748E-3    1.018935096495129E-3    3.894743774074474E-3    4.153964673787487E-1   -1.755349700336809E-1
 8.117096160600000E9     5.053410506311012E-1   -2.471669391081551E-2    9.620642467080967E-4    3.864864227488109E-3    1.002011385334606E-3    3.892435786028660E-3    4.154531120707003E-1   -1.757578152395272E-1
 8.117099659000000E9     5.052989535235022E-1   -2.499158628845397E-2    9.527897917640613E-4    3.839856416572294E-3    9.946827768800024E-4    3.867046638097512E-3    4.154090863181926E-1   -1.759426725369779E-1
 8.117103157400000E9     5.053332902354118E-1   -2.534673392311575E-2    9.587559495975207E-4    3.876213267504850E-3    1.048698989444318E-3    3.914997259437632E-3    4.153158567632484E-1   -1.761180599313742E-1
 8.117106655800000E9     5.053025718384944E-1   -2.559587485611114E-2    9.629084126803036E-4    3.857939755392073E-3    1.068378741851175E-3    3.917162806932631E-3    4.150370847629141E-1   -1.763635980887679E-1
 8.117110154200000E9     5.052316653808190E-1   -2.576926295931830E-2    9.888414604850833E-4    3.840322850027962E-3    1.028853716891341E-3    3.935445421235952E-3    4.149567077356970E-1   -1.765504651713363E-1
 8.117113652600000E9     5.052008042227397E-1   -2.610963657153517E-2    9.985295908533527E-4    3.842644703728801E-3    1.038494724436973E-3    3.909630000867076E-3    4.149670408446262E-1   -1.768472267594034E-1
 8.117117151000000E9     5.052460764896981E-1   -2.633291486108010E-2    1.005975617570338E-3    3.860608124524338E-3    1.044376673015985E-3    3.891667610275462E-3    4.149254192707135E-1   -1.771802586019534E-1
 8.117120649400000E9     5.052034307875818E-1   -2.671027610119097E-2    9.669088204736971E-4    3.853344491963604E-3    1.023614017110510E-3    3.933819834337268E-3    4.148788479638560E-1   -1.773920565040104E-1
 8.117124147800000E9     5.051301663440371E-1   -2.696541459393131E-2    9.847458907419704E-4    3.846297615065775E-3    1.072754448619267E-3    3.886225063277544E-3    4.147660389952712E-1   -1.775884600962188E-1
 8.117127646200000E9     5.050763413042817E-1   -2.720248024575801E-2    9.912531939625659E-4    3.887169380314793E-3    1.065411021657142E-3    3.933428996709012E-3    4.147146045050771E-1   -1.776010422823356E-1
 8.117131144600000E9     5.050453079703673E-1   -2.763268496812261E-2    1.007824088987325E-3    3.899619384399733E-3    1.035078248447229E-3    3.948014520807188E-3    4.145245059828738E-1   -1.779348850591882E-1
 8.117134643000000E9     5.050783408259779E-1   -2.786384042229696E-2    1.028152139629787E-3    3.881031662815981E-3    1.075098914067481E-3    3.991181186808469E-3    4.144776643882175E-1   -1.780445319440305E-1
 8.117138141400000E9     5.050987655675001E-1   -2.808166826655615E-2    9.988856510567523E-4    3.916084073086872E-3    1.077925590277449E-3    3.941616996002373E-3    4.144748171705588E-1   -1.784635293433508E-1
 8.117141639800000E9     5.050947963143220E-1   -2.828801412354596E-2    1.035726979313173E-3    3.887749297589507E-3    1.063790465093663E-3    3.969121242760898E-3    4.142524520536932E-1   -1.785596033578125E-1
 8.117145138200000E9     5.050276042758776E-1   -2.873538970320566E-2    1.038379833278570E-3    3.905618585216874E-3    1.061194425980180E-3    3.963505257743874E-3    4.141081782510589E-1   -1.788953233344340E-1
 8.117148636600000E9     5.050118629140493E-1   -2.894476514491669E-2    1.007052224994290E-3    3.880767861344091E-3    1.090194065744614E-3    3.986578731729425E-3    4.141651706142206E-1   -1.790811184215149E-1
 8.117152135000000E9     5.049669310917282E-1   -2.929312367996173E-2    1.042903701594186E-3    3.902484598216481E-3    1.086709227424830E-3    3.964463296050396E-3    4.139969914659292E-1   -1.794146054911145E-1
 8.117155633400000E9     5.048468143412209E-1   -2.955940080451617E-2    1.023122814586375E-3    3.928102798541105E-3    1.101244831551901E-3    3.992952441792823E-3    4.138250609936041E-1   -1.797110898470753E-1
 8.117159131800000E9     5.049679483485716E-1   -2.977596276616989E-2    1.029945418648409E-3    3.908906605142232E-3    1.075364593626238E-3    3.982960799027350E-3    4.138127016873404E-1   -1.796647875236341E-1
 8.117162630200000E9     5.048760773525248E-1   -3.017243503549419E-2    1.048652072981530E-3    3.928013965060687E-3    1.086416701801460E-3    3.992058791522030E-3    4.136601864719329E-1   -1.800065196288128E-1
 8.117166128600000E9     5.048538276771738E-1   -3.037183632827659E-2    1.036900001148369E-3    3.922397195300261E-3    1.095089814137534E-3    3.975666902088077E-3    4.136150045495965E-1   -1.802233503581068E-1
 8.117169627000000E9     5.048890488375002E-1   -3.061604998524158E-2    1.020855949837848E-3    3.941791252053886E-3    1.108375930880938E-3    4.003479238648017E-3    4.136708858406382E-1   -1.804888328268718E-1
 8.117173125400000E9     5.048111892063124E-1   -3.092451137095933E-2    1.049666441000877E-3    3.913525916841195E-3    1.130726303116127E-3    4.015559096594320E-3    4.135034902951009E-1   -1.807107880219667E-1
 8.117176623800000E9     5.047174545780641E-1   -3.129071214701552E-2    1.064382796222008E-3    3.952242089123717E-3    1.112466793296088E-3    4.000075927698521E-3    4.133320570318507E-1   -1.810486151721456E-1
 8.117180122200000E9     5.048035787239884E-1   -3.163691374022690E-2    1.067555272103556E-3    3.941377903760719E-3    1.158748699522682E-3    4.010441365404186E-3    4.132414862238332E-1   -1.812023445702598E-1
 8.117183620600000E9     5.047857839261247E-1   -3.179643211400796E-2    1.055681173721538E-3    3.948909860213542E-3    1.131430823139708E-3    3.991510244322512E-3    4.132676374850824E-1   -1.813523614242770E-1
 8.117187119000000E9     5.046842123404268E-1   -3.211318915102297E-2    1.073760059514113E-3    3.953815127576193E-3    1.118445649624018E-3    4.035563512656586E-3    4.131546282893526E-1   -1.816585343868795E-1
 8.117190617400000E9     5.046604014119263E-1   -3.229821566110756E-2    1.086713345692445E-3    3.959965201275266E-3    1.130330173919140E-3    4.029011214920831E-3    4.130555774985884E-1   -1.818690225697026E-1
 8.117194115800000E9     5.046160440489948E-1   -3.269122659727441E-2    1.082698527212522E-3    3.962613229529079E-3    1.130674846374213E-3    4.030691095020181E-3    4.129846043497759E-1   -1.821601097191894E-1
 8.117197614200000E9     5.045558608229620E-1   -3.294646233503470E-2    1.096731039257861E-3    3.974176227372364E-3    1.143676717123542E-3    4.079193543577522E-3    4.129299882530376E-1   -1.823912833216702E-1
 8.117201112600000E9     5.044762541511224E-1   -3.330506015453813E-2    1.067907552996331E-3    3.960255493230804E-3    1.147417289639981E-3    4.037482258684263E-3    4.127220517111326E-1   -1.825585606913145E-1
 8.117204611000000E9     5.044774173023890E-1   -3.342797859612721E-2    1.100166357568331E-3    3.994355937920399E-3    1.149441763193146E-3    4.034870093473091E-3    4.127724731744640E-1   -1.828489695449804E-1
 8.117208109400000E9     5.045507531284221E-1   -3.371284891411393E-2    1.108580063409412E-3    4.005979462994655E-3    1.166633628937155E-3    4.039814498650850E-3    4.124340292027990E-1   -1.829811833885219E-1
 8.117211607800000E9     5.043742444394834E-1   -3.412298871830279E-2    1.100891305601806E-3    3.980298180003745E-3    1.192190379304236E-3    4.055117741497236E-3    4.124796035188490E-1   -1.832405207084558E-1
 8.117215106200000E9     5.044400567509038E-1   -3.432663962136467E-2    1.110110674696195E-3    3.990285282846782E-3    1.153276725428504E-3    4.066756648789404E-3    4.122789371912379E-1   -1.834415761674077E-1
 8.117218604600000E9     5.044228151328795E-1   -3.465736127548665E-2    1.117939773516382E-3    4.009609363566756E-3    1.209118262865829E-3    4.098651838853515E-3    4.122445903228620E-1   -1.836450045998286E-1
 8.117222103000000E9     5.044557128704422E-1   -3.500593114926906E-2    1.114210198432959E-3    4.021587545927237E-3    1.180938863806447E-3    4.071449398933309E-3    4.122103725912044E-1   -1.838045388347117E-1
 8.117225601400000E9     5.043759114167284E-1   -3.523179029705061E-2    1.124887916351932E-3    4.048908742268502E-3    1.206455767428257E-3    4.081886839514924E-3    4.122120766636803E-1   -1.841593541506256E-1
 8.117229099800000E9     5.042056961243391E-1   -3.547314111525463E-2    1.139526885597014E-3    4.032846102556843E-3    1.189695106657555E-3    4.066915880054391E-3    4.120657340929572E-1   -1.843683417633220E-1
 8.117232598200000E9     5.043018864061887E-1   -3.580413410376914E-2    1.125304231001069E-3    4.036921340227336E-3    1.180405910074143E-3    4.111446383697846E-3    4.117792050759956E-1   -1.845579689989005E-1
 8.117236096600000E9     5.042181951623926E-1   -3.605652982188386E-2    1.170892772698279E-3    4.042198118567321E-3    1.169987911810340E-3    4.124196408461949E-3    4.117920666674068E-1   -1.847664160442215E-1
 8.117239595000000E9     5.042246322337649E-1   -3.641501291585582E-2    1.164172589690940E-3    4.074350674146821E-3    1.214869104793322E-3    4.120145367270485E-3    4.116619383278800E-1   -1.850969377285053E-1
 8.117243093400000E9     5.041668324173947E-1   -3.664326288849731E-2    1.175505314863261E-3    4.063992932018241E-3    1.224033747063051E-3    4.092129637685484E-3    4.117131392337017E-1   -1.852671331196263E-1
 8.117246591800000E9     5.041569555679936E-1   -3.710659184667161E-2    1.161327559742672E-3    4.043840921666025E-3    1.236478032913362E-3    4.090821139403979E-3    4.115988691054225E-1   -1.855624676336022E-1
 8.117250090200000E9     5.040936254919540E-1   -3.726066566225460E-2    1.158384237531671E-3    4.068794144305967E-3    1.228997989206804E-3    4.130161971738632E-3    4.113975153331192E-1   -1.857936541972536E-1
 8.117253588600000E9     5.039986737857507E-1   -3.751075190937694E-2    1.171211428613718E-3    4.081264960982001E-3    1.268276996315262E-3    4.115988098063975E-3    4.113778678103432E-1   -1.858920574294378E-1
 8.117257087000000E9     5.040013911737452E-1   -3.782447592561535E-2    1.182312967303313E-3    4.072793169809266E-3    1.259626714752515E-3    4.155626004302016E-3    4.113431325636331E-1   -1.862391348990627E-1
