#  HZ   S   RI   R     50.00 
! Rohde & Schwarz Vector Network Analyzer 
! Rohde-Schwarz,ZNB20-2Port,1311601062101988,3.16
! Created: UTC 3/20/2024, 11:43:11 AM
! freq[Hz]                re:S11                  im:S11                  re:S21                  im:S21                  re:S12                  im:S12                  re:S22                  im:S22
 8.116939512000000E9     5.060803824952663E-1   -1.233045665792021E-2    8.262581772063856E-4    3.709365421325081E-3    8.483725345728462E-4    3.767026031820934E-3    4.191672059958567E-1   -1.654296552291744E-1
 8.116943019600000E9     5.061120945554566E-1   -1.252072218478375E-2    8.043290671722928E-4    3.692494823078549E-3    8.573697707722087E-4    3.775747500198307E-3    4.190662791836840E-1   -1.657286697898176E-1
 8.116946527200000E9     5.060767841704973E-1   -1.280444748705183E-2    8.483453230597246E-4    3.726522689219767E-3    9.086699224820759E-4    3.773272823722920E-3    4.189729671393220E-1   -1.658581505160062E-1
 8.116950034800000E9     5.060568288425722E-1   -1.309645745683669E-2    8.159445768249220E-4    3.693348556151241E-3    8.736862391653635E-4    3.759106660926110E-3    4.189272708624373E-1   -1.661517521949072E-1
 8.116953542400000E9     5.059834835894745E-1   -1.352240479764103E-2    8.186332393355948E-4    3.732653842398351E-3    8.900668812742645E-4    3.753018002142090E-3    4.187952518909239E-1   -1.662687820238364E-1
 8.116957050000000E9     5.060077566949120E-1   -1.381451847687951E-2    8.160905823225616E-4    3.728958401690579E-3    8.439932458558440E-4    3.753225272292494E-3    4.185281296157492E-1   -1.665589814748269E-1
 8.116960557600000E9     5.060370614813499E-1   -1.404341765278007E-2    8.160926718965809E-4    3.737958071852476E-3    8.627578164276934E-4    3.785000224913330E-3    4.188099034979785E-1   -1.669288626712843E-1
 8.116964065200000E9     5.060545026937235E-1   -1.437951256040893E-2    8.478752508546947E-4    3.745973446810972E-3    8.939176423557778E-4    3.773043687524199E-3    4.186900869334260E-1   -1.669916820812204E-1
 8.116967572800000E9     5.059301801730312E-1   -1.447751626032397E-2    8.271413101587877E-4    3.712318550167640E-3    8.758873855800092E-4    3.789946287116777E-3    4.185105459364769E-1   -1.672054479639255E-1
 8.116971080400000E9     5.060146214238681E-1   -1.486585708323761E-2    8.546520930876072E-4    3.731719791662651E-3    9.140360847037107E-4    3.842864500587838E-3    4.184123754111455E-1   -1.675813289884994E-1
 8.116974588000000E9     5.060550364351512E-1   -1.514269714084123E-2    8.281377948371723E-4    3.737852255870721E-3    8.976654081001107E-4    3.800654568422036E-3    4.183472066154235E-1   -1.677644005494864E-1
 8.116978095600000E9     5.059899701213503E-1   -1.547760672221597E-2    8.388868459778449E-4    3.759228951261125E-3    8.835094019866987E-4    3.797776291110031E-3    4.183206349599902E-1   -1.679656959574042E-1
 8.116981603200000E9     5.059450964417698E-1   -1.555561215131667E-2    8.377246662700970E-4    3.749594820666159E-3    9.006190779685017E-4    3.788900250022603E-3    4.181101985366386E-1   -1.681294029214093E-1
 8.116985110800000E9     5.059570183434432E-1   -1.589173312769474E-2    8.441935634166816E-4    3.750024286216819E-3    9.167394820460109E-4    3.810570653412774E-3    4.180931075571501E-1   -1.684217851117886E-1
 8.116988618400000E9     5.058499545537120E-1   -1.619340743387271E-2    8.398274081591792E-4    3.753452030284025E-3    9.208681947784255E-4    3.828051762224373E-3    4.179913857078010E-1   -1.686503212556606E-1
 8.116992126000000E9     5.057898100680434E-1   -1.647242371969149E-2    8.445265555768183E-4    3.757507466972001E-3    9.420473083611329E-4    3.814341803993163E-3    4.179391794828553E-1   -1.689099346847810E-1
 8.116995633600000E9     5.059505435479268E-1   -1.677061677371627E-2    8.719185731895269E-4    3.769794716001743E-3    9.165950796705405E-4    3.836304233213260E-3    4.178809281279810E-1   -1.692541072466355E-1
 8.116999141200000E9     5.058213112044359E-1   -1.705889838111063E-2    8.732859394430121E-4    3.768111122474163E-3    9.231999285961120E-4    3.811033789060094E-3    4.178102093777529E-1   -1.693473365186826E-1
 8.117002648800000E9     5.058079844053730E-1   -1.737516847543319E-2    8.703330732194486E-4    3.772072143946244E-3    8.962005686434102E-4    3.823462487771680E-3    4.177372261250882E-1   -1.695255757349195E-1
 8.117006156400000E9     5.058720657242716E-1   -1.769296839150193E-2    8.879757377846333E-4    3.749830954225659E-3    9.310911153574876E-4    3.832685216101002E-3    4.174732019249943E-1   -1.698329055545034E-1
 8.117009664000000E9     5.057493903078548E-1   -1.797793236921242E-2    8.702871804254705E-4    3.784613464565867E-3    9.254260289758073E-4    3.845153115880030E-3    4.173657822366144E-1   -1.699043770303734E-1
 8.117013171600000E9     5.057300088996044E-1   -1.814611982022287E-2    8.606420337960521E-4    3.746480765424879E-3    9.578578496885869E-4    3.849470264202319E-3    4.174114275667999E-1   -1.702850099273903E-1
 8.117016679200000E9     5.058171862767300E-1   -1.848170825339556E-2    8.746853489787348E-4    3.780176291971633E-3    9.299602987889612E-4    3.830230295092472E-3    4.173758929647407E-1   -1.705059189577609E-1
 8.117020186800000E9     5.057613502622605E-1   -1.876488623640840E-2    8.641811897057284E-4    3.785771466236132E-3    9.474901786465538E-4    3.857080394142275E-3    4.171390288795344E-1   -1.707953679261747E-1
 8.117023694400000E9     5.056951155926092E-1   -1.906727994488372E-2    8.902578415122785E-4    3.781128796638970E-3    9.284208954570573E-4    3.846316954140781E-3    4.172572732252749E-1   -1.709222129603107E-1
 8.117027202000000E9     5.056702270280972E-1   -1.931120315324335E-2    8.565916261830962E-4    3.778455444357476E-3    9.569482227367879E-4    3.808246651831965E-3    4.171442564624755E-1   -1.711317343870097E-1
 8.117030709600000E9     5.057096730689336E-1   -1.955945484158577E-2    8.914939642976725E-4    3.788496589536347E-3    9.382867474146242E-4    3.842186444897113E-3    4.171186563485728E-1   -1.713386162145723E-1
 8.117034217200000E9     5.056573671347475E-1   -1.979023047454752E-2    8.969915153410031E-4    3.799482671118196E-3    9.588194735391140E-4    3.830626783791506E-3    4.169078969660884E-1   -1.716312041619316E-1
 8.117037724800000E9     5.057785932116413E-1   -2.010495482881955E-2    8.947986746209032E-4    3.810579182954218E-3    9.775632033643224E-4    3.880327258230458E-3    4.167815362975833E-1   -1.718521415633885E-1
 8.117041232400000E9     5.056163331632190E-1   -2.039507889752086E-2    9.040301367045932E-4    3.806255148755381E-3    9.667856453419234E-4    3.823896482773634E-3    4.166623678116889E-1   -1.719572820410321E-1
 8.117044740000000E9     5.057206177601988E-1   -2.065306014518686E-2    9.051642581321734E-4    3.804209767839923E-3    9.605383278668567E-4    3.864562468465062E-3    4.166857659937285E-1   -1.723596589695487E-1
 8.117048247600000E9     5.056467496005362E-1   -2.097959389410392E-2    9.120003017181506E-4    3.807380455518535E-3    9.765648394294006E-4    3.879572723730544E-3    4.167326702988175E-1   -1.725929599588635E-1
 8.117051755200000E9     5.054967539957482E-1   -2.117233569746774E-2    9.127862696398923E-4    3.822895182170088E-3    9.537712455581681E-4    3.854124768936830E-3    4.164782356753646E-1   -1.726691258623431E-1
 8.117055262800000E9     5.055399110771555E-1   -2.158705792321760E-2    9.204486669787251E-4    3.795339258880357E-3    9.858601100244319E-4    3.833754535426283E-3    4.163636602501287E-1   -1.729543539930405E-1
 8.117058770400000E9     5.056423816614402E-1   -2.174364873149035E-2    9.265914654190299E-4    3.794719219309661E-3    9.701725225655168E-4    3.859223835081569E-3    4.162924897351417E-1   -1.732769429096329E-1
 8.117062278000000E9     5.055304296053024E-1   -2.198392091532479E-2    9.274782834558249E-4    3.784366099162685E-3    9.786070196814249E-4    3.888703262041014E-3    4.161075110530290E-1   -1.735710393926219E-1
 8.117065785600000E9     5.054986487954203E-1   -2.226339652777881E-2    9.117992377107371E-4    3.819023661283714E-3    1.017743071827039E-3    3.873040844390193E-3    4.162170034640372E-1   -1.736696386915701E-1
 8.117069293200000E9     5.055764468303807E-1   -2.254135445803337E-2    9.309103493045704E-4    3.829987858095458E-3    1.014888287752318E-3    3.886956539033209E-3    4.161512324987780E-1   -1.739726604742309E-1
 8.117072800800000E9     5.054243732500698E-1   -2.292200061012179E-2    9.275058897165166E-4    3.834518699339206E-3    9.734636017035925E-4    3.893810397967935E-3    4.158597644066985E-1   -1.743183903163819E-1
 8.117076308400000E9     5.054665559291865E-1   -2.321724361440148E-2    9.403517249022395E-4    3.816958148923979E-3    1.017048614766328E-3    3.864384779169228E-3    4.158902420740018E-1   -1.744394458603193E-1
 8.117079816000000E9     5.054379049835180E-1   -2.346883721253162E-2    9.274085633968481E-4    3.821779871037534E-3    1.034438684723159E-3    3.866879678622506E-3    4.159484898755620E-1   -1.746551923398370E-1
 8.117083323600000E9     5.054474109066118E-1   -2.363074504878627E-2    9.500072463028518E-4    3.821854055881457E-3    1.001815726729350E-3    3.862553584788271E-3    4.158102425247021E-1   -1.748918621807056E-1
 8.117086831200000E9     5.053284919307383E-1   -2.393610765142162E-2    9.327096195988268E-4    3.826654244988216E-3    1.016909251076020E-3    3.868826054227339E-3    4.156943175664352E-1   -1.750950986216626E-1
 8.117090338800000E9     5.053962721994504E-1   -2.442649006873783E-2    9.608481128016676E-4    3.837094245542966E-3    9.879038864320446E-4    3.882479756359790E-3    4.155692839511857E-1   -1.753373749890969E-1
 8.117093846400000E9     5.053934888678906E-1   -2.456114399967133E-2    9.620275236330996E-4    3.847915481347677E-3    1.019578778590756E-3    3.902203796095136E-3    4.156019088227376E-1   -1.755711940215752E-1
 8.117097354000000E9     5.053160015241613E-1   -2.492848527280958E-2    9.366280001673387E-4    3.868693420675926E-3    1.018122804924914E-3    3.912538741724504E-3    4.154370289090926E-1   -1.757652778816439E-1
 8.117100861600000E9     5.053646685741717E-1   -2.498001712918659E-2    9.715956050194846E-4    3.868478163684872E-3    1.044955976222367E-3    3.909302734436165E-3    4.152549962596073E-1   -1.758785446904545E-1
 8.117104369200000E9     5.053844135690163E-1   -2.539496282579189E-2    9.925677131650398E-4    3.844993734640577E-3    1.060146079167728E-3    3.917860586105063E-3    4.152277280279759E-1   -1.763415601601665E-1
 8.117107876800000E9     5.051759564838837E-1   -2.566256808316447E-2    1.004482868458063E-3    3.876073797509832E-3    1.036344466898087E-3    3.898510700273058E-3    4.150854450636188E-1   -1.764857405424323E-1
 8.117111384400000E9     5.052398172924653E-1   -2.599549622669841E-2    9.597540592160184E-4    3.874079038388770E-3    1.022933531521095E-3    3.899236508110743E-3    4.150657812899901E-1   -1.767307816978872E-1
 8.117114892000000E9     5.051756556887899E-1   -2.627700884182657E-2    9.925241550355914E-4    3.873956468270269E-3    1.041369136280777E-3    3.907996267328988E-3    4.150184946204533E-1   -1.769869466412511E-1
 8.117118399600000E9     5.051607600327866E-1   -2.653522534211868E-2    9.657824608133740E-4    3.886758392444969E-3    1.059000790504599E-3    3.924542961773849E-3    4.149298876396751E-1   -1.771735829533882E-1
 8.117121907200000E9     5.052071249639292E-1   -2.676818988502573E-2    1.011339355472581E-3    3.857537633813253E-3    1.037003714472058E-3    3.925335803780091E-3    4.148332639960587E-1   -1.773866892729137E-1
 8.117125414800000E9     5.051573740009039E-1   -2.705400440742952E-2    9.790906321762861E-4    3.854882265766429E-3    1.051348130473349E-3    3.953491969509578E-3    4.146666486218295E-1   -1.774727481527809E-1
 8.117128922400000E9     5.049838019828790E-1   -2.727757272189730E-2    1.014341429952901E-3    3.893311964137118E-3    1.055968808823181E-3    3.923493546900120E-3    4.145892606687869E-1   -1.778092091763005E-1
 8.117132430000000E9     5.050698685401516E-1   -2.765242711471895E-2    9.941041612632452E-4    3.875302618420695E-3    1.055560881076289E-3    3.941031471972320E-3    4.144950700070355E-1   -1.780328531066968E-1
 8.117135937600000E9     5.050934509412195E-1   -2.784059719801808E-2    1.032054973854118E-3    3.905287234671196E-3    1.037663738574120E-3    3.941832037575634E-3    4.144341353970063E-1   -1.782786306232132E-1
 8.117139445200000E9     5.050130072374003E-1   -2.814087930238708E-2    1.018790902535200E-3    3.904792470235427E-3    1.028890087657168E-3    3.965255109321395E-3    4.143534224712246E-1   -1.784959633472668E-1
 8.117142952800000E9     5.050676531771068E-1   -2.849937823145320E-2    1.017984555465361E-3    3.883941095716931E-3    1.068735273068298E-3    3.956849918511098E-3    4.144403131498902E-1   -1.785526053617584E-1
 8.117146460400000E9     5.049688779651996E-1   -2.877413331045571E-2    1.019462024863509E-3    3.889407498249050E-3    1.080144828669562E-3    3.983938813311247E-3    4.143020805637144E-1   -1.789171170100960E-1
 8.117149968000000E9     5.049794241081405E-1   -2.904463765736975E-2    1.019965354491381E-3    3.933063395145494E-3    1.087507175600003E-3    3.974494394373042E-3    4.141368245599458E-1   -1.791396897487213E-1
 8.117153475600000E9     5.049534239701177E-1   -2.942458056077704E-2    1.025523255184449E-3    3.927102069323439E-3    1.077130847319865E-3    3.958927466737512E-3    4.139397534699197E-1   -1.794958587617878E-1
 8.117156983200000E9     5.049753314769103E-1   -2.956943332457088E-2    1.009019650935469E-3    3.902339724497575E-3    1.096031880024352E-3    3.947792330415011E-3    4.138686306393303E-1   -1.797785323437438E-1
 8.117160490800000E9     5.048843206748654E-1   -2.997475303372897E-2    1.020704259058721E-3    3.918430442926952E-3    1.102085934801962E-3    3.956947621394656E-3    4.138814269009810E-1   -1.798952005884842E-1
 8.117163998400000E9     5.048669346579945E-1   -3.014333648229486E-2    1.020918172140168E-3    3.907561290555973E-3    1.090097467562364E-3    3.969300186384652E-3    4.137152229935396E-1   -1.801025120296905E-1
 8.117167506000000E9     5.049473860815229E-1   -3.046415998378395E-2    1.016822981539403E-3    3.906139127903363E-3    1.086781597519364E-3    3.971356932746402E-3    4.136557453013550E-1   -1.804904739325942E-1
 8.117171013600000E9     5.048019016629776E-1   -3.077468821052919E-2    1.065483546823950E-3    3.941290283351299E-3    1.145996717000187E-3    4.005009817948968E-3    4.136827300270443E-1   -1.805236538777231E-1
 8.117174521200000E9     5.047441147109665E-1   -3.098492074866929E-2    1.052669614343411E-3    3.940127891045636E-3    1.127093160621133E-3    4.014097847213977E-3    4.135616975503137E-1   -1.807513486810572E-1
 8.117178028800000E9     5.047464310768454E-1   -3.131201109146138E-2    1.049908199352469E-3    3.950412193621582E-3    1.135309387260299E-3    4.008961819424389E-3    4.132654425620208E-1   -1.810869050866679E-1
 8.117181536400000E9     5.046588525540908E-1   -3.159950036208960E-2    1.078083050083240E-3    3.944816877665292E-3    1.104305855632398E-3    4.032666842776700E-3    4.132839762046564E-1   -1.813085634133811E-1
 8.117185044000000E9     5.046871271080677E-1   -3.180198896425855E-2    1.053990536348842E-3    3.944018298709304E-3    1.118717473956046E-3    4.017840857331370E-3    4.130855084878838E-1   -1.814842999962026E-1
 8.117188551600000E9     5.047802941054964E-1   -3.221973715993250E-2    1.053134201478667E-3    3.979535874869476E-3    1.128865596091866E-3    4.025061707940402E-3    4.130943026842563E-1   -1.818699030570839E-1
 8.117192059200000E9     5.047933662160375E-1   -3.246830362428040E-2    1.081284318714661E-3    3.990087197796134E-3    1.159026601843016E-3    4.006362147950813E-3    4.130398266744169E-1   -1.820969707331015E-1
 8.117195566800000E9     5.046298191285844E-1   -3.268222612829930E-2    1.091172487578734E-3    3.959855421507029E-3    1.141274965880595E-3    4.053114075126934E-3    4.129049831897787E-1   -1.822359307273397E-1
 8.117199074400000E9     5.046426292814375E-1   -3.307142603981605E-2    1.073596546354681E-3    3.963956678500534E-3    1.178996004172491E-3    4.049177983827422E-3    4.127788494372324E-1   -1.822921034731939E-1
 8.117202582000000E9     5.046082608226609E-1   -3.328701658702701E-2    1.098107495122712E-3    3.969604503419945E-3    1.163531206103255E-3    4.008575239649190E-3    4.127530568438919E-1   -1.826126621128300E-1
 8.117206089600000E9     5.044562825964952E-1   -3.361351471878694E-2    1.108046754289444E-3    3.985506449607872E-3    1.163745635619324E-3    4.063772963473542E-3    4.126133399360339E-1   -1.828342769557220E-1
 8.117209597200000E9     5.044187408469712E-1   -3.388328535381490E-2    1.112086867818988E-3    4.003484521135028E-3    1.181831969932051E-3    4.034034464413143E-3    4.124128575590257E-1   -1.830641526630463E-1
 8.117213104800000E9     5.044777347799850E-1   -3.415213962882263E-2    1.108725812860424E-3    3.997545367960823E-3    1.144482902110703E-3    4.085182325263058E-3    4.125018553672413E-1   -1.833165826508270E-1
 8.117216612400000E9     5.044389184948475E-1   -3.451158479659523E-2    1.133106769953807E-3    4.018371462809461E-3    1.188020400244663E-3    4.064046297096015E-3    4.122459639455346E-1   -1.835918978338694E-1
 8.117220120000000E9     5.044570726750106E-1   -3.467011827509710E-2    1.125074138673763E-3    4.009013387085957E-3    1.188936184999494E-3    4.057311083860046E-3    4.123886058004446E-1   -1.838178040398515E-1
 8.117223627600000E9     5.043813702269044E-1   -3.508120549117587E-2    1.129459266218599E-3    4.022589529084336E-3    1.186382416027220E-3    4.090495181528554E-3    4.123551334489551E-1   -1.839584078211938E-1
 8.117227135200000E9     5.043525824661503E-1   -3.539424123428615E-2    1.170698249028873E-3    4.032721048613091E-3    1.204693308607247E-3    4.047491985737880E-3    4.121006951781576E-1   -1.842155105473123E-1
 8.117230642800000E9     5.042474140219252E-1   -3.563936961107483E-2    1.158544840612298E-3    4.028098368214192E-3    1.198911176202959E-3    4.071220151899044E-3    4.119106616989944E-1   -1.843316509213493E-1
 8.117234150400000E9     5.042297569573572E-1   -3.597115218339356E-2    1.115397297313828E-3    4.049076480678635E-3    1.176961883230951E-3    4.108647169041307E-3    4.119458417737846E-1   -1.846994790847766E-1
 8.117237658000000E9     5.042053877825411E-1   -3.632220132012427E-2    1.142745467523604E-3    4.056896501994653E-3    1.203259609880870E-3    4.094571611130377E-3    4.118168958925366E-1   -1.848867944081854E-1
 8.117241165600000E9     5.043126354436567E-1   -3.650370127780301E-2    1.132651030344620E-3    4.070510767777822E-3    1.220544740819147E-3    4.105781969376282E-3    4.117776366845812E-1   -1.850837472626505E-1
 8.117244673200000E9     5.041705461344078E-1   -3.687075964816351E-2    1.164213886240023E-3    4.064439867726619E-3    1.250297499286656E-3    4.089466309316395E-3    4.115424805918074E-1   -1.853448197210910E-1
 8.117248180800000E9     5.040478907462644E-1   -3.706951769322189E-2    1.165710391033593E-3    4.055412336824135E-3    1.250574471143332E-3    4.139539537410852E-3    4.114220478855126E-1   -1.855585491147682E-1
 8.117251688400000E9     5.041468200215786E-1   -3.745237117511558E-2    1.170456218794945E-3    4.064045881647584E-3    1.226419828401193E-3    4.132884509642902E-3    4.114279641545581E-1   -1.858589169365203E-1
 8.117255196000000E9     5.040530384912196E-1   -3.766783940560034E-2    1.180569002482945E-3    4.079473975008061E-3    1.248085074159452E-3    4.177983774141429E-3    4.113997043676416E-1   -1.861446442843393E-1
