#  HZ   S   RI   R     50.00 
! Rohde & Schwarz Vector Network Analyzer 
! Rohde-Schwarz,ZNB20-2Port,1311601062101988,3.16
! Created: UTC 12/23/2023, 3:51:11 AM
! freq[Hz]                re:S11                  im:S11                  re:S21                  im:S21                  re:S12                  im:S12                  re:S22                  im:S22
 6.516843246000000E9    -2.313377135374985E-1   -2.005278046226229E-2    1.279619289898538E-2   -4.879552185414690E-3    1.282632416832251E-2   -4.381718292650902E-3    1.922865334920422E-1    5.132029852438506E-1
 6.516855612675000E9    -2.313428907226216E-1   -1.981658324025075E-2    1.284232880007010E-2   -5.050982826785188E-3    1.287139466851867E-2   -4.463709515803188E-3    1.931233178368911E-1    5.128942659177907E-1
 6.516867979350000E9    -2.311121004520428E-1   -1.955069138111395E-2    1.275243316202522E-2   -4.966411897949640E-3    1.301495039785837E-2   -4.523451788219538E-3    1.939940054940223E-1    5.124988981352578E-1
 6.516880346025000E9    -2.309502002473623E-1   -1.954961191511766E-2    1.292197126491656E-2   -4.917828354884471E-3    1.302467991337558E-2   -4.558599571128853E-3    1.946987060128284E-1    5.121128664027529E-1
 6.516892712700000E9    -2.308859185747504E-1   -1.929571310009407E-2    1.297293828761186E-2   -5.144733816068899E-3    1.300564156578726E-2   -4.574830507077129E-3    1.958621604571546E-1    5.118292998229803E-1
 6.516905079375000E9    -2.307787360280343E-1   -1.898011030207994E-2    1.298410421130381E-2   -4.984109766125586E-3    1.308233558242845E-2   -4.642513979144208E-3    1.968241341719059E-1    5.115919870566040E-1
 6.516917446050000E9    -2.307457057956857E-1   -1.892526883632197E-2    1.328286296892661E-2   -5.142989132802261E-3    1.330370879347473E-2   -4.734302675320536E-3    1.976866149141142E-1    5.112047681468710E-1
 6.516929812725000E9    -2.305182766854523E-1   -1.863049991086718E-2    1.323752782820428E-2   -5.320255459758844E-3    1.331636817132222E-2   -4.785507077524987E-3    1.985313640779210E-1    5.109074405344546E-1
 6.516942179400000E9    -2.304369720933111E-1   -1.853216274550143E-2    1.315150439788243E-2   -5.281765066675478E-3    1.330501383034988E-2   -4.842218076769937E-3    1.994761098195114E-1    5.104538132007848E-1
 6.516954546075000E9    -2.303119015208847E-1   -1.834580005837383E-2    1.319025017993132E-2   -5.287547857340867E-3    1.331475411130023E-2   -4.847366710041413E-3    2.003837245647563E-1    5.101780720804131E-1
 6.516966912750000E9    -2.301972260980609E-1   -1.810704256815955E-2    1.330549651896940E-2   -5.374191242237214E-3    1.335677590110686E-2   -4.869032402702033E-3    2.012424655711157E-1    5.099705191543248E-1
 6.516979279425000E9    -2.300255316078435E-1   -1.794707424674257E-2    1.330935921601339E-2   -5.388011051514034E-3    1.343116679337638E-2   -5.056514722168500E-3    2.022471641434751E-1    5.095057554379985E-1
 6.516991646100000E9    -2.298492376451347E-1   -1.772512215272291E-2    1.343266324208894E-2   -5.526301531712399E-3    1.354947774345482E-2   -5.002107298922013E-3    2.032262853546749E-1    5.091489373597485E-1
 6.517004012775000E9    -2.298787994570584E-1   -1.749781461009565E-2    1.346837149372091E-2   -5.444885697058683E-3    1.359951292928906E-2   -5.119467638498456E-3    2.039859799559255E-1    5.088149007886738E-1
 6.517016379450000E9    -2.297147544400652E-1   -1.744029417239002E-2    1.350238301244016E-2   -5.570078104616887E-3    1.365110462517261E-2   -5.174794848417620E-3    2.050183984440486E-1    5.083880286421686E-1
 6.517028746125000E9    -2.295072654481102E-1   -1.714539352785198E-2    1.364398195381066E-2   -5.592157536568382E-3    1.376128542253406E-2   -5.093377463902522E-3    2.059131991159589E-1    5.080224716689518E-1
 6.517041112800000E9    -2.294609820529562E-1   -1.694588576124864E-2    1.366836580321075E-2   -5.737811482551650E-3    1.370102934729190E-2   -5.216214243588393E-3    2.068327316968649E-1    5.075938177284494E-1
 6.517053479475000E9    -2.292600466291974E-1   -1.680604542533816E-2    1.378828375943206E-2   -5.848946569523479E-3    1.383563617004185E-2   -5.325829597893567E-3    2.077172728408091E-1    5.073235060757917E-1
 6.517065846150000E9    -2.291873690093399E-1   -1.668181645148898E-2    1.368110095096652E-2   -5.907840455114195E-3    1.380389617491966E-2   -5.429924335059817E-3    2.087540579733122E-1    5.068494214457926E-1
 6.517078212825000E9    -2.290687943118692E-1   -1.641317768390488E-2    1.381057329746653E-2   -5.925149447042665E-3    1.401731209848229E-2   -5.280856798508570E-3    2.096385131857369E-1    5.065912497421129E-1
 6.517090579500000E9    -2.289155479144297E-1   -1.613827036395833E-2    1.390547245426695E-2   -5.936907542087937E-3    1.398645691842830E-2   -5.413870795459528E-3    2.103750239620569E-1    5.061589793098110E-1
 6.517102946175000E9    -2.287157461854114E-1   -1.598490041171819E-2    1.398918635379043E-2   -6.043451088856710E-3    1.406226416714014E-2   -5.507730937184516E-3    2.112798208972299E-1    5.058062467833582E-1
 6.517115312850000E9    -2.286673632737268E-1   -1.585428445745342E-2    1.403300813501970E-2   -6.071777968736487E-3    1.415528230625056E-2   -5.582434981624764E-3    2.123458185112427E-1    5.055371670307014E-1
 6.517127679525000E9    -2.284286705833839E-1   -1.561602789328568E-2    1.420011155109571E-2   -6.135499650988544E-3    1.422984583028332E-2   -5.631981249776165E-3    2.131735300095158E-1    5.051342928226312E-1
 6.517140046200000E9    -2.283940101211688E-1   -1.547462896829768E-2    1.410945230039564E-2   -6.170994118149422E-3    1.428982417214824E-2   -5.715957171669167E-3    2.141325683469102E-1    5.047458897204992E-1
 6.517152412875000E9    -2.281710719118303E-1   -1.533727253163819E-2    1.415226962153056E-2   -6.318360284255239E-3    1.444839769738201E-2   -5.778869938399938E-3    2.150861672755937E-1    5.044057338989006E-1
 6.517164779550000E9    -2.281083590614296E-1   -1.501254724016680E-2    1.434700413592017E-2   -6.333028559629362E-3    1.438294522315377E-2   -5.862381381862094E-3    2.160994383818015E-1    5.040068108762289E-1
 6.517177146225000E9    -2.280308312865002E-1   -1.487259939096405E-2    1.440411479580855E-2   -6.359896774928303E-3    1.447186268318107E-2   -5.902603312650584E-3    2.169335349192544E-1    5.035358527542685E-1
 6.517189512900000E9    -2.277736046598949E-1   -1.476244936793585E-2    1.432524534006095E-2   -6.637777610993672E-3    1.453960605830819E-2   -6.010569075387840E-3    2.176272795127729E-1    5.032071644618686E-1
 6.517201879575000E9    -2.276814853557656E-1   -1.455815204593758E-2    1.447422888781010E-2   -6.573562729608607E-3    1.448612388875417E-2   -6.127068448220961E-3    2.187103290361516E-1    5.027173207566562E-1
 6.517214246250000E9    -2.275656317734868E-1   -1.438006333193375E-2    1.442381148583742E-2   -6.541662537647230E-3    1.471553904816722E-2   -6.101591809309559E-3    2.195936942161417E-1    5.024317277136677E-1
 6.517226612925000E9    -2.273467079662122E-1   -1.425588123793087E-2    1.456556317291057E-2   -6.635291438447780E-3    1.472540491134644E-2   -6.283222322794653E-3    2.205226698241959E-1    5.021720239985632E-1
 6.517238979600000E9    -2.272191009030383E-1   -1.413954079951194E-2    1.473811775186343E-2   -6.796049344519584E-3    1.484012217735203E-2   -6.172234937048452E-3    2.215807422378690E-1    5.016158946250912E-1
 6.517251346275000E9    -2.270756965859004E-1   -1.389338776298974E-2    1.471933585794177E-2   -6.809073719667402E-3    1.485700441320401E-2   -6.363250566972580E-3    2.225285017060008E-1    5.012706559300074E-1
 6.517263712950000E9    -2.269155255908109E-1   -1.361779918721195E-2    1.476662418807193E-2   -6.824400381555028E-3    1.493527503195384E-2   -6.404747493194632E-3    2.233598293509088E-1    5.008187075232321E-1
 6.517276079625000E9    -2.269277730345050E-1   -1.344537060646954E-2    1.493726037009203E-2   -6.903317894899523E-3    1.497131944442970E-2   -6.466534975908812E-3    2.243160387489387E-1    5.005214267903698E-1
 6.517288446300000E9    -2.267355340945475E-1   -1.328886714369873E-2    1.497753388014092E-2   -7.146046842568999E-3    1.517993814159672E-2   -6.591778284633801E-3    2.252318747662302E-1    4.999830206148822E-1
 6.517300812975000E9    -2.264732388149523E-1   -1.317542858857167E-2    1.499273524781939E-2   -7.193207032367260E-3    1.519333644262671E-2   -6.583512686313521E-3    2.259434143846437E-1    4.997034033759536E-1
 6.517313179650000E9    -2.263670800309569E-1   -1.299757050025626E-2    1.510377961931014E-2   -7.118807738191519E-3    1.526915924978219E-2   -6.608353776594791E-3    2.268142720647799E-1    4.993182465202388E-1
 6.517325546325000E9    -2.263407185065031E-1   -1.273682783663064E-2    1.517274276858109E-2   -7.253742639870664E-3    1.548574768810137E-2   -6.648200569499040E-3    2.277826600658809E-1    4.989300912227541E-1
 6.517337913000000E9    -2.261530378560400E-1   -1.266808789136707E-2    1.530030439019624E-2   -7.433927188903432E-3    1.546659190204290E-2   -6.832297585738574E-3    2.288692759079600E-1    4.984192350894651E-1
 6.517350279675000E9    -2.258742856078437E-1   -1.248840974725212E-2    1.521776700744354E-2   -7.557600808066090E-3    1.561874548757862E-2   -6.963707767390833E-3    2.297533911116393E-1    4.980715592881994E-1
 6.517362646350000E9    -2.257035772689941E-1   -1.235364634461818E-2    1.539333344943734E-2   -7.464973993741447E-3    1.556440243904119E-2   -6.937968815657980E-3    2.306675055031041E-1    4.976276289823424E-1
 6.517375013025000E9    -2.256362007755414E-1   -1.223959838052793E-2    1.551949867253078E-2   -7.558419849415113E-3    1.563763464945705E-2   -7.045626401035257E-3    2.316627417733811E-1    4.970928338903317E-1
 6.517387379700000E9    -2.253996605696123E-1   -1.198735679852714E-2    1.563008465933324E-2   -7.712937971123852E-3    1.571497608143088E-2   -7.165224513564841E-3    2.324543611530421E-1    4.967008279747174E-1
 6.517399746375000E9    -2.253187790279127E-1   -1.177996315144210E-2    1.558647698093617E-2   -7.810046920770918E-3    1.578884126899952E-2   -7.317462574867223E-3    2.333565035782051E-1    4.962848010667891E-1
 6.517412113050000E9    -2.251931707489145E-1   -1.168714025535735E-2    1.564614623853197E-2   -7.868460370246017E-3    1.589279589581688E-2   -7.354280197815825E-3    2.342189948310899E-1    4.959545637653827E-1
 6.517424479725000E9    -2.249933857972228E-1   -1.150542222971677E-2    1.567714239301855E-2   -7.797541191033720E-3    1.601046238622236E-2   -7.343421064489430E-3    2.351094809336803E-1    4.955431980431112E-1
 6.517436846400000E9    -2.247790095598874E-1   -1.126154498955660E-2    1.584968626237779E-2   -7.852924594327777E-3    1.613122915710419E-2   -7.477439844025550E-3    2.361480774581964E-1    4.950932251536800E-1
 6.517449213075000E9    -2.246732756759486E-1   -1.117009703455129E-2    1.591524003497992E-2   -8.199801241274805E-3    1.617065815850885E-2   -7.507607461176500E-3    2.370042032499197E-1    4.946811823107534E-1
 6.517461579750000E9    -2.245383855767262E-1   -1.100643221718291E-2    1.600017091074354E-2   -8.213011814924892E-3    1.619966316920093E-2   -7.608258679990591E-3    2.378499016696936E-1    4.940801491488255E-1
 6.517473946425000E9    -2.243512270480713E-1   -1.088366550581981E-2    1.616763137801957E-2   -8.275032737511751E-3    1.633906744766246E-2   -7.656572982979156E-3    2.388495341475381E-1    4.937345543353020E-1
 6.517486313100000E9    -2.242296761406702E-1   -1.080527183233241E-2    1.603687310350550E-2   -8.250599650099291E-3    1.640208588696946E-2   -7.802915068270442E-3    2.397994446192011E-1    4.931978065130804E-1
 6.517498679775000E9    -2.239614748833254E-1   -1.059519224597753E-2    1.633206976861172E-2   -8.410556105798045E-3    1.651770892879328E-2   -7.888972605337058E-3    2.406641172484061E-1    4.929815001344595E-1
 6.517511046450000E9    -2.238302743740444E-1   -1.047443856178930E-2    1.623353443819401E-2   -8.503608981561073E-3    1.666788850136659E-2   -7.854466432393202E-3    2.414600249627872E-1    4.923584018276205E-1
 6.517523413125000E9    -2.236507504367716E-1   -1.027087494118717E-2    1.642518985729628E-2   -8.585315808696902E-3    1.659586737210532E-2   -8.076393337466082E-3    2.424406174958341E-1    4.918236893629103E-1
 6.517535779800000E9    -2.235039823954700E-1   -1.015289727638053E-2    1.666047131519068E-2   -8.703824680188163E-3    1.678709070820343E-2   -8.238817964322905E-3    2.433820577657604E-1    4.915046327130587E-1
 6.517548146475000E9    -2.233137746546908E-1   -1.009204429409053E-2    1.671944873189240E-2   -8.863557897568576E-3    1.685616238235635E-2   -8.329681359697463E-3    2.444206459310610E-1    4.909838767249464E-1
 6.517560513150000E9    -2.231665921418567E-1   -9.841512952347427E-3    1.671654768959045E-2   -9.005076993050760E-3    1.688489059341606E-2   -8.371442574968711E-3    2.452139813366136E-1    4.905776959852980E-1
 6.517572879825000E9    -2.228954048733422E-1   -9.706853847669016E-3    1.687088912206572E-2   -8.986004617905248E-3    1.712883607410894E-2   -8.490687374994171E-3    2.461815699285591E-1    4.901217755992806E-1
 6.517585246500000E9    -2.228703088869099E-1   -9.545417291632476E-3    1.702390608562689E-2   -9.102197438635809E-3    1.715383404792748E-2   -8.552868978215052E-3    2.470932022416240E-1    4.896121285563306E-1
 6.517597613175000E9    -2.225113166121077E-1   -9.499958022683360E-3    1.688456141766687E-2   -9.159325398358275E-3    1.720132639393513E-2   -8.695431595961485E-3    2.479898520131522E-1    4.892101530406268E-1
 6.517609979850000E9    -2.224473183701260E-1   -9.275173034548480E-3    1.705520725819516E-2   -9.264602719620459E-3    1.738255215696762E-2   -8.761070258170755E-3    2.489009670307860E-1    4.886947911858187E-1
 6.517622346525000E9    -2.223991732327841E-1   -9.207900452602343E-3    1.713646721319621E-2   -9.452508757866830E-3    1.750283185014579E-2   -8.876628747644773E-3    2.499289219319587E-1    4.882079622214738E-1
 6.517634713200000E9    -2.220622629483638E-1   -8.983953643563516E-3    1.728782776120488E-2   -9.597994192659165E-3    1.761735810499029E-2   -8.987531019773289E-3    2.507789746364036E-1    4.877423293773447E-1
 6.517647079875000E9    -2.218145828645213E-1   -8.948306596541663E-3    1.735784384538872E-2   -9.655426967932337E-3    1.774495784054152E-2   -9.074026122217492E-3    2.515820878996465E-1    4.872875059341265E-1
 6.517659446550000E9    -2.217446141567929E-1   -8.739202767838607E-3    1.754142636883232E-2   -9.858623292315351E-3    1.769308226006634E-2   -9.208462320126553E-3    2.526185748228423E-1    4.869280991792460E-1
 6.517671813225000E9    -2.215916076075831E-1   -8.640246955173857E-3    1.745860072436850E-2   -9.853333087542987E-3    1.786951576070066E-2   -9.340742252186625E-3    2.534408078174235E-1    4.862590934157643E-1
 6.517684179900000E9    -2.214222921098528E-1   -8.513045264927710E-3    1.762827390105459E-2   -1.006220702964839E-2    1.804151395822581E-2   -9.504474161004970E-3    2.544357146771248E-1    4.857461799974614E-1
 6.517696546575000E9    -2.210878524001456E-1   -8.331112409672915E-3    1.779663654745740E-2   -1.020604624244749E-2    1.810756585771606E-2   -9.522833772914895E-3    2.553931415847311E-1    4.852838930174809E-1
 6.517708913250000E9    -2.209138644627443E-1   -8.194403481808556E-3    1.785534172542749E-2   -1.024112240200975E-2    1.812425048421016E-2   -9.713916444912124E-3    2.563627236069393E-1    4.847985040976016E-1
 6.517721279925000E9    -2.207061402460730E-1   -8.140166353042077E-3    1.787747136747737E-2   -1.025997469955989E-2    1.819579544132540E-2   -9.902521530646288E-3    2.571586251337915E-1    4.843987057795364E-1
 6.517733646600000E9    -2.205946114883561E-1   -7.960671534954691E-3    1.814219557018254E-2   -1.047401783473404E-2    1.833306616049605E-2   -9.941778895201541E-3    2.581683204627316E-1    4.838899683552958E-1
 6.517746013275000E9    -2.203798790761807E-1   -7.990716680338270E-3    1.821236685103859E-2   -1.074726975940561E-2    1.848150436486659E-2   -1.006991857733100E-2    2.591049340717163E-1    4.834627785138221E-1
 6.517758379950000E9    -2.201385826623728E-1   -7.941319181241207E-3    1.824615740766796E-2   -1.071014099759100E-2    1.847522584297107E-2   -1.015290951570732E-2    2.598671923905452E-1    4.828804010557262E-1
 6.517770746625000E9    -2.199421265828345E-1   -7.723504222150985E-3    1.847259850547433E-2   -1.090628558056270E-2    1.866616681953748E-2   -1.029984276778519E-2    2.608982748675669E-1    4.823190327883332E-1
 6.517783113300000E9    -2.197027224712125E-1   -7.643130473575369E-3    1.849391717768990E-2   -1.113170805757574E-2    1.886313967172463E-2   -1.042098631111962E-2    2.618186936963396E-1    4.818111330069093E-1
 6.517795479975000E9    -2.193707720973517E-1   -7.546345113047855E-3    1.860676667502145E-2   -1.112097100063639E-2    1.896574503331404E-2   -1.054216564381207E-2    2.626854132220632E-1    4.813291719921932E-1
 6.517807846650000E9    -2.192497351856185E-1   -7.351565016765022E-3    1.875427035130516E-2   -1.133535132230587E-2    1.904716066663898E-2   -1.074267623004169E-2    2.636977614643388E-1    4.806651550707942E-1
 6.517820213325000E9    -2.190486627735957E-1   -7.227541544570219E-3    1.882621883966169E-2   -1.137514337355091E-2    1.916116911721906E-2   -1.084461489371196E-2    2.645312606801177E-1    4.802119498122006E-1
 6.517832580000000E9    -2.189211233210421E-1   -7.097144285166404E-3    1.908047910533734E-2   -1.157168485858585E-2    1.933369060223648E-2   -1.094318475440867E-2    2.654302653550743E-1    4.798228084211477E-1
 6.517844946675000E9    -2.187176460549927E-1   -7.122246332562787E-3    1.909683561700995E-2   -1.177258191024787E-2    1.947019924299827E-2   -1.105347566783921E-2    2.664296368815628E-1    4.792010470639271E-1
 6.517857313350000E9    -2.182953053085185E-1   -7.127295960577626E-3    1.918505609219799E-2   -1.188613808469413E-2    1.957809837576280E-2   -1.124369172997379E-2    2.672936528214928E-1    4.785757941955300E-1
 6.517869680025000E9    -2.181860410447740E-1   -7.018390512687436E-3    1.936962384721704E-2   -1.216681544502234E-2    1.966380722731904E-2   -1.140849562193796E-2    2.684275541804171E-1    4.780903060373307E-1
 6.517882046700000E9    -2.179017869416935E-1   -6.793638618331437E-3    1.941564305144337E-2   -1.222490767706360E-2    1.989892248210607E-2   -1.154308050595889E-2    2.691623503086229E-1    4.776468370483033E-1
 6.517894413375000E9    -2.176390126024844E-1   -6.746991790636904E-3    1.954578597834118E-2   -1.232676626183509E-2    1.996405954388896E-2   -1.179271734837074E-2    2.701857179141290E-1    4.769163208273225E-1
 6.517906780050000E9    -2.175131891579765E-1   -6.746260401552434E-3    1.968687104686180E-2   -1.250143337626363E-2    2.009348909718405E-2   -1.190549929243663E-2    2.710317712738201E-1    4.764677405573671E-1
 6.517919146725000E9    -2.172663235030603E-1   -6.568751505213305E-3    1.972948378152039E-2   -1.265179263272614E-2    2.032830545502556E-2   -1.202176386327403E-2    2.718988300070385E-1    4.758598954786336E-1
 6.517931513400000E9    -2.170565219708612E-1   -6.595374117082315E-3    1.998021349559299E-2   -1.271704655543953E-2    2.032578844248252E-2   -1.223196531411159E-2    2.728399536642362E-1    4.752281315791900E-1
 6.517943880075000E9    -2.167485941540705E-1   -6.519258221181341E-3    2.008621115366001E-2   -1.301208368131934E-2    2.050376311544244E-2   -1.241028109056253E-2    2.739100436905411E-1    4.749106158996107E-1
 6.517956246750000E9    -2.165499198889977E-1   -6.416546480748447E-3    2.022794414043156E-2   -1.324751778290722E-2    2.076245340928747E-2   -1.253394203978087E-2    2.747225884546750E-1    4.742004426642760E-1
