#  HZ   S   RI   R     50.00 
! Rohde & Schwarz Vector Network Analyzer 
! Rohde-Schwarz,ZNB20-2Port,1311601062101988,3.16
! Created: UTC 3/20/2024, 11:43:34 AM
! freq[Hz]                re:S11                  im:S11                  re:S21                  im:S21                  re:S12                  im:S12                  re:S22                  im:S22
 8.116873607000000E9     5.062659148532787E-1   -7.313097055330299E-3    7.342968214286127E-4    3.687002618808883E-3    8.327539142817710E-4    3.718266940272509E-3    4.204373487185827E-1   -1.608895708779030E-1
 8.116877385575000E9     5.063686853561565E-1   -7.655397302683355E-3    7.670642215520727E-4    3.681748369838915E-3    7.594025895645394E-4    3.739063281903736E-3    4.204182457404836E-1   -1.613193240571495E-1
 8.116881164150000E9     5.062828880087084E-1   -7.843239943279354E-3    7.721979429729276E-4    3.688852907710911E-3    8.322498545488025E-4    3.758299840934533E-3    4.206081567754903E-1   -1.615218625325170E-1
 8.116884942725000E9     5.062736505645266E-1   -8.309025475939277E-3    7.809602290292724E-4    3.697945436743556E-3    8.317388189898427E-4    3.717633402301585E-3    4.204087800978472E-1   -1.617499027290902E-1
 8.116888721300000E9     5.062103358534874E-1   -8.513890166426808E-3    7.813487188976347E-4    3.705411849038906E-3    8.246902951810781E-4    3.765224799653823E-3    4.202637776164137E-1   -1.621168369693359E-1
 8.116892499875000E9     5.062268268116672E-1   -8.860598286855230E-3    7.992764749632466E-4    3.695718637637559E-3    8.464863120092181E-4    3.751850759135118E-3    4.202195940894543E-1   -1.622830463958868E-1
 8.116896278450000E9     5.062369251900963E-1   -9.115318361950777E-3    7.725891744649029E-4    3.705376956767875E-3    8.539719405763770E-4    3.753205294604384E-3    4.201792081128488E-1   -1.625986946860421E-1
 8.116900057025000E9     5.061881311356649E-1   -9.370211089972505E-3    7.818611472820379E-4    3.714641860194803E-3    8.472614298563397E-4    3.746682210644526E-3    4.200317515774914E-1   -1.629320132515854E-1
 8.116903835600000E9     5.062415664232709E-1   -9.692459293170148E-3    7.771542470880876E-4    3.734854172668970E-3    8.442719891006360E-4    3.770509919609991E-3    4.198414710617900E-1   -1.630937297186811E-1
 8.116907614175000E9     5.061610345031898E-1   -1.005489832914749E-2    7.784402856330626E-4    3.726900610809807E-3    8.635186236749322E-4    3.739228370596110E-3    4.198027048447468E-1   -1.632265874991303E-1
 8.116911392750000E9     5.061253326928297E-1   -1.018490193525166E-2    7.806096897592495E-4    3.703038635246788E-3    8.532069252090996E-4    3.773186559098798E-3    4.197842897529073E-1   -1.636595976378075E-1
 8.116915171325000E9     5.061541891839143E-1   -1.060869268961747E-2    8.110410054508891E-4    3.700606844442175E-3    8.299158558966234E-4    3.759255780970768E-3    4.196692437212586E-1   -1.637821276512913E-1
 8.116918949900000E9     5.062297926854926E-1   -1.086888250302868E-2    7.906227183956396E-4    3.695924204918101E-3    8.411729735645784E-4    3.779560784193657E-3    4.195612981939152E-1   -1.641085449688502E-1
 8.116922728475000E9     5.061387616184372E-1   -1.120865549036219E-2    8.002578979619673E-4    3.708167934681005E-3    8.667149517104392E-4    3.771384858959015E-3    4.194096521110425E-1   -1.643916301948132E-1
 8.116926507050000E9     5.060435550584845E-1   -1.144271889996042E-2    7.953893896087742E-4    3.703991043927587E-3    8.375953596783805E-4    3.789601962749646E-3    4.192829666456503E-1   -1.645221039639620E-1
 8.116930285625000E9     5.060565038787461E-1   -1.190855680238644E-2    8.219914985586018E-4    3.705654631787275E-3    8.566140712604218E-4    3.756368953887855E-3    4.193623514556665E-1   -1.648069393689690E-1
 8.116934064200000E9     5.061212665566553E-1   -1.203777455376434E-2    8.083547922127638E-4    3.734594663962066E-3    8.641345233538906E-4    3.765173300642063E-3    4.191000174035090E-1   -1.651320672435024E-1
 8.116937842775000E9     5.060612409886385E-1   -1.230136609199798E-2    8.300425946875997E-4    3.715713902371853E-3    8.889480059990264E-4    3.778290556132820E-3    4.192388454242452E-1   -1.654037776428915E-1
 8.116941621350000E9     5.060526644049164E-1   -1.270055436798055E-2    8.181045865485838E-4    3.718006945231711E-3    8.717095162774607E-4    3.765921655242520E-3    4.189946933636843E-1   -1.656110793445159E-1
 8.116945399925000E9     5.060397767042398E-1   -1.300808331693788E-2    8.258634225008416E-4    3.740426593922895E-3    8.931633241030576E-4    3.809263091216384E-3    4.189432721095132E-1   -1.657338089262458E-1
 8.116949178500000E9     5.060710347673703E-1   -1.324738341446471E-2    8.330610362824673E-4    3.720763954774375E-3    8.864204329896284E-4    3.748314702390013E-3    4.188728011675162E-1   -1.661878034616836E-1
 8.116952957075000E9     5.059689801295981E-1   -1.359087865414663E-2    8.344940365866065E-4    3.742121444157605E-3    8.989950609593851E-4    3.749765132749112E-3    4.185734495133777E-1   -1.663477496911299E-1
 8.116956735650000E9     5.058171483461814E-1   -1.392773997304291E-2    8.321733629655366E-4    3.739147883957364E-3    8.564438381240980E-4    3.778554292602623E-3    4.187230683611267E-1   -1.665010600558467E-1
 8.116960514225000E9     5.060608084269471E-1   -1.410518894497770E-2    8.232171578674106E-4    3.760478178564944E-3    8.878791809368795E-4    3.774230281624715E-3    4.186206954486675E-1   -1.666700234341508E-1
 8.116964292800000E9     5.058781374727093E-1   -1.446551721934196E-2    8.086737944075112E-4    3.734949456767292E-3    8.942189085541925E-4    3.786823790506322E-3    4.185560312746784E-1   -1.670278323590785E-1
 8.116968071375000E9     5.059141492988285E-1   -1.461929355373746E-2    8.409763045546249E-4    3.751403747244367E-3    8.669914238055662E-4    3.792757809786690E-3    4.183446034842097E-1   -1.673955662055177E-1
 8.116971849950000E9     5.058909641678712E-1   -1.495886577865698E-2    8.470069172341305E-4    3.748075782322345E-3    9.085539678095837E-4    3.773441493850314E-3    4.183686826534835E-1   -1.675967220920353E-1
 8.116975628525000E9     5.058853422158107E-1   -1.536972455886824E-2    8.218507405592962E-4    3.763486378287649E-3    9.084003447172464E-4    3.792058437750109E-3    4.182877230191806E-1   -1.677272494327990E-1
 8.116979407100000E9     5.058199486467073E-1   -1.578418056670476E-2    8.440255707012521E-4    3.755279130608763E-3    9.061554956611152E-4    3.805956369952800E-3    4.181985645445102E-1   -1.679589581618745E-1
 8.116983185675000E9     5.058417556828549E-1   -1.603051681931917E-2    8.423669803988034E-4    3.752744256814435E-3    9.319865434044780E-4    3.819115821076369E-3    4.180393450229126E-1   -1.683026948185655E-1
 8.116986964250000E9     5.057522409059145E-1   -1.626099298469323E-2    8.614000094940429E-4    3.763528262562126E-3    9.021051679893547E-4    3.792349171865082E-3    4.179283211855151E-1   -1.685441681553773E-1
 8.116990742825000E9     5.057779001413454E-1   -1.646425390497093E-2    8.391041473971289E-4    3.743964685780296E-3    9.105060172841401E-4    3.828134145084588E-3    4.178688376355942E-1   -1.687699332386222E-1
 8.116994521400000E9     5.058534128711838E-1   -1.676119440845449E-2    8.730490780878730E-4    3.753103575567522E-3    9.390162609267409E-4    3.821802211177810E-3    4.177718370325698E-1   -1.689518174611829E-1
 8.116998299975000E9     5.058442039389155E-1   -1.709859568492959E-2    8.842164892588870E-4    3.780089799494223E-3    9.275571782377470E-4    3.806898743836123E-3    4.178410555244886E-1   -1.691955924029214E-1
 8.117002078550000E9     5.059181756408309E-1   -1.748431481916364E-2    8.829534858595361E-4    3.758858666461232E-3    9.397447384340310E-4    3.823296651282673E-3    4.177536363676249E-1   -1.695784644129444E-1
 8.117005857125000E9     5.057872824317030E-1   -1.764394547121967E-2    8.359142489483733E-4    3.771191403502541E-3    9.219863602438815E-4    3.840383945904941E-3    4.175150349137301E-1   -1.696200468729578E-1
 8.117009635700000E9     5.057758389159712E-1   -1.812744908900171E-2    8.790819351548533E-4    3.776180429528566E-3    8.898854949982059E-4    3.838609168752215E-3    4.174833264468477E-1   -1.700265163613799E-1
 8.117013414275000E9     5.057509133578062E-1   -1.827014547271221E-2    8.975960102027601E-4    3.751433117641201E-3    9.672047608523540E-4    3.826291388123281E-3    4.173923132970824E-1   -1.702889131330126E-1
 8.117017192850000E9     5.057809336364245E-1   -1.856797268376752E-2    8.938223103489609E-4    3.785551210607970E-3    9.187770037042592E-4    3.826909801255976E-3    4.173739986027892E-1   -1.704929901016598E-1
 8.117020971425000E9     5.057202372717445E-1   -1.889196790618620E-2    8.985073275173161E-4    3.809664766108502E-3    9.251211853047250E-4    3.848081556979890E-3    4.172973827191979E-1   -1.707918165332501E-1
 8.117024750000000E9     5.057037379239363E-1   -1.925104711432754E-2    8.868405451712900E-4    3.801910902355311E-3    9.426317593362997E-4    3.873884838204315E-3    4.170502865914037E-1   -1.710208824374319E-1
 8.117028528575000E9     5.058097303236546E-1   -1.943283678007083E-2    8.997965015035785E-4    3.757619912609908E-3    9.664372036045227E-4    3.836887010457085E-3    4.170709860561840E-1   -1.711765330584377E-1
 8.117032307150000E9     5.056664517941177E-1   -1.975430895649422E-2    9.210770747904993E-4    3.782675661895179E-3    9.293615912725531E-4    3.864346567572664E-3    4.169231016370218E-1   -1.715445268728945E-1
 8.117036085725000E9     5.055777165673607E-1   -2.022699945872599E-2    9.047404085899410E-4    3.781103538384018E-3    9.891542007751568E-4    3.840924577938471E-3    4.168327909079613E-1   -1.717517181738645E-1
 8.117039864300000E9     5.056440315181597E-1   -2.025560042388069E-2    9.301582996302320E-4    3.812668828181858E-3    9.578610085633075E-4    3.901132447119538E-3    4.167312882699608E-1   -1.720390097323397E-1
 8.117043642875000E9     5.055254629822042E-1   -2.074778372127531E-2    9.235920947992160E-4    3.822426526669967E-3    9.623699229311851E-4    3.849357966667665E-3    4.167050915509095E-1   -1.722739298790639E-1
 8.117047421450000E9     5.056109202371840E-1   -2.100467450550070E-2    8.984413471148017E-4    3.788017645647594E-3    9.961608942758674E-4    3.886441306836421E-3    4.165962851737037E-1   -1.724496588355228E-1
 8.117051200025000E9     5.055584731653223E-1   -2.141501742184574E-2    9.248768676636592E-4    3.804977216509999E-3    9.477703652205290E-4    3.855102330699444E-3    4.164836245272096E-1   -1.726514315973708E-1
 8.117054978600000E9     5.054836421156278E-1   -2.161797108763227E-2    9.429171533137439E-4    3.803760488599304E-3    9.710128718380594E-4    3.877558870362525E-3    4.163000554071907E-1   -1.729593109943728E-1
 8.117058757175000E9     5.053940780489377E-1   -2.187690448415577E-2    9.053463670264598E-4    3.781013775171351E-3    9.839970432278103E-4    3.892124698025178E-3    4.163747072128861E-1   -1.731451346943464E-1
 8.117062535750000E9     5.054435749895783E-1   -2.205466390415753E-2    9.348393818370423E-4    3.809419961159467E-3    9.999466687299001E-4    3.883318660757014E-3    4.161881093433537E-1   -1.735468372268567E-1
 8.117066314325000E9     5.054985615397807E-1   -2.247992844368421E-2    9.179307909238294E-4    3.827279480196248E-3    1.004677410053446E-3    3.882280162255533E-3    4.160300530856659E-1   -1.736973783651328E-1
 8.117070092900000E9     5.054549572650181E-1   -2.276606271994588E-2    9.393260312251385E-4    3.833292460562344E-3    1.004452401747140E-3    3.880094135826301E-3    4.160790567951848E-1   -1.739722321444654E-1
 8.117073871475000E9     5.054719182917666E-1   -2.313055513473481E-2    9.231111718356227E-4    3.807028311994782E-3    9.630502633543908E-4    3.879778043160535E-3    4.159155917655445E-1   -1.742710695655589E-1
 8.117077650050000E9     5.053300197302190E-1   -2.339968661996388E-2    9.508659041331226E-4    3.835077752938574E-3    1.014548513162149E-3    3.888219374207933E-3    4.157841070954832E-1   -1.743684931785888E-1
 8.117081428625000E9     5.053727099813529E-1   -2.364312189062045E-2    9.584292509399713E-4    3.823900019360568E-3    1.013194870322421E-3    3.918231907694421E-3    4.156225101136811E-1   -1.747643261000283E-1
 8.117085207200000E9     5.053814086353559E-1   -2.390756421353007E-2    9.706191803070835E-4    3.843202320383437E-3    1.023000838847423E-3    3.922467252473957E-3    4.157740716733295E-1   -1.749346782543834E-1
 8.117088985775000E9     5.053490449636985E-1   -2.439334594717671E-2    9.639653625913825E-4    3.830264965262884E-3    9.988124683796128E-4    3.881247222549243E-3    4.155731669926780E-1   -1.752250771223537E-1
 8.117092764350000E9     5.054415211092401E-1   -2.445200619235622E-2    9.349149588988357E-4    3.839493480871155E-3    1.050388399104915E-3    3.920546249233672E-3    4.155782258724872E-1   -1.754313646283624E-1
 8.117096542925000E9     5.052809910320607E-1   -2.501281141236828E-2    9.566705811393779E-4    3.881589220739636E-3    1.060560557577824E-3    3.914880238794154E-3    4.154488078774108E-1   -1.756657419251261E-1
 8.117100321500000E9     5.053749432728770E-1   -2.516050371655693E-2    9.863454144905927E-4    3.895378834075335E-3    1.025598951727982E-3    3.944467286703512E-3    4.152657016154956E-1   -1.758782882128772E-1
 8.117104100075000E9     5.051983663328119E-1   -2.547800905968161E-2    9.731002353356850E-4    3.838264934678694E-3    1.029961051430230E-3    3.917553995169687E-3    4.151861084674237E-1   -1.761767268676151E-1
 8.117107878650000E9     5.052276868105320E-1   -2.585340209124226E-2    9.737865546440324E-4    3.842351518450547E-3    1.014026369241281E-3    3.920925469620744E-3    4.150860241875250E-1   -1.764051067924904E-1
 8.117111657225000E9     5.052643234816009E-1   -2.616995036981751E-2    1.000946255182189E-3    3.844588555557086E-3    1.041295104506178E-3    3.924177229268696E-3    4.150315086601504E-1   -1.767190452811338E-1
 8.117115435800000E9     5.052253578872730E-1   -2.637365680648541E-2    9.852754371524849E-4    3.869185782876391E-3    1.047003114613158E-3    3.951981175735536E-3    4.149150357967969E-1   -1.769314390014262E-1
 8.117119214375000E9     5.050401984423157E-1   -2.669529302984322E-2    9.671323172924253E-4    3.841759700916865E-3    1.027573791165094E-3    3.900843632015477E-3    4.148801379140102E-1   -1.773150395668786E-1
 8.117122992950000E9     5.050981284321131E-1   -2.693690934407849E-2    9.674738862212494E-4    3.899100437302506E-3    1.082810844315847E-3    3.951262164705998E-3    4.148873659764052E-1   -1.773698966528672E-1
 8.117126771525000E9     5.050612457507181E-1   -2.732988457769898E-2    9.695937913977077E-4    3.884155176696922E-3    1.048040083608897E-3    3.957565395012243E-3    4.146652212554705E-1   -1.776572071356711E-1
 8.117130550100000E9     5.050825585631182E-1   -2.749343764750635E-2    1.007855754948869E-3    3.872281951806915E-3    1.067706825395136E-3    3.941870446180864E-3    4.145777777585616E-1   -1.779687614366731E-1
 8.117134328675000E9     5.050876054903417E-1   -2.798709637433114E-2    1.002925434645128E-3    3.904956029730063E-3    1.065559657034414E-3    3.974941524935310E-3    4.144947563705474E-1   -1.782212351985878E-1
 8.117138107250000E9     5.050629752850517E-1   -2.812041062363448E-2    1.011711230446620E-3    3.896481828947967E-3    1.070510014069090E-3    3.971276023690068E-3    4.142496689590094E-1   -1.782909936544986E-1
 8.117141885825000E9     5.050317406832530E-1   -2.852166846824442E-2    1.001416698513581E-3    3.916207438641070E-3    1.088337225254307E-3    3.985297836087417E-3    4.142693541568886E-1   -1.785959944639207E-1
 8.117145664400000E9     5.049674554185096E-1   -2.880697437816408E-2    1.034118706834964E-3    3.925636023293435E-3    1.097744144637753E-3    3.960767774304047E-3    4.140319168975477E-1   -1.789004494862008E-1
 8.117149442975000E9     5.049761876118294E-1   -2.903478230651967E-2    1.033882912145324E-3    3.910620887815514E-3    1.076858350789177E-3    3.973584830253476E-3    4.140575024170099E-1   -1.792702740021496E-1
 8.117153221550000E9     5.049562953343504E-1   -2.941599135301930E-2    1.030316744939295E-3    3.906861273661371E-3    1.119215033996471E-3    3.969245824649993E-3    4.140014521630891E-1   -1.793906841728427E-1
 8.117157000125000E9     5.048505216355867E-1   -2.969081186718111E-2    1.053054467055535E-3    3.951636804402608E-3    1.114878281260435E-3    3.994962085551647E-3    4.138737331914921E-1   -1.796637179350951E-1
 8.117160778700000E9     5.048111735029371E-1   -3.017660285099952E-2    1.041426745903413E-3    3.925482428786997E-3    1.092008606060254E-3    4.010810425969188E-3    4.138475511028879E-1   -1.797805648166127E-1
 8.117164557275000E9     5.048058938509542E-1   -3.037285747318727E-2    1.078378492132273E-3    3.950806193215332E-3    1.123559009356976E-3    3.987492181180232E-3    4.136936170164927E-1   -1.801188688107780E-1
 8.117168335850000E9     5.047981482632258E-1   -3.061869533144848E-2    1.043769039777264E-3    3.943632753391540E-3    1.114966598984362E-3    3.985070754258677E-3    4.135321316889009E-1   -1.804720158685081E-1
 8.117172114425000E9     5.047989898850155E-1   -3.103446323832979E-2    1.084000920881000E-3    3.957986441150555E-3    1.147774644945207E-3    4.019483805681279E-3    4.136191785728764E-1   -1.806516039568156E-1
 8.117175893000000E9     5.047044199939749E-1   -3.121359221860924E-2    1.078767506587751E-3    3.973507896408644E-3    1.116759051159180E-3    4.007335062811691E-3    4.134835845793733E-1   -1.809150086328790E-1
 8.117179671575000E9     5.046980214837010E-1   -3.162862779607200E-2    1.080084358332892E-3    3.928634229258796E-3    1.118387999880100E-3    3.995351298730946E-3    4.132854641153706E-1   -1.812745328361898E-1
 8.117183450150000E9     5.046455841675810E-1   -3.183403309400932E-2    1.080256251447221E-3    3.947733443974082E-3    1.142136891179800E-3    4.038744354501872E-3    4.132518736120153E-1   -1.814459136667442E-1
 8.117187228725000E9     5.045687879201078E-1   -3.220423436371842E-2    1.057095643244488E-3    3.962875586192792E-3    1.164074050792006E-3    4.026591172360878E-3    4.130852475869604E-1   -1.815953042011049E-1
 8.117191007300000E9     5.045811355872745E-1   -3.254292302673389E-2    1.081802730776296E-3    3.972510837437890E-3    1.191173487796579E-3    4.022471673427523E-3    4.129725772775308E-1   -1.817082319394446E-1
 8.117194785875000E9     5.046467386191597E-1   -3.281673330221074E-2    1.074337867169697E-3    3.966964888633888E-3    1.150238360954505E-3    4.030669216314935E-3    4.128811859747445E-1   -1.820323255952978E-1
 8.117198564450000E9     5.045427655884692E-1   -3.314125660490235E-2    1.086662940429107E-3    4.004452335669996E-3    1.167806655107437E-3    4.017311945701283E-3    4.127921735423792E-1   -1.823699960018141E-1
 8.117202343025000E9     5.044447000696646E-1   -3.332828023959721E-2    1.107268289936500E-3    4.014481500236412E-3    1.143604596827343E-3    4.058823175711235E-3    4.126254838910871E-1   -1.825836816938298E-1
 8.117206121600000E9     5.044712142612139E-1   -3.381129343375899E-2    1.109511038442686E-3    3.988696589589163E-3    1.198430300737895E-3    4.046288375041774E-3    4.126508807733577E-1   -1.828905796955287E-1
 8.117209900175000E9     5.043622936240176E-1   -3.413022413514681E-2    1.109092066421782E-3    4.029935344133079E-3    1.163395974176055E-3    4.099258550003199E-3    4.125001935720852E-1   -1.830883202014985E-1
 8.117213678750000E9     5.043575351363675E-1   -3.438257018166160E-2    1.122973471611363E-3    4.014390742700353E-3    1.191396222642078E-3    4.106030851676105E-3    4.122590409258701E-1   -1.832859385149516E-1
