#  HZ   S   RI   R     50.00 
! Rohde & Schwarz Vector Network Analyzer 
! Rohde-Schwarz,ZNB20-2Port,1311601062101988,3.16
! Created: UTC 12/23/2023, 3:51:28 AM
! freq[Hz]                re:S11                  im:S11                  re:S21                  im:S21                  re:S12                  im:S12                  re:S22                  im:S22
 7.836808115000000E9     5.638561107862265E-1    4.839815017411429E-2    1.091683172368438E-3    3.761937122803915E-3    1.092714704305879E-3    3.701808376883075E-3    4.735379009781036E-1   -2.582647473604761E-1
 7.836842038600000E9     5.642258512785099E-1    4.627378224234032E-2    1.134029169136390E-3    3.785913431050537E-3    1.158310004750733E-3    3.692737498125178E-3    4.723527365860002E-1   -2.604645689751874E-1
 7.836875962200000E9     5.644471108672862E-1    4.394541629014626E-2    1.159589579195085E-3    3.787904186600175E-3    1.194829795249342E-3    3.683164811433532E-3    4.711228595292297E-1   -2.625237779935968E-1
 7.836909885800000E9     5.646844035367173E-1    4.177224020302506E-2    1.163426225849734E-3    3.787120646460570E-3    1.189116185506559E-3    3.711894567400599E-3    4.701886666875340E-1   -2.644511578027978E-1
 7.836943809400000E9     5.647510175619198E-1    3.945873472931261E-2    1.157444868692790E-3    3.771999772240852E-3    1.192078995115417E-3    3.680800963270217E-3    4.690042047286581E-1   -2.667497463699129E-1
 7.836977733000000E9     5.650198773315305E-1    3.731176102785586E-2    1.213963387801461E-3    3.775277453523311E-3    1.220875735764647E-3    3.709455030646668E-3    4.677931187454554E-1   -2.688512942419811E-1
 7.837011656600000E9     5.650988843295466E-1    3.502278339430943E-2    1.215577896704181E-3    3.767050032244277E-3    1.242799613834640E-3    3.706460356747578E-3    4.666524043201140E-1   -2.708244216868941E-1
 7.837045580200000E9     5.652442641164792E-1    3.269589124257261E-2    1.251068933274302E-3    3.768937606580220E-3    1.205270825319647E-3    3.702560794681424E-3    4.655417399011676E-1   -2.728247623036200E-1
 7.837079503800000E9     5.654320690747007E-1    3.047210090658783E-2    1.251689821738939E-3    3.769548109443786E-3    1.282367985819509E-3    3.654805495422951E-3    4.640977374740680E-1   -2.749944491973182E-1
 7.837113427400000E9     5.656140224939065E-1    2.819213990295735E-2    1.250668979060960E-3    3.773007038320584E-3    1.286257023816443E-3    3.687279617809462E-3    4.630452333217115E-1   -2.770411267216260E-1
 7.837147351000000E9     5.655267033199327E-1    2.599700209291306E-2    1.303259677279223E-3    3.747978416500254E-3    1.315126635479988E-3    3.695241367893716E-3    4.618024353761815E-1   -2.791523884133594E-1
 7.837181274600000E9     5.658947991892023E-1    2.380431945908703E-2    1.309515215736581E-3    3.749073023317136E-3    1.329000541724059E-3    3.690052401562989E-3    4.605070010001386E-1   -2.812141264550792E-1
 7.837215198200000E9     5.658719014892477E-1    2.148207059664223E-2    1.326209823385659E-3    3.777053399867533E-3    1.343512202245439E-3    3.686579609203362E-3    4.594648683326985E-1   -2.831763628494579E-1
 7.837249121800000E9     5.660215893575412E-1    1.925710875541923E-2    1.333431499504882E-3    3.775434808339042E-3    1.392140551060892E-3    3.680568634358288E-3    4.580673479971140E-1   -2.851535489180770E-1
 7.837283045400000E9     5.660975120698037E-1    1.711476050537525E-2    1.375967806520468E-3    3.769690817055375E-3    1.415141138990206E-3    3.712840044841193E-3    4.567787603075034E-1   -2.871092132401549E-1
 7.837316969000000E9     5.662128779785874E-1    1.475431630932474E-2    1.380796017042175E-3    3.773488576587108E-3    1.426034221589917E-3    3.699092221170351E-3    4.556125104850351E-1   -2.892883153168428E-1
 7.837350892600000E9     5.661635602004137E-1    1.246855614337867E-2    1.396309465377863E-3    3.768597874129800E-3    1.423105253788041E-3    3.684555637552667E-3    4.543353406999338E-1   -2.910937124258935E-1
 7.837384816200000E9     5.664217603388054E-1    1.027633418745975E-2    1.432295795084446E-3    3.773981663197484E-3    1.418168946546905E-3    3.701372507067414E-3    4.529473449003228E-1   -2.931337025192819E-1
 7.837418739800000E9     5.662822577110729E-1    8.042029718434760E-3    1.433547708877552E-3    3.771244863893758E-3    1.468808829667562E-3    3.702572907044650E-3    4.516281329696071E-1   -2.953343776906918E-1
 7.837452663400000E9     5.664196267949436E-1    5.759422852216927E-3    1.480777017312598E-3    3.749163750514007E-3    1.464294313509140E-3    3.691719911685030E-3    4.504441729791166E-1   -2.971461868402741E-1
 7.837486587000000E9     5.663112553888352E-1    3.540460892928905E-3    1.500828049927467E-3    3.771978680756465E-3    1.503246511592726E-3    3.699977792391936E-3    4.490991602287813E-1   -2.991725657693462E-1
 7.837520510600000E9     5.665668769455005E-1    1.202512113462965E-3    1.491101867172672E-3    3.778701231846898E-3    1.506853005121896E-3    3.684382657846033E-3    4.477667617669759E-1   -3.012038695876273E-1
 7.837554434200000E9     5.665410094259385E-1   -9.675721731154333E-4    1.509467277628937E-3    3.759107193275150E-3    1.553262691553699E-3    3.679688027223196E-3    4.466391549733721E-1   -3.033481147277484E-1
 7.837588357800000E9     5.665416403751655E-1   -3.389011509307571E-3    1.526631292051032E-3    3.744584918858474E-3    1.592360904477602E-3    3.678809760466413E-3    4.452196947621351E-1   -3.050824662351750E-1
 7.837622281400000E9     5.663544362062475E-1   -5.586409478309670E-3    1.570928918471055E-3    3.756162022145552E-3    1.575276460627046E-3    3.710509283171581E-3    4.438055801804696E-1   -3.071124785155405E-1
 7.837656205000000E9     5.665395266417373E-1   -7.710559473904017E-3    1.603028146563589E-3    3.764491278871800E-3    1.566727568112161E-3    3.694369342513527E-3    4.425227654193780E-1   -3.089451590016278E-1
 7.837690128600000E9     5.664233081891041E-1   -1.007863291171382E-2    1.633583475625721E-3    3.764985398336789E-3    1.621028006900692E-3    3.690909342985396E-3    4.411388950495089E-1   -3.110613217091716E-1
 7.837724052200000E9     5.665001652832037E-1   -1.240615605339544E-2    1.632949417491868E-3    3.737804041941994E-3    1.637714984495226E-3    3.703204248929950E-3    4.397603684026808E-1   -3.128105823255943E-1
 7.837757975800000E9     5.664224547149406E-1   -1.456873704179797E-2    1.644843018477847E-3    3.755532803818045E-3    1.655677950412725E-3    3.691369207218029E-3    4.384225429439713E-1   -3.148995198594003E-1
 7.837791899400000E9     5.663058807622590E-1   -1.685234115148837E-2    1.670641080423433E-3    3.740928034040140E-3    1.676657542861181E-3    3.692110693376193E-3    4.370542842279525E-1   -3.167854408628655E-1
 7.837825823000000E9     5.661973868312924E-1   -1.917781038215979E-2    1.684399010746595E-3    3.737791512021573E-3    1.726570882381173E-3    3.708033171677580E-3    4.356197294886051E-1   -3.188164457785842E-1
 7.837859746600000E9     5.661756480941382E-1   -2.140173297837617E-2    1.724901882810192E-3    3.754291123247932E-3    1.716549588871338E-3    3.676214550340610E-3    4.342369628559463E-1   -3.207334580702095E-1
 7.837893670200000E9     5.661212403955461E-1   -2.352660212901914E-2    1.731018597406896E-3    3.740449293208740E-3    1.724327205405891E-3    3.682899923588980E-3    4.329245833030567E-1   -3.224624758367340E-1
 7.837927593800000E9     5.659057444621051E-1   -2.582333236641144E-2    1.745437901709825E-3    3.737141577477365E-3    1.728991517305911E-3    3.677073193625022E-3    4.312110195150616E-1   -3.243987436483084E-1
 7.837961517400000E9     5.660141276125479E-1   -2.808251582611515E-2    1.755622730904542E-3    3.733744563168464E-3    1.765654568092596E-3    3.678795694280869E-3    4.300080683142234E-1   -3.264338073039783E-1
 7.837995441000000E9     5.657272121423181E-1   -3.038483816717092E-2    1.779038847549898E-3    3.746785018306367E-3    1.777781736266724E-3    3.658897989397114E-3    4.286544612669881E-1   -3.282405026157996E-1
 7.838029364600000E9     5.656661140214090E-1   -3.280390756941035E-2    1.821344848805531E-3    3.724098109390584E-3    1.785109755993898E-3    3.689060181709055E-3    4.271726399291413E-1   -3.301571190773667E-1
 7.838063288200000E9     5.654151431858611E-1   -3.483150108307668E-2    1.830424611536249E-3    3.755240541092854E-3    1.829336594458513E-3    3.707805714175375E-3    4.256494527133174E-1   -3.320533846485539E-1
 7.838097211800000E9     5.654451713929367E-1   -3.726174174516161E-2    1.846516892134852E-3    3.734574907291757E-3    1.877783191080981E-3    3.672506680852930E-3    4.240356754516495E-1   -3.340001487426566E-1
 7.838131135400000E9     5.652964354954331E-1   -3.945513159040088E-2    1.891510601524456E-3    3.738242241287757E-3    1.832949439477939E-3    3.685073779928777E-3    4.227224904288648E-1   -3.358281168623163E-1
 7.838165059000000E9     5.651651924228641E-1   -4.162024086947372E-2    1.878113833514839E-3    3.719587010926734E-3    1.917184185364970E-3    3.659838918244365E-3    4.213467730593564E-1   -3.376523991136758E-1
 7.838198982600000E9     5.649820906501666E-1   -4.394588468347508E-2    1.910289046455589E-3    3.717097220124342E-3    1.913819300095663E-3    3.679966925380051E-3    4.197403896809836E-1   -3.395968684303829E-1
 7.838232906200000E9     5.649162594418625E-1   -4.627760074498062E-2    1.928678252636171E-3    3.733190178692610E-3    1.927312622630588E-3    3.665466905467896E-3    4.183700071838780E-1   -3.413366854804815E-1
 7.838266829800000E9     5.646511224565620E-1   -4.833240382852358E-2    1.947886609441285E-3    3.736888572886462E-3    1.953189503831907E-3    3.663461875191695E-3    4.168495250424197E-1   -3.432123577881439E-1
 7.838300753400000E9     5.644696220285493E-1   -5.076234341702805E-2    1.964328153534770E-3    3.734787182084726E-3    1.949677132548219E-3    3.671455394193494E-3    4.154442104356347E-1   -3.450357139498821E-1
 7.838334677000000E9     5.642692095057171E-1   -5.284165989177957E-2    2.023780425520111E-3    3.708445615583139E-3    1.987794993000873E-3    3.649204921485281E-3    4.138056708339994E-1   -3.468966348810635E-1
 7.838368600600000E9     5.641136366152316E-1   -5.515976470294154E-2    2.039453554205416E-3    3.748916180591995E-3    2.016530355179568E-3    3.676374981443630E-3    4.122784131238557E-1   -3.486522857600193E-1
 7.838402524200000E9     5.638110997318256E-1   -5.739840542012277E-2    2.022259647684027E-3    3.729013548872760E-3    2.029958769271543E-3    3.662900333382469E-3    4.107293380145857E-1   -3.505071322003605E-1
 7.838436447800000E9     5.636182415048324E-1   -5.966090414982733E-2    2.065404324585715E-3    3.719269127153410E-3    2.067948550305936E-3    3.664713055898650E-3    4.092485243374155E-1   -3.523321286645486E-1
 7.838470371400000E9     5.634039497359038E-1   -6.188146882735188E-2    2.115050736929571E-3    3.706661089101772E-3    2.115972208475270E-3    3.652613555341200E-3    4.076860447692356E-1   -3.542498670146984E-1
 7.838504295000000E9     5.630899233162063E-1   -6.428685112505876E-2    2.104678619807659E-3    3.718024359845808E-3    2.079747341766516E-3    3.649981587194734E-3    4.059921113482505E-1   -3.560424958201259E-1
 7.838538218600000E9     5.629214600004493E-1   -6.659764659574491E-2    2.161101903182404E-3    3.702799667812696E-3    2.115859342753763E-3    3.658710616979716E-3    4.044895896108863E-1   -3.576124206356713E-1
 7.838572142200000E9     5.625849971605438E-1   -6.866746219937223E-2    2.159662134888543E-3    3.707007396432794E-3    2.125199664175043E-3    3.680519062838360E-3    4.030729314285260E-1   -3.595063295994607E-1
 7.838606065800000E9     5.623216726511319E-1   -7.091081364936787E-2    2.183040559827424E-3    3.714196461764834E-3    2.146978513265169E-3    3.647178041633181E-3    4.013676377608241E-1   -3.613202532370334E-1
 7.838639989400000E9     5.620611156782818E-1   -7.317177186671299E-2    2.233395180821680E-3    3.697088630825826E-3    2.194073392480331E-3    3.656947883725460E-3    3.997111960078534E-1   -3.631580475795543E-1
 7.838673913000000E9     5.617743926936007E-1   -7.546590778729195E-2    2.199431347458568E-3    3.704823312558093E-3    2.206062174364784E-3    3.673947201507538E-3    3.982659056972297E-1   -3.648135890560475E-1
 7.838707836600000E9     5.616052802165932E-1   -7.772970240805556E-2    2.240833043544482E-3    3.698763048048854E-3    2.228174825625676E-3    3.664032072492466E-3    3.965709478964735E-1   -3.666298386133857E-1
 7.838741760200000E9     5.611181630236798E-1   -7.988855077737976E-2    2.283444199036699E-3    3.720597530542821E-3    2.249070366955748E-3    3.664523826946426E-3    3.949791680827092E-1   -3.683001531835922E-1
 7.838775683800000E9     5.608446878814434E-1   -8.215219035417294E-2    2.276995801338209E-3    3.700270368420488E-3    2.295970905486304E-3    3.623399186095587E-3    3.932942976923358E-1   -3.701057290310022E-1
 7.838809607400000E9     5.604853527708682E-1   -8.446993730731971E-2    2.324728820856904E-3    3.682727279923598E-3    2.283978851340774E-3    3.661323110424161E-3    3.917569177549746E-1   -3.719990908532345E-1
 7.838843531000000E9     5.602161883222944E-1   -8.675575629106072E-2    2.338592746770911E-3    3.695458792819512E-3    2.317589808260282E-3    3.661987028490628E-3    3.901628877826783E-1   -3.736626885916796E-1
 7.838877454600000E9     5.597323844703620E-1   -8.893044622199686E-2    2.371428962799973E-3    3.692733090752620E-3    2.349325770453931E-3    3.632846809479468E-3    3.884448899353688E-1   -3.752869088126052E-1
 7.838911378200000E9     5.593004142838029E-1   -9.124477331551170E-2    2.373988502175496E-3    3.673533941984973E-3    2.358602441122062E-3    3.640209386919467E-3    3.868825455066454E-1   -3.770610992002011E-1
 7.838945301800000E9     5.591281162306557E-1   -9.331576758628334E-2    2.418561371208598E-3    3.662599894924914E-3    2.376185452650603E-3    3.619875482092705E-3    3.850337656262174E-1   -3.787095352474921E-1
 7.838979225400000E9     5.586837654697490E-1   -9.574001143654133E-2    2.433545387294869E-3    3.697392252738999E-3    2.407115716495724E-3    3.642815030820179E-3    3.835782959014761E-1   -3.804942102299042E-1
 7.839013149000000E9     5.584432650423908E-1   -9.785692130964593E-2    2.479061859851947E-3    3.663012627744940E-3    2.404619300503416E-3    3.614633477937601E-3    3.818862602664611E-1   -3.819952464958805E-1
 7.839047072600000E9     5.578693264879953E-1   -1.001253174481299E-1    2.490379187335824E-3    3.674884236852471E-3    2.442373402578457E-3    3.655377104064700E-3    3.801526967873899E-1   -3.838753067540151E-1
 7.839080996200000E9     5.575250932676218E-1   -1.023548209169399E-1    2.512604769121161E-3    3.676946574407282E-3    2.490857394457406E-3    3.629384244517821E-3    3.784684408167054E-1   -3.855567847644372E-1
 7.839114919800000E9     5.571402424729471E-1   -1.046574587272305E-1    2.514614962784416E-3    3.673305131775266E-3    2.509219530661719E-3    3.645950812438578E-3    3.768777869950230E-1   -3.873032200211676E-1
 7.839148843400000E9     5.567155625543047E-1   -1.068744832085896E-1    2.552877357440310E-3    3.661539929433699E-3    2.493553457104391E-3    3.625105285499858E-3    3.752044410095757E-1   -3.890228293265502E-1
 7.839182767000000E9     5.563618659316800E-1   -1.091371936774036E-1    2.568011650919195E-3    3.679537976647367E-3    2.556959239757880E-3    3.616710976385361E-3    3.732260015819504E-1   -3.905211491050289E-1
 7.839216690600000E9     5.559277184517272E-1   -1.114549729114035E-1    2.589105502870373E-3    3.686258770517796E-3    2.579333767620586E-3    3.621351983760435E-3    3.715471787863083E-1   -3.922933827979934E-1
 7.839250614200000E9     5.554274088031653E-1   -1.135943616099426E-1    2.629276710478049E-3    3.689645909859900E-3    2.598552931911558E-3    3.636806942304084E-3    3.698862415460493E-1   -3.938242715339634E-1
 7.839284537800000E9     5.549827874976468E-1   -1.158377155679884E-1    2.675270211482713E-3    3.688725803974106E-3    2.637656411410237E-3    3.610352414102191E-3    3.682791948199246E-1   -3.954069815501749E-1
 7.839318461400000E9     5.544302773300966E-1   -1.180389294740256E-1    2.702029325929923E-3    3.673276256756789E-3    2.652788480539708E-3    3.607667444850642E-3    3.665439363192675E-1   -3.971412398155004E-1
 7.839352385000000E9     5.540059334263711E-1   -1.201961512142282E-1    2.726454889604222E-3    3.650215851042967E-3    2.691928701625654E-3    3.628443025893278E-3    3.648144905911663E-1   -3.988993832762240E-1
 7.839386308600000E9     5.534387224304709E-1   -1.223541720291913E-1    2.744691726374826E-3    3.658131618409713E-3    2.685713431173557E-3    3.588114765745841E-3    3.629419940296418E-1   -4.004212891344021E-1
 7.839420232200000E9     5.529221082176947E-1   -1.247162371675422E-1    2.771024799471642E-3    3.662800329971419E-3    2.770256999736234E-3    3.617682958139416E-3    3.612526090885856E-1   -4.019510508355533E-1
 7.839454155800000E9     5.525451375666012E-1   -1.269323858558305E-1    2.806876641238511E-3    3.622773005075714E-3    2.785698956539095E-3    3.582925203976030E-3    3.593506286260441E-1   -4.036029248659469E-1
 7.839488079400000E9     5.519459515268225E-1   -1.289562260492574E-1    2.837549612802307E-3    3.661371145553690E-3    2.800330533042287E-3    3.596307959631702E-3    3.576092006038934E-1   -4.050691434403530E-1
 7.839522003000000E9     5.514038412152756E-1   -1.312425810099219E-1    2.849131136178526E-3    3.648978962143245E-3    2.808396086068957E-3    3.626023831560154E-3    3.559242436163382E-1   -4.068060773922382E-1
 7.839555926600000E9     5.508894786651086E-1   -1.336419324522288E-1    2.878113034055664E-3    3.631467840828183E-3    2.839637209010665E-3    3.624791099173047E-3    3.540269283357166E-1   -4.083198777379754E-1
 7.839589850200000E9     5.503029900472142E-1   -1.358010794280209E-1    2.914967896543974E-3    3.640466332825858E-3    2.866906719414210E-3    3.609800011648692E-3    3.522764380123996E-1   -4.099766798049178E-1
 7.839623773800000E9     5.498397886545145E-1   -1.379110162285510E-1    2.924201323740896E-3    3.635797030982589E-3    2.891970564686555E-3    3.631335108836924E-3    3.504813906708218E-1   -4.113178337291474E-1
 7.839657697400000E9     5.492422265724825E-1   -1.401340344782646E-1    2.956838482537087E-3    3.653783181698929E-3    2.907482563553425E-3    3.600183239340957E-3    3.486992833052062E-1   -4.129416756339748E-1
 7.839691621000000E9     5.485928693718372E-1   -1.423370317710369E-1    2.984194664323293E-3    3.619156314235582E-3    2.948351289869644E-3    3.601943612704696E-3    3.468228451303126E-1   -4.142984211252353E-1
 7.839725544600000E9     5.481328086032883E-1   -1.446227268863541E-1    2.984885042178401E-3    3.627519957205388E-3    2.978499368231498E-3    3.633161635209121E-3    3.450866434036111E-1   -4.159219264116581E-1
 7.839759468200000E9     5.475357565359823E-1   -1.468623938984218E-1    3.063242296026018E-3    3.638109956400829E-3    2.990497249338090E-3    3.612984954174653E-3    3.433416395748404E-1   -4.175709120391110E-1
 7.839793391800000E9     5.468154173305417E-1   -1.489544943536923E-1    3.088584916288896E-3    3.604754346976090E-3    3.037186179118051E-3    3.601713804815801E-3    3.414227560921502E-1   -4.190349902467157E-1
 7.839827315400000E9     5.462164900481326E-1   -1.511924448778832E-1    3.099373312271561E-3    3.619396852082926E-3    3.070388844322176E-3    3.641062005615733E-3    3.395790912346471E-1   -4.204482387086523E-1
 7.839861239000000E9     5.455442597414301E-1   -1.534695433094483E-1    3.172687949926764E-3    3.601895483613413E-3    3.091705808719815E-3    3.592499592700190E-3    3.377674825418983E-1   -4.219327423299908E-1
