#  HZ   S   RI   R     50.00 
! Rohde & Schwarz Vector Network Analyzer 
! Rohde-Schwarz,ZNB20-2Port,1311601062101988,3.16
! Created: UTC 12/23/2023, 3:51:46 AM
! freq[Hz]                re:S11                  im:S11                  re:S21                  im:S21                  re:S12                  im:S12                  re:S22                  im:S22
 1.000945882500000E+10  -3.932350446817663E-1    3.322988919845704E-1   -1.665988134142029E-2   -1.264172040547984E-2   -1.533440739502087E-2   -1.306409363209490E-2   -2.138540575907040E-1    4.715474188555472E-1
 1.000947205302500E+10  -3.926035282456712E-1    3.330098620548291E-1   -1.675609966442752E-2   -1.282850989096753E-2   -1.566454566201389E-2   -1.297584726758765E-2   -2.131730454440230E-1    4.719684874516140E-1
 1.000948528105000E+10  -3.917744090919676E-1    3.340226967962658E-1   -1.667390852175923E-2   -1.281281349320086E-2   -1.573615123483881E-2   -1.303000828622676E-2   -2.123746866666822E-1    4.722068805816956E-1
 1.000949850907500E+10  -3.910087803696901E-1    3.345391972115701E-1   -1.687189612581878E-2   -1.281391741794833E-2   -1.560788319916370E-2   -1.307849391446845E-2   -2.115636793174565E-1    4.725545892877755E-1
 1.000951173710000E+10  -3.904364301173457E-1    3.354923810139196E-1   -1.699215656548823E-2   -1.283433719348823E-2   -1.578509922383747E-2   -1.316715544482836E-2   -2.107558471593234E-1    4.730093700932517E-1
 1.000952496512500E+10  -3.897803502584447E-1    3.363269023077819E-1   -1.707939779568683E-2   -1.275509366153665E-2   -1.582984296766572E-2   -1.321860382611856E-2   -2.101587828528514E-1    4.734324640287396E-1
 1.000953819315000E+10  -3.890064668304856E-1    3.372303473883985E-1   -1.712857959271825E-2   -1.279115203387545E-2   -1.578198165800293E-2   -1.321174937519321E-2   -2.093730707411758E-1    4.738839053381184E-1
 1.000955142117500E+10  -3.882926001419278E-1    3.380493380191865E-1   -1.724748998371607E-2   -1.280901643987726E-2   -1.591345673441414E-2   -1.319649770282415E-2   -2.085765155260651E-1    4.740248136488555E-1
 1.000956464920000E+10  -3.876320332172394E-1    3.387670787493369E-1   -1.725087351422655E-2   -1.287883616153580E-2   -1.606387296843059E-2   -1.322184008248932E-2   -2.077891524647601E-1    4.745664965931035E-1
 1.000957787722500E+10  -3.869019674016457E-1    3.396022090407498E-1   -1.730363169707945E-2   -1.278714312086328E-2   -1.621682019662488E-2   -1.324043794209515E-2   -2.069113389184362E-1    4.748643753517205E-1
 1.000959110525000E+10  -3.862028783508514E-1    3.404748297343590E-1   -1.755332980731601E-2   -1.279672083593393E-2   -1.630933222329880E-2   -1.326445624594309E-2   -2.060882279280860E-1    4.752742020616336E-1
 1.000960433327500E+10  -3.855297371024227E-1    3.412389342257291E-1   -1.762896531015298E-2   -1.272687583684035E-2   -1.636512214331178E-2   -1.315873996242243E-2   -2.052977167307579E-1    4.756263898376811E-1
 1.000961756130000E+10  -3.847526049037805E-1    3.420169566196147E-1   -1.764526037398445E-2   -1.296028248446085E-2   -1.649383754229486E-2   -1.326242913148477E-2   -2.044540144705749E-1    4.760451300503422E-1
 1.000963078932500E+10  -3.840418064991992E-1    3.429159217305858E-1   -1.783580983278677E-2   -1.295757815851220E-2   -1.665493239549887E-2   -1.319855778712905E-2   -2.037011048898124E-1    4.764066553700369E-1
 1.000964401735000E+10  -3.833782500849831E-1    3.437002320247676E-1   -1.789256058255516E-2   -1.283613898048551E-2   -1.654576176410674E-2   -1.332331650544767E-2   -2.029738446395854E-1    4.766517063557448E-1
 1.000965724537500E+10  -3.826715014277244E-1    3.446152582221919E-1   -1.802994720935284E-2   -1.297093976605186E-2   -1.677187362350761E-2   -1.340359434729481E-2   -2.021128265875098E-1    4.769142617292262E-1
 1.000967047340000E+10  -3.819872059115707E-1    3.454335907439990E-1   -1.804696573397004E-2   -1.309631563872713E-2   -1.686804284652038E-2   -1.329102256427708E-2   -2.013301599273450E-1    4.773861576217373E-1
 1.000968370142500E+10  -3.810522533313069E-1    3.463511713728261E-1   -1.824271438253980E-2   -1.288792859449791E-2   -1.696940695759577E-2   -1.334877208126592E-2   -2.004687035614723E-1    4.777707266970653E-1
 1.000969692945000E+10  -3.804902457733467E-1    3.471543361842789E-1   -1.822178287011847E-2   -1.303917977906100E-2   -1.707276241262467E-2   -1.335866242114157E-2   -1.996928239496497E-1    4.780443016791742E-1
 1.000971015747500E+10  -3.795972313776554E-1    3.478182823413157E-1   -1.842740554753266E-2   -1.309258400401965E-2   -1.713695632527545E-2   -1.355186732291367E-2   -1.988622356647788E-1    4.785111487980171E-1
 1.000972338550000E+10  -3.789075189615572E-1    3.486982302210583E-1   -1.839074448380707E-2   -1.309065232468681E-2   -1.725277269801080E-2   -1.348000834344621E-2   -1.981762576858947E-1    4.788867079365303E-1
 1.000973661352500E+10  -3.781921622210074E-1    3.495528601656839E-1   -1.871829422628553E-2   -1.297958122109031E-2   -1.728181745668757E-2   -1.336019325011465E-2   -1.972643075106520E-1    4.789949912861030E-1
 1.000974984155000E+10  -3.773592867109330E-1    3.502662823493968E-1   -1.881528821462920E-2   -1.304115778147852E-2   -1.749833068572717E-2   -1.343210450750730E-2   -1.964545456975908E-1    4.796150974103020E-1
 1.000976306957500E+10  -3.765760201574351E-1    3.511275995745415E-1   -1.888472236373510E-2   -1.302401507309336E-2   -1.759406731955422E-2   -1.338903089732358E-2   -1.955903038903437E-1    4.799146113658377E-1
 1.000977629760000E+10  -3.759093069012412E-1    3.520149904375011E-1   -1.895933585422262E-2   -1.311814816056339E-2   -1.765861854578120E-2   -1.355073181301802E-2   -1.949364190996639E-1    4.801309733839059E-1
 1.000978952562500E+10  -3.750309296579730E-1    3.528213395243722E-1   -1.908075154386818E-2   -1.311377208872806E-2   -1.781722646054126E-2   -1.352574978567233E-2   -1.940425711374248E-1    4.806288172282609E-1
 1.000980275365000E+10  -3.743149496970235E-1    3.537208164879233E-1   -1.921319943742466E-2   -1.311195421582140E-2   -1.796526162382333E-2   -1.352879568579633E-2   -1.931995224695600E-1    4.809743870883296E-1
 1.000981598167500E+10  -3.734954338813258E-1    3.544627932891416E-1   -1.930807092030365E-2   -1.307981840771216E-2   -1.783831261458943E-2   -1.361288081767493E-2   -1.923692395519016E-1    4.813144576396781E-1
 1.000982920970000E+10  -3.727428332171924E-1    3.553465834849256E-1   -1.950606047997999E-2   -1.320540744681224E-2   -1.809247130781778E-2   -1.353466211975374E-2   -1.916569129949543E-1    4.816227382812974E-1
 1.000984243772500E+10  -3.720906444671216E-1    3.560766135471027E-1   -1.947966935933988E-2   -1.315804953179306E-2   -1.822342582549933E-2   -1.356675492387103E-2   -1.907715579988205E-1    4.819567682202482E-1
 1.000985566575000E+10  -3.712062651460641E-1    3.570390429872538E-1   -1.976310412203054E-2   -1.332323783927773E-2   -1.835427060917476E-2   -1.356246851643731E-2   -1.899244595971752E-1    4.822629417815220E-1
 1.000986889377500E+10  -3.704773000092889E-1    3.577540638583255E-1   -1.977264230883840E-2   -1.328821941699367E-2   -1.853245351078273E-2   -1.351978379633717E-2   -1.892408438013391E-1    4.825416328940134E-1
 1.000988212180000E+10  -3.696678916607825E-1    3.586184474166073E-1   -1.982599337679935E-2   -1.328499842181134E-2   -1.862064116493203E-2   -1.359482284264231E-2   -1.882392799544444E-1    4.827992251142633E-1
 1.000989534982500E+10  -3.688564380666528E-1    3.594306690974113E-1   -1.996259025285408E-2   -1.322554914965644E-2   -1.865982048054676E-2   -1.368307032260173E-2   -1.874592088229509E-1    4.831907782037242E-1
 1.000990857785000E+10  -3.679698361409596E-1    3.602140327753792E-1   -2.001130148071068E-2   -1.335172098359699E-2   -1.882260040670949E-2   -1.371584454673805E-2   -1.866359577892881E-1    4.836242680744468E-1
 1.000992180587500E+10  -3.672532439605888E-1    3.611052131754837E-1   -2.030815028094238E-2   -1.326284425187509E-2   -1.893894773624383E-2   -1.381383419824501E-2   -1.858895862051375E-1    4.840299495083729E-1
 1.000993503390000E+10  -3.662090968837196E-1    3.618856470113676E-1   -2.046601544150565E-2   -1.332966566000219E-2   -1.901079277594925E-2   -1.379655821158572E-2   -1.851286936900866E-1    4.842588285905177E-1
 1.000994826192500E+10  -3.656681460460628E-1    3.628270321388198E-1   -2.049467700957888E-2   -1.324693132824160E-2   -1.913223629419247E-2   -1.370868841176944E-2   -1.842385711634426E-1    4.846232613800290E-1
 1.000996148995000E+10  -3.646460019890285E-1    3.634750485355348E-1   -2.070157481851831E-2   -1.326580764759747E-2   -1.936663845316864E-2   -1.383569888389565E-2   -1.836031616232158E-1    4.850513686510157E-1
 1.000997471797500E+10  -3.638825565576362E-1    3.644379392259451E-1   -2.074550513336189E-2   -1.324780229615333E-2   -1.945064848719823E-2   -1.381447079238049E-2   -1.825423876487163E-1    4.851178182226746E-1
 1.000998794600000E+10  -3.629581910690432E-1    3.651824321987224E-1   -2.095235141693114E-2   -1.323964440994340E-2   -1.966700424452602E-2   -1.376467968226247E-2   -1.817542131337097E-1    4.856657295075871E-1
 1.001000117402500E+10  -3.622535889400330E-1    3.660734645088906E-1   -2.100814156201740E-2   -1.345226527187860E-2   -1.961770747564389E-2   -1.366786776993282E-2   -1.808497458257941E-1    4.858932107894665E-1
 1.001001440205000E+10  -3.613426102323927E-1    3.667299131277478E-1   -2.120932392608874E-2   -1.329756831728278E-2   -1.995033696147693E-2   -1.389050202519635E-2   -1.801802184780053E-1    4.863186320856027E-1
 1.001002763007500E+10  -3.605032452211631E-1    3.676203924795581E-1   -2.133770166526850E-2   -1.345844944820199E-2   -2.007964160968079E-2   -1.392502950719498E-2   -1.792633233547407E-1    4.863800028183179E-1
 1.001004085810000E+10  -3.596520940965766E-1    3.685087616072796E-1   -2.140313679286296E-2   -1.345803525380013E-2   -2.019797383474574E-2   -1.398969952693437E-2   -1.785060816250498E-1    4.868706893131761E-1
 1.001005408612500E+10  -3.588316932014178E-1    3.692975947593498E-1   -2.166043283119371E-2   -1.344317322630980E-2   -2.014388502994480E-2   -1.403451446659089E-2   -1.776502432082800E-1    4.871903583035930E-1
 1.001006731415000E+10  -3.579862211254071E-1    3.700665107846557E-1   -2.169374346330041E-2   -1.356830170941628E-2   -2.037358530731236E-2   -1.401483944066236E-2   -1.769243298612374E-1    4.873796512231335E-1
 1.001008054217500E+10  -3.570803674268950E-1    3.710078109164570E-1   -2.186548582584364E-2   -1.355407713588655E-2   -2.038778747110898E-2   -1.400164629221614E-2   -1.759658765002220E-1    4.877485617320274E-1
 1.001009377020000E+10  -3.562533608725946E-1    3.718703468840162E-1   -2.207001879106599E-2   -1.347847357242490E-2   -2.066520979922139E-2   -1.393022723619013E-2   -1.751885050698738E-1    4.880959319442206E-1
 1.001010699822500E+10  -3.552176792518217E-1    3.726487143467217E-1   -2.227641727863208E-2   -1.349038890637975E-2   -2.067716612832181E-2   -1.398806851262757E-2   -1.742441119233603E-1    4.883968392662333E-1
 1.001012022625000E+10  -3.544704575206192E-1    3.734708659962146E-1   -2.235662668493160E-2   -1.351369460756487E-2   -2.092481001703172E-2   -1.409914829229609E-2   -1.733977372215293E-1    4.886731297130851E-1
 1.001013345427500E+10  -3.536525492176301E-1    3.743940863459897E-1   -2.248806062976362E-2   -1.361640525013390E-2   -2.097408923547312E-2   -1.392386617611763E-2   -1.726604370083593E-1    4.890169158324381E-1
 1.001014668230000E+10  -3.526411362004547E-1    3.751702600558416E-1   -2.260772155341765E-2   -1.342402486658513E-2   -2.130753890005010E-2   -1.408783724051577E-2   -1.717708949979393E-1    4.892741900066059E-1
 1.001015991032500E+10  -3.517839040566440E-1    3.760995728531963E-1   -2.293900396529815E-2   -1.363239561896529E-2   -2.134636773122699E-2   -1.399287297252880E-2   -1.709256775647505E-1    4.896407249125284E-1
 1.001017313835000E+10  -3.508132109184486E-1    3.766972121325069E-1   -2.305463225505999E-2   -1.346042559836128E-2   -2.137523413285813E-2   -1.410760295427876E-2   -1.701994910121695E-1    4.898860986141197E-1
 1.001018636637500E+10  -3.499032237624033E-1    3.776412031127823E-1   -2.316534972474250E-2   -1.361613093259501E-2   -2.163225016451810E-2   -1.425258474995006E-2   -1.690519167131168E-1    4.901494131984889E-1
 1.001019959440000E+10  -3.489180858414508E-1    3.784684665923623E-1   -2.339777723720494E-2   -1.352121929205605E-2   -2.169039721300518E-2   -1.415186710637354E-2   -1.683525119336300E-1    4.905273877920324E-1
 1.001021282242500E+10  -3.481406353096849E-1    3.793736295819461E-1   -2.361002353457282E-2   -1.360373969602325E-2   -2.195627653851860E-2   -1.416591942997258E-2   -1.674841797721834E-1    4.907722921304713E-1
 1.001022605045000E+10  -3.471296480776020E-1    3.801559288835941E-1   -2.359436726722279E-2   -1.374579660027326E-2   -2.208454833744206E-2   -1.419359308394750E-2   -1.666644292397320E-1    4.911098845442907E-1
 1.001023927847500E+10  -3.461837551836951E-1    3.808947635424419E-1   -2.374950747260192E-2   -1.365106378824700E-2   -2.227445721953525E-2   -1.428222396063663E-2   -1.658415259832826E-1    4.913841060695200E-1
 1.001025250650000E+10  -3.450954906831200E-1    3.817687636119264E-1   -2.401002548843984E-2   -1.370859972248279E-2   -2.238463278404142E-2   -1.427497830748319E-2   -1.650781584248218E-1    4.917198219518829E-1
 1.001026573452500E+10  -3.443118122839209E-1    3.827160417371853E-1   -2.424058386586213E-2   -1.385624976075312E-2   -2.264433005114687E-2   -1.431190474949896E-2   -1.641866777946525E-1    4.921371512915916E-1
 1.001027896255000E+10  -3.432434835694469E-1    3.833304235105888E-1   -2.434353661005036E-2   -1.374869244415981E-2   -2.275560096057062E-2   -1.416327104562857E-2   -1.632546609707228E-1    4.922138017290084E-1
 1.001029219057500E+10  -3.422209312634248E-1    3.842954356342264E-1   -2.454826767752596E-2   -1.371269383099786E-2   -2.295948005957163E-2   -1.415587444716594E-2   -1.625282823277595E-1    4.926399403785592E-1
 1.001030541860000E+10  -3.412358202863240E-1    3.851373798790131E-1   -2.462351856303167E-2   -1.370540009159911E-2   -2.308785568624792E-2   -1.428685794324290E-2   -1.616888165277566E-1    4.928483027886204E-1
 1.001031864662500E+10  -3.403852157728910E-1    3.858591545234195E-1   -2.491836270870328E-2   -1.363978253055274E-2   -2.340821766382359E-2   -1.431054437680963E-2   -1.607953234068253E-1    4.931545177886083E-1
 1.001033187465000E+10  -3.394164059270971E-1    3.867823500172590E-1   -2.514393937370795E-2   -1.365511810159940E-2   -2.353870464899058E-2   -1.436401606073548E-2   -1.600699715196114E-1    4.933391275826455E-1
 1.001034510267500E+10  -3.384193520988434E-1    3.876227808673495E-1   -2.525083075869947E-2   -1.371495283333553E-2   -2.366195113874684E-2   -1.453117537708586E-2   -1.590720485430588E-1    4.936897413725808E-1
 1.001035833070000E+10  -3.373076780977398E-1    3.883666247631616E-1   -2.548354866334869E-2   -1.381464026154130E-2   -2.393359076225304E-2   -1.445092986275548E-2   -1.581000144425345E-1    4.939436862450083E-1
 1.001037155872500E+10  -3.363211143908889E-1    3.892159982855913E-1   -2.575599925041068E-2   -1.372133068532386E-2   -2.402434856053383E-2   -1.455477240182843E-2   -1.573013482441149E-1    4.943251524396655E-1
 1.001038478675000E+10  -3.352789443584666E-1    3.900383023929481E-1   -2.595746105966716E-2   -1.381823671948204E-2   -2.424132401236019E-2   -1.440668866247954E-2   -1.564885393607657E-1    4.946157974615609E-1
 1.001039801477500E+10  -3.341036914014635E-1    3.910759251100032E-1   -2.601591518358111E-2   -1.374159715624585E-2   -2.443182628298570E-2   -1.434920943180716E-2   -1.556777219534193E-1    4.947954981995156E-1
 1.001041124280000E+10  -3.330591034238264E-1    3.917612599544393E-1   -2.619265306198771E-2   -1.398928961896633E-2   -2.459342851325727E-2   -1.448467658562662E-2   -1.546491052321464E-1    4.950463774495052E-1
 1.001042447082500E+10  -3.321239123853081E-1    3.927026815850161E-1   -2.651023671342364E-2   -1.392947877734993E-2   -2.489260731760376E-2   -1.448939358651550E-2   -1.538953291855915E-1    4.953309527205206E-1
 1.001043769885000E+10  -3.310391100213277E-1    3.935555316046320E-1   -2.650923451269596E-2   -1.388151913691397E-2   -2.494911426463726E-2   -1.443525675932304E-2   -1.530048783076130E-1    4.956599761290393E-1
 1.001045092687500E+10  -3.299730488510985E-1    3.944290669606269E-1   -2.690838120363780E-2   -1.395638327198814E-2   -2.512605809325860E-2   -1.451402947197116E-2   -1.522529112231865E-1    4.958728306234719E-1
 1.001046415490000E+10  -3.289018468639341E-1    3.952732493363883E-1   -2.703489131277630E-2   -1.389911324136482E-2   -2.539495940328755E-2   -1.455602358242593E-2   -1.512483396280589E-1    4.960575135600648E-1
 1.001047738292500E+10  -3.277586037983531E-1    3.960827277483791E-1   -2.734808214532673E-2   -1.388372707478025E-2   -2.550279780434363E-2   -1.472247526732964E-2   -1.501906689249190E-1    4.964043248832705E-1
 1.001049061095000E+10  -3.266645802736937E-1    3.968902794145718E-1   -2.743050982626950E-2   -1.391038421967333E-2   -2.574988715065943E-2   -1.468673443872261E-2   -1.495420816605602E-1    4.966589085813943E-1
 1.001050383897500E+10  -3.256145136916377E-1    3.978025074057526E-1   -2.776379138849452E-2   -1.392099624107882E-2   -2.616163828334074E-2   -1.459781261119011E-2   -1.485910656069603E-1    4.969463370512340E-1
 1.001051706700000E+10  -3.243769610708054E-1    3.985028754720407E-1   -2.802167246706117E-2   -1.378001599368420E-2   -2.629593806732062E-2   -1.470383319014201E-2   -1.477329482575149E-1    4.972607177904024E-1
 1.001053029502500E+10  -3.232477485819631E-1    3.995212388915099E-1   -2.824910894391868E-2   -1.379639100883597E-2   -2.657236386530645E-2   -1.472702708525930E-2   -1.470274417746512E-1    4.974823528695972E-1
 1.001054352305000E+10  -3.221890430448922E-1    4.002468409914974E-1   -2.853655529359829E-2   -1.395342664056178E-2   -2.677087041274279E-2   -1.457539805582853E-2   -1.460081233529144E-1    4.976861969648715E-1
 1.001055675107500E+10  -3.209056637353709E-1    4.011016179410766E-1   -2.869738212345446E-2   -1.375084690934089E-2   -2.700529343954534E-2   -1.478668400063569E-2   -1.451681018648937E-1    4.979467386535367E-1
 1.001056997910000E+10  -3.197622234141629E-1    4.019623183374585E-1   -2.889985271130389E-2   -1.395507212000297E-2   -2.714153786577310E-2   -1.474373284700875E-2   -1.442567963432771E-1    4.980524254637353E-1
 1.001058320712500E+10  -3.186764998860655E-1    4.027159835391420E-1   -2.928513215873533E-2   -1.395147921310922E-2   -2.745003679124748E-2   -1.484773892013398E-2   -1.434370867625805E-1    4.984921122209433E-1
 1.001059643515000E+10  -3.173885908920309E-1    4.035867281981099E-1   -2.942978481320280E-2   -1.409417510832161E-2   -2.767196644098446E-2   -1.484932962479849E-2   -1.424965908997161E-1    4.987428138764597E-1
 1.001060966317500E+10  -3.163582923283536E-1    4.045962172092555E-1   -2.966431487268426E-2   -1.397545010870785E-2   -2.788584274233277E-2   -1.497032387686994E-2   -1.413648902331448E-1    4.989292038815683E-1
 1.001062289120000E+10  -3.150364154907540E-1    4.052773184111753E-1   -2.985188052175946E-2   -1.415289597375451E-2   -2.810223731484918E-2   -1.499289321263948E-2   -1.406716064266858E-1    4.993206492985537E-1
 1.001063611922500E+10  -3.138746937856398E-1    4.061353480096065E-1   -3.016255149462274E-2   -1.416510092891751E-2   -2.840296315593841E-2   -1.482507139767335E-2   -1.397604458470467E-1    4.993376608090215E-1
 1.001064934725000E+10  -3.125453731138782E-1    4.070637441132421E-1   -3.049398598324391E-2   -1.404052519226548E-2   -2.865121934516774E-2   -1.484634550086525E-2   -1.388907380855980E-1    4.996513751943964E-1
