#  HZ   S   RI   R     50.00 
! Rohde & Schwarz Vector Network Analyzer 
! Rohde-Schwarz,ZNB20-2Port,1311601062101988,3.16
! Created: UTC 12/23/2023, 3:52:34 AM
! freq[Hz]                re:S11                  im:S11                  re:S21                  im:S21                  re:S12                  im:S12                  re:S22                  im:S22
 7.836818392000000E9     5.639928107388917E-1    4.777244030904478E-2    1.094148365574403E-3    3.779697637372925E-3    1.112916462317709E-3    3.717493039245878E-3    4.731441870546899E-1   -2.587899735278770E-1
 7.836852400450000E9     5.643065946832315E-1    4.561464057705363E-2    1.104164065461009E-3    3.753905005225787E-3    1.170067007742983E-3    3.729137396540155E-3    4.720683042462229E-1   -2.610035222695550E-1
 7.836886408900000E9     5.645331637504495E-1    4.335837516771696E-2    1.117325596269666E-3    3.778276371165634E-3    1.167535823374410E-3    3.685451283106362E-3    4.709324950622467E-1   -2.631303759400043E-1
 7.836920417350000E9     5.646425317105050E-1    4.109644762769757E-2    1.159841837434149E-3    3.792036525771504E-3    1.209680027558366E-3    3.687569657646113E-3    4.697451029121212E-1   -2.651692424634282E-1
 7.836954425800000E9     5.648887810348481E-1    3.888447172663585E-2    1.179562382570462E-3    3.784813610293308E-3    1.185817756849315E-3    3.710700389433226E-3    4.686353111649239E-1   -2.671707488941227E-1
 7.836988434250000E9     5.650464512410024E-1    3.659815105765402E-2    1.181222967847618E-3    3.751170284650147E-3    1.211773665287987E-3    3.704848198118275E-3    4.674541045722877E-1   -2.694295865466533E-1
 7.837022442700000E9     5.651956479096208E-1    3.432422508206177E-2    1.208370047335201E-3    3.760467942613986E-3    1.229490371901356E-3    3.741451687272082E-3    4.662504762259383E-1   -2.714908021814645E-1
 7.837056451150000E9     5.652560568965405E-1    3.201579180140814E-2    1.232629217854995E-3    3.779175088449379E-3    1.255271688020203E-3    3.693996097654092E-3    4.649349504592422E-1   -2.734053206126971E-1
 7.837090459600000E9     5.654228110274607E-1    2.986844313144505E-2    1.275976068886909E-3    3.777670516809200E-3    1.268979591717914E-3    3.688707990682071E-3    4.639197395495199E-1   -2.754293814362094E-1
 7.837124468050000E9     5.656806997886359E-1    2.763509388168862E-2    1.279677034110195E-3    3.770384225483571E-3    1.273872169361821E-3    3.710999813479988E-3    4.626661652927543E-1   -2.776724322808398E-1
 7.837158476500000E9     5.657906195810060E-1    2.524863007052195E-2    1.296101615281646E-3    3.780115886844382E-3    1.310013441479579E-3    3.709361238117900E-3    4.614415075855697E-1   -2.796465475150031E-1
 7.837192484950000E9     5.658976825447316E-1    2.304335956272715E-2    1.319042480867926E-3    3.781505618181703E-3    1.317386079529843E-3    3.692678935978184E-3    4.601528892565830E-1   -2.817644371200640E-1
 7.837226493400000E9     5.659285867451154E-1    2.097016742260200E-2    1.331097802630757E-3    3.770152011687099E-3    1.361930790241869E-3    3.712655549010873E-3    4.589853465479142E-1   -2.837499111506557E-1
 7.837260501850000E9     5.659822762415337E-1    1.847367242131600E-2    1.381173388222517E-3    3.755523868149032E-3    1.378310824496632E-3    3.710165592714270E-3    4.577384318019217E-1   -2.857973168285992E-1
 7.837294510300000E9     5.660961080114902E-1    1.617575431717738E-2    1.372215839675431E-3    3.776002502913510E-3    1.396023626857964E-3    3.701597541115569E-3    4.564320376249218E-1   -2.878415084767613E-1
 7.837328518750000E9     5.662827506085768E-1    1.413634078680572E-2    1.396351429809240E-3    3.781924753929837E-3    1.421351787890817E-3    3.696442552969370E-3    4.551840423653679E-1   -2.898655885815656E-1
 7.837362527200000E9     5.661715969329665E-1    1.180659899692226E-2    1.401021541642444E-3    3.771982028570788E-3    1.409758741445252E-3    3.684272418552704E-3    4.538253610970385E-1   -2.919413192278096E-1
 7.837396535650000E9     5.662882405493935E-1    9.577932304592269E-3    1.405970444960929E-3    3.766358492468746E-3    1.452798091869936E-3    3.685737198593605E-3    4.527426133027736E-1   -2.937687429411223E-1
 7.837430544100000E9     5.664238680478915E-1    7.248088511710113E-3    1.450789174783006E-3    3.770719193750904E-3    1.464614407294682E-3    3.700533787525212E-3    4.513010379913386E-1   -2.957819484043019E-1
 7.837464552550000E9     5.663515426743995E-1    4.980311410967051E-3    1.481376810334539E-3    3.758828839736766E-3    1.472821610947792E-3    3.676105579786247E-3    4.500588669157169E-1   -2.978073495692925E-1
 7.837498561000000E9     5.664988645358463E-1    2.610578843877883E-3    1.492956831653912E-3    3.743243633813443E-3    1.499197900808454E-3    3.655442994384096E-3    4.487065796695446E-1   -2.997826874769355E-1
 7.837532569450000E9     5.664727278679516E-1    6.179572494791597E-4    1.526189834030613E-3    3.759134350838979E-3    1.509611554043118E-3    3.684745107883737E-3    4.473131700638512E-1   -3.018194348268378E-1
 7.837566577900000E9     5.665378378250175E-1   -1.781671734421598E-3    1.527573513256045E-3    3.748138836085337E-3    1.510045188239800E-3    3.687670234762838E-3    4.461512300211521E-1   -3.037934190770105E-1
 7.837600586350000E9     5.663883441321559E-1   -4.001676344412407E-3    1.559493628912418E-3    3.749459150536899E-3    1.557933253923704E-3    3.684184570819728E-3    4.447824687608791E-1   -3.055703825307718E-1
 7.837634594800000E9     5.665647395492355E-1   -6.370745482481935E-3    1.571137340735987E-3    3.742828967449489E-3    1.560867776967536E-3    3.671160706915847E-3    4.435201514330135E-1   -3.077218924225189E-1
 7.837668603250000E9     5.663741572197692E-1   -8.576509312121110E-3    1.589742895665313E-3    3.739348261336020E-3    1.589451751973860E-3    3.680505559278853E-3    4.419806472182291E-1   -3.097751042608226E-1
 7.837702611700000E9     5.664015507734359E-1   -1.083029416642014E-2    1.606465308878602E-3    3.742309565240949E-3    1.618587206421538E-3    3.678367602831988E-3    4.406404854917376E-1   -3.116163938366858E-1
 7.837736620150000E9     5.664598257713349E-1   -1.307600285889194E-2    1.622781785000699E-3    3.723057596945485E-3    1.645097590959647E-3    3.706829909893660E-3    4.393465344863907E-1   -3.134910017037530E-1
 7.837770628600000E9     5.664350129342790E-1   -1.544705284145695E-2    1.651400320728257E-3    3.737949006424171E-3    1.656790519304869E-3    3.700373834997467E-3    4.380232272896747E-1   -3.155949437145582E-1
 7.837804637050000E9     5.662448421490744E-1   -1.773179474609371E-2    1.688486642720994E-3    3.714258749545104E-3    1.643571920127883E-3    3.659111446479702E-3    4.365193517455204E-1   -3.174955561148108E-1
 7.837838645500000E9     5.662684239746748E-1   -1.978904763743097E-2    1.701147040332593E-3    3.738555735275268E-3    1.713465120986066E-3    3.672288637311604E-3    4.350461599817996E-1   -3.194934285164557E-1
 7.837872653950000E9     5.661061554458782E-1   -2.197269119628335E-2    1.712410685521589E-3    3.760333212059872E-3    1.698046662795907E-3    3.676631635191913E-3    4.336520589118433E-1   -3.213011628636402E-1
 7.837906662400000E9     5.661377029288998E-1   -2.439739775417264E-2    1.729103153674903E-3    3.724041400127415E-3    1.735596271774137E-3    3.673412811251552E-3    4.324642747741942E-1   -3.233232384601429E-1
 7.837940670850000E9     5.659812852294449E-1   -2.663713320208525E-2    1.762232963150583E-3    3.743007776295555E-3    1.745393975934929E-3    3.655696633643306E-3    4.308950216682402E-1   -3.252247246346177E-1
 7.837974679300000E9     5.659017978848072E-1   -2.892307223848488E-2    1.783851256228431E-3    3.719717203564795E-3    1.754860139788782E-3    3.659018974258189E-3    4.295840347664039E-1   -3.271942921703125E-1
 7.838008687750000E9     5.659472533068325E-1   -3.117425976340443E-2    1.785026463658444E-3    3.721281566065808E-3    1.790643275635225E-3    3.655720051343614E-3    4.279764182329959E-1   -3.289324847167307E-1
 7.838042696200000E9     5.656815657729727E-1   -3.340770754932397E-2    1.808298623414404E-3    3.740751345184541E-3    1.783355655928381E-3    3.659950291121936E-3    4.266375517409062E-1   -3.308688114554037E-1
 7.838076704650000E9     5.654419448249424E-1   -3.572122586749068E-2    1.827850728306012E-3    3.710191492383530E-3    1.814571036442033E-3    3.673528387811783E-3    4.251815521652325E-1   -3.327352992708254E-1
 7.838110713100000E9     5.654786224962957E-1   -3.800084886642371E-2    1.862907375971883E-3    3.730395191770199E-3    1.876377100034747E-3    3.700384661614922E-3    4.237476355109124E-1   -3.345923038948601E-1
 7.838144721550000E9     5.652049212965202E-1   -4.027262478773218E-2    1.887518103144648E-3    3.709672190252894E-3    1.866051840037658E-3    3.673247507247931E-3    4.222137252390136E-1   -3.365074498000361E-1
 7.838178730000000E9     5.650906499326075E-1   -4.253492026238313E-2    1.881847346686310E-3    3.709664059401061E-3    1.908035523921013E-3    3.663685045272647E-3    4.208318584852747E-1   -3.383921317796136E-1
 7.838212738450000E9     5.649307300123012E-1   -4.463737206654982E-2    1.923568648899287E-3    3.745634451736010E-3    1.905566972357095E-3    3.664671771794970E-3    4.193445465628001E-1   -3.402172977573993E-1
 7.838246746900000E9     5.648179950703163E-1   -4.695293616589823E-2    1.959823906349160E-3    3.717799625414614E-3    1.939458334085507E-3    3.707619454066144E-3    4.177581235232085E-1   -3.420524461729217E-1
 7.838280755350000E9     5.645689453955590E-1   -4.928556694829455E-2    1.969561148306443E-3    3.730732073763853E-3    1.910555713747666E-3    3.655345141772667E-3    4.162255391987856E-1   -3.439269300834129E-1
 7.838314763800000E9     5.644324737353824E-1   -5.149596888403766E-2    1.983133055941324E-3    3.738221515033717E-3    1.974561522668805E-3    3.640615400074348E-3    4.146086535803774E-1   -3.457504151817842E-1
 7.838348772250000E9     5.641369987687892E-1   -5.390164235123725E-2    2.030954927662807E-3    3.684498869358292E-3    1.955226017130293E-3    3.663898550769088E-3    4.132990320199885E-1   -3.475800245253593E-1
 7.838382780700000E9     5.639760965302327E-1   -5.612472162802289E-2    2.023200058652177E-3    3.730182218561000E-3    1.987089113378902E-3    3.676772522824563E-3    4.115801520690326E-1   -3.495179756230848E-1
 7.838416789150000E9     5.638482967596583E-1   -5.827710750423253E-2    2.054363113303667E-3    3.703653706625149E-3    2.055188894142927E-3    3.667475925888659E-3    4.102443876682842E-1   -3.513479526310999E-1
 7.838450797600000E9     5.636026052672131E-1   -6.052930781618483E-2    2.070921054132463E-3    3.734403629088584E-3    2.077356451826283E-3    3.652078535383704E-3    4.087488539012830E-1   -3.531845578061437E-1
 7.838484806050000E9     5.631943054710373E-1   -6.279529811120224E-2    2.095792862615913E-3    3.710452670860096E-3    2.057265559844100E-3    3.658332328709882E-3    4.069654252799507E-1   -3.549558614749156E-1
 7.838518814500000E9     5.630002309787769E-1   -6.514269265759523E-2    2.123168180275717E-3    3.709476840817660E-3    2.103857177117733E-3    3.662429605236885E-3    4.053734984540817E-1   -3.568068169852802E-1
 7.838552822950000E9     5.629201555101629E-1   -6.717513582324250E-2    2.120498442078280E-3    3.689832954166735E-3    2.123046206486577E-3    3.650454139479007E-3    4.038874037094241E-1   -3.585021343597996E-1
 7.838586831400000E9     5.623812498997035E-1   -6.959450960742464E-2    2.158687438912303E-3    3.730072674206364E-3    2.103684476405260E-3    3.671405230581613E-3    4.023264518431436E-1   -3.604412369233299E-1
 7.838620839850000E9     5.622699145297847E-1   -7.190635050907129E-2    2.182900873722829E-3    3.702564124876508E-3    2.188714985631380E-3    3.620978844509458E-3    4.007464730575949E-1   -3.621302058895572E-1
 7.838654848300000E9     5.619887768660006E-1   -7.417673615517617E-2    2.184281918958802E-3    3.686254760315907E-3    2.204193576626744E-3    3.636172858220356E-3    3.991260129205783E-1   -3.638043269159599E-1
 7.838688856750000E9     5.615650889946115E-1   -7.638847418999864E-2    2.243204739642969E-3    3.722962364278763E-3    2.216630041926826E-3    3.675064391351230E-3    3.976484752763206E-1   -3.655124783097586E-1
 7.838722865200000E9     5.613540792373710E-1   -7.874948672066875E-2    2.236110000806294E-3    3.698703921057572E-3    2.227392153272118E-3    3.638171694028905E-3    3.959134657193040E-1   -3.674108101154388E-1
 7.838756873650000E9     5.610877263409839E-1   -8.085813927807911E-2    2.254777274270887E-3    3.679667185720106E-3    2.244552964711378E-3    3.616072862237309E-3    3.942680488913445E-1   -3.691873683164975E-1
 7.838790882100000E9     5.607362408039572E-1   -8.318606708538920E-2    2.293797342351659E-3    3.693026912303696E-3    2.302879960465808E-3    3.646061413463421E-3    3.927584166944074E-1   -3.710175595524198E-1
 7.838824890550000E9     5.602994543231815E-1   -8.532928215857562E-2    2.325261454066631E-3    3.712475377295852E-3    2.284780764084505E-3    3.642991478002619E-3    3.910758087590005E-1   -3.726431326830165E-1
 7.838858899000000E9     5.600466449306779E-1   -8.762202193052422E-2    2.329982418559913E-3    3.707084090634549E-3    2.338466904594985E-3    3.650397888806375E-3    3.893944661998020E-1   -3.743087224812801E-1
 7.838892907450000E9     5.596906240913371E-1   -8.977119410911483E-2    2.369061781334810E-3    3.703156620739073E-3    2.351049915855629E-3    3.629796818877365E-3    3.877593344859732E-1   -3.761490292328197E-1
 7.838926915900000E9     5.593326200619754E-1   -9.224969562469988E-2    2.383993252416225E-3    3.687991061419568E-3    2.382647813454082E-3    3.610197013013850E-3    3.862081846133638E-1   -3.778558537400675E-1
 7.838960924350000E9     5.590349927016512E-1   -9.443313811713745E-2    2.432998974243511E-3    3.687169054815210E-3    2.388731446906686E-3    3.653914137767132E-3    3.844663075137489E-1   -3.794003936389115E-1
 7.838994932800000E9     5.584852850428731E-1   -9.670649725484137E-2    2.457581328462894E-3    3.665387922207739E-3    2.427412507496380E-3    3.628468581034926E-3    3.828791766827902E-1   -3.811729043511375E-1
 7.839028941250000E9     5.580467603570418E-1   -9.874487980246058E-2    2.462696941594344E-3    3.685381425982934E-3    2.409415084120423E-3    3.631138607311808E-3    3.810717618475748E-1   -3.829051366694932E-1
 7.839062949700000E9     5.577659529683778E-1   -1.009952660065030E-1    2.502331707667745E-3    3.700063197138210E-3    2.480965286647896E-3    3.627902241280137E-3    3.794218294689956E-1   -3.847363331190548E-1
 7.839096958150000E9     5.572831160134958E-1   -1.033457692454576E-1    2.515637996136241E-3    3.658830821140039E-3    2.465903627944699E-3    3.624250612748018E-3    3.776295582018447E-1   -3.862021019459241E-1
 7.839130966600000E9     5.568955340382593E-1   -1.056908930691136E-1    2.540549622522386E-3    3.658954496104913E-3    2.528994540956612E-3    3.604326031387925E-3    3.760577394898921E-1   -3.881433163964937E-1
 7.839164975050000E9     5.565686003312165E-1   -1.078646242639307E-1    2.557052103999072E-3    3.682560206438595E-3    2.551816472183004E-3    3.625983114600680E-3    3.742828774786149E-1   -3.895954741827551E-1
 7.839198983500000E9     5.562017048535368E-1   -1.101669525010740E-1    2.584822870308611E-3    3.644837560391885E-3    2.569102139954397E-3    3.652546681839629E-3    3.725936723568141E-1   -3.913541680322604E-1
 7.839232991950000E9     5.556497698332943E-1   -1.123310641253447E-1    2.599492166836824E-3    3.680671445632105E-3    2.630740142382676E-3    3.632401085072946E-3    3.708545565646801E-1   -3.928746367118247E-1
 7.839267000400000E9     5.551631653302774E-1   -1.145103364630480E-1    2.638412196606643E-3    3.676641568761759E-3    2.591044543460004E-3    3.608043738250523E-3    3.691398544308994E-1   -3.945060587899227E-1
 7.839301008850000E9     5.546807461601104E-1   -1.167298643041807E-1    2.686332091706172E-3    3.668549359093871E-3    2.599392628881186E-3    3.628143099228274E-3    3.675077379718612E-1   -3.961540371956572E-1
 7.839335017300000E9     5.542580675472685E-1   -1.189733910226834E-1    2.711900000193427E-3    3.654328677222895E-3    2.662124410597903E-3    3.614174354502070E-3    3.656417308295582E-1   -3.978298687520112E-1
 7.839369025750000E9     5.537202355460830E-1   -1.211392026955065E-1    2.727192564481474E-3    3.655631690269410E-3    2.690152135869351E-3    3.612258698877070E-3    3.639119087412954E-1   -3.993814555204347E-1
 7.839403034200000E9     5.532744168685915E-1   -1.235459786045880E-1    2.749473952058354E-3    3.675686689195564E-3    2.704426721646021E-3    3.620916331688771E-3    3.621855806743360E-1   -4.011410257509987E-1
 7.839437042650000E9     5.528089408878327E-1   -1.257158288957263E-1    2.763546784063478E-3    3.663588060617872E-3    2.752493290507055E-3    3.634877619692801E-3    3.604530098921664E-1   -4.028066906706480E-1
 7.839471051100000E9     5.523082056756227E-1   -1.278968837259279E-1    2.802862572389898E-3    3.648480348082328E-3    2.745683197018401E-3    3.603418722818422E-3    3.586225176896439E-1   -4.041568384739350E-1
 7.839505059550000E9     5.516720950792300E-1   -1.302495080013673E-1    2.822902141716425E-3    3.631904097314525E-3    2.784462958709790E-3    3.608717544595139E-3    3.568515167436255E-1   -4.059518516962435E-1
 7.839539068000000E9     5.512687293880889E-1   -1.324101878321245E-1    2.863778291014369E-3    3.658371715257004E-3    2.820895880323149E-3    3.592299594691109E-3    3.550083758312339E-1   -4.074824172084410E-1
 7.839573076450000E9     5.506494899169232E-1   -1.346524449172044E-1    2.892396096448820E-3    3.633649589244759E-3    2.836715921755047E-3    3.612347712394798E-3    3.531909451443734E-1   -4.089092055476129E-1
 7.839607084900000E9     5.501343181560864E-1   -1.367912202210282E-1    2.924951672849035E-3    3.630890966890548E-3    2.869136904114509E-3    3.600801939909414E-3    3.514639511122795E-1   -4.106391258705926E-1
 7.839641093350000E9     5.494778005322895E-1   -1.390588016221618E-1    2.946607717380536E-3    3.659306423588928E-3    2.879076024743683E-3    3.605614429689907E-3    3.495049293446852E-1   -4.120906496498192E-1
 7.839675101800000E9     5.489104482800610E-1   -1.412899679503698E-1    2.954243774651060E-3    3.611171137032421E-3    2.902981388146159E-3    3.600915343582584E-3    3.477460859179968E-1   -4.136810788527557E-1
 7.839709110250000E9     5.483245351629076E-1   -1.434618230010269E-1    2.968732634570664E-3    3.621297134220761E-3    2.937563235861920E-3    3.583826815223811E-3    3.461066972906354E-1   -4.153111797780450E-1
 7.839743118700000E9     5.477377474041007E-1   -1.456925974099510E-1    3.044770004294073E-3    3.600895883498385E-3    3.000787238584746E-3    3.599081907997322E-3    3.442251036138690E-1   -4.168069477280948E-1
 7.839777127150000E9     5.472065800904422E-1   -1.478726427468001E-1    3.053702298786334E-3    3.602555410800062E-3    3.002326757346168E-3    3.633977554739480E-3    3.422466387247807E-1   -4.182454263033489E-1
 7.839811135600000E9     5.465748258533055E-1   -1.501307310154782E-1    3.082508745382955E-3    3.595866689577022E-3    3.074445059175129E-3    3.591297115601984E-3    3.404526820998376E-1   -4.197820025487683E-1
 7.839845144050000E9     5.460424622090808E-1   -1.524161171210946E-1    3.101961335692297E-3    3.611585575779466E-3    3.072417347427251E-3    3.579161215252401E-3    3.386306485366581E-1   -4.211717470175263E-1
 7.839879152500000E9     5.454134290430416E-1   -1.545042431178689E-1    3.147703206632209E-3    3.599339813013136E-3    3.089700030473549E-3    3.578453753136891E-3    3.367411792734999E-1   -4.227747028397743E-1
