#  HZ   S   RI   R     50.00 
! Rohde & Schwarz Vector Network Analyzer 
! Rohde-Schwarz,ZNB20-2Port,1311601062101988,3.16
! Created: UTC 3/20/2024, 11:44:03 AM
! freq[Hz]                re:S11                  im:S11                  re:S21                  im:S21                  re:S12                  im:S12                  re:S22                  im:S22
 8.116825337000000E9     5.063456677754358E-1   -3.658343578249416E-3    7.201752753077482E-4    3.661797896525749E-3    7.978901086609314E-4    3.738122722870246E-3    4.219080583848985E-1   -1.576489615367008E-1
 8.116829292175000E9     5.063859901796409E-1   -4.049438115303928E-3    7.186294764552029E-4    3.659578105618548E-3    7.876146019557947E-4    3.696340534710335E-3    4.219898597579415E-1   -1.580587411922252E-1
 8.116833247350000E9     5.064592947506446E-1   -4.229856625597258E-3    7.330954686893498E-4    3.665058433286210E-3    7.872778781526353E-4    3.700869763812820E-3    4.218484467233137E-1   -1.582959007403981E-1
 8.116837202525000E9     5.062974844725310E-1   -4.595485062884099E-3    7.446067116695085E-4    3.674233349424788E-3    7.927564294837842E-4    3.721430563908170E-3    4.216961043790321E-1   -1.587099815042407E-1
 8.116841157700000E9     5.063125591503154E-1   -4.920229697173937E-3    7.250179190604084E-4    3.680803462933614E-3    8.034630567866592E-4    3.764037225630827E-3    4.215271169502890E-1   -1.588315443910540E-1
 8.116845112875000E9     5.063154364602092E-1   -5.259072924227992E-3    7.262034203659118E-4    3.692761925982932E-3    8.156619482886841E-4    3.711974920982660E-3    4.214490836905841E-1   -1.591223692671918E-1
 8.116849068050000E9     5.062692611508735E-1   -5.476917558319743E-3    7.265589992519188E-4    3.667925516622274E-3    7.987811123310461E-4    3.715639812428435E-3    4.214221869626575E-1   -1.593836631946685E-1
 8.116853023225000E9     5.063000342842719E-1   -5.919443913955145E-3    7.394260731926108E-4    3.678280295954223E-3    7.828366530859950E-4    3.761442165566355E-3    4.212496517502000E-1   -1.595845024766436E-1
 8.116856978400000E9     5.064083161600210E-1   -6.088441096470938E-3    7.636352099539565E-4    3.688606204466706E-3    7.959969903980073E-4    3.718503906762129E-3    4.212580294391586E-1   -1.598450463925435E-1
 8.116860933575000E9     5.062614346071446E-1   -6.538194128704216E-3    7.375523915697700E-4    3.692119638048464E-3    8.188822140665349E-4    3.765064524976853E-3    4.212007222847537E-1   -1.600479471055850E-1
 8.116864888750000E9     5.063977936033315E-1   -6.766161379059882E-3    7.389339279102397E-4    3.690248850928502E-3    8.129512881910055E-4    3.720864177311582E-3    4.210522957227895E-1   -1.603010902412206E-1
 8.116868843925000E9     5.063033186313721E-1   -6.995192249642290E-3    7.640659715153795E-4    3.698314573940019E-3    8.267081899854477E-4    3.763646071150950E-3    4.208574088012746E-1   -1.607706122111689E-1
 8.116872799100000E9     5.062994612035336E-1   -7.274400083223275E-3    7.303867508571414E-4    3.677915038121031E-3    8.263116651496498E-4    3.754983871852123E-3    4.208357015887401E-1   -1.607736572478586E-1
 8.116876754275000E9     5.062811537622010E-1   -7.699698036204496E-3    7.621477421530048E-4    3.711526743137874E-3    8.119152507928735E-4    3.732640899157664E-3    4.208228483354159E-1   -1.611410673823706E-1
 8.116880709450000E9     5.062797149974625E-1   -7.998089834885792E-3    7.478095293121318E-4    3.715328361654626E-3    8.188383369764021E-4    3.741151312363371E-3    4.207757598555120E-1   -1.613962746173437E-1
 8.116884664625000E9     5.062424486232746E-1   -8.339556561795270E-3    7.613839809959101E-4    3.699875602506695E-3    8.346564920200030E-4    3.787345201969991E-3    4.206703883126969E-1   -1.615620097931879E-1
 8.116888619800000E9     5.061490720740739E-1   -8.589928650229258E-3    7.779318691490455E-4    3.696185314988474E-3    8.287704679319178E-4    3.764526103336392E-3    4.205359939394647E-1   -1.618784703716132E-1
 8.116892574975000E9     5.062416122159215E-1   -8.940085395424640E-3    7.654384839899058E-4    3.720207240281085E-3    8.629885600426139E-4    3.781721758017358E-3    4.204237018445905E-1   -1.621315300008754E-1
 8.116896530150000E9     5.062027904296403E-1   -9.177754770247652E-3    7.757558909375410E-4    3.710266608470061E-3    8.201726155084147E-4    3.750711171280787E-3    4.202423332516904E-1   -1.625057719783395E-1
 8.116900485325000E9     5.062221062187037E-1   -9.509143151881016E-3    7.808392459623457E-4    3.713645959123876E-3    8.313267281833316E-4    3.743669880694000E-3    4.202746502839398E-1   -1.627133963076959E-1
 8.116904440500000E9     5.061631898492297E-1   -9.830187575037255E-3    7.850308160724754E-4    3.722874530214258E-3    8.335495376670663E-4    3.766245754301888E-3    4.201884441239510E-1   -1.630408294609473E-1
 8.116908395675000E9     5.060640684139380E-1   -1.026982855347791E-2    7.903543202416046E-4    3.707503019839232E-3    8.643307939998726E-4    3.743679692343786E-3    4.200617671354039E-1   -1.631993352750294E-1
 8.116912350850000E9     5.060379829139297E-1   -1.057824553178325E-2    7.758235507322199E-4    3.700612908164432E-3    8.476566747641358E-4    3.780355580279812E-3    4.200288397013529E-1   -1.635285000838972E-1
 8.116916306025000E9     5.060778861682744E-1   -1.074841682646977E-2    8.161330891062390E-4    3.720199485860310E-3    8.493114127074464E-4    3.759065644738369E-3    4.198928804381367E-1   -1.637016923504415E-1
 8.116920261200000E9     5.060593269655782E-1   -1.114003414088641E-2    7.845380065320272E-4    3.743161506754105E-3    8.528805246754628E-4    3.756819095244667E-3    4.198629729849669E-1   -1.639987503973871E-1
 8.116924216375000E9     5.061278672620885E-1   -1.133344392450225E-2    8.323097993682615E-4    3.718858440557987E-3    8.506311989741104E-4    3.745477830723869E-3    4.197018635650342E-1   -1.643723052477256E-1
 8.116928171550000E9     5.061045293679501E-1   -1.166912854710737E-2    8.046963348741606E-4    3.720561589508543E-3    8.491687623378392E-4    3.788163085098219E-3    4.197089750167315E-1   -1.645247062665947E-1
 8.116932126725000E9     5.061455430776618E-1   -1.201535286025843E-2    8.236742911054897E-4    3.723234909777710E-3    8.808503798127832E-4    3.759107744476233E-3    4.194857936973616E-1   -1.648153340513393E-1
 8.116936081900000E9     5.059986655602379E-1   -1.230807905233755E-2    8.344295997725560E-4    3.753863581713354E-3    8.799918601555605E-4    3.783210495875027E-3    4.193264013658716E-1   -1.650602905436769E-1
 8.116940037075000E9     5.060516027394502E-1   -1.258715710544290E-2    8.141956779045101E-4    3.723985304723117E-3    8.789488764125675E-4    3.810851714549901E-3    4.193656467319484E-1   -1.654002449839445E-1
 8.116943992250000E9     5.059317914429320E-1   -1.294550933369859E-2    8.385264066117743E-4    3.750029804774678E-3    8.744145941140313E-4    3.785489043621592E-3    4.192813077934984E-1   -1.655385138109086E-1
 8.116947947425000E9     5.060176487100202E-1   -1.330872348193843E-2    8.139964322793502E-4    3.747595574368900E-3    8.873975787181312E-4    3.821095558226549E-3    4.192229936349138E-1   -1.658669168804568E-1
 8.116951902600000E9     5.060124183882437E-1   -1.357211358970836E-2    8.062605256288162E-4    3.746849349721906E-3    8.958678092205320E-4    3.754379607467613E-3    4.190970160115677E-1   -1.659834004593937E-1
 8.116955857775000E9     5.059117124663466E-1   -1.385688537139033E-2    8.082401290930813E-4    3.734616529560809E-3    8.844162950494040E-4    3.803683249613741E-3    4.189580899432352E-1   -1.664141792421046E-1
 8.116959812950000E9     5.059764733588683E-1   -1.414034974902778E-2    8.408772700712884E-4    3.742221213556574E-3    8.985345936088986E-4    3.793458171838939E-3    4.188647685837575E-1   -1.667607817946972E-1
 8.116963768125000E9     5.058704952083819E-1   -1.433408729679876E-2    8.691496548901610E-4    3.734751109279044E-3    8.865535878992885E-4    3.832324229388563E-3    4.188104558193065E-1   -1.669591055780345E-1
 8.116967723300000E9     5.058620569541191E-1   -1.459777589474828E-2    8.501687490151558E-4    3.740817554462023E-3    9.097881427982158E-4    3.817533959238522E-3    4.186726855523460E-1   -1.671118466959850E-1
 8.116971678475000E9     5.059116938442951E-1   -1.504195412273385E-2    8.550579899641408E-4    3.754100126775162E-3    8.645856325666531E-4    3.801791760186822E-3    4.185693820914505E-1   -1.675333326528477E-1
 8.116975633650000E9     5.060171164739826E-1   -1.536294223422601E-2    8.514053213756208E-4    3.751479377093389E-3    9.170972446381674E-4    3.820611622709038E-3    4.187149712403679E-1   -1.676453544969295E-1
 8.116979588825000E9     5.058032497735045E-1   -1.572543496729827E-2    8.499117087407950E-4    3.768835435220943E-3    8.890989441743283E-4    3.781927970850370E-3    4.184016752740385E-1   -1.679648350465572E-1
 8.116983544000000E9     5.059595675664770E-1   -1.604712597246239E-2    8.625091676841739E-4    3.776820546580329E-3    9.128192220655423E-4    3.827549318179406E-3    4.183706369950461E-1   -1.681266436034707E-1
 8.116987499175000E9     5.058930868212852E-1   -1.627394351848873E-2    8.794367838180793E-4    3.798759225634344E-3    9.221253064902254E-4    3.860490420919023E-3    4.183028426167422E-1   -1.683864383151399E-1
 8.116991454350000E9     5.057658553406180E-1   -1.661238570843355E-2    8.542023645750447E-4    3.754594682522046E-3    9.354144186733125E-4    3.818283430174787E-3    4.182414345582284E-1   -1.685933321787175E-1
 8.116995409525000E9     5.058688737142610E-1   -1.698216678147907E-2    8.765750254480997E-4    3.784130345160956E-3    8.988038703904069E-4    3.800842205164211E-3    4.181496953787846E-1   -1.689807375272657E-1
 8.116999364700000E9     5.058178794738484E-1   -1.716982886186231E-2    8.483230042720900E-4    3.770444528172072E-3    9.713088971649463E-4    3.833401099021658E-3    4.180703955985179E-1   -1.693975339053752E-1
 8.117003319875000E9     5.058406441012214E-1   -1.758458764794495E-2    8.804073068411431E-4    3.775587278907508E-3    9.225197988788396E-4    3.836608236907706E-3    4.179002758707780E-1   -1.694707594210038E-1
 8.117007275050000E9     5.057880926833412E-1   -1.788297633276040E-2    8.713010709511889E-4    3.775953693220482E-3    9.218876271574874E-4    3.860981587052336E-3    4.178048393251117E-1   -1.698372973094669E-1
 8.117011230225000E9     5.057635368010002E-1   -1.819883606150706E-2    8.802400728013839E-4    3.784275342264220E-3    9.342943645450228E-4    3.826848269490647E-3    4.178099698958190E-1   -1.699024674391789E-1
 8.117015185400000E9     5.057365843348137E-1   -1.844460197650908E-2    8.978510289872888E-4    3.784003334662202E-3    9.545089042309935E-4    3.839968310636693E-3    4.176515218409072E-1   -1.702849184162548E-1
 8.117019140575000E9     5.057876068890804E-1   -1.876621574775187E-2    9.024106002453559E-4    3.793469853213147E-3    9.479860428112854E-4    3.835629298801244E-3    4.176304044029319E-1   -1.705399739040747E-1
 8.117023095750000E9     5.057429985930503E-1   -1.900734338758675E-2    9.071352270578305E-4    3.799832116902283E-3    9.703851090713891E-4    3.830217021583249E-3    4.174374266892278E-1   -1.707261706456469E-1
 8.117027050925000E9     5.057287551622657E-1   -1.941069826370663E-2    9.072924485112369E-4    3.780118439641925E-3    9.515087286667422E-4    3.842767905098408E-3    4.173069679558555E-1   -1.710959070435600E-1
 8.117031006100000E9     5.056615189081222E-1   -1.969995794340546E-2    9.032262216274524E-4    3.813411041151914E-3    9.413338762740912E-4    3.862146010178045E-3    4.172311268699913E-1   -1.713375986089530E-1
 8.117034961275000E9     5.056355339187649E-1   -1.995440907093398E-2    9.005519855422950E-4    3.795513751920122E-3    9.827213864459917E-4    3.843209067708987E-3    4.170902920270329E-1   -1.715423105203761E-1
 8.117038916450000E9     5.055820532786107E-1   -2.033636859423812E-2    9.223730815990382E-4    3.812533985309308E-3    9.972064004515229E-4    3.874311674495320E-3    4.171697207504876E-1   -1.718250863328678E-1
 8.117042871625000E9     5.055259640871180E-1   -2.055880312658740E-2    9.150947133905138E-4    3.803793128122377E-3    9.749189266725056E-4    3.865436936520702E-3    4.168433659870710E-1   -1.720109475925609E-1
 8.117046826800000E9     5.055983788803893E-1   -2.106544529705898E-2    9.125787988019495E-4    3.805212882253441E-3    9.630209880458631E-4    3.843738573589665E-3    4.168183323644244E-1   -1.724012219072506E-1
 8.117050781975000E9     5.057079662180767E-1   -2.128295377597066E-2    9.246078399694223E-4    3.818693920488096E-3    9.643753369916313E-4    3.873227088087161E-3    4.168049295433648E-1   -1.726255810182974E-1
 8.117054737150000E9     5.054956496855744E-1   -2.162568132331997E-2    9.328158753914485E-4    3.819799482799649E-3    1.001747512083298E-3    3.875667933897267E-3    4.167257498407649E-1   -1.727833197797990E-1
 8.117058692325000E9     5.055028162878024E-1   -2.192788380468304E-2    9.410155393126412E-4    3.828545693169878E-3    1.005352635821969E-3    3.889104866890984E-3    4.167117144042659E-1   -1.730734435080698E-1
 8.117062647500000E9     5.054558619029628E-1   -2.219661198295108E-2    9.387525098591584E-4    3.830355032234925E-3    1.006298721554231E-3    3.871052093575209E-3    4.165455046630232E-1   -1.732905858798016E-1
 8.117066602675000E9     5.054049652770094E-1   -2.255688386787567E-2    9.382354808184334E-4    3.803797329558635E-3    1.004497753382011E-3    3.843345655326726E-3    4.163887423696334E-1   -1.735559851366189E-1
 8.117070557850000E9     5.054142043141151E-1   -2.289223509867620E-2    9.445647874998980E-4    3.855397051018148E-3    1.002763503097962E-3    3.898736933628727E-3    4.162949673298201E-1   -1.738252213177214E-1
 8.117074513025000E9     5.053468400512627E-1   -2.322671431120190E-2    9.448878314229657E-4    3.865530481082653E-3    1.019477342936991E-3    3.923799538172072E-3    4.162685728477296E-1   -1.741722539314966E-1
 8.117078468200000E9     5.054194502675403E-1   -2.348361404573215E-2    9.320148263861095E-4    3.863123471108076E-3    1.001359052394237E-3    3.908859572587377E-3    4.160901349944431E-1   -1.744993067980990E-1
 8.117082423375000E9     5.054044895973270E-1   -2.380670118014857E-2    9.728595052595558E-4    3.859506315725205E-3    1.034856595342682E-3    3.903919628286160E-3    4.160621722121812E-1   -1.745164969780093E-1
 8.117086378550000E9     5.053861346640014E-1   -2.410379479111633E-2    9.701172428543644E-4    3.855706505971996E-3    1.011768379313387E-3    3.865243080289671E-3    4.158644994457858E-1   -1.749016337345724E-1
 8.117090333725000E9     5.052260936776576E-1   -2.445256405927373E-2    9.689340213785158E-4    3.865534493724336E-3    1.029363683181155E-3    3.905669396062691E-3    4.158059241481558E-1   -1.752785531067350E-1
 8.117094288900000E9     5.052932875120744E-1   -2.472883238009937E-2    9.719473551656717E-4    3.846522781741017E-3    1.012530953751930E-3    3.929100775964817E-3    4.158171123815628E-1   -1.755340778709195E-1
 8.117098244075000E9     5.052384556395751E-1   -2.497080966799765E-2    9.621549865441971E-4    3.866281766134563E-3    1.031117203289126E-3    3.910544884748139E-3    4.156707335898946E-1   -1.757409173874094E-1
 8.117102199250000E9     5.052378833916291E-1   -2.536693933329144E-2    9.854887808772917E-4    3.873668442729502E-3    1.055921702857599E-3    3.941902211787184E-3    4.156211279814974E-1   -1.759775719170657E-1
 8.117106154425000E9     5.051860588293761E-1   -2.563700070942211E-2    9.686094840369151E-4    3.892056558265953E-3    1.059188135503553E-3    3.954581919139354E-3    4.153464298261695E-1   -1.762450425770749E-1
 8.117110109600000E9     5.051606265243145E-1   -2.605975422547677E-2    9.730577369586050E-4    3.894858586695806E-3    1.075154331886917E-3    3.919562520420427E-3    4.153534080753035E-1   -1.762964374000111E-1
 8.117114064775000E9     5.051226065630608E-1   -2.629366220510249E-2    9.950522165567870E-4    3.901397357901131E-3    1.035177185525995E-3    3.965116730328745E-3    4.152573762437705E-1   -1.766970720009230E-1
 8.117118019950000E9     5.050779965089702E-1   -2.672745787524088E-2    9.745799008509214E-4    3.899289671635820E-3    1.054237833497732E-3    3.936488634618972E-3    4.151815102020184E-1   -1.769942260055820E-1
 8.117121975125000E9     5.051147661174432E-1   -2.697539020130549E-2    9.793582854454974E-4    3.905535541860218E-3    1.073534780373877E-3    3.950123490300001E-3    4.149841345345300E-1   -1.771742232811062E-1
 8.117125930300000E9     5.050345847882968E-1   -2.732268362480348E-2    1.018217616412583E-3    3.933015276451222E-3    1.060872706500610E-3    3.945184919466390E-3    4.149377864736377E-1   -1.776216314690179E-1
 8.117129885475000E9     5.049850719455847E-1   -2.761885961618897E-2    1.021460874302178E-3    3.906118285912950E-3    1.036276857865531E-3    3.985260049262824E-3    4.148712800388278E-1   -1.777328096934608E-1
 8.117133840650000E9     5.050332889094076E-1   -2.788950226088811E-2    1.015405831162284E-3    3.915625167185246E-3    1.095802052183392E-3    3.971802898905435E-3    4.147149240414054E-1   -1.779564358731487E-1
 8.117137795825000E9     5.049919341909765E-1   -2.824315799738447E-2    1.010258305707459E-3    3.925704167086771E-3    1.088929070299760E-3    3.976686049054260E-3    4.147503561524164E-1   -1.782626219943790E-1
 8.117141751000000E9     5.048956993611246E-1   -2.861122886700463E-2    9.960905768995475E-4    3.921671510058252E-3    1.072506456455109E-3    3.964891064158117E-3    4.145135448424859E-1   -1.786580957742111E-1
 8.117145706175000E9     5.049505526432503E-1   -2.893312902432789E-2    1.038580423589309E-3    3.943461459687702E-3    1.104672773599649E-3    3.992744686374841E-3    4.143979463771243E-1   -1.788419960941377E-1
 8.117149661350000E9     5.049209348052227E-1   -2.921408412905020E-2    1.050021585874957E-3    3.937117990627019E-3    1.118892381366520E-3    3.979755367884039E-3    4.142932742497148E-1   -1.791731182823801E-1
 8.117153616525000E9     5.048933729712223E-1   -2.957876341425203E-2    1.028109800819894E-3    3.936001301795088E-3    1.120997582598280E-3    3.968602808277606E-3    4.143038656243128E-1   -1.793119667213780E-1
 8.117157571700000E9     5.047834150961351E-1   -2.985143479614397E-2    1.041777301233054E-3    3.933110199306294E-3    1.124685736711628E-3    3.992784576896118E-3    4.143003883054342E-1   -1.795967066671631E-1
 8.117161526875000E9     5.047507185018740E-1   -3.016598364128004E-2    1.048476496467619E-3    3.957275983396452E-3    1.119724111412968E-3    3.994326060561591E-3    4.140171619622866E-1   -1.799057187376622E-1
 8.117165482050000E9     5.046823607980108E-1   -3.042271129972783E-2    1.056434741251714E-3    3.943422473448392E-3    1.130788143593390E-3    4.002165623902353E-3    4.139226463614627E-1   -1.800732065736239E-1
 8.117169437225000E9     5.047287647765447E-1   -3.080433224342380E-2    1.070325638132055E-3    3.982050742359141E-3    1.153419425966783E-3    4.023180686233724E-3    4.138586190751526E-1   -1.803111079933264E-1
 8.117173392400000E9     5.047662942485178E-1   -3.124694237168850E-2    1.064647033523747E-3    3.988235618807670E-3    1.118985007413481E-3    4.029000152820236E-3    4.137658261756620E-1   -1.805189764536920E-1
 8.117177347575000E9     5.045799493981532E-1   -3.137572545925603E-2    1.096605621296141E-3    3.983806056532366E-3    1.144764952943173E-3    4.037033794399258E-3    4.137333401116906E-1   -1.809519553708967E-1
 8.117181302750000E9     5.046636209968365E-1   -3.169751722469100E-2    1.078496136712632E-3    3.982469452247921E-3    1.150647968264878E-3    4.036397288535326E-3    4.134940307306340E-1   -1.810691316240294E-1
