#  HZ   S   RI   R     50.00 
! Rohde & Schwarz Vector Network Analyzer 
! Rohde-Schwarz,ZNB20-2Port,1311601062101988,3.16
! Created: UTC 12/23/2023, 3:53:45 AM
! freq[Hz]                re:S11                  im:S11                  re:S21                  im:S21                  re:S12                  im:S12                  re:S22                  im:S22
 7.836935652000000E9     5.646772417613873E-1    4.017201137096669E-2    1.171954981290003E-3    3.759732575051458E-3    1.167416544139449E-3    3.703463094753728E-3    4.693424277803234E-1   -2.659511201427221E-1
 7.836969222125000E9     5.648588403951283E-1    3.787016793593415E-2    1.178032323290636E-3    3.749402528634811E-3    1.193603508111089E-3    3.687963098254185E-3    4.683682411270342E-1   -2.680857340128165E-1
 7.837002792250000E9     5.650128361299177E-1    3.565587187720643E-2    1.196425343439975E-3    3.772001338164626E-3    1.226180253175208E-3    3.646934524542071E-3    4.668938551695709E-1   -2.702654983687546E-1
 7.837036362375000E9     5.652258146842346E-1    3.351800000157843E-2    1.212922358667231E-3    3.761996854775137E-3    1.284392692917503E-3    3.691618740626271E-3    4.659170094017011E-1   -2.722552692646445E-1
 7.837069932500000E9     5.653605581860670E-1    3.123563852017208E-2    1.250344479749629E-3    3.776550442361940E-3    1.251878901415812E-3    3.715469983015826E-3    4.646971710547426E-1   -2.742651650457598E-1
 7.837103502625000E9     5.655129116343146E-1    2.910117683847374E-2    1.255028150590883E-3    3.766355886426691E-3    1.273096623567013E-3    3.683000375253554E-3    4.635170740744690E-1   -2.762380088946106E-1
 7.837137072750000E9     5.656233100214710E-1    2.678567515325360E-2    1.255868742655976E-3    3.748339178809444E-3    1.323057098242194E-3    3.689184919181047E-3    4.623020687576596E-1   -2.783920887039420E-1
 7.837170642875000E9     5.658393346239441E-1    2.464186849856161E-2    1.288805363680734E-3    3.767393999642672E-3    1.286459482745486E-3    3.662862589433659E-3    4.610403809343266E-1   -2.804233563613827E-1
 7.837204213000000E9     5.658767968367586E-1    2.255253087420398E-2    1.315918937946146E-3    3.794528913219526E-3    1.354942936096090E-3    3.683959133702004E-3    4.597450319493360E-1   -2.822628263813244E-1
 7.837237783125000E9     5.658361863117954E-1    2.023344048257883E-2    1.358509233604467E-3    3.774306085009946E-3    1.325936681324970E-3    3.680349311791720E-3    4.584671312300517E-1   -2.843243269414360E-1
 7.837271353250000E9     5.660372920644627E-1    1.781419124156643E-2    1.356150625420814E-3    3.764686818462443E-3    1.330223927611903E-3    3.675378504236887E-3    4.572551499604559E-1   -2.863992170756392E-1
 7.837304923375000E9     5.661387368490266E-1    1.562142262518990E-2    1.369709892090379E-3    3.747852315301644E-3    1.390147951877985E-3    3.653681257197824E-3    4.561048338846533E-1   -2.883431863646310E-1
 7.837338493500000E9     5.663303260379078E-1    1.360121223009681E-2    1.384442746565002E-3    3.760188087768900E-3    1.421943253546635E-3    3.701629961977503E-3    4.548365352790931E-1   -2.904246263817432E-1
 7.837372063625000E9     5.662617590762948E-1    1.126113539262892E-2    1.406309860542197E-3    3.732612686281649E-3    1.451115848285828E-3    3.667420928469906E-3    4.536470868545996E-1   -2.923463596512184E-1
 7.837405633750000E9     5.663404759626359E-1    8.940780740236640E-3    1.438779623595239E-3    3.782079145447049E-3    1.464289947427352E-3    3.685978350259945E-3    4.523555871725461E-1   -2.941443934107483E-1
 7.837439203875000E9     5.663358367669599E-1    6.687343162918882E-3    1.441541083858000E-3    3.757816793648897E-3    1.453105572588588E-3    3.687126040291320E-3    4.509574953694760E-1   -2.963490414392451E-1
 7.837472774000000E9     5.663998544821903E-1    4.626042953267753E-3    1.471101392721774E-3    3.754822305114109E-3    1.488468112097507E-3    3.711501335941595E-3    4.498779062252810E-1   -2.981916771144651E-1
 7.837506344125000E9     5.664732686550723E-1    2.242841796716366E-3    1.492511999982321E-3    3.726568264287715E-3    1.516756688909462E-3    3.711228826672365E-3    4.484903290027419E-1   -3.002201558457547E-1
 7.837539914250000E9     5.665139397660977E-1    7.867775809805406E-5    1.515058718070932E-3    3.738181393267028E-3    1.512865445958342E-3    3.701333447842358E-3    4.472303259364060E-1   -3.022328254221925E-1
 7.837573484375000E9     5.665100454711764E-1   -2.229501225803686E-3    1.551331746197216E-3    3.766985263098884E-3    1.535383097911793E-3    3.705485384529889E-3    4.459771437220673E-1   -3.042317024534413E-1
 7.837607054500000E9     5.663771442039613E-1   -4.420533482440906E-3    1.540814032617263E-3    3.719349254014208E-3    1.546135652554985E-3    3.660372427559511E-3    4.444194316225579E-1   -3.060224615954564E-1
 7.837640624625000E9     5.665175574454679E-1   -6.567892672061082E-3    1.562195899041688E-3    3.741211053199109E-3    1.593340804189114E-3    3.692980818851969E-3    4.432079333534252E-1   -3.080107914444378E-1
 7.837674194750000E9     5.664982558570942E-1   -8.944721439852305E-3    1.592745702873624E-3    3.762675512680291E-3    1.606743678054992E-3    3.704299240625846E-3    4.417537107350882E-1   -3.098842037397969E-1
 7.837707764875000E9     5.664467969264751E-1   -1.124481166598728E-2    1.615568240388864E-3    3.748014122820868E-3    1.629078880010494E-3    3.673176958181135E-3    4.405450703337552E-1   -3.120078761436645E-1
 7.837741335000000E9     5.664534004914981E-1   -1.330729540719986E-2    1.617856660133296E-3    3.745196769304480E-3    1.605661427125318E-3    3.677476345065142E-3    4.392158123336868E-1   -3.138594528386165E-1
 7.837774905125000E9     5.663743477615717E-1   -1.546788924458968E-2    1.648542965958002E-3    3.727724380893873E-3    1.617127059197241E-3    3.684475964125918E-3    4.378502090869748E-1   -3.157371060860990E-1
 7.837808475250000E9     5.662496099816740E-1   -1.782549013123334E-2    1.673876819470252E-3    3.738265761465509E-3    1.670329044693799E-3    3.656773941975462E-3    4.363105608736284E-1   -3.177382415348266E-1
 7.837842045375000E9     5.663256565904708E-1   -2.003304744127913E-2    1.670613190532763E-3    3.759574146103129E-3    1.666481473956773E-3    3.673690577640444E-3    4.350592036028608E-1   -3.195393115756678E-1
 7.837875615500000E9     5.661544015542640E-1   -2.226822217836828E-2    1.719244464137706E-3    3.756451370999175E-3    1.709560534369379E-3    3.679422532260363E-3    4.336238238164668E-1   -3.215039281761983E-1
 7.837909185625000E9     5.660558987930210E-1   -2.455216924724618E-2    1.740365907104528E-3    3.729919328146809E-3    1.752697983571600E-3    3.712124676881475E-3    4.323485487055631E-1   -3.234254168926036E-1
 7.837942755750000E9     5.659860887130903E-1   -2.681684817567326E-2    1.743793958220779E-3    3.739774410723712E-3    1.751844769912545E-3    3.670931852142552E-3    4.307913737097677E-1   -3.251343837763753E-1
 7.837976325875000E9     5.659097272242307E-1   -2.883636849990581E-2    1.767552626635161E-3    3.741757410131632E-3    1.781902402067782E-3    3.692300711193380E-3    4.295403685111300E-1   -3.270585577029058E-1
 7.838009896000000E9     5.658407232449778E-1   -3.113868351376088E-2    1.778506759202160E-3    3.752129286559104E-3    1.794035550420428E-3    3.686018927382739E-3    4.282362674253508E-1   -3.289952512001574E-1
 7.838043466125000E9     5.656121057068454E-1   -3.341237207220969E-2    1.806019105866447E-3    3.736210297994833E-3    1.803724578949302E-3    3.654808864765727E-3    4.265556258929271E-1   -3.309935738917609E-1
 7.838077036250000E9     5.655518884721370E-1   -3.565854191517345E-2    1.827025568231341E-3    3.727770284560655E-3    1.788925777855012E-3    3.655685730881305E-3    4.251104415496941E-1   -3.325496923435048E-1
 7.838110606375000E9     5.654180741641137E-1   -3.793221176865937E-2    1.866857071491234E-3    3.705654393740801E-3    1.885451526349411E-3    3.653600958895169E-3    4.236828288920401E-1   -3.345854005951110E-1
 7.838144176500000E9     5.651295856917899E-1   -4.022622034711174E-2    1.859371654593404E-3    3.718481065068688E-3    1.849215381636198E-3    3.686002124376940E-3    4.222019254637124E-1   -3.363844030583660E-1
 7.838177746625000E9     5.650897368972237E-1   -4.235373362153098E-2    1.906501692073967E-3    3.720256752262326E-3    1.895641046082582E-3    3.636462432595569E-3    4.208456139756638E-1   -3.383311736177027E-1
 7.838211316750000E9     5.649475392116469E-1   -4.478068996130414E-2    1.912061620387193E-3    3.713519607339073E-3    1.914506983383850E-3    3.652527457185871E-3    4.193351471420280E-1   -3.400730523585374E-1
 7.838244886875000E9     5.648157237393342E-1   -4.690755537171057E-2    1.927546265123462E-3    3.726644048515801E-3    1.904466644290724E-3    3.660189014982607E-3    4.178066545003433E-1   -3.420639746027840E-1
 7.838278457000000E9     5.646221388201789E-1   -4.905355993819863E-2    1.939282480943778E-3    3.760396667041889E-3    1.943909516284774E-3    3.662590954671899E-3    4.164697586966405E-1   -3.439831517081747E-1
 7.838312027125000E9     5.645314675294106E-1   -5.128799290767801E-2    1.956406961909943E-3    3.713065253388154E-3    1.982205773913768E-3    3.669129575901558E-3    4.149651504113800E-1   -3.457034077745708E-1
 7.838345597250000E9     5.641475922605568E-1   -5.356830309697663E-2    2.014442398117501E-3    3.720787862183562E-3    2.008122407376638E-3    3.649413126335822E-3    4.133131911198409E-1   -3.474053396023954E-1
 7.838379167375000E9     5.639803304910420E-1   -5.579726262156343E-2    2.057930135908739E-3    3.721071426736254E-3    2.023593413604219E-3    3.647124479135881E-3    4.118482214048494E-1   -3.493019993354861E-1
 7.838412737500000E9     5.638366552019930E-1   -5.801240790704267E-2    2.044146444549044E-3    3.710358144366805E-3    2.042795335688740E-3    3.699014919039486E-3    4.103848324191766E-1   -3.509967110735480E-1
 7.838446307625000E9     5.635173841055662E-1   -6.017745792467137E-2    2.056386540031779E-3    3.699468114870149E-3    2.061941101089955E-3    3.651541946443307E-3    4.088991736794075E-1   -3.528965680734995E-1
 7.838479877750000E9     5.633257577742936E-1   -6.240964974115363E-2    2.086121827891781E-3    3.707833447111395E-3    2.064195575118087E-3    3.616172512641600E-3    4.072727020373847E-1   -3.546366675702180E-1
 7.838513447875000E9     5.629049784311201E-1   -6.465370004682250E-2    2.099173935158690E-3    3.726159986636768E-3    2.097905830100593E-3    3.656805559049796E-3    4.057792064721748E-1   -3.563065474511136E-1
 7.838547018000000E9     5.627604042830286E-1   -6.693770344291783E-2    2.124985058526426E-3    3.686967338510856E-3    2.102634409102034E-3    3.666776742275972E-3    4.041653935297732E-1   -3.582198424010343E-1
 7.838580588125000E9     5.625604595251215E-1   -6.920377367896612E-2    2.165944999628791E-3    3.725407522810977E-3    2.146475504782572E-3    3.658171318597676E-3    4.026634010687652E-1   -3.600441497251318E-1
 7.838614158250000E9     5.623054535975379E-1   -7.140923390498082E-2    2.168893417164574E-3    3.708868818225186E-3    2.160149499001275E-3    3.641983683576787E-3    4.011622381136658E-1   -3.617458673049724E-1
 7.838647728375000E9     5.619676482139400E-1   -7.354737289600265E-2    2.214974047450227E-3    3.704902814491939E-3    2.165821476292064E-3    3.607919550689646E-3    3.995923706274533E-1   -3.634339222184568E-1
 7.838681298500000E9     5.617911410382727E-1   -7.585388957375595E-2    2.202538530859350E-3    3.708058518850438E-3    2.172763913448797E-3    3.659996030279073E-3    3.979058674240261E-1   -3.652155914998613E-1
 7.838714868625000E9     5.613927977111312E-1   -7.804749030279251E-2    2.246787927813870E-3    3.697691765214270E-3    2.226876622455806E-3    3.650058897306519E-3    3.963831431512999E-1   -3.668736854253630E-1
 7.838748438750000E9     5.612543305999959E-1   -8.027704784776354E-2    2.269407379425451E-3    3.721488047814413E-3    2.229541889731187E-3    3.631530945816814E-3    3.947361196763627E-1   -3.686797438445252E-1
 7.838782008875000E9     5.608491477339486E-1   -8.246776622199258E-2    2.263569085860054E-3    3.670930476457586E-3    2.251758936315051E-3    3.632157209145434E-3    3.931793703251120E-1   -3.704989793016306E-1
 7.838815579000000E9     5.606136641211945E-1   -8.475280509873487E-2    2.298344598757628E-3    3.668500283610903E-3    2.277197982378145E-3    3.648590295026811E-3    3.915498060289650E-1   -3.721209318502682E-1
 7.838849149125000E9     5.601799551432809E-1   -8.689049024680459E-2    2.338206460996509E-3    3.674353370386196E-3    2.318740402010934E-3    3.671172485123201E-3    3.899914843925394E-1   -3.737715922834871E-1
 7.838882719250000E9     5.597983437061262E-1   -8.913273338621806E-2    2.333784874167190E-3    3.680832309035138E-3    2.342407270461799E-3    3.636417170649646E-3    3.884251833011781E-1   -3.755747415659255E-1
 7.838916289375000E9     5.593754715388173E-1   -9.135988387739837E-2    2.372385074370857E-3    3.680199903532657E-3    2.368328149696186E-3    3.619025795503221E-3    3.866746549309105E-1   -3.771651220127291E-1
 7.838949859500000E9     5.589530629617795E-1   -9.359704671786018E-2    2.393076626894739E-3    3.693484239358684E-3    2.383992247084672E-3    3.640252351781204E-3    3.849976289048019E-1   -3.788060657013608E-1
 7.838983429625000E9     5.587628980575008E-1   -9.577281063818657E-2    2.433849747335928E-3    3.671902885571606E-3    2.384698715236117E-3    3.636460948830542E-3    3.834244962571591E-1   -3.806595706824111E-1
 7.839016999750000E9     5.584462576350006E-1   -9.806602204052388E-2    2.433019936721706E-3    3.662711725965182E-3    2.409804060692770E-3    3.637546206772455E-3    3.818175023963125E-1   -3.821731961113908E-1
 7.839050569875000E9     5.579017771130027E-1   -1.002549036340693E-1    2.449863634660356E-3    3.663435561173832E-3    2.471491010291461E-3    3.658624166573227E-3    3.800621600640701E-1   -3.839050787223580E-1
 7.839084140000000E9     5.575782594297447E-1   -1.023738240535843E-1    2.521392743815897E-3    3.683039612158788E-3    2.500456194051053E-3    3.607588325782643E-3    3.784307597262022E-1   -3.855818390394693E-1
 7.839117710125000E9     5.571562903623229E-1   -1.046390434157551E-1    2.546735773046319E-3    3.687682609789265E-3    2.518133759263936E-3    3.618773975567104E-3    3.767792075958871E-1   -3.873141926212196E-1
 7.839151280250000E9     5.566661011709338E-1   -1.067951859515386E-1    2.548534863845314E-3    3.682914813698451E-3    2.521530799537527E-3    3.617006433315470E-3    3.750649639403499E-1   -3.888536578442850E-1
 7.839184850375000E9     5.563579631803195E-1   -1.090379110837025E-1    2.547178792980937E-3    3.677382369942739E-3    2.547262900365091E-3    3.618642263519514E-3    3.733205101602351E-1   -3.904400037941144E-1
 7.839218420500000E9     5.557558168359881E-1   -1.111775596376087E-1    2.600832576613211E-3    3.663208537293919E-3    2.580493523846118E-3    3.607448481309935E-3    3.716001208822181E-1   -3.922085620515962E-1
 7.839251990625000E9     5.553709874185694E-1   -1.135124313084987E-1    2.611423103354019E-3    3.663445028963433E-3    2.603348998832316E-3    3.628309599868850E-3    3.699430915004658E-1   -3.938762949301574E-1
 7.839285560750000E9     5.550186546517015E-1   -1.156319646561121E-1    2.662848771462392E-3    3.677570186040937E-3    2.601040096759154E-3    3.604228272958112E-3    3.682564448871250E-1   -3.953843541803838E-1
 7.839319130875000E9     5.544764649649612E-1   -1.179619806369974E-1    2.693420057757555E-3    3.648608245669200E-3    2.679176348785246E-3    3.565817727938032E-3    3.665401544354198E-1   -3.970168500106341E-1
 7.839352701000000E9     5.539911860828928E-1   -1.200714894962960E-1    2.705779438449133E-3    3.646890046687428E-3    2.691569938045961E-3    3.612542080895560E-3    3.647823627737116E-1   -3.986744936172720E-1
 7.839386271125000E9     5.535774703869224E-1   -1.223027993539233E-1    2.706511252533448E-3    3.636758254156754E-3    2.699901003123590E-3    3.603140513693378E-3    3.631767687271384E-1   -4.002644140506638E-1
 7.839419841250000E9     5.531707898804291E-1   -1.246711660682294E-1    2.758337556979010E-3    3.654301505782675E-3    2.710511587127767E-3    3.578575556723290E-3    3.613414614219482E-1   -4.017286715193427E-1
 7.839453411375000E9     5.526197534334176E-1   -1.267296091522140E-1    2.785349917120036E-3    3.665832588708965E-3    2.722262373668256E-3    3.607058590543461E-3    3.595140573153098E-1   -4.033775806298634E-1
 7.839486981500000E9     5.521049208595151E-1   -1.288648054245424E-1    2.808255446159218E-3    3.618987179465990E-3    2.768884356335930E-3    3.580987363604021E-3    3.578614334655260E-1   -4.049356111504198E-1
 7.839520551625000E9     5.514101230877608E-1   -1.309467811073964E-1    2.825965824593230E-3    3.622822303591378E-3    2.796261853033158E-3    3.598508407523605E-3    3.560471293637805E-1   -4.064923721507098E-1
 7.839554121750000E9     5.510257903653013E-1   -1.332330403834817E-1    2.851243266843500E-3    3.611105026369420E-3    2.815573331448064E-3    3.604356949330910E-3    3.541540318342289E-1   -4.080958439854927E-1
 7.839587691875000E9     5.504355080918619E-1   -1.355038762592376E-1    2.894189163957478E-3    3.634638490787137E-3    2.838971448344110E-3    3.600023977021557E-3    3.526384000976100E-1   -4.096277538340238E-1
 7.839621262000000E9     5.499205546888885E-1   -1.376551317038378E-1    2.904607690030211E-3    3.620633094440511E-3    2.869783679850129E-3    3.621429031174082E-3    3.508127750586716E-1   -4.111620229560745E-1
 7.839654832125000E9     5.495214796276036E-1   -1.398776475107276E-1    2.929250869647862E-3    3.631853094530565E-3    2.901496162468873E-3    3.605895950566852E-3    3.489756190778899E-1   -4.126805077965447E-1
 7.839688402250000E9     5.487627596413029E-1   -1.420054173767207E-1    2.963361605120706E-3    3.611994219900722E-3    2.910206931083791E-3    3.577628189383444E-3    3.472358971139736E-1   -4.143436158606845E-1
 7.839721972375000E9     5.481490462020028E-1   -1.442931455095972E-1    2.984682675147101E-3    3.631636807152128E-3    2.935466683424327E-3    3.570914506216448E-3    3.454114961750318E-1   -4.156313896759096E-1
 7.839755542500000E9     5.477978827375932E-1   -1.465480583274142E-1    3.008263464657378E-3    3.604510681727887E-3    2.985156121533367E-3    3.575582880725773E-3    3.435674372571954E-1   -4.173003969224377E-1
 7.839789112625000E9     5.469268951937448E-1   -1.486571690966965E-1    3.040105499701447E-3    3.621251244295630E-3    3.011345323272924E-3    3.577996364651515E-3    3.417481868235500E-1   -4.186537444067610E-1
 7.839822682750000E9     5.464391508615143E-1   -1.507104116846208E-1    3.106550209743406E-3    3.596078471039209E-3    3.032260836519407E-3    3.567403153540317E-3    3.399933844845396E-1   -4.202305828893717E-1
 7.839856252875000E9     5.457401410859311E-1   -1.529282127397821E-1    3.106578810722925E-3    3.625364200550266E-3    3.078611001825945E-3    3.579781326865889E-3    3.381654111418190E-1   -4.217100367540066E-1
 7.839889823000000E9     5.452526252673509E-1   -1.552127551473392E-1    3.144316125697885E-3    3.604524838286855E-3    3.099288493580345E-3    3.529509802374299E-3    3.362756520721837E-1   -4.232251428963812E-1
 7.839923393125000E9     5.444909973666981E-1   -1.572722459282319E-1    3.163967206580432E-3    3.590455184635796E-3    3.117018333445331E-3    3.582065510302398E-3    3.344969216546228E-1   -4.245372291274826E-1
 7.839956963250000E9     5.438728294327788E-1   -1.594726133430671E-1    3.190652366961371E-3    3.570715878243922E-3    3.141633029075937E-3    3.556543708429550E-3    3.326400711325980E-1   -4.260573362313114E-1
