#  HZ   S   RI   R     50.00 
! Rohde & Schwarz Vector Network Analyzer 
! Rohde-Schwarz,ZNB20-2Port,1311601062101988,3.16
! Created: UTC 3/20/2024, 11:44:40 AM
! freq[Hz]                re:S11                  im:S11                  re:S21                  im:S21                  re:S12                  im:S12                  re:S22                  im:S22
 8.116748263000000E9     5.064307936347540E-1    2.239663472465439E-3    6.737500568507872E-4    3.633184536845787E-3    7.442238605502058E-4    3.696846377189937E-3    4.237711070498005E-1   -1.525274363640891E-1
 8.116752518325000E9     5.065692239048724E-1    1.931598454098205E-3    6.788366510478126E-4    3.638480283462248E-3    7.427083582452393E-4    3.709238976872314E-3    4.235909506948504E-1   -1.529015332951704E-1
 8.116756773650000E9     5.064663517056637E-1    1.580168898689206E-3    6.697190103964141E-4    3.647269965357049E-3    7.535337236634152E-4    3.706754524886851E-3    4.235047737918418E-1   -1.532370889664422E-1
 8.116761028975000E9     5.064634010045965E-1    1.231194813326670E-3    6.722849607265585E-4    3.629844152290847E-3    7.601970980896985E-4    3.682425129529160E-3    4.236239551310233E-1   -1.534462633707217E-1
 8.116765284300000E9     5.063886545182180E-1    8.231361868667496E-4    7.106206322635184E-4    3.669657959459032E-3    7.201395872836560E-4    3.680473119417944E-3    4.232992264330551E-1   -1.537615349662779E-1
 8.116769539625000E9     5.065143547449630E-1    5.776672247527539E-4    6.922179030942968E-4    3.627263044148054E-3    7.183756574413251E-4    3.693377082122446E-3    4.233112757958598E-1   -1.540697929516723E-1
 8.116773794950000E9     5.064045346611428E-1    2.879543771129924E-4    7.008687055435142E-4    3.647234548371357E-3    7.785757719074490E-4    3.682610319838891E-3    4.232093532800126E-1   -1.542997742250830E-1
 8.116778050275000E9     5.064346296505494E-1   -1.265142513763427E-4    6.877260186547483E-4    3.639132585041344E-3    7.862365290673600E-4    3.700733091101210E-3    4.230432551148017E-1   -1.545646969254688E-1
 8.116782305600000E9     5.063243909894579E-1   -4.811393589555515E-4    6.937716900002651E-4    3.654913657105992E-3    7.362279432209568E-4    3.700333751780959E-3    4.231130039787143E-1   -1.547876227898117E-1
 8.116786560925000E9     5.064941173419455E-1   -8.464132328977979E-4    6.910427985857633E-4    3.666756535380102E-3    7.629434407233061E-4    3.684399701563273E-3    4.229129152164830E-1   -1.551015020508449E-1
 8.116790816250000E9     5.064453749226870E-1   -1.087285600856660E-3    6.967100803247566E-4    3.658883092810698E-3    7.891010304727483E-4    3.710672989793608E-3    4.228726155640376E-1   -1.554762327243597E-1
 8.116795071575000E9     5.064649864417062E-1   -1.347296293473347E-3    6.865638814500772E-4    3.659872891994734E-3    7.846574595253287E-4    3.713556879834439E-3    4.228663189105208E-1   -1.558651881667329E-1
 8.116799326900000E9     5.064193007578918E-1   -1.792590132344958E-3    7.311480964617613E-4    3.643292617348078E-3    7.884065690984015E-4    3.724998701981728E-3    4.225286202802468E-1   -1.559451502436322E-1
 8.116803582225000E9     5.064739685861555E-1   -2.077219866230360E-3    7.017242895741767E-4    3.659130945062953E-3    7.912946970772515E-4    3.703994067108345E-3    4.226326213996706E-1   -1.562687352911513E-1
 8.116807837550000E9     5.064686234547754E-1   -2.333084519728623E-3    7.386037166776626E-4    3.642363113091376E-3    7.773590627013559E-4    3.737729090872782E-3    4.223697923422690E-1   -1.567311297348330E-1
 8.116812092875000E9     5.064922170881331E-1   -2.556029598977789E-3    7.272059058927406E-4    3.671534880535489E-3    7.864336746886875E-4    3.706243195631929E-3    4.223645135088703E-1   -1.567290395880295E-1
 8.116816348200000E9     5.062780986002408E-1   -3.072709819795488E-3    7.011528821442436E-4    3.664338583950583E-3    7.690212946154046E-4    3.712786142792438E-3    4.222834086857916E-1   -1.570353250441104E-1
 8.116820603525000E9     5.063459942669001E-1   -3.547888212407028E-3    7.022189171910435E-4    3.677333887053562E-3    7.656398571724325E-4    3.724430656596465E-3    4.221035557990613E-1   -1.573368557911298E-1
 8.116824858850000E9     5.064655226158427E-1   -3.744200735447912E-3    7.213054072172805E-4    3.677580791606485E-3    7.798321355272513E-4    3.743885248952832E-3    4.220753285631974E-1   -1.576687469355074E-1
 8.116829114175000E9     5.063514563950740E-1   -3.985649862914351E-3    7.465799290540400E-4    3.664055814305324E-3    7.923913613001712E-4    3.733323773227026E-3    4.220155076390778E-1   -1.579901212037010E-1
 8.116833369500000E9     5.064247891719650E-1   -4.373187110230065E-3    7.442878420758194E-4    3.674444200109379E-3    8.057987846979209E-4    3.745366823852466E-3    4.218739515477044E-1   -1.581853904818614E-1
 8.116837624825000E9     5.064267640952816E-1   -4.654870955024719E-3    7.403393574599338E-4    3.670784765566127E-3    7.969757249298499E-4    3.727133650615571E-3    4.218542871497451E-1   -1.583514005565333E-1
 8.116841880150000E9     5.063395537405827E-1   -5.084242046910078E-3    7.422067834572600E-4    3.682724841619957E-3    8.159538491981370E-4    3.738680684601676E-3    4.217460922053655E-1   -1.588495097151827E-1
 8.116846135475000E9     5.062623908700694E-1   -5.363386911192856E-3    7.610626452009420E-4    3.681575726248851E-3    7.845489717201573E-4    3.745738032081783E-3    4.217024494222577E-1   -1.591365820196409E-1
 8.116850390800000E9     5.063314765827927E-1   -5.645142575335124E-3    7.643890125090449E-4    3.698496827696441E-3    8.019201292222298E-4    3.722369612669548E-3    4.216743637336538E-1   -1.593692638175103E-1
 8.116854646125000E9     5.062856927756615E-1   -6.022314780808444E-3    7.289401286242511E-4    3.693301509688740E-3    7.986339007961343E-4    3.756877552406208E-3    4.212814131227293E-1   -1.595186045465950E-1
 8.116858901450000E9     5.062139056981206E-1   -6.360591705003194E-3    7.647047448163784E-4    3.688927623319260E-3    8.322628887202474E-4    3.754581890742273E-3    4.213097886031377E-1   -1.600166606713535E-1
 8.116863156775000E9     5.064083607310695E-1   -6.756243656467938E-3    7.509623012019168E-4    3.690110671795770E-3    8.436031382239769E-4    3.743465271277092E-3    4.211438937051073E-1   -1.601930950340262E-1
 8.116867412100000E9     5.062498536479718E-1   -7.004225553670602E-3    7.613225877820205E-4    3.691259777822432E-3    8.402247428706180E-4    3.761283349684248E-3    4.212660064738855E-1   -1.605240937431915E-1
 8.116871667425000E9     5.062871160517286E-1   -7.300379572070124E-3    7.741191899354159E-4    3.690580323457618E-3    8.538693309570779E-4    3.745517597681460E-3    4.210487668832619E-1   -1.608055816677951E-1
 8.116875922750000E9     5.060981617945397E-1   -7.683674656120736E-3    7.739378264578147E-4    3.708666165126415E-3    8.381334859157565E-4    3.725286818632758E-3    4.209532222545584E-1   -1.609888074440276E-1
 8.116880178075000E9     5.061860376250314E-1   -7.975537312549231E-3    7.873068175173699E-4    3.691182545238973E-3    8.116779696853837E-4    3.755736068615062E-3    4.207945955844328E-1   -1.612224475670165E-1
 8.116884433400000E9     5.061919391230937E-1   -8.356482444601890E-3    7.803798133403781E-4    3.698106092492031E-3    8.721287348518348E-4    3.756354060747366E-3    4.208288230900073E-1   -1.616189844047753E-1
 8.116888688725000E9     5.062887434610223E-1   -8.655715416674746E-3    7.647195085846527E-4    3.692382651866707E-3    8.214514733509171E-4    3.749855087943712E-3    4.206423243603494E-1   -1.619074397673247E-1
 8.116892944050000E9     5.061280247556934E-1   -8.967979371822315E-3    7.802016398578640E-4    3.701665119301131E-3    8.461377527504901E-4    3.750689412894830E-3    4.206433003383189E-1   -1.621386958831197E-1
 8.116897199375000E9     5.062073213737550E-1   -9.190390503727159E-3    7.937080355551647E-4    3.703837002571104E-3    8.627896105781720E-4    3.771084003684967E-3    4.204305936263176E-1   -1.624194798953352E-1
 8.116901454700000E9     5.061743658481180E-1   -9.608819098821613E-3    7.931392931162424E-4    3.698718681764848E-3    8.207587657033002E-4    3.770256891365514E-3    4.204231994858617E-1   -1.627939135632696E-1
 8.116905710025000E9     5.061662146117610E-1   -9.967577277089435E-3    7.922722370494634E-4    3.715362886159796E-3    8.734984006428489E-4    3.779153976307049E-3    4.203421568225886E-1   -1.629598317275578E-1
 8.116909965350000E9     5.061020915537023E-1   -1.024489043171821E-2    7.798047292800926E-4    3.736837300264016E-3    8.775785423200212E-4    3.747575384742143E-3    4.201381464223215E-1   -1.633155682428999E-1
 8.116914220675000E9     5.061694013002330E-1   -1.064605787213245E-2    8.116930091021009E-4    3.719086539815136E-3    8.307803766429200E-4    3.790318868208693E-3    4.201893508545496E-1   -1.636079357860063E-1
 8.116918476000000E9     5.061926131931456E-1   -1.097519049072428E-2    7.996792979880855E-4    3.722924821626952E-3    8.568074786932937E-4    3.782807172093142E-3    4.200431169557620E-1   -1.638696700189264E-1
 8.116922731325000E9     5.060193724632053E-1   -1.120051666503093E-2    8.060918005494393E-4    3.733496252246324E-3    8.948118066007591E-4    3.806045349160965E-3    4.199389772669259E-1   -1.641817159545282E-1
 8.116926986650000E9     5.061336351711390E-1   -1.162729008334661E-2    8.081345045616213E-4    3.741879370830489E-3    8.548325986013102E-4    3.807896391878697E-3    4.198611345271914E-1   -1.643842853528742E-1
 8.116931241975000E9     5.060419931073533E-1   -1.197274887983866E-2    7.991491723760953E-4    3.720887200484607E-3    8.925922521449951E-4    3.736591986885135E-3    4.198085815309358E-1   -1.647622858257314E-1
 8.116935497300000E9     5.060161934223887E-1   -1.234909784166055E-2    8.347944710675005E-4    3.739876095907220E-3    8.804444365989994E-4    3.786258826655520E-3    4.195799737071425E-1   -1.650073713089536E-1
 8.116939752625000E9     5.060954124393326E-1   -1.254302058195030E-2    8.233147503590485E-4    3.753915818642966E-3    9.132831383998985E-4    3.795267357357394E-3    4.196058194363465E-1   -1.652952024028441E-1
 8.116944007950000E9     5.059615313982430E-1   -1.290041289830430E-2    8.359525451255695E-4    3.745046466846676E-3    9.055350687733848E-4    3.796432589393461E-3    4.194017504873835E-1   -1.655705791019998E-1
 8.116948263275000E9     5.060487685212468E-1   -1.328982708996534E-2    8.310908062441026E-4    3.738876098139711E-3    9.153687315281941E-4    3.813665473421610E-3    4.195066443173158E-1   -1.657240564756045E-1
 8.116952518600000E9     5.060476523313155E-1   -1.352463807878939E-2    8.335681766676808E-4    3.749678985267334E-3    8.825643093350669E-4    3.812859268230446E-3    4.193576548399544E-1   -1.660941819529734E-1
 8.116956773925000E9     5.060381752819382E-1   -1.383745654253341E-2    8.195788591799348E-4    3.758424843891194E-3    8.807052645849257E-4    3.809802606037191E-3    4.193366022043895E-1   -1.664853403843470E-1
 8.116961029250000E9     5.059568424864362E-1   -1.422793421709504E-2    8.199563384506211E-4    3.754438620149317E-3    8.889276500597694E-4    3.827789534131249E-3    4.190892381688922E-1   -1.666582603368242E-1
 8.116965284575000E9     5.059207744871626E-1   -1.463564532291646E-2    8.328800511378665E-4    3.752443022134916E-3    8.967603294036135E-4    3.801541817256806E-3    4.190124464766338E-1   -1.668986680666617E-1
 8.116969539900000E9     5.058930474278815E-1   -1.489725176593363E-2    8.521824226365904E-4    3.774518378344175E-3    9.056192368419765E-4    3.801005973502511E-3    4.188700911283441E-1   -1.673688105159509E-1
 8.116973795225000E9     5.058692471738216E-1   -1.523328987163981E-2    8.294187180698944E-4    3.741831857189456E-3    9.032274149138201E-4    3.832212164387363E-3    4.188309114794377E-1   -1.675891981985263E-1
 8.116978050550000E9     5.058667430604473E-1   -1.560246759306514E-2    8.379573638262622E-4    3.782144902179605E-3    9.385007962986913E-4    3.823307310560971E-3    4.186620435845919E-1   -1.677132141416664E-1
 8.116982305875000E9     5.057823860474794E-1   -1.586955018404436E-2    8.798313422866472E-4    3.741438482234453E-3    9.346948753913423E-4    3.846184509121684E-3    4.186309217458257E-1   -1.679924087491174E-1
 8.116986561200000E9     5.058668415725216E-1   -1.635000816599120E-2    8.503893608920614E-4    3.736523201985748E-3    9.453074171902042E-4    3.838709410199259E-3    4.184061540677888E-1   -1.684309931983596E-1
 8.116990816525000E9     5.059152366787143E-1   -1.664989581075810E-2    8.313392211325506E-4    3.775842290666789E-3    9.061554316772761E-4    3.815731450896132E-3    4.184828372827355E-1   -1.686150959763157E-1
 8.116995071850000E9     5.058436178947520E-1   -1.695436255201923E-2    8.865178463910560E-4    3.786490750091894E-3    9.456351595906508E-4    3.836830785984798E-3    4.182811412276251E-1   -1.688776185613468E-1
 8.116999327175000E9     5.058423687984686E-1   -1.720388965542237E-2    8.660127776067190E-4    3.769511833959431E-3    9.269033506672436E-4    3.824396728711375E-3    4.181469766768110E-1   -1.692337138003893E-1
 8.117003582500000E9     5.058755614341723E-1   -1.760030817623700E-2    8.677403497730561E-4    3.785096590274288E-3    9.795821444313919E-4    3.833441299593643E-3    4.180268894356965E-1   -1.694495601678377E-1
 8.117007837825000E9     5.057995959765750E-1   -1.795489069042111E-2    8.861584784846526E-4    3.783321420896855E-3    9.501427621739150E-4    3.837294184447206E-3    4.179362239871944E-1   -1.697236837686786E-1
 8.117012093150000E9     5.056950794913873E-1   -1.838365084363195E-2    9.057319781274771E-4    3.792982948481174E-3    9.417270370949748E-4    3.849868260797270E-3    4.177679096612684E-1   -1.699271395250877E-1
 8.117016348475000E9     5.057329162632849E-1   -1.865031019326278E-2    9.114283722281422E-4    3.787112443133284E-3    9.839018934422461E-4    3.840614154217865E-3    4.176898537184526E-1   -1.702960374251609E-1
 8.117020603800000E9     5.057667123882843E-1   -1.897752354918953E-2    9.052722566139748E-4    3.806760272819857E-3    9.546925253294709E-4    3.865532261158249E-3    4.177255157884654E-1   -1.705922326925554E-1
 8.117024859125000E9     5.055761731414183E-1   -1.940385796282510E-2    9.108322333404665E-4    3.809129402858253E-3    9.231037555866659E-4    3.849804913011195E-3    4.175682197293233E-1   -1.708711341693818E-1
 8.117029114450000E9     5.057051296496420E-1   -1.961250344028892E-2    9.024679267403198E-4    3.825191126209970E-3    9.572489973832356E-4    3.840369154240023E-3    4.175997535799378E-1   -1.711620777386126E-1
 8.117033369775000E9     5.055907043924016E-1   -1.996137615443025E-2    9.093826615750400E-4    3.807621850546584E-3    9.814227262886599E-4    3.835845962932020E-3    4.174384244173987E-1   -1.713798165957333E-1
 8.117037625100000E9     5.055123970528032E-1   -2.033216269887840E-2    9.116266507863833E-4    3.797095726123127E-3    1.001503195592481E-3    3.875070000647614E-3    4.173277864494570E-1   -1.715720844887732E-1
 8.117041880425000E9     5.055041537462163E-1   -2.057492019906599E-2    9.044521236225275E-4    3.822433022255608E-3    9.874883668931425E-4    3.901440914956420E-3    4.172035643571886E-1   -1.720267138975849E-1
 8.117046135750000E9     5.055090979402751E-1   -2.085417709566470E-2    9.209707983724662E-4    3.833413725557812E-3    9.960819173084683E-4    3.844907283650194E-3    4.172291150338557E-1   -1.721920445747967E-1
 8.117050391075000E9     5.055511728208053E-1   -2.131846304844280E-2    9.376439638504536E-4    3.830700165026998E-3    1.031150626245635E-3    3.908121397853813E-3    4.168033870205917E-1   -1.726092543752646E-1
 8.117054646400000E9     5.055369238976665E-1   -2.168567648845809E-2    9.342804694206704E-4    3.853441584040256E-3    9.954496695652132E-4    3.899128100751871E-3    4.168646479444957E-1   -1.728455507029111E-1
 8.117058901725000E9     5.054615382674225E-1   -2.201928282075295E-2    9.185090576669519E-4    3.841771910340970E-3    9.858911646594790E-4    3.899375983221115E-3    4.166511667006865E-1   -1.731377501934439E-1
 8.117063157050000E9     5.054481567022944E-1   -2.243700745089173E-2    9.277820737980799E-4    3.827797108161067E-3    1.012888753400796E-3    3.902858191748546E-3    4.167446749438429E-1   -1.732830223649363E-1
 8.117067412375000E9     5.053481174065539E-1   -2.262252490908035E-2    9.405345880497497E-4    3.851980142652115E-3    1.027989769332357E-3    3.905955562537319E-3    4.165887521530326E-1   -1.737468312100321E-1
 8.117071667700000E9     5.053248069265414E-1   -2.299623284015578E-2    9.355568907443595E-4    3.866875009204514E-3    1.020535921172866E-3    3.882189920383256E-3    4.163475918009755E-1   -1.739158008742151E-1
 8.117075923025000E9     5.055248562657551E-1   -2.330307633328135E-2    9.602532481201332E-4    3.848748605660852E-3    1.027576818908253E-3    3.914716422018852E-3    4.163120025632419E-1   -1.740258870864462E-1
 8.117080178350000E9     5.053265250616450E-1   -2.367277929484741E-2    9.448483963377264E-4    3.853322230473732E-3    1.062445352250732E-3    3.926325955494117E-3    4.162149950881526E-1   -1.743793797428669E-1
 8.117084433675000E9     5.054148780102112E-1   -2.399487581066902E-2    9.602381519127238E-4    3.837635989530616E-3    1.034538930260480E-3    3.920080823472291E-3    4.160676824699818E-1   -1.746326301086918E-1
 8.117088689000000E9     5.052656612524417E-1   -2.435891589549906E-2    9.730881503894323E-4    3.846226826531870E-3    1.063970594493624E-3    3.915410657768814E-3    4.159213826262769E-1   -1.748995817891842E-1
 8.117092944325000E9     5.051370589132425E-1   -2.474882900410384E-2    9.598015490507482E-4    3.880587257610580E-3    1.050096948960062E-3    3.961423816166547E-3    4.160098324268964E-1   -1.752489067619631E-1
 8.117097199650000E9     5.052246831838390E-1   -2.496261150503472E-2    9.918914607482958E-4    3.874587276344396E-3    1.027149774059013E-3    3.926504295220373E-3    4.158156802211934E-1   -1.755383545262639E-1
 8.117101454975000E9     5.051590757696269E-1   -2.539972908968258E-2    9.912634293868404E-4    3.878269492113577E-3    1.038342594973946E-3    3.937978695534279E-3    4.156884539565172E-1   -1.758479709559023E-1
 8.117105710300000E9     5.051047796886989E-1   -2.564189756168040E-2    9.943087472142739E-4    3.887329765312501E-3    1.066962333162157E-3    3.932341566204338E-3    4.156267806513410E-1   -1.761327160548776E-1
 8.117109965625000E9     5.051181821576868E-1   -2.604814771013140E-2    9.827000121341142E-4    3.907469258227956E-3    1.068822873659783E-3    3.946726641695389E-3    4.154763434066767E-1   -1.764496271950514E-1
 8.117114220950000E9     5.050839406071239E-1   -2.632033530701278E-2    1.002278816034771E-3    3.907730516203777E-3    1.050998316501234E-3    3.924797536260662E-3    4.153690525629462E-1   -1.766197839029993E-1
 8.117118476275000E9     5.050349933628796E-1   -2.676117708870596E-2    1.008125011888559E-3    3.918742751049976E-3    1.085794897384853E-3    3.965010529068559E-3    4.153511939924556E-1   -1.769244872198433E-1
 8.117122731600000E9     5.049430067629882E-1   -2.707890245707765E-2    1.002037822543726E-3    3.909510371086045E-3    1.066558851721651E-3    3.971809596908415E-3    4.152363381674077E-1   -1.773417567359011E-1
 8.117126986925000E9     5.050541896229612E-1   -2.740305807074729E-2    1.037346874738161E-3    3.914746026705451E-3    1.097203165844661E-3    4.000166029456881E-3    4.151089636019113E-1   -1.775739763218309E-1
 8.117131242250000E9     5.049301096256739E-1   -2.785172779922457E-2    1.035075322914096E-3    3.919980355553948E-3    1.061371829364724E-3    3.983831068847525E-3    4.150119327046692E-1   -1.778084520536187E-1
