#  HZ   S   RI   R     50.00 
! Rohde & Schwarz Vector Network Analyzer 
! Rohde-Schwarz,ZNB20-2Port,1311601062101988,3.16
! Created: UTC 12/23/2023, 3:53:59 AM
! freq[Hz]                re:S11                  im:S11                  re:S21                  im:S21                  re:S12                  im:S12                  re:S22                  im:S22
 7.837016626000000E9     5.649808921568366E-1    3.481908043787680E-2    1.216077314908536E-3    3.740752083178183E-3    1.258597756242690E-3    3.709533296617883E-3    4.665293416768732E-1   -2.710885787833905E-1
 7.837049796725000E9     5.652544461067761E-1    3.261231108671834E-2    1.215093114079868E-3    3.742672605018954E-3    1.229294300302236E-3    3.690550090543533E-3    4.652738743434695E-1   -2.730361224349836E-1
 7.837082967450000E9     5.653642433112648E-1    3.036364021899451E-2    1.248662856629422E-3    3.756920836921210E-3    1.271908303468033E-3    3.694621135387691E-3    4.641471236387866E-1   -2.749728908939311E-1
 7.837116138175000E9     5.656677806835282E-1    2.815885074584254E-2    1.254308419934271E-3    3.749517990472617E-3    1.257346665557530E-3    3.696127276329877E-3    4.631482099415692E-1   -2.771798227714207E-1
 7.837149308900000E9     5.656149478150437E-1    2.601789689676677E-2    1.261698276273068E-3    3.765725329769682E-3    1.317469342128611E-3    3.685402860004643E-3    4.618287548613995E-1   -2.789722412739279E-1
 7.837182479625000E9     5.658196161924544E-1    2.378238465379809E-2    1.293916774666147E-3    3.771737661746755E-3    1.288871106124914E-3    3.685628531836604E-3    4.605036437818256E-1   -2.810485453016894E-1
 7.837215650350000E9     5.658757602378748E-1    2.168538536002707E-2    1.345162892135746E-3    3.754212279290028E-3    1.304805114864827E-3    3.690825714419366E-3    4.594080312764395E-1   -2.830846433932515E-1
 7.837248821075000E9     5.658470754885263E-1    1.934310837753268E-2    1.340006208925563E-3    3.758300770281886E-3    1.395048560241743E-3    3.690726067632621E-3    4.581083906545571E-1   -2.849599166699308E-1
 7.837281991800000E9     5.662344104027104E-1    1.726579033207009E-2    1.356191640690235E-3    3.760106393651921E-3    1.365881072411786E-3    3.693007875337117E-3    4.570351823251913E-1   -2.868986701321039E-1
 7.837315162525000E9     5.662030659949515E-1    1.498769731439569E-2    1.398436603777494E-3    3.752713949886638E-3    1.365920652043622E-3    3.684763786287168E-3    4.557622817657282E-1   -2.890549891743257E-1
 7.837348333250000E9     5.663335375586844E-1    1.289779008628961E-2    1.387864061469994E-3    3.741097712599593E-3    1.427166226810665E-3    3.697479984462381E-3    4.544444197987679E-1   -2.909495721327967E-1
 7.837381503975000E9     5.663948045332575E-1    1.070103896298664E-2    1.432805840997833E-3    3.765146451584818E-3    1.442775439578056E-3    3.675137497817126E-3    4.532900085681503E-1   -2.929359668129413E-1
 7.837414674700000E9     5.662567193136753E-1    8.352722333500295E-3    1.437271683553871E-3    3.775401217062885E-3    1.467282528717073E-3    3.669909989806345E-3    4.519759084654972E-1   -2.948289687155043E-1
 7.837447845425000E9     5.662598027682575E-1    6.030511451101228E-3    1.466013553382679E-3    3.739057050190930E-3    1.489658747698161E-3    3.679434337178786E-3    4.507315329168542E-1   -2.968631308784572E-1
 7.837481016150000E9     5.664478100970669E-1    3.994959757923192E-3    1.481124033322084E-3    3.780917707917507E-3    1.486345893208754E-3    3.683902929376226E-3    4.494420893468668E-1   -2.987229957556536E-1
 7.837514186875000E9     5.665229761036571E-1    1.908725286976848E-3    1.490163644554788E-3    3.763863268231771E-3    1.513160159656370E-3    3.670229914382775E-3    4.481995315339183E-1   -3.006480888772866E-1
 7.837547357600000E9     5.664805469919738E-1   -5.191743277742752E-4    1.511994568609608E-3    3.762303337270735E-3    1.555507395686509E-3    3.679847512516552E-3    4.469374090758146E-1   -3.027290363826757E-1
 7.837580528325000E9     5.666138403198769E-1   -2.613742847432263E-3    1.501578564153599E-3    3.751342482219582E-3    1.548214896360177E-3    3.683216841374406E-3    4.454411838484585E-1   -3.044978028622657E-1
 7.837613699050000E9     5.665460141430330E-1   -4.822783206286964E-3    1.525451554795796E-3    3.760130671545705E-3    1.531627091810585E-3    3.690817207966628E-3    4.443211040547095E-1   -3.065464595003446E-1
 7.837646869775000E9     5.664290702807609E-1   -7.035644841570239E-3    1.582672998014085E-3    3.729301642219822E-3    1.547655118030110E-3    3.668977743696918E-3    4.428839505503404E-1   -3.084113910770531E-1
 7.837680040500000E9     5.664487062679926E-1   -9.252788858973503E-3    1.593358613671570E-3    3.748277783154689E-3    1.588719081789036E-3    3.673027792239665E-3    4.417562116017950E-1   -3.102557209847565E-1
 7.837713211225000E9     5.663023889738444E-1   -1.142259233108569E-2    1.599659231757794E-3    3.741496202044952E-3    1.629010970509400E-3    3.665590747673803E-3    4.404647740073793E-1   -3.121068304486289E-1
 7.837746381950000E9     5.663099198663952E-1   -1.375212763115977E-2    1.630637909535644E-3    3.760939866516504E-3    1.614176449465017E-3    3.678085022245880E-3    4.389564527343654E-1   -3.140995170063793E-1
 7.837779552675000E9     5.662602207290841E-1   -1.589491198434279E-2    1.658401235026482E-3    3.740853433432407E-3    1.656692243447690E-3    3.640225770019060E-3    4.376535821252104E-1   -3.159764918629829E-1
 7.837812723400000E9     5.662538723818689E-1   -1.815463008220135E-2    1.714279297479588E-3    3.745191578775716E-3    1.694719588585675E-3    3.666632553535115E-3    4.362475744687352E-1   -3.180255066085901E-1
 7.837845894125000E9     5.662307591697808E-1   -2.040123971810499E-2    1.664184582103153E-3    3.735413058699643E-3    1.705468384196681E-3    3.657178445684752E-3    4.348572607064074E-1   -3.198328605633378E-1
 7.837879064850000E9     5.661399388846784E-1   -2.245261949130318E-2    1.720159044556050E-3    3.741722732868346E-3    1.690375879301462E-3    3.682830752108654E-3    4.336374528671664E-1   -3.216551248473429E-1
 7.837912235575000E9     5.661379279275115E-1   -2.470792419237361E-2    1.746936098511699E-3    3.762127434404717E-3    1.737277558119252E-3    3.666367139597631E-3    4.321739745205595E-1   -3.236151405282041E-1
 7.837945406300000E9     5.659478936409076E-1   -2.689214027615619E-2    1.771988312414166E-3    3.727952823145241E-3    1.744353486120702E-3    3.663278105516829E-3    4.307277510979402E-1   -3.253421912856578E-1
 7.837978577025000E9     5.659341520655329E-1   -2.918619689885039E-2    1.786867894500687E-3    3.714250968047160E-3    1.775169389625371E-3    3.680700967201327E-3    4.294111684594676E-1   -3.273440486411656E-1
 7.838011747750000E9     5.656641027112881E-1   -3.134088051897668E-2    1.788095144233368E-3    3.736578104353342E-3    1.790301519576045E-3    3.646757061464932E-3    4.279793166449793E-1   -3.292791593537774E-1
 7.838044918475000E9     5.656149418075191E-1   -3.343834959173646E-2    1.828503071722659E-3    3.729836900371802E-3    1.812766938830576E-3    3.677844187630230E-3    4.265738031403064E-1   -3.307905089582353E-1
 7.838078089200000E9     5.654974919685342E-1   -3.569115010167708E-2    1.827031980536690E-3    3.716849906527729E-3    1.835894372508740E-3    3.684995842674425E-3    4.251121417040493E-1   -3.327330138370510E-1
 7.838111259925000E9     5.654214114906313E-1   -3.795027650547517E-2    1.858116184982469E-3    3.718163880177468E-3    1.859124852144027E-3    3.662738239392812E-3    4.236169716680500E-1   -3.347243067491154E-1
 7.838144430650000E9     5.652960092273996E-1   -4.019516606358919E-2    1.866999220985850E-3    3.718948905799684E-3    1.876642703319401E-3    3.656833862180854E-3    4.223193895124543E-1   -3.365208239409250E-1
 7.838177601375000E9     5.651595095374632E-1   -4.230431965774006E-2    1.888566147084398E-3    3.750203026971318E-3    1.869710947553444E-3    3.675687767919248E-3    4.207368099357122E-1   -3.383467278272274E-1
 7.838210772100000E9     5.649871682520354E-1   -4.466459815955224E-2    1.922157210969523E-3    3.700199957130810E-3    1.912248641637672E-3    3.648899813048454E-3    4.194487854776223E-1   -3.402099969802215E-1
 7.838243942825000E9     5.646586063061909E-1   -4.670365908679758E-2    1.953578408535014E-3    3.696824111588404E-3    1.934223943841364E-3    3.661698541798392E-3    4.180406729263549E-1   -3.420547376489911E-1
 7.838277113550000E9     5.644767773340328E-1   -4.891551216352619E-2    1.969827277438446E-3    3.740527295151930E-3    1.962997452178118E-3    3.680032302864677E-3    4.166062501357485E-1   -3.438237874337058E-1
 7.838310284275000E9     5.643302023550678E-1   -5.121765517211899E-2    1.970015771892839E-3    3.704183612471190E-3    1.957193724306965E-3    3.644551288856908E-3    4.149822094358128E-1   -3.455574595215837E-1
 7.838343455000000E9     5.641444701964156E-1   -5.334795138154150E-2    1.989825918208719E-3    3.722910319149460E-3    1.967503032816048E-3    3.651197053187773E-3    4.136546547467618E-1   -3.473018865822347E-1
 7.838376625725000E9     5.640594215536811E-1   -5.562267309569024E-2    2.020758419986926E-3    3.687743850065439E-3    1.997311879661569E-3    3.653810567649092E-3    4.119147850583069E-1   -3.491193977630562E-1
 7.838409796450000E9     5.638399995203053E-1   -5.776903508070014E-2    2.029745255878671E-3    3.712740925505414E-3    2.053805989751137E-3    3.662583639137333E-3    4.105450445971175E-1   -3.508843151625844E-1
 7.838442967175000E9     5.636868767996371E-1   -5.994305550348422E-2    2.061713048611241E-3    3.717449685531552E-3    2.059558556709815E-3    3.654012828591055E-3    4.091474308338864E-1   -3.525231811625503E-1
 7.838476137900000E9     5.634181667818584E-1   -6.229375881153427E-2    2.096417733790348E-3    3.723185733481971E-3    2.091505885021542E-3    3.663848144680965E-3    4.074192159425647E-1   -3.545361801740249E-1
 7.838509308625000E9     5.632517526717674E-1   -6.438940304386974E-2    2.112090718213669E-3    3.723905870378975E-3    2.116487542381851E-3    3.655792846005180E-3    4.060111389472379E-1   -3.561148562407223E-1
 7.838542479350000E9     5.628095951538272E-1   -6.677988984771460E-2    2.122388735266651E-3    3.694123716222747E-3    2.109426130301118E-3    3.652548215489376E-3    4.044555884812887E-1   -3.578969427356148E-1
 7.838575650075000E9     5.625338736487521E-1   -6.876370250398790E-2    2.135061307244124E-3    3.718248918722224E-3    2.120678494164460E-3    3.644144639228904E-3    4.028588366114613E-1   -3.595969238771839E-1
 7.838608820800000E9     5.623878945357058E-1   -7.105872692280822E-2    2.165019229326716E-3    3.732061916480868E-3    2.155869430811883E-3    3.636872481893684E-3    4.013504638738507E-1   -3.613535065159132E-1
 7.838641991525000E9     5.620750636092723E-1   -7.320812950038380E-2    2.197927819871602E-3    3.691049382413812E-3    2.173306210647092E-3    3.629775333907210E-3    3.998028066195438E-1   -3.632478235796521E-1
 7.838675162250000E9     5.618410557717557E-1   -7.521214983993724E-2    2.213416210589247E-3    3.710971854060851E-3    2.194276773689111E-3    3.674254938276980E-3    3.982523723063547E-1   -3.650146376971726E-1
 7.838708332975000E9     5.614387835786619E-1   -7.759463494173693E-2    2.226253282447715E-3    3.693723669744089E-3    2.224206937348593E-3    3.658340013577221E-3    3.967423378277315E-1   -3.666660654532759E-1
 7.838741503700000E9     5.612400434923442E-1   -7.976896241851708E-2    2.264155970177843E-3    3.707172308582893E-3    2.260468205700769E-3    3.625723123379696E-3    3.950967753455034E-1   -3.683013682351590E-1
 7.838774674425000E9     5.607349655685864E-1   -8.204544016429785E-2    2.268744967606233E-3    3.679894145056197E-3    2.288325619379213E-3    3.627619151712758E-3    3.933353791959395E-1   -3.700289213189095E-1
 7.838807845150000E9     5.604702734553320E-1   -8.429031025918070E-2    2.294464014748936E-3    3.694267839139953E-3    2.276917457257370E-3    3.647086220100923E-3    3.919508475793217E-1   -3.717509333063699E-1
 7.838841015875000E9     5.603284979158420E-1   -8.637893777870743E-2    2.330750442827381E-3    3.699171400751698E-3    2.319257736177051E-3    3.631378274103026E-3    3.903611581565317E-1   -3.733927962628908E-1
 7.838874186600000E9     5.598138043195429E-1   -8.849664016461355E-2    2.340733205535464E-3    3.691503557643700E-3    2.331548767191625E-3    3.612790721819215E-3    3.886504264382772E-1   -3.750697150217984E-1
 7.838907357325000E9     5.595480071678101E-1   -9.084929544440343E-2    2.382170532538885E-3    3.699232084036126E-3    2.346586521470218E-3    3.638840403340110E-3    3.871525315363751E-1   -3.767036333263099E-1
 7.838940528050000E9     5.591124728298774E-1   -9.300100039612662E-2    2.389105600770445E-3    3.653791088686776E-3    2.359397416244511E-3    3.653017351826280E-3    3.855183967697629E-1   -3.783560007825672E-1
 7.838973698775000E9     5.587606705562471E-1   -9.522337187744645E-2    2.405775172631788E-3    3.655367076850657E-3    2.370895523679169E-3    3.652370813985180E-3    3.839275117860172E-1   -3.801264850338323E-1
 7.839006869500000E9     5.584828646806551E-1   -9.740373920773557E-2    2.434283264394144E-3    3.672257223134267E-3    2.417738247451039E-3    3.658993643854201E-3    3.823099789065574E-1   -3.818133898476965E-1
 7.839040040225000E9     5.580554548743403E-1   -9.943212817151105E-2    2.459730570520792E-3    3.676053246439626E-3    2.460865806849565E-3    3.584854999451379E-3    3.805881874114496E-1   -3.834338517483679E-1
 7.839073210950000E9     5.576329936749352E-1   -1.017737196764780E-1    2.493388336895821E-3    3.682847787488675E-3    2.464523511089522E-3    3.623838825417206E-3    3.788910202518764E-1   -3.851203298948185E-1
 7.839106381675000E9     5.572916694993546E-1   -1.039353435374520E-1    2.518867105987700E-3    3.680247302466298E-3    2.460172870135002E-3    3.625664998179190E-3    3.772758515613218E-1   -3.866927698784040E-1
 7.839139552400000E9     5.569107430543703E-1   -1.061555767723886E-1    2.555608995824829E-3    3.661474108077028E-3    2.527040255144806E-3    3.631702244986673E-3    3.756543306163709E-1   -3.883689275048033E-1
 7.839172723125000E9     5.564899306099151E-1   -1.083236716415221E-1    2.555159087482229E-3    3.694646478596020E-3    2.548284825918885E-3    3.611158369599251E-3    3.739545102601047E-1   -3.898776718839789E-1
 7.839205893850000E9     5.559569330120732E-1   -1.103358892150191E-1    2.580553414193827E-3    3.671987372159090E-3    2.560837287371519E-3    3.611533179454538E-3    3.723500043895125E-1   -3.916379752448337E-1
 7.839239064575000E9     5.556081346497128E-1   -1.125648272402459E-1    2.626459750883002E-3    3.652003749629398E-3    2.619742863445464E-3    3.609381842828585E-3    3.707516246020290E-1   -3.931737073494779E-1
 7.839272235300000E9     5.550675786172169E-1   -1.149521571215681E-1    2.644746490449379E-3    3.649436529584931E-3    2.581780957318348E-3    3.611609249335557E-3    3.689659906658047E-1   -3.948061655295722E-1
 7.839305406025000E9     5.547432994517567E-1   -1.170125600104305E-1    2.649595973491370E-3    3.641224466824496E-3    2.637352069636796E-3    3.639139834240152E-3    3.672099594848511E-1   -3.962908638386633E-1
 7.839338576750000E9     5.541851168580618E-1   -1.193557880573377E-1    2.693666577180693E-3    3.669529331793443E-3    2.640063593435528E-3    3.632500931719853E-3    3.654842440998142E-1   -3.979928774990868E-1
 7.839371747475000E9     5.538463452118945E-1   -1.213590362993434E-1    2.725553837252179E-3    3.683704723052669E-3    2.668536620259232E-3    3.596892543407176E-3    3.638490228626405E-1   -3.995341703629938E-1
 7.839404918200000E9     5.532188353281366E-1   -1.235336535228015E-1    2.725146121270445E-3    3.648935146835122E-3    2.701467748114278E-3    3.603158832656350E-3    3.621759926444179E-1   -4.010572479154881E-1
 7.839438088925000E9     5.528616575109272E-1   -1.258057607134350E-1    2.768706787629469E-3    3.638649364655275E-3    2.725915614118323E-3    3.617706402279631E-3    3.603577915035515E-1   -4.027969815124127E-1
 7.839471259650000E9     5.523405912127044E-1   -1.277424822468043E-1    2.772033890730624E-3    3.662012107939422E-3    2.754284526559614E-3    3.595659112226925E-3    3.587176484177964E-1   -4.041292299011082E-1
 7.839504430375000E9     5.517026697689845E-1   -1.299439338787017E-1    2.806655954505820E-3    3.614069547192871E-3    2.753997329814520E-3    3.630938159245880E-3    3.569007107647256E-1   -4.057164994646439E-1
 7.839537601100000E9     5.512051322933935E-1   -1.322315401656683E-1    2.852872616808105E-3    3.652542844111172E-3    2.819107457524734E-3    3.616481975906655E-3    3.551877402186434E-1   -4.072972322794725E-1
 7.839570771825000E9     5.507224844720928E-1   -1.342918525534620E-1    2.866093586758306E-3    3.645364833748335E-3    2.802399821588913E-3    3.606436909359104E-3    3.534236309463628E-1   -4.087853514606251E-1
 7.839603942550000E9     5.501371070323932E-1   -1.364645707883835E-1    2.868126419643709E-3    3.630791895001799E-3    2.858949972147170E-3    3.588219121633650E-3    3.516479623192061E-1   -4.103981504105163E-1
 7.839637113275000E9     5.496770201129237E-1   -1.388543129948155E-1    2.917550148226910E-3    3.635490435162200E-3    2.873803953808571E-3    3.610392514461672E-3    3.498710101471945E-1   -4.119060120780468E-1
 7.839670284000000E9     5.492253562797238E-1   -1.409436215590788E-1    2.954163131431493E-3    3.623033446043936E-3    2.902885190090356E-3    3.598526161231374E-3    3.481654516714890E-1   -4.135991519493308E-1
 7.839703454725000E9     5.485455991736876E-1   -1.430094058731107E-1    2.950610065084023E-3    3.625594481140220E-3    2.931993364032613E-3    3.619314075608649E-3    3.463960348046625E-1   -4.148234410145676E-1
 7.839736625450000E9     5.480269282842601E-1   -1.451943740191433E-1    3.020866658396719E-3    3.610102712952932E-3    2.956511599664367E-3    3.584718225652750E-3    3.446104536058037E-1   -4.164514687113072E-1
 7.839769796175000E9     5.474673662652082E-1   -1.474807898705850E-1    3.029396454648883E-3    3.601219651621078E-3    2.988268934969143E-3    3.598255583652534E-3    3.428471389784182E-1   -4.179028547406439E-1
 7.839802966900000E9     5.467086368997461E-1   -1.494470634227977E-1    3.070721250222792E-3    3.622759221879714E-3    3.030582444584341E-3    3.583431221347987E-3    3.409950325292510E-1   -4.193331929217613E-1
 7.839836137625000E9     5.462513879573739E-1   -1.516367942544986E-1    3.075042280755288E-3    3.611042319701102E-3    3.012324814992064E-3    3.599838382000141E-3    3.391495639683610E-1   -4.207941119514057E-1
 7.839869308350000E9     5.455816035658321E-1   -1.538373941620360E-1    3.105048678818726E-3    3.608505944320717E-3    3.073601329876866E-3    3.580938583597697E-3    3.374767663469460E-1   -4.223097509625434E-1
 7.839902479075000E9     5.449407264032951E-1   -1.559139337683842E-1    3.137449887228702E-3    3.593032377314022E-3    3.111544418874303E-3    3.601489751937287E-3    3.356347058720966E-1   -4.236631736528516E-1
 7.839935649800000E9     5.443441407232611E-1   -1.581299429683269E-1    3.173763992428825E-3    3.585847373267421E-3    3.078769587341970E-3    3.558235351018675E-3    3.337088075126112E-1   -4.253053162611423E-1
 7.839968820525000E9     5.436654825439957E-1   -1.602378756530113E-1    3.179793336963652E-3    3.586851228818286E-3    3.152328822628350E-3    3.559076172369675E-3    3.317941354137466E-1   -4.265685144967077E-1
 7.840001991250000E9     5.429113646243177E-1   -1.624065054763961E-1    3.252697799218485E-3    3.586665547826816E-3    3.195917312763196E-3    3.574086981361313E-3    3.300803026038482E-1   -4.280800253041273E-1
