#  HZ   S   RI   R     50.00 
! Rohde & Schwarz Vector Network Analyzer 
! Rohde-Schwarz,ZNB20-2Port,1311601062101988,3.16
! Created: UTC 12/23/2023, 3:54:04 AM
! freq[Hz]                re:S11                  im:S11                  re:S21                  im:S21                  re:S12                  im:S12                  re:S22                  im:S22
 6.516926342000000E9    -2.308349256534142E-1   -1.830868555366810E-2    1.302554814709139E-2   -5.176793374114831E-3    1.303231063356061E-2   -4.573462064977015E-3    1.980795330563082E-1    5.110888001063196E-1
 6.516938447450000E9    -2.306209881820034E-1   -1.823684055742494E-2    1.303567596403568E-2   -5.220097772160312E-3    1.315151740876055E-2   -4.788639129071653E-3    1.991045859428725E-1    5.106970513813959E-1
 6.516950552900000E9    -2.305931865589491E-1   -1.808326870626538E-2    1.304344228019379E-2   -5.125418922419749E-3    1.320915955758772E-2   -4.744495406978835E-3    1.997919590499135E-1    5.104525872416313E-1
 6.516962658350000E9    -2.304300798558943E-1   -1.788931945629106E-2    1.306460836335454E-2   -5.236124443395208E-3    1.321381392899340E-2   -4.870282827764832E-3    2.007654910438228E-1    5.100937096983477E-1
 6.516974763800000E9    -2.302545302455558E-1   -1.751467505724170E-2    1.324709705060648E-2   -5.315471229408127E-3    1.332613631085566E-2   -4.887254094111364E-3    2.015477386206801E-1    5.098166241637363E-1
 6.516986869250000E9    -2.301542098945640E-1   -1.739700119401548E-2    1.323257328070803E-2   -5.268734953752174E-3    1.334369412635412E-2   -4.929345324584025E-3    2.024645725359785E-1    5.093451419593447E-1
 6.516998974700000E9    -2.300892234354765E-1   -1.734894219056985E-2    1.339042766769588E-2   -5.415936742623758E-3    1.334765105256006E-2   -4.949834460144148E-3    2.034816986901749E-1    5.092254789644197E-1
 6.517011080150000E9    -2.299939672615837E-1   -1.710131664251254E-2    1.328870047039901E-2   -5.428678233195270E-3    1.346183457296172E-2   -4.907626217205551E-3    2.042582699044292E-1    5.086859626837388E-1
 6.517023185600000E9    -2.297782448466532E-1   -1.680766688391293E-2    1.338714276048817E-2   -5.601080525744965E-3    1.358871500648209E-2   -5.091066860594059E-3    2.051857502806469E-1    5.084857021292267E-1
 6.517035291050000E9    -2.297112872185035E-1   -1.661523071508533E-2    1.343353891419302E-2   -5.615718470703817E-3    1.356791210237434E-2   -5.096513899227714E-3    2.060217905849032E-1    5.080504941795918E-1
 6.517047396500000E9    -2.296175736157195E-1   -1.651188087279479E-2    1.352756360152462E-2   -5.784868499503414E-3    1.361903709007221E-2   -5.219534740439466E-3    2.069829611473145E-1    5.077343223408699E-1
 6.517059501950000E9    -2.295200449975570E-1   -1.626958507528491E-2    1.364452449676779E-2   -5.655479909617774E-3    1.362472788621430E-2   -5.291188382097130E-3    2.079766249146214E-1    5.072847173482542E-1
 6.517071607400000E9    -2.293246760950287E-1   -1.614001821909040E-2    1.365173666419752E-2   -5.763142518650250E-3    1.371342992652535E-2   -5.346421182816637E-3    2.086041269820123E-1    5.070433708348674E-1
 6.517083712850000E9    -2.292790851952811E-1   -1.594100861683410E-2    1.378853379286504E-2   -5.817825478567721E-3    1.383370527674375E-2   -5.309952626649122E-3    2.096215725308737E-1    5.065831692616719E-1
 6.517095818300000E9    -2.290742561704406E-1   -1.570816118317129E-2    1.370870196541522E-2   -5.859020116470493E-3    1.381348070444621E-2   -5.374192362394252E-3    2.104875059272675E-1    5.063011284601620E-1
 6.517107923750000E9    -2.289586280677558E-1   -1.555304777321652E-2    1.377819005746287E-2   -5.959214581278509E-3    1.388817650020889E-2   -5.376003235886941E-3    2.115262088364499E-1    5.058385956655390E-1
 6.517120029200000E9    -2.288242304339476E-1   -1.537557838414776E-2    1.392777582850776E-2   -5.964393132249093E-3    1.390470088774261E-2   -5.501235953078826E-3    2.123633275316135E-1    5.055361067064024E-1
 6.517132134650000E9    -2.287202692029217E-1   -1.522980265150399E-2    1.387868737242049E-2   -6.040969930219394E-3    1.410086438854420E-2   -5.501173512567504E-3    2.134261156730006E-1    5.051038234620623E-1
 6.517144240100000E9    -2.286551239193380E-1   -1.491139995645959E-2    1.400421062285592E-2   -6.132648209521401E-3    1.411002292820630E-2   -5.636827256143230E-3    2.140487069459627E-1    5.046813096175534E-1
 6.517156345550000E9    -2.284042943364280E-1   -1.485111534449282E-2    1.413799985595651E-2   -6.241552523287608E-3    1.410113590572441E-2   -5.662444200991741E-3    2.149685512214250E-1    5.043189938388865E-1
 6.517168451000000E9    -2.282847841210982E-1   -1.467884530550966E-2    1.401860743657333E-2   -6.209126032486914E-3    1.421108042778370E-2   -5.699549442386717E-3    2.158724515496296E-1    5.040078547495442E-1
 6.517180556450000E9    -2.281779613120667E-1   -1.443982905405313E-2    1.425716878049092E-2   -6.233340941895664E-3    1.422569509242932E-2   -5.714982434220317E-3    2.168944481307025E-1    5.037553323228371E-1
 6.517192661900000E9    -2.280889937613391E-1   -1.434372754018059E-2    1.431895779522066E-2   -6.248293779547207E-3    1.435478911470927E-2   -5.829155247706862E-3    2.178010121749054E-1    5.034017569425430E-1
 6.517204767350000E9    -2.278441903911366E-1   -1.415191127691609E-2    1.434759653037766E-2   -6.464055749187970E-3    1.444537910359138E-2   -5.975952376995609E-3    2.186549289945101E-1    5.030353104583074E-1
 6.517216872800000E9    -2.278368881523421E-1   -1.399945710653514E-2    1.428322516307905E-2   -6.433825765134005E-3    1.456475816443930E-2   -5.941327665269662E-3    2.195513588229962E-1    5.025011396130392E-1
 6.517228978250000E9    -2.277310863537841E-1   -1.379239933556547E-2    1.446465312049936E-2   -6.519561461824416E-3    1.457435053041971E-2   -6.090303605870345E-3    2.204663391070576E-1    5.022612719689092E-1
 6.517241083700000E9    -2.275193709488133E-1   -1.361377393398982E-2    1.458189357743257E-2   -6.720557857219943E-3    1.460052611376217E-2   -6.162448995210786E-3    2.212144527988592E-1    5.018367061445604E-1
 6.517253189150000E9    -2.274102156233753E-1   -1.334335769353137E-2    1.453007534067701E-2   -6.649183587720093E-3    1.481073744157938E-2   -6.208333707474328E-3    2.221507754572160E-1    5.013191558315466E-1
 6.517265294600000E9    -2.271691394621677E-1   -1.319718413217131E-2    1.461107665232345E-2   -6.770719069217287E-3    1.480993922367687E-2   -6.162797862454256E-3    2.230542781257174E-1    5.009676290930767E-1
 6.517277400050000E9    -2.269667251694404E-1   -1.315529751749248E-2    1.473988297702104E-2   -6.824069171146628E-3    1.488453073128181E-2   -6.253950756461671E-3    2.239859722770703E-1    5.006580955392983E-1
 6.517289505500000E9    -2.269171018533219E-1   -1.296020784698795E-2    1.470612034410866E-2   -6.941943374331096E-3    1.493122312587133E-2   -6.380780858715743E-3    2.248941174883815E-1    5.002574870065918E-1
 6.517301610950000E9    -2.267411274420969E-1   -1.274583286877205E-2    1.472020708940159E-2   -6.976632659054351E-3    1.502933247429972E-2   -6.414667958110088E-3    2.255838586492999E-1    4.998240356181510E-1
 6.517313716400000E9    -2.266812512458012E-1   -1.264760326076826E-2    1.502073469250569E-2   -6.972366587290282E-3    1.511452928899624E-2   -6.459415300399658E-3    2.266384102187936E-1    4.994849705091596E-1
 6.517325821850000E9    -2.265530935884636E-1   -1.238509350769603E-2    1.487186436227915E-2   -7.139255733745901E-3    1.510615065479740E-2   -6.540285440327386E-3    2.275410457749660E-1    4.989761827420139E-1
 6.517337927300000E9    -2.263517432483449E-1   -1.219490478854799E-2    1.503547897896245E-2   -7.278003348489706E-3    1.521731613191993E-2   -6.555018424519330E-3    2.284516986160186E-1    4.987388653493317E-1
 6.517350032750000E9    -2.262566394633027E-1   -1.207159314329278E-2    1.516682802963584E-2   -7.259976843619093E-3    1.527154013656855E-2   -6.650183552357483E-3    2.294411856432523E-1    4.982326893939083E-1
 6.517362138200000E9    -2.260987855984607E-1   -1.192198974821066E-2    1.525782096364133E-2   -7.317093008569054E-3    1.534565762246462E-2   -6.819635488801800E-3    2.302481470397778E-1    4.979679287542272E-1
 6.517374243650000E9    -2.259228451569980E-1   -1.177624916013906E-2    1.522234191180106E-2   -7.422700047795279E-3    1.543575085087747E-2   -6.814696551705528E-3    2.311591772807389E-1    4.973834628785537E-1
 6.517386349100000E9    -2.257961079317851E-1   -1.158352437169518E-2    1.516930561114918E-2   -7.371847460772175E-3    1.552712772186422E-2   -6.995561187383223E-3    2.319386185591616E-1    4.970186897924678E-1
 6.517398454550000E9    -2.256769744916388E-1   -1.137988445241401E-2    1.546973016327614E-2   -7.413863940944560E-3    1.558327127203133E-2   -7.062978116278992E-3    2.329130814767604E-1    4.966064570124868E-1
 6.517410560000000E9    -2.254911846034656E-1   -1.127216606493193E-2    1.543711394883841E-2   -7.587135218492254E-3    1.578862315931802E-2   -7.063262423962971E-3    2.338601531574750E-1    4.962087924165962E-1
 6.517422665450000E9    -2.253261361701948E-1   -1.118228245254844E-2    1.560636352286523E-2   -7.632786030320603E-3    1.576716426807701E-2   -7.263896755750707E-3    2.346922422605712E-1    4.957107464248456E-1
 6.517434770900000E9    -2.251398463439438E-1   -1.100611847104383E-2    1.559537170991520E-2   -7.632268017220700E-3    1.575943704935131E-2   -7.302474191607134E-3    2.356798614883570E-1    4.953433448868842E-1
 6.517446876350000E9    -2.250032652142344E-1   -1.081743470976843E-2    1.567420601645569E-2   -7.805333784116984E-3    1.581145267824266E-2   -7.355820690664441E-3    2.365715134225860E-1    4.948479911282481E-1
 6.517458981800000E9    -2.247759663276752E-1   -1.060378672448757E-2    1.575617796995777E-2   -7.990337123856080E-3    1.610461190680222E-2   -7.344226534355759E-3    2.373885484977892E-1    4.944899808501056E-1
 6.517471087250000E9    -2.246958626681004E-1   -1.046654149643909E-2    1.587112876542169E-2   -8.066543430461908E-3    1.608427760300429E-2   -7.587214706909633E-3    2.384113147502227E-1    4.940680555605348E-1
 6.517483192700000E9    -2.244480971775474E-1   -1.022620430882540E-2    1.609759346433209E-2   -8.069043899417551E-3    1.617970557682740E-2   -7.685267840583898E-3    2.391398224187625E-1    4.937794911767192E-1
 6.517495298150000E9    -2.243069388156426E-1   -1.011745587370799E-2    1.598121826350571E-2   -8.309318570409466E-3    1.621387120976561E-2   -7.680913841599651E-3    2.400533281045585E-1    4.932396781518874E-1
 6.517507403600000E9    -2.242743729193348E-1   -9.923099210275227E-3    1.606347237113898E-2   -8.247488854459719E-3    1.631138075851925E-2   -7.695905589751866E-3    2.410084389082329E-1    4.928513057385658E-1
 6.517519509050000E9    -2.241305424768356E-1   -9.868482560477483E-3    1.622382185796790E-2   -8.382514146021206E-3    1.647686618668913E-2   -7.805496330449937E-3    2.420183021512995E-1    4.923252038914232E-1
 6.517531614500000E9    -2.238956408527439E-1   -9.724727954188607E-3    1.639241042633791E-2   -8.457423420187203E-3    1.647459969443701E-2   -7.902484218883102E-3    2.428305886539722E-1    4.920316228866878E-1
 6.517543719950000E9    -2.236442749448040E-1   -9.509743773097752E-3    1.628599345232029E-2   -8.480297272676676E-3    1.651780524754987E-2   -7.969541217769893E-3    2.436419450291761E-1    4.913200742355907E-1
 6.517555825400000E9    -2.235324914308110E-1   -9.377028642084343E-3    1.639399447220775E-2   -8.682560587665119E-3    1.666389381183919E-2   -7.957203329927420E-3    2.446684040669660E-1    4.910771954533970E-1
 6.517567930850000E9    -2.233434415668401E-1   -9.330217261343194E-3    1.642328302488785E-2   -8.789153752536910E-3    1.675887885115262E-2   -8.236175822190286E-3    2.455301629469387E-1    4.904789467266771E-1
 6.517580036300000E9    -2.232872513288755E-1   -9.235708935446937E-3    1.670279614887287E-2   -8.901397243535890E-3    1.682988720978837E-2   -8.229663677007254E-3    2.462923068871900E-1    4.900878734414740E-1
 6.517592141750000E9    -2.229041194891512E-1   -9.132922054149558E-3    1.666412974851806E-2   -8.931716041106012E-3    1.688903415487071E-2   -8.198768321964136E-3    2.473974899039162E-1    4.896102446774449E-1
 6.517604247200000E9    -2.229868890692793E-1   -8.950412162570868E-3    1.680063333882961E-2   -9.100794505859426E-3    1.702946811617974E-2   -8.511837296963465E-3    2.480805838395803E-1    4.892690555741964E-1
 6.517616352650000E9    -2.225722048748730E-1   -8.706665758745484E-3    1.686670369417350E-2   -9.173815295553917E-3    1.717350385663216E-2   -8.586474530222465E-3    2.490769343025151E-1    4.887047999082838E-1
 6.517628458100000E9    -2.223818170535247E-1   -8.605467781920156E-3    1.694551297909273E-2   -9.390109368827540E-3    1.726206437690098E-2   -8.667427778411873E-3    2.498708509682362E-1    4.883745682432992E-1
 6.517640563550000E9    -2.223489701160521E-1   -8.480670152243965E-3    1.703886577811710E-2   -9.382362499089716E-3    1.731402551997783E-2   -8.908492246700343E-3    2.508574652821791E-1    4.879014926949339E-1
 6.517652669000000E9    -2.220777896984948E-1   -8.458292854540929E-3    1.710410656795961E-2   -9.455827220595863E-3    1.746021393654404E-2   -8.903592713874576E-3    2.518679629640428E-1    4.875390572765073E-1
 6.517664774450000E9    -2.219283337798567E-1   -8.201040997183303E-3    1.723147110595858E-2   -9.613961527528634E-3    1.755355831093195E-2   -8.945881410022016E-3    2.525024173947846E-1    4.868524885027528E-1
 6.517676879900000E9    -2.217576522301991E-1   -8.137527408982938E-3    1.740270566532856E-2   -9.640960507824599E-3    1.765620222193156E-2   -9.048954234091595E-3    2.535141582080810E-1    4.864024365102059E-1
 6.517688985350000E9    -2.214843337463268E-1   -7.986865594197791E-3    1.748912370413106E-2   -9.783562568600503E-3    1.765177600667961E-2   -9.223167818123457E-3    2.544274778963146E-1    4.859510737694837E-1
 6.517701090800000E9    -2.213719245719800E-1   -7.874276155730510E-3    1.757807607989223E-2   -9.980075772922117E-3    1.790478504952163E-2   -9.182282319137798E-3    2.553899181072605E-1    4.855499492068875E-1
 6.517713196250000E9    -2.213469421412081E-1   -7.693627737579816E-3    1.778173616383521E-2   -1.011379631569764E-2    1.794336859883277E-2   -9.352742125121306E-3    2.563139052836715E-1    4.850229599153633E-1
 6.517725301700000E9    -2.210258724056330E-1   -7.507035354037100E-3    1.779106684821147E-2   -1.013036286093303E-2    1.802575690060797E-2   -9.542290980117453E-3    2.570591341220905E-1    4.843844471008235E-1
 6.517737407150000E9    -2.207652313112864E-1   -7.467311678961846E-3    1.786765087403938E-2   -1.030828694585358E-2    1.823584533175509E-2   -9.664215036566594E-3    2.579838475035115E-1    4.841432751032899E-1
 6.517749512600000E9    -2.206409750525075E-1   -7.320788657664802E-3    1.801044095522862E-2   -1.027180405274102E-2    1.827750025815573E-2   -9.799860754408786E-3    2.588337091031189E-1    4.836352445040979E-1
 6.517761618050000E9    -2.204212011129671E-1   -7.329364369407398E-3    1.797361803082130E-2   -1.054325505642490E-2    1.830678791558243E-2   -9.960419344466360E-3    2.597903143435729E-1    4.830216989858918E-1
 6.517773723500000E9    -2.201365566048920E-1   -7.166067051114402E-3    1.817702404659379E-2   -1.066317925633037E-2    1.847847228235654E-2   -1.000179879576902E-2    2.607482781987592E-1    4.826138711910823E-1
 6.517785828950000E9    -2.200994362646212E-1   -6.984264429207349E-3    1.828119275319463E-2   -1.081092959833913E-2    1.850011151469554E-2   -1.007288856941114E-2    2.617413196161005E-1    4.820362028328308E-1
 6.517797934400000E9    -2.198981767397459E-1   -6.883353497660878E-3    1.835341001384410E-2   -1.071830574818439E-2    1.864008029871361E-2   -1.016142409719954E-2    2.624705008768291E-1    4.815622114132803E-1
 6.517810039850000E9    -2.196804669424858E-1   -6.765298018889330E-3    1.843742455187036E-2   -1.106366213731376E-2    1.882113529760857E-2   -1.036935970225937E-2    2.634621959053580E-1    4.810141182194791E-1
 6.517822145300000E9    -2.194914326265903E-1   -6.696560872885399E-3    1.853035300364955E-2   -1.109943393782497E-2    1.899182687881742E-2   -1.049235939441322E-2    2.643393469413669E-1    4.805432659658492E-1
 6.517834250750000E9    -2.193042375424248E-1   -6.624370502156935E-3    1.868688320583693E-2   -1.125478268688467E-2    1.908197878132440E-2   -1.078036518700228E-2    2.651603757116124E-1    4.798922631621996E-1
 6.517846356200000E9    -2.190175755734464E-1   -6.541772148085196E-3    1.889400986732471E-2   -1.139364184040888E-2    1.919197340690466E-2   -1.066000568114263E-2    2.660815517490865E-1    4.794208882608412E-1
 6.517858461650000E9    -2.187630475300045E-1   -6.582165609658245E-3    1.896158505243890E-2   -1.150329030548791E-2    1.930870820264181E-2   -1.085254045527130E-2    2.669487279461500E-1    4.789484011670902E-1
 6.517870567100000E9    -2.185942176183113E-1   -6.318763714044115E-3    1.902341844000978E-2   -1.163152463835364E-2    1.931629435169246E-2   -1.106745274937231E-2    2.679804861273130E-1    4.785595558334989E-1
 6.517882672550000E9    -2.183571893125769E-1   -6.138709153857749E-3    1.911475504654411E-2   -1.176630618090955E-2    1.954886633217870E-2   -1.125519960010362E-2    2.688941859711439E-1    4.779976156157653E-1
 6.517894778000000E9    -2.180805564110518E-1   -6.213586946257849E-3    1.920640315921565E-2   -1.192097725060200E-2    1.968472824291601E-2   -1.141319337642729E-2    2.697941680647182E-1    4.774931708820684E-1
 6.517906883450000E9    -2.178973425312169E-1   -6.092635730229656E-3    1.931228916332563E-2   -1.217649311169746E-2    1.980336707710643E-2   -1.148100315265131E-2    2.705604261934793E-1    4.768665279814755E-1
 6.517918988900000E9    -2.177600027714065E-1   -6.066865682225863E-3    1.948450212373337E-2   -1.234716214530142E-2    1.993444145519349E-2   -1.162954370732871E-2    2.714925097316046E-1    4.764315160554666E-1
 6.517931094350000E9    -2.174978096175416E-1   -5.858726555330643E-3    1.964221889018726E-2   -1.246252049837292E-2    1.996659178737623E-2   -1.178377729900658E-2    2.724403225118097E-1    4.759188961800710E-1
 6.517943199800000E9    -2.173089498879890E-1   -5.837973972141537E-3    1.977143872389094E-2   -1.258416651512435E-2    2.015088226768054E-2   -1.189363455351998E-2    2.733037008005774E-1    4.752229081318199E-1
 6.517955305250000E9    -2.169823602061245E-1   -5.762008152761892E-3    1.985081065724360E-2   -1.278930958321755E-2    2.026925621367639E-2   -1.207858175402438E-2    2.741549424673021E-1    4.746201091796649E-1
 6.517967410700000E9    -2.168216551764251E-1   -5.728427439021519E-3    1.998246877040036E-2   -1.293473620219287E-2    2.031615981154776E-2   -1.233328491031009E-2    2.752668747984787E-1    4.741854909830441E-1
 6.517979516150000E9    -2.165786553101254E-1   -5.726942937685518E-3    2.018705572544617E-2   -1.293790734116701E-2    2.052739870538267E-2   -1.244915047691406E-2    2.760689543501703E-1    4.735136243593391E-1
 6.517991621600000E9    -2.163370520534984E-1   -5.605084680109350E-3    2.025592467560537E-2   -1.327977184300729E-2    2.066102078053245E-2   -1.260852264594138E-2    2.769021795045420E-1    4.731318538037799E-1
 6.518003727050000E9    -2.159910558810010E-1   -5.507234497323342E-3    2.036792271479589E-2   -1.342769281018208E-2    2.082179410130723E-2   -1.279750352845622E-2    2.779942258703814E-1    4.724224090483435E-1
 6.518015832500000E9    -2.159273989386405E-1   -5.485047369616997E-3    2.063549540790993E-2   -1.369250498772824E-2    2.095777626367222E-2   -1.288133338803171E-2    2.789653947701935E-1    4.720428789047427E-1
