#  HZ   S   RI   R     50.00 
! Rohde & Schwarz Vector Network Analyzer 
! Rohde-Schwarz,ZNB20-2Port,1311601062101988,3.16
! Created: UTC 3/20/2024, 11:44:45 AM
! freq[Hz]                re:S11                  im:S11                  re:S21                  im:S21                  re:S12                  im:S12                  re:S22                  im:S22
 8.116739180000000E9     5.066088437080384E-1    2.924131333415641E-3    6.625121524457589E-4    3.641443428065530E-3    6.893031582048712E-4    3.709321988476195E-3    4.239499586726470E-1   -1.519957711058213E-1
 8.116743468700000E9     5.066057918091560E-1    2.588486685108987E-3    6.487954423866847E-4    3.631900717323034E-3    7.241168382745592E-4    3.664847096794774E-3    4.238688511372168E-1   -1.522184928510525E-1
 8.116747757400000E9     5.065387691026650E-1    2.286790977408369E-3    6.806389758334968E-4    3.635265293604368E-3    7.246651161570048E-4    3.669978209108421E-3    4.236948138315400E-1   -1.524589827263181E-1
 8.116752046100000E9     5.065804632354672E-1    1.873099588832699E-3    6.711596762299582E-4    3.637242719508997E-3    7.449225708774596E-4    3.696091091386520E-3    4.236791289549047E-1   -1.528400024337792E-1
 8.116756334800000E9     5.065025364439167E-1    1.643725783971992E-3    6.813952325786657E-4    3.641673917998258E-3    7.030434101417405E-4    3.676655811957019E-3    4.235208430125649E-1   -1.530618255089344E-1
 8.116760623500000E9     5.065157660085530E-1    1.277731178553012E-3    6.825975404420121E-4    3.633080942788472E-3    7.450184723371166E-4    3.699536228351239E-3    4.234395920098833E-1   -1.532289080115887E-1
 8.116764912200000E9     5.064520366420179E-1    1.063860743100428E-3    6.711292677688157E-4    3.644017599522508E-3    7.534904532929518E-4    3.666383520883367E-3    4.234615458499059E-1   -1.536521703430847E-1
 8.116769200900000E9     5.065612869375302E-1    7.141411996684093E-4    6.866746411606594E-4    3.651189973323259E-3    7.307379775343227E-4    3.702954761737215E-3    4.233783597779583E-1   -1.538228849237639E-1
 8.116773489600000E9     5.064827973945375E-1    3.305712732121831E-4    6.836451394975680E-4    3.659574280610380E-3    7.733930702032127E-4    3.703389255215175E-3    4.233307148719229E-1   -1.542611272802505E-1
 8.116777778300000E9     5.064508672320021E-1   -5.123510678405894E-5    6.960314903600542E-4    3.649625229059397E-3    7.430013402987679E-4    3.713126542364389E-3    4.231810646934554E-1   -1.545255472103014E-1
 8.116782067000000E9     5.065248246397492E-1   -3.769998868645712E-4    6.802383735068160E-4    3.641978063257620E-3    7.190452315010573E-4    3.697815283687014E-3    4.230758653270396E-1   -1.547900468947030E-1
 8.116786355700000E9     5.064920673402035E-1   -6.859712258532371E-4    7.120200917480017E-4    3.647690228201584E-3    7.195919702777290E-4    3.694030712021984E-3    4.229454477072643E-1   -1.552788385052865E-1
 8.116790644400000E9     5.063640209620225E-1   -1.015950302823763E-3    7.094814317031570E-4    3.664599150736353E-3    7.643584191051641E-4    3.732787389655481E-3    4.227636348964582E-1   -1.554111454281679E-1
 8.116794933100000E9     5.063967842487451E-1   -1.389058028989030E-3    7.181764944019655E-4    3.657701284575502E-3    7.665442340725045E-4    3.752334680700167E-3    4.228047291979405E-1   -1.556217398092538E-1
 8.116799221800000E9     5.064391135141990E-1   -1.670107089345990E-3    6.953837192708797E-4    3.655371804068253E-3    7.990134946689005E-4    3.721327922822767E-3    4.227759153703473E-1   -1.559677926432294E-1
 8.116803510500000E9     5.064828019994781E-1   -1.973285478671763E-3    7.103423023760386E-4    3.646441336441828E-3    7.735745126873078E-4    3.756791686857010E-3    4.226171528582429E-1   -1.562314691766488E-1
 8.116807799200000E9     5.064321966341736E-1   -2.441676088731348E-3    7.443251689887580E-4    3.679339222125929E-3    7.845321421581276E-4    3.711754228434816E-3    4.226047803073135E-1   -1.566090551569197E-1
 8.116812087900000E9     5.064020911035352E-1   -2.677040201982071E-3    7.102849946643650E-4    3.648294602839579E-3    7.751886684194482E-4    3.720411462911771E-3    4.223825191044285E-1   -1.568341761303324E-1
 8.116816376600000E9     5.063353344665770E-1   -3.031382949672363E-3    7.340260253512958E-4    3.675397766327869E-3    7.736597638401507E-4    3.737737292634559E-3    4.221683228797476E-1   -1.570544296169625E-1
 8.116820665300000E9     5.064067352889436E-1   -3.274690071696628E-3    7.225550188616252E-4    3.670612019283668E-3    7.918373601193043E-4    3.705595198935565E-3    4.222597905257922E-1   -1.573160379767495E-1
 8.116824954000000E9     5.063203018041883E-1   -3.758392459486520E-3    7.351059349553860E-4    3.683378679242574E-3    7.691918179642748E-4    3.766118806959173E-3    4.221924333213066E-1   -1.576167811250583E-1
 8.116829242700000E9     5.064378408063064E-1   -4.129315659491322E-3    7.298493327098378E-4    3.683406580345106E-3    7.685670278366841E-4    3.751045189548480E-3    4.221082424163028E-1   -1.579112278487615E-1
 8.116833531400000E9     5.064462959391675E-1   -4.328811283004012E-3    7.483128219331151E-4    3.659989015141167E-3    8.060516722610923E-4    3.701013359618590E-3    4.219549309486482E-1   -1.581333147252887E-1
 8.116837820100000E9     5.063694160599951E-1   -4.753428767403137E-3    7.410002600316879E-4    3.676830935718963E-3    7.917256406325227E-4    3.703040828192664E-3    4.218392974605149E-1   -1.585056092365518E-1
 8.116842108800000E9     5.063507310921674E-1   -4.969428289663330E-3    7.326666798072708E-4    3.685899153213270E-3    7.988488393580124E-4    3.733781037800084E-3    4.217276670946913E-1   -1.588149882453803E-1
 8.116846397500000E9     5.063827369040123E-1   -5.282557015269946E-3    7.505708019667558E-4    3.696113854190974E-3    8.308923355644898E-4    3.733054708277550E-3    4.218194445232062E-1   -1.591624359898819E-1
 8.116850686200000E9     5.063279353241773E-1   -5.706417251916705E-3    7.500013382371072E-4    3.698352358520705E-3    8.325923199476477E-4    3.743036371458093E-3    4.216178223769291E-1   -1.592721781308932E-1
 8.116854974900000E9     5.063799806030473E-1   -5.950431951274240E-3    7.809275617588674E-4    3.705329726192311E-3    8.234467826084327E-4    3.782716953757769E-3    4.214817926207431E-1   -1.597570789693927E-1
 8.116859263600000E9     5.062891975028900E-1   -6.449458354264983E-3    7.544826125794226E-4    3.699183786667768E-3    8.147106908678191E-4    3.732319384771327E-3    4.214217108110872E-1   -1.598273764539146E-1
 8.116863552300000E9     5.062063800709850E-1   -6.703615776872112E-3    7.592727109962364E-4    3.706178149072670E-3    8.096035342065468E-4    3.762598786186051E-3    4.212877441174208E-1   -1.601174167642304E-1
 8.116867841000000E9     5.063683380000097E-1   -7.065455459807683E-3    7.619548732264070E-4    3.699406145990333E-3    8.226458857219741E-4    3.757426952444053E-3    4.211799229253461E-1   -1.606043666531013E-1
 8.116872129700000E9     5.062378631317797E-1   -7.411089397953340E-3    7.682197489952280E-4    3.709021736104177E-3    8.175694480018138E-4    3.731555729804209E-3    4.211748913331196E-1   -1.609492264468388E-1
 8.116876418400000E9     5.061636192941783E-1   -7.714978577076296E-3    7.651954433712319E-4    3.683410278394835E-3    8.187748476761684E-4    3.749149187210988E-3    4.208791564166116E-1   -1.610004172757839E-1
 8.116880707100000E9     5.062944217636391E-1   -8.043203162603379E-3    7.647053465271488E-4    3.708735622987640E-3    8.369812550645131E-4    3.775182239437887E-3    4.208807156949602E-1   -1.615444873783221E-1
 8.116884995800000E9     5.061861493627994E-1   -8.301065730926567E-3    7.647693444463876E-4    3.709238668065086E-3    8.435785261946886E-4    3.728896206937734E-3    4.208406271081874E-1   -1.615965962955409E-1
 8.116889284500000E9     5.062967001186449E-1   -8.707558315787086E-3    7.760647087743669E-4    3.746512206269315E-3    8.442643520114320E-4    3.753111148479896E-3    4.206738121110961E-1   -1.620394074338639E-1
 8.116893573200000E9     5.062042430528408E-1   -9.001654270589474E-3    7.792488162387092E-4    3.704180513540312E-3    8.287718142729038E-4    3.779363818160168E-3    4.206751759738930E-1   -1.621103248358014E-1
 8.116897861900000E9     5.062402666159865E-1   -9.347674605881569E-3    7.881080137625854E-4    3.742595859957999E-3    8.455394513229302E-4    3.809143727693419E-3    4.204883008325048E-1   -1.625153322370360E-1
 8.116902150600000E9     5.061195484407600E-1   -9.691376293790206E-3    8.224086977984817E-4    3.714467856391474E-3    8.760584700947664E-4    3.767140049867574E-3    4.203175448882693E-1   -1.627985486890420E-1
 8.116906439300000E9     5.062103113550948E-1   -9.927456455828225E-3    7.898266526760918E-4    3.721923885798509E-3    8.499942002784735E-4    3.747842418427732E-3    4.202160970981393E-1   -1.629927865623039E-1
 8.116910728000000E9     5.061750789784890E-1   -1.026553496501640E-2    8.261413256085391E-4    3.719741484088816E-3    8.834242477558828E-4    3.779844558831987E-3    4.202738105061883E-1   -1.634386831436287E-1
 8.116915016700000E9     5.061217458995745E-1   -1.067222106844243E-2    7.934059673626726E-4    3.710598730474137E-3    8.722230626533591E-4    3.809937541380554E-3    4.200595415789413E-1   -1.636572885814183E-1
 8.116919305400000E9     5.061403756568560E-1   -1.099157735303474E-2    8.093182898102821E-4    3.720883517476019E-3    8.585163738319222E-4    3.798719332049806E-3    4.199759814641484E-1   -1.639153956294456E-1
 8.116923594100000E9     5.061615589234606E-1   -1.127206139170520E-2    8.250008669366417E-4    3.734926267143865E-3    8.721051087782847E-4    3.813619905508939E-3    4.198277291742997E-1   -1.642029818861680E-1
 8.116927882800000E9     5.061857588379810E-1   -1.161694675215002E-2    8.252324748952858E-4    3.743216633261348E-3    8.660636833003465E-4    3.781237910925892E-3    4.198367173970691E-1   -1.646210497153636E-1
 8.116932171500000E9     5.060264996515371E-1   -1.202152476808052E-2    8.169839826874929E-4    3.744504973491306E-3    8.769623165038461E-4    3.774803809329264E-3    4.196860656674873E-1   -1.647903673389260E-1
 8.116936460200000E9     5.060043206780704E-1   -1.225970685258368E-2    8.300313975079414E-4    3.730333393930716E-3    8.700699707375667E-4    3.796050157399785E-3    4.197164247964714E-1   -1.650451035040214E-1
 8.116940748900000E9     5.060123616309901E-1   -1.257463257666969E-2    8.229610581402717E-4    3.722912496821723E-3    9.065809614327004E-4    3.813256027500452E-3    4.192966709822938E-1   -1.651317925845015E-1
 8.116945037600000E9     5.060108875534154E-1   -1.302155050760052E-2    8.307520320021807E-4    3.737134851912050E-3    8.928549542884380E-4    3.811471952148347E-3    4.195325063665446E-1   -1.655472978306112E-1
 8.116949326300000E9     5.061048386830371E-1   -1.343401189234854E-2    8.302998280897024E-4    3.751016809308793E-3    9.013821892298791E-4    3.796348752337397E-3    4.194087703734287E-1   -1.659202773171414E-1
 8.116953615000000E9     5.059985087190092E-1   -1.366171669089104E-2    8.327482479560387E-4    3.761365950230819E-3    9.061544955778599E-4    3.818734254589807E-3    4.191673022800327E-1   -1.662776112070394E-1
 8.116957903700000E9     5.061186282287323E-1   -1.398570573731699E-2    8.598046904069786E-4    3.731094751715450E-3    9.069538911532715E-4    3.816052454212107E-3    4.191684377313070E-1   -1.664783884065531E-1
 8.116962192400000E9     5.060252131169573E-1   -1.426575104958597E-2    8.147817077461291E-4    3.765431424824585E-3    8.908550937570383E-4    3.829600705696850E-3    4.190745754021192E-1   -1.666715401402526E-1
 8.116966481100000E9     5.058776063229314E-1   -1.471245431601332E-2    8.734557697170105E-4    3.752937109291702E-3    9.131389150625687E-4    3.820860066321646E-3    4.190020802511735E-1   -1.669782489023214E-1
 8.116970769800000E9     5.059511840129544E-1   -1.492551728499063E-2    8.643126362818802E-4    3.751688546645298E-3    9.215676293160826E-4    3.802858679941636E-3    4.189149155997643E-1   -1.673133254999271E-1
 8.116975058500000E9     5.058788933900148E-1   -1.524336019926032E-2    8.408643685249298E-4    3.782677442529512E-3    9.633113884761539E-4    3.827115279809292E-3    4.187260520515924E-1   -1.675113693499026E-1
 8.116979347200000E9     5.058866596239394E-1   -1.567698342321451E-2    8.709362282888967E-4    3.768140407720337E-3    8.893599924617456E-4    3.808772538486569E-3    4.186691943825907E-1   -1.680178148287715E-1
 8.116983635900000E9     5.057841371306814E-1   -1.592698047067477E-2    8.751795171722782E-4    3.766091588538380E-3    9.353650323685223E-4    3.842428068850150E-3    4.184664468506826E-1   -1.681055305846117E-1
 8.116987924600000E9     5.058936747222269E-1   -1.638029669966437E-2    8.758902693430769E-4    3.779703167865438E-3    9.524082460656395E-4    3.881715042383019E-3    4.184973371787585E-1   -1.684029525552934E-1
 8.116992213300000E9     5.057378754850476E-1   -1.665116176338986E-2    8.550231783161932E-4    3.780818883281040E-3    9.423383461685538E-4    3.835754750188060E-3    4.183099280180353E-1   -1.686370825671488E-1
 8.116996502000000E9     5.057987353508555E-1   -1.704277293233165E-2    8.763751235041079E-4    3.801651457578257E-3    9.532142767122072E-4    3.819374404664122E-3    4.181358330670396E-1   -1.690992224979403E-1
 8.117000790700000E9     5.058059606329333E-1   -1.735722695396360E-2    8.908361014323505E-4    3.795450289008598E-3    9.309971556855380E-4    3.873301854214761E-3    4.180686383044428E-1   -1.693188533352014E-1
 8.117005079400000E9     5.058088559853118E-1   -1.772247149249970E-2    8.905524804144582E-4    3.797863013742654E-3    9.328796963122145E-4    3.838786109120432E-3    4.180187561652113E-1   -1.696289998064524E-1
 8.117009368100000E9     5.057078603661407E-1   -1.793499488732230E-2    8.672138362310515E-4    3.806416855776333E-3    9.273618982467360E-4    3.884465591507418E-3    4.178999928468740E-1   -1.697273601573153E-1
 8.117013656800000E9     5.057573767774367E-1   -1.841791876560601E-2    8.826387168374116E-4    3.793216012825079E-3    9.315187137605216E-4    3.829623680925416E-3    4.179258280249231E-1   -1.701214796324443E-1
 8.117017945500000E9     5.056782781568445E-1   -1.862590030997621E-2    9.241687651872555E-4    3.797500319683538E-3    9.924850425914299E-4    3.852680844162495E-3    4.177681613281437E-1   -1.704265771620053E-1
 8.117022234200000E9     5.056499773816252E-1   -1.899655899482416E-2    9.102655970112625E-4    3.805475522951389E-3    9.640204290473381E-4    3.875179879499654E-3    4.175594508872054E-1   -1.705130582017503E-1
 8.117026522900000E9     5.056421378038080E-1   -1.941185412997436E-2    9.043521415326165E-4    3.806103008630440E-3    9.865996280281517E-4    3.891096890002887E-3    4.177270698633934E-1   -1.708795225097248E-1
 8.117030811600000E9     5.056575604349254E-1   -1.984513809448596E-2    9.209012062887198E-4    3.808194622730002E-3    9.840789211803369E-4    3.874261450777601E-3    4.175943066854292E-1   -1.711154292922973E-1
 8.117035100300000E9     5.056566978095404E-1   -1.998853064220928E-2    8.917515542443979E-4    3.818452856008706E-3    9.638564366797306E-4    3.876138404134149E-3    4.173902577642655E-1   -1.714807821301776E-1
 8.117039389000000E9     5.054495300133026E-1   -2.047132398097464E-2    9.496382157383362E-4    3.835569266170214E-3    9.652182944366348E-4    3.882045582716226E-3    4.170397863287934E-1   -1.716934002814301E-1
 8.117043677700000E9     5.055001873694204E-1   -2.080943398072675E-2    9.405574030910008E-4    3.837846000298902E-3    9.995774344900021E-4    3.885785285663372E-3    4.170831440213242E-1   -1.721190395921141E-1
 8.117047966400000E9     5.055726513627021E-1   -2.103318865746503E-2    9.369799148682308E-4    3.841723065541234E-3    1.005540757702253E-3    3.920009262524315E-3    4.170545516116006E-1   -1.724232362417517E-1
 8.117052255100000E9     5.054827703055799E-1   -2.136682100502233E-2    9.285974818519619E-4    3.813284200747098E-3    1.023492672869200E-3    3.889803520016870E-3    4.168157451582634E-1   -1.727092705165111E-1
 8.117056543800000E9     5.054683007048686E-1   -2.168673288327424E-2    9.312769149696846E-4    3.837383899049482E-3    1.003125575188160E-3    3.895586300953588E-3    4.167636980094952E-1   -1.728932639935070E-1
 8.117060832500000E9     5.055016390618778E-1   -2.208273049171555E-2    9.593231252918100E-4    3.829686357007500E-3    1.029746302034534E-3    3.912380864366973E-3    4.166244429752354E-1   -1.732235603376832E-1
 8.117065121200000E9     5.053602215618392E-1   -2.232517781925219E-2    9.432385599973805E-4    3.850054600650887E-3    1.017826308221564E-3    3.923109744307021E-3    4.166261681880585E-1   -1.733340526262370E-1
 8.117069409900000E9     5.053496277674210E-1   -2.288937981214268E-2    9.787540922973042E-4    3.848913181524660E-3    9.701774313534688E-4    3.900612965291365E-3    4.164777569727298E-1   -1.737082604286042E-1
 8.117073698600000E9     5.053606290096588E-1   -2.309127405432568E-2    9.692320454537216E-4    3.856615802382903E-3    1.022313152459070E-3    3.925363988659898E-3    4.163787842723075E-1   -1.741427573992174E-1
 8.117077987300000E9     5.054203898311190E-1   -2.352945670331767E-2    9.908005867067080E-4    3.855989873041383E-3    1.005201468300352E-3    3.897258193929097E-3    4.162995530093814E-1   -1.743124235757134E-1
 8.117082276000000E9     5.053109686767927E-1   -2.383363788334004E-2    9.758030481568484E-4    3.865669799429544E-3    1.025316677663119E-3    3.896958018233536E-3    4.162992958470966E-1   -1.745967057965773E-1
 8.117086564700000E9     5.052829818618904E-1   -2.407879360298906E-2    9.699018034276772E-4    3.847952012602841E-3    1.043323116945564E-3    3.912285338675034E-3    4.160274286361119E-1   -1.749437674164772E-1
 8.117090853400000E9     5.052052540508244E-1   -2.450979295818679E-2    9.641184312520029E-4    3.870211876862212E-3    1.058657828235799E-3    3.919357899298294E-3    4.159685174514461E-1   -1.751191028604641E-1
 8.117095142100000E9     5.052419285266183E-1   -2.484587963574678E-2    9.955328193998769E-4    3.875358044600061E-3    1.042748398904889E-3    3.941784597602025E-3    4.157785421000588E-1   -1.754648876433241E-1
 8.117099430800000E9     5.052276908869804E-1   -2.522584865345811E-2    1.006360719991323E-3    3.891045697116821E-3    1.066783042563828E-3    3.923338894904739E-3    4.157468420346834E-1   -1.756369931710012E-1
 8.117103719500000E9     5.052532427009602E-1   -2.553628305776392E-2    9.892838817926264E-4    3.889044445082686E-3    1.039446670397609E-3    3.959072851394191E-3    4.156599948760193E-1   -1.760208917046850E-1
 8.117108008200000E9     5.052298011987278E-1   -2.587593788737060E-2    1.003108231063998E-3    3.861738780578439E-3    1.046396778624021E-3    3.988766061971481E-3    4.154070897418313E-1   -1.761720974727725E-1
 8.117112296900000E9     5.051028587971176E-1   -2.614982856454082E-2    1.012427652973546E-3    3.902340162496385E-3    1.057865493097828E-3    3.967362538814930E-3    4.154007837973054E-1   -1.765522234686298E-1
 8.117116585600000E9     5.050579421001181E-1   -2.652956487421911E-2    1.017690161547105E-3    3.899037477494352E-3    1.058131441386901E-3    3.945564075044157E-3    4.153262383496369E-1   -1.768498221763521E-1
 8.117120874300000E9     5.051022671451783E-1   -2.686626664252282E-2    9.829812407072794E-4    3.903146080399972E-3    1.098169607634339E-3    3.979473716268441E-3    4.152399029121162E-1   -1.772451159559185E-1
 8.117125163000000E9     5.049516503517222E-1   -2.723762914464668E-2    1.028842429800800E-3    3.898508607925513E-3    1.048179506532348E-3    3.949628980148430E-3    4.151781511883716E-1   -1.772624502219884E-1
