#  HZ   S   RI   R     50.00 
! Rohde & Schwarz Vector Network Analyzer 
! Rohde-Schwarz,ZNB20-2Port,1311601062101988,3.16
! Created: UTC 12/23/2023, 3:54:34 AM
! freq[Hz]                re:S11                  im:S11                  re:S21                  im:S21                  re:S12                  im:S12                  re:S22                  im:S22
 7.837157771000000E9     5.657611475782081E-1    2.566478124629921E-2    1.274310024675652E-3    3.767229233313848E-3    1.308249467114879E-3    3.706244337969713E-3    4.615648157258952E-1   -2.795128273888389E-1
 7.837190361175000E9     5.659277868034605E-1    2.334351734408904E-2    1.308079833140844E-3    3.759509741291918E-3    1.319140472168965E-3    3.667365001987587E-3    4.603867455364298E-1   -2.815005360268689E-1
 7.837222951350000E9     5.660021721111617E-1    2.118530063421006E-2    1.319197990083468E-3    3.757856726324402E-3    1.353084306097886E-3    3.685581835765286E-3    4.592457281411328E-1   -2.834643913807023E-1
 7.837255541525000E9     5.660629517211032E-1    1.905503051358549E-2    1.352559432734604E-3    3.768884191040967E-3    1.363013534618648E-3    3.720565115313641E-3    4.578310000513545E-1   -2.854176740065832E-1
 7.837288131700000E9     5.661686501446433E-1    1.682654382344864E-2    1.346587735724720E-3    3.765626901632027E-3    1.421507009376005E-3    3.686549858817605E-3    4.568460892133225E-1   -2.873314665751611E-1
 7.837320721875000E9     5.662649892806272E-1    1.469788598479327E-2    1.382369161500064E-3    3.764071992278431E-3    1.396174437782731E-3    3.700718327684962E-3    4.556328884972337E-1   -2.892642446793880E-1
 7.837353312050000E9     5.661013081484331E-1    1.261856067076580E-2    1.400087317049702E-3    3.750500876171198E-3    1.422798056403198E-3    3.657576725000318E-3    4.542573187489510E-1   -2.913183877069320E-1
 7.837385902225000E9     5.663483408263085E-1    1.032527432864563E-2    1.421332334354569E-3    3.757328248519337E-3    1.401266475828043E-3    3.670567266229069E-3    4.530853724777912E-1   -2.932345961526280E-1
 7.837418492400000E9     5.663570584222454E-1    8.270390279171931E-3    1.460057997787719E-3    3.751273707608719E-3    1.435834477119953E-3    3.660679672007655E-3    4.518415258960018E-1   -2.949869105088987E-1
 7.837451082575000E9     5.665082149758527E-1    6.031137219077379E-3    1.449460795842576E-3    3.753116503829908E-3    1.449846104752994E-3    3.694807564730156E-3    4.506661780510910E-1   -2.970183971211767E-1
 7.837483672750000E9     5.663867211297664E-1    3.913352906561219E-3    1.490303768153924E-3    3.746368861417773E-3    1.513425137498775E-3    3.728993748900480E-3    4.492765784069948E-1   -2.989012391186524E-1
 7.837516262925000E9     5.664237249624587E-1    1.825882074391444E-3    1.501820393191766E-3    3.734167025330241E-3    1.483728508026094E-3    3.657950682923989E-3    4.480967116891134E-1   -3.008816843041197E-1
 7.837548853100000E9     5.665014622526066E-1   -4.505579865102937E-4    1.518738696027315E-3    3.748708656539299E-3    1.516402963980542E-3    3.708834703104497E-3    4.468321575801207E-1   -3.028110349441592E-1
 7.837581443275000E9     5.663923173524995E-1   -2.546241919110143E-3    1.542516772513081E-3    3.751591968993107E-3    1.544339143372645E-3    3.662898424885635E-3    4.455641891032328E-1   -3.045298093315765E-1
 7.837614033450000E9     5.665042952279525E-1   -4.751546461666738E-3    1.556975655451808E-3    3.746397530333028E-3    1.556107465474514E-3    3.682984080733924E-3    4.443185540222105E-1   -3.063867347568592E-1
 7.837646623625000E9     5.664675319560777E-1   -6.833721381539099E-3    1.576845007118511E-3    3.745087247429626E-3    1.598128195200059E-3    3.653974452870175E-3    4.429799786396523E-1   -3.083302967777130E-1
 7.837679213800000E9     5.664605615187879E-1   -8.996467028192356E-3    1.600662745637810E-3    3.748532108080049E-3    1.589214337260446E-3    3.681159372016106E-3    4.417812131068683E-1   -3.103810933126003E-1
 7.837711803975000E9     5.664534348646942E-1   -1.135197964619741E-2    1.624474356406499E-3    3.738202533445662E-3    1.589264786491371E-3    3.693572926599438E-3    4.404279168751942E-1   -3.120689580083409E-1
 7.837744394150000E9     5.664077270975102E-1   -1.338589900228983E-2    1.642440683999517E-3    3.751160837301447E-3    1.651458375650133E-3    3.693997399906803E-3    4.391386879715210E-1   -3.140093841736931E-1
 7.837776984325000E9     5.662792747956832E-1   -1.560583303137915E-2    1.637672154411408E-3    3.721099522780954E-3    1.631725238068593E-3    3.691998432937900E-3    4.377334769698739E-1   -3.158022490596865E-1
 7.837809574500000E9     5.662858224784191E-1   -1.780097486335295E-2    1.681699195745153E-3    3.722117696713876E-3    1.662264595499105E-3    3.672460047599271E-3    4.364007574191948E-1   -3.176777736405578E-1
 7.837842164675000E9     5.664362518485042E-1   -1.995029795017703E-2    1.666630047129481E-3    3.740453483158891E-3    1.691661331637457E-3    3.678912839353307E-3    4.350460349331593E-1   -3.196342392673435E-1
 7.837874754850000E9     5.662206227643863E-1   -2.210131592891373E-2    1.702671830177610E-3    3.729019111054107E-3    1.706810791100040E-3    3.679358503300927E-3    4.337458585538351E-1   -3.214390801153426E-1
 7.837907345025000E9     5.661356545743406E-1   -2.438443265435884E-2    1.715284006918338E-3    3.724209068325355E-3    1.718921137547048E-3    3.662767246873009E-3    4.323567529083183E-1   -3.231793224674547E-1
 7.837939935200000E9     5.659872758718536E-1   -2.654823912932206E-2    1.748955872632289E-3    3.725264664805053E-3    1.731956188351098E-3    3.683900124051349E-3    4.309448160225878E-1   -3.250165043252142E-1
 7.837972525375000E9     5.660431933227393E-1   -2.855330733732802E-2    1.772583959384164E-3    3.733169954485124E-3    1.769133198394857E-3    3.682915462198853E-3    4.296972896510864E-1   -3.267658672474714E-1
 7.838005115550000E9     5.658628995888429E-1   -3.074729921461092E-2    1.798701105069324E-3    3.740030725020259E-3    1.787440071866577E-3    3.662698562839088E-3    4.282243203248705E-1   -3.287334980722281E-1
 7.838037705725000E9     5.657289805559816E-1   -3.297306182971885E-2    1.807840528637581E-3    3.699658694911776E-3    1.789928896593043E-3    3.665280414579588E-3    4.268576716298548E-1   -3.306273883667087E-1
 7.838070295900000E9     5.656414567857355E-1   -3.503207743347110E-2    1.824852632979682E-3    3.718712968908081E-3    1.818328519880294E-3    3.684164743419141E-3    4.255213981755233E-1   -3.323882120774506E-1
 7.838102886075000E9     5.654022925739892E-1   -3.739895575198460E-2    1.836801473173853E-3    3.730339450605328E-3    1.823614105076390E-3    3.673284534474803E-3    4.239806256778414E-1   -3.340349436037522E-1
 7.838135476250000E9     5.653205095435685E-1   -3.932618258123994E-2    1.882759400136283E-3    3.703238169470249E-3    1.872603081642890E-3    3.655249823339994E-3    4.226504439724470E-1   -3.358260647735484E-1
 7.838168066425000E9     5.652148921715336E-1   -4.150269891105369E-2    1.886914044401149E-3    3.752259466935933E-3    1.892050450078315E-3    3.664353130374336E-3    4.213046627843041E-1   -3.377887011976394E-1
 7.838200656600000E9     5.650832799930305E-1   -4.377574983596402E-2    1.921265908607310E-3    3.714753429108027E-3    1.893471763247914E-3    3.661542926835937E-3    4.197770171807906E-1   -3.394768706731814E-1
 7.838233246775000E9     5.648124399774345E-1   -4.590044448032612E-2    1.913517207228419E-3    3.736107669208566E-3    1.890077340591042E-3    3.665207250878890E-3    4.184285893531772E-1   -3.412905610559190E-1
 7.838265836950000E9     5.646720022938095E-1   -4.814126208352804E-2    1.941838960557290E-3    3.712205724496430E-3    1.929426388760626E-3    3.654655341111983E-3    4.169448908259013E-1   -3.429636927133461E-1
 7.838298427125000E9     5.645648403869179E-1   -5.027977192494686E-2    1.976337441242772E-3    3.717218587498426E-3    1.968934244031994E-3    3.660018828974175E-3    4.155450251359606E-1   -3.449705770283400E-1
 7.838331017300000E9     5.644656212809867E-1   -5.249492645454014E-2    1.962476190254548E-3    3.709728431779379E-3    1.988184236973420E-3    3.673879762324571E-3    4.140726928673357E-1   -3.466923488326761E-1
 7.838363607475000E9     5.641279268367270E-1   -5.467433561452738E-2    2.019118767138370E-3    3.691762327813539E-3    1.983386285406183E-3    3.624387081585474E-3    4.125834484050315E-1   -3.483804559572922E-1
 7.838396197650000E9     5.638693376382843E-1   -5.684170126790086E-2    2.027778864976645E-3    3.702121117339029E-3    2.025529361403895E-3    3.652517227983812E-3    4.111286847710262E-1   -3.499816978658547E-1
 7.838428787825000E9     5.637269633687487E-1   -5.895296954254960E-2    2.079524057146590E-3    3.700355515469372E-3    2.045950390822693E-3    3.635197068171399E-3    4.096408147174683E-1   -3.518119258757806E-1
 7.838461378000000E9     5.635136534197598E-1   -6.114427635883349E-2    2.067037019338429E-3    3.699256882817001E-3    2.052284673676681E-3    3.634577555287497E-3    4.082931198007457E-1   -3.534771895794873E-1
 7.838493968175000E9     5.631594303791488E-1   -6.332854366761644E-2    2.105105978786154E-3    3.696638600468746E-3    2.086296909036569E-3    3.688831713830083E-3    4.067828832073538E-1   -3.554218803286248E-1
 7.838526558350000E9     5.630201771148986E-1   -6.549165017475191E-2    2.132198591887874E-3    3.694179018413022E-3    2.106779042881517E-3    3.673754571724938E-3    4.050388535601660E-1   -3.570681181768800E-1
 7.838559148525000E9     5.627537982964873E-1   -6.758845912522521E-2    2.134070343779476E-3    3.707973623530814E-3    2.087248698927037E-3    3.637530137582098E-3    4.036842397216877E-1   -3.588636019627377E-1
 7.838591738700000E9     5.625017348622563E-1   -6.976880877792610E-2    2.172806628989112E-3    3.703373339269691E-3    2.183001479358030E-3    3.622524917502290E-3    4.022231793779781E-1   -3.604390178244555E-1
 7.838624328875000E9     5.622624912840396E-1   -7.186915710291346E-2    2.172907954409473E-3    3.702628283408553E-3    2.177729785703160E-3    3.618252181073543E-3    4.007205237906367E-1   -3.621192827372225E-1
 7.838656919050000E9     5.619538483357249E-1   -7.410567984559374E-2    2.198450783722834E-3    3.698311216499414E-3    2.167996102673204E-3    3.648388163601531E-3    3.990198456287682E-1   -3.638315129385257E-1
 7.838689509225000E9     5.616831094950510E-1   -7.629474941351606E-2    2.215574466149840E-3    3.702096448591874E-3    2.213479398834394E-3    3.632740363772659E-3    3.975279252666650E-1   -3.655496191865653E-1
 7.838722099400000E9     5.615598544724065E-1   -7.841163137676307E-2    2.263801078257768E-3    3.693913538947894E-3    2.211307788069747E-3    3.650166294480109E-3    3.961268643908687E-1   -3.672811647384968E-1
 7.838754689575000E9     5.612310030631863E-1   -8.067912453352234E-2    2.266553660860807E-3    3.692702631967674E-3    2.257592761496700E-3    3.639246668927918E-3    3.945201240679552E-1   -3.688136347649207E-1
 7.838787279750000E9     5.608207726496099E-1   -8.272352021427654E-2    2.260465099091604E-3    3.684614883992357E-3    2.244103071689132E-3    3.625550211256638E-3    3.929414725763283E-1   -3.707063213326680E-1
 7.838819869925000E9     5.604387363891904E-1   -8.486276390357336E-2    2.306151759427800E-3    3.708426886303112E-3    2.261487556957946E-3    3.631493012656755E-3    3.913583953949366E-1   -3.722743925348299E-1
 7.838852460100000E9     5.601094799552858E-1   -8.704438717203923E-2    2.343552755500935E-3    3.686484678121326E-3    2.312821407346320E-3    3.650096485823485E-3    3.897729660568782E-1   -3.739872460336144E-1
 7.838885050275000E9     5.599626443391352E-1   -8.926910689544922E-2    2.322398114573240E-3    3.669977886797966E-3    2.314880392926091E-3    3.616697085537445E-3    3.883090133843858E-1   -3.757517997422193E-1
 7.838917640450000E9     5.594753779542576E-1   -9.138862111907657E-2    2.377915640185258E-3    3.668286197750875E-3    2.393513824186220E-3    3.653191945205552E-3    3.866826759653287E-1   -3.771256035895783E-1
 7.838950230625000E9     5.590225041903983E-1   -9.354453993551894E-2    2.412854042296747E-3    3.692341447350121E-3    2.351768184354164E-3    3.624598790761257E-3    3.849776143722579E-1   -3.789938053298463E-1
 7.838982820800000E9     5.588534074943321E-1   -9.574927680426855E-2    2.428887799753038E-3    3.675878782824618E-3    2.378980808919097E-3    3.597348239426974E-3    3.834354508615384E-1   -3.805559224831278E-1
 7.839015410975000E9     5.582487002984790E-1   -9.793916173265051E-2    2.442827416438877E-3    3.669248943980886E-3    2.422114164548716E-3    3.632980293168545E-3    3.818965503222438E-1   -3.821532635869798E-1
 7.839048001150000E9     5.579867397293957E-1   -9.995357061556011E-2    2.471154165097264E-3    3.654590666195512E-3    2.414645039944896E-3    3.624340491663694E-3    3.802168111521376E-1   -3.839000380783273E-1
 7.839080591325000E9     5.576086417747882E-1   -1.021741920532491E-1    2.482604505554113E-3    3.683752492426450E-3    2.438647647411015E-3    3.640164400229797E-3    3.787132590368812E-1   -3.853925031331022E-1
 7.839113181500000E9     5.572032744131220E-1   -1.044582566523543E-1    2.520481308273571E-3    3.663606013751041E-3    2.493312036286277E-3    3.620007508995682E-3    3.768432860192133E-1   -3.871147597696385E-1
 7.839145771675000E9     5.568598329401646E-1   -1.063335621825681E-1    2.539699637121894E-3    3.696260902619514E-3    2.481879970849166E-3    3.623702412963620E-3    3.755111723405843E-1   -3.887272648807210E-1
 7.839178361850000E9     5.562502926560698E-1   -1.085329057666223E-1    2.556144167830355E-3    3.646448817138494E-3    2.523708909119236E-3    3.614795349665494E-3    3.737889129837118E-1   -3.902390615537210E-1
 7.839210952025000E9     5.558927424756712E-1   -1.106723209052826E-1    2.584499656708230E-3    3.637815838036251E-3    2.562644822969857E-3    3.586962137041213E-3    3.720348705540259E-1   -3.917642315471344E-1
 7.839243542200000E9     5.555433421071605E-1   -1.127837080392831E-1    2.591587288679107E-3    3.684241418829586E-3    2.572591290352613E-3    3.602314361274151E-3    3.704261824218553E-1   -3.932886579839237E-1
 7.839276132375000E9     5.551186213508044E-1   -1.151214132192724E-1    2.634983094450496E-3    3.661690689573332E-3    2.616699135160571E-3    3.644123205977197E-3    3.688006822816048E-1   -3.950004426144651E-1
 7.839308722550000E9     5.547091107630895E-1   -1.172082973368224E-1    2.638551958829402E-3    3.647140051827733E-3    2.612044471166021E-3    3.585897142339597E-3    3.669691835219813E-1   -3.964660696376761E-1
 7.839341312725000E9     5.542684991350765E-1   -1.192332379464570E-1    2.703234877434139E-3    3.651968900860691E-3    2.648853022450208E-3    3.616656967442154E-3    3.654191225551371E-1   -3.980930140191623E-1
 7.839373902900000E9     5.537519849349767E-1   -1.213961574895902E-1    2.712430132652040E-3    3.638380523047313E-3    2.699407081070506E-3    3.589862890770518E-3    3.636549525260918E-1   -3.996486669824246E-1
 7.839406493075000E9     5.533562754528453E-1   -1.235464956409878E-1    2.730198297983860E-3    3.651471928961577E-3    2.708063530711415E-3    3.611466398278514E-3    3.621141103901841E-1   -4.010487803319092E-1
 7.839439083250000E9     5.528601239791808E-1   -1.256323623753505E-1    2.762997252532102E-3    3.649487990472086E-3    2.733331847088084E-3    3.595144181603593E-3    3.602983132087093E-1   -4.026081471602276E-1
 7.839471673425000E9     5.522035990862215E-1   -1.279100613612822E-1    2.770934913705868E-3    3.645852536546965E-3    2.786485241226206E-3    3.577220970363501E-3    3.586976574668832E-1   -4.041997244566476E-1
 7.839504263600000E9     5.518754884928366E-1   -1.299329006621604E-1    2.792686058173338E-3    3.641906556164464E-3    2.767577550891187E-3    3.587558282860020E-3    3.569745009474337E-1   -4.058345425700909E-1
 7.839536853775000E9     5.511620408238942E-1   -1.321112719963512E-1    2.815268751114828E-3    3.608059606770230E-3    2.750803048215847E-3    3.619380806489996E-3    3.553080647828952E-1   -4.073025947497310E-1
 7.839569443950000E9     5.508455404688885E-1   -1.342283174370542E-1    2.857662272650167E-3    3.642233054463438E-3    2.832020839833731E-3    3.593812102729684E-3    3.535492251765822E-1   -4.087652407049869E-1
 7.839602034125000E9     5.501639496801497E-1   -1.362865768178536E-1    2.888445880395045E-3    3.614345888074408E-3    2.857584504456924E-3    3.629690435332035E-3    3.518803611792000E-1   -4.103478577804891E-1
 7.839634624300000E9     5.497825262705371E-1   -1.383649283278162E-1    2.916896672152973E-3    3.615826486010890E-3    2.856617512181781E-3    3.593972252008832E-3    3.500885625518250E-1   -4.117162237237188E-1
 7.839667214475000E9     5.492033644844115E-1   -1.405529549228424E-1    2.952637087967482E-3    3.622451810214567E-3    2.883278840500542E-3    3.604946152568506E-3    3.483669471973458E-1   -4.132752833245045E-1
 7.839699804650000E9     5.487627567677417E-1   -1.426697552269668E-1    2.977228711538299E-3    3.635891576319512E-3    2.917705561580759E-3    3.611367988678660E-3    3.467253143184899E-1   -4.145527749855881E-1
 7.839732394825000E9     5.481158777012909E-1   -1.448516997845223E-1    3.007413721930281E-3    3.629326559068411E-3    2.948307829130473E-3    3.579736277595347E-3    3.448167795966650E-1   -4.162524551136686E-1
 7.839764985000000E9     5.474935290338554E-1   -1.469930606252589E-1    3.025798444789778E-3    3.639186264700989E-3    2.986678011552867E-3    3.581165289274033E-3    3.431606848907156E-1   -4.176756991214796E-1
 7.839797575175000E9     5.469047085547258E-1   -1.490064747957209E-1    3.028276706852533E-3    3.599930069411414E-3    2.990820475614891E-3    3.573092572037894E-3    3.412304172529573E-1   -4.190889262559133E-1
 7.839830165350000E9     5.462568738670857E-1   -1.511406582594842E-1    3.068154632579362E-3    3.595344890178951E-3    3.011341019917150E-3    3.590810582007857E-3    3.395153331601684E-1   -4.205259441396774E-1
 7.839862755525000E9     5.457238429127147E-1   -1.533637499528556E-1    3.112545389289123E-3    3.598187393855945E-3    3.029767656459695E-3    3.585231535466311E-3    3.376945624373378E-1   -4.219885086885085E-1
 7.839895345700000E9     5.451325534245987E-1   -1.554735661777148E-1    3.122867493364194E-3    3.577792021952070E-3    3.085469950744481E-3    3.570035388689561E-3    3.358884365830492E-1   -4.234958457088974E-1
 7.839927935875000E9     5.444726871834821E-1   -1.574969356414584E-1    3.153154289152957E-3    3.579609927390546E-3    3.128345940689806E-3    3.618482799265801E-3    3.342653353970642E-1   -4.248100060000084E-1
 7.839960526050000E9     5.438396094065825E-1   -1.596269836461621E-1    3.181462815889357E-3    3.629033770363603E-3    3.126549654196548E-3    3.584573259349188E-3    3.323059221553029E-1   -4.262950232811186E-1
 7.839993116225000E9     5.431979265198291E-1   -1.617431265031236E-1    3.224327846613494E-3    3.605557274379135E-3    3.169975319304568E-3    3.585109079689075E-3    3.305966238551075E-1   -4.275371274253129E-1
 7.840025706400000E9     5.425799998165709E-1   -1.639177354066721E-1    3.251502820460575E-3    3.584759851505188E-3    3.190852149173454E-3    3.574320600578540E-3    3.286973925463959E-1   -4.290530923966681E-1
 7.840058296575000E9     5.419736521979883E-1   -1.659084395820453E-1    3.275630977353710E-3    3.564618562347664E-3    3.245017372562583E-3    3.547014951418751E-3    3.270740572573407E-1   -4.305103835744983E-1
 7.840090886750000E9     5.412755019342373E-1   -1.678849106586595E-1    3.322129372485287E-3    3.584048883407328E-3    3.284348169540051E-3    3.537848151758026E-3    3.251361106500567E-1   -4.318644517716450E-1
