#  HZ   S   RI   R     50.00 
! Rohde & Schwarz Vector Network Analyzer 
! Rohde-Schwarz,ZNB20-2Port,1311601062101988,3.16
! Created: UTC 3/20/2024, 11:45:02 AM
! freq[Hz]                re:S11                  im:S11                  re:S21                  im:S21                  re:S12                  im:S12                  re:S22                  im:S22
 8.116710532000000E9     5.066027256131777E-1    5.101445212669174E-3    6.484189318337550E-4    3.633099754013803E-3    7.402640409580020E-4    3.684661914929436E-3    4.246597433218363E-1   -1.501511752799601E-1
 8.116714928925000E9     5.065662965808219E-1    4.861624670351196E-3    6.404046268226107E-4    3.620839442037846E-3    7.689707253280908E-4    3.665389470557143E-3    4.245296953971188E-1   -1.503306730340957E-1
 8.116719325850000E9     5.066109503775718E-1    4.405685744971044E-3    6.566286986842360E-4    3.649855880903400E-3    7.270185392044832E-4    3.663856152155935E-3    4.244161541503248E-1   -1.506418113989875E-1
 8.116723722775000E9     5.066716981808462E-1    4.091950578612323E-3    6.343404734339403E-4    3.621319032286816E-3    6.929143784630514E-4    3.704006015905744E-3    4.243594417265422E-1   -1.508300032736740E-1
 8.116728119700000E9     5.065879694105818E-1    3.787325619893419E-3    6.525785858826584E-4    3.612482125417442E-3    7.273703953488176E-4    3.662150364639162E-3    4.243567521578575E-1   -1.511626223097431E-1
 8.116732516625000E9     5.065540158636361E-1    3.353110561079016E-3    6.627450884262675E-4    3.648787625518453E-3    7.257122606246809E-4    3.692876048652869E-3    4.241123267568109E-1   -1.515047995832921E-1
 8.116736913550000E9     5.064911805352668E-1    3.107859479726036E-3    6.757759236675690E-4    3.637303831101137E-3    7.124163582276868E-4    3.667680017752001E-3    4.239572777590009E-1   -1.519089664796930E-1
 8.116741310475000E9     5.065942230696731E-1    2.766784245112120E-3    6.733576675436640E-4    3.646766992854711E-3    7.396340060840979E-4    3.717386659387307E-3    4.239699258661327E-1   -1.521984895807449E-1
 8.116745707400000E9     5.067021677187300E-1    2.435038845860400E-3    6.794308304532107E-4    3.653536662828768E-3    7.414031312599048E-4    3.700424636542481E-3    4.238590675358485E-1   -1.524363763999036E-1
 8.116750104325000E9     5.065991186350277E-1    2.047265728292664E-3    6.680035161789125E-4    3.650802821152058E-3    7.266093590652336E-4    3.671715927460531E-3    4.238072191753460E-1   -1.526645114744788E-1
 8.116754501250000E9     5.065155723966961E-1    1.722288364607263E-3    6.678778819535044E-4    3.641709657444763E-3    7.447219422169506E-4    3.696001590305426E-3    4.237234578238186E-1   -1.530230686168733E-1
 8.116758898175000E9     5.065427553346407E-1    1.385634039125456E-3    6.693235817254482E-4    3.666181508790888E-3    7.324998379557128E-4    3.732796907805073E-3    4.236192014107705E-1   -1.534122150905438E-1
 8.116763295100000E9     5.065006701775009E-1    1.107866242383996E-3    6.721632760760657E-4    3.647262938839106E-3    7.632905058121828E-4    3.674864127589022E-3    4.234241305326933E-1   -1.535716782872478E-1
 8.116767692025000E9     5.065118351301860E-1    6.163172298793954E-4    7.017995095598740E-4    3.662476802702067E-3    7.524762226665582E-4    3.724038182411104E-3    4.234195481493794E-1   -1.538530323037411E-1
 8.116772088950000E9     5.065378526516691E-1    3.616131358441751E-4    6.945899637285179E-4    3.684504539741615E-3    7.448601876334596E-4    3.702334521995464E-3    4.234820031368858E-1   -1.539414623585116E-1
 8.116776485875000E9     5.065269346817309E-1    1.156766206428301E-4    6.885380771223695E-4    3.642120630536492E-3    7.440870470244685E-4    3.734423090339424E-3    4.230888473255078E-1   -1.543032959278446E-1
 8.116780882800000E9     5.065037904026830E-1   -3.720617009246758E-4    6.775657504590103E-4    3.637835110950483E-3    7.554642760749967E-4    3.683671085031384E-3    4.231597798383324E-1   -1.547929561360608E-1
 8.116785279725000E9     5.064647492699030E-1   -6.430280436777676E-4    6.977866535849162E-4    3.643183937357472E-3    7.927546213374131E-4    3.702816309731689E-3    4.230870766879445E-1   -1.550667220315912E-1
 8.116789676650000E9     5.065759686105012E-1   -1.011363964383945E-3    6.892196850318582E-4    3.623636022009361E-3    7.548622701011617E-4    3.714953869982638E-3    4.230495604845808E-1   -1.552557208035431E-1
 8.116794073575000E9     5.065177829904505E-1   -1.288209855616999E-3    7.028003466501715E-4    3.669880681008656E-3    7.769517044174541E-4    3.707964232464384E-3    4.229450941060530E-1   -1.556400366204660E-1
 8.116798470500000E9     5.065304770046402E-1   -1.633526019306948E-3    7.246475706658154E-4    3.656937178869128E-3    7.759969597693609E-4    3.703073884349706E-3    4.227120260725082E-1   -1.558117274908987E-1
 8.116802867425000E9     5.064841529865046E-1   -2.070623860776701E-3    7.042297463146683E-4    3.677753391019262E-3    7.908827306978590E-4    3.714781023440597E-3    4.225723626171740E-1   -1.560127638820590E-1
 8.116807264350000E9     5.064384167209476E-1   -2.396347479558867E-3    7.121424428829004E-4    3.655375990279901E-3    7.551044372645964E-4    3.749210359438991E-3    4.225649953710072E-1   -1.564342415486000E-1
 8.116811661275000E9     5.064891987064797E-1   -2.768070635322221E-3    7.304916062684160E-4    3.638644534734824E-3    7.612889221237642E-4    3.723950343772030E-3    4.225596867094241E-1   -1.568276181508437E-1
 8.116816058200000E9     5.064831228502937E-1   -3.051114621343703E-3    7.143922361101092E-4    3.691373498678372E-3    7.770003164984172E-4    3.739734406515115E-3    4.223697061929605E-1   -1.570516944081177E-1
 8.116820455125000E9     5.064810286961994E-1   -3.485347334728525E-3    7.438596055746570E-4    3.665465585369039E-3    7.669795956590682E-4    3.694830967380349E-3    4.223120117431186E-1   -1.572620770896973E-1
 8.116824852050000E9     5.065147506986509E-1   -3.687571205343270E-3    7.252393394197637E-4    3.677793709791929E-3    8.010451879063342E-4    3.727367899071586E-3    4.221444198111057E-1   -1.576928316653463E-1
 8.116829248975000E9     5.063986771586331E-1   -4.162541395963886E-3    7.258268317909424E-4    3.672880864505686E-3    7.832852828653630E-4    3.733811014994447E-3    4.220510599586309E-1   -1.579668053407345E-1
 8.116833645900000E9     5.064789861674218E-1   -4.399506687912847E-3    7.379682896876202E-4    3.670358161593626E-3    7.804733652778849E-4    3.728867947478617E-3    4.218517907433874E-1   -1.581992720835110E-1
 8.116838042825000E9     5.064321541559411E-1   -4.658988405381788E-3    7.390896664308708E-4    3.700616307318036E-3    8.314945409545639E-4    3.721234561981801E-3    4.218558762736007E-1   -1.584373448220684E-1
 8.116842439750000E9     5.064817344424474E-1   -5.098670269639009E-3    7.561054707260796E-4    3.662002575003915E-3    7.976671538369061E-4    3.747419443964114E-3    4.217530782182288E-1   -1.588500719929767E-1
 8.116846836675000E9     5.063484732929947E-1   -5.477584701139926E-3    7.613063919785812E-4    3.685595521747051E-3    8.199885372083586E-4    3.736485080539074E-3    4.217308010244047E-1   -1.591829052162779E-1
 8.116851233600000E9     5.063044540977720E-1   -5.696673584310992E-3    7.617668522834218E-4    3.723669949135412E-3    7.914041729242193E-4    3.724680611569628E-3    4.217004794893163E-1   -1.593995349561060E-1
 8.116855630525000E9     5.063755341216053E-1   -6.162785813240002E-3    7.760317249511934E-4    3.698793875168647E-3    8.554330820246440E-4    3.723133642685481E-3    4.214481395632653E-1   -1.596072519343988E-1
 8.116860027450000E9     5.063970325663427E-1   -6.396805897336760E-3    7.773466761433545E-4    3.696270253299110E-3    8.521522865013786E-4    3.733947130962673E-3    4.214056533748450E-1   -1.599811571894204E-1
 8.116864424375000E9     5.063517936021892E-1   -6.791616470342804E-3    7.459969910176167E-4    3.701989893191926E-3    7.667341889963113E-4    3.774907618418933E-3    4.213171211572320E-1   -1.603351084700010E-1
 8.116868821300000E9     5.062781299721141E-1   -7.171551197032250E-3    7.837140740525352E-4    3.701576816963182E-3    8.430343632030857E-4    3.776286122671285E-3    4.212380164452095E-1   -1.604879538105346E-1
 8.116873218225000E9     5.064303386620534E-1   -7.522673400531868E-3    7.925805501320476E-4    3.710005761533590E-3    8.140102110268397E-4    3.748738304406348E-3    4.211561872663638E-1   -1.608118501708015E-1
 8.116877615150000E9     5.063407064981039E-1   -7.709755076179718E-3    7.645128468518896E-4    3.713696793561386E-3    8.336636373449235E-4    3.778227908985644E-3    4.210796177156808E-1   -1.611028113999881E-1
 8.116882012075000E9     5.063868843127816E-1   -8.146974790030707E-3    7.879108862937296E-4    3.720260398033492E-3    8.224539466596462E-4    3.775997872005807E-3    4.210370327399360E-1   -1.614755118203465E-1
 8.116886409000000E9     5.061443526202009E-1   -8.445027468905459E-3    7.858244792711046E-4    3.700744429303251E-3    8.218248161650882E-4    3.772436866278980E-3    4.207775580876306E-1   -1.616808513331328E-1
 8.116890805925000E9     5.062360377193693E-1   -8.763868466474893E-3    7.857293665639238E-4    3.712282345260550E-3    8.440315056772490E-4    3.753747310723418E-3    4.206104504016620E-1   -1.620026925772856E-1
 8.116895202850000E9     5.062800251019324E-1   -9.100971160512819E-3    7.937718702036300E-4    3.704479203705018E-3    8.529301027168190E-4    3.751643879741219E-3    4.205697373521781E-1   -1.623410777819840E-1
 8.116899599775000E9     5.062758241184845E-1   -9.454124866508175E-3    8.042706742929222E-4    3.698388120483793E-3    8.412402555742748E-4    3.750856247255821E-3    4.204621557486230E-1   -1.626302356008264E-1
 8.116903996700000E9     5.061917643744809E-1   -9.874717789997186E-3    8.096466945552210E-4    3.701882686370095E-3    8.265642599333795E-4    3.782165896373613E-3    4.203581363424861E-1   -1.628304556233572E-1
 8.116908393625000E9     5.061175555936271E-1   -1.018006599387404E-2    8.136604639094825E-4    3.718677881088257E-3    8.742055487821472E-4    3.784044683092595E-3    4.203619728023485E-1   -1.630524715043265E-1
 8.116912790550000E9     5.061506684025971E-1   -1.061257041639218E-2    8.155187365616781E-4    3.703025783960749E-3    8.585125619303647E-4    3.767187749202769E-3    4.202903555147262E-1   -1.634531025419199E-1
 8.116917187475000E9     5.061915802364341E-1   -1.094446980958952E-2    8.225513651511718E-4    3.722155991298615E-3    8.862045885619835E-4    3.796879548258149E-3    4.201846136275416E-1   -1.636018256248403E-1
 8.116921584400000E9     5.062333740476511E-1   -1.111123256377883E-2    8.037576054788745E-4    3.722983573142609E-3    8.607295921080451E-4    3.754168369348475E-3    4.200597232900907E-1   -1.640716248456430E-1
 8.116925981325000E9     5.062148468915431E-1   -1.153882338837704E-2    8.119889974406643E-4    3.763807850859089E-3    8.997152259419731E-4    3.798930206779734E-3    4.200384770322640E-1   -1.642948528990588E-1
 8.116930378250000E9     5.061773029711866E-1   -1.187724181006731E-2    8.156165594770863E-4    3.714479546867724E-3    8.578612851063704E-4    3.843343752138601E-3    4.198434652827841E-1   -1.644487370874416E-1
 8.116934775175000E9     5.061382168803065E-1   -1.230064567737755E-2    8.252597851579731E-4    3.773657710515490E-3    8.766617484212504E-4    3.762909397256048E-3    4.198621256024754E-1   -1.647343390262825E-1
 8.116939172100000E9     5.060927405616167E-1   -1.249824165036367E-2    8.397255146544084E-4    3.722751330685113E-3    9.020269276994797E-4    3.813872806311477E-3    4.195999334436625E-1   -1.651481021898077E-1
 8.116943569025000E9     5.060652633358128E-1   -1.291250810344247E-2    8.412576065450588E-4    3.771740447793764E-3    8.855067779957071E-4    3.806401337371019E-3    4.195595328378431E-1   -1.654127872926352E-1
 8.116947965950000E9     5.060974620713365E-1   -1.318075933986505E-2    8.128906436456770E-4    3.737846048306907E-3    9.052102461211360E-4    3.827774248460621E-3    4.195498464220999E-1   -1.658338983549186E-1
 8.116952362875000E9     5.060800832280240E-1   -1.363655059596745E-2    8.413116551541469E-4    3.764730963312797E-3    8.827374850255319E-4    3.826851012521631E-3    4.193297629390664E-1   -1.660905090974303E-1
 8.116956759800000E9     5.059103678026654E-1   -1.395096142609609E-2    8.371772922030832E-4    3.740807558964130E-3    9.063895744600899E-4    3.840608186373685E-3    4.192130437277508E-1   -1.663400705280463E-1
 8.116961156725000E9     5.060439789846169E-1   -1.420132012918599E-2    8.527259586192309E-4    3.794707196645288E-3    8.896329748025013E-4    3.815383196139656E-3    4.191803504822775E-1   -1.666417146631582E-1
 8.116965553650000E9     5.059830587788047E-1   -1.472055586195628E-2    8.649152930459468E-4    3.780155896740207E-3    9.340373709309911E-4    3.816636365805731E-3    4.190671709672553E-1   -1.669874234226505E-1
 8.116969950575000E9     5.060598442700008E-1   -1.494070922129990E-2    8.668128577904523E-4    3.778387370632341E-3    8.840268837945871E-4    3.843382221390610E-3    4.189667377063797E-1   -1.672347616211370E-1
 8.116974347500000E9     5.059080533011311E-1   -1.523356651542451E-2    8.435766225194574E-4    3.783513258435489E-3    8.927083042909672E-4    3.840670890713457E-3    4.187875671948019E-1   -1.675179317276431E-1
 8.116978744425000E9     5.059136469197850E-1   -1.563604698054448E-2    8.790530751796725E-4    3.804166018706790E-3    9.122929587895117E-4    3.885413579614571E-3    4.186953165644073E-1   -1.677899655982087E-1
 8.116983141350000E9     5.059914301256830E-1   -1.597141905032066E-2    8.443049711538202E-4    3.762518016780900E-3    9.166991006057785E-4    3.812950746883373E-3    4.186750188897325E-1   -1.679313261015409E-1
 8.116987538275000E9     5.059332779671344E-1   -1.632218628135447E-2    8.660775479295035E-4    3.778934196209716E-3    9.088621081545437E-4    3.845419614914132E-3    4.184603594997008E-1   -1.683830394326624E-1
 8.116991935200000E9     5.058819199390406E-1   -1.671447094994109E-2    8.815729962260806E-4    3.782328951700803E-3    9.581835773828506E-4    3.871493258342998E-3    4.185274610239256E-1   -1.686145793848654E-1
 8.116996332125000E9     5.058638525756375E-1   -1.700169138203916E-2    8.611845850840024E-4    3.799628887051693E-3    9.319001599233542E-4    3.878416038857739E-3    4.182471022932096E-1   -1.689901572320158E-1
 8.117000729050000E9     5.058513558832504E-1   -1.725698093784199E-2    8.725975475915569E-4    3.793892562901627E-3    9.368522943793856E-4    3.844521133794086E-3    4.180354134294648E-1   -1.692438445938062E-1
 8.117005125975000E9     5.057524738833989E-1   -1.763989158049178E-2    9.057113430525614E-4    3.766375598058370E-3    9.887769218234379E-4    3.862805416810306E-3    4.180567151080617E-1   -1.694452276580221E-1
 8.117009522900000E9     5.058777620529912E-1   -1.808920146453793E-2    9.000856755001712E-4    3.789940206785104E-3    9.565082779869623E-4    3.865398126546310E-3    4.178513933877027E-1   -1.697887235888336E-1
 8.117013919825000E9     5.057707721042024E-1   -1.836786086937826E-2    9.212808423461174E-4    3.807653564356826E-3    9.931351747730500E-4    3.863159219373979E-3    4.178351981423693E-1   -1.699982807380688E-1
 8.117018316750000E9     5.057548598089341E-1   -1.876947382516418E-2    9.161067637750435E-4    3.830101640648627E-3    9.603766176488426E-4    3.881735525590566E-3    4.177028476354754E-1   -1.703712811998181E-1
 8.117022713675000E9     5.056486943223484E-1   -1.909538072658873E-2    8.983956431535640E-4    3.803330751528407E-3    9.549924229410056E-4    3.874849048139116E-3    4.176689912888779E-1   -1.706606073579747E-1
 8.117027110600000E9     5.055947529758965E-1   -1.951415345460811E-2    9.243146850909197E-4    3.822543812017282E-3    9.730092293257750E-4    3.875039311605506E-3    4.175717616471066E-1   -1.708946235032563E-1
 8.117031507525000E9     5.057492416683205E-1   -1.989986315476886E-2    9.160341986575483E-4    3.786643722945234E-3    9.792109603098515E-4    3.863088721803504E-3    4.174919307493774E-1   -1.712309361565420E-1
 8.117035904450000E9     5.056525133138388E-1   -2.008337881891453E-2    8.961045911958606E-4    3.813518085481268E-3    9.932469398133722E-4    3.867645404666535E-3    4.173743436676251E-1   -1.715487738943568E-1
 8.117040301375000E9     5.055957495371246E-1   -2.046689521764073E-2    9.135796610926814E-4    3.833186421174651E-3    9.674110059300176E-4    3.880902202355706E-3    4.172440651914921E-1   -1.719097665590030E-1
 8.117044698300000E9     5.055248883249929E-1   -2.076936017502836E-2    9.564842652170991E-4    3.816867722576563E-3    9.727870570667559E-4    3.861831974823001E-3    4.171022795188065E-1   -1.720719848623207E-1
 8.117049095225000E9     5.055840863467643E-1   -2.132312153605379E-2    9.493191862773718E-4    3.836290247530892E-3    9.927376918038226E-4    3.846777534596579E-3    4.170222612499504E-1   -1.724422399735304E-1
 8.117053492150000E9     5.054972748801897E-1   -2.157011515141794E-2    9.309859876192711E-4    3.831454886694615E-3    9.974485153838189E-4    3.900517338265571E-3    4.169469476276869E-1   -1.726311147672936E-1
 8.117057889075000E9     5.054375093150041E-1   -2.198208072533451E-2    9.264755463751106E-4    3.852525812820384E-3    1.012094182340035E-3    3.892084053704788E-3    4.168394760582427E-1   -1.730300573916036E-1
 8.117062286000000E9     5.054805385449445E-1   -2.229942447470561E-2    9.388812991277285E-4    3.829974248209016E-3    9.993272292139965E-4    3.902566144167419E-3    4.165820250222665E-1   -1.732190750787151E-1
 8.117066682925000E9     5.054970170597193E-1   -2.260160505928601E-2    9.501533317314994E-4    3.851463078599900E-3    1.011303556741234E-3    3.913229273482160E-3    4.165881119197696E-1   -1.735518925183938E-1
 8.117071079850000E9     5.054371046405569E-1   -2.281765751659141E-2    9.744707663238484E-4    3.861925815081173E-3    1.023110792656496E-3    3.951747180533273E-3    4.164643396917027E-1   -1.738016014092378E-1
 8.117075476775000E9     5.053827081473405E-1   -2.337019776077532E-2    9.658697429218609E-4    3.859382968249120E-3    1.011605742745481E-3    3.948854294887025E-3    4.163458304770267E-1   -1.741646294667836E-1
 8.117079873700000E9     5.053772954478756E-1   -2.365742519528449E-2    9.811450931367536E-4    3.863192927282281E-3    9.941159648441027E-4    3.905987738491732E-3    4.163655648410972E-1   -1.743547116359580E-1
 8.117084270625000E9     5.053646819321812E-1   -2.398564290626303E-2    9.874843630695615E-4    3.890186303453342E-3    1.028491650683843E-3    3.927850842485846E-3    4.161411786647897E-1   -1.746879020588914E-1
 8.117088667550000E9     5.052307598525700E-1   -2.440869040960201E-2    9.886156978600237E-4    3.893464000635656E-3    1.055945000472296E-3    3.924842304811733E-3    4.160024723627118E-1   -1.750225412024019E-1
 8.117093064475000E9     5.052561431080407E-1   -2.480541624378294E-2    1.000053580736445E-3    3.895559877435048E-3    1.033127702098147E-3    3.913817612202360E-3    4.159596383790015E-1   -1.752676524882225E-1
 8.117097461400000E9     5.053704805070237E-1   -2.510571850775425E-2    9.795808061713544E-4    3.859143231027209E-3    1.063204544800421E-3    3.938948705033319E-3    4.157988354365739E-1   -1.755775260202015E-1
 8.117101858325000E9     5.053024769973720E-1   -2.547067038326724E-2    1.000883601231092E-3    3.878365610313763E-3    1.063328765225508E-3    3.974343485925755E-3    4.157231552720136E-1   -1.758458745562640E-1
 8.117106255250000E9     5.053314142686162E-1   -2.568869670772764E-2    1.015821350394624E-3    3.900169107714627E-3    1.043930772044057E-3    3.977915420398981E-3    4.157550122395171E-1   -1.760616381338063E-1
