#  HZ   S   RI   R     50.00 
! Rohde & Schwarz Vector Network Analyzer 
! Rohde-Schwarz,ZNB20-2Port,1311601062101988,3.16
! Created: UTC 12/23/2023, 3:54:45 AM
! freq[Hz]                re:S11                  im:S11                  re:S21                  im:S21                  re:S12                  im:S12                  re:S22                  im:S22
 6.516948043000000E9    -2.305661585873314E-1   -1.808499772030366E-2    1.301284978381431E-2   -4.995802034312130E-3    1.318468572757114E-2   -4.720109564654490E-3    1.994464275665788E-1    5.106006654940992E-1
 6.516960082075000E9    -2.306057014993551E-1   -1.785824640198870E-2    1.310901523539245E-2   -5.294507805932509E-3    1.313686913831713E-2   -4.730740732012030E-3    2.003976977180796E-1    5.103655363420320E-1
 6.516972121150000E9    -2.304561067494411E-1   -1.764087125052280E-2    1.329238576793011E-2   -5.362892390366859E-3    1.331965130222352E-2   -4.906959429903308E-3    2.012644620426252E-1    5.098477297647860E-1
 6.516984160225000E9    -2.302735187802469E-1   -1.745506260386189E-2    1.315676115891367E-2   -5.347608260968137E-3    1.332588460236001E-2   -4.809823709001812E-3    2.022204592714729E-1    5.097019805784777E-1
 6.516996199300000E9    -2.302345246570707E-1   -1.731892407421573E-2    1.318942006591857E-2   -5.439745706054406E-3    1.340294192040175E-2   -4.902383699548651E-3    2.030920469939377E-1    5.092119094570441E-1
 6.517008238375000E9    -2.301842315547359E-1   -1.709108424293136E-2    1.336695870262805E-2   -5.462756700647151E-3    1.335128961591080E-2   -4.974332702388339E-3    2.040909790317550E-1    5.089001723003542E-1
 6.517020277450000E9    -2.299079671521026E-1   -1.686412848045923E-2    1.332576403336418E-2   -5.406997484494172E-3    1.339692201625516E-2   -5.017873221322675E-3    2.049196490815127E-1    5.086086552531537E-1
 6.517032316525000E9    -2.298319075980543E-1   -1.662815785009526E-2    1.338987372876177E-2   -5.552900974620657E-3    1.347589981984220E-2   -5.019667816108294E-3    2.058668759909386E-1    5.082397828380264E-1
 6.517044355600000E9    -2.297014777799532E-1   -1.656584637163869E-2    1.342089326114744E-2   -5.591095939523454E-3    1.368906883365363E-2   -5.106988471267903E-3    2.066458655224153E-1    5.077747341284174E-1
 6.517056394675000E9    -2.296228726820738E-1   -1.634833474106941E-2    1.341371968530648E-2   -5.619537773441438E-3    1.358011818160891E-2   -5.173746911966970E-3    2.074860648960512E-1    5.075616478392164E-1
 6.517068433750000E9    -2.295250256959437E-1   -1.629676681717586E-2    1.347383118760807E-2   -5.643882157597682E-3    1.363855269964463E-2   -5.203177037728243E-3    2.085049608391144E-1    5.071420365070922E-1
 6.517080472825000E9    -2.291914585204738E-1   -1.601664532933027E-2    1.374138217607311E-2   -5.717587754047961E-3    1.373269017083310E-2   -5.288681060463223E-3    2.094206309755970E-1    5.067769244719005E-1
 6.517092511900000E9    -2.291903206249920E-1   -1.575727893248589E-2    1.376200675550615E-2   -5.845757457492462E-3    1.380725040802773E-2   -5.332312831342980E-3    2.102587857707954E-1    5.065152335235928E-1
 6.517104550975000E9    -2.291197726466415E-1   -1.564563559319443E-2    1.375119864995140E-2   -5.902004811583881E-3    1.395596178810443E-2   -5.353815727867052E-3    2.111518140913922E-1    5.061524345396521E-1
 6.517116590050000E9    -2.289381971549361E-1   -1.546378646321859E-2    1.384017741447721E-2   -5.971749629197073E-3    1.388625982634938E-2   -5.432098517916707E-3    2.120227811216209E-1    5.057689222545104E-1
 6.517128629125000E9    -2.288096964232821E-1   -1.524187180942350E-2    1.395947638399652E-2   -6.001610931448337E-3    1.404970423811787E-2   -5.510962819731529E-3    2.129152613186041E-1    5.053131725181186E-1
 6.517140668200000E9    -2.287372177567791E-1   -1.503560285390615E-2    1.393339137568557E-2   -5.966139780114477E-3    1.398802601521345E-2   -5.507361151536284E-3    2.137040229898848E-1    5.051020848615203E-1
 6.517152707275000E9    -2.286880096580343E-1   -1.488986891875668E-2    1.401043641562078E-2   -6.155248963135625E-3    1.416025214229711E-2   -5.729965513902596E-3    2.147303318739097E-1    5.046112210940515E-1
 6.517164746350000E9    -2.284635847474144E-1   -1.470766871149948E-2    1.407006278351172E-2   -6.280376969178979E-3    1.416271620936796E-2   -5.716453809324061E-3    2.155511836029158E-1    5.042583562697923E-1
 6.517176785425000E9    -2.283335960189517E-1   -1.445307972958301E-2    1.398173859859213E-2   -6.181245009323198E-3    1.430042552162957E-2   -5.847153379933101E-3    2.164531487997951E-1    5.038475090700247E-1
 6.517188824500000E9    -2.282491928493248E-1   -1.431367603988174E-2    1.415218157037648E-2   -6.280324744406578E-3    1.438237264613762E-2   -5.761740571664679E-3    2.173571279631751E-1    5.035458729864809E-1
 6.517200863575000E9    -2.280547010336914E-1   -1.418447205524090E-2    1.422076557526586E-2   -6.394079717312011E-3    1.439168328903516E-2   -5.875360696387256E-3    2.182386342861501E-1    5.030848101171959E-1
 6.517212902650000E9    -2.280616900783603E-1   -1.403244094318309E-2    1.435771142436428E-2   -6.373760228199513E-3    1.443873760388475E-2   -5.839159006745415E-3    2.191786532821916E-1    5.027434129493159E-1
 6.517224941725000E9    -2.277282342161714E-1   -1.380795609855823E-2    1.432308799589750E-2   -6.467234461554446E-3    1.460026247550786E-2   -5.930646576088143E-3    2.200142778421448E-1    5.025367338564261E-1
 6.517236980800000E9    -2.275534334206187E-1   -1.367187788326596E-2    1.449393255604564E-2   -6.509849189283527E-3    1.464820279843153E-2   -6.015929561436930E-3    2.208713430251667E-1    5.020052517532968E-1
 6.517249019875000E9    -2.275180272220323E-1   -1.344193117447175E-2    1.450059070539042E-2   -6.567413582827522E-3    1.461123759309776E-2   -6.105468342256056E-3    2.218093441583766E-1    5.016348693602268E-1
 6.517261058950000E9    -2.274946351678768E-1   -1.334273029811650E-2    1.464655115670587E-2   -6.608341390392177E-3    1.474028425737276E-2   -6.149270319600088E-3    2.226293034455852E-1    5.012637355823113E-1
 6.517273098025000E9    -2.272428066522807E-1   -1.310803442058481E-2    1.461554545592923E-2   -6.594348475065302E-3    1.487744717103200E-2   -6.170607718151512E-3    2.235495412700442E-1    5.008884861414477E-1
 6.517285137100000E9    -2.270324870306733E-1   -1.306540329208330E-2    1.481638766556822E-2   -6.806718116485581E-3    1.484241033152157E-2   -6.239434061828483E-3    2.243550363164928E-1    5.004430381327469E-1
 6.517297176175000E9    -2.270128434147632E-1   -1.278922459952845E-2    1.468958673995385E-2   -6.891213707416757E-3    1.489359775203792E-2   -6.438126012150960E-3    2.253558613756337E-1    5.001608179772274E-1
 6.517309215250000E9    -2.268654181545469E-1   -1.259217941560511E-2    1.484918104351035E-2   -7.053160329531218E-3    1.504354065773808E-2   -6.269161958461419E-3    2.262630599106573E-1    4.997376487085114E-1
 6.517321254325000E9    -2.267727906418084E-1   -1.243972272224819E-2    1.486612254043661E-2   -7.009202281034113E-3    1.502505010249848E-2   -6.563167223937821E-3    2.271651908628849E-1    4.992386776436266E-1
 6.517333293400000E9    -2.265258442363826E-1   -1.224341266744118E-2    1.486413055408730E-2   -7.149105870618253E-3    1.510093025977087E-2   -6.700211180232439E-3    2.280667010355895E-1    4.990535658205955E-1
 6.517345332475000E9    -2.263579781829667E-1   -1.204525228570810E-2    1.507173381304323E-2   -7.156410602398448E-3    1.538119866928450E-2   -6.604382248422790E-3    2.289253751186929E-1    4.984621116524244E-1
 6.517357371550000E9    -2.261518151825662E-1   -1.188445400260647E-2    1.521279026935884E-2   -7.264573004429164E-3    1.508294574416224E-2   -6.687331542123004E-3    2.297266260408320E-1    4.980123004249568E-1
 6.517369410625000E9    -2.261181842147786E-1   -1.174421713996156E-2    1.525355618781217E-2   -7.203600950087517E-3    1.531804881826766E-2   -6.833447692987750E-3    2.306240250105981E-1    4.977674288030955E-1
 6.517381449700000E9    -2.259046377810984E-1   -1.157587668779021E-2    1.521572995725442E-2   -7.390110026467514E-3    1.538635734609713E-2   -6.851695141773114E-3    2.315249884231685E-1    4.973130762329711E-1
 6.517393488775000E9    -2.258271546616168E-1   -1.143878061570788E-2    1.532541468404186E-2   -7.576985210696538E-3    1.545104529079903E-2   -6.943976952023158E-3    2.325798189913330E-1    4.968499063998791E-1
 6.517405527850000E9    -2.256460746460363E-1   -1.132503157514895E-2    1.531496859772490E-2   -7.496232475723071E-3    1.570736756835654E-2   -6.983816367670160E-3    2.332620679440630E-1    4.966200902520966E-1
 6.517417566925000E9    -2.255759608064514E-1   -1.120729869951261E-2    1.544014938553760E-2   -7.659181843870828E-3    1.563860357932999E-2   -7.054018564134645E-3    2.342455597162424E-1    4.962097121145989E-1
 6.517429606000000E9    -2.254319679339223E-1   -1.102174058291749E-2    1.557088786309262E-2   -7.645941226391494E-3    1.584703142926199E-2   -7.231396830885794E-3    2.351113787388672E-1    4.956627517676132E-1
 6.517441645075000E9    -2.251585864535235E-1   -1.086525018005681E-2    1.560215099541353E-2   -7.768101965999007E-3    1.586324352010340E-2   -7.276225457126261E-3    2.361144860221829E-1    4.952407587084927E-1
 6.517453684150000E9    -2.250516918650345E-1   -1.065793123924012E-2    1.568562775135015E-2   -7.812936418131231E-3    1.592979365858427E-2   -7.313767022731025E-3    2.370137490161672E-1    4.947861911152497E-1
 6.517465723225000E9    -2.248492499679647E-1   -1.057370009311903E-2    1.569997589704835E-2   -7.877977067923014E-3    1.591159626747321E-2   -7.426540450410198E-3    2.378734350299284E-1    4.943814020919280E-1
 6.517477762300000E9    -2.247055691522345E-1   -1.036100683789245E-2    1.583213212477471E-2   -7.982916107867999E-3    1.610799887618691E-2   -7.541362746099528E-3    2.388541825482236E-1    4.939553307216383E-1
 6.517489801375000E9    -2.245877770016894E-1   -1.030210220596615E-2    1.606146065967745E-2   -8.134137600625761E-3    1.619369871962169E-2   -7.484059966825648E-3    2.395718763136257E-1    4.935787187665603E-1
 6.517501840450000E9    -2.243806586407971E-1   -1.010917920325352E-2    1.599916482962405E-2   -8.249457101412340E-3    1.630764668109317E-2   -7.648018467370532E-3    2.405278855216228E-1    4.932446349226592E-1
 6.517513879525000E9    -2.243129929336959E-1   -9.925033087694721E-3    1.604370312725159E-2   -8.365182601142478E-3    1.640943799462429E-2   -7.836813417907089E-3    2.412869323377374E-1    4.926760794968756E-1
 6.517525918600000E9    -2.241238757433217E-1   -9.785818732794044E-3    1.625676033229040E-2   -8.469317094989322E-3    1.640245439161198E-2   -7.803752842878145E-3    2.421572810236439E-1    4.923918846589106E-1
 6.517537957675000E9    -2.239878236098201E-1   -9.597551989964637E-3    1.639888557089678E-2   -8.478729366868255E-3    1.650362880790749E-2   -7.951166172835132E-3    2.431523222833937E-1    4.917581551950390E-1
 6.517549996750000E9    -2.237895803613639E-1   -9.479966084889357E-3    1.624668566157969E-2   -8.709043113844109E-3    1.659668083778615E-2   -8.085614345453228E-3    2.441673898984877E-1    4.913622995842420E-1
 6.517562035825000E9    -2.235767156324618E-1   -9.353934547454914E-3    1.644445499373077E-2   -8.612759451165027E-3    1.667174082653588E-2   -8.122438223751223E-3    2.447925654343199E-1    4.909587296021655E-1
 6.517574074900000E9    -2.233480275928270E-1   -9.218217792257838E-3    1.643475150780355E-2   -8.504536170464396E-3    1.677269929359026E-2   -8.171330861151672E-3    2.458361195315206E-1    4.904413075917182E-1
 6.517586113975000E9    -2.232684995665788E-1   -9.008870912178913E-3    1.665673135180021E-2   -8.791032987728365E-3    1.687124335756002E-2   -8.370967528713569E-3    2.467091293543031E-1    4.899937519030604E-1
 6.517598153050000E9    -2.231324152948141E-1   -8.856836692151456E-3    1.669865565376060E-2   -8.891069164325433E-3    1.693994178870812E-2   -8.436476601422847E-3    2.475433663556352E-1    4.895343278833645E-1
 6.517610192125000E9    -2.228059924882643E-1   -8.776529177469187E-3    1.663034141263369E-2   -9.101943750388031E-3    1.708208078757648E-2   -8.448156811370899E-3    2.485808002205333E-1    4.890678680715014E-1
 6.517622231200000E9    -2.227592802760917E-1   -8.559191413400559E-3    1.690113477504719E-2   -9.164781090046752E-3    1.718378916665265E-2   -8.673116482748357E-3    2.493703072633071E-1    4.888579876017221E-1
 6.517634270275000E9    -2.226216881762758E-1   -8.516880356670477E-3    1.695229585130381E-2   -9.324225720364647E-3    1.721842334550050E-2   -8.624334955107777E-3    2.503639511776767E-1    4.882818594061650E-1
 6.517646309350000E9    -2.223604581999401E-1   -8.324774816873555E-3    1.710032966092094E-2   -9.328530612179590E-3    1.737698176137690E-2   -8.826383903986211E-3    2.511954555063601E-1    4.876838364966944E-1
 6.517658348425000E9    -2.221917435850720E-1   -8.219326629350057E-3    1.707789104769827E-2   -9.356399401413798E-3    1.751152585560286E-2   -8.792891332568305E-3    2.519410707053047E-1    4.872892867750526E-1
 6.517670387500000E9    -2.219952028705928E-1   -7.978173567443061E-3    1.717832548586558E-2   -9.509028873373258E-3    1.741053792493871E-2   -9.046879260858225E-3    2.529899069736523E-1    4.867969190666989E-1
 6.517682426575000E9    -2.218063524453154E-1   -8.063855014337802E-3    1.728816527333142E-2   -9.591792474193124E-3    1.748621103090555E-2   -9.099540631861913E-3    2.538952261410627E-1    4.865986201555975E-1
 6.517694465650000E9    -2.216068198906157E-1   -7.884375797400475E-3    1.746499636129991E-2   -9.809617219476539E-3    1.774470527912575E-2   -9.143898489910004E-3    2.546183835569458E-1    4.859465214801471E-1
 6.517706504725000E9    -2.214670848116572E-1   -7.742356441356613E-3    1.742354983992110E-2   -9.929000925114770E-3    1.786495189649527E-2   -9.389842620414058E-3    2.555468377266092E-1    4.853707407415740E-1
 6.517718543800000E9    -2.211684196691075E-1   -7.681324373097423E-3    1.768927759452661E-2   -9.971705960539012E-3    1.786051216482440E-2   -9.426312557026077E-3    2.565777054785740E-1    4.849762156177871E-1
 6.517730582875000E9    -2.210090343160233E-1   -7.421933861256579E-3    1.783330575244384E-2   -1.008831035584216E-2    1.806467412513277E-2   -9.498990140060804E-3    2.574984242652618E-1    4.844699940569325E-1
 6.517742621950000E9    -2.209883569097504E-1   -7.412307388383465E-3    1.779286539621230E-2   -1.017443361657753E-2    1.817901629906793E-2   -9.647223542421549E-3    2.583622443357981E-1    4.839869562185205E-1
 6.517754661025000E9    -2.207156926111288E-1   -7.214157398712179E-3    1.789989880560530E-2   -1.042323368421938E-2    1.819748819237668E-2   -9.696638212091048E-3    2.591890813660032E-1    4.836168576649766E-1
 6.517766700100000E9    -2.204867386073625E-1   -7.227305790376918E-3    1.805135947708468E-2   -1.043055047206103E-2    1.838489514595029E-2   -9.906263273693906E-3    2.600675197469375E-1    4.830866354133788E-1
 6.517778739175000E9    -2.203210255239934E-1   -7.075009598869210E-3    1.819637510058042E-2   -1.050334154347374E-2    1.834958744175925E-2   -1.000467877166118E-2    2.610944576712070E-1    4.825502569485803E-1
 6.517790778250000E9    -2.200856465834044E-1   -6.896932297077235E-3    1.820635192984605E-2   -1.073184767365089E-2    1.863962553913534E-2   -1.002244235135906E-2    2.617637352021498E-1    4.819788915001057E-1
 6.517802817325000E9    -2.199061900052134E-1   -6.882431220511956E-3    1.831515262383718E-2   -1.069720890264896E-2    1.865060802927879E-2   -1.020026152777761E-2    2.628860820413702E-1    4.814851667409635E-1
 6.517814856400000E9    -2.196683475557073E-1   -6.702909765397406E-3    1.852335363011189E-2   -1.101203016063290E-2    1.877394624911623E-2   -1.032614713235086E-2    2.636518935071797E-1    4.810256380225739E-1
 6.517826895475000E9    -2.194374389966542E-1   -6.519323036779029E-3    1.856815082202584E-2   -1.108683687955006E-2    1.883551691456013E-2   -1.049260677712870E-2    2.646490915237672E-1    4.804561559866066E-1
 6.517838934550000E9    -2.193251953233069E-1   -6.505012806165732E-3    1.871226367857290E-2   -1.131699869131442E-2    1.894351633348676E-2   -1.058909549213712E-2    2.655257850101437E-1    4.801801606690371E-1
 6.517850973625000E9    -2.190950327594245E-1   -6.499494533305446E-3    1.882205659472045E-2   -1.128441492345099E-2    1.911130157415999E-2   -1.074348212723782E-2    2.664163442918231E-1    4.795215717635772E-1
 6.517863012700000E9    -2.187820347173933E-1   -6.267820195207053E-3    1.889534017511090E-2   -1.149766369022517E-2    1.923696173958194E-2   -1.092845854500116E-2    2.672515808504736E-1    4.790402407242241E-1
 6.517875051775000E9    -2.185072510788875E-1   -6.246281861977613E-3    1.895317143386865E-2   -1.156027855175253E-2    1.928487822988160E-2   -1.098197174665830E-2    2.683220252143820E-1    4.784430789406442E-1
 6.517887090850000E9    -2.184033673814491E-1   -6.108983398881146E-3    1.917405621197782E-2   -1.167343136448508E-2    1.937888168412830E-2   -1.116565948386776E-2    2.689974747546159E-1    4.779327619876261E-1
 6.517899129925000E9    -2.182744129820968E-1   -6.036111824868841E-3    1.916521772601100E-2   -1.184932565721861E-2    1.966116085761052E-2   -1.122491718980204E-2    2.700010025867726E-1    4.773120209614015E-1
 6.517911169000000E9    -2.180315099225110E-1   -5.901458758507713E-3    1.932926712946889E-2   -1.204142569910176E-2    1.964034934464770E-2   -1.150002540569342E-2    2.707469308423695E-1    4.768755976382552E-1
 6.517923208075000E9    -2.177879463237514E-1   -5.788801480366549E-3    1.944932359072355E-2   -1.217326495833996E-2    1.993411333561057E-2   -1.163288933919227E-2    2.717464245706760E-1    4.762521735897306E-1
 6.517935247150000E9    -2.175454456375600E-1   -5.795305879143631E-3    1.971895521405401E-2   -1.244281826196964E-2    1.993626225208825E-2   -1.173514597201629E-2    2.726269291194335E-1    4.758091875300835E-1
 6.517947286225000E9    -2.171723379285056E-1   -5.669874983966345E-3    1.965590312138720E-2   -1.255033997897563E-2    2.003906592865342E-2   -1.190599351612944E-2    2.734736342565947E-1    4.751264514934060E-1
 6.517959325300000E9    -2.171235168896805E-1   -5.740186322724212E-3    1.963593219963974E-2   -1.261045421089381E-2    2.022807513098235E-2   -1.202531443355816E-2    2.744840664943778E-1    4.747846036618326E-1
 6.517971364375000E9    -2.168883948126845E-1   -5.523654737082850E-3    2.001214277596434E-2   -1.276738648034606E-2    2.031831586368449E-2   -1.223514546701924E-2    2.753590960279941E-1    4.741616435206429E-1
 6.517983403450000E9    -2.166689442024452E-1   -5.522603624013750E-3    2.015157857518932E-2   -1.305035665189635E-2    2.053357723932209E-2   -1.225484344229056E-2    2.761584585391581E-1    4.736570966372547E-1
 6.517995442525000E9    -2.164030500767026E-1   -5.432024995985757E-3    2.029490687805731E-2   -1.310540668406643E-2    2.059759561149040E-2   -1.250058618428918E-2    2.770852999348036E-1    4.729435967480930E-1
 6.518007481600000E9    -2.161142763501027E-1   -5.363611133802128E-3    2.046784567601662E-2   -1.340846541331201E-2    2.074789928675188E-2   -1.275643097283990E-2    2.780470431954129E-1    4.725490049533380E-1
 6.518019520675000E9    -2.159065646176520E-1   -5.353808099157046E-3    2.041862267305753E-2   -1.355248063919479E-2    2.088769484172115E-2   -1.290872779220700E-2    2.788774942848228E-1    4.719972994526429E-1
 6.518031559750000E9    -2.156626679159667E-1   -5.304393444873255E-3    2.057971784990856E-2   -1.372441307506671E-2    2.096477208487781E-2   -1.307325064151653E-2    2.798761788385970E-1    4.714458510652929E-1
