#  HZ   S   RI   R     50.00 
! Rohde & Schwarz Vector Network Analyzer 
! Rohde-Schwarz,ZNB20-2Port,1311601062101988,3.16
! Created: UTC 12/23/2023, 3:54:51 AM
! freq[Hz]                re:S11                  im:S11                  re:S21                  im:S21                  re:S12                  im:S12                  re:S22                  im:S22
 7.836997978000000E9     5.650030081707070E-1    3.611777772906581E-2    1.211882545733663E-3    3.754405279023444E-3    1.230236813139621E-3    3.728282315914540E-3    4.672695607993831E-1   -2.698479164862757E-1
 7.837031355350000E9     5.650495322454911E-1    3.400878572385954E-2    1.215512697154915E-3    3.757896163359580E-3    1.218734100254627E-3    3.699519320025961E-3    4.659492746727208E-1   -2.719463748917212E-1
 7.837064732700000E9     5.652619310896299E-1    3.181421913849298E-2    1.229054245964543E-3    3.751660985289827E-3    1.263177095405861E-3    3.688717435811760E-3    4.648772028452574E-1   -2.739444981487303E-1
 7.837098110050000E9     5.655983842935760E-1    2.943927626997388E-2    1.255410719656165E-3    3.749942730406145E-3    1.312938186570042E-3    3.685732618646686E-3    4.635613423634811E-1   -2.758918211662365E-1
 7.837131487400000E9     5.656209790780837E-1    2.739795122407228E-2    1.281007233340764E-3    3.759370919402438E-3    1.312387485611634E-3    3.681229089741099E-3    4.625211143089176E-1   -2.778695501210069E-1
 7.837164864750000E9     5.657178762758561E-1    2.513378557519119E-2    1.298194244955861E-3    3.765232751534649E-3    1.274227773293297E-3    3.685203628522274E-3    4.614183427111540E-1   -2.799508529473850E-1
 7.837198242100000E9     5.658434606528240E-1    2.291558082423037E-2    1.311569662071519E-3    3.772655837192841E-3    1.308912596112528E-3    3.673856417913592E-3    4.600805058300701E-1   -2.819514976600942E-1
 7.837231619450000E9     5.658102367189499E-1    2.062135593231389E-2    1.309463985275071E-3    3.753768749251693E-3    1.357125019973637E-3    3.692393077783633E-3    4.588708385703567E-1   -2.840964590182632E-1
 7.837264996800000E9     5.660145793240615E-1    1.841603800834224E-2    1.374958974285522E-3    3.755236138400428E-3    1.362099914015676E-3    3.691366868473146E-3    4.576274277156514E-1   -2.859048468802839E-1
 7.837298374150000E9     5.660749339897355E-1    1.612631708819702E-2    1.391124595188654E-3    3.758709736286721E-3    1.385856647741570E-3    3.674911916008803E-3    4.564114605046630E-1   -2.879212221301284E-1
 7.837331751500000E9     5.663194001135863E-1    1.394456441324547E-2    1.358855350510916E-3    3.749103297025478E-3    1.423846179355209E-3    3.694908579106717E-3    4.553134115607217E-1   -2.898316150595919E-1
 7.837365128850000E9     5.662387000432964E-1    1.187160957917176E-2    1.412563900665907E-3    3.746487739110453E-3    1.406607705157577E-3    3.673688787659050E-3    4.539201193035943E-1   -2.918708410737552E-1
 7.837398506200000E9     5.662380528001337E-1    9.533693175538179E-3    1.387068600379722E-3    3.728319595678644E-3    1.397538874454206E-3    3.683565230735135E-3    4.526656760526845E-1   -2.939842055025012E-1
 7.837431883550000E9     5.662283166913746E-1    7.323802921898793E-3    1.461200711932995E-3    3.763783627010503E-3    1.461181901366694E-3    3.673609189084667E-3    4.514769589054305E-1   -2.957477122456494E-1
 7.837465260900000E9     5.663320168393657E-1    5.208699764729563E-3    1.478510208710692E-3    3.766264298669574E-3    1.468752500974988E-3    3.669097199970337E-3    4.501285110420445E-1   -2.977629663114886E-1
 7.837498638250000E9     5.665095676565387E-1    2.858883589507901E-3    1.510595490810066E-3    3.769748763919196E-3    1.495095015754817E-3    3.700751794004382E-3    4.488966434800133E-1   -2.998093745698070E-1
 7.837532015600000E9     5.665010187844947E-1    5.895235604528602E-4    1.499742536533009E-3    3.749085344540029E-3    1.525053520076558E-3    3.668738290804053E-3    4.476055338950540E-1   -3.018716392924040E-1
 7.837565392950000E9     5.664253170315982E-1   -1.493985327646616E-3    1.513609189201689E-3    3.745588242247304E-3    1.519590575456849E-3    3.655475583507637E-3    4.463201720305651E-1   -3.035323231291360E-1
 7.837598770300000E9     5.664865241419295E-1   -3.718862529820039E-3    1.549060967914733E-3    3.753617453532952E-3    1.538287629188826E-3    3.646382067430060E-3    4.449332790295289E-1   -3.054366415231601E-1
 7.837632147650000E9     5.663155487266458E-1   -5.940125569937150E-3    1.574398056544411E-3    3.743203970446299E-3    1.572119728069502E-3    3.658455549974406E-3    4.436039180058054E-1   -3.075070011706494E-1
 7.837665525000000E9     5.665188274535887E-1   -8.143421196285795E-3    1.580308657294342E-3    3.732287873347384E-3    1.598220744453867E-3    3.662250348607690E-3    4.423406888858698E-1   -3.094293105259004E-1
 7.837698902350000E9     5.664839849065932E-1   -1.042953017881321E-2    1.598151534674833E-3    3.761532164889670E-3    1.592891685522868E-3    3.699818579776350E-3    4.408820657370408E-1   -3.113092837923484E-1
 7.837732279700000E9     5.663762966366409E-1   -1.252777360486201E-2    1.610004908634093E-3    3.755327777268594E-3    1.606613172170022E-3    3.671397558874097E-3    4.396266385063416E-1   -3.132281530191531E-1
 7.837765657050000E9     5.664834592909123E-1   -1.484205507623627E-2    1.640998927089818E-3    3.753045399556147E-3    1.626567266416105E-3    3.696565829266862E-3    4.381908936878788E-1   -3.150994500914708E-1
 7.837799034400000E9     5.662314772418088E-1   -1.705088506856049E-2    1.651670409760704E-3    3.724842304320507E-3    1.695749207427500E-3    3.672987999042053E-3    4.368481779676556E-1   -3.171119351404250E-1
 7.837832411750000E9     5.662765305785862E-1   -1.940294046398056E-2    1.687202364011383E-3    3.741079490817011E-3    1.706258319020642E-3    3.682404307427012E-3    4.356055164150747E-1   -3.188791042458651E-1
 7.837865789100000E9     5.661544089762264E-1   -2.144285505050009E-2    1.674858028411851E-3    3.722422264116378E-3    1.715943851482021E-3    3.679657614146701E-3    4.342408067037306E-1   -3.209648772628190E-1
 7.837899166450000E9     5.660497106407291E-1   -2.366920448075588E-2    1.719011584525591E-3    3.724004490825822E-3    1.740663727487760E-3    3.672271885987736E-3    4.328302812160159E-1   -3.227244564329887E-1
 7.837932543800000E9     5.660958778457064E-1   -2.594793979084348E-2    1.745850413514063E-3    3.734017496465305E-3    1.714819811657967E-3    3.670475028331488E-3    4.313340582721855E-1   -3.246955565280660E-1
 7.837965921150000E9     5.658910404820888E-1   -2.822251512763445E-2    1.759934298237664E-3    3.726167766284579E-3    1.750558629660974E-3    3.709446102484940E-3    4.300222836151879E-1   -3.264713908247707E-1
 7.837999298500000E9     5.657651529507264E-1   -3.030550455986110E-2    1.781262421320424E-3    3.716043129633299E-3    1.804809827362609E-3    3.681287742517018E-3    4.286064307003215E-1   -3.284069836744044E-1
 7.838032675850000E9     5.657531845085740E-1   -3.266222477459332E-2    1.808337309917301E-3    3.734300682487150E-3    1.804219104755959E-3    3.631826106311378E-3    4.270641074902968E-1   -3.301727954398316E-1
 7.838066053200000E9     5.655515687770107E-1   -3.492572518418020E-2    1.818505114949613E-3    3.746550980694787E-3    1.824139124666176E-3    3.667330371301199E-3    4.257351045174907E-1   -3.321117915027000E-1
 7.838099430550000E9     5.654997345667224E-1   -3.702092850925519E-2    1.843133372187802E-3    3.723203995675540E-3    1.860528313455912E-3    3.682667458457851E-3    4.243386107146855E-1   -3.338963725167693E-1
 7.838132807900000E9     5.653675331420189E-1   -3.926481495721475E-2    1.871614941160482E-3    3.719804120694378E-3    1.855905962167605E-3    3.674559769819360E-3    4.228377873445376E-1   -3.358280184549767E-1
 7.838166185250000E9     5.651041042438562E-1   -4.153040080338844E-2    1.884939362036910E-3    3.728899044705029E-3    1.858795090841156E-3    3.682184075519466E-3    4.214167869052207E-1   -3.377291394330075E-1
 7.838199562600000E9     5.649942032320761E-1   -4.365525423697232E-2    1.901291644492680E-3    3.717036624025620E-3    1.876905222314192E-3    3.646614451741257E-3    4.198475388400032E-1   -3.393620850172149E-1
 7.838232939950000E9     5.648370486898249E-1   -4.602834747512136E-2    1.912625054770466E-3    3.729472704810978E-3    1.944223856052445E-3    3.681197036304413E-3    4.186201678527156E-1   -3.414509217923176E-1
 7.838266317300000E9     5.646450671979943E-1   -4.823750662680133E-2    1.955209341179103E-3    3.738116297949772E-3    1.960240309518043E-3    3.631282707208661E-3    4.170393484281932E-1   -3.431598876598690E-1
 7.838299694650000E9     5.643779334765047E-1   -5.041721294235718E-2    1.961028892976438E-3    3.731369404634445E-3    1.914828599325340E-3    3.644879715548298E-3    4.155170038778188E-1   -3.449320483550418E-1
 7.838333072000000E9     5.643465632290766E-1   -5.259526063101159E-2    2.008286061790322E-3    3.695442767658913E-3    1.976524045685105E-3    3.640813165920585E-3    4.140807991935536E-1   -3.467605977725123E-1
 7.838366449350000E9     5.639923514840843E-1   -5.481611407091777E-2    2.026832184087571E-3    3.734763466600614E-3    2.010173770434629E-3    3.671067037366534E-3    4.124540649687610E-1   -3.486119594085266E-1
 7.838399826700000E9     5.638148320034204E-1   -5.713959940422248E-2    2.036490995770836E-3    3.688404998074201E-3    2.025053067628765E-3    3.627953239689605E-3    4.110592971014697E-1   -3.501861742196860E-1
 7.838433204050000E9     5.637416318922749E-1   -5.931502194994612E-2    2.079415485322021E-3    3.718388527242716E-3    2.005569186601666E-3    3.680414865434503E-3    4.095386652741388E-1   -3.519956844419593E-1
 7.838466581400000E9     5.634592888542390E-1   -6.146698206312284E-2    2.075472658690030E-3    3.705147937180278E-3    2.057187987917023E-3    3.631109556909549E-3    4.080557852964080E-1   -3.539705582588298E-1
 7.838499958750000E9     5.633248504767647E-1   -6.379671910029014E-2    2.087301632202154E-3    3.695946652176239E-3    2.111738497963612E-3    3.636998132706549E-3    4.065247700282463E-1   -3.555281916729451E-1
 7.838533336100000E9     5.629531208809480E-1   -6.588794711833998E-2    2.124588907224041E-3    3.678748483739263E-3    2.101087214886114E-3    3.602975536429229E-3    4.048248166320855E-1   -3.573873047771893E-1
 7.838566713450000E9     5.628685856749318E-1   -6.819638098759978E-2    2.151820116882708E-3    3.683749899237762E-3    2.142767204639270E-3    3.655412880966508E-3    4.034508310051165E-1   -3.590860541591833E-1
 7.838600090800000E9     5.624665148356428E-1   -7.039343105118238E-2    2.158316289197078E-3    3.693377457328994E-3    2.163298661856720E-3    3.658014465087998E-3    4.017137735629458E-1   -3.609638128282173E-1
 7.838633468150000E9     5.621680870518604E-1   -7.262763901302134E-2    2.179058722473896E-3    3.694077190514589E-3    2.166144358812040E-3    3.599788075574930E-3    4.001672653416286E-1   -3.628013331680022E-1
 7.838666845500000E9     5.618017779059379E-1   -7.470712836113451E-2    2.229638203962445E-3    3.701442576961524E-3    2.189576592530836E-3    3.653133054453837E-3    3.987583422256464E-1   -3.643579951287356E-1
 7.838700222850000E9     5.616490516336329E-1   -7.686232336059669E-2    2.210462393602766E-3    3.699863498874704E-3    2.185731544075851E-3    3.623476545361109E-3    3.970498391134371E-1   -3.661769582606994E-1
 7.838733600200000E9     5.612738676832361E-1   -7.910936104512230E-2    2.250179865254316E-3    3.672890677254625E-3    2.218106278643562E-3    3.617732869564278E-3    3.956240836850439E-1   -3.678849102245300E-1
 7.838766977550000E9     5.608728645844172E-1   -8.148556218893610E-2    2.268741649416293E-3    3.676653735748371E-3    2.239504969530695E-3    3.624558917051365E-3    3.939114903924648E-1   -3.695325204365167E-1
 7.838800354900000E9     5.606716947861018E-1   -8.352798833558864E-2    2.279728250510405E-3    3.679504511048656E-3    2.279209537080788E-3    3.637098339396288E-3    3.923335309327665E-1   -3.713706996325959E-1
 7.838833732250000E9     5.603279961755483E-1   -8.587749797254723E-2    2.318780542369082E-3    3.677598843744934E-3    2.290427505996303E-3    3.655878838630520E-3    3.908162512399149E-1   -3.729437232627006E-1
 7.838867109600000E9     5.599803241336194E-1   -8.795085273598546E-2    2.351370559869890E-3    3.682892529758572E-3    2.322102196713755E-3    3.660766360993817E-3    3.891152876480837E-1   -3.747935719357067E-1
 7.838900486950000E9     5.594967812353301E-1   -9.023430390440855E-2    2.351222588835583E-3    3.665399733071070E-3    2.330306276506765E-3    3.595356840501562E-3    3.874356213337439E-1   -3.764568875474622E-1
 7.838933864300000E9     5.593512071968066E-1   -9.244324616909992E-2    2.378303338224355E-3    3.671286075678152E-3    2.360656428817662E-3    3.657497833128348E-3    3.860335161723308E-1   -3.779483593044833E-1
 7.838967241650000E9     5.589963869028154E-1   -9.460260187600819E-2    2.433549328745884E-3    3.670678458229339E-3    2.360957606684871E-3    3.642303120245412E-3    3.841891787245938E-1   -3.798847749340155E-1
 7.839000619000000E9     5.585213207910690E-1   -9.683097382692138E-2    2.417007816721611E-3    3.670824339585597E-3    2.408619836794408E-3    3.619465684244148E-3    3.826277414974848E-1   -3.815412739787405E-1
 7.839033996350000E9     5.582237474200199E-1   -9.905008967092109E-2    2.442184999237422E-3    3.692230415153523E-3    2.443554615752251E-3    3.626411600247082E-3    3.809198903542492E-1   -3.830745985325867E-1
 7.839067373700000E9     5.577016454291167E-1   -1.012649182949687E-1    2.475078842451390E-3    3.673910074725660E-3    2.461187142008855E-3    3.633629770738798E-3    3.794533074371672E-1   -3.847750015149365E-1
 7.839100751050000E9     5.572657461047504E-1   -1.034096387741103E-1    2.486524720518451E-3    3.641215886979238E-3    2.467667925894900E-3    3.612719975577660E-3    3.775833666330842E-1   -3.864058957611982E-1
 7.839134128400000E9     5.568935335639985E-1   -1.055700194089630E-1    2.516065514073432E-3    3.664915038307389E-3    2.512027244085409E-3    3.596837727234924E-3    3.758836089693938E-1   -3.880322854526550E-1
 7.839167505750000E9     5.563725079317988E-1   -1.079240828194129E-1    2.541368123245266E-3    3.663850685377560E-3    2.506974956454172E-3    3.618150350757770E-3    3.743286277711769E-1   -3.897014310298716E-1
 7.839200883100000E9     5.561620657263961E-1   -1.100345389665554E-1    2.595858391402204E-3    3.642852828041360E-3    2.524038132053946E-3    3.584084719691338E-3    3.726250799986731E-1   -3.912830891473712E-1
 7.839234260450000E9     5.556688230977680E-1   -1.121436072920481E-1    2.593112364625090E-3    3.653532838507438E-3    2.570255158134068E-3    3.619254059763822E-3    3.708313686513783E-1   -3.928659327807084E-1
 7.839267637800000E9     5.552504284375589E-1   -1.143157899944064E-1    2.629253071798237E-3    3.633580242464688E-3    2.572377855269203E-3    3.610413957294471E-3    3.692550777056837E-1   -3.945857802114363E-1
 7.839301015150000E9     5.549052415167723E-1   -1.166613219671710E-1    2.620811487848569E-3    3.671009081516568E-3    2.606777101814703E-3    3.621328918106218E-3    3.676001537000985E-1   -3.962283393409355E-1
 7.839334392500000E9     5.542655006927625E-1   -1.187925241441722E-1    2.675888799110826E-3    3.653080703080324E-3    2.649032170602440E-3    3.619869114371076E-3    3.659039948609553E-1   -3.977381237012209E-1
 7.839367769850000E9     5.538160354844587E-1   -1.210133456694172E-1    2.724690880647235E-3    3.648958690915940E-3    2.651702493677859E-3    3.598901823866787E-3    3.640955160265082E-1   -3.994174417587144E-1
 7.839401147200000E9     5.533368442373489E-1   -1.232505682768483E-1    2.722850144290209E-3    3.639538020815281E-3    2.693938602176431E-3    3.619972402890479E-3    3.625385266850818E-1   -4.008523114553682E-1
 7.839434524550000E9     5.527675853410866E-1   -1.253604493589334E-1    2.751840122417775E-3    3.646145186400317E-3    2.707213755363534E-3    3.625070586786839E-3    3.607261055211635E-1   -4.025074502384374E-1
 7.839467901900000E9     5.524104844688332E-1   -1.276002636389118E-1    2.778481711768925E-3    3.633142626659017E-3    2.750947949154612E-3    3.575907491077294E-3    3.589665433170550E-1   -4.039103173458169E-1
 7.839501279250000E9     5.517379469061492E-1   -1.296725837953719E-1    2.778409845581543E-3    3.625788938735409E-3    2.756303989291022E-3    3.623447414484666E-3    3.572325172644781E-1   -4.055885090958596E-1
 7.839534656600000E9     5.513939726343035E-1   -1.319544174995624E-1    2.828018408664390E-3    3.659505152312521E-3    2.824980155041843E-3    3.604104988688838E-3    3.554288171292745E-1   -4.070294610253705E-1
 7.839568033950000E9     5.506498999942518E-1   -1.341791947879121E-1    2.868235360000913E-3    3.640879232048258E-3    2.815299363176777E-3    3.603102865758883E-3    3.536815379397816E-1   -4.085884947244381E-1
 7.839601411300000E9     5.502708124473727E-1   -1.361929618674446E-1    2.869744483539404E-3    3.606856349734889E-3    2.853922818484656E-3    3.572818551509498E-3    3.518342146063931E-1   -4.101676189875961E-1
 7.839634788650000E9     5.496932866965339E-1   -1.384985221094296E-1    2.930417461820205E-3    3.655459095248255E-3    2.899474333643127E-3    3.608332394398998E-3    3.502865684712034E-1   -4.117312137932039E-1
 7.839668166000000E9     5.491877973067747E-1   -1.405684728028659E-1    2.932400275016546E-3    3.576004470522979E-3    2.921234862939678E-3    3.588198816793404E-3    3.484310143612063E-1   -4.133925060107938E-1
 7.839701543350000E9     5.486124935417436E-1   -1.428481999416686E-1    2.969526840942063E-3    3.594047682331319E-3    2.926903168656294E-3    3.598926284317205E-3    3.465647942621394E-1   -4.148554730035646E-1
 7.839734920700000E9     5.480362058385699E-1   -1.449203340534627E-1    2.994341680930575E-3    3.632460190677773E-3    2.956109846006800E-3    3.603259509786735E-3    3.448023997692338E-1   -4.162736997118932E-1
 7.839768298050000E9     5.473555113735267E-1   -1.471597445067580E-1    3.015629179278783E-3    3.598286624758138E-3    2.991456382657252E-3    3.565772814007330E-3    3.431089574016199E-1   -4.178454044058477E-1
 7.839801675400000E9     5.468620217638885E-1   -1.492929206832700E-1    3.025099459029354E-3    3.633999789475948E-3    3.006412887109585E-3    3.593150424841966E-3    3.411395009298026E-1   -4.192368233734723E-1
 7.839835052750000E9     5.463063681021675E-1   -1.514280271720808E-1    3.083678785002045E-3    3.587810051739716E-3    3.039504560147429E-3    3.589651323278402E-3    3.392328701259692E-1   -4.207958773361923E-1
 7.839868430100000E9     5.456128060922479E-1   -1.536747613201749E-1    3.080527961199459E-3    3.597584151516863E-3    3.064685384107067E-3    3.568795622882313E-3    3.376902063544941E-1   -4.221758647455958E-1
 7.839901807450000E9     5.450536750715839E-1   -1.557972399597806E-1    3.147387137106774E-3    3.607793938877699E-3    3.087071275608001E-3    3.588571349015697E-3    3.356524229636780E-1   -4.236237710602538E-1
 7.839935184800000E9     5.443035285680342E-1   -1.579854205989492E-1    3.193447891509778E-3    3.628711109300766E-3    3.119612610509889E-3    3.576348394742323E-3    3.339335346274101E-1   -4.250814830646820E-1
 7.839968562150000E9     5.437096127639842E-1   -1.601864613426266E-1    3.217904198606702E-3    3.593732767784216E-3    3.171894379243538E-3    3.593085331394079E-3    3.320124069383873E-1   -4.265805838090487E-1
 7.840001939500000E9     5.431136757663120E-1   -1.622466434522616E-1    3.235014288954565E-3    3.579044847330963E-3    3.194162751816206E-3    3.533978393386683E-3    3.301510279322667E-1   -4.279321411478410E-1
