#  HZ   S   RI   R     50.00 
! Rohde & Schwarz Vector Network Analyzer 
! Rohde-Schwarz,ZNB20-2Port,1311601062101988,3.16
! Created: UTC 12/23/2023, 3:55:00 AM
! freq[Hz]                re:S11                  im:S11                  re:S21                  im:S21                  re:S12                  im:S12                  re:S22                  im:S22
 1.000975595400000E+10  -3.788677067134209E-1    3.495457164408285E-1   -1.816849017985899E-2   -1.275838605423009E-2   -1.690448083561537E-2   -1.325986622064362E-2   -1.965379909966052E-1    4.795602696623106E-1
 1.000976817777500E+10  -3.782914930615549E-1    3.502900131491656E-1   -1.826626164108436E-2   -1.303924038540670E-2   -1.692487394657375E-2   -1.330170436295428E-2   -1.957641818236900E-1    4.799408062161689E-1
 1.000978040155000E+10  -3.775053493064560E-1    3.511402101660536E-1   -1.835923006992505E-2   -1.272345582950561E-2   -1.700611973178017E-2   -1.326616583674311E-2   -1.949515760627520E-1    4.801349994558927E-1
 1.000979262532500E+10  -3.767765879193099E-1    3.518010669076369E-1   -1.837704763110266E-2   -1.286270421039840E-2   -1.725787938692123E-2   -1.335341393848465E-2   -1.943131514809097E-1    4.806654769185144E-1
 1.000980484910000E+10  -3.760594968353502E-1    3.524030692114576E-1   -1.859744808190156E-2   -1.281816034629050E-2   -1.729455609973527E-2   -1.321405021791715E-2   -1.936369562272013E-1    4.809036683460636E-1
 1.000981707287500E+10  -3.754245175876700E-1    3.534425681869012E-1   -1.859236213754201E-2   -1.291997071669844E-2   -1.738777620047586E-2   -1.334121204695268E-2   -1.927344970755025E-1    4.812236934216899E-1
 1.000982929665000E+10  -3.747599346580068E-1    3.541761268648274E-1   -1.867716878444770E-2   -1.289482485256287E-2   -1.740404204015474E-2   -1.331877046213202E-2   -1.921693167128191E-1    4.815306624883793E-1
 1.000984152042500E+10  -3.740612984530765E-1    3.548876466266567E-1   -1.882878995614953E-2   -1.295651457576600E-2   -1.759652582383889E-2   -1.332193846325633E-2   -1.914351370395728E-1    4.817932556214189E-1
 1.000985374420000E+10  -3.732239033877592E-1    3.555933517098504E-1   -1.885015263679603E-2   -1.286675718110059E-2   -1.760625520246951E-2   -1.345655374837417E-2   -1.906868754723607E-1    4.822805895651706E-1
 1.000986596797500E+10  -3.726655103961862E-1    3.563716883165665E-1   -1.895877451251782E-2   -1.298273831173938E-2   -1.759644759598663E-2   -1.350164032693838E-2   -1.899993371488355E-1    4.824781063814573E-1
 1.000987819175000E+10  -3.718178992822039E-1    3.572632325705560E-1   -1.913926161966205E-2   -1.302320379489815E-2   -1.781137025341264E-2   -1.360769765804099E-2   -1.890712723654150E-1    4.825676998154997E-1
 1.000989041552500E+10  -3.711797216179558E-1    3.578495660184962E-1   -1.925697375607795E-2   -1.298406448537865E-2   -1.785612611478667E-2   -1.352019263551336E-2   -1.883649243733203E-1    4.830838180001307E-1
 1.000990263930000E+10  -3.704075260207260E-1    3.585877604319100E-1   -1.935120841559520E-2   -1.291340744088590E-2   -1.797136065909357E-2   -1.340457577809257E-2   -1.876026036786821E-1    4.832865829247628E-1
 1.000991486307500E+10  -3.697194422282880E-1    3.594059866740770E-1   -1.942167377137719E-2   -1.292955294769549E-2   -1.806263929786623E-2   -1.344759503803170E-2   -1.868407406179752E-1    4.837220266805823E-1
 1.000992708685000E+10  -3.689076520916450E-1    3.601664009311335E-1   -1.947830375035008E-2   -1.311533412857507E-2   -1.829339436238946E-2   -1.349597149685173E-2   -1.859759014214594E-1    4.839764465476828E-1
 1.000993931062500E+10  -3.682486063810502E-1    3.610084136543154E-1   -1.957070560119281E-2   -1.308982783550402E-2   -1.848944801120937E-2   -1.350701179365257E-2   -1.852557836962883E-1    4.842565260724775E-1
 1.000995153440000E+10  -3.674476336553166E-1    3.616752891041405E-1   -1.976000894630208E-2   -1.317525139040489E-2   -1.851042533463959E-2   -1.349811486139842E-2   -1.845462259920819E-1    4.845527964654006E-1
 1.000996375817500E+10  -3.666890644518933E-1    3.624565514453452E-1   -1.972783621276460E-2   -1.326061092947821E-2   -1.856765591016859E-2   -1.358907974925239E-2   -1.838066440788049E-1    4.850122661991336E-1
 1.000997598195000E+10  -3.658826195534327E-1    3.631535985051561E-1   -1.989390662483124E-2   -1.313305441925403E-2   -1.870530027412027E-2   -1.360007077431594E-2   -1.831614808756099E-1    4.851804704373459E-1
 1.000998820572500E+10  -3.652172664162453E-1    3.637867256813681E-1   -2.006328165072865E-2   -1.321126587961435E-2   -1.860493600992007E-2   -1.363714001263188E-2   -1.822946714899501E-1    4.854841320274945E-1
 1.001000042950000E+10  -3.643973541904059E-1    3.646762433833446E-1   -2.022805834128901E-2   -1.313392052103172E-2   -1.881569975009385E-2   -1.353988317667295E-2   -1.814697369045966E-1    4.857903806165561E-1
 1.001001265327500E+10  -3.637371368918083E-1    3.655638867048102E-1   -2.032065941386989E-2   -1.312758173243904E-2   -1.892386996537381E-2   -1.362556202333587E-2   -1.808940309856026E-1    4.859813991168171E-1
 1.001002487705000E+10  -3.630577163768625E-1    3.662123317316135E-1   -2.035204210594927E-2   -1.325781185204123E-2   -1.912497429089629E-2   -1.366674537417283E-2   -1.799863063045346E-1    4.865355096594352E-1
 1.001003710082500E+10  -3.622779211594827E-1    3.669895167925920E-1   -2.064965683414033E-2   -1.312494287359572E-2   -1.918360602241950E-2   -1.368539519492646E-2   -1.791993075439052E-1    4.867134833237919E-1
 1.001004932460000E+10  -3.614581014868951E-1    3.676284476806174E-1   -2.063730405479170E-2   -1.317723320888094E-2   -1.934718384999795E-2   -1.359918786967229E-2   -1.784484082450316E-1    4.870037577988732E-1
 1.001006154837500E+10  -3.606651645884478E-1    3.684472228572312E-1   -2.083517495005104E-2   -1.327237586519825E-2   -1.947556923001318E-2   -1.365766529461553E-2   -1.776723247799285E-1    4.871574203582330E-1
 1.001007377215000E+10  -3.600118820425620E-1    3.692825741892633E-1   -2.097413439507648E-2   -1.301284052243554E-2   -1.953224719040426E-2   -1.369021943070552E-2   -1.770879030590762E-1    4.875662352807717E-1
 1.001008599592500E+10  -3.590268217849240E-1    3.701093796438559E-1   -2.111304787590604E-2   -1.323739389490799E-2   -1.959609158321714E-2   -1.376119386622199E-2   -1.761794083289914E-1    4.878549966609969E-1
 1.001009821970000E+10  -3.583687394367706E-1    3.708842794841086E-1   -2.119250530023559E-2   -1.325047920817085E-2   -1.975825674295062E-2   -1.375438312861605E-2   -1.753884831641354E-1    4.880861991467015E-1
 1.001011044347500E+10  -3.576739717531045E-1    3.715440167878193E-1   -2.130475888217062E-2   -1.321560369522577E-2   -1.993546650897536E-2   -1.385376326675997E-2   -1.745480713624266E-1    4.884869153377722E-1
 1.001012266725000E+10  -3.568462944401344E-1    3.722313208076016E-1   -2.135990844328743E-2   -1.335896316315373E-2   -2.005645387406802E-2   -1.385133428720815E-2   -1.739033416580177E-1    4.886609598577904E-1
 1.001013489102500E+10  -3.557972087424701E-1    3.732026272471542E-1   -2.150899443904276E-2   -1.354969879360715E-2   -2.015219350475511E-2   -1.382427702110763E-2   -1.730770848613102E-1    4.890727368760391E-1
 1.001014711480000E+10  -3.552181066002036E-1    3.739092641584087E-1   -2.162527420680187E-2   -1.338018912740268E-2   -2.026563185171158E-2   -1.384379949715855E-2   -1.723208245262725E-1    4.892714137519583E-1
 1.001015933857500E+10  -3.543804490013797E-1    3.745716515508035E-1   -2.169992445985642E-2   -1.343084017392603E-2   -2.045837436495613E-2   -1.383992304541647E-2   -1.715754951462151E-1    4.897336862763129E-1
 1.001017156235000E+10  -3.536011687961552E-1    3.753842465830717E-1   -2.187585119554682E-2   -1.337182575349550E-2   -2.054321694357442E-2   -1.381402297000693E-2   -1.707835635959002E-1    4.899076054525434E-1
 1.001018378612500E+10  -3.526915716055922E-1    3.762316584280595E-1   -2.201868244139647E-2   -1.344767208098509E-2   -2.073650185330849E-2   -1.380763057897082E-2   -1.700071151781365E-1    4.900644323453618E-1
 1.001019600990000E+10  -3.519620725062809E-1    3.768977004465740E-1   -2.214967386320265E-2   -1.360823705618891E-2   -2.082552878026531E-2   -1.396536579919261E-2   -1.693142277173857E-1    4.904988287130337E-1
 1.001020823367500E+10  -3.510341086198642E-1    3.776791321494928E-1   -2.234873232174292E-2   -1.339226679253882E-2   -2.088015806643640E-2   -1.389761525442812E-2   -1.684893132262865E-1    4.907319656953525E-1
 1.001022045745000E+10  -3.502451966085557E-1    3.783215872022072E-1   -2.264336574766777E-2   -1.341529962945876E-2   -2.092114251254672E-2   -1.396106049399440E-2   -1.676825731274004E-1    4.911252445688390E-1
 1.001023268122500E+10  -3.494183621656314E-1    3.791513657069415E-1   -2.267446263347656E-2   -1.347358065921995E-2   -2.123280828228392E-2   -1.403598009234432E-2   -1.669109740888649E-1    4.913569171637733E-1
 1.001024490500000E+10  -3.486066858688229E-1    3.798700262351635E-1   -2.280238902975066E-2   -1.349217703854012E-2   -2.117350101568587E-2   -1.402966293123576E-2   -1.660844628819668E-1    4.915131910936220E-1
 1.001025712877500E+10  -3.475863421810080E-1    3.807116859686697E-1   -2.299612945992272E-2   -1.332946485983119E-2   -2.138549696170915E-2   -1.402526871392674E-2   -1.651998143319244E-1    4.918245214147872E-1
 1.001026935255000E+10  -3.468160564449670E-1    3.815822622834311E-1   -2.301837667815756E-2   -1.342120290901812E-2   -2.162120671315239E-2   -1.403103488686110E-2   -1.645934442654347E-1    4.920949920396284E-1
 1.001028157632500E+10  -3.459611860018723E-1    3.822230541979686E-1   -2.328750758224505E-2   -1.350344960881860E-2   -2.164033977831792E-2   -1.406994677129679E-2   -1.637780141999342E-1    4.924741562202542E-1
 1.001029380010000E+10  -3.452782910409860E-1    3.830102647746140E-1   -2.340110778226369E-2   -1.345589370398193E-2   -2.183237246794264E-2   -1.398904569816724E-2   -1.631003170939027E-1    4.926287008591093E-1
 1.001030602387500E+10  -3.442780055224913E-1    3.837775993405696E-1   -2.339594649880772E-2   -1.358309752249955E-2   -2.198822207760354E-2   -1.406891369446712E-2   -1.622317982295369E-1    4.928071825913501E-1
 1.001031824765000E+10  -3.433727277713454E-1    3.845114161705822E-1   -2.364509509635813E-2   -1.358405497925551E-2   -2.221225561778122E-2   -1.410219445553100E-2   -1.615092911487205E-1    4.931389750116664E-1
 1.001033047142500E+10  -3.425972265338485E-1    3.852031123206953E-1   -2.385851535955305E-2   -1.360459338047308E-2   -2.219084207104984E-2   -1.415308060595899E-2   -1.606461948127382E-1    4.934456411502017E-1
 1.001034269520000E+10  -3.416242127514027E-1    3.860093045841347E-1   -2.393100615118946E-2   -1.369448440469121E-2   -2.237626479560350E-2   -1.415430989139050E-2   -1.600036957694509E-1    4.938205790556765E-1
 1.001035491897500E+10  -3.407729983839364E-1    3.867430648179752E-1   -2.405075968176460E-2   -1.359860612913867E-2   -2.258796441798457E-2   -1.432410338434106E-2   -1.590050808089735E-1    4.939323652224203E-1
 1.001036714275000E+10  -3.397750166901763E-1    3.875576386228011E-1   -2.426339336514777E-2   -1.360308415275859E-2   -2.271753403634481E-2   -1.423950927594124E-2   -1.583070111362375E-1    4.941685459480396E-1
 1.001037936652500E+10  -3.389692355482397E-1    3.883776117374354E-1   -2.443369412572841E-2   -1.364495721762771E-2   -2.294432013579254E-2   -1.423383134172138E-2   -1.575582886347243E-1    4.944963956855793E-1
 1.001039159030000E+10  -3.380813252731795E-1    3.892339281808325E-1   -2.466821072241249E-2   -1.362267477955069E-2   -2.312665104690185E-2   -1.416240307494229E-2   -1.567343149979440E-1    4.946604094369333E-1
 1.001040381407500E+10  -3.372424040231172E-1    3.898772675490170E-1   -2.481915097010610E-2   -1.366790687645511E-2   -2.326351230043711E-2   -1.424169558567142E-2   -1.559041093570566E-1    4.948854188268476E-1
 1.001041603785000E+10  -3.361984874304361E-1    3.906549550794586E-1   -2.507588690326656E-2   -1.373301647255144E-2   -2.346122971427109E-2   -1.432623514182829E-2   -1.551202354004640E-1    4.952033079336829E-1
 1.001042826162500E+10  -3.352665598320537E-1    3.914561598772760E-1   -2.508780579271077E-2   -1.374396073755667E-2   -2.368797968541358E-2   -1.434799855177844E-2   -1.543045470939458E-1    4.954373146202284E-1
 1.001044048540000E+10  -3.342030055672548E-1    3.922877630861473E-1   -2.547207985060713E-2   -1.358809088435591E-2   -2.370015596439318E-2   -1.438612659606234E-2   -1.534826968645770E-1    4.956201248771416E-1
 1.001045270917500E+10  -3.335092567896798E-1    3.929326538674972E-1   -2.544555466311369E-2   -1.368944008109163E-2   -2.396081901824250E-2   -1.436848332859358E-2   -1.527331336114893E-1    4.960931980518973E-1
 1.001046493295000E+10  -3.324172243124032E-1    3.938033657401225E-1   -2.568657576263867E-2   -1.374958117437240E-2   -2.408630896732940E-2   -1.453551304909573E-2   -1.519619442202000E-1    4.962287706507237E-1
 1.001047715672500E+10  -3.314253635551626E-1    3.944827181690919E-1   -2.583154025111433E-2   -1.386054747783534E-2   -2.428764972444066E-2   -1.457562254068729E-2   -1.511446436050126E-1    4.964387547469044E-1
 1.001048938050000E+10  -3.305738946942689E-1    3.953774424301131E-1   -2.609778461933527E-2   -1.381975681110322E-2   -2.437147971343428E-2   -1.445625082011986E-2   -1.502701675208927E-1    4.967333350368405E-1
 1.001050160427500E+10  -3.295440041761363E-1    3.961876502919731E-1   -2.623786236771100E-2   -1.386081681997569E-2   -2.461638502444886E-2   -1.445042209295125E-2   -1.494427282271164E-1    4.969008544379642E-1
 1.001051382805000E+10  -3.286263988785735E-1    3.969349001790314E-1   -2.645342407035908E-2   -1.373890841129789E-2   -2.482886687974478E-2   -1.449776665382825E-2   -1.486068876150652E-1    4.973165999702042E-1
 1.001052605182500E+10  -3.275045821579902E-1    3.975481584235434E-1   -2.672361633798725E-2   -1.379201482337203E-2   -2.499721885486315E-2   -1.449778811598927E-2   -1.479468303831551E-1    4.974439816543751E-1
 1.001053827560000E+10  -3.265369693121475E-1    3.983948866917350E-1   -2.688325802817544E-2   -1.381454604217880E-2   -2.518126335096095E-2   -1.444768058952279E-2   -1.471274043002616E-1    4.977022003298485E-1
 1.001055049937500E+10  -3.254172541659927E-1    3.993235041910759E-1   -2.702443224615523E-2   -1.383709090290783E-2   -2.541182398048678E-2   -1.457908811025871E-2   -1.463775535419616E-1    4.980161291687811E-1
 1.001056272315000E+10  -3.246063087834571E-1    3.999998231347374E-1   -2.741650717004485E-2   -1.375068314095633E-2   -2.560003503612574E-2   -1.462468621140764E-2   -1.455357444575418E-1    4.981274530725109E-1
 1.001057494692500E+10  -3.235675809542565E-1    4.007921378386475E-1   -2.743218296917177E-2   -1.378408544935931E-2   -2.567917934984109E-2   -1.448946266935471E-2   -1.447692104225009E-1    4.982945992657083E-1
 1.001058717070000E+10  -3.224884470405613E-1    4.014181006477717E-1   -2.759481242995199E-2   -1.381146778938009E-2   -2.586772339302941E-2   -1.466811686040503E-2   -1.438021688725589E-1    4.986309975851977E-1
 1.001059939447500E+10  -3.214922270379232E-1    4.024037507863870E-1   -2.789235880674607E-2   -1.387954529925287E-2   -2.601609955337985E-2   -1.464858286113744E-2   -1.430383700280632E-1    4.988075426611242E-1
 1.001061161825000E+10  -3.204549377954358E-1    4.032316264314380E-1   -2.798931157493995E-2   -1.380717588471468E-2   -2.627165789285094E-2   -1.481654506379106E-2   -1.423072756868014E-1    4.991431414181682E-1
 1.001062384202500E+10  -3.193831327738874E-1    4.039387166627589E-1   -2.826877489544630E-2   -1.381011678494670E-2   -2.644722979322244E-2   -1.471633048084780E-2   -1.413898376445221E-1    4.992220647766910E-1
 1.001063606580000E+10  -3.184125740755862E-1    4.045751668450360E-1   -2.843125103772838E-2   -1.388746162346211E-2   -2.674179455664288E-2   -1.471387105123288E-2   -1.407017384090275E-1    4.995740513161528E-1
 1.001064828957500E+10  -3.173511447965885E-1    4.054495480126600E-1   -2.874062373458767E-2   -1.400201268125949E-2   -2.704529525946256E-2   -1.463441408676485E-2   -1.398212273542980E-1    4.998851894877621E-1
 1.001066051335000E+10  -3.161396241647103E-1    4.062515812885266E-1   -2.875436759423956E-2   -1.404966647540036E-2   -2.718354240484089E-2   -1.470632975419687E-2   -1.389919932546721E-1    4.999239873162880E-1
 1.001067273712500E+10  -3.150419211527204E-1    4.070231756076913E-1   -2.911504772402733E-2   -1.416827139465233E-2   -2.740318078743766E-2   -1.472398304122930E-2   -1.381463054489091E-1    5.003107944436183E-1
 1.001068496090000E+10  -3.140841978860359E-1    4.078495312634659E-1   -2.933428048146313E-2   -1.388379361812564E-2   -2.765771831823311E-2   -1.475100346269868E-2   -1.374415429944523E-1    5.003128309695114E-1
 1.001069718467500E+10  -3.130096056557845E-1    4.087016765702439E-1   -2.951892249006199E-2   -1.401065363884833E-2   -2.781515380455538E-2   -1.483866331113675E-2   -1.365204123780409E-1    5.005400704537957E-1
 1.001070940845000E+10  -3.117414139127467E-1    4.093248554479019E-1   -2.984659067749845E-2   -1.416819399949418E-2   -2.799367742262706E-2   -1.494627698851918E-2   -1.357452862310654E-1    5.008969065665378E-1
 1.001072163222500E+10  -3.106041140870017E-1    4.102346681070183E-1   -3.019570611286527E-2   -1.406649478890587E-2   -2.820936848620431E-2   -1.488074305901261E-2   -1.347684194855721E-1    5.010387339622900E-1
 1.001073385600000E+10  -3.094629331210231E-1    4.110632336380929E-1   -3.024027587293616E-2   -1.393742603009096E-2   -2.852822873646203E-2   -1.493475254597196E-2   -1.340904664550381E-1    5.013308435802206E-1
 1.001074607977500E+10  -3.083303842213125E-1    4.117876160997017E-1   -3.068191252664946E-2   -1.390585830180909E-2   -2.872361919881621E-2   -1.486336958273994E-2   -1.332321280559259E-1    5.015860660218054E-1
 1.001075830355000E+10  -3.070815853994091E-1    4.124924364452413E-1   -3.087902442841764E-2   -1.398342782543423E-2   -2.903458285489629E-2   -1.490000668484054E-2   -1.323719864920367E-1    5.017391312509173E-1
 1.001077052732500E+10  -3.060150957608759E-1    4.133468808841290E-1   -3.110711292982136E-2   -1.385288218803831E-2   -2.925567242233911E-2   -1.502063299172614E-2   -1.314864537983153E-1    5.019569602599980E-1
 1.001078275110000E+10  -3.049377575219100E-1    4.140786216405150E-1   -3.146656505906826E-2   -1.393739430892563E-2   -2.951246873188979E-2   -1.499587471892175E-2   -1.307377717125613E-1    5.022309243774764E-1
 1.001079497487500E+10  -3.036998215288336E-1    4.150376454547645E-1   -3.161916577678016E-2   -1.382216977855415E-2   -2.970886029543504E-2   -1.494745553250344E-2   -1.299495587742604E-1    5.024932561660159E-1
 1.001080719865000E+10  -3.024594555062897E-1    4.156326077185123E-1   -3.176153764437768E-2   -1.406718402665844E-2   -2.991395603424360E-2   -1.503105575593172E-2   -1.292084278126364E-1    5.026388140473272E-1
 1.001081942242500E+10  -3.012503354085900E-1    4.164264498327811E-1   -3.207970348381044E-2   -1.410682983912584E-2   -3.025751014252635E-2   -1.517050382327292E-2   -1.282476569733114E-1    5.027010507042358E-1
 1.001083164620000E+10  -3.000669006061671E-1    4.173694320049303E-1   -3.229004544348488E-2   -1.406650576296584E-2   -3.036287233339978E-2   -1.521936316735485E-2   -1.273821591186217E-1    5.029888343413212E-1
 1.001084386997500E+10  -2.987750242431392E-1    4.180751040955571E-1   -3.275678577095438E-2   -1.408238969256758E-2   -3.070825454202365E-2   -1.511410077980921E-2   -1.263997450114948E-1    5.032252434954377E-1
 1.001085609375000E+10  -2.973520608196126E-1    4.188905008784425E-1   -3.309905723428501E-2   -1.398676088998114E-2   -3.100125690765740E-2   -1.498202948617899E-2   -1.256343865181092E-1    5.033158031966194E-1
