#  HZ   S   RI   R     50.00 
! Rohde & Schwarz Vector Network Analyzer 
! Rohde-Schwarz,ZNB20-2Port,1311601062101988,3.16
! Created: UTC 3/20/2024, 11:45:12 AM
! freq[Hz]                re:S11                  im:S11                  re:S21                  im:S21                  re:S12                  im:S12                  re:S22                  im:S22
 8.116686595000000E9     5.067107519221468E-1    6.945742182330087E-3    6.084745663612161E-4    3.594463039623672E-3    6.628520815158239E-4    3.647972324141885E-3    4.250563833271194E-1   -1.483403314156752E-1
 8.116691085500000E9     5.064246579583678E-1    6.703296076153890E-3    6.425824858387073E-4    3.590762266898137E-3    7.016985640123097E-4    3.664514413267447E-3    4.250541498952108E-1   -1.488041199396220E-1
 8.116695576000000E9     5.065425206863996E-1    6.194979563355213E-3    6.432223178836594E-4    3.637883391882259E-3    7.154721354738571E-4    3.600705935672529E-3    4.249023690986208E-1   -1.488853250575139E-1
 8.116700066500000E9     5.067288825691166E-1    5.987911922294144E-3    6.407287979433740E-4    3.630138330329143E-3    6.781393345611360E-4    3.669742375319214E-3    4.248834390859731E-1   -1.493180432539284E-1
 8.116704557000000E9     5.066448434578532E-1    5.591291416037085E-3    5.995935391742274E-4    3.622024896343624E-3    6.794654158769363E-4    3.659328628932632E-3    4.248272347210062E-1   -1.496210362009725E-1
 8.116709047500000E9     5.066474512178315E-1    5.208690817479869E-3    6.452901484827374E-4    3.614931590750676E-3    6.864194598195120E-4    3.679673448354808E-3    4.245244227184755E-1   -1.498690424414111E-1
 8.116713538000000E9     5.067808813162533E-1    4.838668031174159E-3    6.545002571412702E-4    3.629063289482321E-3    6.938169659737054E-4    3.654894300298936E-3    4.245619468334947E-1   -1.501393242092963E-1
 8.116718028500000E9     5.066570292319378E-1    4.645502088740119E-3    6.603451062866879E-4    3.627075400727521E-3    6.987668227954452E-4    3.707055030033889E-3    4.245675100174200E-1   -1.503731197969438E-1
 8.116722519000000E9     5.065428338133422E-1    4.130030077000014E-3    6.566487391926892E-4    3.637233034246596E-3    7.295065780483227E-4    3.704742948577936E-3    4.244578936594448E-1   -1.507672396375989E-1
 8.116727009500000E9     5.066679308317958E-1    3.886781792431340E-3    6.271397559002110E-4    3.650217848178856E-3    6.962990516308487E-4    3.736475995442210E-3    4.243714639593140E-1   -1.511422349081141E-1
 8.116731500000000E9     5.066806762610341E-1    3.473064548024206E-3    6.562595165225395E-4    3.653067554592590E-3    7.353952781638010E-4    3.695838621858065E-3    4.241280210926839E-1   -1.513218635350052E-1
 8.116735990500000E9     5.066290374040644E-1    3.177784739424373E-3    6.667509277603668E-4    3.655174761311420E-3    7.224745453267467E-4    3.720315569387411E-3    4.240343190708967E-1   -1.517033781213308E-1
 8.116740481000000E9     5.065495811870393E-1    2.818940052877813E-3    6.791331880179633E-4    3.629646866215170E-3    7.196933185702055E-4    3.695096256822734E-3    4.240102434053752E-1   -1.520128036834604E-1
 8.116744971500000E9     5.066703034762821E-1    2.565678828791105E-3    6.773644803989824E-4    3.652603507978343E-3    7.462693208271464E-4    3.691265932091526E-3    4.238945323598864E-1   -1.523044620425224E-1
 8.116749462000000E9     5.067298567685904E-1    1.999897666481273E-3    6.879057431358686E-4    3.657001800619358E-3    7.368550092083750E-4    3.684027881868938E-3    4.238996454212502E-1   -1.526392526643445E-1
 8.116753952500000E9     5.066849921686379E-1    1.807894351632454E-3    6.910890737204304E-4    3.623148229665088E-3    7.255958654219328E-4    3.719618996754733E-3    4.237852046033290E-1   -1.528720872349182E-1
 8.116758443000000E9     5.065623470956231E-1    1.445721680911472E-3    6.843653923801716E-4    3.666782544948980E-3    7.373420503419467E-4    3.707831447127684E-3    4.236380840250280E-1   -1.532460112509205E-1
 8.116762933500000E9     5.065173713300156E-1    1.103935149701385E-3    7.023232879781700E-4    3.629672272327975E-3    7.388204557477685E-4    3.701317676035965E-3    4.234851425988645E-1   -1.535290883832460E-1
 8.116767424000000E9     5.064415756722928E-1    7.359578711610774E-4    7.031640411734936E-4    3.666630394464793E-3    7.783841476454924E-4    3.726133588724398E-3    4.234758251814733E-1   -1.537196714250901E-1
 8.116771914500000E9     5.066053668665723E-1    3.594005725012617E-4    6.907403857926652E-4    3.648698233014640E-3    7.488557952094140E-4    3.708193298734768E-3    4.233311103573862E-1   -1.539072128614740E-1
 8.116776405000000E9     5.065371429413235E-1    5.073313535236199E-5    6.609170378794205E-4    3.638083478248295E-3    7.594547037275838E-4    3.700916215344449E-3    4.231801726694834E-1   -1.543631214055649E-1
 8.116780895500000E9     5.064886929695044E-1   -2.849168869556634E-4    6.901316692211266E-4    3.644396185104717E-3    7.363236996702559E-4    3.709238996924404E-3    4.231841603141362E-1   -1.547773519724244E-1
 8.116785386000000E9     5.065398380987295E-1   -6.275322577894401E-4    6.973506889384669E-4    3.653505283393868E-3    7.364060494368826E-4    3.715495016737078E-3    4.230929819028659E-1   -1.549237156959151E-1
 8.116789876500000E9     5.065835997153222E-1   -9.535041267186773E-4    7.069062856005662E-4    3.650934039390158E-3    7.626199881678488E-4    3.701149191294154E-3    4.228775398004574E-1   -1.553312892791112E-1
 8.116794367000000E9     5.065592343370101E-1   -1.234374304174274E-3    7.094732713387776E-4    3.675919441502234E-3    7.716362933768071E-4    3.714120110557739E-3    4.228528802247161E-1   -1.556146627522436E-1
 8.116798857500000E9     5.064157932790584E-1   -1.664129769559443E-3    7.212156292184228E-4    3.652721337615453E-3    7.456630601165180E-4    3.750042030900022E-3    4.226972169372979E-1   -1.558483288138253E-1
 8.116803348000000E9     5.065630431923379E-1   -2.052965109612713E-3    7.003268519193581E-4    3.686752348156755E-3    7.697461033810544E-4    3.704079951268038E-3    4.226245836869544E-1   -1.561234478273771E-1
 8.116807838500000E9     5.065065865037126E-1   -2.348142585444679E-3    7.326628367277974E-4    3.660602549620945E-3    7.736058918988107E-4    3.711181334354441E-3    4.225363502095225E-1   -1.565059721208210E-1
 8.116812329000000E9     5.064474050369063E-1   -2.828866836922115E-3    7.223094851242190E-4    3.670735991674142E-3    7.758085098465202E-4    3.715004050326369E-3    4.223172465892684E-1   -1.566786482672415E-1
 8.116816819500000E9     5.065292346299877E-1   -3.046985127335125E-3    7.153487343872279E-4    3.665696490522249E-3    7.978854885674171E-4    3.720282420585889E-3    4.224624446576102E-1   -1.569693932086651E-1
 8.116821310000000E9     5.065248988892965E-1   -3.339108972953293E-3    7.580410324248987E-4    3.640845489963006E-3    7.929272177606179E-4    3.704275260313489E-3    4.222524548242970E-1   -1.572739896855752E-1
 8.116825800500000E9     5.064624425246562E-1   -3.868792200313552E-3    7.102043764800512E-4    3.684392081789414E-3    8.068870839143294E-4    3.716890762751428E-3    4.221337764736180E-1   -1.577207496564885E-1
 8.116830291000000E9     5.064828263862156E-1   -4.079815468859026E-3    7.290596099164968E-4    3.668405742883457E-3    7.862546119923923E-4    3.723959351677754E-3    4.221727206068684E-1   -1.579946971150511E-1
 8.116834781500000E9     5.065011154413580E-1   -4.341750293385858E-3    7.440464461973943E-4    3.673115955773655E-3    8.139296226006671E-4    3.722750106499145E-3    4.220186285044172E-1   -1.582306250188248E-1
 8.116839272000000E9     5.063965872401557E-1   -4.827125724762986E-3    7.618381234916552E-4    3.692161214225434E-3    8.033847423828736E-4    3.698955726862230E-3    4.219115804655647E-1   -1.585484441398606E-1
 8.116843762500000E9     5.064398025552446E-1   -5.082398453809618E-3    7.338469118453251E-4    3.662370225918482E-3    8.159991505004931E-4    3.737013046047300E-3    4.217960921888353E-1   -1.589488382702796E-1
 8.116848253000000E9     5.064614308638690E-1   -5.490585540934837E-3    7.404870350709746E-4    3.680993919441384E-3    8.210433399491844E-4    3.775485925342730E-3    4.216776428514166E-1   -1.591342315535606E-1
 8.116852743500000E9     5.064445267230966E-1   -5.898723567881133E-3    7.511141072414972E-4    3.694261358510025E-3    8.164716642115965E-4    3.750417130401819E-3    4.217075192812118E-1   -1.594361154589506E-1
 8.116857234000000E9     5.064865921984849E-1   -6.074592606157953E-3    7.509945656843211E-4    3.707671057874658E-3    8.052485053642594E-4    3.803340875492143E-3    4.213649297441950E-1   -1.598415610854836E-1
 8.116861724500000E9     5.063623745730444E-1   -6.440730461681893E-3    7.756718579998005E-4    3.707187470495001E-3    8.259265952880566E-4    3.752707689150758E-3    4.214646390651979E-1   -1.600180807753711E-1
 8.116866215000000E9     5.063713585845808E-1   -6.788124198838814E-3    7.705895584289949E-4    3.684313727276825E-3    8.520028156724837E-4    3.749951830518254E-3    4.213627929869410E-1   -1.603147819862555E-1
 8.116870705500000E9     5.064202792722684E-1   -7.208586130042756E-3    7.716857803926558E-4    3.688763768043542E-3    8.269393142003950E-4    3.733029900182020E-3    4.211799452131494E-1   -1.605154469865405E-1
 8.116875196000000E9     5.064069711248053E-1   -7.544051277247538E-3    7.702567199623766E-4    3.700094005891227E-3    8.263381949932012E-4    3.802247505376996E-3    4.210677170643236E-1   -1.609164227114148E-1
 8.116879686500000E9     5.063442965215464E-1   -7.909516222332769E-3    7.803926502602793E-4    3.696576942537089E-3    8.468787188081356E-4    3.769278692080286E-3    4.210594488108787E-1   -1.612074495662887E-1
 8.116884177000000E9     5.063107008349023E-1   -8.258337163898630E-3    7.863470594458907E-4    3.695569008502009E-3    8.362215630964033E-4    3.749321711418869E-3    4.208646130666585E-1   -1.614727119701093E-1
 8.116888667500000E9     5.063442351874171E-1   -8.578862724874190E-3    8.061087268308752E-4    3.735185004723370E-3    8.353004632329093E-4    3.782708667175011E-3    4.207296562572378E-1   -1.616241600932836E-1
 8.116893158000000E9     5.062484338127882E-1   -8.965435576230351E-3    7.806910130262394E-4    3.734933643033842E-3    8.708062635801899E-4    3.754827883670803E-3    4.205981949035309E-1   -1.620178101706379E-1
 8.116897648500000E9     5.063250915502751E-1   -9.302663230966341E-3    7.872525948863903E-4    3.704330303813474E-3    8.874625807494778E-4    3.763964212986434E-3    4.205564833276839E-1   -1.625642159999949E-1
 8.116902139000000E9     5.063055019681707E-1   -9.666988926053534E-3    7.892267805147808E-4    3.735829626008853E-3    8.107646129745104E-4    3.784674243815358E-3    4.205276903989245E-1   -1.625778867931501E-1
 8.116906629500000E9     5.062686936820864E-1   -1.002306599557193E-2    8.153698856013384E-4    3.709982911527426E-3    8.386681024248113E-4    3.760312752819121E-3    4.204413746562010E-1   -1.630874728271441E-1
 8.116911120000000E9     5.062680348708829E-1   -1.028329822703525E-2    8.354746112601890E-4    3.742173956539544E-3    8.752577119238430E-4    3.781973326228611E-3    4.201867140775893E-1   -1.633232953089768E-1
 8.116915610500000E9     5.062400035847925E-1   -1.067003125717485E-2    8.186103066551031E-4    3.738624524878907E-3    8.594224083625697E-4    3.838874608708698E-3    4.201202318019860E-1   -1.634592939117560E-1
 8.116920101000000E9     5.061956675039303E-1   -1.105881273023536E-2    8.352375322752280E-4    3.716025142478805E-3    8.648117293193661E-4    3.823325114404909E-3    4.200078718039817E-1   -1.638328988320168E-1
 8.116924591500000E9     5.061652785079641E-1   -1.135177380502804E-2    8.108748638769176E-4    3.720028479494047E-3    8.768139084114066E-4    3.793447942048370E-3    4.200296821290835E-1   -1.641807442001765E-1
 8.116929082000000E9     5.061316415685406E-1   -1.175684028306252E-2    8.163493992501425E-4    3.722335347276621E-3    8.979771142918724E-4    3.786790714321734E-3    4.198534852591431E-1   -1.644645695940762E-1
 8.116933572500000E9     5.061997272071360E-1   -1.204595778593357E-2    8.076035798664889E-4    3.738487795314120E-3    9.220685783863947E-4    3.793967329080990E-3    4.197606418975988E-1   -1.648109387403166E-1
 8.116938063000000E9     5.060015350793682E-1   -1.238120249743751E-2    8.584711113786416E-4    3.764199845324304E-3    8.869190581330891E-4    3.784711660574990E-3    4.196649938559507E-1   -1.649712118583532E-1
 8.116942553500000E9     5.061802658745301E-1   -1.283357498939543E-2    8.156132127508193E-4    3.765753006725771E-3    8.810458718889087E-4    3.803434130462905E-3    4.194519559335224E-1   -1.653683375771302E-1
 8.116947044000000E9     5.062354798587703E-1   -1.308813461133514E-2    8.268115940556224E-4    3.753971153039637E-3    8.855464676456079E-4    3.822679554036605E-3    4.194982912427054E-1   -1.657043857981789E-1
 8.116951534500000E9     5.062424997173914E-1   -1.352788007846183E-2    8.412946481027751E-4    3.768702126516598E-3    8.784307149050705E-4    3.835938671136467E-3    4.192498832522747E-1   -1.659271773375762E-1
 8.116956025000000E9     5.060330915292489E-1   -1.395172246124776E-2    8.583132945072285E-4    3.776053928885929E-3    8.831394078754677E-4    3.830395401145872E-3    4.192037621007493E-1   -1.662632047893472E-1
 8.116960515500000E9     5.060368304957105E-1   -1.419813848480897E-2    8.200054332128157E-4    3.751531184919780E-3    9.277075479037971E-4    3.827673796139199E-3    4.191733935034888E-1   -1.665390453919201E-1
 8.116965006000000E9     5.060566092174033E-1   -1.455806548217853E-2    8.556434955874300E-4    3.778093333363502E-3    9.191207178984908E-4    3.837761858932039E-3    4.190138644223741E-1   -1.668076256845845E-1
 8.116969496500000E9     5.060106161910910E-1   -1.486772253442242E-2    8.458821341349630E-4    3.760367153349707E-3    9.372086857195394E-4    3.840560210583131E-3    4.190055218313330E-1   -1.670548606297883E-1
 8.116973987000000E9     5.059552656491164E-1   -1.513071736210215E-2    8.681856830726161E-4    3.771264565130560E-3    9.144361694743482E-4    3.836507386414971E-3    4.188545020720200E-1   -1.672902493268278E-1
 8.116978477500000E9     5.059610937299009E-1   -1.559394167908879E-2    8.902468770035209E-4    3.776040552516834E-3    8.964687861040338E-4    3.801135776242022E-3    4.186978493740851E-1   -1.676748602879096E-1
 8.116982968000000E9     5.059826624473702E-1   -1.586716693248979E-2    8.668739943411622E-4    3.775496192443654E-3    9.004269777828640E-4    3.818169525095129E-3    4.186345569821651E-1   -1.680576970097108E-1
 8.116987458500000E9     5.059594842001860E-1   -1.630425665916816E-2    8.873721362906542E-4    3.801329101532865E-3    9.393178783350094E-4    3.870143395833997E-3    4.186278671051987E-1   -1.682756873009302E-1
 8.116991949000000E9     5.059549584242086E-1   -1.667989739239282E-2    8.750935716937684E-4    3.786502735264743E-3    9.534112834250500E-4    3.841033544726845E-3    4.184439596253841E-1   -1.686415177258299E-1
 8.116996439500000E9     5.059276574952071E-1   -1.698428515996553E-2    8.818058987252415E-4    3.780099750327457E-3    9.220518517758787E-4    3.815507667866282E-3    4.184032120588507E-1   -1.689418067732550E-1
 8.117000930000000E9     5.058381273246136E-1   -1.738598865414067E-2    8.718012396168840E-4    3.795617029798594E-3    9.434214499982515E-4    3.836223100924344E-3    4.181353156568355E-1   -1.691875795798425E-1
 8.117005420500000E9     5.057621410025337E-1   -1.774106672857383E-2    8.828781321048505E-4    3.777945503563107E-3    9.542128794710889E-4    3.857906425477299E-3    4.180304334083105E-1   -1.694977502558250E-1
 8.117009911000000E9     5.059346856676576E-1   -1.812900674133966E-2    9.003059594051220E-4    3.813588094938721E-3    9.516371639706991E-4    3.835651733267124E-3    4.179044748285619E-1   -1.698038886513819E-1
 8.117014401500000E9     5.057214315805847E-1   -1.841026375310627E-2    9.181959807747729E-4    3.789627996124372E-3    9.576222183247049E-4    3.839544350441779E-3    4.178607679018937E-1   -1.701204920433260E-1
 8.117018892000000E9     5.058441445021951E-1   -1.883834950201447E-2    8.861426569320316E-4    3.818423092264781E-3    9.679249183261234E-4    3.887382892129922E-3    4.177432302538014E-1   -1.704124879520130E-1
 8.117023382500000E9     5.056784713763377E-1   -1.914229421521802E-2    9.201741645998210E-4    3.807809022511924E-3    9.407758911358915E-4    3.871807286533323E-3    4.176941242503255E-1   -1.706372292773627E-1
 8.117027873000000E9     5.056468108028025E-1   -1.949115006061053E-2    9.093885187826832E-4    3.844417947394834E-3    1.003648694891123E-3    3.883935268524505E-3    4.174767137257308E-1   -1.709724751809898E-1
 8.117032363500000E9     5.055979598664200E-1   -1.991157298227997E-2    9.141532254231506E-4    3.836338367712229E-3    9.508647921872172E-4    3.856347883176722E-3    4.175328368639696E-1   -1.712530209130209E-1
 8.117036854000000E9     5.058016253242565E-1   -2.007702452729606E-2    9.433901504454999E-4    3.824051949447444E-3    9.674494041721083E-4    3.898327149822289E-3    4.173695132008934E-1   -1.716493439169479E-1
 8.117041344500000E9     5.056586501393121E-1   -2.049160784244120E-2    9.397881496462034E-4    3.810296175651044E-3    9.941986834475468E-4    3.890154407671331E-3    4.172482939139581E-1   -1.717965930949641E-1
 8.117045835000000E9     5.056126139055561E-1   -2.085984924263146E-2    9.328577497422766E-4    3.845951552146145E-3    9.960504940465193E-4    3.888647320698524E-3    4.171119057528367E-1   -1.720568253828020E-1
 8.117050325500000E9     5.056210253382937E-1   -2.126286499340532E-2    9.441691421779294E-4    3.848183525726012E-3    9.976298223310000E-4    3.918294887485983E-3    4.170037096568415E-1   -1.723425022443719E-1
 8.117054816000000E9     5.056077294493587E-1   -2.149107757163067E-2    9.738079464849840E-4    3.834222270218031E-3    9.591114205713404E-4    3.889280542791988E-3    4.169682613471370E-1   -1.726928848068509E-1
 8.117059306500000E9     5.055474054968790E-1   -2.191020973181871E-2    9.467435444170208E-4    3.858417758643594E-3    9.985216437061286E-4    3.904459249187362E-3    4.168741970816504E-1   -1.730616289948754E-1
 8.117063797000000E9     5.054976030881444E-1   -2.242141178932188E-2    9.384638663161286E-4    3.860308705332615E-3    1.041476585442956E-3    3.880203906503215E-3    4.167504054539242E-1   -1.733537380029475E-1
 8.117068287500000E9     5.054311278898134E-1   -2.259318085737956E-2    9.694566632735394E-4    3.871088293469259E-3    1.037719198768215E-3    3.919555571485885E-3    4.165407378005470E-1   -1.735932914447361E-1
 8.117072778000000E9     5.054335863327358E-1   -2.300394964045464E-2    9.633563828303355E-4    3.889627682749685E-3    9.793461954231905E-4    3.903981084134499E-3    4.164291953073784E-1   -1.739807749422597E-1
 8.117077268500000E9     5.054799959690479E-1   -2.331770894448490E-2    9.501208889154528E-4    3.872316555616471E-3    1.020850092883523E-3    3.936268870181454E-3    4.162249243801227E-1   -1.741340496445772E-1
 8.117081759000000E9     5.053991539090971E-1   -2.370913462001993E-2    9.801082302995478E-4    3.896981887669202E-3    1.018336391403644E-3    3.916489828402671E-3    4.163044188343927E-1   -1.744672358527574E-1
 8.117086249500000E9     5.053497378723892E-1   -2.413974672107599E-2    9.749520482746612E-4    3.868592390028492E-3    1.055720596974464E-3    3.938676966753978E-3    4.161817617497176E-1   -1.746540924123176E-1
 8.117090740000000E9     5.052842294117744E-1   -2.446528549689253E-2    9.981472038126133E-4    3.897395023350329E-3    1.064044385005790E-3    3.920794722989666E-3    4.160356107679349E-1   -1.750189109624928E-1
