#  HZ   S   RI   R     50.00 
! Rohde & Schwarz Vector Network Analyzer 
! Rohde-Schwarz,ZNB20-2Port,1311601062101988,3.16
! Created: UTC 3/20/2024, 11:45:21 AM
! freq[Hz]                re:S11                  im:S11                  re:S21                  im:S21                  re:S12                  im:S12                  re:S22                  im:S22
 8.116664897000000E9     5.068251186709816E-1    8.781628142413891E-3    6.088335517380781E-4    3.620660457286971E-3    6.838523285319240E-4    3.684486127030870E-3    4.255434534522013E-1   -1.469720192995193E-1
 8.116669474575000E9     5.066922518591452E-1    8.342800321849251E-3    5.992809570524807E-4    3.607111810317802E-3    6.674924420974951E-4    3.692615835811261E-3    4.254503400460702E-1   -1.471120502850885E-1
 8.116674052150000E9     5.066718204821008E-1    7.958602622176450E-3    6.179672855329149E-4    3.610372872105577E-3    7.126056976983957E-4    3.636860099028057E-3    4.253753380155621E-1   -1.475440758316878E-1
 8.116678629725000E9     5.067278491547104E-1    7.579465184350587E-3    6.219288916678024E-4    3.578764766969681E-3    6.712179220674194E-4    3.675740824522619E-3    4.252932619296563E-1   -1.476697619814709E-1
 8.116683207300000E9     5.065486448861659E-1    7.237304378723366E-3    6.372690899605541E-4    3.604220752020958E-3    6.920906465160184E-4    3.651699403223968E-3    4.253386169580184E-1   -1.480731812340159E-1
 8.116687784875000E9     5.066008047013751E-1    6.863850247250161E-3    6.143938579302844E-4    3.631424345961698E-3    7.090826833009741E-4    3.659629219530698E-3    4.251248986137621E-1   -1.485203520115685E-1
 8.116692362450000E9     5.066427132582990E-1    6.641129259304619E-3    6.314234197559766E-4    3.622793918658412E-3    6.793164129617307E-4    3.678782235028202E-3    4.249640392809281E-1   -1.486692907732947E-1
 8.116696940025000E9     5.067210503860051E-1    6.149685899891125E-3    6.535172402505923E-4    3.616777505521855E-3    7.322868330179006E-4    3.700270421638961E-3    4.248536430545167E-1   -1.489540599783016E-1
 8.116701517600000E9     5.066173143191900E-1    5.860779322138890E-3    6.318006101619307E-4    3.647899653932711E-3    7.111468618860019E-4    3.659824833407950E-3    4.247994091479130E-1   -1.493496193867467E-1
 8.116706095175000E9     5.066640942243359E-1    5.420175041435031E-3    6.451108193902509E-4    3.611008818677719E-3    7.075039431094881E-4    3.677930161934340E-3    4.247665733991663E-1   -1.496239719981766E-1
 8.116710672750000E9     5.067888862467442E-1    5.051561824012247E-3    6.408486834084025E-4    3.632467761240645E-3    7.085423576183945E-4    3.648545834038858E-3    4.246102173934245E-1   -1.499214949694912E-1
 8.116715250325000E9     5.067141867152799E-1    4.843198888665377E-3    6.438981319525878E-4    3.628709044718933E-3    7.222034344736083E-4    3.667826457222279E-3    4.244517199750991E-1   -1.501913859282449E-1
 8.116719827900000E9     5.066842458606380E-1    4.326538979986600E-3    6.456977798406405E-4    3.653686250627250E-3    7.398766736903297E-4    3.684461541575479E-3    4.244114106985746E-1   -1.506859407539008E-1
 8.116724405475000E9     5.065999457651447E-1    4.015440435734824E-3    6.508885147844171E-4    3.634891282499681E-3    7.040966341748416E-4    3.675958821088200E-3    4.243750151750685E-1   -1.508877038809578E-1
 8.116728983050000E9     5.065846032009752E-1    3.695454756756810E-3    6.875855080876203E-4    3.624923054648179E-3    7.260064035751861E-4    3.652476006497451E-3    4.241178490357145E-1   -1.512015753233637E-1
 8.116733560625000E9     5.066954124540548E-1    3.375066958430676E-3    6.669612598752465E-4    3.644852756733134E-3    7.292845315641641E-4    3.702580420303615E-3    4.242218594204399E-1   -1.514473274751955E-1
 8.116738138200000E9     5.066654933472351E-1    3.049715209317572E-3    6.804645261472364E-4    3.636294894606788E-3    7.336697791094062E-4    3.695114658892652E-3    4.240661185085806E-1   -1.518348501012165E-1
 8.116742715775000E9     5.066462880472912E-1    2.694639486502040E-3    6.911384178852757E-4    3.650108644030306E-3    6.964060571897204E-4    3.716249886829274E-3    4.238575752896390E-1   -1.521642846006800E-1
 8.116747293350000E9     5.065887769551749E-1    2.314211682640813E-3    6.713342412414682E-4    3.659730631522850E-3    7.328743908507927E-4    3.705130991031719E-3    4.240144362769633E-1   -1.524102020430649E-1
 8.116751870925000E9     5.066137686623815E-1    1.940667786489556E-3    6.745595451343586E-4    3.642118505047267E-3    7.419137111351229E-4    3.701502511134025E-3    4.237683373115361E-1   -1.527068331039239E-1
 8.116756448500000E9     5.066153830860343E-1    1.716195473289894E-3    6.679943714951337E-4    3.632076554531663E-3    7.442470191197660E-4    3.696651475685243E-3    4.237386095541357E-1   -1.528690438612202E-1
 8.116761026075000E9     5.066367174861894E-1    1.185173671852314E-3    6.787380909956038E-4    3.631573157407112E-3    7.865842165795549E-4    3.743562142494173E-3    4.235522043656521E-1   -1.533103961016293E-1
 8.116765603650000E9     5.065246340067122E-1    7.268883220607116E-4    6.917936885557300E-4    3.640782659861978E-3    7.319695821996238E-4    3.712385406364704E-3    4.234392271534316E-1   -1.535614596176428E-1
 8.116770181225000E9     5.065984618236917E-1    5.198438027343667E-4    7.093867848799628E-4    3.633324089636719E-3    7.562834926450602E-4    3.708352226452972E-3    4.234198407978430E-1   -1.538318285022434E-1
 8.116774758800000E9     5.066839844234082E-1    7.870526281385844E-5    6.912343806985666E-4    3.663543474492385E-3    7.253991241359084E-4    3.750565899487659E-3    4.232422298744399E-1   -1.541526830019633E-1
 8.116779336375000E9     5.065374367151835E-1   -8.895053527992819E-5    7.145171010879493E-4    3.659759669361459E-3    7.374944398402651E-4    3.706769169233213E-3    4.232441247017292E-1   -1.544879485106878E-1
 8.116783913950000E9     5.066920535580979E-1   -4.759667097823443E-4    6.982045861415547E-4    3.667466026361050E-3    7.420199005299545E-4    3.699846557454010E-3    4.231333816144719E-1   -1.547411326141698E-1
 8.116788491525000E9     5.067238469562775E-1   -8.831213171023293E-4    7.011192922745657E-4    3.652548783448260E-3    7.663883452950058E-4    3.695193995684267E-3    4.230170807480040E-1   -1.552177355467668E-1
 8.116793069100000E9     5.065930449888412E-1   -1.144587888480425E-3    7.199618342433466E-4    3.679178227060084E-3    7.563092611903918E-4    3.718608639942231E-3    4.229950496505966E-1   -1.554629107589169E-1
 8.116797646675000E9     5.065835989007432E-1   -1.519151692449190E-3    7.032219076696703E-4    3.688484379517856E-3    7.682409182359235E-4    3.739709426022979E-3    4.228839059276475E-1   -1.557313383526914E-1
 8.116802224250000E9     5.065015329277777E-1   -1.960304271158451E-3    7.248359994423164E-4    3.671329650975089E-3    7.785167823131253E-4    3.733877602949510E-3    4.227501430860403E-1   -1.560017578358279E-1
 8.116806801825000E9     5.065493451746141E-1   -2.305660786329744E-3    7.271197989689425E-4    3.656402467832898E-3    7.466485942132493E-4    3.709888758912951E-3    4.225509185758121E-1   -1.563287938717476E-1
 8.116811379400000E9     5.066266620387285E-1   -2.619886516989781E-3    7.344829536959326E-4    3.679264723951935E-3    7.688320900064705E-4    3.719238267489614E-3    4.224296207803044E-1   -1.566638702891155E-1
 8.116815956975000E9     5.065335806527055E-1   -3.160924632132608E-3    7.481458786690794E-4    3.682218970046240E-3    7.519867057173131E-4    3.713413824448941E-3    4.224474880300089E-1   -1.569945311243883E-1
 8.116820534550000E9     5.065411160810153E-1   -3.290400536708611E-3    7.299226207601347E-4    3.689739582174462E-3    7.796972387359675E-4    3.743269723078033E-3    4.222943731856915E-1   -1.573652798167920E-1
 8.116825112125000E9     5.064666927934982E-1   -3.688505589528510E-3    7.339494158505842E-4    3.670596723358234E-3    8.054688992408232E-4    3.764985453859180E-3    4.221325033366750E-1   -1.575745376523801E-1
 8.116829689700000E9     5.065607540097967E-1   -4.098596670994141E-3    7.340376664018376E-4    3.689495840487618E-3    7.923934065737046E-4    3.718939666831008E-3    4.221025279486501E-1   -1.578887184526621E-1
 8.116834267275000E9     5.064125226883898E-1   -4.327911829129141E-3    7.327267987813313E-4    3.677950317739035E-3    8.285888898759571E-4    3.731185711545165E-3    4.219185837002100E-1   -1.581118773567576E-1
 8.116838844850000E9     5.064618810232171E-1   -4.687126982975008E-3    7.679770011003258E-4    3.677862657801342E-3    8.157004260867328E-4    3.732947181740551E-3    4.218437359726036E-1   -1.584910796672932E-1
 8.116843422425000E9     5.064675930747398E-1   -5.041496460038197E-3    7.543882752194601E-4    3.706210099416068E-3    7.941213674200343E-4    3.741185280436808E-3    4.218543843478625E-1   -1.586442746960247E-1
 8.116848000000000E9     5.064521515713298E-1   -5.428623304751742E-3    7.144844915308355E-4    3.683661699024599E-3    8.136023607038241E-4    3.756006731195432E-3    4.217212421774564E-1   -1.590942792025810E-1
 8.116852577575000E9     5.063200625291795E-1   -5.867318184008962E-3    7.814186880397555E-4    3.706406316613132E-3    7.976560364842877E-4    3.767254023608690E-3    4.215582354489557E-1   -1.593107620651867E-1
 8.116857155150000E9     5.065533378952760E-1   -6.173172268266344E-3    7.850000484053431E-4    3.689673247089428E-3    8.412271155489861E-4    3.757377590917301E-3    4.214474737763320E-1   -1.596902142049112E-1
 8.116861732725000E9     5.065250646824649E-1   -6.467463098855366E-3    7.711764748807831E-4    3.707449600935336E-3    8.075035522428406E-4    3.761695706956686E-3    4.213957207569634E-1   -1.599079776733880E-1
 8.116866310300000E9     5.064229210752367E-1   -6.985941406399955E-3    7.626030970480133E-4    3.713650150074242E-3    8.224646301317267E-4    3.760457607991621E-3    4.213495474986709E-1   -1.602785777023233E-1
 8.116870887875000E9     5.063871005958415E-1   -7.156432983587986E-3    7.835417244789017E-4    3.720570414813338E-3    8.393095904043691E-4    3.768737958826955E-3    4.212878368813404E-1   -1.607027300048997E-1
 8.116875465450000E9     5.063572290489801E-1   -7.601203534907955E-3    7.700804101201725E-4    3.692526832067352E-3    8.461760199718942E-4    3.758889320514360E-3    4.210449742382947E-1   -1.608885837862743E-1
 8.116880043025000E9     5.063072161357648E-1   -7.848866862581834E-3    7.509502595664859E-4    3.723697034057884E-3    7.998231512248419E-4    3.765779085898633E-3    4.210083960341445E-1   -1.612947354870842E-1
 8.116884620600000E9     5.062413010464382E-1   -8.295783407135627E-3    7.971418287542334E-4    3.717442506335242E-3    8.385923319187248E-4    3.788848166295353E-3    4.208798747890199E-1   -1.614006188666430E-1
 8.116889198175000E9     5.062929442328029E-1   -8.696268234001481E-3    7.930629328534002E-4    3.733561461967919E-3    8.443716615497878E-4    3.749660822935149E-3    4.207616928849414E-1   -1.617908367155374E-1
 8.116893775750000E9     5.063864807216921E-1   -8.978591096533548E-3    7.983989155432831E-4    3.720431548038433E-3    8.539365111134289E-4    3.799138737759488E-3    4.208287250635677E-1   -1.620378060838849E-1
 8.116898353325000E9     5.062535288846745E-1   -9.278756263644959E-3    7.995491769040130E-4    3.726154895896580E-3    8.499447124738849E-4    3.794933131876502E-3    4.204422538920640E-1   -1.624591286033791E-1
 8.116902930900000E9     5.062918999631183E-1   -9.672029980646157E-3    8.151151887956425E-4    3.730781096265706E-3    8.585214269195678E-4    3.756951982617893E-3    4.205376454819422E-1   -1.627056122967597E-1
 8.116907508475000E9     5.062889192461617E-1   -1.001779678849436E-2    8.076723423789935E-4    3.728022882603451E-3    8.891878540216385E-4    3.760551476226892E-3    4.203561432777563E-1   -1.629111637692384E-1
 8.116912086050000E9     5.062099271475744E-1   -1.040933402174681E-2    8.140710047683864E-4    3.716486172220219E-3    8.521080978278535E-4    3.789130486640389E-3    4.203155464095222E-1   -1.632139652821318E-1
 8.116916663625000E9     5.062221213002092E-1   -1.079314691176601E-2    8.154166844951006E-4    3.729977785841535E-3    8.711481121986863E-4    3.793367514411971E-3    4.202698657981595E-1   -1.636596395110015E-1
 8.116921241200000E9     5.062608764354475E-1   -1.120836786991367E-2    8.039378827770050E-4    3.736472348269759E-3    8.716181493838433E-4    3.744103880396828E-3    4.200802279339702E-1   -1.639818599463216E-1
 8.116925818775000E9     5.061588416771351E-1   -1.145485115176001E-2    8.064461084546332E-4    3.702698432698351E-3    8.642963963882092E-4    3.786550130097115E-3    4.199518603374764E-1   -1.641870508581806E-1
 8.116930396350000E9     5.062469213198432E-1   -1.189078250625241E-2    8.208281349647743E-4    3.726550122996228E-3    8.663823610961678E-4    3.808512760225738E-3    4.199095735981806E-1   -1.646467148805250E-1
 8.116934973925000E9     5.061729140863910E-1   -1.218511089241618E-2    8.318815184208221E-4    3.737182533825323E-3    8.615180363608576E-4    3.806322159770552E-3    4.195950026569208E-1   -1.647114999614209E-1
 8.116939551500000E9     5.061907595755729E-1   -1.256587977044676E-2    8.368044300958599E-4    3.734553831835917E-3    8.979423966411908E-4    3.820898934708972E-3    4.196128210315235E-1   -1.651210154098438E-1
 8.116944129075000E9     5.061670254916711E-1   -1.287389518228253E-2    8.158810516587109E-4    3.753152263431889E-3    9.069592807869919E-4    3.798823950830110E-3    4.194428005874243E-1   -1.654276738684938E-1
 8.116948706650000E9     5.061782048073635E-1   -1.331241705242442E-2    8.247931333963656E-4    3.743634069240417E-3    8.832671374534636E-4    3.783141328995622E-3    4.194966172689675E-1   -1.656070983158573E-1
 8.116953284225000E9     5.060380730166283E-1   -1.359933091400555E-2    8.457022865324247E-4    3.749049954835195E-3    9.231194303175029E-4    3.850703704047604E-3    4.193311129375039E-1   -1.659813977965794E-1
 8.116957861800000E9     5.060658341971417E-1   -1.395603886588674E-2    8.370983378292249E-4    3.763723169358605E-3    8.947476457724721E-4    3.813315254354322E-3    4.191190192201648E-1   -1.663321649401746E-1
 8.116962439375000E9     5.061134245220941E-1   -1.429061591810546E-2    8.746727677687228E-4    3.750296086059812E-3    9.033835825432018E-4    3.809777821672224E-3    4.190117465895652E-1   -1.666463230107008E-1
 8.116967016950000E9     5.060009373355266E-1   -1.470971649392165E-2    8.647574228770882E-4    3.760481665134496E-3    9.250131304614304E-4    3.818200501781983E-3    4.188948289248950E-1   -1.669583696019969E-1
 8.116971594525000E9     5.061085678024354E-1   -1.502830623435843E-2    8.801483639685305E-4    3.755281064877198E-3    9.345134885004385E-4    3.844511124735306E-3    4.188473215560506E-1   -1.672320314460290E-1
 8.116976172100000E9     5.059604795495921E-1   -1.548187003164354E-2    8.628993840166708E-4    3.759416666954933E-3    9.319332622009694E-4    3.868521560237839E-3    4.187696659998663E-1   -1.675261987026006E-1
 8.116980749675000E9     5.060600913054779E-1   -1.575860513928886E-2    8.962454274600484E-4    3.787220310006185E-3    9.243712743158397E-4    3.838116733823192E-3    4.187184556917471E-1   -1.678461984205815E-1
 8.116985327250000E9     5.059165700093797E-1   -1.610850839802574E-2    8.622921824196007E-4    3.776351223872183E-3    9.544259155585595E-4    3.881252455297966E-3    4.185073655894017E-1   -1.681390998368191E-1
 8.116989904825000E9     5.059503088802746E-1   -1.651087278808710E-2    8.961664763033573E-4    3.797566282102163E-3    9.202440879976659E-4    3.833273470067369E-3    4.183854467384925E-1   -1.683303242379584E-1
 8.116994482400000E9     5.059284386525232E-1   -1.681674510346357E-2    8.950630193969793E-4    3.798024106957155E-3    9.434552723938285E-4    3.882022827335684E-3    4.183644801220445E-1   -1.686040869978224E-1
 8.116999059975000E9     5.059466736872030E-1   -1.715588082677669E-2    8.965121133546129E-4    3.774848553729815E-3    9.444627520358998E-4    3.877020448325874E-3    4.183301971774479E-1   -1.690164053174459E-1
 8.117003637550000E9     5.057803311070804E-1   -1.748168608927310E-2    8.960943577529481E-4    3.792832662678470E-3    9.488690724865167E-4    3.847009258663030E-3    4.181036539115336E-1   -1.693558023351078E-1
 8.117008215125000E9     5.058989792056884E-1   -1.787143228549899E-2    8.795418981050184E-4    3.782829152858069E-3    9.297121564990317E-4    3.845675159743700E-3    4.179809691441591E-1   -1.695365921000386E-1
 8.117012792700000E9     5.057778521262632E-1   -1.833971301373095E-2    8.822869514795222E-4    3.796245200515577E-3    9.522128811023619E-4    3.856597336552996E-3    4.178624738299847E-1   -1.699380578876293E-1
 8.117017370275000E9     5.058335273816268E-1   -1.863335652050102E-2    9.045318730047417E-4    3.812986769942650E-3    9.560330408446823E-4    3.884139569178783E-3    4.177339421051638E-1   -1.702081701511488E-1
 8.117021947850000E9     5.057201085240817E-1   -1.902937219224674E-2    9.294975882479898E-4    3.821103024047842E-3    9.759641755696054E-4    3.886301898438841E-3    4.176593416988025E-1   -1.705633799103889E-1
 8.117026525425000E9     5.057808793618622E-1   -1.946513991775643E-2    9.125231672231396E-4    3.823593602354434E-3    9.562888014463676E-4    3.874821233932792E-3    4.174047142261839E-1   -1.708258239427097E-1
 8.117031103000000E9     5.056851694242109E-1   -1.979876111264720E-2    9.505917486062902E-4    3.836496947067637E-3    9.602527843938270E-4    3.884699739012005E-3    4.174663083614211E-1   -1.710918988218081E-1
 8.117035680575000E9     5.056339476755253E-1   -2.012230386310771E-2    9.130929110530917E-4    3.828366002396522E-3    1.001540401914582E-3    3.891269143033253E-3    4.174405354426245E-1   -1.715218200447734E-1
 8.117040258150000E9     5.056826977686192E-1   -2.046360150195908E-2    9.496726524924431E-4    3.826274633587623E-3    1.008028398770163E-3    3.884051561883653E-3    4.173389332920865E-1   -1.716732888341151E-1
 8.117044835725000E9     5.055227438136393E-1   -2.088358766794438E-2    9.246892426160831E-4    3.868611898210951E-3    9.741803704935046E-4    3.917487808610572E-3    4.171020626201911E-1   -1.720222788200823E-1
 8.117049413300000E9     5.056174906054571E-1   -2.126511450725002E-2    9.166270477777873E-4    3.862447956223073E-3    1.011624162332058E-3    3.912866771176669E-3    4.170256422161511E-1   -1.724112645064814E-1
 8.117053990875000E9     5.056338480677940E-1   -2.158141711935049E-2    9.747329170035280E-4    3.831360064928520E-3    1.014166726124865E-3    3.907575415772209E-3    4.169788924065500E-1   -1.725814293692355E-1
 8.117058568450000E9     5.054864956084058E-1   -2.187368283328092E-2    9.367850042155221E-4    3.848562981927788E-3    1.006103165956652E-3    3.926723538329989E-3    4.167655779943785E-1   -1.728560887205444E-1
 8.117063146025000E9     5.056452995094524E-1   -2.231538138619239E-2    9.625401091926960E-4    3.868309173748922E-3    1.013777232155044E-3    3.897861515062793E-3    4.167164574302973E-1   -1.731789660622938E-1
 8.117067723600000E9     5.056110649865861E-1   -2.264601890128072E-2    9.866467083976969E-4    3.852369336660585E-3    9.959796052006345E-4    3.942771878141146E-3    4.165131847573244E-1   -1.733968675454764E-1
 8.117072301175000E9     5.055135893168370E-1   -2.309377808810676E-2    9.695210964358952E-4    3.869371088635555E-3    1.060945129185352E-3    3.932760839917024E-3    4.165346579102907E-1   -1.737638623871993E-1
 8.117076878750000E9     5.055037773694456E-1   -2.344352474058174E-2    9.739000760659132E-4    3.868494539177206E-3    1.072908011882507E-3    3.922125767906093E-3    4.165108344987927E-1   -1.741899457459843E-1
