#  HZ   S   RI   R     50.00 
! Rohde & Schwarz Vector Network Analyzer 
! Rohde-Schwarz,ZNB20-2Port,1311601062101988,3.16
! Created: UTC 3/20/2024, 11:36:55 AM
! freq[Hz]                re:S11                  im:S11                  re:S21                  im:S21                  re:S12                  im:S12                  re:S22                  im:S22
 8.117597596000000E9     5.003735617039718E-1   -6.709371489678959E-2    1.714893036382599E-3    4.957951488380786E-3    1.785305589787960E-3    5.044771549039550E-3    4.015871370054381E-1   -2.083053967147541E-1
 8.117598674675000E9     5.002115926876407E-1   -6.714050086561751E-2    1.729264326999059E-3    4.945808331662848E-3    1.788859044642301E-3    5.049290720227553E-3    4.015232541886206E-1   -2.082169945401453E-1
 8.117599753350000E9     5.002690927611573E-1   -6.726825754409688E-2    1.718064685043613E-3    4.999606038602317E-3    1.836483070582078E-3    5.053191020632231E-3    4.015760850250034E-1   -2.085248861728629E-1
 8.117600832025000E9     5.002926781382419E-1   -6.741182774657623E-2    1.730953080023083E-3    4.960294200050759E-3    1.870319259262145E-3    5.076457933804980E-3    4.015331213024174E-1   -2.085251449856798E-1
 8.117601910700000E9     5.001740210669423E-1   -6.749514125165482E-2    1.729657822954089E-3    4.992290072890234E-3    1.834026285198294E-3    5.057016460149396E-3    4.013907650582267E-1   -2.085768256916657E-1
 8.117602989375000E9     5.001354211512934E-1   -6.771583832970632E-2    1.748567678640105E-3    4.979708154822095E-3    1.810738938710124E-3    5.086305117301745E-3    4.014283532696034E-1   -2.086162142017750E-1
 8.117604068050000E9     5.001135202901326E-1   -6.783757422493526E-2    1.769269097567619E-3    4.985952683501012E-3    1.835345744885030E-3    5.087558386005717E-3    4.014624950605858E-1   -2.087469640901389E-1
 8.117605146725000E9     5.000612944290322E-1   -6.807064906671009E-2    1.765692317642518E-3    5.031534462725668E-3    1.841992426972744E-3    5.081880572625008E-3    4.012937911023798E-1   -2.088009020863631E-1
 8.117606225400000E9     5.002064884123413E-1   -6.817490759420838E-2    1.776770779813613E-3    5.025017429327219E-3    1.828660981830792E-3    5.087267687680741E-3    4.014065570661257E-1   -2.088578043169136E-1
 8.117607304075000E9     5.000621236224196E-1   -6.815442195866768E-2    1.797542651635256E-3    5.042422675138133E-3    1.864526805356710E-3    5.085945366002119E-3    4.012366858333926E-1   -2.089829815834653E-1
 8.117608382750000E9     5.000968849203357E-1   -6.826558741073936E-2    1.814227882468150E-3    5.047598242613461E-3    1.851893010764195E-3    5.105041086557988E-3    4.012719349771509E-1   -2.091798178608060E-1
 8.117609461425000E9     4.998941728155478E-1   -6.850184358119858E-2    1.772029659411975E-3    5.054964287227542E-3    1.918763534934999E-3    5.109437604755046E-3    4.012676995331410E-1   -2.090987518061060E-1
 8.117610540100000E9     4.999569054441783E-1   -6.866550141125519E-2    1.790948255507200E-3    5.065588413768632E-3    1.877636890545748E-3    5.134895502217216E-3    4.012706354002846E-1   -2.092001217060420E-1
 8.117611618775000E9     4.999562985560618E-1   -6.877856397180065E-2    1.818476502694181E-3    5.059862622767562E-3    1.836424053376037E-3    5.121302328579161E-3    4.011236743914644E-1   -2.091933213363749E-1
 8.117612697450000E9     4.999955353805114E-1   -6.892377814815008E-2    1.816020743851498E-3    5.070833658645434E-3    1.865986481861193E-3    5.141109701295009E-3    4.010729541811006E-1   -2.093720357635685E-1
 8.117613776125000E9     4.998321952508710E-1   -6.901585829839682E-2    1.817460691420837E-3    5.090196142967619E-3    1.904839227419287E-3    5.137622021040331E-3    4.010844049738330E-1   -2.093673553705793E-1
 8.117614854800000E9     4.997843053855040E-1   -6.921377793871218E-2    1.833043595594422E-3    5.091517306932366E-3    1.903955529037189E-3    5.158733875689633E-3    4.010840537370358E-1   -2.094954779125555E-1
 8.117615933475000E9     4.998257457214764E-1   -6.922372174794771E-2    1.825915285703680E-3    5.095900096711628E-3    1.897295751098528E-3    5.211974025956164E-3    4.010038352672662E-1   -2.095073448713712E-1
 8.117617012150000E9     4.998163045070446E-1   -6.951818424205156E-2    1.845816932818230E-3    5.114748512425547E-3    1.938848157939848E-3    5.184498560470052E-3    4.009406349227351E-1   -2.095926075855147E-1
 8.117618090825000E9     4.998223489764331E-1   -6.950027836810001E-2    1.829723994395651E-3    5.110101577275020E-3    1.951508687314811E-3    5.213475424404439E-3    4.009974049488507E-1   -2.096463855676866E-1
 8.117619169500000E9     4.997698490680141E-1   -6.962530432964258E-2    1.868758611009671E-3    5.138547177079141E-3    1.933090771551549E-3    5.218016094465859E-3    4.008657440749271E-1   -2.098056266790380E-1
 8.117620248175000E9     4.995800704054700E-1   -6.981531844382489E-2    1.865347449228221E-3    5.151077755468566E-3    1.930864744064221E-3    5.231669638466956E-3    4.008350168557930E-1   -2.097084344217409E-1
 8.117621326850000E9     4.996684834389395E-1   -6.995304541425042E-2    1.857850212704347E-3    5.145472768037613E-3    1.923094288129429E-3    5.251408212713317E-3    4.008270810077402E-1   -2.096846727331187E-1
 8.117622405525000E9     4.996363860599383E-1   -7.009339557035475E-2    1.870258245663393E-3    5.184019198234939E-3    1.945690409451412E-3    5.275986556343606E-3    4.007803637319676E-1   -2.099640019316157E-1
 8.117623484200000E9     4.996133879191766E-1   -7.019351792618238E-2    1.903378713375811E-3    5.203645168634489E-3    1.993555407591104E-3    5.258058080710343E-3    4.008576797741947E-1   -2.101171686061274E-1
 8.117624562875000E9     4.995835638167251E-1   -7.036133116456431E-2    1.900096186549830E-3    5.187913340461524E-3    1.987369798268581E-3    5.254606037862757E-3    4.007710576502839E-1   -2.101630106043544E-1
 8.117625641550000E9     4.994751633328545E-1   -7.045993304099903E-2    1.892633117592575E-3    5.199690566916192E-3    1.964434540592418E-3    5.287419351612087E-3    4.006854138260722E-1   -2.101829159783536E-1
 8.117626720225000E9     4.995799860449229E-1   -7.060150806139383E-2    1.896399761163277E-3    5.236614402035213E-3    1.987404820317337E-3    5.283405085085249E-3    4.007557279402480E-1   -2.101798541332608E-1
 8.117627798900000E9     4.994582854018919E-1   -7.087063566314097E-2    1.919779058883525E-3    5.236165868322107E-3    2.026908704327088E-3    5.336845878576738E-3    4.006676813048412E-1   -2.102456333064763E-1
 8.117628877575000E9     4.994727736473108E-1   -7.084486776623300E-2    1.936360572950812E-3    5.234244669811916E-3    1.978767562389631E-3    5.305913450732315E-3    4.006800365345789E-1   -2.103295261236146E-1
 8.117629956250000E9     4.993712407637785E-1   -7.106835914227549E-2    1.927805374177407E-3    5.256976981056869E-3    1.993601905967271E-3    5.329672333507193E-3    4.007053428154343E-1   -2.104729418734418E-1
 8.117631034925000E9     4.992603617033248E-1   -7.126480248708850E-2    1.923058646099216E-3    5.270652104218150E-3    2.049708186105737E-3    5.372694605756398E-3    4.005341503682059E-1   -2.105938388885906E-1
 8.117632113600000E9     4.993383979840028E-1   -7.131056428096773E-2    1.938377257351665E-3    5.281265275904824E-3    2.041409243650628E-3    5.378586485981257E-3    4.005143921352038E-1   -2.105881638835613E-1
 8.117633192275000E9     4.992779572422561E-1   -7.151309451865315E-2    1.946486038523259E-3    5.297449677756549E-3    2.022625779584786E-3    5.378873449344199E-3    4.005496504189959E-1   -2.106847971728570E-1
 8.117634270950000E9     4.992614123954772E-1   -7.170805025241264E-2    1.934538507616765E-3    5.306440149526866E-3    2.061284655949075E-3    5.387705525523027E-3    4.005873305564369E-1   -2.107092403191972E-1
 8.117635349625000E9     4.993198648957706E-1   -7.180103162549407E-2    1.967179488544506E-3    5.302464923577153E-3    2.029228682090625E-3    5.393390845186230E-3    4.005332481143959E-1   -2.107071732364598E-1
 8.117636428300000E9     4.992389278044683E-1   -7.187766778489234E-2    1.975374701488791E-3    5.310176499579602E-3    2.067797963880941E-3    5.399339576527894E-3    4.003744409569940E-1   -2.108415100243748E-1
 8.117637506975000E9     4.990968861017757E-1   -7.195177635310730E-2    1.976622017466408E-3    5.340599978799265E-3    2.072999406964483E-3    5.374247123387368E-3    4.003775467932367E-1   -2.108698624342316E-1
 8.117638585650000E9     4.991660856696585E-1   -7.215872848262261E-2    2.015224856845774E-3    5.342340362483785E-3    2.078752789792278E-3    5.423352443034252E-3    4.003428896197098E-1   -2.110409452337206E-1
 8.117639664325000E9     4.990978601279932E-1   -7.230409820104387E-2    2.001607301305165E-3    5.353471005322843E-3    2.099086022440174E-3    5.420645022600515E-3    4.002765913037013E-1   -2.110345020852476E-1
 8.117640743000000E9     4.990563290937365E-1   -7.247081225029789E-2    2.014612074469353E-3    5.382745596797682E-3    2.074399582005114E-3    5.468216467830739E-3    4.001147134415283E-1   -2.110495894411661E-1
 8.117641821675000E9     4.990129617628173E-1   -7.262508482535568E-2    2.011367195600614E-3    5.353370705881301E-3    2.103694702780171E-3    5.445122510724887E-3    4.002734587216926E-1   -2.112180931169766E-1
 8.117642900350000E9     4.989637486562572E-1   -7.272297996556751E-2    2.020987936712399E-3    5.370584029630736E-3    2.091987615673216E-3    5.475509852785034E-3    4.002672845945210E-1   -2.112741114064389E-1
 8.117643979025000E9     4.989800129098268E-1   -7.300086329987131E-2    2.039884380275889E-3    5.400056938015015E-3    2.117721157468426E-3    5.507530314598639E-3    4.000587800786918E-1   -2.112452974015069E-1
 8.117645057700000E9     4.989928468548115E-1   -7.305119582336199E-2    2.020894586973706E-3    5.399980560747119E-3    2.157826497995547E-3    5.509448534157622E-3    4.002966428525542E-1   -2.115653405133890E-1
 8.117646136375000E9     4.988275885232840E-1   -7.319352595751701E-2    2.041927489947929E-3    5.429852832718371E-3    2.192935178166358E-3    5.521817077624168E-3    4.000939606762301E-1   -2.116413547633947E-1
 8.117647215050000E9     4.988399696108711E-1   -7.336615528205534E-2    2.056730865755556E-3    5.446130742831634E-3    2.177878973588998E-3    5.538850134641334E-3    3.999591778210291E-1   -2.116009309941036E-1
 8.117648293725000E9     4.987997389327973E-1   -7.350257227287836E-2    2.079080472808764E-3    5.453360549809343E-3    2.205179032748084E-3    5.527020413995816E-3    4.000707131744640E-1   -2.115887781716423E-1
 8.117649372400000E9     4.986429974469502E-1   -7.361460053671195E-2    2.084934825645453E-3    5.486225513053495E-3    2.181655350299252E-3    5.555710384643267E-3    3.999335666245354E-1   -2.117148512718722E-1
 8.117650451075000E9     4.986374801513719E-1   -7.384511617521977E-2    2.063477226137870E-3    5.471423028442544E-3    2.205217845693258E-3    5.590253507766013E-3    3.998917311983008E-1   -2.117566641870361E-1
 8.117651529750000E9     4.987532396410825E-1   -7.398221915803742E-2    2.095613133953222E-3    5.503366972236076E-3    2.167292209612416E-3    5.592959377861952E-3    3.997978023915474E-1   -2.118259612964285E-1
 8.117652608425000E9     4.985847669116243E-1   -7.414103763365637E-2    2.114062743584230E-3    5.515330890311533E-3    2.239109619367280E-3    5.606757200663938E-3    3.998933256537520E-1   -2.119581926863104E-1
 8.117653687100000E9     4.986151835928527E-1   -7.420020757657105E-2    2.128110087040769E-3    5.562623553877545E-3    2.218799386063423E-3    5.600918699610852E-3    3.997897441725972E-1   -2.120397691603203E-1
 8.117654765775000E9     4.984286667190608E-1   -7.438422068990501E-2    2.135663150927374E-3    5.534748493005674E-3    2.220932871302766E-3    5.638299732911855E-3    3.997055617919167E-1   -2.121004822162471E-1
 8.117655844450000E9     4.985041390777499E-1   -7.467085079808441E-2    2.138849529962278E-3    5.572910513059511E-3    2.220714858996535E-3    5.643014666483336E-3    3.998073366230614E-1   -2.121984135575077E-1
 8.117656923125000E9     4.984094438774221E-1   -7.461410494482515E-2    2.153416585374130E-3    5.553088839464776E-3    2.232585840101101E-3    5.672460505624211E-3    3.995454677073118E-1   -2.122036395818473E-1
 8.117658001800000E9     4.984345618207304E-1   -7.490574315709632E-2    2.144325147677799E-3    5.585809308950445E-3    2.256448888373553E-3    5.696416651430084E-3    3.996975499153156E-1   -2.122462723039247E-1
 8.117659080475000E9     4.982933022948717E-1   -7.509725131454380E-2    2.168944262572858E-3    5.620603605248899E-3    2.252863145642080E-3    5.707428967627679E-3    3.996964990840386E-1   -2.122537693513627E-1
 8.117660159150000E9     4.982648550013520E-1   -7.517803089380805E-2    2.193053705103856E-3    5.620350010737117E-3    2.303275936680813E-3    5.697094847208482E-3    3.996111557948213E-1   -2.124532330631846E-1
 8.117661237825000E9     4.982183021288196E-1   -7.538401923429647E-2    2.184451709203386E-3    5.655501635310458E-3    2.300652173259818E-3    5.717586730044297E-3    3.995126315607775E-1   -2.125325590095873E-1
 8.117662316500000E9     4.981699236262112E-1   -7.548156191697029E-2    2.187414291465341E-3    5.677534847098990E-3    2.317490436506503E-3    5.761307180893937E-3    3.995484198643938E-1   -2.125136890680367E-1
 8.117663395175000E9     4.980856808436140E-1   -7.573337782260786E-2    2.229197257318986E-3    5.684229011391656E-3    2.327279219761740E-3    5.763449596907051E-3    3.995619349662782E-1   -2.126380175765319E-1
 8.117664473850000E9     4.979855530575049E-1   -7.576529035844894E-2    2.230614985613469E-3    5.704886489812679E-3    2.350667636106808E-3    5.798145198485182E-3    3.995697896194630E-1   -2.126988189287028E-1
 8.117665552525000E9     4.979341510331690E-1   -7.595704452122327E-2    2.230318233073765E-3    5.738717772830074E-3    2.349389125892422E-3    5.765442746876822E-3    3.994097418785778E-1   -2.126303916793140E-1
 8.117666631200000E9     4.978865046624086E-1   -7.612626296531537E-2    2.236556378764473E-3    5.746682888600203E-3    2.376914005985821E-3    5.790754721573564E-3    3.994438049698875E-1   -2.128705441422352E-1
 8.117667709875000E9     4.978923914024394E-1   -7.649592183845742E-2    2.250928691492325E-3    5.747916597126066E-3    2.364419964658950E-3    5.820313809085189E-3    3.992685558225886E-1   -2.129652250572757E-1
 8.117668788550000E9     4.979216264220783E-1   -7.666128300535592E-2    2.272667884595804E-3    5.742622020670989E-3    2.401923221075258E-3    5.872023648052730E-3    3.993839947817364E-1   -2.131010100161062E-1
 8.117669867225000E9     4.977733109463827E-1   -7.672368428603864E-2    2.298715542419728E-3    5.770651445798814E-3    2.369987538686042E-3    5.880967680596793E-3    3.994013898925227E-1   -2.130399568525344E-1
 8.117670945900000E9     4.976385167623373E-1   -7.679858895504789E-2    2.304880961900248E-3    5.789563487545632E-3    2.439917835694967E-3    5.898918360262267E-3    3.992539504715638E-1   -2.131556079213408E-1
 8.117672024575000E9     4.977455512406908E-1   -7.709151924065664E-2    2.330122866441235E-3    5.811789010445758E-3    2.433784820544788E-3    5.933930569798881E-3    3.992287566833045E-1   -2.131212526894609E-1
 8.117673103250000E9     4.976485863311961E-1   -7.724425305125526E-2    2.343172985173001E-3    5.858113214501359E-3    2.458265282221902E-3    5.921347976205605E-3    3.991073904888340E-1   -2.132332455617797E-1
 8.117674181925000E9     4.974980419619445E-1   -7.751485636333093E-2    2.321404661322754E-3    5.858080253846916E-3    2.466175218905294E-3    5.924318744022326E-3    3.991723771952301E-1   -2.133021001284318E-1
 8.117675260600000E9     4.975339261861428E-1   -7.760798759807237E-2    2.345091404211214E-3    5.861490473033716E-3    2.458240018738718E-3    5.929978526557494E-3    3.990497159601211E-1   -2.133350915310150E-1
 8.117676339275000E9     4.974311596806738E-1   -7.776808422071958E-2    2.385829086535811E-3    5.898986071815914E-3    2.478824598838366E-3    5.982023505720243E-3    3.989027787516836E-1   -2.135857624556545E-1
 8.117677417950000E9     4.973776488732822E-1   -7.787088495674332E-2    2.389254950252801E-3    5.885129490724172E-3    2.499001845784567E-3    6.009639301561928E-3    3.990148693559077E-1   -2.136204003680053E-1
 8.117678496625000E9     4.972235810391789E-1   -7.813808374386266E-2    2.409307644034559E-3    5.938365126777142E-3    2.523791149138450E-3    6.019492397196461E-3    3.988491985885066E-1   -2.137545847597986E-1
 8.117679575300000E9     4.972543101452210E-1   -7.826526939001512E-2    2.435351053846835E-3    5.954595377409032E-3    2.529619737578725E-3    6.045106143022509E-3    3.989270401701829E-1   -2.137127361279433E-1
 8.117680653975000E9     4.972062045928765E-1   -7.859853299566034E-2    2.427596496758619E-3    5.958171959217461E-3    2.523494294916511E-3    6.062099654180058E-3    3.989142491270422E-1   -2.137861580770185E-1
 8.117681732650000E9     4.971338624737957E-1   -7.860733126281126E-2    2.465219026363460E-3    5.973327687955901E-3    2.534376582178442E-3    6.087561584243873E-3    3.988283642717277E-1   -2.139114396665556E-1
 8.117682811325000E9     4.970491395594765E-1   -7.879695205982989E-2    2.470806864434991E-3    6.009884088562503E-3    2.571871885403815E-3    6.117048481702867E-3    3.988113785623971E-1   -2.139182371048587E-1
 8.117683890000000E9     4.968948095324003E-1   -7.894914453725882E-2    2.482796058580266E-3    6.035843475845014E-3    2.583095534019261E-3    6.132386109436273E-3    3.987292148209634E-1   -2.140591415236738E-1
 8.117684968675000E9     4.969129994826559E-1   -7.920146049917219E-2    2.495925813979118E-3    6.044936360401886E-3    2.613824222761839E-3    6.158560053648051E-3    3.988451179464256E-1   -2.139580746640250E-1
 8.117686047350000E9     4.968787052506943E-1   -7.944843386859529E-2    2.526907259345334E-3    6.073547270545121E-3    2.621357127022526E-3    6.166397255066080E-3    3.987575912657330E-1   -2.140719651558035E-1
 8.117687126025000E9     4.966896240924752E-1   -7.963898955761181E-2    2.549124532557334E-3    6.099933878304900E-3    2.662564899504192E-3    6.198770699825522E-3    3.986409925982798E-1   -2.142418837401689E-1
 8.117688204700000E9     4.967775798759082E-1   -7.986277098928030E-2    2.547754547429805E-3    6.096562545113630E-3    2.626721156864082E-3    6.197647781852669E-3    3.985601286573953E-1   -2.142914252231054E-1
 8.117689283375000E9     4.966001148384767E-1   -7.997968672541972E-2    2.569310074500008E-3    6.119128398438496E-3    2.703281569013419E-3    6.270460549051928E-3    3.985496040327891E-1   -2.142956823245524E-1
 8.117690362050000E9     4.964065408330547E-1   -8.026324422245769E-2    2.574760345939622E-3    6.155073595415915E-3    2.698178501534363E-3    6.241616424812205E-3    3.985624628409456E-1   -2.143554097236258E-1
 8.117691440725000E9     4.964496505338919E-1   -8.052373335307213E-2    2.612288721304189E-3    6.195479553951872E-3    2.717645627243641E-3    6.292666071678464E-3    3.985111177751379E-1   -2.145857168315318E-1
 8.117692519400000E9     4.963660139853358E-1   -8.059663675020294E-2    2.611777554184916E-3    6.215559837718244E-3    2.757020267049083E-3    6.294735950130179E-3    3.985480717856290E-1   -2.146119850245145E-1
 8.117693598075000E9     4.962042378370946E-1   -8.075804239071335E-2    2.615552301024996E-3    6.225091655737567E-3    2.760335997016520E-3    6.338540937780227E-3    3.985462647408710E-1   -2.146495753421211E-1
 8.117694676750000E9     4.962454358329787E-1   -8.101941230393432E-2    2.651250363726757E-3    6.252327506264582E-3    2.776876644861672E-3    6.363251628447638E-3    3.982463825556576E-1   -2.148961430478409E-1
