#  HZ   S   RI   R     50.00 
! Rohde & Schwarz Vector Network Analyzer 
! Rohde-Schwarz,ZNB20-2Port,1311601062101988,3.16
! Created: UTC 12/23/2023, 3:55:39 AM
! freq[Hz]                re:S11                  im:S11                  re:S21                  im:S21                  re:S12                  im:S12                  re:S22                  im:S22
 6.516962851000000E9    -2.304456271720388E-1   -1.780284353187764E-2    1.297037246605079E-2   -5.067571606229356E-3    1.316235875056955E-2   -4.712910671383811E-3    2.005166852938070E-1    5.101922380697407E-1
 6.516974878425000E9    -2.303656103970389E-1   -1.770197554949743E-2    1.312348901867287E-2   -5.152106512183806E-3    1.325247282447807E-2   -4.763816908528461E-3    2.013288396415518E-1    5.098405150253378E-1
 6.516986905850000E9    -2.302335449224432E-1   -1.751428014523115E-2    1.318744104171981E-2   -5.332419367745848E-3    1.335813821613180E-2   -4.851172212605118E-3    2.023474115984355E-1    5.096442238946425E-1
 6.516998933275000E9    -2.300836521815648E-1   -1.734531159030089E-2    1.323766947923659E-2   -5.326437647986250E-3    1.337762894411200E-2   -4.853303817053432E-3    2.032568187860718E-1    5.092635642874485E-1
 6.517010960700000E9    -2.299195088388431E-1   -1.711659158922308E-2    1.327540268598641E-2   -5.403407149211184E-3    1.336988751773203E-2   -4.901726372126014E-3    2.041702190097875E-1    5.088985829015139E-1
 6.517022988125000E9    -2.299101356187019E-1   -1.685988840686444E-2    1.333942620351437E-2   -5.458062936893274E-3    1.345588262960628E-2   -5.036646251784130E-3    2.049436402086203E-1    5.085066257398768E-1
 6.517035015550000E9    -2.296629728044471E-1   -1.674699540610120E-2    1.334090914513339E-2   -5.561684617543907E-3    1.340438825224027E-2   -5.088919334102830E-3    2.059707497176251E-1    5.082234628448146E-1
 6.517047042975000E9    -2.296512947960610E-1   -1.675424086029016E-2    1.345518119549642E-2   -5.449342707149657E-3    1.350004691552537E-2   -5.084981081794107E-3    2.067162523743397E-1    5.079102850943367E-1
 6.517059070400000E9    -2.294907436459973E-1   -1.638554441170213E-2    1.349105164969904E-2   -5.590431443799409E-3    1.359551208737775E-2   -5.198655159455089E-3    2.076396003212758E-1    5.076156136776773E-1
 6.517071097825000E9    -2.293938568678861E-1   -1.623120457284773E-2    1.346195215832758E-2   -5.518381719706497E-3    1.370668647705007E-2   -5.149128887859500E-3    2.085981901664382E-1    5.071675585800123E-1
 6.517083125250000E9    -2.292642589031164E-1   -1.588397087416787E-2    1.355832463266987E-2   -5.589943933384779E-3    1.371661316609677E-2   -5.131699180524677E-3    2.093959074074077E-1    5.068239080010893E-1
 6.517095152675000E9    -2.291174542016090E-1   -1.583741878626959E-2    1.380132144573590E-2   -5.739685056230012E-3    1.382134411983250E-2   -5.163462440137828E-3    2.103385083893400E-1    5.064460846793177E-1
 6.517107180100000E9    -2.290274174927118E-1   -1.570367243848565E-2    1.371895268856889E-2   -5.876558317577703E-3    1.384718659684751E-2   -5.346726297503167E-3    2.111141613417726E-1    5.059278593219434E-1
 6.517119207525000E9    -2.288943126098472E-1   -1.538609838968818E-2    1.373837096690460E-2   -5.806399286334564E-3    1.386740979411077E-2   -5.440631689119018E-3    2.121120131988265E-1    5.058260986735510E-1
 6.517131234950000E9    -2.288246283009255E-1   -1.532630892396046E-2    1.381298079236483E-2   -6.010758932712123E-3    1.394363996688108E-2   -5.525787413639840E-3    2.130132040532309E-1    5.053287571188649E-1
 6.517143262375000E9    -2.286634407346633E-1   -1.513874005983994E-2    1.386183202970399E-2   -6.016201749169208E-3    1.393904459866523E-2   -5.493875954885618E-3    2.139560846089033E-1    5.050853200358072E-1
 6.517155289800000E9    -2.285056522386549E-1   -1.495472640477332E-2    1.397876239127548E-2   -6.095769182167487E-3    1.404875642734190E-2   -5.556820739831973E-3    2.147925521505609E-1    5.046593449365435E-1
 6.517167317225000E9    -2.283953957063715E-1   -1.483649987638240E-2    1.400109587734205E-2   -6.061232690155902E-3    1.412509853098918E-2   -5.751742074914162E-3    2.156284574910533E-1    5.043684676621232E-1
 6.517179344650000E9    -2.282535670730777E-1   -1.461353173668640E-2    1.393937608694323E-2   -6.226398204110764E-3    1.412890417755481E-2   -5.684174681789778E-3    2.164722008768176E-1    5.038251291371502E-1
 6.517191372075000E9    -2.280080073479801E-1   -1.433389346468670E-2    1.418886687237173E-2   -6.276163394125961E-3    1.417153646665562E-2   -5.781809234681675E-3    2.173173426914533E-1    5.035714902221403E-1
 6.517203399500000E9    -2.279373001139393E-1   -1.426042458738923E-2    1.422020239207162E-2   -6.348557317342703E-3    1.441347322982443E-2   -5.863740649374364E-3    2.183385663083079E-1    5.032108583902759E-1
 6.517215426925000E9    -2.277805434244614E-1   -1.406025018456367E-2    1.416726193462136E-2   -6.411743423658462E-3    1.442735823811945E-2   -6.014967027427295E-3    2.192466813094903E-1    5.026927875627728E-1
 6.517227454350000E9    -2.277267369030060E-1   -1.374734272127948E-2    1.429088623972405E-2   -6.590914525926637E-3    1.452487152861875E-2   -5.975387459482943E-3    2.200781703695069E-1    5.024391755418346E-1
 6.517239481775000E9    -2.276670804582127E-1   -1.364664653406151E-2    1.435704566282909E-2   -6.542286384344936E-3    1.448724096224497E-2   -6.000619772928824E-3    2.210412983473785E-1    5.020421021633611E-1
 6.517251509200000E9    -2.273925776737152E-1   -1.346313981892073E-2    1.442768832504744E-2   -6.472878329842712E-3    1.468446681673494E-2   -6.056512118981224E-3    2.219579742382717E-1    5.015654730384640E-1
 6.517263536625000E9    -2.273183118542011E-1   -1.329390659309469E-2    1.444983400430596E-2   -6.615393414864595E-3    1.462969880152212E-2   -6.204129918169002E-3    2.227643796261905E-1    5.012203179858529E-1
 6.517275564050000E9    -2.272459092441858E-1   -1.308145953079241E-2    1.457013196766291E-2   -6.682351530384068E-3    1.465202681078778E-2   -6.117793530474198E-3    2.235065820866052E-1    5.010310466764097E-1
 6.517287591475000E9    -2.269817725813980E-1   -1.303420353735613E-2    1.461428026985244E-2   -6.853544818603449E-3    1.479835944865197E-2   -6.282283338875387E-3    2.245092211274191E-1    5.004532348810489E-1
 6.517299618900000E9    -2.268476892920948E-1   -1.280233111602339E-2    1.467743701508707E-2   -6.868211507922268E-3    1.494104502854952E-2   -6.266083858289649E-3    2.254009511859003E-1    5.001561909607223E-1
 6.517311646325000E9    -2.267510479734756E-1   -1.268277584679252E-2    1.471934772547901E-2   -6.855790410995038E-3    1.492939255068083E-2   -6.334644288450598E-3    2.263587862430159E-1    4.996868040742212E-1
 6.517323673750000E9    -2.266137151107030E-1   -1.243028338211655E-2    1.482096540621187E-2   -6.857403484852012E-3    1.504340345568947E-2   -6.434994170528605E-3    2.272654677316120E-1    4.994514597124718E-1
 6.517335701175000E9    -2.264931795495470E-1   -1.230929787310773E-2    1.497758329811688E-2   -6.988002755676855E-3    1.507695632558775E-2   -6.530665308144210E-3    2.281656431897197E-1    4.990691122117363E-1
 6.517347728600000E9    -2.262479781420039E-1   -1.204214348427536E-2    1.496794142800170E-2   -7.101204350334928E-3    1.518795279715036E-2   -6.585263619177021E-3    2.289450843507453E-1    4.986255587696266E-1
 6.517359756025000E9    -2.261933310754032E-1   -1.198457378990147E-2    1.494241597615466E-2   -7.133586006749178E-3    1.520344377198898E-2   -6.691910246939746E-3    2.298966129772796E-1    4.981278522727467E-1
 6.517371783450000E9    -2.260496206121095E-1   -1.173322023688778E-2    1.513485199805722E-2   -7.226160007241229E-3    1.529337510181558E-2   -6.667515165156909E-3    2.307378192265640E-1    4.977143882564422E-1
 6.517383810875000E9    -2.258999819926563E-1   -1.163484081163796E-2    1.529188690023147E-2   -7.263539837490267E-3    1.535933085149051E-2   -6.803873827690978E-3    2.316122452059105E-1    4.973502655122569E-1
 6.517395838300000E9    -2.257559469107763E-1   -1.146030943430615E-2    1.517830448006490E-2   -7.276380750098397E-3    1.544164504526917E-2   -6.899105349409590E-3    2.326584319368236E-1    4.969970706699595E-1
 6.517407865725000E9    -2.255738564025287E-1   -1.145023985338310E-2    1.538268031575049E-2   -7.446097553190372E-3    1.548095446389072E-2   -6.980877589047728E-3    2.332682062182518E-1    4.965765990869393E-1
 6.517419893150000E9    -2.254515537620305E-1   -1.117345338918070E-2    1.548930434329704E-2   -7.688227752750046E-3    1.558691113783323E-2   -6.995017381878925E-3    2.342743588596233E-1    4.960828033542480E-1
 6.517431920575000E9    -2.252912582220379E-1   -1.101572777875365E-2    1.550627785603436E-2   -7.654842938277060E-3    1.564055628137495E-2   -7.082240570652616E-3    2.351409968184054E-1    4.957994969642224E-1
 6.517443948000000E9    -2.250546056957869E-1   -1.087762952946174E-2    1.556357307732499E-2   -7.715725262520586E-3    1.572112800924255E-2   -7.135515280588783E-3    2.362085338678112E-1    4.953194304960741E-1
 6.517455975425000E9    -2.248785454469990E-1   -1.068971567467269E-2    1.563667036338173E-2   -7.793626565561774E-3    1.594472752528507E-2   -7.267413994984263E-3    2.370183791507132E-1    4.947915231988658E-1
 6.517468002850000E9    -2.247788998474534E-1   -1.041064846651409E-2    1.575955217463976E-2   -7.855888847594108E-3    1.588596362335263E-2   -7.401728616869774E-3    2.378229951734107E-1    4.945401743126051E-1
 6.517480030275000E9    -2.245834372014661E-1   -1.038081274381504E-2    1.574275480188797E-2   -7.866066830767232E-3    1.596396640245512E-2   -7.352669294588370E-3    2.387784469657439E-1    4.940373226666657E-1
 6.517492057700000E9    -2.244569534655722E-1   -1.018722737321298E-2    1.587483697941989E-2   -8.129780321498300E-3    1.614688350980336E-2   -7.446096096840036E-3    2.398357368589002E-1    4.935557179038392E-1
 6.517504085125000E9    -2.243044134345636E-1   -1.010703866895605E-2    1.594364714283034E-2   -8.166088448723156E-3    1.621732801781952E-2   -7.653222307029984E-3    2.404832864964191E-1    4.931474683944855E-1
 6.517516112550000E9    -2.241277296098333E-1   -9.814910442802718E-3    1.606098526014892E-2   -8.194179182914154E-3    1.628683165421312E-2   -7.734106460695700E-3    2.414643426135844E-1    4.926283848646654E-1
 6.517528139975000E9    -2.241071107385320E-1   -9.754885444517997E-3    1.610456629121762E-2   -8.222823006666293E-3    1.637292003030876E-2   -7.809842289244205E-3    2.423016930815043E-1    4.923421816243386E-1
 6.517540167400000E9    -2.238757950878268E-1   -9.529446765683579E-3    1.600925219888127E-2   -8.412486146273821E-3    1.635219981034407E-2   -7.901671896900471E-3    2.431601785239899E-1    4.918014022741363E-1
 6.517552194825000E9    -2.237212152271748E-1   -9.507171463083252E-3    1.626779700715624E-2   -8.423584335637927E-3    1.645214248369225E-2   -7.853083814740926E-3    2.441283124504243E-1    4.914017423485409E-1
 6.517564222250000E9    -2.234735406004458E-1   -9.390461993470290E-3    1.640879710976886E-2   -8.526039658681395E-3    1.657914895299603E-2   -8.077903986418791E-3    2.449310604823494E-1    4.910097503668048E-1
 6.517576249675000E9    -2.233885078233228E-1   -9.127508349798370E-3    1.643682598252726E-2   -8.665433358041225E-3    1.662606103567903E-2   -8.113714603554865E-3    2.457971580249283E-1    4.905807617839001E-1
 6.517588277100000E9    -2.231014635999289E-1   -9.081611460224197E-3    1.658302727559302E-2   -8.807841948955826E-3    1.673088540347354E-2   -8.174053510270046E-3    2.466707368959007E-1    4.899321021554692E-1
 6.517600304525000E9    -2.229750815792071E-1   -8.978619022009965E-3    1.663932869828367E-2   -8.877713902171834E-3    1.687162429886301E-2   -8.234900170926244E-3    2.476997927308552E-1    4.896755762585906E-1
 6.517612331950000E9    -2.229560538592217E-1   -8.817092697625865E-3    1.664258316224303E-2   -9.084890546503591E-3    1.695465555148436E-2   -8.465829883134188E-3    2.487227207553853E-1    4.891887233699055E-1
 6.517624359375000E9    -2.227163667003716E-1   -8.644844942399194E-3    1.680002059033169E-2   -9.193033339316614E-3    1.697137965605517E-2   -8.430979500744749E-3    2.493943448597901E-1    4.887600771614559E-1
 6.517636386800000E9    -2.224594874929464E-1   -8.461970376684860E-3    1.690479560356402E-2   -9.175297786486840E-3    1.716794386666152E-2   -8.672815106948352E-3    2.502848319761170E-1    4.882845591652613E-1
 6.517648414225000E9    -2.224255954602070E-1   -8.401487513580922E-3    1.691734847304812E-2   -9.319889236390634E-3    1.714455198381535E-2   -8.718494300651407E-3    2.511136963244720E-1    4.878870928744134E-1
 6.517660441650000E9    -2.221526433825585E-1   -8.257598297887770E-3    1.701756781320859E-2   -9.405035534654825E-3    1.733616055714330E-2   -8.762523620331175E-3    2.520652551072738E-1    4.873910521251402E-1
 6.517672469075000E9    -2.219228661710637E-1   -8.101058274811354E-3    1.713963324434407E-2   -9.388082842289600E-3    1.744793347302191E-2   -8.869418334608643E-3    2.530138717919142E-1    4.868298196645657E-1
 6.517684496500000E9    -2.217263972942177E-1   -7.991777430799655E-3    1.722429776405595E-2   -9.557443896085779E-3    1.749481253018017E-2   -9.080414527185339E-3    2.538477508314932E-1    4.864421337639673E-1
 6.517696523925000E9    -2.216357657007132E-1   -7.921999862733920E-3    1.736617179471665E-2   -9.680148604178778E-3    1.766674930033630E-2   -9.055704221595811E-3    2.547651333060350E-1    4.859644341897011E-1
 6.517708551350000E9    -2.213588530318120E-1   -7.836459241862045E-3    1.750162088311088E-2   -9.893970823422126E-3    1.764744745420936E-2   -9.279683901077831E-3    2.556933744231463E-1    4.854395940783118E-1
 6.517720578775000E9    -2.212388692051472E-1   -7.484140091758280E-3    1.764381171994793E-2   -9.918994316743734E-3    1.784908004962727E-2   -9.336638003973861E-3    2.566675527625675E-1    4.849062830772116E-1
 6.517732606200000E9    -2.211003439759855E-1   -7.556165974991763E-3    1.761546096114626E-2   -9.992678434637589E-3    1.789924380656283E-2   -9.378803918749111E-3    2.573711816058282E-1    4.844946418107424E-1
 6.517744633625000E9    -2.207523469490068E-1   -7.362042301535430E-3    1.770562630900303E-2   -1.020639938997540E-2    1.806570552750143E-2   -9.566202064469625E-3    2.582919845652517E-1    4.840791351457360E-1
 6.517756661050000E9    -2.206724880273938E-1   -7.228036032089540E-3    1.787404133799986E-2   -1.024710630373444E-2    1.810520189886084E-2   -9.646841785174496E-3    2.590469876282034E-1    4.835800621129170E-1
 6.517768688475000E9    -2.204021421646307E-1   -7.069252202637603E-3    1.795807624590867E-2   -1.050108458164479E-2    1.827195159393501E-2   -9.833442253756236E-3    2.601281134851436E-1    4.831748220816136E-1
 6.517780715900000E9    -2.202457790806077E-1   -7.020140001529173E-3    1.806542509046889E-2   -1.038059812241196E-2    1.827788557268600E-2   -9.931709799574886E-3    2.610172769189923E-1    4.825792060265108E-1
 6.517792743325000E9    -2.201159716369578E-1   -6.834445755176541E-3    1.815007975622883E-2   -1.056583838099629E-2    1.843202172737191E-2   -1.002070941497634E-2    2.617479230827984E-1    4.819959937561945E-1
 6.517804770750000E9    -2.197591917184965E-1   -6.942003714796753E-3    1.818025815772978E-2   -1.076669266102430E-2    1.856583619329061E-2   -1.019939599783999E-2    2.628228212202674E-1    4.816498527341173E-1
 6.517816798175000E9    -2.196502164791197E-1   -6.865707251443624E-3    1.824704732953325E-2   -1.080510662978844E-2    1.865499611000057E-2   -1.035658726478807E-2    2.636902471828765E-1    4.811562924994326E-1
 6.517828825600000E9    -2.195350844575752E-1   -6.558273703812817E-3    1.834799221126443E-2   -1.089150609818814E-2    1.866340429336596E-2   -1.036733766773314E-2    2.645985018243234E-1    4.805628469963251E-1
 6.517840853025000E9    -2.192567913500139E-1   -6.543222520154044E-3    1.859330981968389E-2   -1.105591352890730E-2    1.882049900811204E-2   -1.056949164721572E-2    2.654719538239271E-1    4.800001993128913E-1
 6.517852880450000E9    -2.191146879750820E-1   -6.421561361608056E-3    1.866747308195511E-2   -1.134264632867333E-2    1.902711060907054E-2   -1.067144919320110E-2    2.662865746847884E-1    4.795765687688200E-1
 6.517864907875000E9    -2.188612840449131E-1   -6.226666710687282E-3    1.875380534944672E-2   -1.152723042230325E-2    1.911437833926621E-2   -1.084388944744535E-2    2.672731768289264E-1    4.789615802614061E-1
 6.517876935300000E9    -2.185731483513084E-1   -6.271439716801013E-3    1.888147810724721E-2   -1.160572691664628E-2    1.923789182291161E-2   -1.103609282825687E-2    2.680499205333035E-1    4.784550129720565E-1
 6.517888962725000E9    -2.183937504867525E-1   -6.130920813396337E-3    1.901398615943190E-2   -1.170324043342568E-2    1.934172767108196E-2   -1.104833556390129E-2    2.689988709658647E-1    4.778831702540474E-1
 6.517900990150000E9    -2.181525196817997E-1   -6.082224844063618E-3    1.917381992506286E-2   -1.189132336743233E-2    1.942056563330106E-2   -1.116596847703095E-2    2.699598563538940E-1    4.774105043999510E-1
 6.517913017575000E9    -2.179202465825261E-1   -5.994442038248128E-3    1.929804069098992E-2   -1.204100794548064E-2    1.970965692278803E-2   -1.141226983540076E-2    2.707514861820149E-1    4.769496964776451E-1
 6.517925045000000E9    -2.177960012541351E-1   -5.803675109900644E-3    1.940288775626746E-2   -1.219860289935117E-2    1.980168230510313E-2   -1.148779857189853E-2    2.717949591558497E-1    4.764404111832848E-1
 6.517937072425000E9    -2.176098239944767E-1   -5.772321567496564E-3    1.937578115836738E-2   -1.232467903610520E-2    1.982796393705350E-2   -1.167812369548342E-2    2.727168048064170E-1    4.758227358105340E-1
 6.517949099850000E9    -2.173818603957743E-1   -5.644398342813088E-3    1.970808661561017E-2   -1.246065190990603E-2    1.995095492167619E-2   -1.175489972257108E-2    2.735399018620566E-1    4.754776516285303E-1
 6.517961127275000E9    -2.171087340165205E-1   -5.697063106250668E-3    1.975402391429760E-2   -1.247888122122721E-2    2.015817732784521E-2   -1.193042638883481E-2    2.744232757663885E-1    4.749041264415195E-1
 6.517973154700000E9    -2.168565967236337E-1   -5.650699770314674E-3    1.991069130828738E-2   -1.260032027886850E-2    2.022087974193070E-2   -1.206766088623190E-2    2.752691884080555E-1    4.743432284206004E-1
 6.517985182125000E9    -2.167106271515269E-1   -5.522273329633404E-3    1.989047773390813E-2   -1.286578533205970E-2    2.028083302610159E-2   -1.224124957143448E-2    2.763476155737813E-1    4.736486936432608E-1
 6.517997209550000E9    -2.164133044162322E-1   -5.467426124238318E-3    2.003017944696384E-2   -1.316320235506489E-2    2.056767669164361E-2   -1.231915787573149E-2    2.770178002021630E-1    4.732552737915949E-1
 6.518009236975000E9    -2.161002954251406E-1   -5.391348040296220E-3    2.022240237045507E-2   -1.335553673050281E-2    2.064890782355602E-2   -1.263295410234577E-2    2.780324970242551E-1    4.726115401524683E-1
 6.518021264400000E9    -2.158854746781364E-1   -5.356373700143828E-3    2.027488000975734E-2   -1.337990687358065E-2    2.077739749612425E-2   -1.273374371078370E-2    2.789930085069066E-1    4.719197087269438E-1
 6.518033291825000E9    -2.156396056268092E-1   -5.123901950499637E-3    2.045483069266531E-2   -1.348496790844794E-2    2.089599783009053E-2   -1.288349509863967E-2    2.797933351769170E-1    4.714913506148183E-1
 6.518045319250000E9    -2.155456578701092E-1   -5.197538369762544E-3    2.048319326546283E-2   -1.376720513084395E-2    2.105197645243948E-2   -1.301226060083147E-2    2.806624574123803E-1    4.706979971892061E-1
