#  HZ   S   RI   R     50.00 
! Rohde & Schwarz Vector Network Analyzer 
! Rohde-Schwarz,ZNB20-2Port,1311601062101988,3.16
! Created: UTC 12/23/2023, 3:55:40 AM
! freq[Hz]                re:S11                  im:S11                  re:S21                  im:S21                  re:S12                  im:S12                  re:S22                  im:S22
 1.000982061200000E+10  -3.756298048156845E-1    3.533165357541854E-1   -1.848458753887783E-2   -1.283945355457982E-2   -1.718065089902789E-2   -1.326761348189697E-2   -1.926943515298679E-1    4.813877272462512E-1
 1.000983263245000E+10  -3.749803822203100E-1    3.540034695712131E-1   -1.855773125633647E-2   -1.280807062464071E-2   -1.723480190201200E-2   -1.328160650813439E-2   -1.919871290531143E-1    4.815929790326222E-1
 1.000984465290000E+10  -3.741685087720456E-1    3.547817299818848E-1   -1.870883640685473E-2   -1.296169226486844E-2   -1.738501335511681E-2   -1.344374807514795E-2   -1.912531178126512E-1    4.819202548842966E-1
 1.000985667335000E+10  -3.735980321507193E-1    3.556171551379704E-1   -1.887760571688201E-2   -1.297915718767021E-2   -1.753854114074471E-2   -1.344665967277431E-2   -1.905431152255722E-1    4.821795043259061E-1
 1.000986869380000E+10  -3.728511813515777E-1    3.563821192751329E-1   -1.893858420193131E-2   -1.274382515873976E-2   -1.738204970736736E-2   -1.337007213447644E-2   -1.896896041545791E-1    4.823509912796239E-1
 1.000988071425000E+10  -3.721671542603105E-1    3.569402308490888E-1   -1.903495342958105E-2   -1.283842044567701E-2   -1.751474752950657E-2   -1.344745503222800E-2   -1.890255968363220E-1    4.827641679882964E-1
 1.000989273470000E+10  -3.714745968467059E-1    3.578486356215390E-1   -1.910945858300683E-2   -1.292656681943776E-2   -1.770929018338151E-2   -1.347089671900176E-2   -1.882719517713431E-1    4.831023962438934E-1
 1.000990475515000E+10  -3.707848042159280E-1    3.585132465928182E-1   -1.919126217673616E-2   -1.301365775809597E-2   -1.789745616550943E-2   -1.356497351147417E-2   -1.876406394140447E-1    4.834949714386709E-1
 1.000991677560000E+10  -3.699783220439260E-1    3.593643639049958E-1   -1.932988649374292E-2   -1.290884553449488E-2   -1.805886451486925E-2   -1.343186246258404E-2   -1.867667902214319E-1    4.838101732126306E-1
 1.000992879605000E+10  -3.693542598233884E-1    3.600614282254717E-1   -1.950203027855992E-2   -1.284227249372879E-2   -1.808059711843280E-2   -1.340683834265058E-2   -1.859324974299945E-1    4.840053305629840E-1
 1.000994081650000E+10  -3.685816342147955E-1    3.607229540388579E-1   -1.962491690116328E-2   -1.287489056472150E-2   -1.819992817847283E-2   -1.345141784842342E-2   -1.852695563008679E-1    4.843305678568465E-1
 1.000995283695000E+10  -3.677665186007869E-1    3.615877945851461E-1   -1.967490134072159E-2   -1.299073042154948E-2   -1.826778714935597E-2   -1.357952742645498E-2   -1.845462443763408E-1    4.845772260645523E-1
 1.000996485740000E+10  -3.672100881566788E-1    3.623412458028907E-1   -1.978230090701765E-2   -1.301202364183988E-2   -1.837803191921097E-2   -1.352810767856143E-2   -1.838315953787538E-1    4.848835064356887E-1
 1.000997687785000E+10  -3.663077118113369E-1    3.629759950325490E-1   -1.980426603449073E-2   -1.309156327963697E-2   -1.841676493686327E-2   -1.342719443019039E-2   -1.831615883629061E-1    4.851014043305235E-1
 1.000998889830000E+10  -3.656586638575982E-1    3.638379881492785E-1   -1.994662702726597E-2   -1.303214311150785E-2   -1.859033657822483E-2   -1.367429816674859E-2   -1.823907997629066E-1    4.855050739653218E-1
 1.001000091875000E+10  -3.649876363712984E-1    3.643984723693590E-1   -2.015623778302654E-2   -1.315129861487581E-2   -1.874723928234546E-2   -1.354480822475584E-2   -1.815532593655035E-1    4.858002301508186E-1
 1.001001293920000E+10  -3.642633784378170E-1    3.653123482328917E-1   -2.018240140216169E-2   -1.311284085421877E-2   -1.880638235465695E-2   -1.366993696296097E-2   -1.807874400645180E-1    4.861577878559336E-1
 1.001002495965000E+10  -3.635005796469213E-1    3.659366163352055E-1   -2.029492239038266E-2   -1.310808887898960E-2   -1.896091002337185E-2   -1.352933115680214E-2   -1.800594160164252E-1    4.863228486650671E-1
 1.001003698010000E+10  -3.627305806467327E-1    3.666949828500109E-1   -2.051039903278686E-2   -1.313511238533731E-2   -1.902252534013616E-2   -1.359391646261388E-2   -1.794490500771991E-1    4.866539989140835E-1
 1.001004900055000E+10  -3.619289957704738E-1    3.675386099297194E-1   -2.044806879440160E-2   -1.319331858181238E-2   -1.912332378353447E-2   -1.363424371930078E-2   -1.785834645993528E-1    4.870512588156632E-1
 1.001006102100000E+10  -3.612567369582376E-1    3.681992175659817E-1   -2.057002440043972E-2   -1.317705063603563E-2   -1.922448779378862E-2   -1.359643591157307E-2   -1.778199422870416E-1    4.872427679586687E-1
 1.001007304145000E+10  -3.605065164252828E-1    3.688883001041273E-1   -2.070116631524952E-2   -1.330742397679226E-2   -1.945206086408786E-2   -1.370215906830727E-2   -1.771356280325657E-1    4.875514136691881E-1
 1.001008506190000E+10  -3.595817479541419E-1    3.697988555794899E-1   -2.081857755475048E-2   -1.328359194165686E-2   -1.936749856676330E-2   -1.367956778626406E-2   -1.764158657908279E-1    4.878762265175919E-1
 1.001009708235000E+10  -3.588509241451688E-1    3.704296579674956E-1   -2.103522649938940E-2   -1.318870883668497E-2   -1.962189485306327E-2   -1.364098426284535E-2   -1.756232393435608E-1    4.882844938750533E-1
 1.001010910280000E+10  -3.580563421456986E-1    3.712585807499935E-1   -2.101570866211556E-2   -1.309222356040208E-2   -1.972417649354093E-2   -1.370407525846571E-2   -1.747475167246123E-1    4.883287528238516E-1
 1.001012112325000E+10  -3.573478592497730E-1    3.721143541767587E-1   -2.124406555810393E-2   -1.327880015986863E-2   -1.979821226921252E-2   -1.381210662420220E-2   -1.741281609431141E-1    4.886706161786017E-1
 1.001013314370000E+10  -3.565274299642416E-1    3.727803862749958E-1   -2.133357853566220E-2   -1.328140454943622E-2   -1.980156685665111E-2   -1.379054984699777E-2   -1.732881352699766E-1    4.889682097899137E-1
 1.001014516415000E+10  -3.558051504500225E-1    3.734725946234791E-1   -2.148472561875942E-2   -1.330120892733213E-2   -1.987695803900436E-2   -1.376630690495749E-2   -1.725356895069084E-1    4.893439851788607E-1
 1.001015718460000E+10  -3.550172033587987E-1    3.742984088185164E-1   -2.163043371629628E-2   -1.333044813348300E-2   -2.030225337539851E-2   -1.360078563578021E-2   -1.718398687130338E-1    4.895329407915748E-1
 1.001016920505000E+10  -3.542678570690109E-1    3.750356498687530E-1   -2.176737562885936E-2   -1.340951931884060E-2   -2.022793027877971E-2   -1.371588798815436E-2   -1.710985672418071E-1    4.898740457145644E-1
 1.001018122550000E+10  -3.535158649057238E-1    3.756530794807408E-1   -2.179502086650560E-2   -1.334839782903748E-2   -2.035879488393739E-2   -1.393650640998768E-2   -1.702893235624100E-1    4.900396049530864E-1
 1.001019324595000E+10  -3.526761683522076E-1    3.765185738821380E-1   -2.204618998234036E-2   -1.345395349352499E-2   -2.049471368884431E-2   -1.374729859025776E-2   -1.696459621298029E-1    4.904456776272688E-1
 1.001020526640000E+10  -3.518831316554035E-1    3.773054999622188E-1   -2.204322918071751E-2   -1.342122989582923E-2   -2.063623498904450E-2   -1.389183277360642E-2   -1.686176323677085E-1    4.906907642331168E-1
 1.001021728685000E+10  -3.510864437553181E-1    3.779086882621778E-1   -2.237174759420283E-2   -1.336544149311360E-2   -2.065460571911493E-2   -1.403853440545991E-2   -1.678948407047143E-1    4.908743984032820E-1
 1.001022930730000E+10  -3.502436957053640E-1    3.786677920370261E-1   -2.246226880006118E-2   -1.336937852451080E-2   -2.087495920597375E-2   -1.389701694078336E-2   -1.672273096083303E-1    4.912466003720161E-1
 1.001024132775000E+10  -3.495006464439812E-1    3.794838808333083E-1   -2.251145623235935E-2   -1.338675590079244E-2   -2.102572917956520E-2   -1.392751323338017E-2   -1.664317045051753E-1    4.913617708151101E-1
 1.001025334820000E+10  -3.485905828368828E-1    3.800234084757314E-1   -2.260467471014306E-2   -1.344578520647619E-2   -2.119264124411051E-2   -1.398084591229574E-2   -1.656386586640744E-1    4.916447998055582E-1
 1.001026536865000E+10  -3.479112763381040E-1    3.810064973987220E-1   -2.292321913351579E-2   -1.339607263439439E-2   -2.126710587912497E-2   -1.404054524514415E-2   -1.649059157642281E-1    4.919858587510849E-1
 1.001027738910000E+10  -3.468292010567898E-1    3.817410733417214E-1   -2.310941927779512E-2   -1.337725009943655E-2   -2.148351157898492E-2   -1.405969187224456E-2   -1.642198925958850E-1    4.922506059493058E-1
 1.001028940955000E+10  -3.460801913271923E-1    3.824919078919231E-1   -2.329119687142786E-2   -1.332948829898812E-2   -2.147063171620345E-2   -1.411648987752468E-2   -1.633484966953744E-1    4.925531018721483E-1
 1.001030143000000E+10  -3.452907522564623E-1    3.831729129258229E-1   -2.325988991588365E-2   -1.352021306275230E-2   -2.171703503652223E-2   -1.407756005830226E-2   -1.626937778389546E-1    4.928152304972626E-1
 1.001031345045000E+10  -3.444410079376445E-1    3.838410359895855E-1   -2.343572037984459E-2   -1.336189750707052E-2   -2.182179064582205E-2   -1.402729266299937E-2   -1.618139280746728E-1    4.929630976735964E-1
 1.001032547090000E+10  -3.435368039738552E-1    3.847084146420167E-1   -2.357186803850382E-2   -1.356218862738186E-2   -2.194893211679427E-2   -1.403699030456562E-2   -1.610460881019087E-1    4.932383482769593E-1
 1.001033749135000E+10  -3.426665347746207E-1    3.855785759123611E-1   -2.386973485647132E-2   -1.344169369236750E-2   -2.216628410324753E-2   -1.417883526343271E-2   -1.603681901731242E-1    4.935293682608591E-1
 1.001034951180000E+10  -3.417645299597075E-1    3.861421039588949E-1   -2.387559055872262E-2   -1.364605196303218E-2   -2.226046404404860E-2   -1.427551938522422E-2   -1.595012890645100E-1    4.938812962622088E-1
 1.001036153225000E+10  -3.409256371016496E-1    3.869753481837360E-1   -2.399257227555807E-2   -1.358761143962774E-2   -2.235545451348414E-2   -1.426900789297665E-2   -1.587272329706953E-1    4.940183554079912E-1
 1.001037355270000E+10  -3.400044354040346E-1    3.877891090704921E-1   -2.402223685949929E-2   -1.370932045505565E-2   -2.248900995037379E-2   -1.436043655069487E-2   -1.580377052091673E-1    4.943174021761382E-1
 1.001038557315000E+10  -3.391643154810020E-1    3.884546312580832E-1   -2.431128842726951E-2   -1.361613144673755E-2   -2.283730678187682E-2   -1.429330236416940E-2   -1.572488745129934E-1    4.945830852732283E-1
 1.001039759360000E+10  -3.382939439536906E-1    3.890703547655467E-1   -2.444552087840738E-2   -1.361870256671706E-2   -2.286372332873212E-2   -1.420901612034915E-2   -1.563517168303147E-1    4.948085935025436E-1
 1.001040961405000E+10  -3.373415251520757E-1    3.899934290516768E-1   -2.466720399742940E-2   -1.356221893539396E-2   -2.310960881719831E-2   -1.423104254494518E-2   -1.557791727558068E-1    4.951555829530460E-1
 1.001042163450000E+10  -3.364763994966244E-1    3.908206594527932E-1   -2.473621796768367E-2   -1.362153695885974E-2   -2.318944921834850E-2   -1.417919697506492E-2   -1.548773523774287E-1    4.954202416403115E-1
 1.001043365495000E+10  -3.355931960482733E-1    3.914750584087269E-1   -2.497000549037388E-2   -1.358358520791987E-2   -2.330816643693722E-2   -1.433510097386386E-2   -1.541099131413964E-1    4.955126907790592E-1
 1.001044567540000E+10  -3.347368538275257E-1    3.921620306611535E-1   -2.504486841050268E-2   -1.367249907243219E-2   -2.349744217908288E-2   -1.434850701238562E-2   -1.533352324164186E-1    4.958401621202779E-1
 1.001045769585000E+10  -3.337790700987494E-1    3.931279317373891E-1   -2.537820239917154E-2   -1.361357643797248E-2   -2.358558799461097E-2   -1.442881737312819E-2   -1.526546162442414E-1    4.960253182004528E-1
 1.001046971630000E+10  -3.329211862654371E-1    3.938609987486514E-1   -2.561991957148364E-2   -1.362646929378769E-2   -2.375985982589722E-2   -1.438835520686979E-2   -1.517114824294030E-1    4.963963018471121E-1
 1.001048173675000E+10  -3.318630476201997E-1    3.945110502134399E-1   -2.576013349302006E-2   -1.353751470140788E-2   -2.390835623397330E-2   -1.438248388041216E-2   -1.509435341545733E-1    4.965999000323194E-1
 1.001049375720000E+10  -3.309160131862725E-1    3.952738295648326E-1   -2.581898697650489E-2   -1.368458128213488E-2   -2.416712533926139E-2   -1.434909464209336E-2   -1.502112929426160E-1    4.968644447300271E-1
 1.001050577765000E+10  -3.300157426645416E-1    3.960413595209615E-1   -2.598306494845646E-2   -1.368799471689884E-2   -2.425885621207438E-2   -1.441722839422024E-2   -1.494395207338432E-1    4.971681468394533E-1
 1.001051779810000E+10  -3.289624610420794E-1    3.968865122147308E-1   -2.621502641890113E-2   -1.378446494462414E-2   -2.455236123687426E-2   -1.449526391978796E-2   -1.487233353272541E-1    4.975161680635351E-1
 1.001052981855000E+10  -3.280775303492421E-1    3.976487478303262E-1   -2.624478312660057E-2   -1.389642886382649E-2   -2.464155239538574E-2   -1.447958253304944E-2   -1.478054381940571E-1    4.975119100233394E-1
 1.001054183900000E+10  -3.270885422402944E-1    3.984164106086831E-1   -2.647768037949740E-2   -1.389691615365807E-2   -2.498855444647876E-2   -1.440259364060171E-2   -1.470828362596694E-1    4.977877860475874E-1
 1.001055385945000E+10  -3.261149422069872E-1    3.991301433588677E-1   -2.675343919658204E-2   -1.382367960552244E-2   -2.507018122366157E-2   -1.446808650922707E-2   -1.461868522866966E-1    4.979591652922334E-1
 1.001056587990000E+10  -3.251843323588908E-1    3.999321215636636E-1   -2.694211829925125E-2   -1.389100192617192E-2   -2.521661413066314E-2   -1.453702930797651E-2   -1.455591111225886E-1    4.981440946376041E-1
 1.001057790035000E+10  -3.242057858125856E-1    4.005989478008916E-1   -2.706561116207197E-2   -1.386434070009885E-2   -2.531621270359427E-2   -1.458407613154719E-2   -1.447907080250203E-1    4.984593708211891E-1
 1.001058992080000E+10  -3.232515913836919E-1    4.013989483893074E-1   -2.729908050142064E-2   -1.389191895931709E-2   -2.565194667602115E-2   -1.454140312035883E-2   -1.438468427327784E-1    4.985839684807258E-1
 1.001060194125000E+10  -3.222236349738476E-1    4.020984366224686E-1   -2.761441717795225E-2   -1.379223156006520E-2   -2.580772118944435E-2   -1.462988297688812E-2   -1.430733792403947E-1    4.989711918370213E-1
 1.001061396170000E+10  -3.211881873345902E-1    4.029577715008887E-1   -2.775140948005115E-2   -1.387612447955059E-2   -2.599994376477189E-2   -1.461696137155783E-2   -1.422299739761307E-1    4.991509222290029E-1
 1.001062598215000E+10  -3.201985016332832E-1    4.037141236756941E-1   -2.801157765598231E-2   -1.379414033942893E-2   -2.623379126474206E-2   -1.462368853323358E-2   -1.413741359215600E-1    4.993591345909157E-1
 1.001063800260000E+10  -3.190610100586336E-1    4.044322795490479E-1   -2.811317609872794E-2   -1.366657067863577E-2   -2.638453171211293E-2   -1.470962544321971E-2   -1.407333591692065E-1    4.994341259116055E-1
 1.001065002305000E+10  -3.181326992028091E-1    4.053042889002031E-1   -2.838264382224668E-2   -1.390605146603964E-2   -2.662471815420965E-2   -1.470285076574724E-2   -1.398632997112198E-1    4.998943394079409E-1
 1.001066204350000E+10  -3.170028579579072E-1    4.059817719945674E-1   -2.878393371033604E-2   -1.373213624444050E-2   -2.674218649617224E-2   -1.477002384683879E-2   -1.390998158682162E-1    5.000693633191329E-1
 1.001067406395000E+10  -3.159787460113587E-1    4.067730153363562E-1   -2.890457075300331E-2   -1.392930778937334E-2   -2.706175662862851E-2   -1.471522598869100E-2   -1.382186156799483E-1    5.003792895032950E-1
 1.001068608440000E+10  -3.151367235953714E-1    4.074936194847297E-1   -2.893210021057111E-2   -1.402848004256642E-2   -2.715766547666061E-2   -1.479828895918445E-2   -1.375210583706707E-1    5.004031718229082E-1
 1.001069810485000E+10  -3.138967204244345E-1    4.084118662502667E-1   -2.920459594829094E-2   -1.394720493016441E-2   -2.748233917727806E-2   -1.473913312508685E-2   -1.365844458482991E-1    5.007126433723905E-1
 1.001071012530000E+10  -3.128550077302110E-1    4.090798706253335E-1   -2.929021084243608E-2   -1.393367777666192E-2   -2.764594616255667E-2   -1.493709742989294E-2   -1.358012107285689E-1    5.009239403456814E-1
 1.001072214575000E+10  -3.115844175983435E-1    4.098330298288270E-1   -2.956879177306810E-2   -1.399235262962923E-2   -2.780986640319602E-2   -1.486636719763947E-2   -1.350039440705768E-1    5.012006184102699E-1
 1.001073416620000E+10  -3.104969929723096E-1    4.106717713394736E-1   -2.988067291917827E-2   -1.398052039102785E-2   -2.815417283157472E-2   -1.482707987238013E-2   -1.342657976803205E-1    5.014412281800431E-1
 1.001074618665000E+10  -3.096123013449265E-1    4.113610585258652E-1   -3.022498711916443E-2   -1.400113015362441E-2   -2.830389718673442E-2   -1.488754554417853E-2   -1.333626242719370E-1    5.016120046323338E-1
 1.001075820710000E+10  -3.083075349721451E-1    4.121528377569817E-1   -3.046142521433618E-2   -1.398541332653962E-2   -2.857944178429228E-2   -1.479820971122092E-2   -1.326039283548739E-1    5.018075277266648E-1
 1.001077022755000E+10  -3.072131111961948E-1    4.129934053116921E-1   -3.057029722724664E-2   -1.394198425208764E-2   -2.882509136299901E-2   -1.476045751683783E-2   -1.317214470900239E-1    5.018730893676276E-1
 1.001078224800000E+10  -3.060148695655540E-1    4.137046407931690E-1   -3.103254982669327E-2   -1.391300291480181E-2   -2.915245534115166E-2   -1.489185724197791E-2   -1.309054281420682E-1    5.021278746838749E-1
 1.001079426845000E+10  -3.048048214416346E-1    4.145858875532889E-1   -3.116745930205318E-2   -1.396895920577364E-2   -2.932398219827351E-2   -1.501150002256539E-2   -1.301084943962836E-1    5.024643734749782E-1
 1.001080628890000E+10  -3.037370275157534E-1    4.153713463261848E-1   -3.148535522921984E-2   -1.400057547176847E-2   -2.950979231545202E-2   -1.500020307206328E-2   -1.293443558075635E-1    5.026395731958530E-1
 1.001081830935000E+10  -3.023660924255627E-1    4.162348438314654E-1   -3.167971449254915E-2   -1.410138180911313E-2   -2.977724100292440E-2   -1.515925391223261E-2   -1.283741165112553E-1    5.029087178051417E-1
 1.001083032980000E+10  -3.012598836824217E-1    4.169723754193584E-1   -3.204314999703942E-2   -1.395186838854484E-2   -2.997004396329773E-2   -1.496877616891963E-2   -1.275566982093685E-1    5.029706849622654E-1
 1.001084235025000E+10  -3.001681403522258E-1    4.177747234485258E-1   -3.225387996209306E-2   -1.394859940928469E-2   -3.036633612468454E-2   -1.503980848615263E-2   -1.269197709159559E-1    5.032669741227835E-1
 1.001085437070000E+10  -2.989545844036177E-1    4.183959031440390E-1   -3.249359922328897E-2   -1.400754602360963E-2   -3.062449754309798E-2   -1.505945864081684E-2   -1.259621496550956E-1    5.035726275544822E-1
 1.001086639115000E+10  -2.976270906513337E-1    4.191460265198437E-1   -3.273771101202689E-2   -1.410390852015531E-2   -3.083256012039558E-2   -1.510790465890300E-2   -1.249718381417541E-1    5.036612694942025E-1
 1.001087841160000E+10  -2.962786962473136E-1    4.200925416399290E-1   -3.311777218504935E-2   -1.413612030263696E-2   -3.111169880449595E-2   -1.513463693352870E-2   -1.244094492606924E-1    5.037958136611094E-1
 1.001089043205000E+10  -2.952212142225829E-1    4.206966574385688E-1   -3.333444212481273E-2   -1.426706150241185E-2   -3.119656374663432E-2   -1.523162271527918E-2   -1.234782676281940E-1    5.039156327102206E-1
 1.001090245250000E+10  -2.938648998318015E-1    4.215229622501607E-1   -3.359614508645036E-2   -1.411991295677359E-2   -3.161972469887114E-2   -1.510648673876544E-2   -1.225696639055297E-1    5.042544923254735E-1
