#  HZ   S   RI   R     50.00 
! Rohde & Schwarz Vector Network Analyzer 
! Rohde-Schwarz,ZNB20-2Port,1311601062101988,3.16
! Created: UTC 3/20/2024, 11:45:40 AM
! freq[Hz]                re:S11                  im:S11                  re:S21                  im:S21                  re:S12                  im:S12                  re:S22                  im:S22
 8.116630829000000E9     5.065109837440850E-1    1.123452567772382E-2    6.054129303049042E-4    3.606850242230130E-3    6.711906419372293E-4    3.649139457994292E-3    4.261415018042220E-1   -1.447263095044908E-1
 8.116635535125000E9     5.066943637219519E-1    1.091931074347467E-2    5.966744007009400E-4    3.597050508278837E-3    6.197382052568073E-4    3.663697573117623E-3    4.260999066384071E-1   -1.447424533858759E-1
 8.116640241250000E9     5.067196756858507E-1    1.058535136051333E-2    6.098614711803863E-4    3.627473888850129E-3    6.135708058117358E-4    3.669979056978470E-3    4.260791902275841E-1   -1.453197137644432E-1
 8.116644947375000E9     5.066820803342131E-1    1.004045260529340E-2    5.816783363709299E-4    3.596594303687782E-3    6.793042960856484E-4    3.649340243038176E-3    4.259940872030735E-1   -1.456188030597998E-1
 8.116649653500000E9     5.066649205535936E-1    9.745679879103408E-3    6.288957777047829E-4    3.614069751952260E-3    6.768646964184135E-4    3.649882376114809E-3    4.258444139385967E-1   -1.459152299652612E-1
 8.116654359625000E9     5.067192055440786E-1    9.416999517081715E-3    6.135621991229761E-4    3.598999428942725E-3    6.497177148770241E-4    3.666471403931804E-3    4.257757854480765E-1   -1.460663377836402E-1
 8.116659065750000E9     5.067188826036969E-1    9.080152948962991E-3    6.197538031935751E-4    3.627007162768428E-3    7.021771890143872E-4    3.677805081037353E-3    4.257076921676934E-1   -1.464420863713693E-1
 8.116663771875000E9     5.066481432884694E-1    8.742242987563141E-3    6.121027945686780E-4    3.592328749254927E-3    6.706332901668950E-4    3.670737547181370E-3    4.256231172539604E-1   -1.467010371679280E-1
 8.116668478000000E9     5.066749763801166E-1    8.234983692546716E-3    6.415320120853193E-4    3.626739196290903E-3    6.862883211182800E-4    3.650911000471663E-3    4.254698666362849E-1   -1.471069366057393E-1
 8.116673184125000E9     5.066715643745695E-1    7.960226153766747E-3    6.453054494899305E-4    3.636103313690252E-3    6.795684888957024E-4    3.681115058224610E-3    4.254420797775082E-1   -1.473660195469837E-1
 8.116677890250000E9     5.067238980367840E-1    7.602016567981960E-3    6.091679555611585E-4    3.627470251040597E-3    6.959398796380831E-4    3.655137193507930E-3    4.252992835217460E-1   -1.476838463868648E-1
 8.116682596375000E9     5.065430641877297E-1    7.218587703589369E-3    6.220036126526636E-4    3.639441025242297E-3    6.941810018392366E-4    3.664120478945630E-3    4.252233559479227E-1   -1.479739622551163E-1
 8.116687302500000E9     5.066205548016102E-1    6.953252763152232E-3    6.474344874098877E-4    3.633503078268282E-3    6.846121566120467E-4    3.694121568551625E-3    4.251222615175755E-1   -1.484717800830466E-1
 8.116692008625000E9     5.066623681729447E-1    6.527805461751604E-3    6.375458059324835E-4    3.608967452625502E-3    6.986904620704933E-4    3.681706305078056E-3    4.250204920009312E-1   -1.485476411722584E-1
 8.116696714750000E9     5.066909765706814E-1    6.162084722275308E-3    6.307000837020762E-4    3.614404993929253E-3    6.878956156179218E-4    3.679241710510765E-3    4.248849381081680E-1   -1.489132321221390E-1
 8.116701420875000E9     5.066904978713327E-1    5.726889497007411E-3    6.361952642413681E-4    3.642677301869673E-3    6.949228181509496E-4    3.682042321839483E-3    4.247695055426263E-1   -1.493550451797304E-1
 8.116706127000000E9     5.066680775017043E-1    5.472172794857546E-3    6.521436492790147E-4    3.625876959179175E-3    7.136373581467664E-4    3.704492936738375E-3    4.247193272004729E-1   -1.495289226606983E-1
 8.116710833125000E9     5.066304248178177E-1    5.079451380691282E-3    6.460223599699996E-4    3.641492939656998E-3    7.379268212687168E-4    3.708173226700470E-3    4.246315603131087E-1   -1.500569127054460E-1
 8.116715539250000E9     5.065897411050895E-1    4.830796010467106E-3    6.647057504067259E-4    3.618736051589805E-3    7.185606778141890E-4    3.687286546984699E-3    4.245749618450837E-1   -1.502878505537026E-1
 8.116720245375000E9     5.065773925322186E-1    4.447391607414339E-3    6.254528393646585E-4    3.633540553215490E-3    7.097553468183726E-4    3.686782148360149E-3    4.243841511609000E-1   -1.505443925475421E-1
 8.116724951500000E9     5.066343525547640E-1    4.055016387388698E-3    6.600532937623630E-4    3.657711323027796E-3    7.526110110476189E-4    3.693381428484555E-3    4.243970372273527E-1   -1.507813368662112E-1
 8.116729657625000E9     5.066837041094601E-1    3.666338481175832E-3    6.640326641950655E-4    3.626344117456535E-3    7.048589379089814E-4    3.686256170362843E-3    4.243374256387993E-1   -1.511448914614967E-1
 8.116734363750000E9     5.065951824830593E-1    3.348675056766416E-3    6.582500490146348E-4    3.623202602871412E-3    7.130684667083853E-4    3.667362724451120E-3    4.242434195257517E-1   -1.514692540042967E-1
 8.116739069875000E9     5.066345589956248E-1    2.858947459401616E-3    6.715295076343064E-4    3.640049525094211E-3    7.491031021078355E-4    3.695169667905085E-3    4.241627965750894E-1   -1.518714142882460E-1
 8.116743776000000E9     5.064855438655554E-1    2.573287784067832E-3    6.815908044348969E-4    3.663402505419762E-3    7.457766760173555E-4    3.714777881783613E-3    4.239693688055469E-1   -1.523102139288041E-1
 8.116748482125000E9     5.066192616354364E-1    2.156175183564339E-3    6.902651621058820E-4    3.626338995974441E-3    7.240359902536313E-4    3.725130115247577E-3    4.238884682336512E-1   -1.525381144853319E-1
 8.116753188250000E9     5.066199955289356E-1    1.816493763276003E-3    6.943438604927182E-4    3.661789762269012E-3    7.468999383239259E-4    3.708798632717563E-3    4.236789382902335E-1   -1.526185680032262E-1
 8.116757894375000E9     5.065748981637481E-1    1.569186753613939E-3    6.774971038252873E-4    3.664093027916942E-3    7.558208958295909E-4    3.707031648646466E-3    4.236553344439175E-1   -1.528677597287246E-1
 8.116762600500000E9     5.064915105714676E-1    1.028177464146594E-3    6.627899145574130E-4    3.636885255250402E-3    7.565716702511982E-4    3.744591494759901E-3    4.234200785480355E-1   -1.534479432748790E-1
 8.116767306625000E9     5.065919998636439E-1    7.891832000022588E-4    6.962626723463134E-4    3.654272267793558E-3    7.438500240475059E-4    3.724403191655516E-3    4.235009624770952E-1   -1.536574763995655E-1
 8.116772012750000E9     5.065142560451776E-1    2.842194904644391E-4    7.051731661416051E-4    3.666568596178913E-3    7.630942412811263E-4    3.715914394188590E-3    4.232844470677689E-1   -1.539306895528579E-1
 8.116776718875000E9     5.064648587342450E-1   -8.982606136450310E-6    6.944422923016853E-4    3.654043810131712E-3    7.418199286864833E-4    3.710481928435286E-3    4.232483763651433E-1   -1.542728751420070E-1
 8.116781425000000E9     5.066193559157882E-1   -3.708871456508898E-4    7.040943808275284E-4    3.642425330343562E-3    7.886594286597884E-4    3.720157975280255E-3    4.232559158081812E-1   -1.546529108195815E-1
 8.116786131125000E9     5.065569749260754E-1   -7.276835757896995E-4    6.947113755109452E-4    3.659924842441503E-3    7.415104594775261E-4    3.738948123890957E-3    4.231082246815865E-1   -1.549995034676510E-1
 8.116790837250000E9     5.064475139824253E-1   -1.132208018241705E-3    6.952818176498243E-4    3.654501679254126E-3    7.481075177830487E-4    3.720807406287339E-3    4.228873264544766E-1   -1.552481337157500E-1
 8.116795543375000E9     5.064938447929068E-1   -1.482335756322795E-3    7.007223610394355E-4    3.667630131253779E-3    7.616413986323084E-4    3.696509123436157E-3    4.230045353459527E-1   -1.556541017560610E-1
 8.116800249500000E9     5.064728203823826E-1   -1.789475081357009E-3    7.289681257546798E-4    3.656497262895295E-3    7.894342577916964E-4    3.734727510945762E-3    4.228176656683447E-1   -1.558846644647676E-1
 8.116804955625000E9     5.065218693871859E-1   -2.160616024426366E-3    7.269500262986428E-4    3.698170026258941E-3    7.938435038519900E-4    3.745941255700916E-3    4.227040668481462E-1   -1.561709441638582E-1
 8.116809661750000E9     5.065367035676397E-1   -2.492730131745374E-3    7.188475115641717E-4    3.638893252233137E-3    7.830886538130226E-4    3.716348215437299E-3    4.226681362572996E-1   -1.564590990041158E-1
 8.116814367875000E9     5.065549848102034E-1   -2.889471363132284E-3    7.299737601169176E-4    3.692111912710104E-3    8.060661353655808E-4    3.775630403605376E-3    4.224959622614319E-1   -1.566754236228440E-1
 8.116819074000000E9     5.064375364334933E-1   -3.234234085881112E-3    7.323756326461094E-4    3.675016216114748E-3    7.864259279094590E-4    3.746773635945884E-3    4.224433971908763E-1   -1.570828561207872E-1
 8.116823780125000E9     5.065280588493329E-1   -3.543692750944561E-3    7.226056316998580E-4    3.679151090068285E-3    7.803265395833766E-4    3.723661191880385E-3    4.221088963164071E-1   -1.574817467864087E-1
 8.116828486250000E9     5.064598132544066E-1   -4.069483473623852E-3    7.401914522851023E-4    3.671734295255279E-3    8.359768174371778E-4    3.753757941031604E-3    4.220934398470301E-1   -1.577918490517463E-1
 8.116833192375000E9     5.063426105067323E-1   -4.195286500271124E-3    7.452857330707634E-4    3.690295766134406E-3    7.866510167933210E-4    3.748817813855200E-3    4.220119137316097E-1   -1.581278060601315E-1
 8.116837898500000E9     5.064185283669821E-1   -4.704108176787516E-3    7.473977120740652E-4    3.687148478792281E-3    7.716906822797001E-4    3.729103813990492E-3    4.219336788110170E-1   -1.582879100072840E-1
 8.116842604625000E9     5.064188107898747E-1   -4.993808613410216E-3    7.518328005184538E-4    3.696316437636903E-3    8.198418237630289E-4    3.759421089295012E-3    4.219310064299112E-1   -1.586151031514108E-1
 8.116847310750000E9     5.064379585162460E-1   -5.318727117886568E-3    7.486404750179685E-4    3.691256975753014E-3    7.878455749911802E-4    3.760581620853461E-3    4.216546878375230E-1   -1.590309375659409E-1
 8.116852016875000E9     5.064139683560624E-1   -5.641512043423225E-3    7.365301912800123E-4    3.693708706535646E-3    8.260480883611031E-4    3.773658335237678E-3    4.215593130247547E-1   -1.593185417536492E-1
 8.116856723000000E9     5.064419943414912E-1   -6.147047250077370E-3    7.908112075017513E-4    3.706536326548470E-3    7.854914806771651E-4    3.771263713136028E-3    4.215557669884787E-1   -1.596389895037410E-1
 8.116861429125000E9     5.063890308988338E-1   -6.532656551653492E-3    7.640158292436395E-4    3.716716685534966E-3    8.155287328873079E-4    3.752962708108922E-3    4.213985446029397E-1   -1.598343608816309E-1
 8.116866135250000E9     5.063458521780778E-1   -6.887244332660357E-3    7.678445272764128E-4    3.705432417473748E-3    8.294583251213033E-4    3.798644453903694E-3    4.212692679740762E-1   -1.603002694676702E-1
 8.116870841375000E9     5.064085866353043E-1   -7.240779376814365E-3    7.820376115575062E-4    3.715942132349366E-3    8.101175794126551E-4    3.775956919894252E-3    4.210966350164174E-1   -1.605351168056061E-1
 8.116875547500000E9     5.061854992293821E-1   -7.717223910562078E-3    7.779383391922230E-4    3.714397771438069E-3    8.467915722138149E-4    3.743764289722821E-3    4.209756950341544E-1   -1.609586838543062E-1
 8.116880253625000E9     5.063356886444907E-1   -7.920635413025687E-3    7.953565963073488E-4    3.717832797273104E-3    8.239752699228141E-4    3.769718516095857E-3    4.211381975515985E-1   -1.610947833875314E-1
 8.116884959750000E9     5.062370053372413E-1   -8.371479504603756E-3    7.852655818364093E-4    3.730282974908688E-3    8.431093748080307E-4    3.730134048853622E-3    4.207796067262184E-1   -1.614462610917833E-1
 8.116889665875000E9     5.062520079196274E-1   -8.760204313290871E-3    7.938957899995602E-4    3.721451880057481E-3    8.424803220246853E-4    3.780632335258418E-3    4.208248535565476E-1   -1.616786850404201E-1
 8.116894372000000E9     5.062720376911132E-1   -8.988385728938982E-3    7.803371395279049E-4    3.722131975206149E-3    8.433964584497453E-4    3.803253410845103E-3    4.206683354554262E-1   -1.621063850756350E-1
 8.116899078125000E9     5.061973134530011E-1   -9.380438200667930E-3    7.825038635926245E-4    3.727600927807012E-3    8.582814960144560E-4    3.806181829375930E-3    4.207430955588193E-1   -1.624021841106104E-1
 8.116903784250000E9     5.062489263476897E-1   -9.730867714803160E-3    7.952371156419888E-4    3.723515090572005E-3    8.623790753377784E-4    3.790268697624994E-3    4.205395422016861E-1   -1.626403623772904E-1
 8.116908490375000E9     5.062819452282233E-1   -1.013988321457054E-2    7.766240685835805E-4    3.733982314618001E-3    8.739351391055768E-4    3.779032090391247E-3    4.203842036936117E-1   -1.630317611805821E-1
 8.116913196500000E9     5.063287298890747E-1   -1.035587871538062E-2    8.022342119448315E-4    3.718009905520382E-3    8.646000062640812E-4    3.778018201436967E-3    4.203130567394608E-1   -1.632600922626257E-1
 8.116917902625000E9     5.062025694684564E-1   -1.089524660086581E-2    8.012661396144043E-4    3.721883929227010E-3    8.943841344578588E-4    3.779607618442980E-3    4.202390895852720E-1   -1.636494996270371E-1
 8.116922608750000E9     5.062156105189033E-1   -1.121403167218244E-2    8.164465769519519E-4    3.747078190987591E-3    8.772119664788477E-4    3.791600796613613E-3    4.200181988118384E-1   -1.638608444750308E-1
 8.116927314875000E9     5.062396255159110E-1   -1.168441988340337E-2    8.317965572803726E-4    3.780332069863626E-3    8.778082548330520E-4    3.807097051888897E-3    4.201769118896329E-1   -1.641964557329775E-1
 8.116932021000000E9     5.060888507700172E-1   -1.200016477329043E-2    8.122226188235496E-4    3.747153903675545E-3    9.169151940412026E-4    3.805175564642382E-3    4.197796789497671E-1   -1.645246136550041E-1
 8.116936727125000E9     5.060478016746321E-1   -1.234007382927521E-2    8.353651635164619E-4    3.747196002570707E-3    9.057834134013869E-4    3.809120169405422E-3    4.197139844563565E-1   -1.649034481753888E-1
 8.116941433250000E9     5.060850759987282E-1   -1.267243524520285E-2    8.619524585120460E-4    3.774477123663134E-3    9.205429462793342E-4    3.804535116177988E-3    4.197252747021689E-1   -1.651520477789708E-1
 8.116946139375000E9     5.060794575961363E-1   -1.309271848449924E-2    8.546961465055596E-4    3.745230511146472E-3    8.872315951824781E-4    3.807592887039408E-3    4.196468084967983E-1   -1.654606047061162E-1
 8.116950845500000E9     5.061136629738087E-1   -1.344404921134144E-2    8.729939787579581E-4    3.761486081432899E-3    9.083327404854632E-4    3.821437456630300E-3    4.194250825632278E-1   -1.658380544614823E-1
 8.116955551625000E9     5.061804066503967E-1   -1.389943320083624E-2    8.263299736052103E-4    3.759697001346679E-3    9.143988207507743E-4    3.832030232448892E-3    4.193473967594921E-1   -1.660469555146940E-1
 8.116960257750000E9     5.059416406602419E-1   -1.424683196747458E-2    8.827192019680165E-4    3.789801878792813E-3    8.984855425068796E-4    3.846038776393943E-3    4.192160802610991E-1   -1.663822997140521E-1
 8.116964963875000E9     5.060224666974975E-1   -1.463954471696898E-2    8.554922134856316E-4    3.759851118305512E-3    8.956678456058349E-4    3.828747969092294E-3    4.190806722724032E-1   -1.667029991981500E-1
 8.116969670000000E9     5.060131695860979E-1   -1.493857343662125E-2    8.617077488327438E-4    3.794673236926871E-3    9.388499993154407E-4    3.839625997239457E-3    4.190320432761719E-1   -1.670148490131881E-1
 8.116974376125000E9     5.060566781969592E-1   -1.524389370070103E-2    8.431167839153478E-4    3.775636053842376E-3    9.427877833645308E-4    3.854587528040599E-3    4.188317992605721E-1   -1.673462192169541E-1
 8.116979082250000E9     5.058754589786221E-1   -1.566404312429535E-2    9.075843126265885E-4    3.792102234103280E-3    9.391183782401607E-4    3.820395805471974E-3    4.187330033051812E-1   -1.676797943345248E-1
 8.116983788375000E9     5.059574036186290E-1   -1.608513351704311E-2    8.912500823559843E-4    3.784348391276093E-3    9.484162970226310E-4    3.851411498089913E-3    4.185389369849274E-1   -1.678888766644655E-1
 8.116988494500000E9     5.058144945874449E-1   -1.642437638457404E-2    8.895975487597898E-4    3.778221185412704E-3    9.415503288923073E-4    3.849676596866267E-3    4.185156197107617E-1   -1.682820561173334E-1
 8.116993200625000E9     5.058402881518884E-1   -1.673606400813571E-2    8.812588590571426E-4    3.798112505044865E-3    9.350401412735769E-4    3.855922089999715E-3    4.185240447576731E-1   -1.686451769418978E-1
 8.116997906750000E9     5.058501033351317E-1   -1.714650168398600E-2    9.022307135831543E-4    3.815420075523398E-3    9.317524279373021E-4    3.872535702640262E-3    4.181700212491465E-1   -1.688015839293732E-1
 8.117002612875000E9     5.058526733017349E-1   -1.751558288351232E-2    9.122779994010870E-4    3.802129643643071E-3    9.622965993464779E-4    3.878716920261286E-3    4.182067763990197E-1   -1.692149440349796E-1
 8.117007319000000E9     5.058052592358819E-1   -1.789414575205320E-2    8.989856641361324E-4    3.800476584251832E-3    9.483041789161336E-4    3.873131474094652E-3    4.180044683061239E-1   -1.695160347915552E-1
 8.117012025125000E9     5.057031609112448E-1   -1.834427618034838E-2    9.040745187439220E-4    3.812653182896414E-3    9.478212138208116E-4    3.869500916980790E-3    4.180273253170606E-1   -1.699021885133998E-1
 8.117016731250000E9     5.057034993070390E-1   -1.866679981216165E-2    9.162130242572026E-4    3.828030277058605E-3    9.291561174040021E-4    3.880533579269060E-3    4.178397014998065E-1   -1.700387635178362E-1
 8.117021437375000E9     5.058432345447090E-1   -1.901895657812477E-2    8.937056793488064E-4    3.824175278194936E-3    9.549313583100245E-4    3.872931336651999E-3    4.177311485731195E-1   -1.703653330425886E-1
 8.117026143500000E9     5.057816485671710E-1   -1.938777000420667E-2    9.511714190322363E-4    3.807678330569603E-3    9.303451691919156E-4    3.861947791178532E-3    4.177214982610623E-1   -1.707608043214243E-1
 8.117030849625000E9     5.055725968129684E-1   -1.972029195213499E-2    9.131469525080277E-4    3.836173841495469E-3    9.937619765839588E-4    3.908547984824662E-3    4.175942129924969E-1   -1.710063466477325E-1
 8.117035555750000E9     5.056587302882921E-1   -2.015636494085832E-2    9.361592264400538E-4    3.833236857746713E-3    9.907485202862384E-4    3.928743740127440E-3    4.174515318463721E-1   -1.712999714024088E-1
 8.117040261875000E9     5.055988336617498E-1   -2.039563012831106E-2    9.479723563739214E-4    3.842758035886122E-3    1.009782815631982E-3    3.929477777723351E-3    4.173975278785633E-1   -1.716297304202974E-1
 8.117044968000000E9     5.057378802810004E-1   -2.080232953989745E-2    9.134238474934421E-4    3.848869547881163E-3    9.905962971582629E-4    3.878442514627181E-3    4.172313320364979E-1   -1.720131882386557E-1
 8.117049674125000E9     5.055654470521660E-1   -2.119144194375090E-2    9.347334872820484E-4    3.853076688210229E-3    1.012703603984306E-3    3.908144614659856E-3    4.171044701768046E-1   -1.722524863228396E-1
 8.117054380250000E9     5.055741887465249E-1   -2.157609548588237E-2    9.442190595368923E-4    3.885038348840059E-3    1.010046754511049E-3    3.923046732448040E-3    4.169656628240540E-1   -1.726006775328413E-1
