#  HZ   S   RI   R     50.00 
! Rohde & Schwarz Vector Network Analyzer 
! Rohde-Schwarz,ZNB20-2Port,1311601062101988,3.16
! Created: UTC 12/23/2023, 3:56:22 AM
! freq[Hz]                re:S11                  im:S11                  re:S21                  im:S21                  re:S12                  im:S12                  re:S22                  im:S22
 7.837108233000000E9     5.655855668107002E-1    2.878847094675352E-2    1.263722846246204E-3    3.732461667736669E-3    1.303012664941451E-3    3.653431035895556E-3    4.633724340646631E-1   -2.766456957057303E-1
 7.837141276475000E9     5.656280321657865E-1    2.660062803422320E-2    1.293104435191943E-3    3.765396333339237E-3    1.289380312315901E-3    3.673722651191534E-3    4.620805741722155E-1   -2.784953886218416E-1
 7.837174319950000E9     5.657088608101782E-1    2.440978004572264E-2    1.288760999653907E-3    3.742577520099990E-3    1.316888871364694E-3    3.688579781459695E-3    4.610399409166365E-1   -2.805740529761948E-1
 7.837207363425000E9     5.658497795184558E-1    2.234304909742217E-2    1.318295687723230E-3    3.760069346492353E-3    1.342355327643139E-3    3.680724457140368E-3    4.598318924542060E-1   -2.824717661378318E-1
 7.837240406900000E9     5.659790665992839E-1    2.013174218960304E-2    1.332649049304987E-3    3.758697570791594E-3    1.389133997347317E-3    3.681131298296181E-3    4.587248807819680E-1   -2.843826977725277E-1
 7.837273450375000E9     5.660807742676540E-1    1.796857832184426E-2    1.352950229154538E-3    3.757949433674396E-3    1.368409483992111E-3    3.691563521908507E-3    4.575283126664859E-1   -2.863074719390047E-1
 7.837306493850000E9     5.660824274339256E-1    1.574452171665431E-2    1.375413467832046E-3    3.764569797946866E-3    1.372253167048427E-3    3.680778022723432E-3    4.561522938406398E-1   -2.884083072088247E-1
 7.837339537325000E9     5.662022136805381E-1    1.350106747466326E-2    1.387337862203468E-3    3.755489558559964E-3    1.385307511855217E-3    3.686075346646051E-3    4.549352573506770E-1   -2.902481142235140E-1
 7.837372580800000E9     5.663782267520445E-1    1.123699763506545E-2    1.396713003025846E-3    3.756831134848021E-3    1.418844627917177E-3    3.692810135733008E-3    4.538034046133026E-1   -2.923271408567448E-1
 7.837405624275000E9     5.663366162385257E-1    9.225493474049114E-3    1.446949728248345E-3    3.769688317393463E-3    1.433593591158357E-3    3.685764274740803E-3    4.525364749296575E-1   -2.941714952752762E-1
 7.837438667750000E9     5.664982465580309E-1    6.931498109813566E-3    1.440451124748748E-3    3.741544268595118E-3    1.405078056530887E-3    3.664275291520683E-3    4.511521749279827E-1   -2.960547674255388E-1
 7.837471711225000E9     5.665022712338115E-1    4.699736190716366E-3    1.468445434085086E-3    3.740595037078087E-3    1.478240742401205E-3    3.641335184529713E-3    4.499450719398319E-1   -2.980718303382269E-1
 7.837504754700000E9     5.665505240496588E-1    2.382881904490828E-3    1.489034560569423E-3    3.738447353797660E-3    1.493243725427685E-3    3.686774158385706E-3    4.487276284593551E-1   -2.999957432724668E-1
 7.837537798175000E9     5.664362138338147E-1    4.457067121580971E-4    1.500159047693758E-3    3.737191925477997E-3    1.506920741383931E-3    3.680081682373384E-3    4.474359969388063E-1   -3.019192260749639E-1
 7.837570841650000E9     5.664937747864283E-1   -1.874617996499537E-3    1.506804716044724E-3    3.729314154952948E-3    1.501594601616411E-3    3.665331811361205E-3    4.460080928930385E-1   -3.039676980204492E-1
 7.837603885125000E9     5.664533748211731E-1   -4.033024334647944E-3    1.550079288657906E-3    3.758979533226008E-3    1.527705245230334E-3    3.680118600755312E-3    4.449671340891951E-1   -3.058865573851778E-1
 7.837636928600000E9     5.664540658394634E-1   -6.296938414181649E-3    1.564366744247566E-3    3.725915589088602E-3    1.586521532403373E-3    3.666890564834610E-3    4.434932585720884E-1   -3.078884214007032E-1
 7.837669972075000E9     5.664055954395787E-1   -8.560398453672831E-3    1.579140367283522E-3    3.746526003489536E-3    1.601280898214650E-3    3.660096640278321E-3    4.421898940630394E-1   -3.097536095354861E-1
 7.837703015550000E9     5.664705224060632E-1   -1.075847193515782E-2    1.604054805149649E-3    3.738806550412190E-3    1.613992417262319E-3    3.673707967233658E-3    4.408781624015881E-1   -3.115825543645654E-1
 7.837736059025000E9     5.665038088926588E-1   -1.287193729999087E-2    1.625680536852863E-3    3.732550394529732E-3    1.617161410005293E-3    3.673456095629603E-3    4.395198162551272E-1   -3.134068602714432E-1
 7.837769102500000E9     5.663541955065876E-1   -1.510545955127685E-2    1.646346462144345E-3    3.760445231518446E-3    1.653075636916029E-3    3.677333749265460E-3    4.382382354215163E-1   -3.155260083002853E-1
 7.837802145975000E9     5.663640496906650E-1   -1.737396635352828E-2    1.675333051971471E-3    3.713830852698336E-3    1.661087823020830E-3    3.637064985580138E-3    4.370110924741195E-1   -3.171190276387988E-1
 7.837835189450000E9     5.662284440437094E-1   -1.950136942093049E-2    1.660611910779719E-3    3.742438266555734E-3    1.677323883441902E-3    3.661815900520682E-3    4.354684059977441E-1   -3.190583731141449E-1
 7.837868232925000E9     5.661668003406296E-1   -2.164945697203164E-2    1.711224928486265E-3    3.728141376320887E-3    1.653510077945472E-3    3.683175528218801E-3    4.342271069364074E-1   -3.210020975035252E-1
 7.837901276400000E9     5.661577061511460E-1   -2.386003166898184E-2    1.710314941678577E-3    3.741309908106278E-3    1.718802414033405E-3    3.649981078799447E-3    4.325915634529615E-1   -3.227757797343808E-1
 7.837934319875000E9     5.660628403049309E-1   -2.596841613684170E-2    1.738762024126115E-3    3.731419707803279E-3    1.723856431226151E-3    3.676574336742638E-3    4.313251731754369E-1   -3.247400364154369E-1
 7.837967363350000E9     5.658868057711904E-1   -2.817222538856302E-2    1.743572488610378E-3    3.718421524366170E-3    1.704745260603033E-3    3.649326529483682E-3    4.298864899593196E-1   -3.265532050706300E-1
 7.838000406825000E9     5.658703907018358E-1   -3.038315913457624E-2    1.755942662708299E-3    3.723100126938268E-3    1.771079294618904E-3    3.670141640940516E-3    4.284818306860825E-1   -3.284469132643320E-1
 7.838033450300000E9     5.657270840430279E-1   -3.257113143549366E-2    1.769900843913341E-3    3.725731084512319E-3    1.792365347440310E-3    3.661042851245940E-3    4.273477492733314E-1   -3.301886057824436E-1
 7.838066493775000E9     5.655667510743960E-1   -3.494205823078834E-2    1.827100224046573E-3    3.721607301679302E-3    1.820247381913742E-3    3.637405682078816E-3    4.258583318246056E-1   -3.320475705872993E-1
 7.838099537250000E9     5.654191970973016E-1   -3.692738314806469E-2    1.838683061425752E-3    3.713510559460822E-3    1.826064922710406E-3    3.641221590956800E-3    4.244017575180541E-1   -3.340313255615964E-1
 7.838132580725000E9     5.653367032779346E-1   -3.921435158779872E-2    1.842860791988192E-3    3.735321167860828E-3    1.862700942591848E-3    3.645269858514288E-3    4.229474575894267E-1   -3.356616414843758E-1
 7.838165624200000E9     5.652208867739623E-1   -4.157062304540654E-2    1.885422399650424E-3    3.713964754401100E-3    1.865193696600760E-3    3.651784580277680E-3    4.215242988591463E-1   -3.376194872650088E-1
 7.838198667675000E9     5.650591507561258E-1   -4.364511491538350E-2    1.884754805048633E-3    3.701583545050531E-3    1.896527860843255E-3    3.652842636804392E-3    4.201153226547934E-1   -3.393954050681482E-1
 7.838231711150000E9     5.648280997821824E-1   -4.590565156918551E-2    1.929453518506160E-3    3.742031687701028E-3    1.900286701973997E-3    3.668429391927617E-3    4.184860288815371E-1   -3.412786787657897E-1
 7.838264754625000E9     5.647330390630251E-1   -4.812730419905530E-2    1.960736092263007E-3    3.721206226979815E-3    1.928019354547555E-3    3.693603802870278E-3    4.171561723265932E-1   -3.429698447431901E-1
 7.838297798100000E9     5.645535098986320E-1   -5.022815745128666E-2    1.959599856399440E-3    3.722735423769634E-3    1.973297676065234E-3    3.634608036478317E-3    4.156836254839199E-1   -3.446777326691459E-1
 7.838330841575000E9     5.643041909917240E-1   -5.251144095231170E-2    1.973907633679615E-3    3.694079758848903E-3    1.961788393620968E-3    3.643419429094707E-3    4.141573836485791E-1   -3.465375846291811E-1
 7.838363885050000E9     5.640803613314509E-1   -5.441755093053256E-2    1.991717606749021E-3    3.683658907794513E-3    1.975872542624198E-3    3.675291858268859E-3    4.127213681067863E-1   -3.482396820545910E-1
 7.838396928525000E9     5.639029224051997E-1   -5.675686316270147E-2    2.009407091558947E-3    3.695872128319039E-3    2.003109373933027E-3    3.652411767380580E-3    4.113188269278046E-1   -3.499820548437874E-1
 7.838429972000000E9     5.636418033971100E-1   -5.889722567689663E-2    2.060448714326224E-3    3.703964619244437E-3    2.035947213578219E-3    3.617746228467958E-3    4.097507619149067E-1   -3.518430279357838E-1
 7.838463015475000E9     5.633981354923814E-1   -6.132270147326380E-2    2.053281324314443E-3    3.688422771062952E-3    2.037539340506349E-3    3.640596471144556E-3    4.082551729540393E-1   -3.536911830691338E-1
 7.838496058950000E9     5.632471654216745E-1   -6.329439728831053E-2    2.083818448409358E-3    3.687001366279290E-3    2.091720061004909E-3    3.641207054594932E-3    4.067623982927802E-1   -3.553900537523190E-1
 7.838529102425000E9     5.629764141451641E-1   -6.568561174259042E-2    2.091482052849802E-3    3.700756591448307E-3    2.083831475979268E-3    3.642368987303025E-3    4.051830588322863E-1   -3.570961020074921E-1
 7.838562145900000E9     5.627496408805900E-1   -6.778887399698405E-2    2.110103269868666E-3    3.688939183904168E-3    2.102385024919268E-3    3.616672890793536E-3    4.038605907662004E-1   -3.589178746474364E-1
 7.838595189375000E9     5.625098200769845E-1   -7.000756018056199E-2    2.135560547912148E-3    3.683323069441466E-3    2.140052390901728E-3    3.647145537781603E-3    4.022512485855130E-1   -3.606390846061817E-1
 7.838628232850000E9     5.622704756664252E-1   -7.218304629189820E-2    2.176189193103156E-3    3.690379121047228E-3    2.132592110434835E-3    3.646731453372725E-3    4.004826233434843E-1   -3.623085056469962E-1
 7.838661276325000E9     5.620326161695008E-1   -7.441822256595931E-2    2.194077729097031E-3    3.679127511838432E-3    2.189751795823097E-3    3.610383803360112E-3    3.989962408127667E-1   -3.640279357200680E-1
 7.838694319800000E9     5.615103601773064E-1   -7.655388551986252E-2    2.204770487827285E-3    3.670380390340032E-3    2.208984037962334E-3    3.631836318088989E-3    3.974090150179189E-1   -3.657611929742909E-1
 7.838727363275000E9     5.613529620172900E-1   -7.854793748923468E-2    2.254200827430929E-3    3.651065039638271E-3    2.234114959547287E-3    3.632435172747175E-3    3.959546683483672E-1   -3.675445159744571E-1
 7.838760406750000E9     5.610212434170796E-1   -8.097193625661882E-2    2.236126143244192E-3    3.679448568861546E-3    2.244898014839589E-3    3.620277203766284E-3    3.944797459157091E-1   -3.691742135852823E-1
 7.838793450225000E9     5.607616393327187E-1   -8.302899908199084E-2    2.268841900490559E-3    3.653810083074738E-3    2.256728664790525E-3    3.619134411807177E-3    3.928152768551175E-1   -3.709012643730036E-1
 7.838826493700000E9     5.604224049820876E-1   -8.530163807332763E-2    2.315712731030952E-3    3.666065554497069E-3    2.231862848340105E-3    3.620874012431856E-3    3.911781929951320E-1   -3.726028588750894E-1
 7.838859537175000E9     5.601520181602946E-1   -8.750708652562755E-2    2.333836236319821E-3    3.672146815465859E-3    2.307651625257649E-3    3.607845826858069E-3    3.896046154422600E-1   -3.742489207252420E-1
 7.838892580650000E9     5.597394261110766E-1   -8.953387895448008E-2    2.375478400987477E-3    3.666155467023308E-3    2.325395134135963E-3    3.625950972880168E-3    3.881301002268838E-1   -3.759480864546974E-1
 7.838925624125000E9     5.592588955434920E-1   -9.182240243093318E-2    2.361510682956879E-3    3.686953638210964E-3    2.351586085227703E-3    3.626963418945008E-3    3.863363525557630E-1   -3.776065675815507E-1
 7.838958667600000E9     5.589953193690828E-1   -9.400311387484604E-2    2.398614663422343E-3    3.680339621267363E-3    2.364825413179680E-3    3.591198135125119E-3    3.847933327678024E-1   -3.792400568364506E-1
 7.838991711075000E9     5.587556616046314E-1   -9.622728712814728E-2    2.412076771060889E-3    3.682353032872283E-3    2.375921246115543E-3    3.605856548365478E-3    3.832030813859055E-1   -3.808647090953841E-1
 7.839024754550000E9     5.583956904279775E-1   -9.837944314184865E-2    2.453681405996996E-3    3.650223609422744E-3    2.413185801862268E-3    3.624876050542820E-3    3.815015788437630E-1   -3.826489218235865E-1
 7.839057798025000E9     5.579286141364849E-1   -1.005838774223144E-1    2.451381118137567E-3    3.662885298501484E-3    2.407262268738277E-3    3.649325069531556E-3    3.798719923980834E-1   -3.842137843824630E-1
 7.839090841500000E9     5.575112508239423E-1   -1.026942827299189E-1    2.481162925985843E-3    3.644403471110717E-3    2.449518452460405E-3    3.617482592946732E-3    3.782205442865895E-1   -3.858890606143632E-1
 7.839123884975000E9     5.572316480599681E-1   -1.048681912076490E-1    2.506281458107446E-3    3.645785915253957E-3    2.474290135338249E-3    3.601532987200538E-3    3.765759780203626E-1   -3.875432347136300E-1
 7.839156928450000E9     5.566995079702927E-1   -1.071427733654675E-1    2.523581118197339E-3    3.653314569125877E-3    2.525982708043771E-3    3.615451791278279E-3    3.748490656179699E-1   -3.890910664033062E-1
 7.839189971925000E9     5.564105065275938E-1   -1.091658663481968E-1    2.543445808343424E-3    3.647327053092394E-3    2.522607201888119E-3    3.616828860487240E-3    3.733001319501126E-1   -3.908261194157985E-1
 7.839223015400000E9     5.557909364153263E-1   -1.114574895232995E-1    2.581892490339294E-3    3.642348099936935E-3    2.542715923945200E-3    3.606408852861433E-3    3.715985164450421E-1   -3.923753725739361E-1
 7.839256058875000E9     5.553985208667874E-1   -1.134753858203559E-1    2.616239382658197E-3    3.639240964855927E-3    2.558303400838928E-3    3.599759711740753E-3    3.699685158370809E-1   -3.939967022297226E-1
 7.839289102350000E9     5.549887791888054E-1   -1.158326259757458E-1    2.622136776252179E-3    3.628794016890999E-3    2.633471239815454E-3    3.606682190527957E-3    3.682743280185163E-1   -3.956057745286595E-1
 7.839322145825000E9     5.545914583896173E-1   -1.179782950003372E-1    2.652448647330346E-3    3.650435398325391E-3    2.593872266986950E-3    3.600318356073585E-3    3.666727357160865E-1   -3.970965636234029E-1
 7.839355189300000E9     5.540688941354464E-1   -1.200604937734081E-1    2.683097033158219E-3    3.627952649825973E-3    2.629094840598589E-3    3.600938345017336E-3    3.647719479483918E-1   -3.988197826199736E-1
 7.839388232775000E9     5.535834981137858E-1   -1.222672119645495E-1    2.713627892556724E-3    3.642361963511583E-3    2.681130358417198E-3    3.617749335832156E-3    3.631010120946610E-1   -4.002086365934229E-1
 7.839421276250000E9     5.532445495761282E-1   -1.245235593398578E-1    2.726338368762972E-3    3.656627057280309E-3    2.726668526234343E-3    3.588153726316138E-3    3.614916946795355E-1   -4.018134867557694E-1
 7.839454319725000E9     5.526448785613710E-1   -1.265967795549744E-1    2.759904775961286E-3    3.635587215823217E-3    2.710662568176921E-3    3.584327843209628E-3    3.596527834090843E-1   -4.034245290865716E-1
 7.839487363200000E9     5.520914775902612E-1   -1.288378876853439E-1    2.820962528250859E-3    3.633395497827481E-3    2.739134782300239E-3    3.588912585567672E-3    3.579495149155353E-1   -4.050459400066437E-1
 7.839520406675000E9     5.516098256201031E-1   -1.309936020640686E-1    2.798015714145533E-3    3.641159926577706E-3    2.755764489293923E-3    3.545522205446946E-3    3.562495968804280E-1   -4.064571720300341E-1
 7.839553450150000E9     5.511575660859153E-1   -1.331340166914488E-1    2.830241140354320E-3    3.625212387611917E-3    2.785118274177269E-3    3.600955064652257E-3    3.544964474636816E-1   -4.078836478604315E-1
 7.839586493625000E9     5.505715937927457E-1   -1.352228514943863E-1    2.858652506924278E-3    3.602557994111730E-3    2.801471728126824E-3    3.546027622690920E-3    3.527909813042974E-1   -4.094194513546109E-1
 7.839619537100000E9     5.500504412607614E-1   -1.372908233595598E-1    2.884434003886599E-3    3.614330988170987E-3    2.812297350952754E-3    3.594563551521076E-3    3.511329827129396E-1   -4.110068613042498E-1
 7.839652580575000E9     5.494053002466714E-1   -1.394742273803936E-1    2.915909666834790E-3    3.621220789639935E-3    2.868009944582217E-3    3.568416151126671E-3    3.492758719854304E-1   -4.125697425311912E-1
 7.839685624050000E9     5.488951175069205E-1   -1.414987278234572E-1    2.912410909641108E-3    3.617204306880109E-3    2.908053225928295E-3    3.570186893475548E-3    3.475588993871237E-1   -4.140407923248010E-1
 7.839718667525000E9     5.484184264395187E-1   -1.437854550953785E-1    2.954891773093422E-3    3.599154654612698E-3    2.922480723099529E-3    3.557610475602781E-3    3.456752724914159E-1   -4.155115819695872E-1
 7.839751711000000E9     5.477612443193806E-1   -1.459951488907600E-1    2.969942705188451E-3    3.581741234968213E-3    2.943772987088368E-3    3.568789625492943E-3    3.437969365455918E-1   -4.170590471411083E-1
 7.839784754475000E9     5.471118380449073E-1   -1.482328880953419E-1    3.036512311671535E-3    3.601442271335457E-3    2.976937009331444E-3    3.575415037222075E-3    3.421037883563403E-1   -4.186762303141737E-1
 7.839817797950000E9     5.465857599062242E-1   -1.503222476551546E-1    3.039253672227500E-3    3.580362715388063E-3    3.033490963816570E-3    3.527032086606625E-3    3.404131936939551E-1   -4.199789696944007E-1
 7.839850841425000E9     5.459073358723145E-1   -1.524528054538770E-1    3.077677847222725E-3    3.595023771808006E-3    3.016161376962720E-3    3.592968167562882E-3    3.384427503600401E-1   -4.214372359651837E-1
 7.839883884900000E9     5.453164481986581E-1   -1.545484164372046E-1    3.110075354653544E-3    3.602964901037527E-3    3.064194652002266E-3    3.579958975670750E-3    3.367073750152102E-1   -4.230020026713769E-1
 7.839916928375000E9     5.448900672235469E-1   -1.568480986545486E-1    3.141596671481252E-3    3.582289023852295E-3    3.076464798172887E-3    3.556051077577741E-3    3.349058739054093E-1   -4.243765235964795E-1
 7.839949971850000E9     5.440835235955347E-1   -1.588780786317265E-1    3.159560068576205E-3    3.606023060090157E-3    3.129433374814920E-3    3.562179968605872E-3    3.331063602803406E-1   -4.257142069389581E-1
 7.839983015325000E9     5.435226345215789E-1   -1.610538633311307E-1    3.198758748481970E-3    3.584069982313058E-3    3.157732193518301E-3    3.547144130612246E-3    3.311750817915472E-1   -4.272779682305725E-1
 7.840016058800000E9     5.429021778853925E-1   -1.630770815359837E-1    3.239343002471474E-3    3.577609165133904E-3    3.158709828479932E-3    3.575798828904262E-3    3.293911678158724E-1   -4.286038646573021E-1
 7.840049102275000E9     5.422159873766498E-1   -1.652547417730332E-1    3.254551802197338E-3    3.575848704218619E-3    3.205692043463878E-3    3.518141365535449E-3    3.276409032976483E-1   -4.300116935434533E-1
 7.840082145750000E9     5.415542784931773E-1   -1.673841015459143E-1    3.297643078678037E-3    3.547041803573333E-3    3.239947155425377E-3    3.583110334709178E-3    3.258106574708580E-1   -4.314842404705808E-1
