#  HZ   S   RI   R     50.00 
! Rohde & Schwarz Vector Network Analyzer 
! Rohde-Schwarz,ZNB20-2Port,1311601062101988,3.16
! Created: UTC 12/23/2023, 3:56:23 AM
! freq[Hz]                re:S11                  im:S11                  re:S21                  im:S21                  re:S12                  im:S12                  re:S22                  im:S22
 1.000990105600000E+10  -3.713947688319971E-1    3.579698274391083E-1   -1.896667980738152E-2   -1.295707968776750E-2   -1.771674110871241E-2   -1.321075274689444E-2   -1.879238928583658E-1    4.832956990355697E-1
 1.000991279082500E+10  -3.706436253062316E-1    3.587337446616929E-1   -1.915725318073088E-2   -1.280538006660620E-2   -1.772309534987990E-2   -1.339376311946791E-2   -1.871724463506713E-1    4.837539350413768E-1
 1.000992452565000E+10  -3.701108178363248E-1    3.596180106004023E-1   -1.916239870316789E-2   -1.295204489874508E-2   -1.787078436199303E-2   -1.344492989392087E-2   -1.865498145449456E-1    4.839041313816496E-1
 1.000993626047500E+10  -3.693092946004077E-1    3.601188167324731E-1   -1.926864884418331E-2   -1.294197021784758E-2   -1.797670422666807E-2   -1.328808304898411E-2   -1.857640915743154E-1    4.841725647197780E-1
 1.000994799530000E+10  -3.686740635423238E-1    3.610101511318854E-1   -1.948007653336135E-2   -1.302789995309858E-2   -1.804115546117183E-2   -1.357475161295299E-2   -1.848194633958359E-1    4.845461669574351E-1
 1.000995973012500E+10  -3.680964784853049E-1    3.616085267220063E-1   -1.952749349868550E-2   -1.286660990508798E-2   -1.803053370710450E-2   -1.349478817430517E-2   -1.842895898164409E-1    4.847756704147247E-1
 1.000997146495000E+10  -3.672864037526048E-1    3.625137339979421E-1   -1.959464422881096E-2   -1.296764896962383E-2   -1.827761087058131E-2   -1.365276694872058E-2   -1.836138775734177E-1    4.852256135006552E-1
 1.000998319977500E+10  -3.666617753828597E-1    3.631804652259434E-1   -1.983943271116925E-2   -1.296428037090372E-2   -1.837121733687698E-2   -1.349965972731923E-2   -1.828743491313921E-1    4.853838733243679E-1
 1.000999493460000E+10  -3.657984553548509E-1    3.639240572529870E-1   -1.987018314756645E-2   -1.298224435125680E-2   -1.850378903455980E-2   -1.353272551418893E-2   -1.821859490756730E-1    4.856306337135325E-1
 1.001000666942500E+10  -3.651221137412122E-1    3.646730732332363E-1   -2.004304215429146E-2   -1.301470033059881E-2   -1.856006298629428E-2   -1.350926508783851E-2   -1.814115215158335E-1    4.859516833742811E-1
 1.001001840425000E+10  -3.644432429389827E-1    3.652824751495216E-1   -2.018511099758235E-2   -1.301183091492691E-2   -1.865118077037034E-2   -1.348449163676163E-2   -1.807197919118719E-1    4.862275416920039E-1
 1.001003013907500E+10  -3.637038902843956E-1    3.660364415755664E-1   -2.009383828431777E-2   -1.308512979415784E-2   -1.860285819434799E-2   -1.354910124583782E-2   -1.798428518587655E-1    4.865332752541656E-1
 1.001004187390000E+10  -3.631022776843477E-1    3.667358780351002E-1   -2.014113130525933E-2   -1.307503624054311E-2   -1.888308515045988E-2   -1.365430329972869E-2   -1.791833338404119E-1    4.869154036870394E-1
 1.001005360872500E+10  -3.620966448690370E-1    3.675194854020886E-1   -2.027821264599541E-2   -1.296921963392879E-2   -1.891448221537455E-2   -1.357952528197358E-2   -1.784081645855452E-1    4.870518999824925E-1
 1.001006534355000E+10  -3.615676694589962E-1    3.682031383318972E-1   -2.037598682392449E-2   -1.311263802282460E-2   -1.904071326800956E-2   -1.362238638849548E-2   -1.777267647900421E-1    4.874453028005326E-1
 1.001007707837500E+10  -3.607835187901058E-1    3.689768337841798E-1   -2.057606344513464E-2   -1.320037178207629E-2   -1.915049933955180E-2   -1.355800039591852E-2   -1.770562755753846E-1    4.875804719728410E-1
 1.001008881320000E+10  -3.600106253194262E-1    3.696144220469532E-1   -2.075322778873473E-2   -1.323171466016350E-2   -1.940110257635762E-2   -1.376599492120042E-2   -1.763260639173705E-1    4.879854202340329E-1
 1.001010054802500E+10  -3.592676130662050E-1    3.705161537553058E-1   -2.071097309427065E-2   -1.315448235045999E-2   -1.943537516320066E-2   -1.372838332276613E-2   -1.754286743196673E-1    4.880932839447731E-1
 1.001011228285000E+10  -3.585585616838312E-1    3.710629505771450E-1   -2.093089140649457E-2   -1.334956094197208E-2   -1.943034304845287E-2   -1.362597656750569E-2   -1.747097619366444E-1    4.883850893537406E-1
 1.001012401767500E+10  -3.577543612551015E-1    3.717649820200253E-1   -2.109386016552746E-2   -1.320531246888073E-2   -1.958566875174791E-2   -1.359966614445745E-2   -1.740788403646683E-1    4.888989779295851E-1
 1.001013575250000E+10  -3.569428700227064E-1    3.724934095330639E-1   -2.109348070144685E-2   -1.321830058357508E-2   -1.970542025566267E-2   -1.369318506707077E-2   -1.732038115470658E-1    4.889958444376454E-1
 1.001014748732500E+10  -3.562261368722938E-1    3.732806838009688E-1   -2.121421845028638E-2   -1.325436546822369E-2   -1.991629433526349E-2   -1.374508863391631E-2   -1.725819121615959E-1    4.892204948328510E-1
 1.001015922215000E+10  -3.554784329447665E-1    3.740247771506263E-1   -2.141616950659513E-2   -1.316962734481517E-2   -1.996244779307993E-2   -1.372283714966768E-2   -1.718489347597221E-1    4.896040042917319E-1
 1.001017095697500E+10  -3.547581345008830E-1    3.748374473051445E-1   -2.155855900988367E-2   -1.317143347439285E-2   -2.006010201777118E-2   -1.382364911438411E-2   -1.710521158270649E-1    4.898542097462391E-1
 1.001018269180000E+10  -3.538758548329402E-1    3.754695724698145E-1   -2.164924479086595E-2   -1.326172645831031E-2   -2.019437176884995E-2   -1.375371852844562E-2   -1.703599509250705E-1    4.901072714600865E-1
 1.001019442662500E+10  -3.531879036740020E-1    3.761794975618117E-1   -2.173622446499289E-2   -1.306218644123428E-2   -2.025653065081538E-2   -1.393331721006514E-2   -1.695634549027193E-1    4.903133614793112E-1
 1.001020616145000E+10  -3.524117682691646E-1    3.768422164867398E-1   -2.188782163307438E-2   -1.338167757023126E-2   -2.041561495194513E-2   -1.383040633009281E-2   -1.689090251597741E-1    4.905900974135093E-1
 1.001021789627500E+10  -3.514798023754397E-1    3.776931063087320E-1   -2.206174904257337E-2   -1.330801622259767E-2   -2.059243314201457E-2   -1.394337311108255E-2   -1.680854297993991E-1    4.909508220036045E-1
 1.001022963110000E+10  -3.507973986932422E-1    3.784102493012389E-1   -2.209130591296599E-2   -1.330033815868422E-2   -2.067329570988534E-2   -1.393154460347117E-2   -1.673463174075045E-1    4.911498829027212E-1
 1.001024136592500E+10  -3.499785255068036E-1    3.790454889139321E-1   -2.224051174773488E-2   -1.335880507930862E-2   -2.089496530725033E-2   -1.373812956895382E-2   -1.666889717705122E-1    4.915105604165088E-1
 1.001025310075000E+10  -3.492678681919673E-1    3.798654359398825E-1   -2.234204649350199E-2   -1.341925011376138E-2   -2.098899811907905E-2   -1.391526659166824E-2   -1.658399706390906E-1    4.916739469868347E-1
 1.001026483557500E+10  -3.484651678170312E-1    3.806285092423488E-1   -2.250799225044587E-2   -1.340383733300276E-2   -2.119521003708754E-2   -1.388966077436499E-2   -1.650485554595024E-1    4.918069628076386E-1
 1.001027657040000E+10  -3.476123908403286E-1    3.813307621886170E-1   -2.270233424908897E-2   -1.359502603615255E-2   -2.116217277506255E-2   -1.391944045117020E-2   -1.644190136559778E-1    4.921698663526299E-1
 1.001028830522500E+10  -3.468707224097815E-1    3.820883321744196E-1   -2.279477322713707E-2   -1.336491151593726E-2   -2.129439538823931E-2   -1.399671307004839E-2   -1.635677488018855E-1    4.926485307478142E-1
 1.001030004005000E+10  -3.460206351509960E-1    3.826572192108885E-1   -2.290380119606994E-2   -1.347474040496088E-2   -2.142411801504966E-2   -1.404892881003638E-2   -1.628759324855878E-1    4.927255415251042E-1
 1.001031177487500E+10  -3.451703091007336E-1    3.836118678438218E-1   -2.304857134446893E-2   -1.341505033103035E-2   -2.148224554093780E-2   -1.408411787867825E-2   -1.621528510609390E-1    4.930524460328449E-1
 1.001032350970000E+10  -3.444977739738015E-1    3.842685311989169E-1   -2.320202590491519E-2   -1.338833580862082E-2   -2.173369192489650E-2   -1.420191228519044E-2   -1.612938371501386E-1    4.932155600145736E-1
 1.001033524452500E+10  -3.435072767115491E-1    3.849832266944397E-1   -2.339050571039487E-2   -1.356391804914951E-2   -2.185009819701778E-2   -1.417704115815721E-2   -1.606413872524605E-1    4.935112085677698E-1
 1.001034697935000E+10  -3.425745170615925E-1    3.859141364483121E-1   -2.349024856991239E-2   -1.349262712374521E-2   -2.207792596544254E-2   -1.395160565610787E-2   -1.597912899279568E-1    4.937434226732292E-1
 1.001035871417500E+10  -3.418831803732539E-1    3.863488876168142E-1   -2.362865608038662E-2   -1.346953641775899E-2   -2.217330017282449E-2   -1.418417969073062E-2   -1.591817894005378E-1    4.940608835553462E-1
 1.001037044900000E+10  -3.409205140858492E-1    3.872740475091436E-1   -2.390832987071056E-2   -1.353431937383358E-2   -2.225287294959788E-2   -1.422071587274008E-2   -1.583442374868328E-1    4.942466409939106E-1
 1.001038218382500E+10  -3.401413023655540E-1    3.879543343339731E-1   -2.399289415303018E-2   -1.355441505562244E-2   -2.238438221556753E-2   -1.416664973603303E-2   -1.576229068119911E-1    4.945090722776078E-1
 1.001039391865000E+10  -3.392220959781071E-1    3.884956627746196E-1   -2.414472120367289E-2   -1.352921411626884E-2   -2.252548995903811E-2   -1.419118921899499E-2   -1.567594953976029E-1    4.947901046209759E-1
 1.001040565347500E+10  -3.384218531321359E-1    3.894688614794709E-1   -2.416462271093929E-2   -1.356860467793499E-2   -2.266118656222697E-2   -1.427545118871926E-2   -1.560298213039459E-1    4.950273596956012E-1
 1.001041738830000E+10  -3.374373349981111E-1    3.901993461167869E-1   -2.443427193275860E-2   -1.359333478765311E-2   -2.289381625124028E-2   -1.424968543479850E-2   -1.553106627992591E-1    4.954260173776139E-1
 1.001042912312500E+10  -3.366933889797166E-1    3.908255805891632E-1   -2.459513421260128E-2   -1.360880366117285E-2   -2.288726792553981E-2   -1.432396828933786E-2   -1.546051977193815E-1    4.956060170400025E-1
 1.001044085795000E+10  -3.358079428960473E-1    3.917117604050288E-1   -2.470611578310764E-2   -1.372308072462033E-2   -2.306847405973587E-2   -1.426618322110264E-2   -1.537518819866024E-1    4.959431415177440E-1
 1.001045259277500E+10  -3.349197562763140E-1    3.923232100161666E-1   -2.480770327046603E-2   -1.369534140326280E-2   -2.329148039663535E-2   -1.432958053657196E-2   -1.530339975059711E-1    4.960594251758251E-1
 1.001046432760000E+10  -3.340292974748870E-1    3.930240620022868E-1   -2.510626938268737E-2   -1.371079556122753E-2   -2.332960623024357E-2   -1.422806370470929E-2   -1.522129998079313E-1    4.962694569676709E-1
 1.001047606242500E+10  -3.332096816870604E-1    3.938919576510166E-1   -2.521227303422766E-2   -1.380318603453561E-2   -2.356195210979456E-2   -1.437843455159247E-2   -1.515011304511901E-1    4.964829982759372E-1
 1.001048779725000E+10  -3.322065928168477E-1    3.944470068694766E-1   -2.545271412918844E-2   -1.362652899134633E-2   -2.371619940237121E-2   -1.429032393101778E-2   -1.507038960069138E-1    4.967089836808115E-1
 1.001049953207500E+10  -3.312285479013617E-1    3.953130987972612E-1   -2.577057243007976E-2   -1.366951773387770E-2   -2.388953292493849E-2   -1.437641621338379E-2   -1.500022578376549E-1    4.969475750669485E-1
 1.001051126690000E+10  -3.304807579057048E-1    3.959879760488478E-1   -2.576442718049026E-2   -1.360136003612228E-2   -2.413155299909193E-2   -1.439056392372617E-2   -1.493035806804557E-1    4.970414049006800E-1
 1.001052300172500E+10  -3.295544607749702E-1    3.968367131157402E-1   -2.595908330419062E-2   -1.367070678560970E-2   -2.441804254290515E-2   -1.436933751523828E-2   -1.485394224287151E-1    4.974572514026733E-1
 1.001053473655000E+10  -3.286560373132591E-1    3.976708110490184E-1   -2.619298408187599E-2   -1.372945185875026E-2   -2.431965311577796E-2   -1.453043894256203E-2   -1.476739627425709E-1    4.976189071450175E-1
 1.001054647137500E+10  -3.276708415451648E-1    3.983464094115873E-1   -2.640552076426632E-2   -1.382474541672192E-2   -2.455797993233345E-2   -1.450821315889932E-2   -1.467137461936900E-1    4.978184823277350E-1
 1.001055820620000E+10  -3.266839672408249E-1    3.989272841095356E-1   -2.653993599687299E-2   -1.380008609977838E-2   -2.477747426987977E-2   -1.449753598812149E-2   -1.461095985500237E-1    4.980692323486828E-1
 1.001056994102500E+10  -3.256794730584801E-1    3.998491967610680E-1   -2.660861931038453E-2   -1.394903014032497E-2   -2.508157897640388E-2   -1.462538884921522E-2   -1.453742692053037E-1    4.983542551850427E-1
 1.001058167585000E+10  -3.246756939973040E-1    4.005738912767664E-1   -2.691230655887674E-2   -1.390938970539589E-2   -2.509580862766215E-2   -1.461417836435406E-2   -1.446477248877187E-1    4.984630246528952E-1
 1.001059341067500E+10  -3.238448278923214E-1    4.013867206952735E-1   -2.700343824556837E-2   -1.396313013195308E-2   -2.525650483370125E-2   -1.450222113210914E-2   -1.437574990025440E-1    4.987736013456577E-1
 1.001060514550000E+10  -3.229673264038995E-1    4.020080278985174E-1   -2.713279368190151E-2   -1.392816806830150E-2   -2.552254842381213E-2   -1.452849928363782E-2   -1.429325579770104E-1    4.990764907930353E-1
 1.001061688032500E+10  -3.218259340751889E-1    4.027481756153933E-1   -2.739079416253300E-2   -1.387310739284765E-2   -2.572608993488572E-2   -1.454714605425571E-2   -1.422402288575864E-1    4.991939758989620E-1
 1.001062861515000E+10  -3.209777289213865E-1    4.034989026823970E-1   -2.755678517784651E-2   -1.394168814327359E-2   -2.589443411638762E-2   -1.462553413465351E-2   -1.415092777750893E-1    4.993544519644487E-1
 1.001064034997500E+10  -3.199188988427596E-1    4.042604968963020E-1   -2.775574933800860E-2   -1.390670234998064E-2   -2.603339032059940E-2   -1.464695875116478E-2   -1.407095666559859E-1    4.996808128160383E-1
 1.001065208480000E+10  -3.189736569247398E-1    4.050357781669208E-1   -2.798742175084500E-2   -1.391567478825931E-2   -2.622893740296910E-2   -1.479823381902914E-2   -1.398534401424739E-1    5.000175122713686E-1
 1.001066381962500E+10  -3.178047871396943E-1    4.058996853060288E-1   -2.825049833307197E-2   -1.384273418679840E-2   -2.641728519492243E-2   -1.463046918585294E-2   -1.391347771943552E-1    5.002785884990358E-1
 1.001067555445000E+10  -3.168997675738635E-1    4.065384910853931E-1   -2.851412989050747E-2   -1.378986680502509E-2   -2.656737880695187E-2   -1.481179519573903E-2   -1.383263739554206E-1    5.002960556003634E-1
 1.001068728927500E+10  -3.156284960851594E-1    4.073279483298767E-1   -2.864524876531967E-2   -1.387666162299507E-2   -2.688430831116433E-2   -1.462807471509151E-2   -1.376597433167643E-1    5.005762786455760E-1
 1.001069902410000E+10  -3.147733554165479E-1    4.080947412443858E-1   -2.883730498562256E-2   -1.382062234628924E-2   -2.707322438078213E-2   -1.466668723689337E-2   -1.367090658984832E-1    5.007446794570468E-1
 1.001071075892500E+10  -3.138275128871475E-1    4.088087734335941E-1   -2.907554629192869E-2   -1.397083540808914E-2   -2.729826290156847E-2   -1.464475794493579E-2   -1.359063219312567E-1    5.009765569963496E-1
 1.001072249375000E+10  -3.128110506791765E-1    4.096246423886273E-1   -2.928817926377513E-2   -1.391625018068000E-2   -2.743726560277658E-2   -1.472828599463163E-2   -1.351149953316968E-1    5.011381996061058E-1
 1.001073422857500E+10  -3.115978831908476E-1    4.103008989275560E-1   -2.949568022854709E-2   -1.384106980871508E-2   -2.779132916991998E-2   -1.485071511861763E-2   -1.343682784598567E-1    5.013493377677668E-1
 1.001074596340000E+10  -3.105910969202712E-1    4.110116222233124E-1   -2.962200383246313E-2   -1.400702315870632E-2   -2.781108851947562E-2   -1.482905482066957E-2   -1.335976461307390E-1    5.015872890354703E-1
 1.001075769822500E+10  -3.095342134324532E-1    4.118399952104953E-1   -2.993959719980812E-2   -1.401401189734209E-2   -2.811700310129393E-2   -1.486747536000268E-2   -1.328941755795326E-1    5.017308929957500E-1
 1.001076943305000E+10  -3.084661365741421E-1    4.126364936176506E-1   -3.010172749482562E-2   -1.406829360821537E-2   -2.828545700267077E-2   -1.478621210735489E-2   -1.320220408955249E-1    5.022218188751293E-1
 1.001078116787500E+10  -3.072842725340386E-1    4.134482459084186E-1   -3.042703668043193E-2   -1.403510009099385E-2   -2.864686138954621E-2   -1.486949133116722E-2   -1.312236193188020E-1    5.023885408063332E-1
 1.001079290270000E+10  -3.062933537628550E-1    4.140750465714672E-1   -3.054985190904301E-2   -1.408067835789861E-2   -2.887464127620901E-2   -1.496417937253780E-2   -1.303675475352937E-1    5.022982087570023E-1
 1.001080463752500E+10  -3.048693690367215E-1    4.148446855629381E-1   -3.083233613301864E-2   -1.397302454117957E-2   -2.906720681146174E-2   -1.485691506440842E-2   -1.294708909749750E-1    5.027236922197617E-1
 1.001081637235000E+10  -3.040171973553418E-1    4.155225543657589E-1   -3.119273641704712E-2   -1.397041640938976E-2   -2.932560022374165E-2   -1.494505974786828E-2   -1.287606382020046E-1    5.028975250374632E-1
 1.001082810717500E+10  -3.028272258136844E-1    4.163296522695557E-1   -3.152118907722300E-2   -1.390082282211285E-2   -2.949399936078301E-2   -1.493917304741107E-2   -1.278990398988011E-1    5.029632298694755E-1
 1.001083984200000E+10  -3.016451694333470E-1    4.171818022826972E-1   -3.165591458456374E-2   -1.400651926268779E-2   -2.978141045483612E-2   -1.494830888710135E-2   -1.271872611143233E-1    5.030890562269016E-1
 1.001085157682500E+10  -3.003123271538771E-1    4.178043977026056E-1   -3.200058431636833E-2   -1.395545736088638E-2   -2.999830726180053E-2   -1.511451866225452E-2   -1.263018483426484E-1    5.034334719960614E-1
 1.001086331165000E+10  -2.992746706980269E-1    4.187289827690676E-1   -3.231872836555139E-2   -1.400249513140490E-2   -3.025114040011579E-2   -1.511837224810776E-2   -1.255184033675310E-1    5.036095638775591E-1
 1.001087504647500E+10  -2.981767501137001E-1    4.194810011273291E-1   -3.239002578204005E-2   -1.391989193223355E-2   -3.047866482525950E-2   -1.509249226386119E-2   -1.248983655128623E-1    5.038617565832727E-1
 1.001088678130000E+10  -2.968905399632084E-1    4.204699446940956E-1   -3.278518259904378E-2   -1.394477256753139E-2   -3.071957077029818E-2   -1.512346789717679E-2   -1.240526705960458E-1    5.039935314756764E-1
 1.001089851612500E+10  -2.957799426195004E-1    4.208978305384796E-1   -3.302638012881871E-2   -1.399561793517880E-2   -3.100704102787870E-2   -1.524141861355089E-2   -1.232052510117228E-1    5.041205250887514E-1
 1.001091025095000E+10  -2.944208678578928E-1    4.217302122848219E-1   -3.327757968439734E-2   -1.408369228736864E-2   -3.124396603076922E-2   -1.509733478282349E-2   -1.223075112789207E-1    5.044954556011841E-1
 1.001092198577500E+10  -2.931965847631410E-1    4.225216241126237E-1   -3.354062436861316E-2   -1.422262124699548E-2   -3.160485286577798E-2   -1.513633565654657E-2   -1.214640433307589E-1    5.046066415907323E-1
 1.001093372060000E+10  -2.919694205122991E-1    4.233816440389591E-1   -3.385372909368883E-2   -1.415176560663505E-2   -3.195544542224137E-2   -1.513486668644075E-2   -1.206187823849246E-1    5.045962836535645E-1
 1.001094545542500E+10  -2.906744522803200E-1    4.241018012350657E-1   -3.413286260541328E-2   -1.413991869731478E-2   -3.217749294226638E-2   -1.512696927886109E-2   -1.198396601806157E-1    5.049136155147228E-1
 1.001095719025000E+10  -2.893478479072422E-1    4.247792915350808E-1   -3.434128169783480E-2   -1.421514391440178E-2   -3.241631278410913E-2   -1.507456494551332E-2   -1.189937354014560E-1    5.051731555256086E-1
