#  HZ   S   RI   R     50.00 
! Rohde & Schwarz Vector Network Analyzer 
! Rohde-Schwarz,ZNB20-2Port,1311601062101988,3.16
! Created: UTC 3/20/2024, 11:45:52 AM
! freq[Hz]                re:S11                  im:S11                  re:S21                  im:S21                  re:S12                  im:S12                  re:S22                  im:S22
 8.116606578000000E9     5.067204476651299E-1    1.309145351488649E-2    5.743046875406367E-4    3.603641065442146E-3    6.442606595612132E-4    3.642035470211070E-3    4.266899483870989E-1   -1.429607260222767E-1
 8.116611379725000E9     5.066110937093886E-1    1.263924035953044E-2    5.832318941155551E-4    3.618308705353293E-3    6.501062555910051E-4    3.675489193632627E-3    4.265453471125056E-1   -1.432787223711598E-1
 8.116616181450000E9     5.066152523511338E-1    1.231129004142857E-2    5.799292764586119E-4    3.583853320208469E-3    6.583227476208248E-4    3.638689843305959E-3    4.264777245202748E-1   -1.435529417920301E-1
 8.116620983175000E9     5.066080074730114E-1    1.198390702986961E-2    5.824718537023751E-4    3.589781618997293E-3    6.773830738009464E-4    3.632566715760610E-3    4.263038457684120E-1   -1.440423728611861E-1
 8.116625784900000E9     5.066325806586226E-1    1.140727118267040E-2    5.837787812932349E-4    3.584668406804893E-3    6.575139872888222E-4    3.631417755044984E-3    4.262164440435222E-1   -1.442728524503995E-1
 8.116630586625000E9     5.066227893938930E-1    1.126299330515813E-2    6.177774399459713E-4    3.586152540050475E-3    6.612425669966258E-4    3.627584988315408E-3    4.262147687141603E-1   -1.445175921360446E-1
 8.116635388350000E9     5.066672780576632E-1    1.068983848429181E-2    5.957188787309413E-4    3.607004558417475E-3    6.272739457795138E-4    3.641858127591168E-3    4.259780221837382E-1   -1.449725713357368E-1
 8.116640190075000E9     5.066859021943699E-1    1.042056776873261E-2    5.967748076636126E-4    3.573074529887486E-3    6.753143692952067E-4    3.662507719096828E-3    4.259473009390081E-1   -1.453133187102142E-1
 8.116644991800000E9     5.067058232474932E-1    1.020671179734739E-2    6.031137856893650E-4    3.596117695503084E-3    6.533352079456671E-4    3.677013797022579E-3    4.258964853164820E-1   -1.454746734946536E-1
 8.116649793525000E9     5.065583019988411E-1    9.715927257852593E-3    6.061368836996723E-4    3.611157341319443E-3    6.770291755043885E-4    3.685412990301015E-3    4.259318735505265E-1   -1.457688014411447E-1
 8.116654595250000E9     5.065324640214505E-1    9.483527279345410E-3    6.150075036376068E-4    3.618010325340247E-3    6.357203027209319E-4    3.655004144053274E-3    4.257166320468336E-1   -1.462116427953603E-1
 8.116659396975000E9     5.066825175419263E-1    8.931649311931576E-3    6.158760248895821E-4    3.616963434727542E-3    6.777375986954965E-4    3.682691261304466E-3    4.256456459924331E-1   -1.464912210158762E-1
 8.116664198700000E9     5.067300675990539E-1    8.647811774436171E-3    6.218983526143299E-4    3.609398031318762E-3    7.043354112864782E-4    3.623624542342661E-3    4.255073026233417E-1   -1.466835572904244E-1
 8.116669000425000E9     5.066007057098065E-1    8.268261667745200E-3    6.167458421328642E-4    3.624517404352461E-3    7.266665438159595E-4    3.623417569194811E-3    4.253464429809971E-1   -1.472486746335057E-1
 8.116673802150000E9     5.065644116447606E-1    7.971351135088707E-3    6.504779767831912E-4    3.640195433955906E-3    6.611883798807017E-4    3.670271374883026E-3    4.253328275563217E-1   -1.474834792960297E-1
 8.116678603875000E9     5.066656681062720E-1    7.535430881142071E-3    6.347983752419365E-4    3.603998474366351E-3    6.686262518018273E-4    3.686726626546804E-3    4.252767508073444E-1   -1.477324498175695E-1
 8.116683405600000E9     5.066356018465565E-1    7.059899172795419E-3    6.231318521489121E-4    3.636086939364018E-3    7.093504766471693E-4    3.668729242623761E-3    4.251141810516986E-1   -1.481945690704609E-1
 8.116688207325000E9     5.066710807486474E-1    6.678246292614379E-3    6.240530197325965E-4    3.622192030850195E-3    7.131230764541997E-4    3.671641128966036E-3    4.251012217564560E-1   -1.484613921907391E-1
 8.116693009050000E9     5.066057398044457E-1    6.299962354501870E-3    6.371679533379864E-4    3.640552398271425E-3    7.137302434105067E-4    3.674050299827457E-3    4.248848538934563E-1   -1.487222111480482E-1
 8.116697810775000E9     5.066095110975091E-1    6.072398997286934E-3    6.344486796752389E-4    3.625520208779424E-3    6.906148131678053E-4    3.659502747954235E-3    4.247878462228944E-1   -1.489962373738872E-1
 8.116702612500000E9     5.066595521238122E-1    5.640993960546681E-3    6.424638885524832E-4    3.627054077694142E-3    7.267274992037773E-4    3.730943121753605E-3    4.246076619154288E-1   -1.492826990403053E-1
 8.116707414225000E9     5.066080358571123E-1    5.275565127931278E-3    6.486894974460862E-4    3.630355290958585E-3    6.929722149513138E-4    3.695428745904313E-3    4.246381349485701E-1   -1.496915076561915E-1
 8.116712215950000E9     5.066439419408203E-1    4.875740447274492E-3    6.508868423986516E-4    3.629063834665308E-3    7.012530433017636E-4    3.711536554251842E-3    4.244691266838388E-1   -1.500293518550476E-1
 8.116717017675000E9     5.065130343689304E-1    4.602584378556722E-3    6.323195156673778E-4    3.607232271617450E-3    7.484309028338158E-4    3.683675056400348E-3    4.243643857312577E-1   -1.502116600999241E-1
 8.116721819400000E9     5.066063558061498E-1    4.239202429897461E-3    6.627710110903230E-4    3.642417094421258E-3    7.043292886523196E-4    3.680066805153698E-3    4.243445504812496E-1   -1.505789040838666E-1
 8.116726621125000E9     5.066586615089120E-1    3.872036420321463E-3    6.689284289641986E-4    3.640285511950708E-3    7.309132621120534E-4    3.674597740252099E-3    4.242229941349592E-1   -1.510183912298841E-1
 8.116731422850000E9     5.066353815481621E-1    3.458911930228447E-3    6.779210892933266E-4    3.651279101612890E-3    7.491688429212776E-4    3.682044383370258E-3    4.241450727990227E-1   -1.514031274891587E-1
 8.116736224575000E9     5.064671686485468E-1    3.139353920895463E-3    6.616491425319550E-4    3.652122442756320E-3    7.048357371207502E-4    3.730414041144253E-3    4.240572179850497E-1   -1.517749954471578E-1
 8.116741026300000E9     5.065840155831922E-1    2.763328046586324E-3    6.816351273865788E-4    3.638924284333680E-3    7.339264285166489E-4    3.678906281370150E-3    4.239562930279328E-1   -1.518667905362425E-1
 8.116745828025000E9     5.065732281657956E-1    2.452667779006601E-3    6.834835495406691E-4    3.652449410005986E-3    7.280756594121360E-4    3.691361622878048E-3    4.238077311172637E-1   -1.523465367095024E-1
 8.116750629750000E9     5.065986039991808E-1    1.988898228382145E-3    6.803904418135058E-4    3.646910602283824E-3    7.188598519048671E-4    3.699535097148356E-3    4.237219083765237E-1   -1.525701914615295E-1
 8.116755431475000E9     5.064956884853887E-1    1.666764817002113E-3    6.659921780890825E-4    3.650349154217932E-3    7.378570952285801E-4    3.680214175416201E-3    4.236335368279890E-1   -1.529691420206525E-1
 8.116760233200000E9     5.065577488546933E-1    1.210653035278918E-3    6.947553393933573E-4    3.652104207824043E-3    7.720762817726164E-4    3.691746915860930E-3    4.235369670676629E-1   -1.531996345188579E-1
 8.116765034925000E9     5.066679683951163E-1    8.630967819036996E-4    6.874878616977341E-4    3.669489195414633E-3    7.141664379672930E-4    3.703328094038223E-3    4.233695954729907E-1   -1.535236681108936E-1
 8.116769836650000E9     5.066462859898583E-1    5.101761600740003E-4    6.943980868623466E-4    3.657785787697865E-3    7.627578742580520E-4    3.719687948378083E-3    4.232439422971785E-1   -1.538060409337559E-1
 8.116774638375000E9     5.066359038406005E-1    1.537020215363811E-4    6.677322676274749E-4    3.680694739772041E-3    7.340006553113303E-4    3.720389891895827E-3    4.231945738097324E-1   -1.541427402911955E-1
 8.116779440100000E9     5.065384836908017E-1   -2.028738562899489E-4    6.848858244521185E-4    3.674361221099392E-3    7.678539741743367E-4    3.720702545669222E-3    4.231077530675783E-1   -1.545325567078723E-1
 8.116784241825000E9     5.065084037083545E-1   -6.705347315149846E-4    7.010642299575576E-4    3.689686389431511E-3    7.672557815152571E-4    3.724312800238462E-3    4.230629424270413E-1   -1.547290594202644E-1
 8.116789043550000E9     5.064735851942966E-1   -9.793378223326614E-4    6.904256766111942E-4    3.670760945630973E-3    7.995224151779441E-4    3.729573341571901E-3    4.229410256777721E-1   -1.551239360531961E-1
 8.116793845275000E9     5.066018771901919E-1   -1.443590013546049E-3    6.981860376691443E-4    3.653955066153848E-3    7.585501131914670E-4    3.725187121925972E-3    4.228322774876308E-1   -1.554924677658018E-1
 8.116798647000000E9     5.064834245333106E-1   -1.647459021639927E-3    7.251638864850395E-4    3.669952359890169E-3    7.881230610854858E-4    3.748920961179416E-3    4.228326759111109E-1   -1.557504673769994E-1
 8.116803448725000E9     5.065114435443083E-1   -2.089225125156561E-3    7.063598939462224E-4    3.690636574183881E-3    7.583559588773109E-4    3.736787010849502E-3    4.226969916283029E-1   -1.562410165074451E-1
 8.116808250450000E9     5.064464872869352E-1   -2.425730718446505E-3    7.040487227665522E-4    3.641655475380153E-3    7.878608039280455E-4    3.761749773274727E-3    4.225879730459839E-1   -1.564754013052768E-1
 8.116813052175000E9     5.064882191224318E-1   -2.768132808657174E-3    7.475738315680580E-4    3.684859394596849E-3    7.878078094421479E-4    3.740960005771770E-3    4.225460307292385E-1   -1.567625608190040E-1
 8.116817853900000E9     5.064422778065504E-1   -3.114478458448356E-3    7.364313166599900E-4    3.684921701094458E-3    8.056262429214051E-4    3.742350472849793E-3    4.223925719562888E-1   -1.569400595658550E-1
 8.116822655625000E9     5.063882863721627E-1   -3.537373280778998E-3    7.424401946604893E-4    3.682340971424044E-3    8.338470820491549E-4    3.755122652515755E-3    4.222384430277891E-1   -1.574129591298776E-1
 8.116827457350000E9     5.064390837076865E-1   -3.946652383911074E-3    7.524739701452959E-4    3.679044281152657E-3    7.723388851911282E-4    3.721035214320605E-3    4.222506606440248E-1   -1.575667290949914E-1
 8.116832259075000E9     5.064260813495379E-1   -4.339028225413829E-3    7.398501845327039E-4    3.704689409448681E-3    8.447908406027611E-4    3.745405819754762E-3    4.220091854140314E-1   -1.579231395461307E-1
 8.116837060800000E9     5.063622130623850E-1   -4.612653125824774E-3    7.458311369590652E-4    3.671179403442624E-3    8.192242452475694E-4    3.763811536080738E-3    4.217984408927871E-1   -1.582633844528460E-1
 8.116841862525000E9     5.063985843563087E-1   -5.036107503286807E-3    7.694937999147231E-4    3.688053475925116E-3    8.129510566262543E-4    3.743961667174591E-3    4.217623911004644E-1   -1.586060618915083E-1
 8.116846664250000E9     5.065095632192188E-1   -5.332750016426342E-3    7.781872641512660E-4    3.693601487700705E-3    8.267591220908955E-4    3.753114312603818E-3    4.216344402388703E-1   -1.588017789224462E-1
 8.116851465975000E9     5.064550159305735E-1   -5.724656156037516E-3    7.592497362763288E-4    3.690023150893631E-3    8.235537452343390E-4    3.773344827772221E-3    4.215827039827982E-1   -1.593523554560492E-1
 8.116856267700000E9     5.063833349703956E-1   -6.279691782723204E-3    7.583616186832111E-4    3.698544542709412E-3    8.141796653488947E-4    3.765778053545111E-3    4.213763616238174E-1   -1.594682756565264E-1
 8.116861069425000E9     5.063561642792526E-1   -6.591136647230681E-3    7.431328580696321E-4    3.683837313131936E-3    8.025888590554270E-4    3.782904723862069E-3    4.214621135188582E-1   -1.598179692069844E-1
 8.116865871150000E9     5.064368823096992E-1   -6.764034761136865E-3    7.604614861109494E-4    3.725929264915903E-3    8.288853218569646E-4    3.781466054451242E-3    4.213849169646190E-1   -1.602292420306219E-1
 8.116870672875000E9     5.062291513863074E-1   -7.311046908234795E-3    7.713073759976676E-4    3.711557547069933E-3    8.227139752034074E-4    3.796570746107526E-3    4.211327193559476E-1   -1.603790452942867E-1
 8.116875474600000E9     5.063328142314100E-1   -7.679158701517853E-3    7.359396883759344E-4    3.711060213298210E-3    8.491908937879788E-4    3.761694743447888E-3    4.210157193625391E-1   -1.607892452978519E-1
 8.116880276325000E9     5.062319976118288E-1   -8.012036215987100E-3    7.935818590347615E-4    3.706597083198033E-3    8.178099883806112E-4    3.781008145264631E-3    4.209107365936222E-1   -1.609922885821057E-1
 8.116885078050000E9     5.063385497444624E-1   -8.367911494706729E-3    8.120554005174767E-4    3.704205392133183E-3    8.649726067805635E-4    3.774883345148442E-3    4.209395750370782E-1   -1.613712125583178E-1
 8.116889879775000E9     5.062870688586922E-1   -8.743265594475861E-3    7.890378966533771E-4    3.734297806721982E-3    8.559224697286062E-4    3.779092402447229E-3    4.207834550589225E-1   -1.617638445091540E-1
 8.116894681500000E9     5.062275206767848E-1   -9.080937089936812E-3    8.000621603037256E-4    3.714637421729553E-3    8.580493815000667E-4    3.770924806069434E-3    4.205308278785585E-1   -1.621553043525388E-1
 8.116899483225000E9     5.062324154600852E-1   -9.349321106326346E-3    8.163237609829594E-4    3.725763786235793E-3    8.762282473545448E-4    3.779175052026192E-3    4.205173525841381E-1   -1.623226416106867E-1
 8.116904284950000E9     5.062554179755525E-1   -9.839225318372722E-3    8.153001318104031E-4    3.733593238648148E-3    8.819094664677367E-4    3.776513038200947E-3    4.204261264601881E-1   -1.627204384704935E-1
 8.116909086675000E9     5.061800567701695E-1   -1.025638575914364E-2    8.367902913651769E-4    3.740976347752202E-3    9.185145881788346E-4    3.783368095559176E-3    4.203845504447812E-1   -1.631784752148757E-1
 8.116913888400000E9     5.062067758114865E-1   -1.054236414928455E-2    7.989898757647168E-4    3.747896276777081E-3    8.799267428437334E-4    3.767797023361690E-3    4.201287198828564E-1   -1.634061313293345E-1
 8.116918690125000E9     5.060803052919743E-1   -1.106289506982711E-2    8.205598699808387E-4    3.738637811150545E-3    8.829776402116097E-4    3.789596596708746E-3    4.201253877609683E-1   -1.636249945549282E-1
 8.116923491850000E9     5.060678696874960E-1   -1.130004330402513E-2    8.067916625596569E-4    3.750157902956684E-3    8.601968940988344E-4    3.822060100218253E-3    4.200753105820568E-1   -1.639665515863616E-1
 8.116928293575000E9     5.059465200574307E-1   -1.167240560796784E-2    8.154308355129775E-4    3.742480926817282E-3    8.617032925492471E-4    3.802754521485988E-3    4.199106467386709E-1   -1.642267842837166E-1
 8.116933095300000E9     5.061007402771859E-1   -1.219804694059683E-2    8.296988959242987E-4    3.739524189827166E-3    8.716888373244382E-4    3.790718707910863E-3    4.197795848975825E-1   -1.647130211183197E-1
 8.116937897025000E9     5.059835040125904E-1   -1.240546268104331E-2    8.328150705620584E-4    3.775144781171778E-3    8.894914722203915E-4    3.792845724339805E-3    4.195804849402884E-1   -1.649805981116674E-1
 8.116942698750000E9     5.061258774533922E-1   -1.285395550253479E-2    8.324486918140358E-4    3.760441615893489E-3    8.427560720597133E-4    3.854128824789998E-3    4.196207529094568E-1   -1.652372184681156E-1
 8.116947500475000E9     5.059865720887777E-1   -1.312960567958225E-2    8.372246177367710E-4    3.765272811112720E-3    8.972649158697539E-4    3.832230717388153E-3    4.195429621499246E-1   -1.655966267071446E-1
 8.116952302200000E9     5.060521728306966E-1   -1.357005463786488E-2    8.411200143567174E-4    3.743328357758282E-3    8.749743456414740E-4    3.807448703201775E-3    4.191893677902864E-1   -1.661080366851570E-1
 8.116957103925000E9     5.061096182891643E-1   -1.393732740327018E-2    8.352245736445941E-4    3.750488250072296E-3    9.122437750073477E-4    3.818447833240910E-3    4.193133715612237E-1   -1.661029827982911E-1
 8.116961905650000E9     5.059169524581397E-1   -1.442546818411304E-2    8.611682164352881E-4    3.760200141805996E-3    9.042570888161160E-4    3.826830607580887E-3    4.190912345606895E-1   -1.664825717549272E-1
 8.116966707375000E9     5.060187328179592E-1   -1.471826859239225E-2    8.324456593126082E-4    3.775706579233836E-3    8.824483013939292E-4    3.856983564810884E-3    4.189661802144722E-1   -1.667538797284226E-1
 8.116971509100000E9     5.059657766935171E-1   -1.506852190381495E-2    8.731107906091007E-4    3.762879909753907E-3    9.271448687842609E-4    3.838565409939411E-3    4.189533386589525E-1   -1.670213447307306E-1
 8.116976310825000E9     5.058500063980168E-1   -1.558446091235004E-2    9.090975155055583E-4    3.781486992331215E-3    9.421251600450247E-4    3.816651545718658E-3    4.188553345571300E-1   -1.674831944538782E-1
 8.116981112550000E9     5.059914346099135E-1   -1.580907421501576E-2    8.735795310265941E-4    3.790663983099845E-3    9.326884508504784E-4    3.819728350379737E-3    4.187292626610003E-1   -1.676461339661909E-1
 8.116985914275000E9     5.059165064493881E-1   -1.623111184011035E-2    8.561298531178580E-4    3.801906445266563E-3    9.332532021841671E-4    3.867081696204330E-3    4.184525681255186E-1   -1.680628809282690E-1
 8.116990716000000E9     5.059823301748695E-1   -1.660837806187439E-2    8.755989087242435E-4    3.808099730472264E-3    9.651742346805512E-4    3.841339019461726E-3    4.184077323715165E-1   -1.683240869471374E-1
 8.116995517725000E9     5.059094611549724E-1   -1.699540259715479E-2    8.954675659639974E-4    3.810065413406002E-3    9.551012858224991E-4    3.867227129025746E-3    4.182312052801384E-1   -1.688431873595037E-1
 8.117000319450000E9     5.057780955699022E-1   -1.736696804758084E-2    8.987461454988253E-4    3.810745981599912E-3    9.524955186957710E-4    3.885555436672974E-3    4.182145930430237E-1   -1.688998828787219E-1
 8.117005121175000E9     5.058479769947435E-1   -1.777610655513882E-2    8.997329107116678E-4    3.820357379039170E-3    9.396881244730109E-4    3.891227702371944E-3    4.180178726068206E-1   -1.693606890908219E-1
 8.117009922900000E9     5.057839037987818E-1   -1.812871633616205E-2    9.201741946872133E-4    3.823096446449584E-3    9.703537683640916E-4    3.876247020651806E-3    4.180466526009053E-1   -1.697432021617478E-1
 8.117014724625000E9     5.057047450922870E-1   -1.849012761846235E-2    9.168915919363949E-4    3.815335568469771E-3    9.604458749730239E-4    3.860624846099841E-3    4.177656431757623E-1   -1.701235323445285E-1
 8.117019526350000E9     5.057964765461900E-1   -1.887179822240721E-2    9.151677893466305E-4    3.825341442370647E-3    9.856076853825837E-4    3.873668747318628E-3    4.177126410445451E-1   -1.702378061088691E-1
 8.117024328075000E9     5.056864341887845E-1   -1.920692941774703E-2    9.247555298119397E-4    3.817180170276971E-3    9.852591236342505E-4    3.851373630034262E-3    4.175686393740032E-1   -1.707272599604345E-1
 8.117029129800000E9     5.055828195860159E-1   -1.971115599230575E-2    9.364650879560227E-4    3.827583367050932E-3    9.741968590837482E-4    3.902233845572816E-3    4.174998188093601E-1   -1.708746733177290E-1
 8.117033931525000E9     5.055876818388729E-1   -1.996945041510077E-2    9.460535953458545E-4    3.827699055170423E-3    9.912557602905485E-4    3.878702180740460E-3    4.174456264347344E-1   -1.712928183679018E-1
 8.117038733250000E9     5.056633867477448E-1   -2.044798436027741E-2    9.384185064969296E-4    3.836380466393139E-3    9.940166279917449E-4    3.910645545086157E-3    4.172675623842087E-1   -1.714333387907613E-1
