#  HZ   S   RI   R     50.00 
! Rohde & Schwarz Vector Network Analyzer 
! Rohde-Schwarz,ZNB20-2Port,1311601062101988,3.16
! Created: UTC 3/20/2024, 11:36:57 AM
! freq[Hz]                re:S11                  im:S11                  re:S21                  im:S21                  re:S12                  im:S12                  re:S22                  im:S22
 8.117593658000000E9     5.004013846032177E-1   -6.663424758257899E-2    1.700261942574402E-3    4.909117335680840E-3    1.799476288151698E-3    4.995262069279332E-3    4.017030365270772E-1   -2.079766036535174E-1
 8.117594751475000E9     5.003118660729903E-1   -6.689145444030974E-2    1.708366416631858E-3    4.910730183276989E-3    1.783196274119892E-3    5.009972309616593E-3    4.017120396013372E-1   -2.081160184220082E-1
 8.117595844950000E9     5.003576466514098E-1   -6.692349269744391E-2    1.737082112546081E-3    4.942325623689584E-3    1.818628848845002E-3    5.020192765239887E-3    4.016816122773887E-1   -2.082127749845356E-1
 8.117596938425000E9     5.002950184792335E-1   -6.706176060785839E-2    1.735522369686565E-3    4.936215346908119E-3    1.816940248530469E-3    5.023982402889478E-3    4.016305977215822E-1   -2.083958158005684E-1
 8.117598031900000E9     5.002741285066902E-1   -6.718930685775601E-2    1.721868083027898E-3    4.962329580871548E-3    1.783846488102154E-3    5.033474798319907E-3    4.016698177465976E-1   -2.082884338513071E-1
 8.117599125375000E9     5.002507062345761E-1   -6.726505150241809E-2    1.746921890661747E-3    4.966879906618408E-3    1.820936311783120E-3    5.050218559697978E-3    4.014840164321362E-1   -2.085138107353721E-1
 8.117600218850000E9     5.002323400173601E-1   -6.752088327777940E-2    1.742760445341213E-3    4.949039515831600E-3    1.833839347672342E-3    5.046751009999124E-3    4.015285453118265E-1   -2.084376431675658E-1
 8.117601312325000E9     5.001566795572787E-1   -6.756701039470338E-2    1.756005776149255E-3    4.975536195742874E-3    1.815355866023818E-3    5.027055969097430E-3    4.014111410233795E-1   -2.086625724406476E-1
 8.117602405800000E9     5.002649653198584E-1   -6.772818266839034E-2    1.764701964097172E-3    5.017278960147211E-3    1.847903825138762E-3    5.060504488661451E-3    4.014852225156510E-1   -2.087068950190206E-1
 8.117603499275000E9     5.001108364310931E-1   -6.782052479621956E-2    1.787479096559129E-3    4.985725224723550E-3    1.839100804036758E-3    5.079591042704402E-3    4.014403936081211E-1   -2.087656496245268E-1
 8.117604592750000E9     5.001233498112404E-1   -6.796613585646027E-2    1.760543124260522E-3    5.011823520924298E-3    1.855630053418178E-3    5.047060516945041E-3    4.012903453872397E-1   -2.087445480465770E-1
 8.117605686225000E9     5.001854900590099E-1   -6.811785577507141E-2    1.777080582522292E-3    5.020710548494467E-3    1.844584601213031E-3    5.112592699398637E-3    4.012200987404645E-1   -2.088934444374303E-1
 8.117606779700000E9     5.000903996729359E-1   -6.822356321845179E-2    1.785534078493729E-3    5.043536488612268E-3    1.852414070292700E-3    5.118696768696088E-3    4.013832958579752E-1   -2.087944122971948E-1
 8.117607873175000E9     5.002470588033482E-1   -6.831365315550143E-2    1.790431989617488E-3    5.034535807983622E-3    1.895100424466093E-3    5.137732281287517E-3    4.011458499690265E-1   -2.090954005713342E-1
 8.117608966650000E9     5.000983109577748E-1   -6.846212001598401E-2    1.786235072220671E-3    5.045703212696966E-3    1.882416403923559E-3    5.148628779924636E-3    4.013166875131202E-1   -2.090516171423947E-1
 8.117610060125000E9     4.998922614276619E-1   -6.870474954649972E-2    1.802069081352884E-3    5.061111031245667E-3    1.904366415334432E-3    5.131187793638208E-3    4.013050075170434E-1   -2.091809450407455E-1
 8.117611153600000E9     4.999010552116602E-1   -6.875719606665091E-2    1.819870833309600E-3    5.081271413336640E-3    1.887322486551383E-3    5.139747956514193E-3    4.012026711547670E-1   -2.092233898615171E-1
 8.117612247075000E9     4.999392616963590E-1   -6.885465079453312E-2    1.825263375574290E-3    5.100586115039725E-3    1.905791640781077E-3    5.167809812407676E-3    4.011647808955140E-1   -2.093018907361396E-1
 8.117613340550000E9     4.998822241530674E-1   -6.898585111463078E-2    1.817063797494120E-3    5.090034236169978E-3    1.897260178868294E-3    5.161351580580412E-3    4.011183650980880E-1   -2.092749885797230E-1
 8.117614434025000E9     4.997952412209198E-1   -6.922609000675557E-2    1.840362837501596E-3    5.102680326977887E-3    1.907953603816330E-3    5.148816130354180E-3    4.011466257264890E-1   -2.095070384584607E-1
 8.117615527500000E9     4.997922955621074E-1   -6.931683314547823E-2    1.838799499817020E-3    5.107460230903541E-3    1.881038045976182E-3    5.187966584298760E-3    4.009290241537495E-1   -2.094972101229120E-1
 8.117616620975000E9     4.997171063989201E-1   -6.947335545881168E-2    1.838221214555470E-3    5.109064048026701E-3    1.948711357580511E-3    5.188405485559234E-3    4.011248255708942E-1   -2.096053197057087E-1
 8.117617714450000E9     4.998411438128998E-1   -6.950326326279940E-2    1.813311675508858E-3    5.106347635611319E-3    1.956319147487194E-3    5.215592654383725E-3    4.010150947081579E-1   -2.095651150224655E-1
 8.117618807925000E9     4.997671526821775E-1   -6.965018170332907E-2    1.858497269179569E-3    5.166604869330003E-3    1.953580747702203E-3    5.190124875255156E-3    4.008773614736739E-1   -2.097681585925234E-1
 8.117619901400000E9     4.996938099141121E-1   -6.975777232583277E-2    1.842756612742674E-3    5.150953371679945E-3    1.933513443838618E-3    5.212312338772733E-3    4.008866931147980E-1   -2.097880131616457E-1
 8.117620994875000E9     4.996033224616140E-1   -6.999313651421737E-2    1.881824669025513E-3    5.135041046029145E-3    1.987300881802416E-3    5.274411377175626E-3    4.008957040750580E-1   -2.100128080141430E-1
 8.117622088350000E9     4.996375779159051E-1   -7.010698546636764E-2    1.879322367617220E-3    5.172123594233681E-3    1.945562207275429E-3    5.256374316078311E-3    4.008360934731429E-1   -2.099167839222699E-1
 8.117623181825000E9     4.996318937987627E-1   -7.029066713040195E-2    1.876136451652454E-3    5.202464037504885E-3    1.948998837229830E-3    5.261243265162611E-3    4.008904686590420E-1   -2.099505686094272E-1
 8.117624275300000E9     4.995462636699342E-1   -7.040620762322226E-2    1.907021664798531E-3    5.201806156371282E-3    1.979775099670428E-3    5.246392186967129E-3    4.006781515579477E-1   -2.100420156140742E-1
 8.117625368775000E9     4.994630065943863E-1   -7.039624629827966E-2    1.898632434828578E-3    5.200098850196852E-3    1.971005496957739E-3    5.280669499322147E-3    4.006775612076557E-1   -2.100512674061588E-1
 8.117626462250000E9     4.993804694696126E-1   -7.054878890689288E-2    1.904250144964341E-3    5.226317977211016E-3    1.966961868429511E-3    5.270913639746403E-3    4.006305769740581E-1   -2.102364996886451E-1
 8.117627555725000E9     4.995114969437326E-1   -7.070989271924352E-2    1.915557499025201E-3    5.212794983549870E-3    2.010360891648024E-3    5.310558741249399E-3    4.005429776986120E-1   -2.102943139019146E-1
 8.117628649200000E9     4.994303533047884E-1   -7.095239989211539E-2    1.914828363121902E-3    5.234797612122268E-3    1.990678970194460E-3    5.313504600688534E-3    4.006624220758035E-1   -2.104066794797361E-1
 8.117629742675000E9     4.993424954029911E-1   -7.106162561255522E-2    1.934202302748133E-3    5.246085441976405E-3    2.021667170793466E-3    5.346881076756742E-3    4.004816680504504E-1   -2.104662731502783E-1
 8.117630836150000E9     4.993524282921547E-1   -7.123648054779660E-2    1.904189991612307E-3    5.255823662483207E-3    2.020074637684082E-3    5.348867155617310E-3    4.005701898482915E-1   -2.104543433037190E-1
 8.117631929625000E9     4.992651415693354E-1   -7.135725177783896E-2    1.948500741582528E-3    5.266759400936993E-3    2.038752634110824E-3    5.356988870540652E-3    4.004800819017158E-1   -2.105959718585080E-1
 8.117633023100000E9     4.993050427335787E-1   -7.153270364009770E-2    1.946828617748394E-3    5.295036510647329E-3    2.068293279631728E-3    5.346982968705855E-3    4.004479127036646E-1   -2.107230032598482E-1
 8.117634116575000E9     4.992314517922492E-1   -7.176244174517966E-2    1.941907253128691E-3    5.317904493711621E-3    2.078227659722354E-3    5.410155949694528E-3    4.004113968327497E-1   -2.106975125253224E-1
 8.117635210050000E9     4.992890448758246E-1   -7.169223350717352E-2    1.952322824717738E-3    5.299128653796998E-3    2.065494751882717E-3    5.400278119097164E-3    4.004124363929101E-1   -2.108484415869235E-1
 8.117636303525000E9     4.991685071986526E-1   -7.198728703331042E-2    1.942035116564447E-3    5.324803451417673E-3    2.038160764053264E-3    5.432647301693292E-3    4.004304146284950E-1   -2.109019020350333E-1
 8.117637397000000E9     4.991100053142627E-1   -7.201132010779139E-2    1.998748370072761E-3    5.334784486533868E-3    2.063163804490523E-3    5.409564145049139E-3    4.003516026976685E-1   -2.109693515422850E-1
 8.117638490475000E9     4.991453042465223E-1   -7.209560089338464E-2    2.013888878020319E-3    5.345339345050225E-3    2.070401741774472E-3    5.410756526874012E-3    4.004064203849094E-1   -2.108760563478880E-1
 8.117639583950000E9     4.990846783822052E-1   -7.238478264754010E-2    2.015676021814913E-3    5.367239289509149E-3    2.070562969375537E-3    5.451503921209793E-3    4.003186820256439E-1   -2.111697773654651E-1
 8.117640677425000E9     4.991039748742799E-1   -7.254641408381994E-2    2.003043238905276E-3    5.380346502086045E-3    2.151779857144433E-3    5.477029781376998E-3    4.001159873199481E-1   -2.112105501735986E-1
 8.117641770900000E9     4.990259930010985E-1   -7.260647227688677E-2    2.017958990721417E-3    5.400733016717761E-3    2.139830424467707E-3    5.435646672143519E-3    4.000374580600669E-1   -2.111897905408536E-1
 8.117642864375000E9     4.989751794933520E-1   -7.284696488682864E-2    2.037936802311431E-3    5.406430148160076E-3    2.112302988259723E-3    5.425752203336807E-3    4.003090959130576E-1   -2.112195588028236E-1
 8.117643957850000E9     4.988957521097192E-1   -7.295382315154023E-2    2.025633879660572E-3    5.434889283654360E-3    2.133035979793336E-3    5.501473944817257E-3    4.001367175259177E-1   -2.114371947616306E-1
 8.117645051325000E9     4.989115926871613E-1   -7.308546507814487E-2    2.057499054525193E-3    5.419913058040927E-3    2.163632409038294E-3    5.466494669049480E-3    4.001421664914816E-1   -2.114049922491125E-1
 8.117646144800000E9     4.988288812955358E-1   -7.324998547166471E-2    2.068375241131073E-3    5.446308825603262E-3    2.138531740026023E-3    5.526972613956720E-3    3.999984382081720E-1   -2.115882297000006E-1
 8.117647238275000E9     4.987259199910399E-1   -7.340139784296486E-2    2.051730072667671E-3    5.464152661129428E-3    2.165293489183791E-3    5.547620624454956E-3    3.998982273571953E-1   -2.115451029197276E-1
 8.117648331750000E9     4.986731015089089E-1   -7.358473641725531E-2    2.069255511906229E-3    5.462208597949957E-3    2.162718209223125E-3    5.551044366856970E-3    4.000575724315070E-1   -2.117345539873952E-1
 8.117649425225000E9     4.986499923546637E-1   -7.374595413014665E-2    2.058605857106584E-3    5.505124059508779E-3    2.180450985480608E-3    5.557658949016995E-3    4.000195994226721E-1   -2.117634558213758E-1
 8.117650518700000E9     4.986321971009604E-1   -7.391360167040142E-2    2.087001038004235E-3    5.494340948121791E-3    2.148961236687458E-3    5.608980131561573E-3    3.999260975688194E-1   -2.118279700801667E-1
 8.117651612175000E9     4.985361485951725E-1   -7.393638719212933E-2    2.107388122076064E-3    5.503842839257396E-3    2.209620511061517E-3    5.599668425437959E-3    3.999349285227105E-1   -2.119245068719634E-1
 8.117652705650000E9     4.985481135632406E-1   -7.416221137519319E-2    2.106242577904005E-3    5.546945507062653E-3    2.216878807753030E-3    5.605339987558024E-3    3.997832970329789E-1   -2.118179596074850E-1
 8.117653799125000E9     4.984532774252045E-1   -7.439420442464673E-2    2.123230864865803E-3    5.574604537629069E-3    2.269384602036926E-3    5.618079514882475E-3    3.997827203501073E-1   -2.120324981069848E-1
 8.117654892600000E9     4.984507778253824E-1   -7.454096475507233E-2    2.147544205266458E-3    5.585615658241320E-3    2.232603503672590E-3    5.673876271280356E-3    3.997306164927584E-1   -2.122196204582967E-1
 8.117655986075000E9     4.983576774678227E-1   -7.458313922759262E-2    2.136579192862652E-3    5.576929601817404E-3    2.264725833028345E-3    5.636552977113548E-3    3.996943239796534E-1   -2.121261514235772E-1
 8.117657079550000E9     4.983373837588002E-1   -7.486116811439723E-2    2.166454342128749E-3    5.582418485501712E-3    2.222401166833905E-3    5.654553847883986E-3    3.997031465450007E-1   -2.121967169943367E-1
 8.117658173025000E9     4.982611852862085E-1   -7.509142224162468E-2    2.146553809104193E-3    5.612601618123632E-3    2.279241466758858E-3    5.703761568383507E-3    3.997182610897357E-1   -2.122219999649935E-1
 8.117659266500000E9     4.983304338623102E-1   -7.523249247626104E-2    2.199329868020885E-3    5.603868839073868E-3    2.275895414199596E-3    5.700084847216612E-3    3.996122277923380E-1   -2.124538356725259E-1
 8.117660359975000E9     4.982383071200768E-1   -7.537009162992905E-2    2.225594901117387E-3    5.634073236826941E-3    2.296970492600058E-3    5.691710452171576E-3    3.994580590374716E-1   -2.124506358816939E-1
 8.117661453450000E9     4.980702911181707E-1   -7.549676843698941E-2    2.218069469594415E-3    5.647988315069871E-3    2.294368687999500E-3    5.756819180526618E-3    3.995298090772979E-1   -2.125974998596401E-1
 8.117662546925000E9     4.980995121779420E-1   -7.569316949143501E-2    2.215034927023404E-3    5.680044742230460E-3    2.307800573708726E-3    5.754386326069284E-3    3.995752269657932E-1   -2.125920181684772E-1
 8.117663640400000E9     4.980964845529633E-1   -7.583908229332080E-2    2.224403912726256E-3    5.684708163769841E-3    2.301679875934469E-3    5.782688646929981E-3    3.995310885406074E-1   -2.126267576495007E-1
 8.117664733875000E9     4.979825390015797E-1   -7.600787982758588E-2    2.239273630372425E-3    5.713349073368367E-3    2.335604347975933E-3    5.797183557514130E-3    3.994678249270474E-1   -2.125761383164992E-1
 8.117665827350000E9     4.979473836259642E-1   -7.621538529710807E-2    2.269287033657098E-3    5.717609520444499E-3    2.352895262728361E-3    5.819083098610824E-3    3.994319108611984E-1   -2.127715417585258E-1
 8.117666920825000E9     4.980096836979978E-1   -7.624545428910544E-2    2.276748873646004E-3    5.755787397360871E-3    2.352822457647319E-3    5.868278465661565E-3    3.994353864614179E-1   -2.129170284704335E-1
 8.117668014300000E9     4.979155415795975E-1   -7.655221390152150E-2    2.288628767669611E-3    5.760118359662416E-3    2.383065514522427E-3    5.842402334066308E-3    3.993371678901339E-1   -2.129797493109233E-1
 8.117669107775000E9     4.978154866565123E-1   -7.654225588353961E-2    2.275309611897082E-3    5.776060319595504E-3    2.383023405169404E-3    5.865611196412427E-3    3.994026071777804E-1   -2.129458070913362E-1
 8.117670201250000E9     4.977019800148292E-1   -7.687804689061370E-2    2.309334387468200E-3    5.795662449221781E-3    2.414916960660447E-3    5.863925118116450E-3    3.991993351739503E-1   -2.131816164037501E-1
 8.117671294725000E9     4.976723618446401E-1   -7.696388749888851E-2    2.322066708319481E-3    5.812622383270793E-3    2.414294524882250E-3    5.873616261415159E-3    3.993238762101114E-1   -2.131524838574487E-1
 8.117672388200000E9     4.975157157795838E-1   -7.715390517599338E-2    2.322308265956960E-3    5.837968628776532E-3    2.420049635984645E-3    5.944563534830279E-3    3.992342284486572E-1   -2.133219178933446E-1
 8.117673481675000E9     4.975068012507750E-1   -7.736407925883480E-2    2.353469048754631E-3    5.856450432650028E-3    2.432132573212794E-3    5.998410197231706E-3    3.992087686950091E-1   -2.132902489302119E-1
 8.117674575150000E9     4.974582798996312E-1   -7.746768718423436E-2    2.376226930473640E-3    5.857243512922326E-3    2.470987273977395E-3    5.956087358046297E-3    3.991096217269814E-1   -2.134146066171453E-1
 8.117675668625000E9     4.973381611895760E-1   -7.781947255063280E-2    2.383728676593946E-3    5.885660821956026E-3    2.478022968971642E-3    5.996799288330494E-3    3.990551179440843E-1   -2.133653640476012E-1
 8.117676762100000E9     4.973972287909418E-1   -7.792247665939797E-2    2.408709311640382E-3    5.904860541351298E-3    2.494274001479611E-3    5.997146243154331E-3    3.991154001712308E-1   -2.135035239853421E-1
 8.117677855575000E9     4.973179246425022E-1   -7.809437624759323E-2    2.389713883693309E-3    5.899787675325328E-3    2.526749767645163E-3    6.008195998663660E-3    3.990099099486548E-1   -2.135689820418716E-1
 8.117678949050000E9     4.971275902707662E-1   -7.822109266050271E-2    2.410486907758437E-3    5.946119970274605E-3    2.520083913748809E-3    6.036943366512610E-3    3.990238761408682E-1   -2.137433888326737E-1
 8.117680042525000E9     4.971494242292757E-1   -7.846126754719354E-2    2.418008051607035E-3    5.983466590515824E-3    2.581153932379986E-3    6.082491466283685E-3    3.989767000266951E-1   -2.136461707399094E-1
 8.117681136000000E9     4.971048583649589E-1   -7.865064071199518E-2    2.440147963024476E-3    5.985349879791689E-3    2.564170277556988E-3    6.080786851509598E-3    3.989405715956526E-1   -2.138342952626802E-1
 8.117682229475000E9     4.969676150012642E-1   -7.892335256111878E-2    2.452534751535394E-3    5.992495595398064E-3    2.602413004171474E-3    6.102516149557214E-3    3.988784419705910E-1   -2.137455330600078E-1
 8.117683322950000E9     4.969161456437156E-1   -7.905545052020892E-2    2.480716065180068E-3    6.050434389648368E-3    2.590781054632765E-3    6.113500957995235E-3    3.989042766427420E-1   -2.140839472499048E-1
 8.117684416425000E9     4.967949955561270E-1   -7.916367182120859E-2    2.501372787868724E-3    6.037957498587223E-3    2.583210550173960E-3    6.162796212364379E-3    3.987756705496400E-1   -2.141361817925120E-1
 8.117685509900000E9     4.968204064083354E-1   -7.946137200343578E-2    2.539828460863169E-3    6.057377509270359E-3    2.649673899635244E-3    6.137360705507553E-3    3.987850726907084E-1   -2.140401278837070E-1
 8.117686603375000E9     4.966725601887196E-1   -7.957701684973807E-2    2.505080950506504E-3    6.111505717547931E-3    2.661712279147264E-3    6.178591980728141E-3    3.987876488724068E-1   -2.140652601174285E-1
 8.117687696850000E9     4.966040842074372E-1   -7.998916424433723E-2    2.562601793446360E-3    6.106244142054768E-3    2.669435171081668E-3    6.199839881006661E-3    3.987112083792026E-1   -2.142581325010856E-1
 8.117688790325000E9     4.966575425261043E-1   -7.988458828857592E-2    2.602544463102784E-3    6.160441602237647E-3    2.702958661466785E-3    6.220477854709916E-3    3.986217708235030E-1   -2.142962962932037E-1
 8.117689883800000E9     4.965528371219082E-1   -8.024173212782669E-2    2.583447603299055E-3    6.167011493199566E-3    2.716000002070994E-3    6.261930390190763E-3    3.986454792361324E-1   -2.144459073494212E-1
 8.117690977275000E9     4.964001785181767E-1   -8.044841880259686E-2    2.584174820378838E-3    6.168516818021278E-3    2.744293973186139E-3    6.302481732652469E-3    3.985687989375584E-1   -2.144767388938558E-1
 8.117692070750000E9     4.963614220301026E-1   -8.069791309927962E-2    2.607811875269934E-3    6.218528322979599E-3    2.734031152402288E-3    6.301689508442554E-3    3.984788667202858E-1   -2.145934050907392E-1
