#  HZ   S   RI   R     50.00 
! Rohde & Schwarz Vector Network Analyzer 
! Rohde-Schwarz,ZNB20-2Port,1311601062101988,3.16
! Created: UTC 12/23/2023, 3:57:28 AM
! freq[Hz]                re:S11                  im:S11                  re:S21                  im:S21                  re:S12                  im:S12                  re:S22                  im:S22
 7.837282298000000E9     5.660622843618014E-1    1.733347021703256E-2    1.332076604857493E-3    3.767001112697273E-3    1.408919228065470E-3    3.689628899858152E-3    4.572511085564573E-1   -2.869079566756458E-1
 7.837314633225000E9     5.661106918825958E-1    1.519059591372794E-2    1.354921987832749E-3    3.750285880759890E-3    1.407807033342830E-3    3.675676073546244E-3    4.558876635194548E-1   -2.887707708268870E-1
 7.837346968450000E9     5.661950038638749E-1    1.309214461876266E-2    1.392581259885383E-3    3.741325576751651E-3    1.405580285192604E-3    3.685339656025852E-3    4.548386143066706E-1   -2.908432710862123E-1
 7.837379303675000E9     5.663819454102104E-1    1.085826573108349E-2    1.417619922273151E-3    3.738582901144332E-3    1.414401977362360E-3    3.643764501786848E-3    4.534050252330722E-1   -2.926519669186196E-1
 7.837411638900000E9     5.664100408478003E-1    8.662282930782963E-3    1.439095204513957E-3    3.725426629092169E-3    1.450795241238219E-3    3.658515193408381E-3    4.523078679780714E-1   -2.947069811132955E-1
 7.837443974125000E9     5.662958759752516E-1    6.575718864368765E-3    1.454477346732945E-3    3.759598792662055E-3    1.445906559126968E-3    3.639072007963028E-3    4.511413156816548E-1   -2.963703142666766E-1
 7.837476309350000E9     5.664693393190046E-1    4.384619138726279E-3    1.458699101853240E-3    3.720179031381104E-3    1.482573315887937E-3    3.649286816866222E-3    4.498401198390891E-1   -2.982638915287698E-1
 7.837508644575000E9     5.665462600633441E-1    2.241207379871510E-3    1.476316954544938E-3    3.713024736134521E-3    1.500660996087414E-3    3.675690596479265E-3    4.486018138250805E-1   -3.001499861518676E-1
 7.837540979800000E9     5.664960139019587E-1   -5.584622878145365E-5    1.506348656658585E-3    3.765553079158675E-3    1.539468892538490E-3    3.672938930497545E-3    4.472035132472292E-1   -3.022377357375478E-1
 7.837573315025000E9     5.663780387928387E-1   -2.058033077195340E-3    1.537858466316490E-3    3.728876766447796E-3    1.495653650779238E-3    3.662603154874668E-3    4.458942762896486E-1   -3.039662069644659E-1
 7.837605650250000E9     5.664769508736243E-1   -4.039800035610732E-3    1.526348725436475E-3    3.740249666432815E-3    1.535141727855490E-3    3.652843445097211E-3    4.447786502211221E-1   -3.058307933413336E-1
 7.837637985475000E9     5.665687334564780E-1   -6.352192770625739E-3    1.555697986172764E-3    3.742460590356991E-3    1.570683611650830E-3    3.650616677258037E-3    4.436198248824505E-1   -3.077200403961821E-1
 7.837670320700000E9     5.664139495518393E-1   -8.562640413686869E-3    1.576553910554001E-3    3.723179646169885E-3    1.573120544475104E-3    3.662379674835156E-3    4.419558437239154E-1   -3.094795863127119E-1
 7.837702655925000E9     5.665006912381841E-1   -1.067027467310093E-2    1.578047937008026E-3    3.722156737108773E-3    1.573275004133086E-3    3.684241549377722E-3    4.409500819177872E-1   -3.114435852908392E-1
 7.837734991150000E9     5.663176314719977E-1   -1.269368887416537E-2    1.628104263145404E-3    3.735908071218888E-3    1.616160881203094E-3    3.636591980532786E-3    4.396976552311109E-1   -3.132381275321239E-1
 7.837767326375000E9     5.662948453143219E-1   -1.497445767811538E-2    1.633037569841639E-3    3.753830397217715E-3    1.625368286922525E-3    3.620675445858992E-3    4.384107374981294E-1   -3.152169419162922E-1
 7.837799661600000E9     5.664642970922851E-1   -1.710080153779096E-2    1.649017872993247E-3    3.710493226415311E-3    1.676715358696883E-3    3.676188280280398E-3    4.371722393166558E-1   -3.169860344577256E-1
 7.837831996825000E9     5.663380405288412E-1   -1.912438960803103E-2    1.677299770603991E-3    3.751469292666535E-3    1.675655167156037E-3    3.639184603699391E-3    4.356287469115466E-1   -3.188537872689003E-1
 7.837864332050000E9     5.662700289839809E-1   -2.125142308601481E-2    1.686377201413927E-3    3.725460732395371E-3    1.698744792093604E-3    3.683534013880240E-3    4.344223975303884E-1   -3.206724768486941E-1
 7.837896667275000E9     5.661531136180619E-1   -2.349298472863728E-2    1.705871339417696E-3    3.711928091125942E-3    1.718279669974130E-3    3.688423637454123E-3    4.329066825327819E-1   -3.224280640183834E-1
 7.837929002500000E9     5.661272065464292E-1   -2.559824398393666E-2    1.740532156907437E-3    3.735750494111510E-3    1.709899899660206E-3    3.647502018396822E-3    4.316615155924669E-1   -3.243574700600208E-1
 7.837961337725000E9     5.659281899167649E-1   -2.796003470817113E-2    1.736475109102196E-3    3.719394358577745E-3    1.750143223464885E-3    3.651211362846514E-3    4.303229415201880E-1   -3.260284334911893E-1
 7.837993672950000E9     5.657401142843687E-1   -2.991125006520369E-2    1.763829578717345E-3    3.740657470419029E-3    1.749958922149182E-3    3.640229633957490E-3    4.288461887588949E-1   -3.278689290140083E-1
 7.838026008175000E9     5.658112522501514E-1   -3.203864239748744E-2    1.775177587482491E-3    3.719554841446961E-3    1.790773093144854E-3    3.625831418261511E-3    4.275541909756523E-1   -3.296406514847005E-1
 7.838058343400000E9     5.656037361660186E-1   -3.429379416089412E-2    1.799367969094144E-3    3.715546265141311E-3    1.807784708977168E-3    3.667653335880016E-3    4.263227494597516E-1   -3.315992563590068E-1
 7.838090678625000E9     5.654436533940788E-1   -3.650701392953709E-2    1.847142146755434E-3    3.737407969283289E-3    1.802485280550478E-3    3.665166107752970E-3    4.247634339331979E-1   -3.332782260678072E-1
 7.838123013850000E9     5.653931126044207E-1   -3.868046738111105E-2    1.803439911504085E-3    3.705840731520850E-3    1.849866212521262E-3    3.652383197791787E-3    4.234060685366746E-1   -3.351459803771521E-1
 7.838155349075000E9     5.652715713323387E-1   -4.059963130950479E-2    1.842003891502762E-3    3.691070550746665E-3    1.836685492692251E-3    3.677225780726679E-3    4.220447598779981E-1   -3.368728766699533E-1
 7.838187684300000E9     5.650795469578541E-1   -4.281425919224760E-2    1.876910783372495E-3    3.705781178056991E-3    1.886985271839133E-3    3.643516084938284E-3    4.205154240094522E-1   -3.387209095448234E-1
 7.838220019525000E9     5.649750766919884E-1   -4.511633434105097E-2    1.892054904805175E-3    3.689694821104829E-3    1.875849956767197E-3    3.618910292685023E-3    4.190962149111147E-1   -3.404651595410780E-1
 7.838252354750000E9     5.648228521267787E-1   -4.728014789741149E-2    1.932960473827232E-3    3.721756967401210E-3    1.899515027143781E-3    3.670355211481679E-3    4.178238271782873E-1   -3.421012848457389E-1
 7.838284689975000E9     5.645741210502345E-1   -4.939568503830492E-2    1.934284213373198E-3    3.720877733016827E-3    1.926925573881978E-3    3.620544976220803E-3    4.163356488693357E-1   -3.439877140081566E-1
 7.838317025200000E9     5.643695110214090E-1   -5.159155957509761E-2    1.961761521575572E-3    3.680356250176844E-3    1.948959870580297E-3    3.634695782748314E-3    4.149351905601411E-1   -3.457819673538359E-1
 7.838349360425000E9     5.643209206323142E-1   -5.358288760871820E-2    1.982992293179120E-3    3.693171024016350E-3    1.978183038981865E-3    3.665416424776330E-3    4.134739373223242E-1   -3.473678634421357E-1
 7.838381695650000E9     5.641005456053787E-1   -5.573533125733028E-2    2.012814093511069E-3    3.710532329864335E-3    1.983087588184470E-3    3.634938107993117E-3    4.119426066952813E-1   -3.491774334397839E-1
 7.838414030875000E9     5.637786368208468E-1   -5.791175380876935E-2    2.022038334116809E-3    3.714771467954489E-3    2.010904872359489E-3    3.621202236972661E-3    4.104591972354418E-1   -3.509890927967328E-1
 7.838446366100000E9     5.636271903879833E-1   -6.003607272560902E-2    2.037849528403076E-3    3.710947279943666E-3    2.061829951038670E-3    3.647298907818287E-3    4.091637014557964E-1   -3.525911070964428E-1
 7.838478701325000E9     5.633668237319710E-1   -6.206778543781053E-2    2.071083573618472E-3    3.704260319113035E-3    2.076333442582045E-3    3.648157001643136E-3    4.077169461648432E-1   -3.541914226400709E-1
 7.838511036550000E9     5.632268176376182E-1   -6.427544526951183E-2    2.100163320817357E-3    3.714488957262487E-3    2.077198768143433E-3    3.659128655658503E-3    4.062173722634149E-1   -3.562406472535190E-1
 7.838543371775000E9     5.629293742710709E-1   -6.646524285729197E-2    2.097400529871540E-3    3.683348019552325E-3    2.092854823500380E-3    3.603038337779996E-3    4.045603521336192E-1   -3.577121818230421E-1
 7.838575707000000E9     5.627364975343629E-1   -6.863021913230087E-2    2.108058842819308E-3    3.684538678801089E-3    2.126485375553283E-3    3.635470013917126E-3    4.031683706215093E-1   -3.596387291051610E-1
 7.838608042225000E9     5.623879686487068E-1   -7.077785893829132E-2    2.151327096852152E-3    3.675313409887630E-3    2.132125995338730E-3    3.625452165001508E-3    4.015364840212670E-1   -3.611528785700335E-1
 7.838640377450000E9     5.621481137822852E-1   -7.279465555173040E-2    2.167264046546750E-3    3.671079073724297E-3    2.143101213989437E-3    3.631193644479116E-3    4.000017122167999E-1   -3.629215980599115E-1
 7.838672712675000E9     5.619122077615808E-1   -7.500199476039479E-2    2.185669422556273E-3    3.684846683288635E-3    2.170419115411487E-3    3.652577893888475E-3    3.986385544629453E-1   -3.645493218671623E-1
 7.838705047900000E9     5.616017177940299E-1   -7.714429010141297E-2    2.216119410421978E-3    3.689132532800478E-3    2.229204520675618E-3    3.626979245213047E-3    3.970480196352500E-1   -3.662746919251156E-1
 7.838737383125000E9     5.612657997933839E-1   -7.942288282918621E-2    2.249055924580164E-3    3.681304098365635E-3    2.227394052230844E-3    3.639226421241893E-3    3.956333789769308E-1   -3.677608401051198E-1
 7.838769718350000E9     5.609915321452311E-1   -8.153594470247919E-2    2.276405453073881E-3    3.688187952429194E-3    2.256304455884987E-3    3.593386175264184E-3    3.939739986215547E-1   -3.696457811683576E-1
 7.838802053575000E9     5.606948521813604E-1   -8.354015448929299E-2    2.295433803303886E-3    3.662767584333227E-3    2.267211635454295E-3    3.620554088638712E-3    3.923974659563994E-1   -3.712318307499843E-1
 7.838834388800000E9     5.603788239263542E-1   -8.560976544371937E-2    2.283235619603964E-3    3.708586953739401E-3    2.284140301618474E-3    3.612333950311670E-3    3.908553513355569E-1   -3.729699428455576E-1
 7.838866724025000E9     5.601308861973149E-1   -8.784069051581191E-2    2.309139790892742E-3    3.652900698855643E-3    2.309828900310326E-3    3.613060123736924E-3    3.893400082158305E-1   -3.744185290279554E-1
 7.838899059250000E9     5.597410928477115E-1   -9.005952852524064E-2    2.324805913532720E-3    3.666796448523871E-3    2.341988121022480E-3    3.644460253771562E-3    3.877635561469247E-1   -3.762362776242138E-1
 7.838931394475000E9     5.592895577292983E-1   -9.214632070075687E-2    2.352509407867262E-3    3.644069117970807E-3    2.356425021774397E-3    3.638794962329074E-3    3.860727711651994E-1   -3.778433087606799E-1
 7.838963729700000E9     5.590007765017052E-1   -9.437840357714682E-2    2.376003985139926E-3    3.653395434629795E-3    2.345133534960033E-3    3.611467832162805E-3    3.846122455838198E-1   -3.794102038539932E-1
 7.838996064925000E9     5.586561869405393E-1   -9.648392190493583E-2    2.426507328514120E-3    3.652898659683027E-3    2.358284185969180E-3    3.604766286834524E-3    3.829822737925060E-1   -3.811592864691563E-1
 7.839028400150000E9     5.583798804572564E-1   -9.858597990187140E-2    2.438934834625919E-3    3.671801639943287E-3    2.410155539344242E-3    3.605228863443700E-3    3.814287749927514E-1   -3.827329924808572E-1
 7.839060735375000E9     5.579439697352240E-1   -1.007973121732285E-1    2.458346615563350E-3    3.648862390677742E-3    2.446920322857152E-3    3.607881935585523E-3    3.797898715629756E-1   -3.841602180878556E-1
 7.839093070600000E9     5.574274634572636E-1   -1.029333072826088E-1    2.499737493254315E-3    3.655190433378848E-3    2.461859019742236E-3    3.574277943665280E-3    3.781424743352412E-1   -3.859054096243744E-1
 7.839125405825000E9     5.570907552156198E-1   -1.049382597941387E-1    2.524648638401527E-3    3.652485244655134E-3    2.476928246623327E-3    3.624462269438030E-3    3.766520390234891E-1   -3.874389230710453E-1
 7.839157741050000E9     5.566655839985891E-1   -1.070608540241000E-1    2.519753149384202E-3    3.623617510054317E-3    2.485907494911115E-3    3.578421916211585E-3    3.749940197141539E-1   -3.891204061029769E-1
 7.839190076275000E9     5.562295446566018E-1   -1.093152033897364E-1    2.551963117823933E-3    3.624496723549261E-3    2.506668628803741E-3    3.617749958200445E-3    3.732890648280085E-1   -3.906740771028342E-1
 7.839222411500000E9     5.558933038918011E-1   -1.113654858104471E-1    2.579010738529653E-3    3.655778933519566E-3    2.513864148743347E-3    3.584425258256102E-3    3.715164556721491E-1   -3.922593054336043E-1
 7.839254746725000E9     5.555303359303493E-1   -1.134496878021894E-1    2.606279287101412E-3    3.655495677902171E-3    2.550748071789291E-3    3.579752983960594E-3    3.700601936062842E-1   -3.938111023878885E-1
 7.839287081950000E9     5.550707401517442E-1   -1.154213488634324E-1    2.622358491496181E-3    3.640763783141189E-3    2.610018167690879E-3    3.600248486359616E-3    3.683429450951020E-1   -3.952426798988410E-1
 7.839319417175000E9     5.546549157063919E-1   -1.176909317073728E-1    2.631924630390685E-3    3.636787242831053E-3    2.613037517097263E-3    3.607072329335200E-3    3.668494335787631E-1   -3.966867672131068E-1
 7.839351752400000E9     5.541988939942309E-1   -1.198292903833255E-1    2.655944849027808E-3    3.631799202393664E-3    2.612263855202256E-3    3.601864962878321E-3    3.650769705547339E-1   -3.983367630429357E-1
 7.839384087625000E9     5.537525822845710E-1   -1.219582978531237E-1    2.702330333856393E-3    3.643592116368432E-3    2.640224040113683E-3    3.580751154233978E-3    3.635288439579248E-1   -4.000464882054524E-1
 7.839416422850000E9     5.531368637289986E-1   -1.240170609766623E-1    2.728312140590424E-3    3.614056681645475E-3    2.672615940080648E-3    3.589915213228567E-3    3.617374807853242E-1   -4.015232321643359E-1
 7.839448758075000E9     5.525657791782104E-1   -1.261777962794339E-1    2.736155297975440E-3    3.634542513534837E-3    2.687466288228977E-3    3.590566074577259E-3    3.600162528252623E-1   -4.030205841922417E-1
 7.839481093300000E9     5.522581991545188E-1   -1.283160656833877E-1    2.782484149902834E-3    3.630378982526990E-3    2.731337109154669E-3    3.595557082528216E-3    3.583880191810643E-1   -4.045229522849682E-1
 7.839513428525000E9     5.517249505267343E-1   -1.304655506339311E-1    2.773457732616082E-3    3.615190490810773E-3    2.762576440021515E-3    3.593917336137097E-3    3.567902283821646E-1   -4.060063633149615E-1
 7.839545763750000E9     5.509937913470093E-1   -1.324577624252360E-1    2.803313422508308E-3    3.619287621006543E-3    2.771189250161716E-3    3.610003732099890E-3    3.550768116950920E-1   -4.075241689298447E-1
 7.839578098975000E9     5.507310378040765E-1   -1.346015464975331E-1    2.819603970802061E-3    3.610917540884455E-3    2.783586535919016E-3    3.594367256350340E-3    3.533211335973537E-1   -4.092152488969121E-1
 7.839610434200000E9     5.501199962291838E-1   -1.366993495384652E-1    2.878654489914655E-3    3.618693046441533E-3    2.804635319144503E-3    3.568821002852750E-3    3.517687701663392E-1   -4.106562299507032E-1
 7.839642769425000E9     5.497189312911462E-1   -1.388111061151722E-1    2.921410820963629E-3    3.606479386423303E-3    2.819536618391672E-3    3.567823197374794E-3    3.498706522092727E-1   -4.120673130956057E-1
 7.839675104650000E9     5.492189273177229E-1   -1.410350548472093E-1    2.905763390111789E-3    3.570752138479430E-3    2.871234291707566E-3    3.580582865836398E-3    3.481859146614774E-1   -4.135819895186902E-1
 7.839707439875000E9     5.486221655585133E-1   -1.430601047279702E-1    2.943387365098752E-3    3.613590776610127E-3    2.910603558996152E-3    3.577641640421679E-3    3.464468292724658E-1   -4.149761197229256E-1
 7.839739775100000E9     5.480738198190519E-1   -1.452528734982926E-1    2.941511890467041E-3    3.610019854664180E-3    2.924855564748588E-3    3.565534857517063E-3    3.446484141836029E-1   -4.163098988623665E-1
 7.839772110325000E9     5.474713127579945E-1   -1.472881526361315E-1    2.991518058847607E-3    3.585301804546772E-3    2.930767567072326E-3    3.576797435431162E-3    3.429391364277238E-1   -4.177987426640992E-1
 7.839804445550000E9     5.468475202681808E-1   -1.494528681331638E-1    3.008623280779081E-3    3.576317635559737E-3    2.936302737122665E-3    3.570134795428357E-3    3.412233946223930E-1   -4.193461707732726E-1
 7.839836780775000E9     5.462368129068162E-1   -1.514729522269971E-1    3.061383186867730E-3    3.568479951008273E-3    2.993690269213033E-3    3.586223622527126E-3    3.393727561307186E-1   -4.207354352624416E-1
 7.839869116000000E9     5.456791125488071E-1   -1.536038347138677E-1    3.079465180357880E-3    3.570190534058749E-3    3.011568659547630E-3    3.551382996936054E-3    3.376354256107460E-1   -4.222522771231234E-1
 7.839901451225000E9     5.450895359309880E-1   -1.557093197611927E-1    3.097254612696380E-3    3.576296085948373E-3    3.039482661722075E-3    3.544186424307873E-3    3.359034478262760E-1   -4.234810493726944E-1
 7.839933786450000E9     5.445660194305311E-1   -1.577862014540508E-1    3.120243014106046E-3    3.582325064642074E-3    3.117799155003002E-3    3.563283491046215E-3    3.341444506792074E-1   -4.249832289210713E-1
 7.839966121675000E9     5.439030998332472E-1   -1.597254490695601E-1    3.185999081208264E-3    3.581422209069854E-3    3.111764708148300E-3    3.527910325847890E-3    3.322251532302969E-1   -4.263333804826462E-1
 7.839998456900000E9     5.432601415692407E-1   -1.619198072396082E-1    3.172334004827902E-3    3.591501937173869E-3    3.105257390955116E-3    3.579729066371769E-3    3.306062491122854E-1   -4.278003124767877E-1
 7.840030792125000E9     5.425580981727689E-1   -1.640682013119854E-1    3.216226602172171E-3    3.578245294390847E-3    3.169730680101059E-3    3.547506672899408E-3    3.288495152402852E-1   -4.292215015742503E-1
 7.840063127350000E9     5.419910948693286E-1   -1.661192270676982E-1    3.243715061068312E-3    3.589060447358878E-3    3.232444913117519E-3    3.543687306794735E-3    3.269832244422585E-1   -4.305607045540996E-1
 7.840095462575000E9     5.413517172345544E-1   -1.681094753899519E-1    3.274128334186485E-3    3.554333792788673E-3    3.237125113212051E-3    3.546965617643525E-3    3.251874230442240E-1   -4.319663329878916E-1
 7.840127797800000E9     5.405197280883564E-1   -1.703380078468297E-1    3.297641077681171E-3    3.577908588519693E-3    3.259280438022744E-3    3.531002299977579E-3    3.234619331083497E-1   -4.332691944072585E-1
 7.840160133025000E9     5.398988883099606E-1   -1.724357883390803E-1    3.340958978047117E-3    3.548490421028094E-3    3.302974202381087E-3    3.549070441887005E-3    3.216146031807866E-1   -4.347067982234522E-1
 7.840192468250000E9     5.393192851708829E-1   -1.745611182447845E-1    3.361472156500843E-3    3.598561032857530E-3    3.328340688532011E-3    3.527278914926900E-3    3.198537812855358E-1   -4.361156594242834E-1
