#  HZ   S   RI   R     50.00 
! Rohde & Schwarz Vector Network Analyzer 
! Rohde-Schwarz,ZNB20-2Port,1311601062101988,3.16
! Created: UTC 3/20/2024, 11:37:00 AM
! freq[Hz]                re:S11                  im:S11                  re:S21                  im:S21                  re:S12                  im:S12                  re:S22                  im:S22
 8.117594215000000E9     5.002552627180074E-1   -6.669909226159038E-2    1.713238949577753E-3    4.940654299935585E-3    1.815382072013923E-3    5.000050760318328E-3    4.017310581006836E-1   -2.082337794181008E-1
 8.117595301425000E9     5.003395389690866E-1   -6.691791281067520E-2    1.696408512569148E-3    4.953904322675788E-3    1.826997131537995E-3    5.013937918318006E-3    4.016786673763251E-1   -2.082990258949611E-1
 8.117596387850000E9     5.001764712094050E-1   -6.710538472177648E-2    1.725054898734744E-3    4.931397507983045E-3    1.818819815323102E-3    5.034973138083613E-3    4.015743356366622E-1   -2.081647785477461E-1
 8.117597474275000E9     5.002698871056809E-1   -6.716262382363399E-2    1.723774429475357E-3    4.957179402559678E-3    1.787057429694552E-3    4.997793740775305E-3    4.017032407650692E-1   -2.082662214238279E-1
 8.117598560700000E9     5.001801116740294E-1   -6.732918891195168E-2    1.773365965207546E-3    4.961898977894915E-3    1.837951199900176E-3    5.065790709269586E-3    4.014649099104232E-1   -2.083485505888262E-1
 8.117599647125000E9     5.001317452258744E-1   -6.739594030132891E-2    1.743549295334380E-3    4.976973806588261E-3    1.804791202224767E-3    5.054227417671408E-3    4.016363311420343E-1   -2.084761594895737E-1
 8.117600733550000E9     5.001968600933082E-1   -6.761997993497691E-2    1.748530699642367E-3    5.015315425335961E-3    1.844967947443555E-3    5.061912373808351E-3    4.015545931466880E-1   -2.086071829041422E-1
 8.117601819975000E9     5.001832999983505E-1   -6.772330153479915E-2    1.783641719924017E-3    4.985475309234138E-3    1.832717000050057E-3    5.048809391416514E-3    4.015458802064726E-1   -2.085817614604583E-1
 8.117602906400000E9     4.999867417391823E-1   -6.785075335903477E-2    1.779226701880804E-3    5.012520994387474E-3    1.839536583899491E-3    5.073270111344962E-3    4.014061834916422E-1   -2.086383225530362E-1
 8.117603992825000E9     5.002359686379726E-1   -6.793516971172955E-2    1.744401319672871E-3    5.027157299119546E-3    1.888041380599435E-3    5.073882568628683E-3    4.012016451780716E-1   -2.086909362978109E-1
 8.117605079250000E9     5.001404969282339E-1   -6.821893530962592E-2    1.765501235197043E-3    5.022373481934916E-3    1.884417695792336E-3    5.093291290180671E-3    4.013452863358276E-1   -2.088307039684953E-1
 8.117606165675000E9     5.000832582299496E-1   -6.814318291421020E-2    1.796891442699113E-3    5.031264077567152E-3    1.867618396446536E-3    5.128042192632165E-3    4.013161724588695E-1   -2.089229018187578E-1
 8.117607252100000E9     5.000735262836491E-1   -6.837656397748612E-2    1.772585187976869E-3    5.068743636002996E-3    1.880187625843924E-3    5.115195537099567E-3    4.014379052067275E-1   -2.089933378310884E-1
 8.117608338525000E9     5.000349369773134E-1   -6.855330619359710E-2    1.808969174227494E-3    5.061777325852203E-3    1.860744205052042E-3    5.120840002014123E-3    4.011387994489373E-1   -2.090612900741141E-1
 8.117609424950000E9     5.000389954673465E-1   -6.859873300336512E-2    1.796116686625982E-3    5.061045469509129E-3    1.866589847689577E-3    5.148688584948679E-3    4.011674415022805E-1   -2.090907666954261E-1
 8.117610511375000E9     4.999360907298724E-1   -6.879396542334873E-2    1.814141345239727E-3    5.065473010458655E-3    1.917893970789735E-3    5.121929864994855E-3    4.012012312265348E-1   -2.092415218631984E-1
 8.117611597800000E9     4.999086272569682E-1   -6.885523998879597E-2    1.843299723892429E-3    5.076814053453151E-3    1.886285464759200E-3    5.153280571998643E-3    4.012244719992316E-1   -2.093281763760479E-1
 8.117612684225000E9     4.999447912761903E-1   -6.905021544555834E-2    1.816149998082784E-3    5.062539243155128E-3    1.916684976377448E-3    5.195588173281994E-3    4.011686555054639E-1   -2.093001411702511E-1
 8.117613770650000E9     4.998374981715465E-1   -6.909211126713691E-2    1.821253255795937E-3    5.119306253756229E-3    1.926794946695610E-3    5.158780128014000E-3    4.010619619519219E-1   -2.093422622483139E-1
 8.117614857075000E9     4.998963834250922E-1   -6.932988176555746E-2    1.844362369594238E-3    5.111623512751967E-3    1.910218724842641E-3    5.199242379128713E-3    4.009299371592432E-1   -2.094586850226186E-1
 8.117615943500000E9     4.998237608081953E-1   -6.937509487699052E-2    1.843936966111564E-3    5.110685669115996E-3    1.895393482827109E-3    5.178199280828402E-3    4.012016105186834E-1   -2.096108134498176E-1
 8.117617029925000E9     4.997405258348649E-1   -6.959238621210026E-2    1.852938962860939E-3    5.144504676566673E-3    1.903593407592363E-3    5.192034406458666E-3    4.008629341981516E-1   -2.095984836517611E-1
 8.117618116350000E9     4.997652877369523E-1   -6.968610937520431E-2    1.842926570242510E-3    5.153992206554579E-3    1.943210260112621E-3    5.223821961922829E-3    4.009788325492993E-1   -2.095366304699258E-1
 8.117619202775000E9     4.995546767522251E-1   -6.975104891819829E-2    1.860919675173678E-3    5.141134757617162E-3    1.971388165058306E-3    5.202669745631879E-3    4.008595303106404E-1   -2.096714019597617E-1
 8.117620289200000E9     4.997089157735410E-1   -6.982686233488865E-2    1.860390331584462E-3    5.204902629606795E-3    1.940737755632341E-3    5.243665801150979E-3    4.007717394657649E-1   -2.097303624868521E-1
 8.117621375625000E9     4.995184077477970E-1   -6.998048159027825E-2    1.886821879891541E-3    5.164859616828938E-3    1.962881046053836E-3    5.275484605786579E-3    4.009354731259461E-1   -2.098207555797971E-1
 8.117622462050000E9     4.995152460975347E-1   -7.020552806414711E-2    1.880038284625246E-3    5.173146294606812E-3    2.008232764947000E-3    5.240296176525851E-3    4.007734769654220E-1   -2.100689303671474E-1
 8.117623548475000E9     4.995435351031776E-1   -7.033610605348470E-2    1.881308374030089E-3    5.195269201124405E-3    1.991988760634062E-3    5.271620446054262E-3    4.007769725610010E-1   -2.101463530569246E-1
 8.117624634900000E9     4.994464949111244E-1   -7.041167278483297E-2    1.882049625559152E-3    5.207492867649897E-3    2.005649815558799E-3    5.302245704512076E-3    4.007533202821409E-1   -2.101498555774200E-1
 8.117625721325000E9     4.994280442663100E-1   -7.054122293447329E-2    1.933390554509249E-3    5.214730975930139E-3    2.003559831343588E-3    5.314812626083734E-3    4.006355418593676E-1   -2.101582277964938E-1
 8.117626807750000E9     4.995166609538416E-1   -7.069127644141843E-2    1.927046315235247E-3    5.209770783993613E-3    1.993835470257926E-3    5.293026114835875E-3    4.006497410489029E-1   -2.102286819414911E-1
 8.117627894175000E9     4.994361823437181E-1   -7.085825939635350E-2    1.932922569521617E-3    5.229761715223417E-3    2.013978310482647E-3    5.318846460675462E-3    4.006514350919709E-1   -2.103448464170479E-1
 8.117628980600000E9     4.993804739092180E-1   -7.113150484939282E-2    1.933689996247324E-3    5.237263819297528E-3    2.005145792430092E-3    5.335878729515156E-3    4.006092402998344E-1   -2.103113525051038E-1
 8.117630067025000E9     4.993508774313030E-1   -7.120199252031624E-2    1.933366942376803E-3    5.267325206469269E-3    2.027005682660763E-3    5.338839057110767E-3    4.006147064747357E-1   -2.104811416626360E-1
 8.117631153450000E9     4.993410408630046E-1   -7.134746622439361E-2    1.971589736611930E-3    5.268893212558012E-3    2.041627570863869E-3    5.316545590729886E-3    4.005457522308813E-1   -2.106099362359686E-1
 8.117632239875000E9     4.993282064013625E-1   -7.140228978159700E-2    1.932645758097966E-3    5.288457823076627E-3    2.029030356456565E-3    5.378675301460188E-3    4.003961854449208E-1   -2.105396147341702E-1
 8.117633326300000E9     4.993078072648550E-1   -7.161184389742961E-2    1.965420222555709E-3    5.301787861439046E-3    2.007278156896620E-3    5.388703222825429E-3    4.005345689267905E-1   -2.105320381640899E-1
 8.117634412725000E9     4.991659825564372E-1   -7.170274443047685E-2    1.967246499571619E-3    5.329936891545858E-3    2.059868416837471E-3    5.387335547807099E-3    4.003465633890337E-1   -2.108511289436540E-1
 8.117635499150000E9     4.991657704371238E-1   -7.185952905712978E-2    1.964116268880608E-3    5.305678245921984E-3    2.059523070149469E-3    5.366927199509783E-3    4.003688311571164E-1   -2.107370881376512E-1
 8.117636585575000E9     4.990734500407815E-1   -7.203664300853828E-2    1.966206028863768E-3    5.331630865237215E-3    2.091061511490684E-3    5.420331605106118E-3    4.003024346844109E-1   -2.107889043433810E-1
 8.117637672000000E9     4.990950707490318E-1   -7.220267071116318E-2    1.999145443113843E-3    5.358794750088853E-3    2.083939455744264E-3    5.421210177753898E-3    4.002558996883305E-1   -2.109252398618662E-1
 8.117638758425000E9     4.990725443585676E-1   -7.230835180407785E-2    1.990207933660573E-3    5.351133931924681E-3    2.115744570382419E-3    5.455100422304631E-3    4.003191994365883E-1   -2.109999569617474E-1
 8.117639844850000E9     4.990117076475500E-1   -7.241851833886272E-2    2.000112574588083E-3    5.387466210859367E-3    2.110797188557223E-3    5.447249671720783E-3    4.002081491573924E-1   -2.110520001926034E-1
 8.117640931275000E9     4.988936540763545E-1   -7.262505344241260E-2    2.020431720312054E-3    5.388164888865805E-3    2.101273496851625E-3    5.473793613762282E-3    4.002300137209078E-1   -2.110843438804318E-1
 8.117642017700000E9     4.989199329372919E-1   -7.280322317665743E-2    2.026193449261532E-3    5.398714964859470E-3    2.150861631005984E-3    5.458404029662400E-3    4.002276081459438E-1   -2.112943496151222E-1
 8.117643104125000E9     4.988155072454761E-1   -7.288869782353614E-2    2.043903757416940E-3    5.410974098402481E-3    2.137039877340724E-3    5.482673140012172E-3    4.002235721194407E-1   -2.113766546619808E-1
 8.117644190550000E9     4.987683203815447E-1   -7.306689939768728E-2    2.030736673088578E-3    5.434668339638286E-3    2.141219053310764E-3    5.490232482137896E-3    4.000212177775432E-1   -2.114494360801313E-1
 8.117645276975000E9     4.988658755893478E-1   -7.321035081190830E-2    2.066188343152279E-3    5.434762537937224E-3    2.160670034986809E-3    5.534840258708960E-3    4.000921162077206E-1   -2.113604645946197E-1
 8.117646363400000E9     4.986046971819241E-1   -7.344472888905205E-2    2.054572624544322E-3    5.452015063467514E-3    2.159122065888729E-3    5.557789061978929E-3    3.999806303634769E-1   -2.116011477790776E-1
 8.117647449825000E9     4.986642581834281E-1   -7.357540013130787E-2    2.106885744669159E-3    5.458814103100299E-3    2.153384175139294E-3    5.511766925907070E-3    4.001341016733662E-1   -2.116031968445784E-1
 8.117648536250000E9     4.987136464367508E-1   -7.367400051403643E-2    2.076789654941544E-3    5.480981243030030E-3    2.164971229764852E-3    5.572837436864816E-3    4.000761772135147E-1   -2.116935290508289E-1
 8.117649622675000E9     4.985156876339624E-1   -7.389069557043765E-2    2.098215014913739E-3    5.492826633833464E-3    2.182889491154859E-3    5.580879841688819E-3    3.998840543759987E-1   -2.117970407165303E-1
 8.117650709100000E9     4.985950473663073E-1   -7.409901463475450E-2    2.113498368071451E-3    5.484843583389883E-3    2.157393091162209E-3    5.593106037410872E-3    3.998545886404439E-1   -2.116118880383825E-1
 8.117651795525000E9     4.985409371346363E-1   -7.410100354338615E-2    2.106323049767386E-3    5.511852109496978E-3    2.217833451820817E-3    5.648525034523088E-3    3.999025491763233E-1   -2.117792305391572E-1
 8.117652881950000E9     4.984931014301546E-1   -7.441014184758055E-2    2.151521902272956E-3    5.532533871634916E-3    2.239761282621920E-3    5.601765895902203E-3    3.998154654094552E-1   -2.119755420858170E-1
 8.117653968375000E9     4.984903810151443E-1   -7.439951497757942E-2    2.138307560920912E-3    5.552005020659696E-3    2.263657016357290E-3    5.621275899163782E-3    3.998252309253472E-1   -2.120135303005825E-1
 8.117655054800000E9     4.983914535017185E-1   -7.460151555251028E-2    2.170113685096485E-3    5.558787878297608E-3    2.243139228282607E-3    5.624573696175095E-3    3.998338366316304E-1   -2.121274223949060E-1
 8.117656141225000E9     4.984273146248981E-1   -7.487844756804660E-2    2.151317509216522E-3    5.579178188070608E-3    2.270926343890016E-3    5.672470304212025E-3    3.997098402413184E-1   -2.121194775598732E-1
 8.117657227650000E9     4.983190050219689E-1   -7.496168888353696E-2    2.180514470294501E-3    5.605167811310154E-3    2.252873299331961E-3    5.712385329364716E-3    3.996778912611181E-1   -2.122212238635525E-1
 8.117658314075000E9     4.982886796838551E-1   -7.518231618368387E-2    2.183084100821131E-3    5.622137025753798E-3    2.289759942263925E-3    5.721538501928376E-3    3.996965042222226E-1   -2.123649059676165E-1
 8.117659400500000E9     4.981980744325012E-1   -7.524767500691895E-2    2.186409944930412E-3    5.626923564935633E-3    2.266746642550687E-3    5.744912739452253E-3    3.995928561917803E-1   -2.124021178253251E-1
 8.117660486925000E9     4.981083368024113E-1   -7.548687092801694E-2    2.232164031424874E-3    5.650658368447104E-3    2.314023076802692E-3    5.747613810277710E-3    3.996666764439452E-1   -2.124741320634468E-1
 8.117661573350000E9     4.981261053405877E-1   -7.567206184376672E-2    2.208418303494316E-3    5.668758004944771E-3    2.339240656056933E-3    5.783981732734361E-3    3.996353329455682E-1   -2.124877608959463E-1
 8.117662659775000E9     4.980250874817591E-1   -7.578741545660275E-2    2.205742851364212E-3    5.698597475361688E-3    2.310010627243830E-3    5.768628975257447E-3    3.996336021823700E-1   -2.126565809384909E-1
 8.117663746200000E9     4.979015014318712E-1   -7.585552093786042E-2    2.247730975796958E-3    5.691800904900164E-3    2.327629135511083E-3    5.770644172214083E-3    3.996612328641144E-1   -2.126442940218340E-1
 8.117664832625000E9     4.979424425462717E-1   -7.603424336257514E-2    2.253623030920662E-3    5.718448045416849E-3    2.351847612609844E-3    5.823744759220839E-3    3.993920417544374E-1   -2.127423412176133E-1
 8.117665919050000E9     4.978165469746729E-1   -7.623371360130195E-2    2.275510691363677E-3    5.729675307022285E-3    2.394068520181479E-3    5.823358836549253E-3    3.994649155660807E-1   -2.127722892406533E-1
 8.117667005475000E9     4.978049993948103E-1   -7.648003312164188E-2    2.286649572024956E-3    5.735727745011847E-3    2.367520158749413E-3    5.813116917581451E-3    3.994071196768691E-1   -2.128844675063015E-1
 8.117668091900000E9     4.978045145298569E-1   -7.659368652437575E-2    2.325750548028085E-3    5.744859932023173E-3    2.398429026977034E-3    5.825712257906045E-3    3.992476611145751E-1   -2.130349585028482E-1
 8.117669178325000E9     4.977083102884887E-1   -7.673287685662368E-2    2.303887203156947E-3    5.763719847564777E-3    2.381347718781695E-3    5.891557796804022E-3    3.992743592451961E-1   -2.131306861304233E-1
 8.117670264750000E9     4.975882482422109E-1   -7.693417322492092E-2    2.334734209755128E-3    5.817019500916713E-3    2.406833829326036E-3    5.889316446478826E-3    3.993543123586613E-1   -2.130750387529361E-1
 8.117671351175000E9     4.975446402557351E-1   -7.709392233196070E-2    2.310862295333884E-3    5.837044247245466E-3    2.445210355211358E-3    5.915312455085153E-3    3.993426302934362E-1   -2.131079146185214E-1
 8.117672437600000E9     4.974941107343566E-1   -7.742050137783207E-2    2.337608597981720E-3    5.841405978147897E-3    2.478836074047912E-3    5.931034891099633E-3    3.992227974807752E-1   -2.131275714354981E-1
 8.117673524025000E9     4.974427965211979E-1   -7.762043133709452E-2    2.369878862697322E-3    5.862976741764935E-3    2.456314670320910E-3    5.920335698898246E-3    3.992143668876083E-1   -2.132734105682901E-1
 8.117674610450000E9     4.974194484103099E-1   -7.766276437190904E-2    2.384706025313810E-3    5.889498374604458E-3    2.459592827757923E-3    5.962835830612898E-3    3.991489188220932E-1   -2.134057338096922E-1
 8.117675696875000E9     4.973095313124640E-1   -7.780343045992415E-2    2.404097172441153E-3    5.910035181249046E-3    2.504522551607712E-3    5.972608769772521E-3    3.990495655535461E-1   -2.134265334452012E-1
 8.117676783300000E9     4.972440776150758E-1   -7.795837914493457E-2    2.409022013424881E-3    5.931264337749771E-3    2.535222915491558E-3    5.943606448608141E-3    3.988648710609034E-1   -2.135461506711336E-1
 8.117677869725000E9     4.972495687446494E-1   -7.820327836588575E-2    2.414180387094612E-3    5.914956730004309E-3    2.541597734206416E-3    6.017341330816549E-3    3.990592781526335E-1   -2.135978695005487E-1
 8.117678956150000E9     4.970367096881609E-1   -7.855577145471873E-2    2.444627830854276E-3    5.971888310005967E-3    2.523173590538004E-3    6.059907412706171E-3    3.990518009075100E-1   -2.135334033718005E-1
 8.117680042575000E9     4.969944072919794E-1   -7.851322213761631E-2    2.433325683374733E-3    5.955331406380767E-3    2.579777309327628E-3    6.049115631209356E-3    3.989321380403260E-1   -2.137222620051540E-1
 8.117681129000000E9     4.970218739339705E-1   -7.882820256527610E-2    2.468463812880566E-3    6.000461388035845E-3    2.573992242787054E-3    6.080925658906532E-3    3.988364248068297E-1   -2.137712895426269E-1
 8.117682215425000E9     4.969126484651195E-1   -7.892464870811382E-2    2.493704408504770E-3    6.033423241146594E-3    2.598629465690838E-3    6.107611534256633E-3    3.988336379907469E-1   -2.138480183138083E-1
 8.117683301850000E9     4.968547915721177E-1   -7.914685275247291E-2    2.499410487557102E-3    6.041189347925201E-3    2.608146202071711E-3    6.137476615305288E-3    3.988090171419869E-1   -2.139448611451188E-1
 8.117684388275000E9     4.967553124579547E-1   -7.936374111214839E-2    2.505584316197737E-3    6.084459164202882E-3    2.655845049819306E-3    6.144271991199361E-3    3.988610881119569E-1   -2.140233279601385E-1
 8.117685474700000E9     4.967351177047754E-1   -7.958512753840118E-2    2.535646216402724E-3    6.083925176557249E-3    2.678972475281500E-3    6.183662391218701E-3    3.987167985871092E-1   -2.141130488011002E-1
 8.117686561125000E9     4.965689185793072E-1   -7.967595830418316E-2    2.546604999236233E-3    6.135269157470224E-3    2.659216634119967E-3    6.196196300927006E-3    3.989102115265541E-1   -2.141475628583856E-1
 8.117687647550000E9     4.965832702221176E-1   -7.998480263656528E-2    2.570424801398371E-3    6.129235967869935E-3    2.668440171498761E-3    6.228661012197523E-3    3.986767477275927E-1   -2.141826953649193E-1
 8.117688733975000E9     4.964523843241774E-1   -8.014462508826575E-2    2.552573703498189E-3    6.146315668344859E-3    2.689751430144669E-3    6.278236927693060E-3    3.986857826264115E-1   -2.144110148940578E-1
 8.117689820400000E9     4.964032730234059E-1   -8.028038286188754E-2    2.606845548885566E-3    6.170640484902476E-3    2.709762181958164E-3    6.279625697507453E-3    3.986024701738347E-1   -2.144109269862352E-1
 8.117690906825000E9     4.962722439601005E-1   -8.061278116254673E-2    2.611009500418136E-3    6.208714771079689E-3    2.716854570319014E-3    6.279105330783674E-3    3.986429569106654E-1   -2.146127380226779E-1
 8.117691993250000E9     4.962268894595729E-1   -8.067861031424953E-2    2.660937155162178E-3    6.197461719726054E-3    2.766249196199662E-3    6.317516553512365E-3    3.985105824690423E-1   -2.146250896797139E-1
