#  HZ   S   RI   R     50.00 
! Rohde & Schwarz Vector Network Analyzer 
! Rohde-Schwarz,ZNB20-2Port,1311601062101988,3.16
! Created: UTC 12/23/2023, 3:57:46 AM
! freq[Hz]                re:S11                  im:S11                  re:S21                  im:S21                  re:S12                  im:S12                  re:S22                  im:S22
 7.837156641000000E9     5.657098658299191E-1    2.571792667063638E-2    1.261187413108436E-3    3.748369744118212E-3    1.266751912462460E-3    3.664007705262194E-3    4.616748936074511E-1   -2.792034028567461E-1
 7.837189623100000E9     5.658202787652343E-1    2.341880462899139E-2    1.287990217530022E-3    3.755661721128799E-3    1.325889164932134E-3    3.674158678013279E-3    4.605443478682312E-1   -2.813186176540129E-1
 7.837222605200000E9     5.658899317098428E-1    2.137676874936174E-2    1.354438783373663E-3    3.734482031567989E-3    1.306395178864485E-3    3.692025862258222E-3    4.593275770506552E-1   -2.832396640850199E-1
 7.837255587300000E9     5.659870408666848E-1    1.912702288384478E-2    1.314263683292945E-3    3.734552797015576E-3    1.356308640555516E-3    3.684137909832420E-3    4.580320382999697E-1   -2.851444557944820E-1
 7.837288569400000E9     5.660887050551041E-1    1.703031409847690E-2    1.364493670336957E-3    3.736649847414940E-3    1.357353753595427E-3    3.674088875219235E-3    4.569792751392057E-1   -2.870156014529968E-1
 7.837321551500000E9     5.661487378907385E-1    1.478634517024109E-2    1.361079279098000E-3    3.737454360666541E-3    1.380574403155219E-3    3.678968839405951E-3    4.554636471102499E-1   -2.891481520419401E-1
 7.837354533600000E9     5.662342508696727E-1    1.256555841636477E-2    1.384792787829810E-3    3.750687435553312E-3    1.396922484539436E-3    3.671901195707176E-3    4.543651860644792E-1   -2.911444045166540E-1
 7.837387515700000E9     5.663378806926896E-1    1.043708690264993E-2    1.420833441615775E-3    3.752216621102374E-3    1.423833582745118E-3    3.668539108299822E-3    4.531301696554871E-1   -2.930696179816489E-1
 7.837420497800000E9     5.664590127739115E-1    8.362439540550380E-3    1.432173753665409E-3    3.751439007529574E-3    1.460963866070961E-3    3.670497925262232E-3    4.518832184872434E-1   -2.950004422570455E-1
 7.837453479900000E9     5.664667708565252E-1    5.951670675842412E-3    1.446017489714884E-3    3.743092716342389E-3    1.421527372022576E-3    3.635982134049589E-3    4.506072929275606E-1   -2.968765674727317E-1
 7.837486462000000E9     5.666259609685550E-1    3.717383179595087E-3    1.494684152452380E-3    3.735055246063807E-3    1.454513411327443E-3    3.657166017376747E-3    4.494706942903928E-1   -2.989024223189141E-1
 7.837519444100000E9     5.664325350078731E-1    1.592411078552618E-3    1.490771795428646E-3    3.731868785762967E-3    1.514754490763017E-3    3.648794383116755E-3    4.481382313260623E-1   -3.008318351105297E-1
 7.837552426200000E9     5.666612665559990E-1   -6.120138071137739E-4    1.520058123164030E-3    3.745610308137535E-3    1.518221649782347E-3    3.667801095248563E-3    4.469484292241504E-1   -3.028443196953138E-1
 7.837585408300000E9     5.663295651886238E-1   -2.797279775805776E-3    1.529801757882560E-3    3.739927093914071E-3    1.539612707195694E-3    3.644204468520073E-3    4.455931339382305E-1   -3.045543624155427E-1
 7.837618390400000E9     5.665550272951773E-1   -4.894802389942494E-3    1.561868087114891E-3    3.732938537548556E-3    1.528408930385792E-3    3.685280172137374E-3    4.442343203797313E-1   -3.065251860897386E-1
 7.837651372500000E9     5.664707833448317E-1   -7.101463130892416E-3    1.576132144320059E-3    3.736293275840506E-3    1.550464563434457E-3    3.668365195670507E-3    4.429915169615503E-1   -3.085044774915841E-1
 7.837684354600000E9     5.664715351603001E-1   -9.394707869574711E-3    1.600643224256992E-3    3.734152618855616E-3    1.588711846120478E-3    3.679284255303840E-3    4.416057851852240E-1   -3.103960843919307E-1
 7.837717336700000E9     5.664429470325757E-1   -1.163487937772836E-2    1.609938128677397E-3    3.705539927409035E-3    1.621873780601432E-3    3.647081095092736E-3    4.404500527447294E-1   -3.122569245728600E-1
 7.837750318800000E9     5.664647671066063E-1   -1.382342150078733E-2    1.620360364875434E-3    3.747079472579746E-3    1.641402514064848E-3    3.648459962357012E-3    4.390640018779153E-1   -3.141272916309434E-1
 7.837783300900000E9     5.663297094109796E-1   -1.600018977485925E-2    1.653615754730091E-3    3.717704647977220E-3    1.645041157714124E-3    3.633446873358227E-3    4.376444334768098E-1   -3.159579919101332E-1
 7.837816283000000E9     5.663230697831088E-1   -1.824398229577640E-2    1.683015998122592E-3    3.730372167021047E-3    1.626516789645285E-3    3.663366645618294E-3    4.362033675167635E-1   -3.178500442309222E-1
 7.837849265100000E9     5.661464676179340E-1   -2.034453155501698E-2    1.668398095647962E-3    3.751451078945342E-3    1.651209256932449E-3    3.664392425630100E-3    4.349156952813991E-1   -3.198788648433311E-1
 7.837882247200000E9     5.662008941094337E-1   -2.257745250877312E-2    1.699762447893159E-3    3.744802519736425E-3    1.678625255079023E-3    3.651420280932750E-3    4.337456262706678E-1   -3.216933915380938E-1
 7.837915229300000E9     5.660750362163126E-1   -2.472179872063525E-2    1.720814175691849E-3    3.727132243598533E-3    1.723327856852368E-3    3.663169108250926E-3    4.321537331457798E-1   -3.235434644929887E-1
 7.837948211400000E9     5.659669290077932E-1   -2.696959250332091E-2    1.749170623299322E-3    3.701071295077542E-3    1.765791020411015E-3    3.652118504051957E-3    4.308529555384775E-1   -3.253383643251824E-1
 7.837981193500000E9     5.660771018224857E-1   -2.911910354685730E-2    1.770665898793810E-3    3.722912055540651E-3    1.787179694683944E-3    3.650324514407650E-3    4.294581892897334E-1   -3.271664435791047E-1
 7.838014175600000E9     5.657864123630905E-1   -3.137130312870368E-2    1.795792413068139E-3    3.680828710056402E-3    1.755747732606799E-3    3.663675522771700E-3    4.281525584248330E-1   -3.290226002501798E-1
 7.838047157700000E9     5.657260141225630E-1   -3.350000606553283E-2    1.800246081292646E-3    3.715806108483046E-3    1.777177824040683E-3    3.682135796414271E-3    4.267039989991931E-1   -3.309078767105040E-1
 7.838080139800000E9     5.655387163643963E-1   -3.567356767690846E-2    1.796984710349270E-3    3.713422258981949E-3    1.802199760387223E-3    3.651203508342865E-3    4.252695527887677E-1   -3.326639013185397E-1
 7.838113121900000E9     5.655211951264124E-1   -3.783074386937296E-2    1.832508376687479E-3    3.695333570210526E-3    1.799651156501685E-3    3.652023464495743E-3    4.237766203160970E-1   -3.344345531702214E-1
 7.838146104000000E9     5.652685841752572E-1   -4.006611818706777E-2    1.845757126538655E-3    3.729011314530291E-3    1.873659017059728E-3    3.652001436550409E-3    4.224095204861787E-1   -3.363381961680957E-1
 7.838179086100000E9     5.651338666975738E-1   -4.224494346011436E-2    1.860155019844321E-3    3.718791640703292E-3    1.909533583279526E-3    3.616306055748452E-3    4.209307737293356E-1   -3.380653692154685E-1
 7.838212068200000E9     5.650673314863593E-1   -4.449356867982915E-2    1.911719041365962E-3    3.728531264991993E-3    1.898702625410900E-3    3.639842392571215E-3    4.195232721128617E-1   -3.399537997626992E-1
 7.838245050300000E9     5.648143977338056E-1   -4.679001885119371E-2    1.911438800363123E-3    3.744453028848018E-3    1.932907551205110E-3    3.655579448329014E-3    4.180988060409689E-1   -3.418319586100474E-1
 7.838278032400000E9     5.645098886903761E-1   -4.884098647807135E-2    1.922982041417103E-3    3.672376880484714E-3    1.943639023553352E-3    3.627891469665949E-3    4.166432453475353E-1   -3.436937877176002E-1
 7.838311014500000E9     5.644394656820962E-1   -5.103153502991720E-2    1.971745881276039E-3    3.689414396835658E-3    1.956386054552516E-3    3.648796951968358E-3    4.151859195162871E-1   -3.453401698203782E-1
 7.838343996600000E9     5.641847124619934E-1   -5.328108862345401E-2    1.964749791768386E-3    3.688214764676919E-3    1.964838603259134E-3    3.623408917146923E-3    4.137351655521246E-1   -3.472484550114075E-1
 7.838376978700000E9     5.640740554197741E-1   -5.547395384169782E-2    1.989083581097041E-3    3.675056828609245E-3    2.002708316380725E-3    3.626207848222263E-3    4.121950936568131E-1   -3.488712809079912E-1
 7.838409960800000E9     5.638169076964744E-1   -5.767055021264243E-2    2.029100667722204E-3    3.701888828822940E-3    1.997642194366707E-3    3.635785089250932E-3    4.105851716693553E-1   -3.507123273108604E-1
 7.838442942900000E9     5.636734142481387E-1   -5.990968002972611E-2    2.037365893796253E-3    3.701338725063686E-3    2.056643154349251E-3    3.627129122012813E-3    4.092067125320050E-1   -3.524197795831237E-1
 7.838475925000000E9     5.633657591472347E-1   -6.197497312584369E-2    2.072582985764465E-3    3.685356481601933E-3    2.057048864634904E-3    3.627014254216853E-3    4.077131238739614E-1   -3.542826097746626E-1
 7.838508907100000E9     5.631659669703782E-1   -6.424802955990169E-2    2.110125565059874E-3    3.694339504723486E-3    2.071730491884551E-3    3.615355837106760E-3    4.061268196419554E-1   -3.560257899739167E-1
 7.838541889200000E9     5.629313828332568E-1   -6.646189596290246E-2    2.110622664433846E-3    3.693425404620792E-3    2.095272006280280E-3    3.633562775529104E-3    4.046703434568498E-1   -3.578325678495810E-1
 7.838574871300000E9     5.627069775265507E-1   -6.856398899684307E-2    2.139091964818284E-3    3.668760416672880E-3    2.082448309288452E-3    3.635362996034463E-3    4.031583741256609E-1   -3.594903219907586E-1
 7.838607853400000E9     5.623877343484812E-1   -7.066406468356490E-2    2.145582086697686E-3    3.686857892902508E-3    2.111282167870826E-3    3.623878009394228E-3    4.016857605842140E-1   -3.612852174501774E-1
 7.838640835500000E9     5.621752610999212E-1   -7.295314108696718E-2    2.155435070466886E-3    3.699714525777829E-3    2.141987300742595E-3    3.625608449984069E-3    4.000588632807369E-1   -3.629657225350338E-1
 7.838673817600000E9     5.618859360568643E-1   -7.514064548743703E-2    2.183642320413442E-3    3.671939370797383E-3    2.175233148349869E-3    3.609475226505313E-3    3.986621390063389E-1   -3.647349837630095E-1
 7.838706799700000E9     5.616265236224639E-1   -7.728053603067499E-2    2.197035220862814E-3    3.698892830940297E-3    2.190725393421279E-3    3.595410166602980E-3    3.969598933296008E-1   -3.663774385703638E-1
 7.838739781800000E9     5.611584840350011E-1   -7.945617808584936E-2    2.239233567588462E-3    3.659184113743813E-3    2.220704912774916E-3    3.624342354161939E-3    3.953567897347622E-1   -3.681391089662388E-1
 7.838772763900000E9     5.610220317715083E-1   -8.169250973722089E-2    2.222729525080822E-3    3.645268377033751E-3    2.272557285764083E-3    3.608257850402679E-3    3.938081373932846E-1   -3.696988783936036E-1
 7.838805746000000E9     5.607380842845709E-1   -8.386542752295302E-2    2.272140482608151E-3    3.669436330438998E-3    2.284389724876568E-3    3.625189575307223E-3    3.923348876847019E-1   -3.715239776135610E-1
 7.838838728100000E9     5.604302460875538E-1   -8.599662110356368E-2    2.286436347590761E-3    3.671094491231786E-3    2.288750631030294E-3    3.631559155969110E-3    3.907578732985682E-1   -3.731615122122052E-1
 7.838871710200000E9     5.600063067173174E-1   -8.820410061088450E-2    2.326104809983747E-3    3.672956115290296E-3    2.276748039459963E-3    3.621273551859622E-3    3.890520399299642E-1   -3.749492176838377E-1
 7.838904692300000E9     5.597172168478285E-1   -9.032894055400956E-2    2.330383053729052E-3    3.666638561917775E-3    2.280355915417530E-3    3.623315525638120E-3    3.873835859346710E-1   -3.763781480518085E-1
 7.838937674400000E9     5.593298628985987E-1   -9.251190151370044E-2    2.354751398610336E-3    3.652791668559235E-3    2.332596031955631E-3    3.596926037096351E-3    3.857594934046671E-1   -3.780829081394226E-1
 7.838970656500000E9     5.588552070536260E-1   -9.476795976446079E-2    2.402842619240344E-3    3.654974641018615E-3    2.375668715915192E-3    3.618031943414993E-3    3.841494025916541E-1   -3.797639117815775E-1
 7.839003638600000E9     5.586402009458246E-1   -9.698685467681939E-2    2.404423031805233E-3    3.653406937867205E-3    2.369183704844656E-3    3.601217626415365E-3    3.826376149176212E-1   -3.814570374781173E-1
 7.839036620700000E9     5.582432893800957E-1   -9.915512786020790E-2    2.439299381918507E-3    3.661107236000152E-3    2.420881843829162E-3    3.622121966227550E-3    3.810696980528051E-1   -3.829907935420263E-1
 7.839069602800000E9     5.579484771914889E-1   -1.012572974632700E-1    2.457716346184191E-3    3.642033230923511E-3    2.431257110508676E-3    3.604543877593305E-3    3.794348929334036E-1   -3.848012221388398E-1
 7.839102584900000E9     5.574075585678634E-1   -1.034180734449187E-1    2.506923480056698E-3    3.635215654670583E-3    2.453114018229467E-3    3.618425329382282E-3    3.778502800711145E-1   -3.863647486662785E-1
 7.839135567000000E9     5.571213666502011E-1   -1.056459799636506E-1    2.507340744219033E-3    3.655003511778327E-3    2.479315437545455E-3    3.584601494811995E-3    3.761313842358728E-1   -3.880404624786347E-1
 7.839168549100000E9     5.566036261656515E-1   -1.077564829036359E-1    2.515840254356554E-3    3.646521831138053E-3    2.517720499390262E-3    3.601665135574989E-3    3.743368528642966E-1   -3.895565740674511E-1
 7.839201531200000E9     5.562094665069013E-1   -1.098715563494924E-1    2.549547779536333E-3    3.646989970923774E-3    2.519558746405214E-3    3.615824817377369E-3    3.727667189813653E-1   -3.912057687575580E-1
 7.839234513300000E9     5.557410250720893E-1   -1.120854102582807E-1    2.575521914726958E-3    3.613270365699684E-3    2.531031782708283E-3    3.598453732271577E-3    3.711542396989811E-1   -3.927937789845569E-1
 7.839267495400000E9     5.552300261550445E-1   -1.142670918425127E-1    2.592788834001243E-3    3.639418790923018E-3    2.567869346599048E-3    3.594577571483734E-3    3.693797736629604E-1   -3.945271866353540E-1
 7.839300477500000E9     5.549641846578883E-1   -1.165152210998597E-1    2.633708665515347E-3    3.654462706283062E-3    2.624955225356548E-3    3.590013317893208E-3    3.677210963698098E-1   -3.961008536424400E-1
 7.839333459600000E9     5.543723082554030E-1   -1.187161267297260E-1    2.637115859372420E-3    3.647352947731142E-3    2.630111746897478E-3    3.594179129653697E-3    3.659957103902606E-1   -3.974917656444201E-1
 7.839366441700000E9     5.538162045614001E-1   -1.206173669969205E-1    2.668043553843327E-3    3.625865472426066E-3    2.668369796123852E-3    3.572633030166667E-3    3.643346042270955E-1   -3.990737282179320E-1
 7.839399423800000E9     5.534836246074996E-1   -1.229509630209181E-1    2.709539849887595E-3    3.646832796926577E-3    2.689537931826152E-3    3.598005818118049E-3    3.626012586744518E-1   -4.007959671424846E-1
 7.839432405900000E9     5.530784334761580E-1   -1.249285385198799E-1    2.718092666954727E-3    3.615853735634388E-3    2.646749701532283E-3    3.593158290223157E-3    3.607996122029302E-1   -4.023105349303625E-1
 7.839465388000000E9     5.524384731350823E-1   -1.273733317563603E-1    2.765222034892849E-3    3.598343504644197E-3    2.732695911272359E-3    3.559965244512782E-3    3.590312422372050E-1   -4.037709312661568E-1
 7.839498370100000E9     5.518105337328343E-1   -1.293986563476014E-1    2.767116371262499E-3    3.615875294667683E-3    2.764486059230215E-3    3.588416752395890E-3    3.576404463613316E-1   -4.052556916717699E-1
 7.839531352200000E9     5.514608383695764E-1   -1.316176279297239E-1    2.825342634876228E-3    3.593925374975024E-3    2.714325989304714E-3    3.573441654458190E-3    3.557887980740718E-1   -4.069401152380332E-1
 7.839564334300000E9     5.508999092176684E-1   -1.337673602597767E-1    2.825700719672412E-3    3.596927199926683E-3    2.793357499750277E-3    3.581847239962641E-3    3.538002653305259E-1   -4.084214375454398E-1
 7.839597316400000E9     5.503002525745052E-1   -1.359691900077737E-1    2.858212006061769E-3    3.588607867863165E-3    2.853867032765527E-3    3.592106748168422E-3    3.522367661402162E-1   -4.100401032838926E-1
 7.839630298500000E9     5.499732552393568E-1   -1.380228336369863E-1    2.892178639615395E-3    3.600973061328505E-3    2.865388381361120E-3    3.596009565962989E-3    3.506008210851974E-1   -4.115127221320744E-1
 7.839663280600000E9     5.493093320902693E-1   -1.402147277470678E-1    2.880205960646018E-3    3.598485271931740E-3    2.872633188723717E-3    3.564623638736990E-3    3.487306342436658E-1   -4.129002748524528E-1
 7.839696262700000E9     5.488762488987504E-1   -1.423132352643139E-1    2.917146096120577E-3    3.619607476341860E-3    2.901325873191322E-3    3.576280410286877E-3    3.470809574168056E-1   -4.145693173407007E-1
 7.839729244800000E9     5.483453331933532E-1   -1.444878149797486E-1    2.962866794861025E-3    3.608986671460546E-3    2.895928121925019E-3    3.572496261634192E-3    3.453127126501184E-1   -4.158381860644539E-1
 7.839762226900000E9     5.476656910323398E-1   -1.465344607682214E-1    2.948443542251093E-3    3.588957579505131E-3    2.970906935652004E-3    3.550050807951724E-3    3.433882189677322E-1   -4.173582818644268E-1
 7.839795209000000E9     5.470473906678431E-1   -1.487741763467722E-1    3.008497322462779E-3    3.596266847639222E-3    2.973668495494426E-3    3.556354645409526E-3    3.416326599377847E-1   -4.190481498716746E-1
 7.839828191100000E9     5.463143398189937E-1   -1.509840066086770E-1    3.034189719645614E-3    3.593457579332843E-3    2.999094078646805E-3    3.547292175045786E-3    3.398683501042234E-1   -4.202737134796269E-1
 7.839861173200000E9     5.459493911981466E-1   -1.529816047334779E-1    3.072382899593621E-3    3.592536202694797E-3    3.037750130312740E-3    3.546638951273600E-3    3.380844600451393E-1   -4.217849688828679E-1
 7.839894155300000E9     5.452993310359530E-1   -1.552112058793229E-1    3.090467664305292E-3    3.584383202611195E-3    3.049236770663508E-3    3.546667408158660E-3    3.363398653654431E-1   -4.232869923812932E-1
 7.839927137400000E9     5.446900211905573E-1   -1.572663162982475E-1    3.111152241432901E-3    3.561176335875451E-3    3.078154997509744E-3    3.545985845860928E-3    3.345016713363136E-1   -4.246500904036832E-1
 7.839960119500000E9     5.439727565551892E-1   -1.594455990769734E-1    3.137074481180519E-3    3.556051236892776E-3    3.098234760119441E-3    3.542252364527220E-3    3.326968020416309E-1   -4.260476035354815E-1
 7.839993101600000E9     5.433068699567134E-1   -1.616544482163931E-1    3.184618302106462E-3    3.578485307907153E-3    3.123721987964851E-3    3.564812827508894E-3    3.309214193638111E-1   -4.275324227545216E-1
 7.840026083700000E9     5.426556398795931E-1   -1.635396041936888E-1    3.233186374789363E-3    3.571953366998963E-3    3.181320650854765E-3    3.541545660926655E-3    3.289650208279923E-1   -4.289819376280705E-1
 7.840059065800000E9     5.420221110973877E-1   -1.658192485686140E-1    3.246908511019194E-3    3.555821263165996E-3    3.200715756784321E-3    3.586912680425106E-3    3.272487608290552E-1   -4.304114371383268E-1
 7.840092047900000E9     5.414356968229738E-1   -1.679650923654803E-1    3.250453398650334E-3    3.589176939974332E-3    3.217619264477130E-3    3.551756218532499E-3    3.252064602454427E-1   -4.318099951880099E-1
 7.840125030000000E9     5.407833314293304E-1   -1.700779995555206E-1    3.305117169882640E-3    3.589019490696390E-3    3.258461468283010E-3    3.529181161021600E-3    3.234916842413700E-1   -4.331878480436642E-1
