#  HZ   S   RI   R     50.00 
! Rohde & Schwarz Vector Network Analyzer 
! Rohde-Schwarz,ZNB20-2Port,1311601062101988,3.16
! Created: UTC 12/23/2023, 3:57:51 AM
! freq[Hz]                re:S11                  im:S11                  re:S21                  im:S21                  re:S12                  im:S12                  re:S22                  im:S22
 7.837277020000000E9     5.662733887184672E-1    1.783465316750705E-2    1.354076903533067E-3    3.752745910535752E-3    1.367561310174646E-3    3.665172188918511E-3    4.572580445329151E-1   -2.863837855501235E-1
 7.837309418525000E9     5.661088196362168E-1    1.560530526995156E-2    1.360448219592426E-3    3.750828783807662E-3    1.376891175360046E-3    3.683621023480177E-3    4.561286553221661E-1   -2.885314644415550E-1
 7.837341817050000E9     5.662933303003607E-1    1.344365856692419E-2    1.379469610603766E-3    3.721772599823469E-3    1.402548562745313E-3    3.637141152443329E-3    4.548362172510740E-1   -2.902832683294957E-1
 7.837374215575000E9     5.662758400131375E-1    1.130571924994577E-2    1.393863599948336E-3    3.730674031916943E-3    1.397403916447957E-3    3.666749557649069E-3    4.537926687835407E-1   -2.922488544226713E-1
 7.837406614100000E9     5.663240598676276E-1    9.100434702413854E-3    1.385356743341062E-3    3.712814178932612E-3    1.433931524352443E-3    3.677456627600484E-3    4.525336423139850E-1   -2.943204208776153E-1
 7.837439012625000E9     5.664976120945118E-1    6.879706099363762E-3    1.413890894916137E-3    3.726511413938145E-3    1.439569629087890E-3    3.651585914474410E-3    4.512404008175619E-1   -2.961391322398776E-1
 7.837471411150000E9     5.664583945650482E-1    4.859400274737411E-3    1.459969725520643E-3    3.730942583558632E-3    1.453727863759996E-3    3.657916920323698E-3    4.499961909757093E-1   -2.980540444418386E-1
 7.837503809675000E9     5.665335570306728E-1    2.624165707462657E-3    1.484050331682435E-3    3.745517498376048E-3    1.494719299850579E-3    3.653567552925375E-3    4.487129239004047E-1   -2.998684908790882E-1
 7.837536208200000E9     5.665258090101009E-1    6.175726799084435E-4    1.527628046173300E-3    3.729633267697851E-3    1.514893451813623E-3    3.657566907323754E-3    4.473739478129727E-1   -3.017517203461867E-1
 7.837568606725000E9     5.665127014997312E-1   -1.623917799884932E-3    1.516465339155336E-3    3.754353504544962E-3    1.537635651924843E-3    3.640626223773430E-3    4.462258121446239E-1   -3.036539753008821E-1
 7.837601005250000E9     5.666550371196317E-1   -3.737618286994119E-3    1.531057250926268E-3    3.743807248886487E-3    1.537318580884994E-3    3.658384930826163E-3    4.448985663111134E-1   -3.055915607493503E-1
 7.837633403775000E9     5.665833712880752E-1   -6.028813431298038E-3    1.548696041628736E-3    3.732031596320288E-3    1.579530515390950E-3    3.655405674960433E-3    4.437209145028803E-1   -3.075075532693256E-1
 7.837665802300000E9     5.664106069377574E-1   -8.053562473696915E-3    1.581252526259003E-3    3.736951364660520E-3    1.580318818007112E-3    3.676329880729179E-3    4.423711940227491E-1   -3.092876618116351E-1
 7.837698200825000E9     5.664872404855404E-1   -1.017128065166051E-2    1.595318897694873E-3    3.723022498691436E-3    1.597251047465874E-3    3.662049415137754E-3    4.411714346554362E-1   -3.112087557020402E-1
 7.837730599350000E9     5.665240990681211E-1   -1.241172535368572E-2    1.594527572429369E-3    3.723333229110933E-3    1.619759054787577E-3    3.645694354723433E-3    4.397710461601967E-1   -3.129924734508011E-1
 7.837762997875000E9     5.664795515065489E-1   -1.470069675421459E-2    1.625550259209093E-3    3.724138902445129E-3    1.649372823500013E-3    3.654450729770527E-3    4.384232392762527E-1   -3.146035283615966E-1
 7.837795396400000E9     5.664649288093427E-1   -1.673536873305672E-2    1.660101272238671E-3    3.711022151461215E-3    1.644300838378470E-3    3.626022985204262E-3    4.371733629237622E-1   -3.166988543815459E-1
 7.837827794925000E9     5.662548186961422E-1   -1.873709981869251E-2    1.638543948202856E-3    3.723904555259481E-3    1.667659819315710E-3    3.659794788199582E-3    4.358836814318964E-1   -3.184741894805524E-1
 7.837860193450000E9     5.661858587863414E-1   -2.098762185656830E-2    1.693318530987827E-3    3.710311002695320E-3    1.682882526707090E-3    3.662686023864863E-3    4.346777849848804E-1   -3.204820561969884E-1
 7.837892591975000E9     5.662090260363948E-1   -2.306502321662629E-2    1.705469423119250E-3    3.696046947589158E-3    1.713057664388870E-3    3.645901648750797E-3    4.331671592398678E-1   -3.223641482111998E-1
 7.837924990500000E9     5.661159877231804E-1   -2.527698567692892E-2    1.701102595505327E-3    3.725176650999078E-3    1.721310989324542E-3    3.661740485506821E-3    4.317989831746465E-1   -3.240891364708825E-1
 7.837957389025000E9     5.660332677651196E-1   -2.749142197955839E-2    1.757794671063065E-3    3.728493802535796E-3    1.757764862663707E-3    3.664242734593745E-3    4.304556753383935E-1   -3.258077128992053E-1
 7.837989787550000E9     5.658983955713778E-1   -2.972340970005708E-2    1.748762532269925E-3    3.702065761719012E-3    1.776098319655407E-3    3.632823295403577E-3    4.291581201997374E-1   -3.277519129199578E-1
 7.838022186075000E9     5.657871595241448E-1   -3.184363992821785E-2    1.792504222489853E-3    3.698540101225503E-3    1.789766186761693E-3    3.628952595865929E-3    4.277796541607494E-1   -3.295481018836346E-1
 7.838054584600000E9     5.657397300286038E-1   -3.392657471653874E-2    1.805105874753831E-3    3.701958904946146E-3    1.806704545548400E-3    3.671689479005068E-3    4.262639918175869E-1   -3.313217558746198E-1
 7.838086983125000E9     5.655870227704614E-1   -3.616582438234254E-2    1.818891148166555E-3    3.714136125797823E-3    1.819229226296015E-3    3.670649729502773E-3    4.249791581400965E-1   -3.330618895533476E-1
 7.838119381650000E9     5.654103941172288E-1   -3.829827843467074E-2    1.838676145510690E-3    3.722835739126972E-3    1.811395406409174E-3    3.654313920122060E-3    4.235163898514162E-1   -3.348105976694872E-1
 7.838151780175000E9     5.652649174841262E-1   -4.042038072709999E-2    1.843713449670354E-3    3.711389751307770E-3    1.833956243431580E-3    3.659927225871741E-3    4.221477518154779E-1   -3.367475475786312E-1
 7.838184178700000E9     5.651145872719607E-1   -4.247292145190320E-2    1.860885160016961E-3    3.689203616352650E-3    1.879601811511254E-3    3.641081642819341E-3    4.208699219605874E-1   -3.385938526023278E-1
 7.838216577225000E9     5.650508110114006E-1   -4.466219435036007E-2    1.907975709079648E-3    3.691994823924875E-3    1.931599685675070E-3    3.612490269353154E-3    4.193265418006796E-1   -3.401714352876501E-1
 7.838248975750000E9     5.649817141314798E-1   -4.679735917241789E-2    1.925444600153847E-3    3.673364859324455E-3    1.943410420505903E-3    3.662531869516253E-3    4.178976358767916E-1   -3.420062629656700E-1
 7.838281374275000E9     5.645561032570539E-1   -4.904676218138897E-2    1.944598798489021E-3    3.700005423770648E-3    1.923493957258734E-3    3.673876940323335E-3    4.164229629216520E-1   -3.438205219176170E-1
 7.838313772800000E9     5.645096418871356E-1   -5.115033828218547E-2    1.974111982682741E-3    3.702891360505477E-3    1.943359771764570E-3    3.642232167132600E-3    4.149725100353137E-1   -3.454134605424251E-1
 7.838346171325000E9     5.642594867140417E-1   -5.328693682250384E-2    2.004868535385793E-3    3.696923328081241E-3    1.985111122933324E-3    3.644729997577670E-3    4.137001748995366E-1   -3.473046020714245E-1
 7.838378569850000E9     5.640662044474468E-1   -5.553609902807274E-2    2.010671746566540E-3    3.719738727106684E-3    2.002005950550297E-3    3.630293193509206E-3    4.122543572883652E-1   -3.492600543328975E-1
 7.838410968375000E9     5.638183015972347E-1   -5.773296904361759E-2    2.017482861823699E-3    3.723202551150672E-3    2.000909155549684E-3    3.614319210312869E-3    4.106646207740320E-1   -3.507528730867780E-1
 7.838443366900000E9     5.635207764521512E-1   -5.979645139038513E-2    2.043298344468320E-3    3.677696949421157E-3    2.022673224314710E-3    3.641634314349173E-3    4.092323776181997E-1   -3.524869457134510E-1
 7.838475765425000E9     5.635187600517655E-1   -6.195045308683250E-2    2.088174003706668E-3    3.706436602740947E-3    2.052796590335880E-3    3.593812981075664E-3    4.076749110570687E-1   -3.542203328247859E-1
 7.838508163950000E9     5.631430288379721E-1   -6.399517907356320E-2    2.069114147803945E-3    3.693370665698074E-3    2.056837758962822E-3    3.643731192495843E-3    4.061507047034096E-1   -3.559181298198623E-1
 7.838540562475000E9     5.630980310433960E-1   -6.616881664543195E-2    2.090641339637942E-3    3.700648201931762E-3    2.094186218667703E-3    3.627230350214751E-3    4.047111802702369E-1   -3.577251434828078E-1
 7.838572961000000E9     5.627885023154536E-1   -6.848330752235192E-2    2.136026347771468E-3    3.690949741564615E-3    2.123759342197521E-3    3.664967749884215E-3    4.032143708463711E-1   -3.594101763276636E-1
 7.838605359525000E9     5.624859598224655E-1   -7.056099586318323E-2    2.160793095458054E-3    3.678809500792431E-3    2.146331017365162E-3    3.646899964209122E-3    4.018031395716322E-1   -3.611501064462675E-1
 7.838637758050000E9     5.621375201573919E-1   -7.265628924293328E-2    2.176525876520577E-3    3.695205821668542E-3    2.153676777635605E-3    3.616164358629305E-3    4.001677314542952E-1   -3.627622411926452E-1
 7.838670156575000E9     5.617305420652522E-1   -7.487995127028033E-2    2.181887197101853E-3    3.670168064112873E-3    2.138144893352680E-3    3.613709180932104E-3    3.987386773183346E-1   -3.644160992195846E-1
 7.838702555100000E9     5.615544940420849E-1   -7.689019578699093E-2    2.204058720036612E-3    3.691630204511489E-3    2.203147136768888E-3    3.645688427949836E-3    3.972257990913182E-1   -3.661447507350407E-1
 7.838734953625000E9     5.613495838034356E-1   -7.914672002008866E-2    2.213842868204072E-3    3.678430663192621E-3    2.236941948761134E-3    3.614773968508630E-3    3.956130033086087E-1   -3.678266877660045E-1
 7.838767352150000E9     5.610567737924674E-1   -8.114900968205330E-2    2.247814639520581E-3    3.660510822247608E-3    2.261970360483798E-3    3.607050689444672E-3    3.940683570690317E-1   -3.695948580634693E-1
 7.838799750675000E9     5.607686838888412E-1   -8.328990393280036E-2    2.262511758747510E-3    3.660254737941528E-3    2.248621050449283E-3    3.597829996934661E-3    3.926563523010297E-1   -3.711572112136768E-1
 7.838832149200000E9     5.604471874699662E-1   -8.568035402898878E-2    2.302102212422189E-3    3.664167213771462E-3    2.267942892482330E-3    3.603664630610410E-3    3.909681080208123E-1   -3.728665527774149E-1
 7.838864547725000E9     5.601189137416849E-1   -8.777595667661534E-2    2.328661335621212E-3    3.670699616406280E-3    2.279293285455727E-3    3.647047840524482E-3    3.894015712128599E-1   -3.744845188325817E-1
 7.838896946250000E9     5.596645265075167E-1   -8.984135320626299E-2    2.339020684453118E-3    3.640690938884239E-3    2.317930877069700E-3    3.619653429981395E-3    3.878249796337950E-1   -3.760913954894650E-1
 7.838929344775000E9     5.594924352447667E-1   -9.191524706869833E-2    2.369574555416376E-3    3.635055567421687E-3    2.333928714711365E-3    3.600847972401841E-3    3.863556387366989E-1   -3.777816741242428E-1
 7.838961743300000E9     5.590797710727515E-1   -9.417105425854190E-2    2.371764454763838E-3    3.664992063758276E-3    2.370914862797502E-3    3.620807358720844E-3    3.846739150750332E-1   -3.793761124544504E-1
 7.838994141825000E9     5.587228865671727E-1   -9.620413431780582E-2    2.383523733952530E-3    3.638492506801554E-3    2.375961610740674E-3    3.601958830456996E-3    3.830839578668843E-1   -3.809082781123408E-1
 7.839026540350000E9     5.583252882309193E-1   -9.838502021765384E-2    2.426593853348637E-3    3.636624424878757E-3    2.400441801274039E-3    3.594195283220349E-3    3.814837618645475E-1   -3.826695109744984E-1
 7.839058938875000E9     5.580554811210060E-1   -1.005196145128456E-1    2.462693603442989E-3    3.665988630647385E-3    2.411121126478482E-3    3.591380212012231E-3    3.799204295146009E-1   -3.841267884022230E-1
 7.839091337400000E9     5.575856684611179E-1   -1.026455749479678E-1    2.501175776076274E-3    3.676514913801715E-3    2.465235009120558E-3    3.596741429976704E-3    3.782790121550069E-1   -3.858703909065505E-1
 7.839123735925000E9     5.572588336212376E-1   -1.049136425541764E-1    2.461285472792459E-3    3.640302598589119E-3    2.450674872258328E-3    3.586049974877650E-3    3.767304310266881E-1   -3.873237216598937E-1
 7.839156134450000E9     5.568689108039037E-1   -1.069537525026188E-1    2.507177872889200E-3    3.652275240245843E-3    2.493921578252214E-3    3.628621728923675E-3    3.751196149737717E-1   -3.890946452086943E-1
 7.839188532975000E9     5.563017578545879E-1   -1.090641102855453E-1    2.535796390670214E-3    3.645550160089273E-3    2.504164707821803E-3    3.603539521613232E-3    3.733185759198131E-1   -3.905578488218601E-1
 7.839220931500000E9     5.558799822922071E-1   -1.112405910640225E-1    2.571501176028088E-3    3.647476911276873E-3    2.524891518077386E-3    3.574435911011532E-3    3.718478581195363E-1   -3.921599590110117E-1
 7.839253330025000E9     5.554838080705110E-1   -1.133197105662113E-1    2.602617930356864E-3    3.641340978788119E-3    2.551587185137227E-3    3.559529064176929E-3    3.702109986037862E-1   -3.936873077818454E-1
 7.839285728550000E9     5.550016269865671E-1   -1.154928991094307E-1    2.627307345654209E-3    3.646785639585715E-3    2.596237272663606E-3    3.606084999181541E-3    3.686287699321212E-1   -3.953105926125636E-1
 7.839318127075000E9     5.546864700805033E-1   -1.175894186942273E-1    2.638790847423923E-3    3.653716369648311E-3    2.600556616550394E-3    3.588941699273512E-3    3.669351693634610E-1   -3.969515046614018E-1
 7.839350525600000E9     5.540670471290564E-1   -1.196810886897576E-1    2.661142492572059E-3    3.636740845283665E-3    2.660864466470268E-3    3.577294315417285E-3    3.651568576477497E-1   -3.983089322506069E-1
 7.839382924125000E9     5.537792932706054E-1   -1.218815465023192E-1    2.685575799756259E-3    3.632970084939893E-3    2.679307431949651E-3    3.588067450428007E-3    3.634595201377188E-1   -3.999510965411321E-1
 7.839415322650000E9     5.533324580561232E-1   -1.240468280578655E-1    2.687697604276164E-3    3.637664593000829E-3    2.666508775995757E-3    3.572278586461272E-3    3.618656851990756E-1   -4.015954133392075E-1
 7.839447721175000E9     5.527939771196287E-1   -1.260688099581442E-1    2.744761201761473E-3    3.608752354385068E-3    2.673805811955275E-3    3.569859596589977E-3    3.601489444912672E-1   -4.029271429370149E-1
 7.839480119700000E9     5.523339240997872E-1   -1.281302517346266E-1    2.762822940556620E-3    3.612874983053875E-3    2.722802618372940E-3    3.603970003523915E-3    3.584828349062001E-1   -4.044360650157551E-1
 7.839512518225000E9     5.517678931853544E-1   -1.302240159111520E-1    2.786771905088490E-3    3.624527468438830E-3    2.741610935995773E-3    3.575935786978234E-3    3.568756535116507E-1   -4.060883442066579E-1
 7.839544916750000E9     5.513539270674382E-1   -1.325397825033247E-1    2.814385951813408E-3    3.633755001333430E-3    2.769963415522356E-3    3.570185295849136E-3    3.551098951737784E-1   -4.076681081687411E-1
 7.839577315275000E9     5.507900976986423E-1   -1.345798385153071E-1    2.838750368397209E-3    3.612493559031740E-3    2.792453217118383E-3    3.582280979760465E-3    3.532249987882765E-1   -4.090433045453190E-1
 7.839609713800000E9     5.503229155335700E-1   -1.367315142292720E-1    2.863363869317726E-3    3.597089057787705E-3    2.822497169676079E-3    3.581464107676132E-3    3.517079991070078E-1   -4.105084149711238E-1
 7.839642112325000E9     5.497295246149384E-1   -1.387575162222427E-1    2.891435001403649E-3    3.607519368433126E-3    2.842114107969070E-3    3.531017792585456E-3    3.499125381453947E-1   -4.119949389615601E-1
 7.839674510850000E9     5.491028089505913E-1   -1.408273186524450E-1    2.890127419997993E-3    3.617080638012219E-3    2.890921605270469E-3    3.587567144787732E-3    3.483228799451892E-1   -4.135953861797247E-1
 7.839706909375000E9     5.486172618776051E-1   -1.431266111873464E-1    2.908436281807984E-3    3.598082244858101E-3    2.909711972254211E-3    3.601711250084393E-3    3.464431637704225E-1   -4.148847029932362E-1
 7.839739307900000E9     5.481124741263679E-1   -1.449645666844602E-1    2.956141875429949E-3    3.601800293744279E-3    2.896475474934308E-3    3.546495501662136E-3    3.445725249931907E-1   -4.164892771239287E-1
 7.839771706425000E9     5.476075268337283E-1   -1.471551179940755E-1    2.995998047667448E-3    3.598534867975574E-3    2.940702206288945E-3    3.552369078149931E-3    3.429992967340705E-1   -4.178250360249617E-1
 7.839804104950000E9     5.469546952871331E-1   -1.493333311495469E-1    3.012967668814614E-3    3.584706468406794E-3    2.975342989271326E-3    3.550906919244791E-3    3.412008208866099E-1   -4.192024647099625E-1
 7.839836503475000E9     5.463543540513038E-1   -1.513268531562338E-1    3.041191553501489E-3    3.609151052883953E-3    3.007656595440173E-3    3.570235503512498E-3    3.395255329707036E-1   -4.207028885275804E-1
 7.839868902000000E9     5.458035743104265E-1   -1.533803272927443E-1    3.092737798487570E-3    3.574580106531420E-3    3.016295664640407E-3    3.566534965515324E-3    3.377790700534545E-1   -4.221376151429263E-1
 7.839901300525000E9     5.451326518339379E-1   -1.556177227913095E-1    3.084282622188606E-3    3.608460608650021E-3    3.040286853883310E-3    3.546980861590576E-3    3.358469913897721E-1   -4.235349209368460E-1
 7.839933699050000E9     5.444956575707686E-1   -1.576996020760955E-1    3.119672644327944E-3    3.601918082079138E-3    3.104070165630649E-3    3.550459275603119E-3    3.342194973636856E-1   -4.250180242878641E-1
 7.839966097575000E9     5.438861986331884E-1   -1.598097457499238E-1    3.148323464010408E-3    3.589608556432457E-3    3.097777412007840E-3    3.555499662420947E-3    3.322797966865260E-1   -4.263392623727978E-1
 7.839998496100000E9     5.432071619639808E-1   -1.618546974423154E-1    3.170778462400990E-3    3.575109988076816E-3    3.140129628455246E-3    3.548751087647660E-3    3.305755787815738E-1   -4.278287725883971E-1
 7.840030894625000E9     5.427514259093463E-1   -1.640385610876468E-1    3.231590903711618E-3    3.549175811985014E-3    3.169494948761916E-3    3.522172934199247E-3    3.287522103774362E-1   -4.291704810755728E-1
 7.840063293150000E9     5.420087385110091E-1   -1.660451810961301E-1    3.265117859448011E-3    3.573198591618232E-3    3.223689397248884E-3    3.556606184136127E-3    3.270994844852949E-1   -4.305693097117029E-1
 7.840095691675000E9     5.413659960756724E-1   -1.682219184330433E-1    3.276401373271703E-3    3.608359629469398E-3    3.200251455277465E-3    3.554124350823596E-3    3.251973403928381E-1   -4.319388285023957E-1
 7.840128090200000E9     5.406701218878911E-1   -1.703905162034326E-1    3.298346250732536E-3    3.574835951682960E-3    3.238961431199276E-3    3.525577885258607E-3    3.233176290098559E-1   -4.334500000954417E-1
 7.840160488725000E9     5.399977323897008E-1   -1.724061304790178E-1    3.334793569931169E-3    3.564057780019189E-3    3.294414352308989E-3    3.560802027223357E-3    3.214265462884426E-1   -4.347699671219179E-1
 7.840192887250000E9     5.393431251219351E-1   -1.745525839550299E-1    3.356492131182892E-3    3.556144178272650E-3    3.337139501668718E-3    3.533942063139071E-3    3.196344130392014E-1   -4.361831446276493E-1
