#  HZ   S   RI   R     50.00 
! Rohde & Schwarz Vector Network Analyzer 
! Rohde-Schwarz,ZNB20-2Port,1311601062101988,3.16
! Created: UTC 12/23/2023, 3:58:17 AM
! freq[Hz]                re:S11                  im:S11                  re:S21                  im:S21                  re:S12                  im:S12                  re:S22                  im:S22
 7.837319395000000E9     5.661380646280724E-1    1.471792960168731E-2    1.386442830231596E-3    3.750046684032125E-3    1.395264066936688E-3    3.676971125290676E-3    4.557228453231236E-1   -2.890028491808617E-1
 7.837351671225000E9     5.663276362165672E-1    1.268608854455135E-2    1.391938483251094E-3    3.750307790270223E-3    1.392212905415935E-3    3.679221645586453E-3    4.546942913014868E-1   -2.908753391613877E-1
 7.837383947450000E9     5.662698646296473E-1    1.050796132938477E-2    1.379764765513967E-3    3.746789320540782E-3    1.441155326068380E-3    3.678961768978020E-3    4.532154210055031E-1   -2.927802167561721E-1
 7.837416223675000E9     5.662315215345627E-1    8.430905990878373E-3    1.431008836074567E-3    3.743557879121663E-3    1.421284201429153E-3    3.693629557359624E-3    4.522041621521903E-1   -2.945499327773994E-1
 7.837448499900000E9     5.664404211296191E-1    6.267404226445949E-3    1.470140470158354E-3    3.721789616694495E-3    1.491853749658021E-3    3.638745914275664E-3    4.508865374662277E-1   -2.967008559960543E-1
 7.837480776125000E9     5.663590346873149E-1    4.133211536955703E-3    1.462869830822882E-3    3.743211513182718E-3    1.486501734761443E-3    3.649310607274683E-3    4.497135579280699E-1   -2.984615248242488E-1
 7.837513052350000E9     5.665874040631849E-1    1.883797756731065E-3    1.481143254570985E-3    3.730435084250118E-3    1.517091351671047E-3    3.659538976047793E-3    4.483604351028116E-1   -3.004375606232259E-1
 7.837545328575000E9     5.664179222421873E-1   -1.619306977758904E-5    1.485308465801445E-3    3.747693491101135E-3    1.495767900938501E-3    3.660308365212962E-3    4.471107446453868E-1   -3.021803792890415E-1
 7.837577604800000E9     5.665108113150603E-1   -2.287594398553015E-3    1.529034371976367E-3    3.697894042596543E-3    1.561036680154651E-3    3.681857557812582E-3    4.460048287507786E-1   -3.042186880895422E-1
 7.837609881025000E9     5.665726717377991E-1   -4.486269180823323E-3    1.536624893292475E-3    3.741602078070290E-3    1.548040182743271E-3    3.674522623187484E-3    4.446068375557483E-1   -3.060946142329500E-1
 7.837642157250000E9     5.664756209001182E-1   -6.555929144834723E-3    1.557870825714815E-3    3.726235508903052E-3    1.549227140840543E-3    3.655543414297279E-3    4.432191096821034E-1   -3.079818423652150E-1
 7.837674433475000E9     5.664588646272234E-1   -8.825332826916164E-3    1.563709383829273E-3    3.752423322012495E-3    1.595386549400734E-3    3.657937466941887E-3    4.418790705955269E-1   -3.098333093732375E-1
 7.837706709700000E9     5.664648416696587E-1   -1.075458161743316E-2    1.577863767938940E-3    3.702929559713612E-3    1.597360642855648E-3    3.650511925281169E-3    4.407755812111600E-1   -3.116491867109319E-1
 7.837738985925000E9     5.664374427745076E-1   -1.298696432454720E-2    1.603252783003791E-3    3.733232415207479E-3    1.620559576830271E-3    3.675710486385757E-3    4.394607249244556E-1   -3.134723439286722E-1
 7.837771262150000E9     5.664834372978328E-1   -1.519785777137892E-2    1.641267535221776E-3    3.716270049200047E-3    1.642612657512679E-3    3.645851495803115E-3    4.380424110322239E-1   -3.153526737031509E-1
 7.837803538375000E9     5.664110024983550E-1   -1.736481641922913E-2    1.667886447175369E-3    3.714425207672926E-3    1.646903289130785E-3    3.654617942680391E-3    4.368446241681975E-1   -3.171980165736144E-1
 7.837835814600000E9     5.662079045048589E-1   -1.947601167594151E-2    1.659773653485686E-3    3.714503509018812E-3    1.701018823364582E-3    3.640406383344378E-3    4.354662721780005E-1   -3.191413017775213E-1
 7.837868090825000E9     5.662277579792965E-1   -2.160568123087671E-2    1.689717947101297E-3    3.713136282717226E-3    1.690396565226707E-3    3.635663335466056E-3    4.343014061053251E-1   -3.207724831637355E-1
 7.837900367050000E9     5.661788445758799E-1   -2.374137302061761E-2    1.683974469449487E-3    3.731683929674307E-3    1.716795999997397E-3    3.641804229247039E-3    4.328953844423953E-1   -3.225915244171608E-1
 7.837932643275000E9     5.660247919156967E-1   -2.593814236222855E-2    1.737285935075669E-3    3.729503990042555E-3    1.731907840640048E-3    3.668938574579627E-3    4.314740167905975E-1   -3.244883198993552E-1
 7.837964919500000E9     5.659111258827074E-1   -2.805605554488212E-2    1.727949529854303E-3    3.728775932738255E-3    1.718016433886940E-3    3.631550090417286E-3    4.300552992195249E-1   -3.263847231826310E-1
 7.837997195725000E9     5.658801513570682E-1   -3.003651319939530E-2    1.772373361646569E-3    3.708308454886595E-3    1.775241451885787E-3    3.657421051590884E-3    4.287140914141013E-1   -3.280658485533410E-1
 7.838029471950000E9     5.656877869727061E-1   -3.227492861698460E-2    1.756489221986877E-3    3.720329850811947E-3    1.793884457014400E-3    3.667346916774760E-3    4.274473292029923E-1   -3.298619199226528E-1
 7.838061748175000E9     5.656548842770071E-1   -3.457806505478801E-2    1.804734638407515E-3    3.703187884852815E-3    1.781077585259655E-3    3.649848195542685E-3    4.260792849606756E-1   -3.317509217035518E-1
 7.838094024400000E9     5.656244670172579E-1   -3.669400400934910E-2    1.823881217762431E-3    3.681015938336887E-3    1.822689691931480E-3    3.676891102789337E-3    4.245892249866959E-1   -3.335249168029452E-1
 7.838126300625000E9     5.654887632968669E-1   -3.879403966512739E-2    1.846328935507953E-3    3.694258473027105E-3    1.844789296995117E-3    3.652859465111240E-3    4.233453843951906E-1   -3.352860265435016E-1
 7.838158576850000E9     5.652954588919105E-1   -4.102261695229101E-2    1.853879781297004E-3    3.719775429116945E-3    1.884342732711815E-3    3.642899978232845E-3    4.218617639586902E-1   -3.370680663260966E-1
 7.838190853075000E9     5.652273518487749E-1   -4.322563060887067E-2    1.894968971511297E-3    3.711141133215226E-3    1.865824105912261E-3    3.656516776090368E-3    4.204185395605651E-1   -3.387833141392935E-1
 7.838223129300000E9     5.650188054402954E-1   -4.516850490303864E-2    1.895958944216381E-3    3.681274756136542E-3    1.922878077754058E-3    3.643224890391521E-3    4.189757477249617E-1   -3.405864516146425E-1
 7.838255405525000E9     5.647141992976598E-1   -4.742996123821665E-2    1.935912506781615E-3    3.707749157137171E-3    1.902561576950468E-3    3.660985503998304E-3    4.176653298309533E-1   -3.424185331487055E-1
 7.838287681750000E9     5.646343492487615E-1   -4.948579554747178E-2    1.937191906021550E-3    3.701641046493224E-3    1.952434737301229E-3    3.605559118912298E-3    4.160908950747430E-1   -3.440315708794808E-1
 7.838319957975000E9     5.643400043354442E-1   -5.163022119985868E-2    1.945484536010289E-3    3.720156860452118E-3    1.939795363584243E-3    3.646546188363819E-3    4.148813209348039E-1   -3.459204797656599E-1
 7.838352234200000E9     5.641438369381532E-1   -5.381988465258224E-2    1.961363873375851E-3    3.722159934068574E-3    1.998532006633739E-3    3.629681576393244E-3    4.132615137699669E-1   -3.475523315585224E-1
 7.838384510425000E9     5.639283537902509E-1   -5.605203771393132E-2    2.012387289706283E-3    3.715166604394071E-3    1.980434932665333E-3    3.652143002898795E-3    4.118714015609902E-1   -3.493683430555216E-1
 7.838416786650000E9     5.638897206574272E-1   -5.807482203693318E-2    2.025134307042496E-3    3.689400375396459E-3    1.990843274214717E-3    3.654111615083782E-3    4.104183911807877E-1   -3.510902596907084E-1
 7.838449062875000E9     5.635360282909024E-1   -6.031845789437495E-2    2.046193266905406E-3    3.663936052955851E-3    2.011181689610960E-3    3.642656024253247E-3    4.089998388691278E-1   -3.527960539724836E-1
 7.838481339100000E9     5.633830949309091E-1   -6.234127025600521E-2    2.081779233823070E-3    3.709321386658920E-3    2.075094886547894E-3    3.631124445519713E-3    4.074892870771820E-1   -3.545790092875241E-1
 7.838513615325000E9     5.630913283087958E-1   -6.451993683107553E-2    2.099376656387048E-3    3.706847891850170E-3    2.064076050818026E-3    3.613741938639245E-3    4.059324041067791E-1   -3.562207000318419E-1
 7.838545891550000E9     5.628302658438807E-1   -6.656627032290607E-2    2.081420431936368E-3    3.691811589692715E-3    2.092336472079225E-3    3.618558006900988E-3    4.044957195549355E-1   -3.577923128946328E-1
 7.838578167775000E9     5.627794121345753E-1   -6.882051141559681E-2    2.118593777866845E-3    3.692659455808978E-3    2.093591390150581E-3    3.597160447020353E-3    4.030854302755606E-1   -3.597404186002774E-1
 7.838610444000000E9     5.623812072252566E-1   -7.091278909930891E-2    2.138975526586632E-3    3.684040234970617E-3    2.132382995627345E-3    3.593752832295599E-3    4.014885403792776E-1   -3.612932735779815E-1
 7.838642720225000E9     5.621625730971448E-1   -7.306403756247799E-2    2.157922995823515E-3    3.671496323156201E-3    2.162574457303268E-3    3.644384361917998E-3    3.999292013660404E-1   -3.629473939862546E-1
 7.838674996450000E9     5.618947155776763E-1   -7.522565645685471E-2    2.220649868410771E-3    3.689549488097360E-3    2.160589043342980E-3    3.656505382040871E-3    3.986172916761038E-1   -3.647026823176693E-1
 7.838707272675000E9     5.614102811116636E-1   -7.728550371173268E-2    2.200881739049765E-3    3.676344218515199E-3    2.174213806713838E-3    3.640139487486273E-3    3.969207717581767E-1   -3.664277671092612E-1
 7.838739548900000E9     5.612377116391896E-1   -7.944686493310051E-2    2.217105643724853E-3    3.675991668437059E-3    2.213670480873133E-3    3.610205643817668E-3    3.955554018397724E-1   -3.681707626443460E-1
 7.838771825125000E9     5.609750592534214E-1   -8.161390317146942E-2    2.245377331062245E-3    3.668414167086747E-3    2.239689646264724E-3    3.609827006061024E-3    3.938806571475587E-1   -3.696701242473522E-1
 7.838804101350000E9     5.606992735375568E-1   -8.380841486153243E-2    2.259979842313511E-3    3.669800078546513E-3    2.267097718050222E-3    3.608653635473256E-3    3.923954589325340E-1   -3.713970072724967E-1
 7.838836377575000E9     5.604180453421872E-1   -8.585036482697846E-2    2.289737010172632E-3    3.689065994683605E-3    2.283127844899042E-3    3.608410619000863E-3    3.907891198882116E-1   -3.728065284010337E-1
 7.838868653800000E9     5.600617382289153E-1   -8.807034176799661E-2    2.326238058512094E-3    3.682024902117502E-3    2.314450282132853E-3    3.619745926442373E-3    3.894105901483720E-1   -3.746339087135811E-1
 7.838900930025000E9     5.595900151356332E-1   -9.005722196846204E-2    2.340413612084560E-3    3.655300621222876E-3    2.318783443571302E-3    3.593059193352760E-3    3.875980333157094E-1   -3.762547917112246E-1
 7.838933206250000E9     5.593310494144330E-1   -9.233356173300769E-2    2.385120251981481E-3    3.662732600052648E-3    2.299708062468664E-3    3.626310414133972E-3    3.860810959375224E-1   -3.780106620964497E-1
 7.838965482475000E9     5.589109627101150E-1   -9.444841691810590E-2    2.372735718100329E-3    3.660606713527073E-3    2.328880814552989E-3    3.590833717243916E-3    3.845415494406872E-1   -3.795701489534261E-1
 7.838997758700000E9     5.587081977594897E-1   -9.657795426181649E-2    2.404845558012597E-3    3.637304052439506E-3    2.415718235966369E-3    3.616233910039451E-3    3.829539166741287E-1   -3.811083740040147E-1
 7.839030034925000E9     5.584226060103757E-1   -9.874517330810871E-2    2.433529337815969E-3    3.669095273694094E-3    2.416403760809883E-3    3.611868968564442E-3    3.813489201750346E-1   -3.827560651657154E-1
 7.839062311150000E9     5.581064230866728E-1   -1.007803170294917E-1    2.431913899482738E-3    3.650623676446004E-3    2.418225284113400E-3    3.598179320851207E-3    3.796845253987034E-1   -3.841025665402591E-1
 7.839094587375000E9     5.575364389184591E-1   -1.029345153554881E-1    2.476141878264537E-3    3.662720076787573E-3    2.430011541415384E-3    3.574583058481880E-3    3.781109899809428E-1   -3.858152635531054E-1
 7.839126863600000E9     5.571292021055732E-1   -1.050761791267361E-1    2.474598268183746E-3    3.640825535606778E-3    2.465683417050505E-3    3.612743211534384E-3    3.766179710485258E-1   -3.874819420799434E-1
 7.839159139825000E9     5.568274044858542E-1   -1.072622280124475E-1    2.504774215157555E-3    3.617512017285907E-3    2.490911468539540E-3    3.629294361561908E-3    3.749539643498069E-1   -3.891305730217001E-1
 7.839191416050000E9     5.563508621324377E-1   -1.092374415017862E-1    2.535182288848744E-3    3.631050304277690E-3    2.520589713813205E-3    3.576041594807913E-3    3.732739420443245E-1   -3.906410442444611E-1
 7.839223692275000E9     5.558769132106391E-1   -1.113446297317214E-1    2.566630601279104E-3    3.626007180445449E-3    2.518784863939912E-3    3.611491415457034E-3    3.717935794792981E-1   -3.921772384184206E-1
 7.839255968500000E9     5.554115918033059E-1   -1.135302226304098E-1    2.590313431228035E-3    3.641443706078458E-3    2.547967211532663E-3    3.578552518306762E-3    3.700109429736828E-1   -3.938134226261489E-1
 7.839288244725000E9     5.550961760147868E-1   -1.156543070969482E-1    2.615033385090761E-3    3.636982284937686E-3    2.570074418038063E-3    3.619890011982558E-3    3.683909049814117E-1   -3.953040518693521E-1
 7.839320520950000E9     5.547167179418938E-1   -1.177141333407910E-1    2.623058640750212E-3    3.610591841837213E-3    2.566127270086939E-3    3.575433749635533E-3    3.667311548140195E-1   -3.968915014774422E-1
 7.839352797175000E9     5.541506168317568E-1   -1.199999313039409E-1    2.644676702315537E-3    3.643729031261011E-3    2.601672168238358E-3    3.626789645148291E-3    3.651287946214673E-1   -3.985631722842412E-1
 7.839385073400000E9     5.537981277355345E-1   -1.221791526782625E-1    2.702267287708606E-3    3.619288942425170E-3    2.619906078957642E-3    3.568029393255005E-3    3.634750392906682E-1   -4.000038375296839E-1
 7.839417349625000E9     5.531209286046833E-1   -1.241910128781103E-1    2.698505877934683E-3    3.636294275363854E-3    2.686719251418100E-3    3.583058001617035E-3    3.617355767195129E-1   -4.016155493254426E-1
 7.839449625850000E9     5.527270696233660E-1   -1.262470782891688E-1    2.727859790851137E-3    3.634326935594202E-3    2.696924459550976E-3    3.604844222739686E-3    3.599257319761858E-1   -4.031153029582163E-1
 7.839481902075000E9     5.522787094030939E-1   -1.283061726801213E-1    2.740583602963718E-3    3.632789287839460E-3    2.753612195164753E-3    3.567022123684959E-3    3.584567278024595E-1   -4.045576941473748E-1
 7.839514178300000E9     5.517865932196336E-1   -1.303680004654697E-1    2.792019531670968E-3    3.607163760248434E-3    2.758745896679295E-3    3.544254290548493E-3    3.568547311534192E-1   -4.059619400945542E-1
 7.839546454525000E9     5.513730333232235E-1   -1.326859431624536E-1    2.816242974117327E-3    3.618032712571225E-3    2.775810062199259E-3    3.596672518361428E-3    3.549774056594523E-1   -4.076607852076885E-1
 7.839578730750000E9     5.508246631662016E-1   -1.345970152640031E-1    2.833642508417904E-3    3.599711220711554E-3    2.800021596919029E-3    3.589178072610682E-3    3.533077735078154E-1   -4.090084776442658E-1
 7.839611006975000E9     5.502206396993889E-1   -1.369221678509897E-1    2.873883518815027E-3    3.596498961980408E-3    2.821271675313397E-3    3.601542547819848E-3    3.515543274959864E-1   -4.105668229818423E-1
 7.839643283200000E9     5.497777499087855E-1   -1.389133648398448E-1    2.873048152645701E-3    3.621979977478614E-3    2.852646967641931E-3    3.564074194382788E-3    3.499013199173229E-1   -4.119677856506614E-1
 7.839675559425000E9     5.492160104173951E-1   -1.410295117680695E-1    2.926440957773659E-3    3.595779618220009E-3    2.856099084437236E-3    3.550550935479694E-3    3.481482737931472E-1   -4.134697009054696E-1
 7.839707835650000E9     5.486864678707754E-1   -1.431591275944022E-1    2.942112721566457E-3    3.605555508764697E-3    2.896790946714055E-3    3.576576170355953E-3    3.463962063470707E-1   -4.150500927362877E-1
 7.839740111875000E9     5.481878995557524E-1   -1.451868507383867E-1    2.968389811120887E-3    3.605956871138554E-3    2.904471025769761E-3    3.562277659486112E-3    3.447599609866118E-1   -4.163896447145675E-1
 7.839772388100000E9     5.474870376692237E-1   -1.472822238830055E-1    2.981998066171593E-3    3.570117225626902E-3    2.943329236459367E-3    3.549049794456071E-3    3.428404692590225E-1   -4.178822139254005E-1
 7.839804664325000E9     5.468579999002374E-1   -1.493565306977842E-1    3.002530691001992E-3    3.573803426139495E-3    2.969540023882676E-3    3.567478879381017E-3    3.411956754995872E-1   -4.192823063778265E-1
 7.839836940550000E9     5.462778182910044E-1   -1.514194462015528E-1    3.022346508602537E-3    3.599618468869629E-3    3.002749891894779E-3    3.524489376636736E-3    3.394044891420204E-1   -4.207701258330104E-1
 7.839869216775000E9     5.456433837535363E-1   -1.535531972594665E-1    3.076469220009797E-3    3.574627562519700E-3    3.040242221663646E-3    3.559053777407212E-3    3.376614236603377E-1   -4.221923517255206E-1
 7.839901493000000E9     5.451044849403721E-1   -1.556811218099392E-1    3.121063836488220E-3    3.582805579532063E-3    3.056562439353280E-3    3.542661609838277E-3    3.359041114339379E-1   -4.236729168895075E-1
 7.839933769225000E9     5.445709941028557E-1   -1.576823824032950E-1    3.123619676173838E-3    3.558890816519675E-3    3.071499762107082E-3    3.535056182022368E-3    3.341147683854638E-1   -4.249259255847413E-1
 7.839966045450000E9     5.439192886679077E-1   -1.598610013256455E-1    3.135675770365747E-3    3.567625990191226E-3    3.106061946178777E-3    3.581882931750487E-3    3.322725162414757E-1   -4.263595908042762E-1
 7.839998321675000E9     5.432793995325349E-1   -1.618950511288428E-1    3.199140174855698E-3    3.570131458750092E-3    3.149997559919767E-3    3.548298566116904E-3    3.305945349266585E-1   -4.277769546891188E-1
 7.840030597900000E9     5.427503117416639E-1   -1.640428944210948E-1    3.218169023370171E-3    3.588137245775642E-3    3.174071494765734E-3    3.536642404865317E-3    3.288290638523894E-1   -4.292632175184414E-1
 7.840062874125000E9     5.420130578037466E-1   -1.659410912624063E-1    3.235127477894913E-3    3.567764680299389E-3    3.181199199831194E-3    3.534368761604837E-3    3.270213850432462E-1   -4.305386546991536E-1
 7.840095150350000E9     5.413087442481698E-1   -1.681072366133575E-1    3.277092691988792E-3    3.547837676290530E-3    3.201681335833474E-3    3.560334001016457E-3    3.252183328487759E-1   -4.318957872678373E-1
 7.840127426575000E9     5.407784734764571E-1   -1.703208647862384E-1    3.264177920309226E-3    3.576124758385109E-3    3.251116515323553E-3    3.544321443854447E-3    3.234042101881758E-1   -4.333252387822937E-1
 7.840159702800000E9     5.401521638426937E-1   -1.723941330670984E-1    3.326991887587116E-3    3.558182710336992E-3    3.279488052071372E-3    3.532883196887712E-3    3.215038582811696E-1   -4.347147937904053E-1
 7.840191979025000E9     5.394330736380980E-1   -1.744855970717800E-1    3.337528580853866E-3    3.545155390860638E-3    3.292205574202660E-3    3.521904429466227E-3    3.198258391875058E-1   -4.360429179717168E-1
 7.840224255250000E9     5.388704238486843E-1   -1.765284638721520E-1    3.374432588488186E-3    3.543742295327053E-3    3.365915093748700E-3    3.541314921465968E-3    3.179262606783602E-1   -4.373077988824230E-1
