#  HZ   S   RI   R     50.00 
! Rohde & Schwarz Vector Network Analyzer 
! Rohde-Schwarz,ZNB20-2Port,1311601062101988,3.16
! Created: UTC 12/23/2023, 3:36:51 AM
! freq[Hz]                re:S11                  im:S11                  re:S21                  im:S21                  re:S12                  im:S12                  re:S22                  im:S22
 7.837775704000000E9     5.665068339089742E-1   -1.671589782265199E-2    1.639677444330748E-3    3.723554132667813E-3    1.652847445257686E-3    3.640093107210965E-3    4.376256560244700E-1   -3.162717519052478E-1
 7.837806177875000E9     5.664949202276602E-1   -1.891382888635029E-2    1.653603567360975E-3    3.698046902065620E-3    1.617325379411515E-3    3.614381843634242E-3    4.364841142607338E-1   -3.179633682087233E-1
 7.837836651750000E9     5.663828254241372E-1   -2.079839727696610E-2    1.683597547605315E-3    3.708295307102532E-3    1.670565945251121E-3    3.610568881113074E-3    4.351655033041122E-1   -3.197078793263888E-1
 7.837867125625000E9     5.662355787958655E-1   -2.280732529569323E-2    1.656509815364021E-3    3.694441220141381E-3    1.679273564428468E-3    3.634608624641968E-3    4.338127052669269E-1   -3.215259544830762E-1
 7.837897599500000E9     5.663269045275716E-1   -2.479836295284599E-2    1.701681679503542E-3    3.713681598949523E-3    1.677387101076215E-3    3.631352205157012E-3    4.326710921579703E-1   -3.231521935797813E-1
 7.837928073375000E9     5.661972300724669E-1   -2.690124010241247E-2    1.720025480415466E-3    3.693096144889569E-3    1.744104507396454E-3    3.655002223809822E-3    4.313539456066650E-1   -3.248095729414298E-1
 7.837958547250000E9     5.660431165114130E-1   -2.902259491821295E-2    1.728305290356536E-3    3.692557372246860E-3    1.712393570230680E-3    3.648225229988692E-3    4.301837345301901E-1   -3.265875284501796E-1
 7.837989021125000E9     5.660081377875816E-1   -3.094939117299977E-2    1.747172152309124E-3    3.720713744895402E-3    1.749241242252797E-3    3.636741650406478E-3    4.287282241079755E-1   -3.282345681286944E-1
 7.838019495000000E9     5.659951442137573E-1   -3.302178207181183E-2    1.771248310359533E-3    3.678611499026554E-3    1.785719994907403E-3    3.606840398114518E-3    4.275536966726544E-1   -3.299230225384777E-1
 7.838049968875000E9     5.657711082526090E-1   -3.513930906229493E-2    1.792800508481702E-3    3.670533970722255E-3    1.789199441874399E-3    3.653572201008675E-3    4.261861597652164E-1   -3.316770502109083E-1
 7.838080442750000E9     5.655574695366324E-1   -3.697100782019574E-2    1.794402894368180E-3    3.700403189466627E-3    1.797047967995041E-3    3.633053581793930E-3    4.248777529623463E-1   -3.333629595726375E-1
 7.838110916625000E9     5.655448293565492E-1   -3.907316829753432E-2    1.823296696733304E-3    3.688981834264029E-3    1.779505719023867E-3    3.623842119532337E-3    4.237188253881689E-1   -3.351066107936618E-1
 7.838141390500000E9     5.653113198452345E-1   -4.112012175106162E-2    1.832903003234813E-3    3.691106584762639E-3    1.835264415542717E-3    3.605352206133497E-3    4.223144410078454E-1   -3.367960538508073E-1
 7.838171864375000E9     5.651467974340474E-1   -4.316168130254060E-2    1.849338840218392E-3    3.706941134326049E-3    1.884005801294253E-3    3.635230925382228E-3    4.208693543301458E-1   -3.384320077271418E-1
 7.838202338250000E9     5.650866342206187E-1   -4.506279926174001E-2    1.873187728049057E-3    3.690952299775905E-3    1.857012179568653E-3    3.631520829711622E-3    4.196263251221051E-1   -3.401091484095062E-1
 7.838232812125000E9     5.648541346157930E-1   -4.702055659923246E-2    1.883623506683520E-3    3.691699258418408E-3    1.871632715585003E-3    3.622561227606137E-3    4.182458632171931E-1   -3.416710796050979E-1
 7.838263286000000E9     5.647567306982213E-1   -4.918540293719572E-2    1.901522364470679E-3    3.702838973958968E-3    1.907892370071150E-3    3.635920366285668E-3    4.169381463418703E-1   -3.434242201402365E-1
 7.838293759875000E9     5.644688636620919E-1   -5.124461182400388E-2    1.919728575941550E-3    3.701071570182972E-3    1.905627242459755E-3    3.634107970404399E-3    4.157133665849216E-1   -3.451570909437034E-1
 7.838324233750000E9     5.645621542335418E-1   -5.317249540801956E-2    1.947530072498548E-3    3.685929066630024E-3    1.939477698212001E-3    3.613450670163384E-3    4.143323167014512E-1   -3.466144077766585E-1
 7.838354707625000E9     5.642338479245220E-1   -5.515137686553629E-2    1.970870570233779E-3    3.683316177215674E-3    1.964108375445907E-3    3.585762651834006E-3    4.128843458699364E-1   -3.484805128213981E-1
 7.838385181500000E9     5.640548288886312E-1   -5.715210659761492E-2    1.990836605629034E-3    3.685816400822890E-3    1.938488126963029E-3    3.591308717977538E-3    4.116152278746119E-1   -3.500052701103659E-1
 7.838415655375000E9     5.638724697607806E-1   -5.926599008728681E-2    2.012326043954214E-3    3.657874774032639E-3    2.017196104182677E-3    3.615416054031679E-3    4.099401659526156E-1   -3.516239980711223E-1
 7.838446129250000E9     5.637489903917392E-1   -6.132090621270444E-2    2.033815792633425E-3    3.675124791374092E-3    2.000903644336704E-3    3.573061451748445E-3    4.086690376999458E-1   -3.533409066880367E-1
 7.838476603125000E9     5.634063407719977E-1   -6.331252826944386E-2    2.052101964371151E-3    3.698305419891223E-3    2.049612339944076E-3    3.591671615944403E-3    4.073542398495335E-1   -3.548429675428947E-1
 7.838507077000000E9     5.631975254355129E-1   -6.528378965130724E-2    2.053709874441620E-3    3.651954515986876E-3    2.069255840563113E-3    3.619246046200788E-3    4.059717765001325E-1   -3.564907277999952E-1
 7.838537550875000E9     5.629976519723503E-1   -6.728495195071516E-2    2.104244340616678E-3    3.673238507854382E-3    2.017563950796949E-3    3.613383734618567E-3    4.046041894843754E-1   -3.580604200052498E-1
 7.838568024750000E9     5.627850914448490E-1   -6.952208760297190E-2    2.114598875364996E-3    3.688848034169556E-3    2.084729379739742E-3    3.629383708319492E-3    4.030858769433164E-1   -3.596557787566262E-1
 7.838598498625000E9     5.625197042840548E-1   -7.139698908600720E-2    2.124235185614941E-3    3.668783900443734E-3    2.083309992671763E-3    3.634068870123397E-3    4.016294200837480E-1   -3.613849320084017E-1
 7.838628972500000E9     5.622590521659870E-1   -7.346458184259866E-2    2.162794016234154E-3    3.663416475497760E-3    2.136236147391065E-3    3.615403826182861E-3    4.002245563931975E-1   -3.630175893943873E-1
 7.838659446375000E9     5.620312697975688E-1   -7.550415787205830E-2    2.176861462636510E-3    3.668278471038910E-3    2.161903456029655E-3    3.592026765223677E-3    3.989953877722211E-1   -3.645215406867386E-1
 7.838689920250000E9     5.617326100058774E-1   -7.746776232145330E-2    2.184431928103765E-3    3.636282141563792E-3    2.162809677625941E-3    3.579605562348248E-3    3.974222154365068E-1   -3.661057377816596E-1
 7.838720394125000E9     5.614700837239371E-1   -7.947648846603243E-2    2.206034210736827E-3    3.664909523723720E-3    2.207424004561737E-3    3.574509604467370E-3    3.960700318277616E-1   -3.676364943028734E-1
 7.838750868000000E9     5.610743950364845E-1   -8.152032818629899E-2    2.230841973966219E-3    3.671712157722208E-3    2.207639160897087E-3    3.625462438594961E-3    3.945460649334319E-1   -3.692309465969091E-1
 7.838781341875000E9     5.608586490085561E-1   -8.344482089115221E-2    2.245389831250498E-3    3.656391628790523E-3    2.216665151216258E-3    3.594783629938375E-3    3.929887481215713E-1   -3.708220277065281E-1
 7.838811815750000E9     5.606190436313473E-1   -8.558681631312649E-2    2.282166283598769E-3    3.624961703325499E-3    2.245744007046886E-3    3.603746174552127E-3    3.916082387203662E-1   -3.723967488180945E-1
 7.838842289625000E9     5.602788298949281E-1   -8.753577808502618E-2    2.270351988130297E-3    3.649261027025807E-3    2.280629048177431E-3    3.593121602179958E-3    3.900338720579875E-1   -3.738455292767748E-1
 7.838872763500000E9     5.598736471255160E-1   -8.952957041022659E-2    2.315357894851061E-3    3.647545629355658E-3    2.251840378712525E-3    3.573823923372823E-3    3.886770568280645E-1   -3.753998142770484E-1
 7.838903237375000E9     5.597260709897883E-1   -9.150601223836735E-2    2.320217518271607E-3    3.635010386411200E-3    2.297459339971324E-3    3.585837656588976E-3    3.872006824011490E-1   -3.770080927139888E-1
 7.838933711250000E9     5.592401881889315E-1   -9.358232072371579E-2    2.311273311676751E-3    3.621589754977080E-3    2.324877531478241E-3    3.609760385809440E-3    3.857067317370820E-1   -3.786027753097589E-1
 7.838964185125000E9     5.588645287252895E-1   -9.564077026214257E-2    2.360260165945449E-3    3.664444210061472E-3    2.349383603023987E-3    3.575436735240039E-3    3.843047532614237E-1   -3.800705332644336E-1
 7.838994659000000E9     5.587122000704299E-1   -9.755265727962868E-2    2.392999308596865E-3    3.664001722449320E-3    2.384149128856886E-3    3.591587380908941E-3    3.827727541046463E-1   -3.815823361759513E-1
 7.839025132875000E9     5.581849688399385E-1   -9.970580649539175E-2    2.429073815350554E-3    3.627429548299246E-3    2.415400931836909E-3    3.579042500986817E-3    3.810952359854801E-1   -3.831111570466407E-1
 7.839055606750000E9     5.579182709175976E-1   -1.016910798369667E-1    2.441005577702359E-3    3.639488673794576E-3    2.413352417561811E-3    3.561103466453545E-3    3.797340981741547E-1   -3.846026683066163E-1
 7.839086080625000E9     5.577748718874150E-1   -1.037117697642213E-1    2.467855475907230E-3    3.616695802195786E-3    2.398777817235226E-3    3.577186824731045E-3    3.782079378108937E-1   -3.862223515276117E-1
 7.839116554500000E9     5.572216755849185E-1   -1.056835912383845E-1    2.447838763248506E-3    3.599778240321698E-3    2.427455014604755E-3    3.577926451124044E-3    3.765498790051029E-1   -3.874884551076740E-1
 7.839147028375000E9     5.568180332005652E-1   -1.077255449798735E-1    2.478538803164037E-3    3.628416939832629E-3    2.457942872878379E-3    3.567448584508336E-3    3.751315341516129E-1   -3.891628282568969E-1
 7.839177502250000E9     5.564322632423149E-1   -1.096227555537911E-1    2.516234697410258E-3    3.639402934378259E-3    2.484699915303573E-3    3.570332272339018E-3    3.734956238118782E-1   -3.905556842105833E-1
 7.839207976125000E9     5.561245883569930E-1   -1.117016611869309E-1    2.536728157200269E-3    3.619369211506024E-3    2.496711820302533E-3    3.582698206465761E-3    3.721779222091107E-1   -3.919798483074737E-1
 7.839238450000000E9     5.554550840490542E-1   -1.137503179124131E-1    2.535443305933252E-3    3.630981221817779E-3    2.501686710867357E-3    3.581984736420340E-3    3.704221808615551E-1   -3.935763484731672E-1
 7.839268923875000E9     5.551806883439648E-1   -1.156685828416455E-1    2.585279151790455E-3    3.624093776131504E-3    2.547448880377634E-3    3.564244682655713E-3    3.689845247046448E-1   -3.951133844051485E-1
 7.839299397750000E9     5.548757461211544E-1   -1.176188170630808E-1    2.612557842946977E-3    3.614520612501084E-3    2.570486695202155E-3    3.557906656545884E-3    3.674003822707127E-1   -3.965250867659967E-1
 7.839329871625000E9     5.544165509014376E-1   -1.197302262637727E-1    2.621563514320608E-3    3.601694244809219E-3    2.605571636066961E-3    3.549499477317562E-3    3.657646147085403E-1   -3.981342831413083E-1
 7.839360345500000E9     5.537952796159726E-1   -1.215157800615158E-1    2.652436263236817E-3    3.602450382412776E-3    2.636951202216665E-3    3.596634630884758E-3    3.643063760577019E-1   -3.993810905102828E-1
 7.839390819375000E9     5.536004302553130E-1   -1.236489598856356E-1    2.642259348761155E-3    3.583725889765575E-3    2.628565503736258E-3    3.566326975246379E-3    3.625735282855802E-1   -4.008958723655932E-1
 7.839421293250000E9     5.528868106355972E-1   -1.256515522279016E-1    2.664392959826035E-3    3.598957648571537E-3    2.630583709858708E-3    3.559302633338423E-3    3.610035871371653E-1   -4.023406439181761E-1
 7.839451767125000E9     5.526178685156510E-1   -1.275407387103787E-1    2.706873625129893E-3    3.611885705698395E-3    2.669078551925511E-3    3.550045333028180E-3    3.593946971028271E-1   -4.037719211585921E-1
 7.839482241000000E9     5.521146131008190E-1   -1.296497086836919E-1    2.744693536062445E-3    3.606592630014093E-3    2.717199793777475E-3    3.543831779017518E-3    3.580908902083279E-1   -4.051865312362102E-1
 7.839512714875000E9     5.516002768456663E-1   -1.316109345426910E-1    2.769948732416169E-3    3.591879554814667E-3    2.712738441937826E-3    3.537810108244684E-3    3.560994244447199E-1   -4.066729781308862E-1
 7.839543188750000E9     5.510733060837497E-1   -1.338694070265253E-1    2.776500200958057E-3    3.612948609902961E-3    2.738891739038767E-3    3.532974861839676E-3    3.548376766886159E-1   -4.080516485437042E-1
 7.839573662625000E9     5.506543885632658E-1   -1.355810729180336E-1    2.797197411408992E-3    3.614504810202473E-3    2.758153891848668E-3    3.546420007609523E-3    3.531736909672017E-1   -4.093979314101696E-1
 7.839604136500000E9     5.502347768957428E-1   -1.376050017533006E-1    2.820102082610853E-3    3.588319189905033E-3    2.782312589663502E-3    3.524048174632544E-3    3.515258984342445E-1   -4.108261270093207E-1
 7.839634610375000E9     5.497930545620371E-1   -1.397002371196783E-1    2.838541531901618E-3    3.586653082146092E-3    2.798745272314309E-3    3.540690800563724E-3    3.498271092764550E-1   -4.121090873022649E-1
 7.839665084250000E9     5.492565568525419E-1   -1.415522691759384E-1    2.875151165554213E-3    3.593076698744589E-3    2.848306556363523E-3    3.538055297023889E-3    3.483298706467373E-1   -4.134617730233168E-1
 7.839695558125000E9     5.487281468130404E-1   -1.434212796570856E-1    2.889584434863983E-3    3.555373871418643E-3    2.868842423003557E-3    3.547068214046601E-3    3.466321582023760E-1   -4.149170747662448E-1
 7.839726032000000E9     5.482076134169515E-1   -1.454053281493550E-1    2.900367249259079E-3    3.576219791070985E-3    2.871755058197024E-3    3.524044344469102E-3    3.450800594809557E-1   -4.163685316473261E-1
 7.839756505875000E9     5.476813565819351E-1   -1.474150739648153E-1    2.948159664660346E-3    3.564741840787246E-3    2.907100410494798E-3    3.525192890654867E-3    3.432982669803959E-1   -4.176850539927941E-1
 7.839786979750000E9     5.470414306118724E-1   -1.495195753400577E-1    2.979246953260171E-3    3.581887646421641E-3    2.953994813914947E-3    3.538723430825651E-3    3.417468927656251E-1   -4.191393376671950E-1
 7.839817453625000E9     5.466068010192207E-1   -1.513924616576975E-1    2.982966935967932E-3    3.568652557829225E-3    2.937423692340838E-3    3.538307189697019E-3    3.400284029948621E-1   -4.204870150486993E-1
 7.839847927500000E9     5.459745725411641E-1   -1.533689148004035E-1    3.018214238841107E-3    3.555618141202636E-3    2.960614145072539E-3    3.526965815370936E-3    3.383847469513457E-1   -4.218457723792524E-1
 7.839878401375000E9     5.454439137204503E-1   -1.554317445962174E-1    3.064882646533978E-3    3.594800235990661E-3    2.974310667797764E-3    3.550440209917047E-3    3.366374074516248E-1   -4.232769543431764E-1
 7.839908875250000E9     5.448114101247759E-1   -1.573610158887497E-1    3.097241617483970E-3    3.537525497587189E-3    3.036581082714580E-3    3.536638771031761E-3    3.350980091991257E-1   -4.244481884466683E-1
 7.839939349125000E9     5.443243197678913E-1   -1.594400442565514E-1    3.110369659945957E-3    3.540587547707628E-3    3.061730119514017E-3    3.519877883900179E-3    3.334301243307713E-1   -4.257839740733426E-1
 7.839969823000000E9     5.435625531807630E-1   -1.613063873628154E-1    3.115671607822516E-3    3.571844368976526E-3    3.089215377277874E-3    3.525950367513146E-3    3.317193733222176E-1   -4.272495583075592E-1
 7.840000296875000E9     5.430871652023513E-1   -1.632614364970306E-1    3.164466116537854E-3    3.557600248799552E-3    3.073935979578411E-3    3.524023539814148E-3    3.300110108639162E-1   -4.283866594302996E-1
 7.840030770750000E9     5.424326391792247E-1   -1.653254332846339E-1    3.159731338539919E-3    3.551315207146853E-3    3.112358103555880E-3    3.524250852973245E-3    3.282399851348398E-1   -4.297319455506213E-1
 7.840061244625000E9     5.419223291060551E-1   -1.672065267748530E-1    3.190303247512425E-3    3.547587546220010E-3    3.167720401543268E-3    3.498710755472319E-3    3.266316329723920E-1   -4.309525654677832E-1
 7.840091718500000E9     5.411796512391563E-1   -1.690372128162761E-1    3.228427525898680E-3    3.572189422050156E-3    3.148596265221861E-3    3.511836014040964E-3    3.249280393283361E-1   -4.323482680969623E-1
 7.840122192375000E9     5.407138869709854E-1   -1.711442314617680E-1    3.246780029415997E-3    3.558645382657669E-3    3.209834961932716E-3    3.517443951210806E-3    3.231989045234760E-1   -4.337223368433539E-1
 7.840152666250000E9     5.399360720755059E-1   -1.730876651226899E-1    3.280505448099364E-3    3.553610463078908E-3    3.240101033786039E-3    3.499016501532351E-3    3.215484363298998E-1   -4.349646591008373E-1
 7.840183140125000E9     5.394078299915045E-1   -1.750155462592651E-1    3.309057784760616E-3    3.536748406997640E-3    3.254891697582917E-3    3.506512852644039E-3    3.197716965532597E-1   -4.362251795713696E-1
 7.840213614000000E9     5.386761881972475E-1   -1.769417590620641E-1    3.323714135600076E-3    3.534886013799751E-3    3.295932164032787E-3    3.527122127526738E-3    3.181007935759989E-1   -4.375637916603339E-1
 7.840244087875000E9     5.380926185773042E-1   -1.790329901402400E-1    3.348686653375473E-3    3.540711937307231E-3    3.291894000140992E-3    3.496927540333224E-3    3.163949649821821E-1   -4.387674277434555E-1
 7.840274561750000E9     5.374482850402819E-1   -1.809723831508388E-1    3.393808941729016E-3    3.548241728709211E-3    3.357664898797434E-3    3.508992557006087E-3    3.146264790343254E-1   -4.400704638855993E-1
 7.840305035625000E9     5.367860092764218E-1   -1.828200136654756E-1    3.413495541314313E-3    3.543435092650447E-3    3.367324579559290E-3    3.493814022427104E-3    3.128407400972916E-1   -4.412940752495482E-1
 7.840335509500000E9     5.359636714422291E-1   -1.849213615268181E-1    3.424334802781606E-3    3.523543403263056E-3    3.436803360591539E-3    3.512689902420846E-3    3.110693132885303E-1   -4.425350491766937E-1
 7.840365983375000E9     5.352774936372351E-1   -1.866573662870384E-1    3.465000610717475E-3    3.518882546740371E-3    3.419690710036121E-3    3.484806971061646E-3    3.092874358142316E-1   -4.437594757019938E-1
 7.840396457250000E9     5.347301377256870E-1   -1.887486052643519E-1    3.508210573657513E-3    3.507151856535370E-3    3.456808273650982E-3    3.478857437868906E-3    3.076204353674806E-1   -4.451258104737878E-1
 7.840426931125000E9     5.339070146004609E-1   -1.906907072053532E-1    3.533237126411280E-3    3.518399182427663E-3    3.469803587984902E-3    3.498468808673285E-3    3.058714172391390E-1   -4.461182310213780E-1
 7.840457405000000E9     5.333392413619175E-1   -1.925991286959969E-1    3.557283796841751E-3    3.504681204065088E-3    3.525532225721656E-3    3.485606864534409E-3    3.042357432364112E-1   -4.475190411314755E-1
 7.840487878875000E9     5.325431332636400E-1   -1.945101376510415E-1    3.548162705812132E-3    3.527296524497674E-3    3.537255351186683E-3    3.504089774301536E-3    3.023284390608498E-1   -4.485631028602720E-1
 7.840518352750000E9     5.318497662233705E-1   -1.963174975088388E-1    3.628033982216231E-3    3.501264609927903E-3    3.580090673486943E-3    3.491586306754146E-3    3.005939944930532E-1   -4.498664773754462E-1
