#  HZ   S   RI   R     50.00 
! Rohde & Schwarz Vector Network Analyzer 
! Rohde-Schwarz,ZNB20-2Port,1311601062101988,3.16
! Created: UTC 12/23/2023, 3:58:40 AM
! freq[Hz]                re:S11                  im:S11                  re:S21                  im:S21                  re:S12                  im:S12                  re:S22                  im:S22
 7.837367035000000E9     5.661560014933301E-1    1.164271088298864E-2    1.382941664853965E-3    3.749066272324643E-3    1.441098824024647E-3    3.659885841576432E-3    4.539098440226994E-1   -2.918720458888011E-1
 7.837399117225000E9     5.663207214118189E-1    9.624891107315825E-3    1.421212409929910E-3    3.747356655610499E-3    1.463626271359748E-3    3.672733845156984E-3    4.527432059149170E-1   -2.937245450182921E-1
 7.837431199450000E9     5.663790343302835E-1    7.449527394288992E-3    1.438253717939016E-3    3.768300225062858E-3    1.416894765733433E-3    3.690556595835428E-3    4.514630168567118E-1   -2.956886369741167E-1
 7.837463281675000E9     5.662428250151140E-1    5.393671589665921E-3    1.448680511068097E-3    3.739518828204760E-3    1.461455823570094E-3    3.662712941015066E-3    4.504192527267088E-1   -2.974919349613081E-1
 7.837495363900000E9     5.665724500634532E-1    3.194408066237649E-3    1.481095465549424E-3    3.744814407009505E-3    1.462681938307991E-3    3.672576770726456E-3    4.491807998797643E-1   -2.992785278236971E-1
 7.837527446125000E9     5.665744359046504E-1    1.104188743095096E-3    1.490603586746583E-3    3.728425557508754E-3    1.469662464157635E-3    3.678502896401444E-3    4.478686874374470E-1   -3.012882576912402E-1
 7.837559528350000E9     5.666127495952745E-1   -1.102385805593443E-3    1.514871939744840E-3    3.720133425294703E-3    1.517946732478406E-3    3.673081523749358E-3    4.464575865939686E-1   -3.032234318471744E-1
 7.837591610575000E9     5.664957739740288E-1   -3.271354163473952E-3    1.534132409644226E-3    3.731895024021214E-3    1.533679308254818E-3    3.649113231544598E-3    4.453289392400300E-1   -3.049386486501470E-1
 7.837623692800000E9     5.665452283202370E-1   -5.300120200681144E-3    1.535532564102365E-3    3.728448298856886E-3    1.562386434707919E-3    3.657093829095063E-3    4.439624334358058E-1   -3.070001478142162E-1
 7.837655775025000E9     5.664737151752205E-1   -7.408114642467116E-3    1.568876122046200E-3    3.728781361256494E-3    1.574556450833573E-3    3.677105050004120E-3    4.427879990773499E-1   -3.086404155168244E-1
 7.837687857250000E9     5.664197462559882E-1   -9.623891713229943E-3    1.601419344981521E-3    3.734423499711592E-3    1.577573567214943E-3    3.636940909240345E-3    4.415311341715736E-1   -3.105845066554987E-1
 7.837719939475000E9     5.664819497561013E-1   -1.182856115245565E-2    1.596041764652942E-3    3.727327151401148E-3    1.592963744352473E-3    3.673091636660281E-3    4.401962778565837E-1   -3.124630763894391E-1
 7.837752021700000E9     5.663764516128185E-1   -1.393252313153417E-2    1.606990248808961E-3    3.725487889817734E-3    1.646620320428533E-3    3.663505805030919E-3    4.388684212769428E-1   -3.141102676810699E-1
 7.837784103925000E9     5.663250147884286E-1   -1.613255451408738E-2    1.645616349705504E-3    3.731879062159390E-3    1.644268182860464E-3    3.635116081828492E-3    4.376605735818388E-1   -3.159546710558053E-1
 7.837816186150000E9     5.663195197950112E-1   -1.825470126540331E-2    1.648989997242335E-3    3.708501400798652E-3    1.687596062531404E-3    3.667429833167235E-3    4.362573562525429E-1   -3.178472110046480E-1
 7.837848268375000E9     5.662232295431785E-1   -2.039562241582999E-2    1.695156838209496E-3    3.709581531873506E-3    1.652780554917304E-3    3.637690978881023E-3    4.350927525777905E-1   -3.195802841142412E-1
 7.837880350600000E9     5.662747058027621E-1   -2.249897289066592E-2    1.682132704343643E-3    3.718685359195618E-3    1.692968774095470E-3    3.620250967375958E-3    4.338453723463456E-1   -3.215699419108451E-1
 7.837912432825000E9     5.660687378322315E-1   -2.447748183870269E-2    1.728709829940007E-3    3.711654280476262E-3    1.721825838725231E-3    3.626601685889453E-3    4.323210567926428E-1   -3.233530453934675E-1
 7.837944515050000E9     5.659930100298385E-1   -2.672452602684324E-2    1.721815685650531E-3    3.734653519857420E-3    1.738734223517786E-3    3.630035889038150E-3    4.311140624266095E-1   -3.251511109650450E-1
 7.837976597275000E9     5.659072510785603E-1   -2.875661397047921E-2    1.750131962794973E-3    3.713096442143907E-3    1.724366349781183E-3    3.600884124707306E-3    4.297472567982308E-1   -3.269441067777155E-1
 7.838008679500000E9     5.658565537207138E-1   -3.081602631598736E-2    1.768049666644038E-3    3.745706101886831E-3    1.772630428390588E-3    3.666512322995238E-3    4.281748246144520E-1   -3.287997469734161E-1
 7.838040761725000E9     5.657209877075701E-1   -3.309924165436089E-2    1.796950638623296E-3    3.742131471426990E-3    1.783725761372469E-3    3.645900051730523E-3    4.270182852003849E-1   -3.304095696502960E-1
 7.838072843950000E9     5.656257394509677E-1   -3.523069784368693E-2    1.812588362190363E-3    3.700190770970984E-3    1.803220511721101E-3    3.650786983771994E-3    4.256064120292450E-1   -3.322505666854164E-1
 7.838104926175000E9     5.654249974150933E-1   -3.752801174801765E-2    1.858497373107596E-3    3.717236007233034E-3    1.819096032342694E-3    3.630392050668901E-3    4.242332227285471E-1   -3.339831730194018E-1
 7.838137008400000E9     5.654544886744282E-1   -3.948068601785182E-2    1.864219594244298E-3    3.725735813159586E-3    1.845569692289613E-3    3.637806047152392E-3    4.228392646029356E-1   -3.358002671851212E-1
 7.838169090625000E9     5.651618870115040E-1   -4.158233651338024E-2    1.821137009937592E-3    3.692214156851417E-3    1.881393181053165E-3    3.646989512786066E-3    4.215129948046453E-1   -3.376401565451075E-1
 7.838201172850000E9     5.651633274423820E-1   -4.371039248778918E-2    1.895104183782531E-3    3.705891637015402E-3    1.864076918425909E-3    3.648077325925876E-3    4.199520623616757E-1   -3.394009095498456E-1
 7.838233255075000E9     5.648683067025649E-1   -4.583573602039517E-2    1.887686788099069E-3    3.689235610266843E-3    1.942022065523185E-3    3.621239145576242E-3    4.185459308906884E-1   -3.410847624775840E-1
 7.838265337300000E9     5.649257611594600E-1   -4.791628331258838E-2    1.916725841802630E-3    3.696733411459845E-3    1.896424632044164E-3    3.649052311948227E-3    4.171945977006606E-1   -3.429030204873382E-1
 7.838297419525000E9     5.646319713851581E-1   -5.028514868073990E-2    1.949764886677178E-3    3.686734562556173E-3    1.919006005304378E-3    3.630949689767402E-3    4.159163381771641E-1   -3.444887560083891E-1
 7.838329501750000E9     5.643228650530325E-1   -5.227116596817868E-2    1.976358646323016E-3    3.688229733642859E-3    1.966875165282717E-3    3.606862539548823E-3    4.142868429635008E-1   -3.464327638352968E-1
 7.838361583975000E9     5.642292377069801E-1   -5.442095496031667E-2    1.980912730586619E-3    3.709182649633413E-3    2.001778491824433E-3    3.633847361511235E-3    4.129074649226135E-1   -3.480334147489385E-1
 7.838393666200000E9     5.641044713830585E-1   -5.646750034211840E-2    2.003243255802259E-3    3.676631470824324E-3    2.005637773781790E-3    3.618488170364169E-3    4.114279646641230E-1   -3.497890557614194E-1
 7.838425748425000E9     5.637929863334420E-1   -5.859294394613415E-2    2.029325745540410E-3    3.688366898777377E-3    2.001283085690886E-3    3.632241113286674E-3    4.099649581534901E-1   -3.515687084486132E-1
 7.838457830650000E9     5.634562782907679E-1   -6.082811063627341E-2    2.057092659126770E-3    3.670865044322737E-3    2.032134770624248E-3    3.627140706526647E-3    4.086633335545481E-1   -3.532314750681469E-1
 7.838489912875000E9     5.633001548616334E-1   -6.299030917441843E-2    2.057706576243836E-3    3.687938647041799E-3    2.053644864379495E-3    3.632367647447282E-3    4.070738856873971E-1   -3.549595937818254E-1
 7.838521995100000E9     5.630705110538924E-1   -6.516215382261246E-2    2.129848538805274E-3    3.703676556568859E-3    2.075864815154023E-3    3.644659716424623E-3    4.056066023364335E-1   -3.567114346364963E-1
 7.838554077325000E9     5.628420652690695E-1   -6.704589353145095E-2    2.113583521118557E-3    3.684672255428054E-3    2.092457817944796E-3    3.628320551512956E-3    4.041958238283339E-1   -3.581844798115643E-1
 7.838586159550000E9     5.626822712989175E-1   -6.928880590186837E-2    2.124219442899843E-3    3.683598567344798E-3    2.121662400124226E-3    3.658814749863050E-3    4.027395927399858E-1   -3.600143767723961E-1
 7.838618241775000E9     5.624314790392378E-1   -7.144899333617589E-2    2.136142414286992E-3    3.682848762356192E-3    2.111705947828329E-3    3.610027658249009E-3    4.011993105922643E-1   -3.617054196353485E-1
 7.838650324000000E9     5.621772086104725E-1   -7.356040381651598E-2    2.151716418603976E-3    3.662480309830313E-3    2.144855795249526E-3    3.645745246228167E-3    3.995369791382137E-1   -3.633797550871837E-1
 7.838682406225000E9     5.618622577403717E-1   -7.569607970025190E-2    2.178381591205212E-3    3.683984690134627E-3    2.198571181415985E-3    3.654048376870898E-3    3.981295625053989E-1   -3.651004498590341E-1
 7.838714488450000E9     5.615681584296712E-1   -7.775722646182717E-2    2.230841784511751E-3    3.671127643278196E-3    2.190532787563035E-3    3.635023067268606E-3    3.966721713966819E-1   -3.665305485842069E-1
 7.838746570675000E9     5.613295133618321E-1   -8.002519701055916E-2    2.209884358197177E-3    3.654249995649740E-3    2.214083622055136E-3    3.595556195983206E-3    3.950231241272076E-1   -3.683879631844527E-1
 7.838778652900000E9     5.608866161655566E-1   -8.199803901620246E-2    2.258103358801550E-3    3.648436842771636E-3    2.234610478770767E-3    3.618298451929351E-3    3.936812142878363E-1   -3.699885730761356E-1
 7.838810735125000E9     5.606089459150044E-1   -8.426976994951593E-2    2.268490325512575E-3    3.647387436567711E-3    2.270816706489369E-3    3.620392810798356E-3    3.919834537036516E-1   -3.716869145561690E-1
 7.838842817350000E9     5.602780181642284E-1   -8.629543523271940E-2    2.296477764968723E-3    3.657801949537289E-3    2.285865337711489E-3    3.600068225488445E-3    3.904743010471587E-1   -3.734926268227217E-1
 7.838874899575000E9     5.601371646617685E-1   -8.831074997118057E-2    2.306284694334143E-3    3.666359656691957E-3    2.332356746367266E-3    3.612265616425676E-3    3.890812030185293E-1   -3.749568493304039E-1
 7.838906981800000E9     5.597006266188970E-1   -9.048466895096793E-2    2.334653021338093E-3    3.656055902939951E-3    2.289517232767180E-3    3.604264539839540E-3    3.874463941375825E-1   -3.764910382922869E-1
 7.838939064025000E9     5.593494412422946E-1   -9.268888483771265E-2    2.362738211716480E-3    3.693019585668834E-3    2.360758458069683E-3    3.621815348219201E-3    3.857830920900491E-1   -3.781192858505914E-1
 7.838971146250000E9     5.589210975333538E-1   -9.469921296296266E-2    2.417098049948492E-3    3.652178161919288E-3    2.387378047950350E-3    3.559432687459591E-3    3.844136061112147E-1   -3.798036551399646E-1
 7.839003228475000E9     5.587117357144639E-1   -9.683101913460762E-2    2.421915039558743E-3    3.652570170762910E-3    2.387067191189824E-3    3.622622468742222E-3    3.827470965831024E-1   -3.814391623450031E-1
 7.839035310700000E9     5.582307942615027E-1   -9.893727553237142E-2    2.447176953533979E-3    3.643379016089978E-3    2.418901681160075E-3    3.582208168957135E-3    3.811523720398801E-1   -3.830279867275034E-1
 7.839067392925000E9     5.577980539083764E-1   -1.011401281993254E-1    2.435981487737284E-3    3.649259518581711E-3    2.418083124671396E-3    3.608813382393417E-3    3.796018354385758E-1   -3.845462846907989E-1
 7.839099475150000E9     5.575798385441635E-1   -1.031385735140788E-1    2.470771809054285E-3    3.618464937870833E-3    2.445691044314920E-3    3.572859505984290E-3    3.779948709508499E-1   -3.862792873658435E-1
 7.839131557375000E9     5.570610065085799E-1   -1.053415238385761E-1    2.494013855564829E-3    3.641774040453228E-3    2.445723525153116E-3    3.612564080562321E-3    3.762724528030932E-1   -3.877774143751024E-1
 7.839163639600000E9     5.567522133272338E-1   -1.073817965410053E-1    2.499034561027116E-3    3.633698840440573E-3    2.507911822945540E-3    3.573055299936980E-3    3.746970087341937E-1   -3.891578500905004E-1
 7.839195721825000E9     5.562517029906096E-1   -1.095919233885030E-1    2.543671255437817E-3    3.612923679053514E-3    2.492236546159671E-3    3.589912289405562E-3    3.730501644241074E-1   -3.910761517534117E-1
 7.839227804050000E9     5.559674849860644E-1   -1.115857784199282E-1    2.556067686086056E-3    3.645305628020006E-3    2.563208749076495E-3    3.608661624289018E-3    3.714497333938557E-1   -3.925194684308138E-1
 7.839259886275000E9     5.554110583756939E-1   -1.137228109348222E-1    2.588008928192649E-3    3.629086814611913E-3    2.548347142547176E-3    3.574900026313692E-3    3.698763607113149E-1   -3.940252890987184E-1
 7.839291968500000E9     5.549915429626557E-1   -1.159097992889159E-1    2.621842017254150E-3    3.615045100876755E-3    2.574930444093627E-3    3.581823278100884E-3    3.682757646853994E-1   -3.954406243372292E-1
 7.839324050725000E9     5.546289507550501E-1   -1.179673449938300E-1    2.639102962876227E-3    3.634468410701872E-3    2.611445331780789E-3    3.574550494239897E-3    3.665446313963523E-1   -3.970246104770067E-1
 7.839356132950000E9     5.541414833988021E-1   -1.200969586443966E-1    2.636794074670256E-3    3.627647171523478E-3    2.671636233569275E-3    3.588767722815186E-3    3.649569672725958E-1   -3.986329212484269E-1
 7.839388215175000E9     5.536303813267651E-1   -1.221300797087907E-1    2.689173871606467E-3    3.650157868615084E-3    2.655702838511425E-3    3.566751510663729E-3    3.632611903806637E-1   -4.000654317610959E-1
 7.839420297400000E9     5.533091329002157E-1   -1.241949530976522E-1    2.665882736392646E-3    3.620828288770735E-3    2.679696166973002E-3    3.592887828252589E-3    3.615765992671526E-1   -4.018552089109163E-1
 7.839452379625000E9     5.526954265360592E-1   -1.263191227554748E-1    2.752206286626066E-3    3.628470337164867E-3    2.707452932208055E-3    3.592216097829704E-3    3.600046367693158E-1   -4.032017513631679E-1
 7.839484461850000E9     5.520836350414986E-1   -1.285239134906171E-1    2.786174767059073E-3    3.602088454191431E-3    2.712725605517350E-3    3.531081374482859E-3    3.581178787739113E-1   -4.045214805737487E-1
 7.839516544075000E9     5.516995766537115E-1   -1.305801788331385E-1    2.773198694201317E-3    3.628936824267776E-3    2.754631081198672E-3    3.556772864113576E-3    3.566881430581407E-1   -4.062347911541292E-1
 7.839548626300000E9     5.512564806888672E-1   -1.327300332853205E-1    2.806402329670164E-3    3.620847039160263E-3    2.760329503017363E-3    3.562287464304405E-3    3.548286721778796E-1   -4.076870575956754E-1
 7.839580708525000E9     5.506950969118350E-1   -1.348204446892650E-1    2.829374683558955E-3    3.593229212497584E-3    2.808327541594184E-3    3.547143783564113E-3    3.531948575313287E-1   -4.090836668211583E-1
 7.839612790750000E9     5.501371143159935E-1   -1.368316670735380E-1    2.829795963880228E-3    3.601048748824303E-3    2.804469212318798E-3    3.563611909742343E-3    3.516494006879702E-1   -4.107235374721126E-1
 7.839644872975000E9     5.497377352229779E-1   -1.389270760624925E-1    2.860051885410162E-3    3.616049045909543E-3    2.812069759697910E-3    3.568273004265923E-3    3.498383847085045E-1   -4.120571799148126E-1
 7.839676955200000E9     5.491877234553421E-1   -1.409977556057821E-1    2.882480532769421E-3    3.594538071241294E-3    2.878391159499674E-3    3.559724687812365E-3    3.481356288018583E-1   -4.136679850843072E-1
 7.839709037425000E9     5.486478403079229E-1   -1.432316687081581E-1    2.918331372957787E-3    3.605450659841923E-3    2.895217714362284E-3    3.580500200536650E-3    3.463376190959298E-1   -4.150326471386313E-1
 7.839741119650000E9     5.481271219981143E-1   -1.451629744533068E-1    2.967048691474042E-3    3.587715606757127E-3    2.904844793837898E-3    3.551743112035190E-3    3.445528176075942E-1   -4.164292498377452E-1
 7.839773201875000E9     5.474409579860902E-1   -1.473605312040383E-1    3.000355135903186E-3    3.592884346009160E-3    2.984281107935173E-3    3.577059959193263E-3    3.429480800176063E-1   -4.178902058404885E-1
 7.839805284100000E9     5.468106220838529E-1   -1.494417470659452E-1    3.024979665681536E-3    3.574144823876260E-3    2.981866015697158E-3    3.575919584746855E-3    3.412736391178193E-1   -4.192196348556099E-1
 7.839837366325000E9     5.463641026497850E-1   -1.514805647055068E-1    3.072916494958728E-3    3.600859129656195E-3    2.954972451157354E-3    3.533339704084821E-3    3.395021703763108E-1   -4.205915896747265E-1
 7.839869448550000E9     5.456989790556850E-1   -1.535047859992774E-1    3.070204628959467E-3    3.586268671051173E-3    2.995394126070090E-3    3.546485059561380E-3    3.375909395073549E-1   -4.221173679846535E-1
 7.839901530775000E9     5.451714239616989E-1   -1.556609108161460E-1    3.099465348891923E-3    3.575125638778673E-3    3.060762053830142E-3    3.519165570376803E-3    3.359265968395262E-1   -4.235488958084462E-1
 7.839933613000000E9     5.445350579395181E-1   -1.577294354234376E-1    3.117084932095602E-3    3.587916063216519E-3    3.051198775587532E-3    3.534453443516986E-3    3.340569273495935E-1   -4.249729416993099E-1
 7.839965695225000E9     5.439244109763185E-1   -1.597928333196514E-1    3.133988496985287E-3    3.558923891316779E-3    3.106946010368783E-3    3.558828592586097E-3    3.323516301584969E-1   -4.263175512639505E-1
 7.839997777450000E9     5.432437195632922E-1   -1.618916454403618E-1    3.190755093812525E-3    3.558663791946449E-3    3.123700233828135E-3    3.558338796973020E-3    3.306485211986703E-1   -4.277947837134470E-1
 7.840029859675000E9     5.427416557074027E-1   -1.640049247135834E-1    3.220582173714881E-3    3.593200356376199E-3    3.165455121563812E-3    3.582236987858273E-3    3.287338161412866E-1   -4.291093471960002E-1
 7.840061941900000E9     5.420422337575156E-1   -1.660008062785206E-1    3.229616612221644E-3    3.578056469936201E-3    3.178221743605468E-3    3.543724320243257E-3    3.270261292143876E-1   -4.305000847041645E-1
 7.840094024125000E9     5.414023054359478E-1   -1.680977478406356E-1    3.247922264077938E-3    3.568656634083644E-3    3.210442355733310E-3    3.538320128815476E-3    3.253559242223322E-1   -4.318464923636754E-1
 7.840126106350000E9     5.408702741413163E-1   -1.702426604739486E-1    3.284968610485479E-3    3.553987087390336E-3    3.232321007291139E-3    3.517852146634394E-3    3.235658253254215E-1   -4.332663888907833E-1
 7.840158188575000E9     5.401634812821894E-1   -1.722380267078460E-1    3.315738647451574E-3    3.550220029892922E-3    3.284148813913014E-3    3.542658728385687E-3    3.216915856395327E-1   -4.347328135029361E-1
 7.840190270800000E9     5.393912408466189E-1   -1.742392377428482E-1    3.336745856906683E-3    3.542362368575106E-3    3.283522121087315E-3    3.545891426873940E-3    3.199438748844793E-1   -4.361084412948302E-1
 7.840222353025000E9     5.387708506434694E-1   -1.764473502290373E-1    3.383264558686481E-3    3.551008806679844E-3    3.328711622618335E-3    3.504781826266783E-3    3.181719355430416E-1   -4.373057376955836E-1
 7.840254435250000E9     5.379979015182577E-1   -1.783758978693208E-1    3.407738306294071E-3    3.580395772843048E-3    3.373003226267560E-3    3.495392438640411E-3    3.162083878311800E-1   -4.386808759821992E-1
