#  HZ   S   RI   R     50.00 
! Rohde & Schwarz Vector Network Analyzer 
! Rohde-Schwarz,ZNB20-2Port,1311601062101988,3.16
! Created: UTC 12/23/2023, 3:58:39 AM
! freq[Hz]                re:S11                  im:S11                  re:S21                  im:S21                  re:S12                  im:S12                  re:S22                  im:S22
 6.517059475000000E9    -2.298839323283726E-1   -1.595090160594554E-2    1.319463932809925E-2   -5.551716868441811E-3    1.337647071383144E-2   -5.014596963364499E-3    2.073233011065066E-1    5.077077142001384E-1
 6.517071205700000E9    -2.297397654316908E-1   -1.593422917177192E-2    1.343147911421358E-2   -5.518759061476809E-3    1.352798043587108E-2   -5.061821952627419E-3    2.082140368830840E-1    5.074168139520486E-1
 6.517082936400000E9    -2.296071014307839E-1   -1.554441661965426E-2    1.347954686166485E-2   -5.651230429363063E-3    1.351280201567296E-2   -5.119277833950784E-3    2.090571827523903E-1    5.071030532213114E-1
 6.517094667100000E9    -2.295520032926897E-1   -1.547033684160368E-2    1.342876897178056E-2   -5.508867874081856E-3    1.357695065016734E-2   -5.226380375608444E-3    2.100306934882696E-1    5.067008249620778E-1
 6.517106397800000E9    -2.292738366875168E-1   -1.508890462826727E-2    1.346679521228277E-2   -5.628627397409399E-3    1.362339823954717E-2   -5.201351715984980E-3    2.107722071634595E-1    5.064161297341591E-1
 6.517118128500000E9    -2.291754870760798E-1   -1.504201914326918E-2    1.359729783428605E-2   -5.725841544835734E-3    1.358931703028126E-2   -5.363786029952270E-3    2.116302175136305E-1    5.060625176636936E-1
 6.517129859200000E9    -2.291336561193152E-1   -1.478047699633559E-2    1.353457508464083E-2   -5.738173786652967E-3    1.380305606284085E-2   -5.336268691743450E-3    2.125638446744907E-1    5.055497247728371E-1
 6.517141589900000E9    -2.289966352513781E-1   -1.468808895913343E-2    1.367265634044825E-2   -5.811638741659212E-3    1.383927335840472E-2   -5.427690711890300E-3    2.133067003255734E-1    5.052931784050022E-1
 6.517153320600000E9    -2.288713619914345E-1   -1.449625982439478E-2    1.373583623518646E-2   -5.941607643845831E-3    1.383469836279686E-2   -5.329197092476855E-3    2.142529880838208E-1    5.047907338720447E-1
 6.517165051300000E9    -2.288058595915075E-1   -1.439579841749311E-2    1.374878133113357E-2   -5.949208990640966E-3    1.397114330967113E-2   -5.428753282668582E-3    2.151799894007093E-1    5.046636385716372E-1
 6.517176782000000E9    -2.285781615095360E-1   -1.417877857691140E-2    1.380607614773258E-2   -6.015757978768908E-3    1.404286521039010E-2   -5.455307713389423E-3    2.159640999517217E-1    5.042475013574350E-1
 6.517188512700000E9    -2.285300888211333E-1   -1.396353421922881E-2    1.383850554416747E-2   -6.128365911023515E-3    1.392965662211255E-2   -5.545843515273327E-3    2.168092770281798E-1    5.038469489884071E-1
 6.517200243400000E9    -2.283657428279690E-1   -1.387119446608394E-2    1.398294825592026E-2   -6.217525811516452E-3    1.410625452629391E-2   -5.711783779167898E-3    2.176722710033793E-1    5.035020305482395E-1
 6.517211974100000E9    -2.282906883322362E-1   -1.368875947806375E-2    1.393066851512221E-2   -6.230425060890258E-3    1.414601502535086E-2   -5.762863843641421E-3    2.186526989902098E-1    5.031216316566675E-1
 6.517223704800000E9    -2.281538012295928E-1   -1.342014917030707E-2    1.397848275167354E-2   -6.269265135440791E-3    1.425532524636714E-2   -5.732146539521914E-3    2.194530994231505E-1    5.027205230887798E-1
 6.517235435500000E9    -2.279780662995181E-1   -1.329630610990756E-2    1.413001560022631E-2   -6.154022534416072E-3    1.430217626242237E-2   -5.828056410693751E-3    2.202595376900148E-1    5.025297320356827E-1
 6.517247166200000E9    -2.279398431330739E-1   -1.309898253406242E-2    1.426957507837314E-2   -6.367169803711304E-3    1.437786536363114E-2   -5.900994955635829E-3    2.211562562160604E-1    5.021098372752464E-1
 6.517258896900000E9    -2.277477184722334E-1   -1.298937347510025E-2    1.428726678478579E-2   -6.497412419945938E-3    1.439324296167961E-2   -5.884839127739082E-3    2.220248214097016E-1    5.014720169479867E-1
 6.517270627600000E9    -2.276561617166032E-1   -1.270876574420417E-2    1.431411976172344E-2   -6.429652966743301E-3    1.447981882637240E-2   -5.959160340477419E-3    2.230001313880538E-1    5.012636530335951E-1
 6.517282358300000E9    -2.274398989801160E-1   -1.252934024577598E-2    1.440299074799402E-2   -6.494781655854979E-3    1.454996684065683E-2   -6.139052761428459E-3    2.238493330328241E-1    5.010077467482935E-1
 6.517294089000000E9    -2.273955021954450E-1   -1.249004351194810E-2    1.446805641710511E-2   -6.629673129694888E-3    1.466396722448023E-2   -6.059891086171902E-3    2.245853893724138E-1    5.005320882008154E-1
 6.517305819700000E9    -2.272887071948253E-1   -1.215749943894322E-2    1.451866750597816E-2   -6.631911755628073E-3    1.472988741876393E-2   -6.182415805001437E-3    2.254376802295026E-1    5.001096452911847E-1
 6.517317550400000E9    -2.269897822921607E-1   -1.209533561304382E-2    1.458189143121500E-2   -6.704047264470321E-3    1.467928156907882E-2   -6.196207077503360E-3    2.263690641371674E-1    4.999346289569205E-1
 6.517329281100000E9    -2.269581897549126E-1   -1.191131706175064E-2    1.472610207615137E-2   -6.876024036634763E-3    1.473569707141163E-2   -6.358010546501129E-3    2.273065426185967E-1    4.993462394600881E-1
 6.517341011800000E9    -2.268724703527338E-1   -1.163060475816145E-2    1.472887989164923E-2   -6.886947986935817E-3    1.491787824895049E-2   -6.361856676185731E-3    2.280740007152212E-1    4.990821612185611E-1
 6.517352742500000E9    -2.266892793912185E-1   -1.159965820855354E-2    1.484803803157486E-2   -7.051649657303120E-3    1.485223901265283E-2   -6.353207572445707E-3    2.288767795883780E-1    4.986038512483724E-1
 6.517364473200000E9    -2.265725255593774E-1   -1.147939897797590E-2    1.470129100259086E-2   -6.969279113253441E-3    1.504142082977329E-2   -6.460673238052377E-3    2.299066533576953E-1    4.981318935053451E-1
 6.517376203900000E9    -2.263787032342023E-1   -1.127544201450244E-2    1.497393508888060E-2   -7.141773906039268E-3    1.503415615056809E-2   -6.553819764837403E-3    2.305568872754322E-1    4.979618066760783E-1
 6.517387934600000E9    -2.262804453888541E-1   -1.105557988458732E-2    1.500143194272532E-2   -7.211431706234174E-3    1.523967376448310E-2   -6.714931710530695E-3    2.315256796938804E-1    4.974674189994669E-1
 6.517399665300000E9    -2.260559118293557E-1   -1.095130996144232E-2    1.505297392563726E-2   -7.406030994583987E-3    1.516515543747400E-2   -6.683296148421850E-3    2.324202333563013E-1    4.971391357775962E-1
 6.517411396000000E9    -2.259636179075822E-1   -1.074904214793545E-2    1.504424406072256E-2   -7.297776528364736E-3    1.523910373337457E-2   -6.691524310252517E-3    2.332566869913096E-1    4.966375154292474E-1
 6.517423126700000E9    -2.258502505487599E-1   -1.059983514920341E-2    1.513641379825598E-2   -7.288406813630444E-3    1.532127890708043E-2   -6.933780618418889E-3    2.342085582040179E-1    4.963606874012933E-1
 6.517434857400000E9    -2.257259348486272E-1   -1.050317527599865E-2    1.532854485904407E-2   -7.439359449540726E-3    1.542520291887739E-2   -6.979523655424700E-3    2.349194165905699E-1    4.958143792014147E-1
 6.517446588100000E9    -2.255769434256950E-1   -1.040037930912677E-2    1.522086330927988E-2   -7.528893187131069E-3    1.543013533861529E-2   -7.059990953778766E-3    2.359758445168248E-1    4.955262563245185E-1
 6.517458318800000E9    -2.252810801244939E-1   -1.005950254811480E-2    1.540023454966281E-2   -7.611945408242910E-3    1.561821916317847E-2   -7.026196650705425E-3    2.367193267792677E-1    4.950077559025707E-1
 6.517470049500000E9    -2.252267582813264E-1   -9.978744067408713E-3    1.545849431862013E-2   -7.743757846568697E-3    1.574101966152097E-2   -7.182010998696428E-3    2.375710025073139E-1    4.947869609329173E-1
 6.517481780200000E9    -2.250629979652496E-1   -9.815732113484493E-3    1.553262622263425E-2   -7.840908172195739E-3    1.564136745141883E-2   -7.187865945381104E-3    2.384798148367872E-1    4.942530846972975E-1
 6.517493510900000E9    -2.248990820414515E-1   -9.707712058139174E-3    1.563152630025362E-2   -7.774816014205738E-3    1.585618072469846E-2   -7.401811716967582E-3    2.394835499356389E-1    4.937777225913174E-1
 6.517505241600000E9    -2.248287903145221E-1   -9.511234923668786E-3    1.567654314653747E-2   -7.829567394991648E-3    1.592517938226973E-2   -7.381385373224230E-3    2.402247597905610E-1    4.935929328871202E-1
 6.517516972300000E9    -2.246228524110475E-1   -9.332238436087041E-3    1.582583046878882E-2   -7.996972700747302E-3    1.603866433965102E-2   -7.431276823525598E-3    2.409976152708964E-1    4.929676762423919E-1
 6.517528703000000E9    -2.245678091437932E-1   -9.300051836325207E-3    1.584747917570735E-2   -8.075151779077668E-3    1.605619089534043E-2   -7.528080480847286E-3    2.418845363664305E-1    4.926800083844632E-1
 6.517540433700000E9    -2.241548041228527E-1   -9.096034411595467E-3    1.596223818441216E-2   -8.174320076060440E-3    1.607854656489385E-2   -7.594047929372624E-3    2.427054327419313E-1    4.920983459564660E-1
 6.517552164400000E9    -2.241556648685192E-1   -9.046050348127175E-3    1.604500127133642E-2   -8.389180258468904E-3    1.633491972535113E-2   -7.800568584512651E-3    2.435779142964857E-1    4.918113648581999E-1
 6.517563895100000E9    -2.239540438862192E-1   -8.773353008469497E-3    1.611371254788774E-2   -8.434736215490495E-3    1.637550884071940E-2   -7.795836237345311E-3    2.444438421880127E-1    4.913568658793003E-1
 6.517575625800000E9    -2.238268571930057E-1   -8.700364195866015E-3    1.614752383617441E-2   -8.375774076640035E-3    1.645808784515228E-2   -7.897447798782320E-3    2.453604428471090E-1    4.909191003403284E-1
 6.517587356500000E9    -2.236499656474663E-1   -8.528488386608106E-3    1.616242991357962E-2   -8.566423612143973E-3    1.648978617412229E-2   -7.946077567667688E-3    2.461549542710549E-1    4.905304873019029E-1
 6.517599087200000E9    -2.236371361455828E-1   -8.420167909610152E-3    1.632281133466596E-2   -8.558132729868892E-3    1.652355657138168E-2   -7.981417945593467E-3    2.470446213537384E-1    4.899862277357036E-1
 6.517610817900000E9    -2.233426961454659E-1   -8.230122746608424E-3    1.649329114560815E-2   -8.772450847933906E-3    1.674978496357369E-2   -8.074240456069413E-3    2.479105609020036E-1    4.895400184543340E-1
 6.517622548600000E9    -2.231391807932451E-1   -8.059380231508905E-3    1.644154742062203E-2   -8.779005597894579E-3    1.662776210717776E-2   -8.130014289153548E-3    2.489641286462524E-1    4.891704709688082E-1
 6.517634279300000E9    -2.229872596145532E-1   -7.867325130400981E-3    1.664179057619528E-2   -8.751393277290695E-3    1.680776916840348E-2   -8.361048974864645E-3    2.498116037895690E-1    4.887043198529739E-1
 6.517646010000000E9    -2.227953932394817E-1   -7.909757167102998E-3    1.665581239238684E-2   -8.862329190453216E-3    1.691342443060257E-2   -8.383761145789164E-3    2.504358336576907E-1    4.882854798377914E-1
 6.517657740700000E9    -2.225681532357106E-1   -7.675390759817682E-3    1.659338850003619E-2   -9.116463340515574E-3    1.702097033296505E-2   -8.516162767660436E-3    2.515484658958649E-1    4.879160620327443E-1
 6.517669471400000E9    -2.224998385740921E-1   -7.474383154030582E-3    1.686095828351228E-2   -9.055658442683813E-3    1.717923153477715E-2   -8.618691386362651E-3    2.522817922584539E-1    4.872731113934259E-1
 6.517681202100000E9    -2.223345955218025E-1   -7.468253259227827E-3    1.683368742259649E-2   -9.268994202089527E-3    1.721987482337133E-2   -8.578550853920791E-3    2.531100349192705E-1    4.869101197779061E-1
 6.517692932800000E9    -2.221175844466685E-1   -7.243048571773955E-3    1.702072287880176E-2   -9.286843629942556E-3    1.728320577126050E-2   -8.774754207273394E-3    2.539885770821073E-1    4.864065332665634E-1
 6.517704663500000E9    -2.219009046356231E-1   -7.094329728621051E-3    1.705692419105281E-2   -9.452729226997960E-3    1.734572078681541E-2   -8.895939898045310E-3    2.548027338907660E-1    4.860479398318509E-1
 6.517716394200000E9    -2.217871209930870E-1   -7.014318089813551E-3    1.711000721095033E-2   -9.607710596061660E-3    1.743194103256003E-2   -8.987513564734611E-3    2.558628193453085E-1    4.855467188453162E-1
 6.517728124900000E9    -2.216149342774341E-1   -6.950087940741553E-3    1.724507012122093E-2   -9.770812630453743E-3    1.755512245971524E-2   -9.073585577977222E-3    2.566853051436657E-1    4.850340725933596E-1
 6.517739855600000E9    -2.213609820909112E-1   -6.826592748484778E-3    1.736583234614054E-2   -9.747614263866515E-3    1.765290301228597E-2   -9.164495966633466E-3    2.575609677463276E-1    4.846164222188867E-1
 6.517751586300000E9    -2.213160390388359E-1   -6.704627461279431E-3    1.744200728570096E-2   -9.760755565623457E-3    1.774529291990281E-2   -9.268340710833144E-3    2.583858720624980E-1    4.842515388791768E-1
 6.517763317000000E9    -2.209981750109913E-1   -6.570631696120548E-3    1.758906418278921E-2   -9.977972753697158E-3    1.793372709411505E-2   -9.433400508180471E-3    2.591831134682547E-1    4.837158031374888E-1
 6.517775047700000E9    -2.207344301538051E-1   -6.368126873631026E-3    1.753445863925601E-2   -1.012464522366787E-2    1.786004901604937E-2   -9.468119529783037E-3    2.601243146421553E-1    4.832844674277398E-1
 6.517786778400000E9    -2.206448214420601E-1   -6.316896771804040E-3    1.768072892783341E-2   -1.011162575289582E-2    1.805534518613539E-2   -9.641834287787055E-3    2.609954892813784E-1    4.828153094063956E-1
 6.517798509100000E9    -2.205055211235698E-1   -6.201428962897379E-3    1.795299437615505E-2   -1.026633388398994E-2    1.807868243475943E-2   -9.786338669106439E-3    2.619295893250569E-1    4.823250464639475E-1
 6.517810239800000E9    -2.202899763060993E-1   -6.141029305257364E-3    1.794627943337894E-2   -1.038136716785369E-2    1.834586764361191E-2   -9.912468150789446E-3    2.627110032396079E-1    4.818396055461515E-1
 6.517821970500000E9    -2.200985820258342E-1   -5.910462551106512E-3    1.787565928066658E-2   -1.058886526520865E-2    1.837465702365583E-2   -1.009800183415359E-2    2.635372624456305E-1    4.812654297013203E-1
 6.517833701200000E9    -2.199381029567245E-1   -5.886052475277169E-3    1.811116364391671E-2   -1.056989679607771E-2    1.848490530847451E-2   -1.015172644726649E-2    2.644700126730715E-1    4.806898273119439E-1
 6.517845431900000E9    -2.197693883604152E-1   -5.713178835423652E-3    1.835294049402289E-2   -1.093100727750713E-2    1.859779827391077E-2   -1.011057658532555E-2    2.654230045528004E-1    4.802587075080462E-1
 6.517857162600000E9    -2.195381954023178E-1   -5.772081080185796E-3    1.850074801741312E-2   -1.092059602213358E-2    1.874821699337911E-2   -1.026025126784901E-2    2.661403556529188E-1    4.797584031845776E-1
 6.517868893300000E9    -2.193158946744593E-1   -5.623909353568361E-3    1.835873473932401E-2   -1.111629859717161E-2    1.887115748081393E-2   -1.038346889179687E-2    2.669856063616904E-1    4.793499926734789E-1
 6.517880624000000E9    -2.191785812961178E-1   -5.428834553634799E-3    1.855423816716349E-2   -1.117196072737595E-2    1.894406412173810E-2   -1.052409486877020E-2    2.678956794053173E-1    4.788236323265050E-1
 6.517892354700000E9    -2.189714704556478E-1   -5.384538644268330E-3    1.869346242559167E-2   -1.119813320227920E-2    1.900259513892145E-2   -1.059880479186344E-2    2.688606644754036E-1    4.783246303455276E-1
 6.517904085400000E9    -2.187007274595506E-1   -5.345461549453865E-3    1.884345009335919E-2   -1.139459057958596E-2    1.918106694015390E-2   -1.090150561076357E-2    2.696750218436246E-1    4.777456622167225E-1
 6.517915816100000E9    -2.184192291560211E-1   -5.216658976443739E-3    1.890268851008163E-2   -1.152661069437595E-2    1.928697208005639E-2   -1.095700467067686E-2    2.706272175216569E-1    4.773800824678269E-1
 6.517927546800000E9    -2.182429106599890E-1   -5.237301987413353E-3    1.895153418099914E-2   -1.162609186430048E-2    1.953206728788385E-2   -1.110045905050709E-2    2.714319587461221E-1    4.767222387702021E-1
 6.517939277500000E9    -2.180616869978127E-1   -5.045758899097883E-3    1.903860792758176E-2   -1.191112081551422E-2    1.950281594380824E-2   -1.116108418374410E-2    2.723393406332097E-1    4.763086724404852E-1
 6.517951008200000E9    -2.178614226616809E-1   -4.936793415197499E-3    1.924707306122543E-2   -1.205392230949870E-2    1.962944284783230E-2   -1.135938613393848E-2    2.731907490005784E-1    4.756833074627899E-1
 6.517962738900000E9    -2.176027460574199E-1   -4.887683719627453E-3    1.943869469290815E-2   -1.208674666427270E-2    1.978037657250077E-2   -1.154416887201239E-2    2.741311812231827E-1    4.753199175128682E-1
 6.517974469600000E9    -2.173561683513397E-1   -4.780347483469380E-3    1.954246648674309E-2   -1.229610192776870E-2    1.975427285596627E-2   -1.167795725896746E-2    2.749871635681483E-1    4.746389130730964E-1
 6.517986200300000E9    -2.172193113947478E-1   -4.732802018971542E-3    1.971980538270364E-2   -1.243907591192824E-2    1.994531128220092E-2   -1.180186744327652E-2    2.757301151401595E-1    4.742654130330819E-1
 6.517997931000000E9    -2.169996795192003E-1   -4.704979059334655E-3    1.970429335446598E-2   -1.242955370363690E-2    2.009002135214351E-2   -1.201790243661187E-2    2.767176980867084E-1    4.735453114528317E-1
 6.518009661700000E9    -2.167645447232041E-1   -4.655033051181505E-3    1.986606502072154E-2   -1.270434751745029E-2    2.031413989385846E-2   -1.213237138104562E-2    2.776402272399254E-1    4.730974606901873E-1
 6.518021392400000E9    -2.166274826820434E-1   -4.580475489577764E-3    2.009360098352229E-2   -1.276975445523851E-2    2.038366037919356E-2   -1.213727783721712E-2    2.784098623514015E-1    4.726105690946836E-1
 6.518033123100000E9    -2.162889204767898E-1   -4.336776700942727E-3    2.006559050455992E-2   -1.315361652267455E-2    2.049856797303689E-2   -1.245819621702610E-2    2.793143988758330E-1    4.719529478034566E-1
 6.518044853800000E9    -2.160621532449882E-1   -4.416771758920366E-3    2.015026530952797E-2   -1.319374021627696E-2    2.059362522415757E-2   -1.260203193437350E-2    2.800824757303245E-1    4.714122733374430E-1
 6.518056584500000E9    -2.157584497965724E-1   -4.304780890006620E-3    2.043866277510122E-2   -1.327104717961287E-2    2.078545872762542E-2   -1.262495640394254E-2    2.811419697944667E-1    4.709185594683984E-1
 6.518068315200000E9    -2.155745664072795E-1   -4.418328597637130E-3    2.046860861457474E-2   -1.353278572563478E-2    2.096856556859479E-2   -1.287309519919344E-2    2.819241320941168E-1    4.703034106842567E-1
 6.518080045900000E9    -2.153663103389513E-1   -4.270743486074752E-3    2.059243427115255E-2   -1.369573220774762E-2    2.099128109102396E-2   -1.298197741732903E-2    2.828265848509942E-1    4.699349197189743E-1
 6.518091776600000E9    -2.151289309598084E-1   -4.195527435670033E-3    2.067953319488833E-2   -1.393441584325011E-2    2.119630995428321E-2   -1.322644368816276E-2    2.836516801972183E-1    4.693327168510903E-1
 6.518103507300000E9    -2.149729120716769E-1   -4.095640140441888E-3    2.084567197040803E-2   -1.414890510102102E-2    2.132501117099751E-2   -1.341449530739166E-2    2.846308833912787E-1    4.686645028406472E-1
 6.518115238000000E9    -2.146533154635476E-1   -4.002372569643860E-3    2.102527677274897E-2   -1.427388913678044E-2    2.144102010722451E-2   -1.362024671580797E-2    2.854167837902265E-1    4.680040029400198E-1
