#  HZ   S   RI   R     50.00 
! Rohde & Schwarz Vector Network Analyzer 
! Rohde-Schwarz,ZNB20-2Port,1311601062101988,3.16
! Created: UTC 12/23/2023, 4:00:34 AM
! freq[Hz]                re:S11                  im:S11                  re:S21                  im:S21                  re:S12                  im:S12                  re:S22                  im:S22
 6.517121394000000E9    -2.293930145456996E-1   -1.462871762389262E-2    1.334775428687134E-2   -5.658847944371160E-3    1.354968148129747E-2   -5.173693551469712E-3    2.119235242262194E-1    5.059550378732777E-1
 6.517132925925000E9    -2.293062578728893E-1   -1.443231979063499E-2    1.358016312895650E-2   -5.704472706401167E-3    1.363746129095213E-2   -5.277084557302612E-3    2.125500879856684E-1    5.056599421502516E-1
 6.517144457850000E9    -2.291158994010979E-1   -1.433315223377365E-2    1.358028759930140E-2   -5.721765662538645E-3    1.371398762617180E-2   -5.301114865230249E-3    2.135366377938477E-1    5.051730463657860E-1
 6.517155989775000E9    -2.290987937436808E-1   -1.412805308327270E-2    1.352489183350793E-2   -5.806408796430692E-3    1.383103635617677E-2   -5.320915430645098E-3    2.144402272315718E-1    5.048654142101447E-1
 6.517167521700000E9    -2.289588648873822E-1   -1.400269597639888E-2    1.363351476481260E-2   -5.832536698539439E-3    1.383081281457016E-2   -5.520878985575788E-3    2.152367105529710E-1    5.046769032569403E-1
 6.517179053625000E9    -2.286492390520160E-1   -1.369042518480026E-2    1.382826920957506E-2   -5.953123627062705E-3    1.386301677511269E-2   -5.456272257958765E-3    2.160665065306951E-1    5.043858039105193E-1
 6.517190585550000E9    -2.286806915707268E-1   -1.359043887786311E-2    1.374113985583492E-2   -6.047978199444074E-3    1.389315399936382E-2   -5.509261678399447E-3    2.168254612363376E-1    5.038564156408968E-1
 6.517202117475000E9    -2.284816583019260E-1   -1.341392696849146E-2    1.382733250319868E-2   -5.978776108403943E-3    1.397947582684231E-2   -5.569701046759138E-3    2.175985157713770E-1    5.035952535871322E-1
 6.517213649400000E9    -2.284134757662623E-1   -1.320098558259140E-2    1.397081287871752E-2   -6.055679314893575E-3    1.406086342996279E-2   -5.701129958130387E-3    2.184745949403489E-1    5.031855444963234E-1
 6.517225181325000E9    -2.284078046257167E-1   -1.304117617094462E-2    1.396429703093985E-2   -6.134461631082138E-3    1.411042941206094E-2   -5.701194163246730E-3    2.193970826240684E-1    5.027550163900832E-1
 6.517236713250000E9    -2.281248261113147E-1   -1.289673694757913E-2    1.410296539297668E-2   -6.155652842572892E-3    1.417189498754426E-2   -5.777416800496693E-3    2.202951648089849E-1    5.025280297305128E-1
 6.517248245175000E9    -2.280201757539542E-1   -1.275200710880677E-2    1.398339364295968E-2   -6.301936820459439E-3    1.418500741619178E-2   -5.853242857090938E-3    2.211260799341921E-1    5.022254410436264E-1
 6.517259777100000E9    -2.279486369651292E-1   -1.254171917393393E-2    1.406072386113947E-2   -6.389450009529432E-3    1.435924197438063E-2   -5.852055054662847E-3    2.220284478880646E-1    5.017129531902959E-1
 6.517271309025000E9    -2.277938428610260E-1   -1.239604570239999E-2    1.412891620715797E-2   -6.376719934305652E-3    1.435175597112951E-2   -5.898785009079911E-3    2.227725126689752E-1    5.014025806857599E-1
 6.517282840950000E9    -2.276719135352596E-1   -1.225004753455932E-2    1.431246837517882E-2   -6.568272133396253E-3    1.442685887598758E-2   -5.979515940342951E-3    2.237612123570402E-1    5.012146888268605E-1
 6.517294372875000E9    -2.275703183534035E-1   -1.204271727653467E-2    1.431528897940205E-2   -6.581406300751777E-3    1.440097385806914E-2   -6.061071935181983E-3    2.244258511736414E-1    5.006321657250271E-1
 6.517305904800000E9    -2.273929356653850E-1   -1.195503569343603E-2    1.442141163723848E-2   -6.643922214309455E-3    1.451386169033227E-2   -6.031969519788731E-3    2.253831052382852E-1    5.002631566974023E-1
 6.517317436725000E9    -2.272605746959288E-1   -1.169049005556366E-2    1.438407574882582E-2   -6.660524894788579E-3    1.462498017130178E-2   -6.232805577216142E-3    2.262522526609197E-1    4.999677952188809E-1
 6.517328968650000E9    -2.271772259212372E-1   -1.148546293626213E-2    1.450379624491839E-2   -6.658938679095785E-3    1.460680958775703E-2   -6.223645210278869E-3    2.270676460547482E-1    4.994378421048491E-1
 6.517340500575000E9    -2.270288474053327E-1   -1.134561484914980E-2    1.456225020847511E-2   -6.652361175995247E-3    1.472369389810473E-2   -6.306880921402375E-3    2.279321769761861E-1    4.992516226644115E-1
 6.517352032500000E9    -2.268333128855595E-1   -1.117885761989658E-2    1.470302862000621E-2   -6.776133454186446E-3    1.475092619354003E-2   -6.412894986965859E-3    2.287811570419177E-1    4.988734630014472E-1
 6.517363564425000E9    -2.267336936224381E-1   -1.101703897848935E-2    1.477028631699146E-2   -6.931971668079216E-3    1.499347450607111E-2   -6.395734367123778E-3    2.295546140263043E-1    4.984747010501674E-1
 6.517375096350000E9    -2.265119326538332E-1   -1.085650320828990E-2    1.465291393019882E-2   -6.803607630223206E-3    1.493402418534561E-2   -6.474182365190901E-3    2.304572766925691E-1    4.980314593342093E-1
 6.517386628275000E9    -2.264458503933997E-1   -1.074535679074530E-2    1.488111038476537E-2   -7.181751893398191E-3    1.498610622112377E-2   -6.507129631074873E-3    2.312539718626343E-1    4.976603827489735E-1
 6.517398160200000E9    -2.262710415614269E-1   -1.055935021951889E-2    1.483807855739692E-2   -7.073906609267450E-3    1.497432189124356E-2   -6.600671321528077E-3    2.321139855976159E-1    4.972717625318527E-1
 6.517409692125000E9    -2.261515735392800E-1   -1.047101663348918E-2    1.502114535346844E-2   -7.273854799618921E-3    1.511279739609857E-2   -6.639327417508795E-3    2.330749349804978E-1    4.968493564740726E-1
 6.517421224050000E9    -2.260137690324367E-1   -1.034353676527270E-2    1.500839262454149E-2   -7.223739367830355E-3    1.522623420196750E-2   -6.782005527606183E-3    2.338469506855982E-1    4.964524792931278E-1
 6.517432755975000E9    -2.258830680492964E-1   -1.016036323954531E-2    1.504801304069504E-2   -7.257722867897109E-3    1.523539428177908E-2   -6.735667344621730E-3    2.347097887113340E-1    4.959896158833519E-1
 6.517444287900000E9    -2.258356228405515E-1   -1.001163179077129E-2    1.512867925587773E-2   -7.319245279122290E-3    1.538862751438701E-2   -6.890874824934636E-3    2.355607959119556E-1    4.957773565416387E-1
 6.517455819825000E9    -2.256648910340225E-1   -9.856235737416338E-3    1.535628167863906E-2   -7.286584444279381E-3    1.539927545954012E-2   -6.913930135080953E-3    2.363587131729661E-1    4.952325998783578E-1
 6.517467351750000E9    -2.254891964702491E-1   -9.580462932160420E-3    1.540063828739686E-2   -7.496884757755355E-3    1.551528269352422E-2   -6.943786720036039E-3    2.373143373304435E-1    4.949373240978360E-1
 6.517478883675000E9    -2.253378764891188E-1   -9.490626607304641E-3    1.542030798576264E-2   -7.619817547291997E-3    1.563728617981679E-2   -7.034009197004260E-3    2.380977278738781E-1    4.945325971903525E-1
 6.517490415600000E9    -2.251140275988155E-1   -9.286354072661641E-3    1.539033345152727E-2   -7.670121106123937E-3    1.569580371293135E-2   -7.265664251438867E-3    2.388889908141192E-1    4.940237266222792E-1
 6.517501947525000E9    -2.249945278418199E-1   -9.189785879537891E-3    1.541422508186433E-2   -7.741374170278540E-3    1.570476084384537E-2   -7.235952164774635E-3    2.398026552516437E-1    4.937973770441236E-1
 6.517513479450000E9    -2.247906183765063E-1   -8.961772583043745E-3    1.561348727782597E-2   -7.885374754923249E-3    1.577070931110612E-2   -7.264971350640928E-3    2.406439741901245E-1    4.931933250721171E-1
 6.517525011375000E9    -2.246143731094532E-1   -8.884932792340476E-3    1.579989098605819E-2   -7.929720325446050E-3    1.579495779679002E-2   -7.388011432264171E-3    2.414896494978258E-1    4.929306717846731E-1
 6.517536543300000E9    -2.246109944314189E-1   -8.747058358988213E-3    1.582010380354175E-2   -8.006822904080309E-3    1.594358501064362E-2   -7.543175281378690E-3    2.422857658946727E-1    4.924571201722366E-1
 6.517548075225000E9    -2.243506898846957E-1   -8.609055205999781E-3    1.583300978362930E-2   -8.067556496909874E-3    1.606974131955195E-2   -7.472836931519925E-3    2.431729382160500E-1    4.920559421377038E-1
 6.517559607150000E9    -2.243115927181216E-1   -8.383215872136808E-3    1.584391430444417E-2   -8.152308500946873E-3    1.616741049569901E-2   -7.577289254397306E-3    2.440976901277962E-1    4.915340783921891E-1
 6.517571139075000E9    -2.241134710024418E-1   -8.316679205631582E-3    1.595940530661344E-2   -8.338089026107443E-3    1.616454574936762E-2   -7.684722165555258E-3    2.449634357799364E-1    4.911245836610106E-1
 6.517582671000000E9    -2.238939685192435E-1   -8.124983363022868E-3    1.610315096059939E-2   -8.309659716036165E-3    1.628829842105698E-2   -7.786733573671272E-3    2.457357298540088E-1    4.908197323845819E-1
 6.517594202925000E9    -2.237336872262646E-1   -8.021097802142489E-3    1.610193502220349E-2   -8.432267010291372E-3    1.637511630024504E-2   -7.854169067225230E-3    2.466533020091595E-1    4.904191432432373E-1
 6.517605734850000E9    -2.237313239802404E-1   -7.825282771552210E-3    1.613228131466151E-2   -8.539946214615093E-3    1.641944606945987E-2   -7.885208410695304E-3    2.474451600329510E-1    4.900199384794632E-1
 6.517617266775000E9    -2.233617482078978E-1   -7.753945035402543E-3    1.621504995115364E-2   -8.433889523595398E-3    1.647418095364162E-2   -8.058408654179295E-3    2.483119790606704E-1    4.896315235803455E-1
 6.517628798700000E9    -2.232863212728866E-1   -7.525834307463902E-3    1.638958840619339E-2   -8.610736314080455E-3    1.652600848024233E-2   -8.020587493690385E-3    2.491307800725380E-1    4.892139698138661E-1
 6.517640330625000E9    -2.231740871009517E-1   -7.483934579615614E-3    1.653823544317428E-2   -8.777043698817566E-3    1.670011735933897E-2   -8.160928829048467E-3    2.501199097778322E-1    4.887285626558445E-1
 6.517651862550000E9    -2.229472094963969E-1   -7.295067751565670E-3    1.661467353261836E-2   -8.820238216474952E-3    1.685191871321906E-2   -8.305348083899905E-3    2.508603317232859E-1    4.883129336862306E-1
 6.517663394475000E9    -2.227769650049320E-1   -7.257998396659092E-3    1.662764213009173E-2   -8.841029150284264E-3    1.691908054041329E-2   -8.429436109941062E-3    2.517324939908708E-1    4.878251971454488E-1
 6.517674926400000E9    -2.226152730989739E-1   -7.074086126166863E-3    1.669060361372277E-2   -9.057863616509202E-3    1.703479200974407E-2   -8.475144288389420E-3    2.526013600135676E-1    4.874699282841237E-1
 6.517686458325000E9    -2.224865368491968E-1   -6.971655609137379E-3    1.676839857363865E-2   -9.088560460127007E-3    1.703159255427718E-2   -8.411552066059896E-3    2.532450928096271E-1    4.869024156290152E-1
 6.517697990250000E9    -2.224228121772113E-1   -6.817117118802547E-3    1.692468501984343E-2   -9.242883852043884E-3    1.716499561468359E-2   -8.685050573677052E-3    2.543037291863366E-1    4.864179284075900E-1
 6.517709522175000E9    -2.222004810708366E-1   -6.647578894431198E-3    1.698564739893283E-2   -9.382205062077917E-3    1.717009354417575E-2   -8.736876612427445E-3    2.550465096442445E-1    4.859668364603890E-1
 6.517721054100000E9    -2.220120332537838E-1   -6.463087500039206E-3    1.710013553681166E-2   -9.385952954640828E-3    1.730930948656095E-2   -8.767332566837170E-3    2.558747848473590E-1    4.856583684615236E-1
 6.517732586025000E9    -2.218737030463308E-1   -6.456426740816088E-3    1.709232392279637E-2   -9.568420131445755E-3    1.732256387979124E-2   -8.953044195573896E-3    2.567880665708136E-1    4.851501738976852E-1
 6.517744117950000E9    -2.215897707927403E-1   -6.274706666500044E-3    1.720162561820174E-2   -9.555793812542759E-3    1.745572002729862E-2   -9.009075797253194E-3    2.575638784171234E-1    4.847263721649714E-1
 6.517755649875000E9    -2.213976020578878E-1   -6.144720107219300E-3    1.739010391100790E-2   -9.698360882610545E-3    1.764108488364259E-2   -9.145594146816160E-3    2.584670967029626E-1    4.842620936694024E-1
 6.517767181800000E9    -2.213364276670347E-1   -6.143718221087629E-3    1.753443988795488E-2   -9.895578095759057E-3    1.764353107806831E-2   -9.217993822918479E-3    2.593666918973225E-1    4.837379049976447E-1
 6.517778713725000E9    -2.210260496901928E-1   -6.042589438987853E-3    1.743923338872859E-2   -9.884350168095808E-3    1.782883105098585E-2   -9.289142656084467E-3    2.601742129561503E-1    4.833551756233760E-1
 6.517790245650000E9    -2.207997679190270E-1   -5.914759942182563E-3    1.746763787326226E-2   -1.002332216928590E-2    1.789471623272993E-2   -9.598855671536800E-3    2.610230537174973E-1    4.827068428576559E-1
 6.517801777575000E9    -2.207539873568596E-1   -5.636227162056005E-3    1.775662982687367E-2   -1.019600524493336E-2    1.806563922038969E-2   -9.568377885559807E-3    2.619684402305872E-1    4.823947892002835E-1
 6.517813309500000E9    -2.206175663110112E-1   -5.519395027346445E-3    1.786956855680346E-2   -1.017086010144996E-2    1.806191247001699E-2   -9.705324006652883E-3    2.627720015389175E-1    4.818724992772632E-1
 6.517824841425000E9    -2.203830387943230E-1   -5.461384785734752E-3    1.781738906945950E-2   -1.045935810947710E-2    1.818040648642518E-2   -9.767118086870603E-3    2.636123305645769E-1    4.813670438014148E-1
 6.517836373350000E9    -2.200376027405713E-1   -5.387318308504871E-3    1.795510158013607E-2   -1.055932606761440E-2    1.838107680648161E-2   -9.881140312171219E-3    2.644286367108113E-1    4.810671239613959E-1
 6.517847905275000E9    -2.200240113302637E-1   -5.256724391338337E-3    1.814358277973968E-2   -1.066386905166059E-2    1.837103620284388E-2   -9.978811122498335E-3    2.653782522487853E-1    4.804668876245772E-1
 6.517859437200000E9    -2.197199594083819E-1   -5.085071381402093E-3    1.820525517705972E-2   -1.069603324494658E-2    1.850733983859656E-2   -1.010920409394569E-2    2.660283737131353E-1    4.801137646945857E-1
 6.517870969125000E9    -2.195450399017219E-1   -5.098277118703341E-3    1.841412561634266E-2   -1.083886521903409E-2    1.857383869328690E-2   -1.027107712863628E-2    2.669879010658157E-1    4.794015547695203E-1
 6.517882501050000E9    -2.193732847649840E-1   -4.964623145385898E-3    1.833902415034723E-2   -1.095660836149217E-2    1.867345015632018E-2   -1.038239250391174E-2    2.678326353896667E-1    4.788776422850576E-1
 6.517894032975000E9    -2.191730402211820E-1   -4.869592724036829E-3    1.849822472001934E-2   -1.104562104488229E-2    1.890974883628298E-2   -1.050598676928257E-2    2.687460713236960E-1    4.784719621527229E-1
 6.517905564900000E9    -2.189834341927983E-1   -4.805730811360533E-3    1.861241177724208E-2   -1.120319901457310E-2    1.899113413824051E-2   -1.048235214830726E-2    2.696242150093922E-1    4.780454698075555E-1
 6.517917096825000E9    -2.187248024306940E-1   -4.574479485820844E-3    1.880118729850271E-2   -1.129654831464372E-2    1.911288891620445E-2   -1.073738786636024E-2    2.703922634603478E-1    4.775839998951366E-1
 6.517928628750000E9    -2.184829777527381E-1   -4.578815080451415E-3    1.886336245787849E-2   -1.145143412335377E-2    1.922056351170218E-2   -1.079970596205763E-2    2.712959491126660E-1    4.770623784639655E-1
 6.517940160675000E9    -2.184361423020956E-1   -4.466131881553175E-3    1.885570422125873E-2   -1.164351417833158E-2    1.923185110109507E-2   -1.107468400539451E-2    2.723389364631320E-1    4.764863354095329E-1
 6.517951692600000E9    -2.180753264484103E-1   -4.324861826240843E-3    1.903595204649676E-2   -1.168300413341019E-2    1.946993205379735E-2   -1.108526584571399E-2    2.730159352020444E-1    4.760656691394183E-1
 6.517963224525000E9    -2.178444176273129E-1   -4.313217430808738E-3    1.902042404355993E-2   -1.197504398150322E-2    1.957152870587378E-2   -1.133900788942706E-2    2.739219198355944E-1    4.755156410131332E-1
 6.517974756450000E9    -2.177585995683447E-1   -4.113383240147758E-3    1.925882586440898E-2   -1.195952248347303E-2    1.966269361136665E-2   -1.132372890068453E-2    2.748333138483952E-1    4.748781621644445E-1
 6.517986288375000E9    -2.175493621407720E-1   -4.012066168440137E-3    1.954070801352572E-2   -1.207564747334280E-2    1.985605433979927E-2   -1.145271249232777E-2    2.755608152042147E-1    4.745043233404513E-1
 6.517997820300000E9    -2.173551567655718E-1   -4.045599057265229E-3    1.948858005706890E-2   -1.223931773836888E-2    1.992887256782169E-2   -1.174589876951137E-2    2.764665077840955E-1    4.739204743034409E-1
 6.518009352225000E9    -2.169993627774580E-1   -4.018088962029670E-3    1.966384952236620E-2   -1.242920008358818E-2    2.002035489587270E-2   -1.173334343680899E-2    2.773645592331152E-1    4.735574023578081E-1
 6.518020884150000E9    -2.168734744754097E-1   -3.965244117073412E-3    1.978960249289000E-2   -1.261149919102230E-2    2.011368312930650E-2   -1.191627368851538E-2    2.781660319332440E-1    4.729535161286549E-1
 6.518032416075000E9    -2.167259522430010E-1   -3.730491787445754E-3    1.993428603042282E-2   -1.278573832832497E-2    2.026697783265271E-2   -1.212716101394411E-2    2.790519114888549E-1    4.724078495992666E-1
 6.518043948000000E9    -2.163474668515601E-1   -3.791901002289069E-3    2.007353134418822E-2   -1.291202850249837E-2    2.041358037867351E-2   -1.219492052609106E-2    2.799354650969066E-1    4.717925356134987E-1
 6.518055479925000E9    -2.162729076587024E-1   -3.642930689450633E-3    2.005045181191234E-2   -1.301775396301630E-2    2.054796433351591E-2   -1.237075949156496E-2    2.806905662269398E-1    4.712579082050989E-1
 6.518067011850000E9    -2.159467972530736E-1   -3.654361117303543E-3    2.010758723598815E-2   -1.317952945237797E-2    2.068957744602253E-2   -1.255429033365121E-2    2.815811168847855E-1    4.707023740441708E-1
 6.518078543775000E9    -2.156883942141719E-1   -3.574017038105923E-3    2.037830602319799E-2   -1.342315523663655E-2    2.073402679899416E-2   -1.279164085838573E-2    2.824704472180203E-1    4.702678365196740E-1
 6.518090075700000E9    -2.153854843035749E-1   -3.603413589390192E-3    2.047828713206708E-2   -1.363845955097406E-2    2.090162967696693E-2   -1.280579254361693E-2    2.833379362923298E-1    4.696742024149974E-1
 6.518101607625000E9    -2.152421329269554E-1   -3.488380835018282E-3    2.061180729244517E-2   -1.374009059428894E-2    2.110951556056955E-2   -1.302083245819674E-2    2.841319433927969E-1    4.691960354392073E-1
 6.518113139550000E9    -2.149593419449317E-1   -3.452951429135296E-3    2.075814049736896E-2   -1.388212520599926E-2    2.120752119020754E-2   -1.318304939549087E-2    2.851018714596076E-1    4.684694156488112E-1
 6.518124671475000E9    -2.148227156853828E-1   -3.428811950254729E-3    2.095231213489614E-2   -1.413260968633035E-2    2.128073452656856E-2   -1.338526005791280E-2    2.859249457326736E-1    4.680522428421241E-1
 6.518136203400000E9    -2.144924332162154E-1   -3.373327845552507E-3    2.106731144583399E-2   -1.428492642223829E-2    2.158500505181711E-2   -1.355424947066745E-2    2.868194970567363E-1    4.674280248804411E-1
 6.518147735325000E9    -2.141749937882235E-1   -3.328953023705652E-3    2.116552532006206E-2   -1.434565738641178E-2    2.168718421667300E-2   -1.379947724825957E-2    2.877246364596058E-1    4.669740372667434E-1
 6.518159267250000E9    -2.139715822716362E-1   -3.290594555604731E-3    2.130384900717160E-2   -1.476914936620467E-2    2.183170825993923E-2   -1.393225508522377E-2    2.884910516817353E-1    4.662959459154454E-1
