#  HZ   S   RI   R     50.00 
! Rohde & Schwarz Vector Network Analyzer 
! Rohde-Schwarz,ZNB20-2Port,1311601062101988,3.16
! Created: UTC 3/20/2024, 11:37:10 AM
! freq[Hz]                re:S11                  im:S11                  re:S21                  im:S21                  re:S12                  im:S12                  re:S22                  im:S22
 8.117576695000000E9     5.005952462175636E-1   -6.505776317432876E-2    1.664266180161146E-3    4.843333766136180E-3    1.760172186707553E-3    4.893656274389297E-3    4.022337754392588E-1   -2.070117126067059E-1
 8.117577841500000E9     5.006346476776272E-1   -6.525282178371844E-2    1.638794066058478E-3    4.835557279059096E-3    1.758259237242544E-3    4.934495548286300E-3    4.023081650297245E-1   -2.071399466068203E-1
 8.117578988000000E9     5.005925974159331E-1   -6.538514049385818E-2    1.664488981804012E-3    4.820089190437152E-3    1.742197554347048E-3    4.924578965063206E-3    4.021752801343602E-1   -2.072202014614742E-1
 8.117580134500000E9     5.005634759582864E-1   -6.550961137336028E-2    1.670046810962329E-3    4.860326053716971E-3    1.760394264776590E-3    4.938862106337028E-3    4.021323686350992E-1   -2.071398233116662E-1
 8.117581281000000E9     5.005877595370934E-1   -6.557077627517155E-2    1.676977508233101E-3    4.842572938533288E-3    1.768428279152003E-3    4.940538666010455E-3    4.020536968325583E-1   -2.073458395254316E-1
 8.117582427500000E9     5.005200810363674E-1   -6.580064243675908E-2    1.685730445981490E-3    4.851338622539896E-3    1.802628850067437E-3    4.950628932011732E-3    4.020745277467900E-1   -2.073664835399650E-1
 8.117583574000000E9     5.005259211777114E-1   -6.602864155005500E-2    1.678919918176435E-3    4.872269202045957E-3    1.785414128398650E-3    4.931039753901230E-3    4.019968410374011E-1   -2.074855701578249E-1
 8.117584720500000E9     5.004257962270461E-1   -6.605923452155418E-2    1.707541458706878E-3    4.889612678910322E-3    1.757611368128238E-3    4.999015939089214E-3    4.018855030489724E-1   -2.074324377707953E-1
 8.117585867000000E9     5.004352365645378E-1   -6.620326616485540E-2    1.708261699402415E-3    4.914777535400277E-3    1.783962378569581E-3    4.982286873892185E-3    4.018050684267795E-1   -2.075729504103307E-1
 8.117587013500000E9     5.004259531091398E-1   -6.627244347121476E-2    1.707627920818687E-3    4.900308157301868E-3    1.764020841676133E-3    4.958038754673765E-3    4.018946228471972E-1   -2.077214033089683E-1
 8.117588160000000E9     5.002956785446495E-1   -6.653565932730054E-2    1.720664089837370E-3    4.914558656513886E-3    1.796212071001961E-3    5.011578995854265E-3    4.018757023114565E-1   -2.076698311283815E-1
 8.117589306500000E9     5.003831968235865E-1   -6.666584714338564E-2    1.729196763270173E-3    4.925542633291738E-3    1.833087974322054E-3    4.999802236546642E-3    4.017899113724577E-1   -2.077501169401867E-1
 8.117590453000000E9     5.002232725681172E-1   -6.677635082663967E-2    1.714396352901094E-3    4.935611425893524E-3    1.840275627976923E-3    4.984038227480629E-3    4.016576634337704E-1   -2.078753301031961E-1
 8.117591599500000E9     5.002301223789096E-1   -6.683738669637279E-2    1.740394462205473E-3    4.938176649385053E-3    1.805843579754804E-3    5.050619682423314E-3    4.017508396156058E-1   -2.080297987443738E-1
 8.117592746000000E9     5.002843843828201E-1   -6.693549579805273E-2    1.745932402578760E-3    4.942963939868856E-3    1.819704260344307E-3    5.045964018972848E-3    4.017924627114385E-1   -2.079239600812050E-1
 8.117593892500000E9     5.001948187046794E-1   -6.716470151190515E-2    1.729103616396556E-3    4.956252335608928E-3    1.836066436538402E-3    5.020387195612358E-3    4.017459709734247E-1   -2.081158758044421E-1
 8.117595039000000E9     5.001055958788280E-1   -6.721863652814830E-2    1.761827378884528E-3    4.981089751181889E-3    1.814194979690932E-3    5.037594727416546E-3    4.016153694647110E-1   -2.080879816711281E-1
 8.117596185500000E9     5.001560126724708E-1   -6.741645832452976E-2    1.787064261762826E-3    4.991204764657511E-3    1.830678122841850E-3    5.036970565717240E-3    4.016291385177340E-1   -2.082155967162027E-1
 8.117597332000000E9     4.999871832174388E-1   -6.753808597821204E-2    1.745742078460185E-3    4.993464425169821E-3    1.866054242250117E-3    5.045363622956827E-3    4.016571865795053E-1   -2.084420655185068E-1
 8.117598478500000E9     5.001098682042744E-1   -6.761656056948114E-2    1.765846343627518E-3    4.985050281454630E-3    1.833361286933230E-3    5.052608674264642E-3    4.014939594586227E-1   -2.084527778499763E-1
 8.117599625000000E9     5.000995327180161E-1   -6.785256260463952E-2    1.807266016097123E-3    5.012042617074175E-3    1.867742091417137E-3    5.097441615198970E-3    4.014756940754085E-1   -2.086371836384105E-1
 8.117600771500000E9     5.001603937171164E-1   -6.793951222308688E-2    1.792440730030268E-3    4.999155260747141E-3    1.903029889168110E-3    5.088813716217644E-3    4.015573845084495E-1   -2.084858911143637E-1
 8.117601918000000E9     4.998374515137648E-1   -6.800782522261387E-2    1.797257863252347E-3    5.032545909620480E-3    1.855476371295775E-3    5.111208578455218E-3    4.014183192191561E-1   -2.086640332896701E-1
 8.117603064500000E9     5.000361564186603E-1   -6.811042409459779E-2    1.807172610783296E-3    5.037598201035089E-3    1.873952914917006E-3    5.116845097635125E-3    4.014142550776772E-1   -2.086985273000558E-1
 8.117604211000000E9     4.999996665615035E-1   -6.839457125721141E-2    1.792035764446290E-3    5.060982938383926E-3    1.901200218799200E-3    5.107201309586878E-3    4.013020229708572E-1   -2.088435101579790E-1
 8.117605357500000E9     4.998555040782677E-1   -6.837652846773551E-2    1.809752817656360E-3    5.055487846729382E-3    1.881810575585064E-3    5.149928101473245E-3    4.012846586638780E-1   -2.088513590527890E-1
 8.117606504000000E9     4.999062398424891E-1   -6.859386221142405E-2    1.831637432672937E-3    5.051955771841032E-3    1.922495358757755E-3    5.143155624959439E-3    4.013412850515868E-1   -2.088098553710931E-1
 8.117607650500000E9     4.998673184949626E-1   -6.870966576317211E-2    1.831553364330968E-3    5.067865071670124E-3    1.912098641211587E-3    5.150919560645517E-3    4.012837009950884E-1   -2.089841601439484E-1
 8.117608797000000E9     4.998173041809607E-1   -6.894784635286934E-2    1.863158372135554E-3    5.119698275263983E-3    1.875495787244818E-3    5.149050958125402E-3    4.011725331085038E-1   -2.091301799463690E-1
 8.117609943500000E9     4.997600058802282E-1   -6.902350678594935E-2    1.841940909389095E-3    5.095894461048744E-3    1.922078523248154E-3    5.150079331824171E-3    4.012044181654981E-1   -2.091249138342321E-1
 8.117611090000000E9     4.997794188997693E-1   -6.923687601121817E-2    1.855056417328191E-3    5.112962730863604E-3    1.897875396038968E-3    5.206402798935957E-3    4.011103493321590E-1   -2.091441620738330E-1
 8.117612236500000E9     4.996782174678728E-1   -6.938966559879534E-2    1.828333267944546E-3    5.110831103358987E-3    1.920217584471655E-3    5.196694703196351E-3    4.012012591381576E-1   -2.093660331005655E-1
 8.117613383000000E9     4.996479280920277E-1   -6.939878230204181E-2    1.851243440216417E-3    5.106496066178994E-3    1.939339996492468E-3    5.182586278675226E-3    4.011859183132902E-1   -2.093742345556069E-1
 8.117614529500000E9     4.996776590295177E-1   -6.960988781793179E-2    1.851046242294148E-3    5.145690812600215E-3    1.945047553962786E-3    5.186482205414950E-3    4.010457216223670E-1   -2.094348306983538E-1
 8.117615676000000E9     4.995707255458121E-1   -6.979209305105608E-2    1.878464038971687E-3    5.168249088323173E-3    1.927462872982974E-3    5.242814638526550E-3    4.010912002382087E-1   -2.095773535664740E-1
 8.117616822500000E9     4.995974943504535E-1   -6.983846014336202E-2    1.897088925364582E-3    5.176420946741282E-3    1.987522165554313E-3    5.263589540181242E-3    4.010240102966406E-1   -2.096828358424217E-1
 8.117617969000000E9     4.995311645933215E-1   -7.007173341335872E-2    1.902038020847727E-3    5.177797982863391E-3    2.008633500411210E-3    5.265570501957552E-3    4.009707117573290E-1   -2.097169216785875E-1
 8.117619115500000E9     4.994912692654357E-1   -7.010229401089715E-2    1.899808128152606E-3    5.161497267316111E-3    2.002752177007260E-3    5.291544579165102E-3    4.009827422979581E-1   -2.096864976270250E-1
 8.117620262000000E9     4.995168673144015E-1   -7.032572601510077E-2    1.916424049346928E-3    5.194605220828988E-3    1.990411005511741E-3    5.288501704077663E-3    4.007915789901212E-1   -2.098886631593427E-1
 8.117621408500000E9     4.993886782690068E-1   -7.042621857907404E-2    1.916482448897083E-3    5.183838304123486E-3    2.024896890597000E-3    5.271389868330258E-3    4.009003197307911E-1   -2.098464930163853E-1
 8.117622555000000E9     4.994830598197395E-1   -7.051435447862608E-2    1.956112064970318E-3    5.215397424055008E-3    2.014443387449992E-3    5.304724323473965E-3    4.006025914564348E-1   -2.098487692989451E-1
 8.117623701500000E9     4.993563658514384E-1   -7.073646199198846E-2    1.926296153069006E-3    5.245733744907424E-3    2.046714618448503E-3    5.301431776974315E-3    4.007373552366029E-1   -2.100832634849841E-1
 8.117624848000000E9     4.992528843113266E-1   -7.088920001134082E-2    1.938678363850680E-3    5.247879055153857E-3    2.010748665301459E-3    5.371454355692869E-3    4.008099294846906E-1   -2.100542916310641E-1
 8.117625994500000E9     4.991646926399858E-1   -7.106064811168486E-2    1.965750811695630E-3    5.266695958795626E-3    2.022111549595368E-3    5.368556869152362E-3    4.007226677715678E-1   -2.102961738414216E-1
 8.117627141000000E9     4.992346654808479E-1   -7.123700144120848E-2    1.990700425244496E-3    5.259916614369286E-3    2.036806484886264E-3    5.346013045560420E-3    4.007486800802898E-1   -2.102524830833916E-1
 8.117628287500000E9     4.991658950626041E-1   -7.132451455042055E-2    1.959979888376276E-3    5.265738119861254E-3    2.047753302021857E-3    5.358580111222655E-3    4.005996944808500E-1   -2.103418526007814E-1
 8.117629434000000E9     4.992027690836091E-1   -7.150373730461637E-2    1.957631845113644E-3    5.280654188444552E-3    2.080678855197003E-3    5.384270307316474E-3    4.007314182548069E-1   -2.104756479806505E-1
 8.117630580500000E9     4.990226403640926E-1   -7.162093430071710E-2    1.973259054921521E-3    5.291562322085512E-3    2.021987311611918E-3    5.386790444175785E-3    4.005708120554442E-1   -2.105554510260581E-1
 8.117631727000000E9     4.989524709844004E-1   -7.175012297802079E-2    1.984831422178473E-3    5.331831831957241E-3    2.085555128044279E-3    5.403732594044933E-3    4.004036726760204E-1   -2.106062739405001E-1
 8.117632873500000E9     4.990514360313011E-1   -7.196771321824837E-2    1.997544221292972E-3    5.337295885053940E-3    2.083615705154604E-3    5.403848108592529E-3    4.005446055089128E-1   -2.107048054059081E-1
 8.117634020000000E9     4.988546141285473E-1   -7.210600878685902E-2    2.035936414938346E-3    5.353155945993257E-3    2.140172020100548E-3    5.408704878019346E-3    4.004105621859559E-1   -2.107614643961789E-1
 8.117635166500000E9     4.989084655008738E-1   -7.230205390767402E-2    2.016804995680897E-3    5.344735629150645E-3    2.122356009336881E-3    5.452070594202391E-3    4.003259752267460E-1   -2.108357079535969E-1
 8.117636313000000E9     4.989136768710871E-1   -7.236493076019790E-2    2.017212697129938E-3    5.357615394348668E-3    2.136265207384397E-3    5.464908048204752E-3    4.004853874344659E-1   -2.107375766501363E-1
 8.117637459500000E9     4.987664699993400E-1   -7.250665775342022E-2    2.038109027434397E-3    5.399055396843865E-3    2.125147649191585E-3    5.486494817043093E-3    4.002547991223917E-1   -2.109603300790895E-1
 8.117638606000000E9     4.987329177574593E-1   -7.276400571285188E-2    2.075341085950041E-3    5.395275264371441E-3    2.171648306505890E-3    5.506357325064100E-3    4.003111713967987E-1   -2.110608735692652E-1
 8.117639752500000E9     4.986867292307674E-1   -7.296014635693154E-2    2.068330533853167E-3    5.411753178933272E-3    2.146204481089877E-3    5.526460569883274E-3    4.001924054981765E-1   -2.110997612524651E-1
 8.117640899000000E9     4.986910128123295E-1   -7.305158210672200E-2    2.072537967011891E-3    5.420100856991645E-3    2.159650479555012E-3    5.534351937160686E-3    4.002728031802505E-1   -2.111764688543313E-1
 8.117642045500000E9     4.987465994406954E-1   -7.331363276946622E-2    2.076543967073323E-3    5.454848646227337E-3    2.151655660299954E-3    5.529551482092960E-3    4.002281849367977E-1   -2.113123341205851E-1
 8.117643192000000E9     4.985825538165178E-1   -7.340732933527398E-2    2.100706506044629E-3    5.441128945048399E-3    2.189512726543036E-3    5.564840432638715E-3    4.002601147083861E-1   -2.114052751306576E-1
 8.117644338500000E9     4.985692959778012E-1   -7.355156991137117E-2    2.090818064167180E-3    5.447807248275160E-3    2.177186166494943E-3    5.556491656305182E-3    3.999732221721992E-1   -2.114163542739179E-1
 8.117645485000000E9     4.984427936573915E-1   -7.367332210087212E-2    2.128572245837279E-3    5.480689189465024E-3    2.221289748297034E-3    5.536168094159621E-3    4.001233235537733E-1   -2.114248954851606E-1
 8.117646631500000E9     4.984987631303709E-1   -7.384555256171450E-2    2.128624119254718E-3    5.505933772890429E-3    2.211841094979740E-3    5.588923855946935E-3    4.000967164542190E-1   -2.114976438398508E-1
 8.117647778000000E9     4.984021924632802E-1   -7.402099802255815E-2    2.148916667008815E-3    5.525603126796837E-3    2.219937128511461E-3    5.597031624023525E-3    4.000133031204604E-1   -2.116284829401147E-1
 8.117648924500000E9     4.983862402680052E-1   -7.413558164181584E-2    2.159044482781510E-3    5.539780659890187E-3    2.272072332141453E-3    5.612150480089848E-3    3.997643241120647E-1   -2.116513695041633E-1
 8.117650071000000E9     4.983676811790492E-1   -7.442043200175046E-2    2.140990064318801E-3    5.573950042780670E-3    2.251125776924382E-3    5.637378481222636E-3    3.999532506108629E-1   -2.118346965900283E-1
 8.117651217500000E9     4.982322077506297E-1   -7.457369824544050E-2    2.157794754755229E-3    5.591853452408993E-3    2.270284813704734E-3    5.637407686431934E-3    3.999231912273724E-1   -2.118753261048688E-1
 8.117652364000000E9     4.983105816647435E-1   -7.468475532820142E-2    2.186905912340389E-3    5.576284955283396E-3    2.313376402984334E-3    5.662171739275693E-3    3.998620840304160E-1   -2.119920817476100E-1
 8.117653510500000E9     4.981562049664004E-1   -7.493811644738230E-2    2.172715979826576E-3    5.582705505662018E-3    2.274830246076545E-3    5.651298449576183E-3    3.997848162729513E-1   -2.119092156221092E-1
 8.117654657000000E9     4.980558541162377E-1   -7.499453389784946E-2    2.224230013305261E-3    5.627013807946209E-3    2.285124276800037E-3    5.708119465813071E-3    3.998061096666668E-1   -2.121641942921996E-1
 8.117655803500000E9     4.981310565654071E-1   -7.523606266959976E-2    2.235183212353527E-3    5.642166888511080E-3    2.307639620039617E-3    5.724369749741789E-3    3.996965790613095E-1   -2.120779117363832E-1
 8.117656950000000E9     4.980300628983116E-1   -7.544774521707377E-2    2.220807245106006E-3    5.652050909194915E-3    2.335800462135958E-3    5.733924601419235E-3    3.996543507462882E-1   -2.123140208908510E-1
 8.117658096500000E9     4.978715989288526E-1   -7.551066778247094E-2    2.265446695999066E-3    5.658875655682499E-3    2.354584677254698E-3    5.762089110434861E-3    3.995166509206659E-1   -2.124492294558092E-1
 8.117659243000000E9     4.979335529949194E-1   -7.573276137917626E-2    2.262548512166924E-3    5.685023900205053E-3    2.353270285053855E-3    5.791278863759307E-3    3.996790141178461E-1   -2.122984901062276E-1
 8.117660389500000E9     4.979053373910090E-1   -7.597920743477117E-2    2.282123147461801E-3    5.731749962681607E-3    2.381391289400437E-3    5.777434797481588E-3    3.994720078887827E-1   -2.125672104354714E-1
 8.117661536000000E9     4.978297392634192E-1   -7.614381171359849E-2    2.292132887586313E-3    5.712657362539788E-3    2.371899207067241E-3    5.805271144465506E-3    3.996265665640213E-1   -2.124200158774049E-1
 8.117662682500000E9     4.976721292443926E-1   -7.631574012067806E-2    2.275342824889802E-3    5.731910880298257E-3    2.437654550082417E-3    5.842131374854531E-3    3.995261464987685E-1   -2.123994827153367E-1
 8.117663829000000E9     4.977442059246173E-1   -7.650008589367363E-2    2.293019341759432E-3    5.777039625645356E-3    2.423194221556570E-3    5.822920218638805E-3    3.994397858688282E-1   -2.125501574504730E-1
 8.117664975500000E9     4.976133142317773E-1   -7.678420538666630E-2    2.308146593569782E-3    5.788019707820790E-3    2.399653387608083E-3    5.859229878299502E-3    3.994104681384680E-1   -2.127965210742304E-1
 8.117666122000000E9     4.974729742623128E-1   -7.675299461111694E-2    2.334458473414554E-3    5.807078331639071E-3    2.464996219759732E-3    5.873483083953634E-3    3.993407556985864E-1   -2.127768134864014E-1
 8.117667268500000E9     4.975252437218685E-1   -7.711775084937303E-2    2.387239705569066E-3    5.825293034368524E-3    2.463009824101622E-3    5.910951922208910E-3    3.994117642730499E-1   -2.129907372055630E-1
 8.117668415000000E9     4.973778202738465E-1   -7.722757411239178E-2    2.367615552018794E-3    5.829454372113844E-3    2.483542015530228E-3    5.918532418191067E-3    3.994668675487703E-1   -2.129573187668059E-1
 8.117669561500000E9     4.973603543116724E-1   -7.743293261388004E-2    2.378753365876523E-3    5.850538334204305E-3    2.487709816664754E-3    5.953682098512447E-3    3.992148873848874E-1   -2.131066479375069E-1
 8.117670708000000E9     4.973070198518064E-1   -7.758220496822511E-2    2.396047454010884E-3    5.876137824918594E-3    2.476925382743481E-3    5.963613735505332E-3    3.991833424621161E-1   -2.131848031302933E-1
 8.117671854500000E9     4.972677427479700E-1   -7.780288576123096E-2    2.384225454772667E-3    5.884256773809282E-3    2.525529495105468E-3    5.962337461189314E-3    3.994033257139003E-1   -2.130860733173502E-1
 8.117673001000000E9     4.972073017254267E-1   -7.811352580218917E-2    2.440947064193726E-3    5.909606459965392E-3    2.523433917685743E-3    5.978130930926310E-3    3.990750408009905E-1   -2.133132277574352E-1
 8.117674147500000E9     4.969246882814376E-1   -7.818573482332994E-2    2.445704048057790E-3    5.929713746876297E-3    2.555024569445260E-3    6.023648137416935E-3    3.991768640216933E-1   -2.134519185291560E-1
 8.117675294000000E9     4.970012905079245E-1   -7.852707702402156E-2    2.464842773088616E-3    5.959382036821067E-3    2.565810083194422E-3    6.069423268330304E-3    3.991073360812570E-1   -2.134778231355352E-1
 8.117676440500000E9     4.969282716636892E-1   -7.863455380687086E-2    2.493853222633339E-3    5.951433961264640E-3    2.573631014834965E-3    6.089082457105673E-3    3.990362938952656E-1   -2.134940613265573E-1
 8.117677587000000E9     4.968209724543216E-1   -7.878819289173640E-2    2.497642497800353E-3    5.992950208811096E-3    2.619174819233080E-3    6.119030556665014E-3    3.990022830014527E-1   -2.136846906664544E-1
 8.117678733500000E9     4.967098335259699E-1   -7.912703434616580E-2    2.520772851867770E-3    6.029475071812020E-3    2.630795091661689E-3    6.123093558894823E-3    3.991059641019761E-1   -2.136341931969782E-1
 8.117679880000000E9     4.966140450608612E-1   -7.920396612498583E-2    2.539144211457942E-3    6.054441673594636E-3    2.649341505933828E-3    6.127612849832122E-3    3.989488213664787E-1   -2.137570509004890E-1
