#  HZ   S   RI   R     50.00 
! Rohde & Schwarz Vector Network Analyzer 
! Rohde-Schwarz,ZNB20-2Port,1311601062101988,3.16
! Created: UTC 3/20/2024, 11:48:08 AM
! freq[Hz]                re:S11                  im:S11                  re:S21                  im:S21                  re:S12                  im:S12                  re:S22                  im:S22
 8.116331894000000E9     5.057697314816774E-1    3.349554929674270E-2    4.141317961027943E-4    3.532016814266529E-3    4.684038829415570E-4    3.596581052313641E-3    4.318125316064537E-1   -1.243245937396460E-1
 8.116337758725000E9     5.057566270672528E-1    3.301967916841985E-2    4.189726720798913E-4    3.534658922663157E-3    4.741087838213619E-4    3.569407198242556E-3    4.316030475686157E-1   -1.245521831301574E-1
 8.116343623450000E9     5.059472094195009E-1    3.257803617023579E-2    4.199041215627184E-4    3.545569380546694E-3    5.004133929207321E-4    3.631832011977517E-3    4.316110044896915E-1   -1.250616288545848E-1
 8.116349488175000E9     5.059320340469833E-1    3.219065318470828E-2    4.417098712030037E-4    3.524239228295766E-3    4.723204717473289E-4    3.609402799067627E-3    4.314613815177873E-1   -1.252984884222513E-1
 8.116355352900000E9     5.058886268085721E-1    3.174993632665796E-2    4.399425857107158E-4    3.533139790814624E-3    5.120294236098412E-4    3.607727730425420E-3    4.314614027318906E-1   -1.256506243976184E-1
 8.116361217625000E9     5.059656368336325E-1    3.115796604190150E-2    4.251304143463447E-4    3.526334899652387E-3    5.002136433799177E-4    3.585972983182203E-3    4.313575035238895E-1   -1.261246315067859E-1
 8.116367082350000E9     5.059195132677006E-1    3.094353755422820E-2    4.476882825695249E-4    3.533853042045035E-3    5.111416446093429E-4    3.579568622523776E-3    4.311536264667457E-1   -1.265371104852533E-1
 8.116372947075000E9     5.059536260158103E-1    3.038522696080127E-2    4.604310002436181E-4    3.536769543759837E-3    4.974590476182365E-4    3.620732472593342E-3    4.311858604253265E-1   -1.270176734134997E-1
 8.116378811800000E9     5.059985306616084E-1    2.999155748889134E-2    4.416093159198746E-4    3.528490602124621E-3    4.829492977747487E-4    3.596006930232722E-3    4.310753459365527E-1   -1.274370382769726E-1
 8.116384676525000E9     5.060867316946333E-1    2.952607995134106E-2    4.367641309124039E-4    3.522953661134649E-3    5.154336474307296E-4    3.621753615576770E-3    4.308595274583458E-1   -1.277710252301452E-1
 8.116390541250000E9     5.060212340247630E-1    2.901419041274789E-2    4.344957575363043E-4    3.538352316881732E-3    4.961222033008307E-4    3.592323045864656E-3    4.307144910623125E-1   -1.279780018190936E-1
 8.116396405975000E9     5.060753698422926E-1    2.859122731930755E-2    4.494837017531878E-4    3.551982763195975E-3    5.046276437820603E-4    3.597520980627336E-3    4.306963095798887E-1   -1.286389167628950E-1
 8.116402270700000E9     5.060969698261186E-1    2.818852095852478E-2    4.251486668032997E-4    3.548018610618622E-3    4.919272938419898E-4    3.602922068914022E-3    4.306471821292074E-1   -1.288654126812624E-1
 8.116408135425000E9     5.060249551750500E-1    2.777963455785052E-2    4.447367311689141E-4    3.550776793956394E-3    5.320370157011547E-4    3.574873890860314E-3    4.305508467781686E-1   -1.294314111091994E-1
 8.116414000150000E9     5.061594902388477E-1    2.727242046736122E-2    4.608078336028216E-4    3.544876287233397E-3    5.324304646620303E-4    3.583502229553137E-3    4.304409324627271E-1   -1.296793551186380E-1
 8.116419864875000E9     5.061070458093947E-1    2.688123820901576E-2    4.836697160070094E-4    3.561165262366921E-3    5.362174210304743E-4    3.619257911066831E-3    4.302818212474374E-1   -1.300946648453451E-1
 8.116425729600000E9     5.061132535061411E-1    2.622328652617746E-2    5.008508131359360E-4    3.569344350180338E-3    5.211198280420588E-4    3.618512130728527E-3    4.302075800824480E-1   -1.303921797322398E-1
 8.116431594325000E9     5.061241848527643E-1    2.595602436555333E-2    4.552810029818675E-4    3.542469637119281E-3    5.387598949251394E-4    3.615790389511118E-3    4.300779561718262E-1   -1.309445868320360E-1
 8.116437459050000E9     5.062020396156183E-1    2.542030502577436E-2    4.604407740869066E-4    3.566065258059551E-3    5.515849595334876E-4    3.604314721824797E-3    4.299505865318052E-1   -1.312281128152614E-1
 8.116443323775000E9     5.061994265143015E-1    2.504576897589160E-2    4.756142121366223E-4    3.570085525594053E-3    5.453827564217641E-4    3.606028984368715E-3    4.297896564601246E-1   -1.316989119486196E-1
 8.116449188500000E9     5.062569080283492E-1    2.437861894968795E-2    4.899270212566302E-4    3.561877528100733E-3    5.132241585547440E-4    3.598877400955411E-3    4.296827216994810E-1   -1.320657195949074E-1
 8.116455053225000E9     5.062283903960798E-1    2.415896168983834E-2    4.814147299917209E-4    3.548205940270281E-3    5.488014040914200E-4    3.578508922191749E-3    4.297121878467053E-1   -1.325859165405092E-1
 8.116460917950000E9     5.062823891770960E-1    2.374477452203922E-2    4.909050607950816E-4    3.558226645503281E-3    5.844112699760338E-4    3.638954236922146E-3    4.296864737777950E-1   -1.328901837745434E-1
 8.116466782675000E9     5.062203993231624E-1    2.320857619959928E-2    4.965135124917127E-4    3.533412847709154E-3    5.734403182985714E-4    3.621232256353854E-3    4.294234882483013E-1   -1.333121141691785E-1
 8.116472647400000E9     5.062849322055843E-1    2.279317230384941E-2    5.087753645274834E-4    3.554285510290546E-3    5.669411042319839E-4    3.585850434019057E-3    4.293367065660956E-1   -1.336292549940095E-1
 8.116478512125000E9     5.062270957981063E-1    2.238126741981139E-2    5.010163260833039E-4    3.571878782773116E-3    5.899397392187433E-4    3.598211180515168E-3    4.292776955216029E-1   -1.341345032985745E-1
 8.116484376850000E9     5.063460436275795E-1    2.188539882217291E-2    4.966848374437422E-4    3.550084812426357E-3    6.185572678944096E-4    3.602628447014883E-3    4.292599436770196E-1   -1.345034481065001E-1
 8.116490241575000E9     5.062570783769624E-1    2.156651348380680E-2    5.248256876478105E-4    3.587769775621755E-3    5.748001597159749E-4    3.616589878703130E-3    4.289990856467404E-1   -1.349295575228379E-1
 8.116496106300000E9     5.063503243808976E-1    2.108532540178937E-2    5.290182484803695E-4    3.591718873484520E-3    5.614895640495463E-4    3.636236701954205E-3    4.290218133082909E-1   -1.352297922181567E-1
 8.116501971025000E9     5.062866959512906E-1    2.059822578091529E-2    4.995414614352116E-4    3.589509026224236E-3    5.728020122406735E-4    3.620554478458871E-3    4.288880836746859E-1   -1.358016633694269E-1
 8.116507835750000E9     5.063440474478694E-1    2.028717207471099E-2    5.159957419064080E-4    3.575968845405400E-3    5.961636854344487E-4    3.625302622940434E-3    4.287307427984308E-1   -1.360858264447324E-1
 8.116513700475000E9     5.063327909103920E-1    1.972077442863816E-2    5.335405885162699E-4    3.586729574551566E-3    5.885528247109991E-4    3.617752528854017E-3    4.286686643019954E-1   -1.364416728089473E-1
 8.116519565200000E9     5.063622952166054E-1    1.923902786293817E-2    5.261070276691541E-4    3.592717700799690E-3    5.868978210724549E-4    3.649046264123280E-3    4.286218854354740E-1   -1.368856750699184E-1
 8.116525429925000E9     5.062317904281726E-1    1.869014392261881E-2    5.501699362374004E-4    3.604344711458579E-3    5.964068038608629E-4    3.670950596920641E-3    4.282932539196167E-1   -1.370760565040942E-1
 8.116531294650000E9     5.063693657924090E-1    1.836664155345745E-2    5.504231238159618E-4    3.597156214303889E-3    6.029636748235400E-4    3.610260822976163E-3    4.282785421345059E-1   -1.376876849606074E-1
 8.116537159375000E9     5.064198154347836E-1    1.798307555247826E-2    5.416977809155181E-4    3.581041111132738E-3    5.732452213056224E-4    3.630452151246488E-3    4.282496895536108E-1   -1.381430300640402E-1
 8.116543024100000E9     5.063130428058736E-1    1.751840238582185E-2    5.312310435801219E-4    3.586160191526095E-3    5.929239679526545E-4    3.638189242642512E-3    4.280666137169964E-1   -1.382744908496133E-1
 8.116548888825000E9     5.062784879747323E-1    1.716034124838919E-2    5.507592782527404E-4    3.573067354938292E-3    5.996726182129561E-4    3.673110658951035E-3    4.279549525917953E-1   -1.389382583699775E-1
 8.116554753550000E9     5.063722539137661E-1    1.664348317082783E-2    5.561823109316064E-4    3.589944808911854E-3    6.046837744817934E-4    3.664040126564596E-3    4.279220577178520E-1   -1.392131532123278E-1
 8.116560618275000E9     5.065070908792958E-1    1.622779382246435E-2    5.550886818795325E-4    3.590892238836749E-3    6.215874904558276E-4    3.642583764575838E-3    4.277645874575332E-1   -1.395500906324070E-1
 8.116566483000000E9     5.063351269443752E-1    1.565349785361855E-2    5.899857509076772E-4    3.604941463044116E-3    6.297035622444597E-4    3.710704034696579E-3    4.275929995869013E-1   -1.399059811350228E-1
 8.116572347725000E9     5.064055291425236E-1    1.523650866487442E-2    5.621831150769773E-4    3.618212362835398E-3    5.943490833013311E-4    3.657957943204117E-3    4.275257539532246E-1   -1.404733060209643E-1
 8.116578212450000E9     5.063556102446473E-1    1.484960483787987E-2    5.856744587142553E-4    3.578489534919861E-3    5.906864076043240E-4    3.649605942602799E-3    4.275239185663050E-1   -1.408045778832905E-1
 8.116584077175000E9     5.063533297097500E-1    1.435412385639169E-2    5.755097624602566E-4    3.609046821131575E-3    6.231369044597372E-4    3.642409440583233E-3    4.272947372421390E-1   -1.411329187868246E-1
 8.116589941900000E9     5.063872334469725E-1    1.404874260093763E-2    5.841782041660774E-4    3.590275028939959E-3    6.562479197216968E-4    3.676842619402351E-3    4.272332827960241E-1   -1.413926170252678E-1
 8.116595806625000E9     5.063748277556387E-1    1.353120842990257E-2    5.870135957343470E-4    3.599506567430104E-3    6.450866995383252E-4    3.652641388518006E-3    4.270433399267685E-1   -1.418872461183506E-1
 8.116601671350000E9     5.064247249094536E-1    1.318192957759161E-2    5.885777166681763E-4    3.607040738696769E-3    6.542756480617416E-4    3.652591464847389E-3    4.270906876821209E-1   -1.422415973435698E-1
 8.116607536075000E9     5.065305283322952E-1    1.253453183564693E-2    6.036415353192875E-4    3.586398109096887E-3    6.316563111576489E-4    3.683077762285428E-3    4.268617677185289E-1   -1.427036493079280E-1
 8.116613400800000E9     5.064998682044598E-1    1.211282725104398E-2    6.061354109765266E-4    3.599528177308736E-3    6.316875756651823E-4    3.707557734862844E-3    4.266240806544228E-1   -1.430960038894788E-1
 8.116619265525000E9     5.062418094147966E-1    1.173389259859785E-2    6.023379259459928E-4    3.612950276439969E-3    6.442497659844620E-4    3.709212213275318E-3    4.266015917317316E-1   -1.435432817776687E-1
 8.116625130250000E9     5.065029418128441E-1    1.128229145354032E-2    6.003412902240813E-4    3.606643978137665E-3    6.380267086702805E-4    3.685862133097518E-3    4.263936260864573E-1   -1.438895714646144E-1
 8.116630994975000E9     5.064616298287782E-1    1.076584344669084E-2    6.282017234642500E-4    3.627052947594699E-3    6.541813402061924E-4    3.679148117945530E-3    4.263013587866907E-1   -1.443667986094815E-1
 8.116636859700000E9     5.063503922361200E-1    1.044502439977670E-2    5.894095672357169E-4    3.622047518654279E-3    6.678155859922374E-4    3.669873983742295E-3    4.261785924056261E-1   -1.446589889157752E-1
 8.116642724425000E9     5.064259128354451E-1    9.820957408567581E-3    6.064267891983291E-4    3.613701098263092E-3    6.949855274620184E-4    3.662752840809884E-3    4.261038111911208E-1   -1.451041218906707E-1
 8.116648589150000E9     5.064673890926720E-1    9.609721173855883E-3    6.322487300177813E-4    3.638156994267099E-3    6.777457108377462E-4    3.660988282107269E-3    4.261191259281721E-1   -1.453691161537973E-1
 8.116654453875000E9     5.064272642816237E-1    9.010811404055512E-3    6.320772824459898E-4    3.641578064146535E-3    7.095629895545868E-4    3.701572397805576E-3    4.259523081927813E-1   -1.458976184275292E-1
 8.116660318600000E9     5.064578369177399E-1    8.550646997259605E-3    6.386347801787018E-4    3.644464817528427E-3    6.920112778670332E-4    3.668845161059287E-3    4.258712481961638E-1   -1.462083454603395E-1
 8.116666183325000E9     5.063635513454309E-1    8.281282251246670E-3    6.313882886721888E-4    3.659044499828282E-3    6.884783818709945E-4    3.673528186800870E-3    4.257055578496164E-1   -1.466148361080685E-1
 8.116672048050000E9     5.063602102943758E-1    7.701562299303927E-3    6.195416873216281E-4    3.640828383696432E-3    6.746914554454385E-4    3.680109110541131E-3    4.255657827570273E-1   -1.469095834765490E-1
 8.116677912775000E9     5.064487805739836E-1    7.220342077523811E-3    6.247066877781760E-4    3.632316700286721E-3    7.055642390282076E-4    3.695322906741426E-3    4.254713778206352E-1   -1.474220787762792E-1
 8.116683777500000E9     5.063876549196978E-1    6.786551769330832E-3    6.603277526594172E-4    3.637182907164734E-3    7.130037193009999E-4    3.664097023466111E-3    4.253192185966593E-1   -1.476894700765816E-1
 8.116689642225000E9     5.063178158400523E-1    6.279424380404059E-3    6.314209832742714E-4    3.632807044835545E-3    7.280064420843279E-4    3.713706736785124E-3    4.252470997379336E-1   -1.480278562686441E-1
 8.116695506950000E9     5.064194347537999E-1    5.824306279898851E-3    6.463594139334832E-4    3.641228361888264E-3    7.303741921124404E-4    3.682038089337093E-3    4.251545594319163E-1   -1.485217099903702E-1
 8.116701371675000E9     5.063156519044439E-1    5.488113839205799E-3    6.636942086357611E-4    3.667068262725049E-3    6.966790527155314E-4    3.739110354542625E-3    4.250681088966745E-1   -1.489145540749407E-1
 8.116707236400000E9     5.063959060495602E-1    4.964002297542313E-3    6.576794616047048E-4    3.655002491363139E-3    7.396464038164651E-4    3.666755125484899E-3    4.247640114813003E-1   -1.493742963812973E-1
 8.116713101125000E9     5.064114230603181E-1    4.628979066408703E-3    6.662095620696225E-4    3.671563744022844E-3    7.486331690910491E-4    3.712683919388038E-3    4.247950661179102E-1   -1.497806287088654E-1
 8.116718965850000E9     5.062936509933640E-1    3.934342760013343E-3    6.443485302215582E-4    3.672729403941915E-3    7.061841212071595E-4    3.683483931366672E-3    4.246487897679169E-1   -1.502981579380727E-1
 8.116724830575000E9     5.062709898434645E-1    3.666261819312026E-3    6.537231560643976E-4    3.685092809429183E-3    7.434461206450738E-4    3.713605461514355E-3    4.245094771941562E-1   -1.504773256991497E-1
 8.116730695300000E9     5.063736664126735E-1    3.165767724909291E-3    6.789884930854433E-4    3.649275513888379E-3    7.404903770114720E-4    3.708460124798362E-3    4.243141900494996E-1   -1.509345382423474E-1
 8.116736560025000E9     5.063805574751447E-1    2.866851568094225E-3    6.876233596380380E-4    3.661885760020391E-3    7.786435729207518E-4    3.748562666472138E-3    4.241667225709842E-1   -1.512736722348840E-1
 8.116742424750000E9     5.063666187247626E-1    2.286745823141253E-3    6.910684376488719E-4    3.648459187847499E-3    7.532123228321212E-4    3.712209164908552E-3    4.240718245414760E-1   -1.515732515406952E-1
 8.116748289475000E9     5.062817196795990E-1    1.885906152510369E-3    6.910229127437719E-4    3.662482024042602E-3    7.581464226017575E-4    3.698598842976763E-3    4.240381283527019E-1   -1.521634279105387E-1
 8.116754154200000E9     5.063370708397782E-1    1.436665523380541E-3    6.869189317974591E-4    3.663268106534081E-3    7.519679563334961E-4    3.703590161000562E-3    4.238764570244202E-1   -1.524615011829654E-1
 8.116760018925000E9     5.063304734587084E-1    9.894053531961688E-4    7.149435113969169E-4    3.666023747504938E-3    7.638991685298746E-4    3.725493494341670E-3    4.237385233915439E-1   -1.528086254548887E-1
 8.116765883650000E9     5.064523167352537E-1    6.029091201020804E-4    6.901645804698806E-4    3.691203875633167E-3    7.797285297208074E-4    3.728072492957969E-3    4.237003370350673E-1   -1.531011038369433E-1
 8.116771748375000E9     5.062645406949043E-1    7.400473024566499E-5    7.030596223796014E-4    3.664240422140006E-3    7.760381965704020E-4    3.742736276547468E-3    4.235272878422562E-1   -1.535380919222695E-1
 8.116777613100000E9     5.062718491899295E-1   -3.818547713518518E-4    7.042376524907612E-4    3.671578436780724E-3    7.664197070352675E-4    3.714524339942012E-3    4.234626539229095E-1   -1.540737655350222E-1
 8.116783477825000E9     5.061499805371287E-1   -9.179026960417549E-4    7.646915618156904E-4    3.691921054702251E-3    7.802551164397478E-4    3.711048326040474E-3    4.231472346516698E-1   -1.543291362604181E-1
 8.116789342550000E9     5.061911914994872E-1   -1.247110709689176E-3    7.476248014316942E-4    3.686861729248227E-3    7.533007681366986E-4    3.767315654432507E-3    4.231105374481812E-1   -1.547065218106361E-1
 8.116795207275000E9     5.062842980843957E-1   -1.734606784470911E-3    7.100322814338440E-4    3.704449288233912E-3    7.795033952213951E-4    3.734395708722513E-3    4.231466625940536E-1   -1.551547395144666E-1
 8.116801072000000E9     5.062793767644960E-1   -2.128218093578946E-3    7.347719898600510E-4    3.688816093192143E-3    7.676767648025837E-4    3.769626224505572E-3    4.228815749937176E-1   -1.555461931583999E-1
 8.116806936725000E9     5.062124272789402E-1   -2.621080713100522E-3    7.326164791001313E-4    3.700668364785383E-3    7.780369656873792E-4    3.717923048235190E-3    4.226011168388235E-1   -1.559720019007911E-1
 8.116812801450000E9     5.062770983154171E-1   -3.110964377658951E-3    7.672857531680806E-4    3.675116033496399E-3    7.918603045586295E-4    3.735732950788617E-3    4.226330643443765E-1   -1.562276985451869E-1
 8.116818666175000E9     5.061847144197537E-1   -3.454743604330702E-3    7.594666544878705E-4    3.699572437808233E-3    8.174167750171420E-4    3.763693811873689E-3    4.224546902044096E-1   -1.567088074645090E-1
 8.116824530900000E9     5.062081845478668E-1   -3.996778006699137E-3    7.549869678510021E-4    3.695470894818475E-3    8.323266274887401E-4    3.778698468465401E-3    4.224451612817156E-1   -1.571625868305267E-1
 8.116830395625000E9     5.061165495698804E-1   -4.374541993806079E-3    7.766603487149709E-4    3.724724743409553E-3    8.203497168111274E-4    3.774093050003942E-3    4.222193304136302E-1   -1.574600431634902E-1
 8.116836260350000E9     5.061341082819517E-1   -5.036247543892920E-3    7.811035289067877E-4    3.708324830661410E-3    8.233763945000003E-4    3.782568262204974E-3    4.222085544869469E-1   -1.577234798496009E-1
 8.116842125075000E9     5.061370493875783E-1   -5.338135053020809E-3    7.550675841424154E-4    3.740880532528532E-3    8.671097846466554E-4    3.793075176395995E-3    4.219682004205512E-1   -1.582736945476110E-1
 8.116847989800000E9     5.061418733137962E-1   -5.788485629786579E-3    7.832089380331166E-4    3.758069765352761E-3    8.196955951948184E-4    3.755422539825504E-3    4.219627640445638E-1   -1.587147720047015E-1
 8.116853854525000E9     5.060836605515155E-1   -6.171335989842075E-3    7.759072200987371E-4    3.722728359615411E-3    8.693816047095185E-4    3.835529577940874E-3    4.218055546060912E-1   -1.590002134857607E-1
 8.116859719250000E9     5.061820855738052E-1   -6.719700821313302E-3    7.838161815469195E-4    3.740588203118019E-3    8.513145680321549E-4    3.786768399772064E-3    4.216233791141218E-1   -1.594148344100764E-1
