#  HZ   S   RI   R     50.00 
! Rohde & Schwarz Vector Network Analyzer 
! Rohde-Schwarz,ZNB20-2Port,1311601062101988,3.16
! Created: UTC 12/23/2023, 4:02:59 AM
! freq[Hz]                re:S11                  im:S11                  re:S21                  im:S21                  re:S12                  im:S12                  re:S22                  im:S22
 6.517206218000000E9    -2.288175144818577E-1   -1.281533938758222E-2    1.387940936058452E-2   -6.025844613313004E-3    1.389112507223229E-2   -5.465072169813818E-3    2.179858975040656E-1    5.035142991080803E-1
 6.517217463925000E9    -2.285995141775657E-1   -1.259342153569013E-2    1.375709942542862E-2   -5.979717141741808E-3    1.384427078030474E-2   -5.480496338815984E-3    2.187329688429952E-1    5.031722890593534E-1
 6.517228709850000E9    -2.286102919915532E-1   -1.249701899212605E-2    1.380662572659965E-2   -6.030259321987259E-3    1.392295505336983E-2   -5.507881894061397E-3    2.196342372107329E-1    5.028310750217323E-1
 6.517239955775000E9    -2.284344467617929E-1   -1.227902729356371E-2    1.380584618960624E-2   -6.096218035184801E-3    1.397605858297424E-2   -5.558720368606399E-3    2.203776773321512E-1    5.024824762333444E-1
 6.517251201700000E9    -2.283650258038077E-1   -1.216611824244581E-2    1.395041998043507E-2   -6.164912739470839E-3    1.409517379079202E-2   -5.608120279977483E-3    2.211828380671724E-1    5.021455648697263E-1
 6.517262447625000E9    -2.282217687397854E-1   -1.207321146254747E-2    1.411922375537941E-2   -6.180534328757317E-3    1.419905132796575E-2   -5.715228439235665E-3    2.220898748384210E-1    5.017326501315423E-1
 6.517273693550000E9    -2.281244264890188E-1   -1.181190730582340E-2    1.389504883031910E-2   -6.328462409514569E-3    1.421165256506749E-2   -5.812312110881012E-3    2.228876783806477E-1    5.013587024814554E-1
 6.517284939475000E9    -2.279946892197816E-1   -1.167665452036295E-2    1.417876705710108E-2   -6.369538133480073E-3    1.421114982807507E-2   -5.836282792337001E-3    2.236546903050246E-1    5.010659111626756E-1
 6.517296185400000E9    -2.278394990710812E-1   -1.153865895070810E-2    1.411763846734644E-2   -6.286410861571143E-3    1.431857752898287E-2   -5.929479667762572E-3    2.245342030211661E-1    5.007564988620674E-1
 6.517307431325000E9    -2.276358244467812E-1   -1.119864315775986E-2    1.424779292748923E-2   -6.360565206197214E-3    1.443754431801131E-2   -6.096365303048418E-3    2.252354988118746E-1    5.003233843149696E-1
 6.517318677250000E9    -2.274705996954365E-1   -1.106523171100306E-2    1.437851736055769E-2   -6.486494905898011E-3    1.444801957021393E-2   -5.997896632844189E-3    2.262641141254894E-1    4.999830293757367E-1
 6.517329923175000E9    -2.273696102794672E-1   -1.097890421452617E-2    1.431805857065617E-2   -6.605073939109921E-3    1.439783739284161E-2   -6.109589028330295E-3    2.270535790945931E-1    4.996923802676321E-1
 6.517341169100000E9    -2.273241363390880E-1   -1.076844597866939E-2    1.449547279546283E-2   -6.648497107963921E-3    1.457495465656605E-2   -6.211826589464586E-3    2.276692126195552E-1    4.992408311104976E-1
 6.517352415025000E9    -2.271849903494950E-1   -1.066522753922225E-2    1.457365146057577E-2   -6.710499220463783E-3    1.466794547973744E-2   -6.231058333438207E-3    2.285583391810350E-1    4.988992855287185E-1
 6.517363660950000E9    -2.271074359010058E-1   -1.051363510637264E-2    1.467492339347437E-2   -6.603365237770250E-3    1.479589684232420E-2   -6.110477103378553E-3    2.294643402381794E-1    4.985757993593078E-1
 6.517374906875000E9    -2.270365260976360E-1   -1.032608032750929E-2    1.466919781323485E-2   -6.654673454831400E-3    1.485405378529701E-2   -6.324206178333125E-3    2.303557512955539E-1    4.982252992978894E-1
 6.517386152800000E9    -2.267055692826903E-1   -1.011222114767750E-2    1.457280117952029E-2   -6.854537750466509E-3    1.489656700823769E-2   -6.424585245332773E-3    2.312562487924446E-1    4.977827258853287E-1
 6.517397398725000E9    -2.267665317605278E-1   -9.974089670196262E-3    1.470641689927443E-2   -6.951159770873002E-3    1.495791990878426E-2   -6.370638857174916E-3    2.318955138971665E-1    4.973732184238192E-1
 6.517408644650000E9    -2.265802099745866E-1   -9.775735539875124E-3    1.480250212160872E-2   -6.964316239158757E-3    1.498524291160604E-2   -6.506325298856562E-3    2.326785703476971E-1    4.970025038438691E-1
 6.517419890575000E9    -2.264518566091619E-1   -9.734611558296137E-3    1.487855430002324E-2   -7.039709639863103E-3    1.503634413499174E-2   -6.532600504529620E-3    2.336385219826024E-1    4.966923138978231E-1
 6.517431136500000E9    -2.263559326395929E-1   -9.533548630107856E-3    1.492421329578342E-2   -7.053543420127675E-3    1.509566492166063E-2   -6.597052814214054E-3    2.344417225089908E-1    4.963512020592569E-1
 6.517442382425000E9    -2.260908262057484E-1   -9.414659876067991E-3    1.490854694388992E-2   -7.214445625741105E-3    1.514088978433990E-2   -6.718337601030910E-3    2.352369266230055E-1    4.959057365893917E-1
 6.517453628350000E9    -2.261122530614529E-1   -9.214741028247169E-3    1.524039446017018E-2   -7.258141933635233E-3    1.521750292118482E-2   -6.776729370070928E-3    2.360444543557664E-1    4.956804125842421E-1
 6.517464874275000E9    -2.257682862527544E-1   -9.119138003253020E-3    1.510627898964409E-2   -7.377868701186873E-3    1.530018931259147E-2   -6.746729730040394E-3    2.370469343711681E-1    4.951398533990359E-1
 6.517476120200000E9    -2.256883353828806E-1   -8.959097132037127E-3    1.514192150621215E-2   -7.441224425117382E-3    1.524924206829478E-2   -6.834633180780881E-3    2.376653736604722E-1    4.947856469684693E-1
 6.517487366125000E9    -2.255735834953194E-1   -8.762728195757977E-3    1.517704957429389E-2   -7.473338990209944E-3    1.541873869873906E-2   -7.046072302105760E-3    2.385584982182924E-1    4.943502342238224E-1
 6.517498612050000E9    -2.255241230179239E-1   -8.633494226005973E-3    1.537579485888536E-2   -7.452484638085942E-3    1.549443112798408E-2   -7.006456598683037E-3    2.394148459692118E-1    4.938104525237857E-1
 6.517509857975000E9    -2.253077265609397E-1   -8.554561561170897E-3    1.530445644072763E-2   -7.610112720788446E-3    1.554216162459761E-2   -7.086430514709758E-3    2.402747961211111E-1    4.934497012689917E-1
 6.517521103900000E9    -2.250510134569262E-1   -8.304928683709460E-3    1.540885094599038E-2   -7.777391373674675E-3    1.561355560242706E-2   -7.227470204923183E-3    2.408892778129231E-1    4.930866743432714E-1
 6.517532349825000E9    -2.250430850840204E-1   -8.144652219997649E-3    1.552289766919173E-2   -7.770461635418925E-3    1.570809838807983E-2   -7.267510354090454E-3    2.418777523368672E-1    4.928600189780554E-1
 6.517543595750000E9    -2.247578777039073E-1   -8.075643072351913E-3    1.551471955956233E-2   -7.788924092703300E-3    1.586732444254264E-2   -7.426896060111815E-3    2.427892098717984E-1    4.923703110693122E-1
 6.517554841675000E9    -2.246601801818366E-1   -7.876653559849799E-3    1.576808304965373E-2   -7.866613973660640E-3    1.576627059174360E-2   -7.401389775081089E-3    2.435323810542193E-1    4.919982925044405E-1
 6.517566087600000E9    -2.245832224057957E-1   -7.687405020128176E-3    1.571695350124872E-2   -7.969346240448637E-3    1.592884746769798E-2   -7.465679584962475E-3    2.443957478540117E-1    4.915455840533168E-1
 6.517577333525000E9    -2.243930890056565E-1   -7.549406026833161E-3    1.583066788021676E-2   -8.042216973764327E-3    1.603825580837787E-2   -7.502421861057870E-3    2.450979025674551E-1    4.911843736699749E-1
 6.517588579450000E9    -2.242967424460738E-1   -7.533035802449089E-3    1.581209936608710E-2   -8.081515963679346E-3    1.614650366155309E-2   -7.626567408456956E-3    2.460777998759693E-1    4.907527813828572E-1
 6.517599825375000E9    -2.240779622089697E-1   -7.322262482072074E-3    1.596568356105226E-2   -8.272005516573947E-3    1.622267496790776E-2   -7.753847688106036E-3    2.469132698001028E-1    4.903698824310952E-1
 6.517611071300000E9    -2.239432266680003E-1   -7.145514462067406E-3    1.612932847463765E-2   -8.266198084455396E-3    1.631876815608869E-2   -7.755755882263878E-3    2.476144206374243E-1    4.899255913440190E-1
 6.517622317225000E9    -2.237959669709554E-1   -7.098162402810230E-3    1.621544948792571E-2   -8.467719940997664E-3    1.633380212642561E-2   -7.875792854022961E-3    2.484567998156144E-1    4.896198026890859E-1
 6.517633563150000E9    -2.236349115463269E-1   -6.910580086888947E-3    1.611725025520843E-2   -8.514944162021153E-3    1.633678125239107E-2   -7.917391022636746E-3    2.492658318154626E-1    4.891352439756815E-1
 6.517644809075000E9    -2.235633093511767E-1   -6.852555596522972E-3    1.627620891595184E-2   -8.553187181973164E-3    1.651517179142533E-2   -8.056775839653101E-3    2.501392735428777E-1    4.886552803913163E-1
 6.517656055000000E9    -2.233747689702576E-1   -6.657124707971078E-3    1.633491939271069E-2   -8.672588273045657E-3    1.658269638819919E-2   -8.032585545818533E-3    2.509869122787128E-1    4.882860182265372E-1
 6.517667300925000E9    -2.232008366497370E-1   -6.469199666119177E-3    1.645164368457886E-2   -8.796855629170956E-3    1.658863042173645E-2   -8.174787712151271E-3    2.517084879864918E-1    4.878737258451409E-1
 6.517678546850000E9    -2.229893288990825E-1   -6.405570127757412E-3    1.652107219181971E-2   -8.787019196894221E-3    1.666516347036015E-2   -8.235057325126759E-3    2.526039466761621E-1    4.874436131662212E-1
 6.517689792775000E9    -2.228311220930734E-1   -6.297210994177304E-3    1.665777614253954E-2   -8.999164125633166E-3    1.684419332974510E-2   -8.299697963223340E-3    2.534284738420730E-1    4.869931392491325E-1
 6.517701038700000E9    -2.226676285246866E-1   -6.146932171273911E-3    1.675021342982369E-2   -9.049086240079166E-3    1.695504504685560E-2   -8.447997986803476E-3    2.543001266182211E-1    4.866020106943780E-1
 6.517712284625000E9    -2.225651437782186E-1   -5.964611284261432E-3    1.685786688450207E-2   -9.050977690503569E-3    1.694810231589478E-2   -8.542851748600196E-3    2.551259586970997E-1    4.860392085476876E-1
 6.517723530550000E9    -2.223858233301604E-1   -5.835401018895067E-3    1.685607541082631E-2   -9.280495533535018E-3    1.710896751596460E-2   -8.679439601448373E-3    2.559028971758647E-1    4.856676225871989E-1
 6.517734776475000E9    -2.220537237645195E-1   -5.667270990724603E-3    1.709003321210435E-2   -9.273258244649684E-3    1.708906100971091E-2   -8.615266484898874E-3    2.567746021891826E-1    4.852428681154081E-1
 6.517746022400000E9    -2.219710568716584E-1   -5.670184824427823E-3    1.705282210965230E-2   -9.367289254465365E-3    1.727563640217810E-2   -8.802577800861518E-3    2.576430613925654E-1    4.847990235756787E-1
 6.517757268325000E9    -2.218298541968673E-1   -5.520057449864965E-3    1.705745878161252E-2   -9.436110802768455E-3    1.742661277197382E-2   -8.899217404854049E-3    2.584134375579001E-1    4.843382527845514E-1
 6.517768514250000E9    -2.218074672738856E-1   -5.405340948705358E-3    1.717170744702039E-2   -9.703256964101832E-3    1.751008477978842E-2   -9.124103151824759E-3    2.594081120412173E-1    4.838640813122309E-1
 6.517779760175000E9    -2.214467290478164E-1   -5.314357194350102E-3    1.719530815834959E-2   -9.666165304377109E-3    1.746029537716865E-2   -9.063963646338696E-3    2.600950716124320E-1    4.834951624044947E-1
 6.517791006100000E9    -2.213441447905800E-1   -5.118299164113919E-3    1.741019698537469E-2   -9.864738257274370E-3    1.773941544651035E-2   -9.200530227189276E-3    2.610446789357717E-1    4.830441947573880E-1
 6.517802252025000E9    -2.211443513098110E-1   -5.007897512686165E-3    1.750468458823116E-2   -9.853787971496060E-3    1.773309452486459E-2   -9.376924271883177E-3    2.615636765296200E-1    4.826842631363861E-1
 6.517813497950000E9    -2.208999965151252E-1   -4.894795199721341E-3    1.751837730236420E-2   -1.005672045573290E-2    1.785710267240496E-2   -9.355276109466810E-3    2.625251377404370E-1    4.822098588336778E-1
 6.517824743875000E9    -2.207674367908733E-1   -4.776041099619241E-3    1.757050384437783E-2   -1.001834947408357E-2    1.792534273498994E-2   -9.524015230787445E-3    2.633155764381377E-1    4.816394340272834E-1
 6.517835989800000E9    -2.206676982557744E-1   -4.805974361796972E-3    1.773405840113937E-2   -1.017972109589483E-2    1.812373556490848E-2   -9.621620240464632E-3    2.642327107230835E-1    4.811880907053031E-1
 6.517847235725000E9    -2.204760898709615E-1   -4.565123083533746E-3    1.791559389836853E-2   -1.032092086270197E-2    1.820700514450258E-2   -9.758304259001222E-3    2.650630056531894E-1    4.807486796901527E-1
 6.517858481650000E9    -2.202499349361023E-1   -4.469690988114232E-3    1.792329969003987E-2   -1.032683275276445E-2    1.825473120454118E-2   -9.909010624730140E-3    2.659323315225495E-1    4.802260356826307E-1
 6.517869727575000E9    -2.200393033587379E-1   -4.395900959736423E-3    1.794501451441250E-2   -1.043712890686883E-2    1.832826920457951E-2   -1.001233459510008E-2    2.667659256704233E-1    4.797241206767902E-1
 6.517880973500000E9    -2.198685601664818E-1   -4.229244608874526E-3    1.805509354223974E-2   -1.063012226372154E-2    1.842024528485818E-2   -1.008130014882092E-2    2.676859426364840E-1    4.793051814295383E-1
 6.517892219425000E9    -2.196770598500677E-1   -4.136145290774411E-3    1.825415105081369E-2   -1.071347681100966E-2    1.851607459880032E-2   -1.016923876265722E-2    2.683085965114401E-1    4.788780258448238E-1
 6.517903465350000E9    -2.194480844296423E-1   -3.946871701073998E-3    1.835361008757946E-2   -1.091155088593834E-2    1.863482883287916E-2   -1.035685146510301E-2    2.692019972761503E-1    4.784998924305198E-1
 6.517914711275000E9    -2.193932054569521E-1   -3.906370542839415E-3    1.846905060340669E-2   -1.110948560728052E-2    1.867119175996751E-2   -1.036114193586200E-2    2.699758916932118E-1    4.780136069351408E-1
 6.517925957200000E9    -2.190887842672570E-1   -3.822571955752395E-3    1.853480262147997E-2   -1.116547207147393E-2    1.883628410531037E-2   -1.059847481519793E-2    2.708247111772966E-1    4.775358613832098E-1
 6.517937203125000E9    -2.188217164526872E-1   -3.768161403082995E-3    1.865609803182091E-2   -1.122546826395750E-2    1.906324252606065E-2   -1.065172199619596E-2    2.718802301501002E-1    4.768907972108393E-1
 6.517948449050000E9    -2.186454556916941E-1   -3.692409934723461E-3    1.866983197356897E-2   -1.138507908176840E-2    1.904459868889571E-2   -1.069014720973717E-2    2.725046186476527E-1    4.762888981567308E-1
 6.517959694975000E9    -2.184827587226776E-1   -3.633238649937812E-3    1.881766365899120E-2   -1.133075684948308E-2    1.915463414580408E-2   -1.091436081622105E-2    2.734446537131087E-1    4.760296638688079E-1
 6.517970940900000E9    -2.182323017021001E-1   -3.470874669240908E-3    1.909108629806142E-2   -1.169902223886283E-2    1.928094253497715E-2   -1.106701247516558E-2    2.742911345290754E-1    4.753823988152970E-1
 6.517982186825000E9    -2.181389969399507E-1   -3.512495818144728E-3    1.912880367859600E-2   -1.180566462945930E-2    1.946851550568605E-2   -1.123987530396577E-2    2.750901224184001E-1    4.750413797505604E-1
 6.517993432750000E9    -2.178186285755903E-1   -3.244824116624490E-3    1.912904507418096E-2   -1.178316792589729E-2    1.954585538388356E-2   -1.127021135574558E-2    2.758140308095700E-1    4.744840011699394E-1
 6.518004678675000E9    -2.176634034437332E-1   -3.271959548725197E-3    1.930301867589477E-2   -1.197852397071950E-2    1.958510680707759E-2   -1.145346021255040E-2    2.768424482891433E-1    4.741558389972122E-1
 6.518015924600000E9    -2.174851875341670E-1   -3.194781699262981E-3    1.952391875622833E-2   -1.212216802265445E-2    1.964940828621082E-2   -1.157285179192553E-2    2.777753921588939E-1    4.733484446299899E-1
 6.518027170525000E9    -2.173125226693787E-1   -3.161977443990100E-3    1.955668268538545E-2   -1.231344283777486E-2    1.984048554190848E-2   -1.163674345609927E-2    2.784196695030725E-1    4.729266081986679E-1
 6.518038416450000E9    -2.171013591520283E-1   -3.079404744841697E-3    1.967911373245330E-2   -1.236757585839105E-2    1.991072158995136E-2   -1.186578285349578E-2    2.792878676103879E-1    4.724542996080935E-1
 6.518049662375000E9    -2.167135353906799E-1   -2.965209344176432E-3    1.977901478054822E-2   -1.257338836960750E-2    2.010473497065420E-2   -1.197915604640941E-2    2.800479844141006E-1    4.718895823157836E-1
 6.518060908300000E9    -2.165921411392972E-1   -2.876763027351893E-3    1.989884582389076E-2   -1.273691950253395E-2    2.036685397444501E-2   -1.215205760412762E-2    2.809443868743700E-1    4.714798731658227E-1
 6.518072154225000E9    -2.164381355764004E-1   -2.875791618886726E-3    1.999638265665967E-2   -1.289320026793223E-2    2.037088684888302E-2   -1.219797703987960E-2    2.816728895720555E-1    4.708132765573864E-1
 6.518083400150000E9    -2.162014190737816E-1   -2.689494442890890E-3    2.010471799169357E-2   -1.315160603602480E-2    2.053595912272396E-2   -1.227048251006826E-2    2.825555317974279E-1    4.702213671796301E-1
 6.518094646075000E9    -2.159490464153609E-1   -2.743212944890622E-3    2.029641224393279E-2   -1.313494189899723E-2    2.067206122109105E-2   -1.250505500249796E-2    2.834209617221224E-1    4.699279431016466E-1
 6.518105892000000E9    -2.156817129222609E-1   -2.656230636362277E-3    2.035369907159855E-2   -1.332882214160776E-2    2.079385326801950E-2   -1.277350281301485E-2    2.843600639429812E-1    4.692733806684514E-1
 6.518117137925000E9    -2.154654977329697E-1   -2.668752815664957E-3    2.042888076693204E-2   -1.348572307358555E-2    2.098641030971635E-2   -1.289201124451476E-2    2.851735401752840E-1    4.688383837311418E-1
 6.518128383850000E9    -2.152058646750592E-1   -2.540719965684580E-3    2.062440332857208E-2   -1.363490423382690E-2    2.098722607317028E-2   -1.305689834180272E-2    2.859734784538631E-1    4.681370344800190E-1
 6.518139629775000E9    -2.149918651617441E-1   -2.450446592700810E-3    2.075087618402256E-2   -1.383121727341648E-2    2.115102610591394E-2   -1.318004544845226E-2    2.867704238015341E-1    4.677457886139279E-1
 6.518150875700000E9    -2.147515810993683E-1   -2.469312444629649E-3    2.085149771963715E-2   -1.398846259551685E-2    2.131358747412074E-2   -1.330090805706697E-2    2.877681418915543E-1    4.669730868290319E-1
 6.518162121625000E9    -2.143957557170307E-1   -2.387796365862072E-3    2.095712982202065E-2   -1.415081486768133E-2    2.150690435657472E-2   -1.355005822287239E-2    2.883566794215082E-1    4.665734342897934E-1
 6.518173367550000E9    -2.142604932957974E-1   -2.252063594778629E-3    2.119153095518137E-2   -1.431208660604832E-2    2.163379275534448E-2   -1.370228529650741E-2    2.894029804635317E-1    4.661030392019830E-1
 6.518184613475000E9    -2.140522927962652E-1   -2.348281863024650E-3    2.127999117536969E-2   -1.456117937876652E-2    2.180491808142402E-2   -1.387888881750991E-2    2.901732629312522E-1    4.656023161055633E-1
 6.518195859400000E9    -2.137188090980270E-1   -2.253222328410521E-3    2.126988923831327E-2   -1.481802868190056E-2    2.187360877629113E-2   -1.397569368677951E-2    2.909945488118593E-1    4.647814778597082E-1
 6.518207105325000E9    -2.134779711695441E-1   -2.274015259464563E-3    2.160315554391043E-2   -1.483589687938069E-2    2.209589160098697E-2   -1.429082857141751E-2    2.919160816572456E-1    4.642589830753971E-1
 6.518218351250000E9    -2.133479735668829E-1   -2.305523633402312E-3    2.172515046975447E-2   -1.506430041641047E-2    2.224220052985863E-2   -1.452028546154925E-2    2.926574340168294E-1    4.637223532726615E-1
