#  HZ   S   RI   R     50.00 
! Rohde & Schwarz Vector Network Analyzer 
! Rohde-Schwarz,ZNB20-2Port,1311601062101988,3.16
! Created: UTC 3/20/2024, 11:48:48 AM
! freq[Hz]                re:S11                  im:S11                  re:S21                  im:S21                  re:S12                  im:S12                  re:S22                  im:S22
 8.116248361000000E9     5.053776963466359E-1    3.978499949440503E-2    3.693356653902341E-4    3.544602938988479E-3    4.027049441112664E-4    3.562504997195093E-3    4.331589468935678E-1   -1.185078410413561E-1
 8.116254546550000E9     5.054862300165136E-1    3.919113279192735E-2    3.696281162351565E-4    3.508604466657797E-3    4.343948082477699E-4    3.579501382779138E-3    4.332045367768991E-1   -1.187474468265971E-1
 8.116260732100000E9     5.056099796280721E-1    3.876770574643618E-2    3.751736610227410E-4    3.519406965653492E-3    4.377605905027853E-4    3.577406014340753E-3    4.330661214005020E-1   -1.193160071086250E-1
 8.116266917650000E9     5.055602736848354E-1    3.828480854606808E-2    3.708271336968250E-4    3.536375275055480E-3    4.385653614756630E-4    3.567395237267984E-3    4.327925611269853E-1   -1.197520147487000E-1
 8.116273103200000E9     5.057236334891932E-1    3.788785581163348E-2    3.866190590641180E-4    3.537920472459623E-3    4.509986745668172E-4    3.584807214704451E-3    4.327587419317065E-1   -1.202303759434316E-1
 8.116279288750000E9     5.056328722006200E-1    3.737591803558143E-2    3.866263845707373E-4    3.534224892743690E-3    4.581163442253332E-4    3.622113232492121E-3    4.326920154659655E-1   -1.205341092199372E-1
 8.116285474300000E9     5.057285781332166E-1    3.684668666031694E-2    3.939243276909653E-4    3.529471838808879E-3    4.341263832943506E-4    3.576503111389621E-3    4.326887650563080E-1   -1.210087486962578E-1
 8.116291659850000E9     5.056956983324459E-1    3.642269214240494E-2    3.708272965275774E-4    3.531982135562314E-3    4.378119786561533E-4    3.597367669090486E-3    4.325290359494459E-1   -1.215060999688661E-1
 8.116297845400000E9     5.056224732815496E-1    3.582623109389351E-2    4.054831142317937E-4    3.529888117577122E-3    4.675752674223344E-4    3.585562236485400E-3    4.323275747564700E-1   -1.218042134463067E-1
 8.116304030950000E9     5.057134980526972E-1    3.540386030553463E-2    3.987953796444204E-4    3.524125122386008E-3    4.286245009186808E-4    3.607380056653188E-3    4.323372672518485E-1   -1.222627603289094E-1
 8.116310216500000E9     5.057214291514647E-1    3.504466787981265E-2    4.219220767746329E-4    3.542146684393919E-3    4.533310708848695E-4    3.603137143053799E-3    4.321611610242505E-1   -1.226871241892891E-1
 8.116316402050000E9     5.057422102114939E-1    3.454521954247080E-2    4.115243370518060E-4    3.539040464843759E-3    4.478196488764841E-4    3.579119077500970E-3    4.321229412789245E-1   -1.231194729140293E-1
 8.116322587600000E9     5.058598409400745E-1    3.405164593008709E-2    4.100743174588997E-4    3.520732221967628E-3    4.662275115472357E-4    3.614280532242266E-3    4.320550154668568E-1   -1.236577313291959E-1
 8.116328773150000E9     5.057577594971402E-1    3.366192051647384E-2    4.192437854948031E-4    3.533123423512485E-3    4.892905868924923E-4    3.614816818516761E-3    4.319725253697993E-1   -1.237501880310649E-1
 8.116334958700000E9     5.057481005127793E-1    3.313902483100439E-2    4.072544333291882E-4    3.551829713560161E-3    4.830973555939022E-4    3.588790305785448E-3    4.317934688836744E-1   -1.243762873753809E-1
 8.116341144250000E9     5.057661653348290E-1    3.247743577028325E-2    4.073691150292221E-4    3.556645023551743E-3    4.948539115099239E-4    3.613777493401217E-3    4.316897323622130E-1   -1.248538851771808E-1
 8.116347329800000E9     5.059572100552698E-1    3.225854285163385E-2    4.254525374992162E-4    3.571655019927910E-3    4.764596632852891E-4    3.587030525166691E-3    4.314469956095837E-1   -1.252367499684188E-1
 8.116353515350000E9     5.059522883698409E-1    3.171427862449243E-2    4.460456740873227E-4    3.559089190014837E-3    4.979902103536641E-4    3.567216675110284E-3    4.314954204654004E-1   -1.255800536597005E-1
 8.116359700900000E9     5.058912498889782E-1    3.130809103905926E-2    4.247591778460372E-4    3.537309995117362E-3    5.088866139599977E-4    3.601439947814427E-3    4.313957119112935E-1   -1.259716041705464E-1
 8.116365886450000E9     5.059607261562493E-1    3.072983317805740E-2    4.598826235754681E-4    3.539494896434817E-3    4.838595287730712E-4    3.578823301199131E-3    4.313663640504343E-1   -1.265170292314001E-1
 8.116372072000000E9     5.058726148793647E-1    3.025722246447568E-2    4.553129009483083E-4    3.566347458120966E-3    4.937263192659876E-4    3.601093004096597E-3    4.311918118571935E-1   -1.268808403068130E-1
 8.116378257550000E9     5.060635618558683E-1    2.982037037211809E-2    4.263108905818260E-4    3.551016265981678E-3    4.857244178835452E-4    3.610731691472535E-3    4.310436276795311E-1   -1.273163977850819E-1
 8.116384443100000E9     5.061085087185561E-1    2.942715642652919E-2    4.671206865235833E-4    3.549298255750926E-3    5.296813174568860E-4    3.613417277452674E-3    4.308662775834331E-1   -1.276286118935077E-1
 8.116390628650000E9     5.060321357396268E-1    2.892373967174393E-2    4.476033098323056E-4    3.578398695340902E-3    5.174682368731834E-4    3.604650236749640E-3    4.307909653509929E-1   -1.281767881262666E-1
 8.116396814200000E9     5.061029470591842E-1    2.847562238377466E-2    4.597515623097826E-4    3.525825822163389E-3    5.012456289375903E-4    3.621653910144090E-3    4.306571710087803E-1   -1.285094255951595E-1
 8.116402999750000E9     5.060506246879687E-1    2.796202850768625E-2    4.500556344518109E-4    3.562200702916657E-3    5.284145533675622E-4    3.644680047386177E-3    4.305984453204170E-1   -1.288838530456434E-1
 8.116409185300000E9     5.060058070477232E-1    2.740554134579734E-2    4.512204663484881E-4    3.545218798834311E-3    5.316977208650382E-4    3.615343655167995E-3    4.305599121248361E-1   -1.293338598245015E-1
 8.116415370850000E9     5.061062382570422E-1    2.703165229037329E-2    4.562644225262464E-4    3.550524778560895E-3    5.089823246115396E-4    3.613040452104980E-3    4.303877901358536E-1   -1.297943797353988E-1
 8.116421556400000E9     5.060799594639533E-1    2.661041969185556E-2    4.771557782232440E-4    3.570054226959648E-3    5.175871146362806E-4    3.577702159436790E-3    4.302971141417059E-1   -1.300722858974683E-1
 8.116427741950000E9     5.061221834903508E-1    2.613448414784524E-2    4.719062246313465E-4    3.563764400187974E-3    5.180800325186384E-4    3.610842052277784E-3    4.302266557170037E-1   -1.307052314274192E-1
 8.116433927500000E9     5.060811560823812E-1    2.564255127924020E-2    4.919299148810226E-4    3.552577318586323E-3    5.605892527389972E-4    3.624759508208473E-3    4.301258365696388E-1   -1.310686073410123E-1
 8.116440113050000E9     5.061370473233833E-1    2.513140547111829E-2    4.490846610732286E-4    3.569958082087770E-3    5.484829448950278E-4    3.626284986388858E-3    4.300094405129604E-1   -1.314614682746926E-1
 8.116446298600000E9     5.061711594574080E-1    2.457905220685542E-2    4.872414667895276E-4    3.546513058687033E-3    5.628117170170282E-4    3.613985406066276E-3    4.298825381196011E-1   -1.319405373082288E-1
 8.116452484150000E9     5.062688899967275E-1    2.415334374385235E-2    4.924138154412295E-4    3.575839545059881E-3    5.838231073247264E-4    3.627673445049281E-3    4.297325013198426E-1   -1.323596065568937E-1
 8.116458669700000E9     5.062370550786973E-1    2.377668875340208E-2    4.927805835623864E-4    3.582515289652350E-3    5.409580119113032E-4    3.618400827200261E-3    4.295663333058343E-1   -1.326698489803440E-1
 8.116464855250000E9     5.062029749468417E-1    2.337233058803183E-2    4.927063211373694E-4    3.568990485007724E-3    5.992750817334630E-4    3.607010658637573E-3    4.295053005811290E-1   -1.330911375730023E-1
 8.116471040800000E9     5.062869686949867E-1    2.285441562161455E-2    4.854753519990484E-4    3.571112393365664E-3    5.483744783306213E-4    3.618813661886373E-3    4.294766423187523E-1   -1.335100638325087E-1
 8.116477226350000E9     5.062762845859814E-1    2.234140392473118E-2    5.216911991704665E-4    3.567246075802364E-3    5.574543854015003E-4    3.636421353536123E-3    4.292385028637816E-1   -1.336871442195370E-1
 8.116483411900000E9     5.061847273530951E-1    2.190951118828001E-2    5.173558327220937E-4    3.573264726116532E-3    5.288240399941858E-4    3.646511829801984E-3    4.291352821462538E-1   -1.342365202163733E-1
 8.116489597450000E9     5.063092130473502E-1    2.138064470016311E-2    5.178536092677398E-4    3.582526671069743E-3    6.069344606305239E-4    3.629021009486515E-3    4.290197977772400E-1   -1.347170444128501E-1
 8.116495783000000E9     5.062005102810552E-1    2.096666465405351E-2    5.230893725760422E-4    3.602642162107465E-3    5.590043753373612E-4    3.634644050803340E-3    4.289610037689601E-1   -1.350770345210945E-1
 8.116501968550000E9     5.062565854331752E-1    2.051353787673141E-2    5.110039765842339E-4    3.587548963096421E-3    5.759106485631309E-4    3.658077612975800E-3    4.288058881135556E-1   -1.355765132568268E-1
 8.116508154100000E9     5.062757373532415E-1    2.003610455971666E-2    5.617777022986861E-4    3.591725595136296E-3    6.011254942066660E-4    3.644164088874475E-3    4.286308136856981E-1   -1.359320856278625E-1
 8.116514339650000E9     5.062481778198810E-1    1.962458754737043E-2    5.291935298825097E-4    3.603425218107540E-3    6.180879941392732E-4    3.627736296265588E-3    4.285939041722268E-1   -1.364015660884493E-1
 8.116520525200000E9     5.062970757245822E-1    1.920088028048948E-2    5.128523378535231E-4    3.584051759923152E-3    5.948969392127325E-4    3.618829173660892E-3    4.284975916646021E-1   -1.368928726995691E-1
 8.116526710750000E9     5.062575766249300E-1    1.868306865155963E-2    5.385174965260026E-4    3.588464541607537E-3    6.023107730310747E-4    3.628093068594432E-3    4.284463316077728E-1   -1.372995956299244E-1
 8.116532896300000E9     5.063299955343362E-1    1.817858826278844E-2    5.485177506155986E-4    3.599721962825741E-3    6.015991025853651E-4    3.648080786814203E-3    4.282287228498619E-1   -1.376240072383041E-1
 8.116539081850000E9     5.063193857580905E-1    1.778091671961176E-2    5.427214371551947E-4    3.573592933083784E-3    5.976438671897008E-4    3.644844627024275E-3    4.282582359755177E-1   -1.380509073248616E-1
 8.116545267400000E9     5.063526768239158E-1    1.713816962324696E-2    5.576466770419766E-4    3.575872836575835E-3    6.034751231342989E-4    3.653532512848240E-3    4.281266798557191E-1   -1.383979955232739E-1
 8.116551452950000E9     5.062749057082730E-1    1.676972928035967E-2    5.599854907852420E-4    3.609798146624841E-3    5.876860526149981E-4    3.643167161708100E-3    4.279561470315897E-1   -1.389290210385878E-1
 8.116557638500000E9     5.063585519080611E-1    1.618789015824182E-2    5.437932219945796E-4    3.616799988237347E-3    5.907433888706113E-4    3.626902265016112E-3    4.278162726533009E-1   -1.393568680395588E-1
 8.116563824050000E9     5.064114273661259E-1    1.578029354188940E-2    5.806511904767096E-4    3.595695814615971E-3    6.178766506345292E-4    3.659301361624301E-3    4.276936054498280E-1   -1.397358386853943E-1
 8.116570009600000E9     5.063333031209268E-1    1.532557033850924E-2    5.654974706698243E-4    3.604270286102480E-3    6.206450511028444E-4    3.659015132244956E-3    4.276161120046740E-1   -1.400636657271894E-1
 8.116576195150000E9     5.062724025002784E-1    1.492414766699799E-2    5.701324717077444E-4    3.604585870584771E-3    6.339617803904921E-4    3.675412874336161E-3    4.274885313940222E-1   -1.406077994655659E-1
 8.116582380700000E9     5.064451723998435E-1    1.441365866967981E-2    5.812711200695546E-4    3.615835007481854E-3    6.919356967270809E-4    3.682211521206961E-3    4.273764981495738E-1   -1.409009617183496E-1
 8.116588566250000E9     5.063732491698055E-1    1.400932718156420E-2    5.977224551109237E-4    3.625660526380711E-3    6.225700671756996E-4    3.669688953018118E-3    4.272569033364980E-1   -1.412729112510245E-1
 8.116594751800000E9     5.063767809381922E-1    1.347703557766564E-2    5.789190452577689E-4    3.623347410532927E-3    6.435264310563723E-4    3.681770442802084E-3    4.271261629294682E-1   -1.417160187713145E-1
 8.116600937350000E9     5.063758980279144E-1    1.289803889203719E-2    5.787954776146893E-4    3.606307375241734E-3    6.298366098741268E-4    3.675185535094521E-3    4.269648551590183E-1   -1.420719278386978E-1
 8.116607122900000E9     5.064426812179029E-1    1.244546908556031E-2    5.956381147928046E-4    3.606431322029125E-3    6.326621313827679E-4    3.681183111740665E-3    4.269202733551803E-1   -1.425845519571016E-1
 8.116613308450000E9     5.064643918945195E-1    1.210982788885837E-2    5.615780119386278E-4    3.620309862028105E-3    6.563705365760835E-4    3.673553102111865E-3    4.267332292101732E-1   -1.429786315269812E-1
 8.116619494000000E9     5.064336667387217E-1    1.168183082599472E-2    6.299491161775443E-4    3.617139487941201E-3    6.637100653826820E-4    3.694627270023055E-3    4.266265221528835E-1   -1.432541982953660E-1
 8.116625679550000E9     5.062489391157329E-1    1.112513590474533E-2    6.019655078344745E-4    3.610876730554737E-3    6.741108836597447E-4    3.652744905586653E-3    4.266320120547244E-1   -1.437286672322261E-1
 8.116631865100000E9     5.062334736671479E-1    1.078043221538318E-2    6.308267055859843E-4    3.640334871620082E-3    6.667209987760730E-4    3.669234749515611E-3    4.263278790459797E-1   -1.442779135781834E-1
 8.116638050650000E9     5.063664199400421E-1    1.013020264174654E-2    6.100669504187701E-4    3.626327585544201E-3    6.403360992372044E-4    3.677040334472024E-3    4.263744664085104E-1   -1.445719876596189E-1
 8.116644236200000E9     5.064138575394468E-1    9.703857608846886E-3    6.297243657841149E-4    3.619941692501116E-3    6.768890624224968E-4    3.695276478106236E-3    4.261174607860382E-1   -1.450493064148954E-1
 8.116650421750000E9     5.063544315702367E-1    9.289982577965705E-3    6.121929975054695E-4    3.636848622165695E-3    7.079252250900922E-4    3.687618893382000E-3    4.260897063835636E-1   -1.455758794657201E-1
 8.116656607300000E9     5.064079159660905E-1    8.807637173374761E-3    6.520105784235227E-4    3.646499828470625E-3    6.530307122286854E-4    3.714670818550849E-3    4.258683324784812E-1   -1.458687241852244E-1
 8.116662792850000E9     5.063098678126873E-1    8.272216901996771E-3    6.291639508389797E-4    3.647200739324199E-3    7.202407659497005E-4    3.688732470957217E-3    4.259281420189266E-1   -1.464341921439463E-1
 8.116668978400000E9     5.063494553650689E-1    7.758313321946128E-3    6.447832636122595E-4    3.641001901757762E-3    6.934078535198444E-4    3.702303642818902E-3    4.255416777545794E-1   -1.465892960765561E-1
 8.116675163950000E9     5.063206906716508E-1    7.296053531151547E-3    6.548095308127398E-4    3.647127387829528E-3    6.700609321067978E-4    3.715786107008820E-3    4.255183870229903E-1   -1.471607612039267E-1
 8.116681349500000E9     5.064676620281249E-1    6.917581349745871E-3    6.539974172476147E-4    3.626814118020562E-3    7.170004227905897E-4    3.697238775047096E-3    4.254257540224754E-1   -1.475430270310441E-1
 8.116687535050000E9     5.063434205098897E-1    6.343604546685394E-3    6.432249667677387E-4    3.652778698358103E-3    6.897707080929854E-4    3.695339471982109E-3    4.252464855795424E-1   -1.479411522527924E-1
 8.116693720600000E9     5.063287428415008E-1    5.893298998032013E-3    6.375456239494407E-4    3.653255896910700E-3    7.298632815535942E-4    3.741967613892317E-3    4.251675079915139E-1   -1.483585098808555E-1
 8.116699906150000E9     5.064613007914129E-1    5.372130942882968E-3    6.674949095402835E-4    3.658393879764049E-3    7.399463400053863E-4    3.714885269503602E-3    4.250514791216631E-1   -1.488889718154275E-1
 8.116706091700000E9     5.063892820540499E-1    4.928626999033296E-3    6.345737862251037E-4    3.672129307160683E-3    7.398481867130694E-4    3.720233277928153E-3    4.250300409260090E-1   -1.491803611654296E-1
 8.116712277250000E9     5.063325550712203E-1    4.486979459740191E-3    6.661112776631945E-4    3.678622258130745E-3    7.178948005987007E-4    3.716254415455211E-3    4.249828298111024E-1   -1.496662400218002E-1
 8.116718462800000E9     5.063009839853245E-1    4.098587256150222E-3    6.537076295713962E-4    3.673045794959106E-3    7.244896810069549E-4    3.710812896712734E-3    4.247214329104066E-1   -1.499991768266366E-1
 8.116724648350000E9     5.063164219233107E-1    3.474264842745323E-3    6.721723567918770E-4    3.661214621648391E-3    7.354543292853144E-4    3.739105748129833E-3    4.244888949635771E-1   -1.503308215773683E-1
 8.116730833900000E9     5.063256993005091E-1    3.137196001247399E-3    7.100324627437500E-4    3.675843050108777E-3    7.516985862085582E-4    3.730987523542561E-3    4.244453799039136E-1   -1.507678151749831E-1
 8.116737019450000E9     5.062908002331850E-1    2.534952274518502E-3    7.171623115431197E-4    3.702167716200426E-3    7.307871483599869E-4    3.719964319626612E-3    4.242623911111574E-1   -1.511485285114064E-1
 8.116743205000000E9     5.063256764823152E-1    2.116290755676627E-3    7.128951979934827E-4    3.668189463007966E-3    7.670947543127589E-4    3.751761797871235E-3    4.241387014130190E-1   -1.516243604150169E-1
 8.116749390550000E9     5.063080449406772E-1    1.684449778543174E-3    7.192491387483362E-4    3.655361443300809E-3    7.485153753638418E-4    3.724146261052336E-3    4.239010290704114E-1   -1.520507013648119E-1
 8.116755576100000E9     5.063251701268837E-1    1.114792173576570E-3    6.772958297431693E-4    3.670227833427830E-3    7.826599244654670E-4    3.756026491893254E-3    4.239186857117693E-1   -1.525143620130446E-1
 8.116761761650000E9     5.064154893756208E-1    6.060717920541754E-4    6.925900434454378E-4    3.705046913398075E-3    7.368022352204923E-4    3.720214580179023E-3    4.236092265854507E-1   -1.529269023591359E-1
 8.116767947200000E9     5.063279626675138E-1    2.939110639650274E-4    6.978859679710604E-4    3.685117366940212E-3    7.567101217452501E-4    3.747442388948230E-3    4.238114414468038E-1   -1.532894108257407E-1
 8.116774132750000E9     5.062417677752733E-1   -3.091008043223269E-4    7.281833618748360E-4    3.681914117376415E-3    8.072398837352474E-4    3.740018777598927E-3    4.234763756894087E-1   -1.536740093076112E-1
 8.116780318300000E9     5.062458048946271E-1   -6.887255772204126E-4    7.112992070186949E-4    3.651507803309319E-3    8.007227032485463E-4    3.755075244818333E-3    4.234032415789263E-1   -1.541112147967783E-1
 8.116786503850000E9     5.061982894410131E-1   -1.151909583015144E-3    7.247057786711174E-4    3.677668507328913E-3    7.843401844225068E-4    3.740454378111409E-3    4.232531209074068E-1   -1.546064606794599E-1
 8.116792689400000E9     5.062664934552232E-1   -1.622730281162108E-3    7.094860440002012E-4    3.692165904820145E-3    7.992562672362171E-4    3.728647683116129E-3    4.230977995018081E-1   -1.549046119894663E-1
 8.116798874950000E9     5.062158510642167E-1   -2.083265599741299E-3    7.491674988515107E-4    3.726052277042975E-3    7.992123845453152E-4    3.785035372451799E-3    4.230336134169044E-1   -1.553288397530468E-1
 8.116805060500000E9     5.062669416237502E-1   -2.573333370838828E-3    7.318615746415123E-4    3.711376772691562E-3    7.815468891679768E-4    3.810805336625858E-3    4.229350746975807E-1   -1.557382489732698E-1
