#  HZ   S   RI   R     50.00 
! Rohde & Schwarz Vector Network Analyzer 
! Rohde-Schwarz,ZNB20-2Port,1311601062101988,3.16
! Created: UTC 3/20/2024, 11:49:00 AM
! freq[Hz]                re:S11                  im:S11                  re:S21                  im:S21                  re:S12                  im:S12                  re:S22                  im:S22
 8.116216853000000E9     5.053846828846087E-1    4.201375073385029E-2    3.637156658904270E-4    3.533238130506068E-3    4.227918896420735E-4    3.574642479756428E-3    4.337065417614456E-1   -1.163391160389834E-1
 8.116223165000000E9     5.054803028267708E-1    4.150004746094089E-2    3.424560656849769E-4    3.530708389725763E-3    4.160502651540299E-4    3.588324334833865E-3    4.336493024586511E-1   -1.168355575196128E-1
 8.116229477000000E9     5.055116350299622E-1    4.107890782752521E-2    3.885071245653792E-4    3.529230947459315E-3    3.978286945389908E-4    3.588078694535265E-3    4.334293383833328E-1   -1.170988795663232E-1
 8.116235789000000E9     5.054177565692091E-1    4.065813644851066E-2    3.644881586384431E-4    3.497117005718416E-3    4.166633540271847E-4    3.572921089009376E-3    4.333673896191491E-1   -1.174647546582714E-1
 8.116242101000000E9     5.054813399737274E-1    4.014872555892103E-2    3.334377085920122E-4    3.520114606995304E-3    4.292206675003603E-4    3.576979480492368E-3    4.333304618282576E-1   -1.180195775078333E-1
 8.116248413000000E9     5.054726633436428E-1    3.954830852348457E-2    3.622403575940659E-4    3.540761638737568E-3    4.024626537044916E-4    3.552653706077658E-3    4.331696556240400E-1   -1.184950007981152E-1
 8.116254725000000E9     5.054751395948806E-1    3.917012698361472E-2    3.780986172961960E-4    3.538083539654034E-3    4.174857664727611E-4    3.544817897299273E-3    4.330640850209487E-1   -1.188260910524911E-1
 8.116261037000000E9     5.055296737095240E-1    3.869543786070330E-2    3.740090692812041E-4    3.514950600238175E-3    4.098448451137272E-4    3.556252806500274E-3    4.329377410692026E-1   -1.192577496569626E-1
 8.116267349000000E9     5.055265044384769E-1    3.832635685045684E-2    3.750804974387033E-4    3.505305987903739E-3    4.201162293657236E-4    3.596961301729963E-3    4.329084120176968E-1   -1.197047484735683E-1
 8.116273661000000E9     5.056058676935613E-1    3.771170550424308E-2    3.684571009128337E-4    3.517344495556747E-3    4.657409727612291E-4    3.563529936330517E-3    4.329057338670202E-1   -1.203656790309747E-1
 8.116279973000000E9     5.056745957076076E-1    3.732320356068208E-2    3.935765300235841E-4    3.549976305219395E-3    4.544317058599493E-4    3.569241614435805E-3    4.326264049664991E-1   -1.205172042993793E-1
 8.116286285000000E9     5.058061050895033E-1    3.679592205385761E-2    4.079442158796231E-4    3.526894120099602E-3    4.728690458366410E-4    3.566983749453086E-3    4.326619368233379E-1   -1.210417635887156E-1
 8.116292597000000E9     5.056701435113439E-1    3.628092108975998E-2    4.249463391851209E-4    3.527750095397105E-3    4.415817116171977E-4    3.598072387574276E-3    4.325012111210381E-1   -1.214817794235480E-1
 8.116298909000000E9     5.057095167071249E-1    3.576700483300450E-2    3.787842763985231E-4    3.519071828472962E-3    4.427455684677688E-4    3.585697283542048E-3    4.324931219566810E-1   -1.218109914572964E-1
 8.116305221000000E9     5.058131087408896E-1    3.530298750919597E-2    4.161462060319779E-4    3.554039897785418E-3    4.502751223202168E-4    3.574189710592731E-3    4.324132789434127E-1   -1.222203894451663E-1
 8.116311533000000E9     5.057904485354827E-1    3.489374637764936E-2    3.941392616422830E-4    3.538555050422915E-3    4.496489081504461E-4    3.599787019737564E-3    4.322783461480427E-1   -1.227053623795741E-1
 8.116317845000000E9     5.058289790641500E-1    3.439596577248425E-2    4.157104096536040E-4    3.546033171369794E-3    4.654818982840515E-4    3.601955791877861E-3    4.320991879657050E-1   -1.230659451890340E-1
 8.116324157000000E9     5.058223141115653E-1    3.394158636963165E-2    4.023803662792740E-4    3.513459214256526E-3    4.691956178121501E-4    3.603484125672780E-3    4.319216362778646E-1   -1.237029290913542E-1
 8.116330469000000E9     5.057671404110019E-1    3.338279922461949E-2    4.143738566862874E-4    3.558413290991626E-3    4.532173556493656E-4    3.610583842370048E-3    4.318874497609295E-1   -1.240041368514139E-1
 8.116336781000000E9     5.058723828536066E-1    3.303183699138187E-2    4.265025690381444E-4    3.556647578328839E-3    4.924939029636735E-4    3.571250663576855E-3    4.317133592158742E-1   -1.244250052147109E-1
 8.116343093000000E9     5.058848849582576E-1    3.242538811678034E-2    4.382701571901320E-4    3.532782282604107E-3    5.177327250636388E-4    3.585212655856164E-3    4.316620348326938E-1   -1.249082320505475E-1
 8.116349405000000E9     5.059750043430975E-1    3.194815265153626E-2    4.075028603493914E-4    3.533217693513024E-3    4.982276606695323E-4    3.611327564045433E-3    4.315311849777927E-1   -1.253553180936066E-1
 8.116355717000000E9     5.058666649000264E-1    3.154141163940859E-2    4.262579377056943E-4    3.535394844819336E-3    4.903522678186245E-4    3.619606086152238E-3    4.313976109880485E-1   -1.256892341166686E-1
 8.116362029000000E9     5.059469366476356E-1    3.104886416044435E-2    4.242355993413012E-4    3.568061702423912E-3    4.791570913905146E-4    3.578912898978839E-3    4.315076550399344E-1   -1.262369469500078E-1
 8.116368341000000E9     5.059731637714802E-1    3.068640737512692E-2    4.482534722235083E-4    3.555323345870740E-3    4.793279294959140E-4    3.601024415106434E-3    4.310848434007099E-1   -1.265943777218325E-1
 8.116374653000000E9     5.059710542619305E-1    3.010022019819949E-2    4.643486324286521E-4    3.560683904928896E-3    5.134982403383090E-4    3.602065893077399E-3    4.311852709020045E-1   -1.271932343984199E-1
 8.116380965000000E9     5.060168229545255E-1    2.967487661023432E-2    4.472825503785134E-4    3.541457883629968E-3    4.856823053359504E-4    3.594854572926800E-3    4.309771965318692E-1   -1.273693265718104E-1
 8.116387277000000E9     5.060192290267836E-1    2.911128060667657E-2    4.843405563131844E-4    3.535656082586633E-3    5.316183203200849E-4    3.639687004539153E-3    4.308542954972978E-1   -1.278192262224594E-1
 8.116393589000000E9     5.061036410910323E-1    2.864755791332853E-2    4.698980047224404E-4    3.579426990031917E-3    5.266835516337629E-4    3.593658242743210E-3    4.307041677647552E-1   -1.282590771740472E-1
 8.116399901000000E9     5.061535803787937E-1    2.812445297379783E-2    4.584103164781829E-4    3.567586813677991E-3    5.297786035212044E-4    3.616299709476181E-3    4.305840193745120E-1   -1.287986770356959E-1
 8.116406213000000E9     5.060863967693109E-1    2.772168240070186E-2    4.775050633229248E-4    3.556679553756870E-3    5.031652439372354E-4    3.632340211748007E-3    4.305704669164884E-1   -1.290411009079269E-1
 8.116412525000000E9     5.061725707671738E-1    2.722662471192867E-2    4.588450197990641E-4    3.569032271361149E-3    4.904789625724464E-4    3.609545178942789E-3    4.305438046965895E-1   -1.295341858596069E-1
 8.116418837000000E9     5.061190712613511E-1    2.689629572356658E-2    4.419762980697888E-4    3.528069725685942E-3    5.316899552009650E-4    3.606742543506880E-3    4.304608840000691E-1   -1.300036612486947E-1
 8.116425149000000E9     5.061922831819566E-1    2.622456732878551E-2    4.861979496693018E-4    3.566102193485034E-3    5.354056034308049E-4    3.614903891286621E-3    4.302679083555239E-1   -1.302157516859820E-1
 8.116431461000000E9     5.061304030594661E-1    2.589918083076869E-2    4.792483990416924E-4    3.557648644760230E-3    5.731409741010610E-4    3.623242395811703E-3    4.299492650730082E-1   -1.309602801804837E-1
 8.116437773000000E9     5.061725729190293E-1    2.532158547928609E-2    4.792803163770078E-4    3.578780288880183E-3    5.261644184465765E-4    3.606966136341460E-3    4.299679909194364E-1   -1.311887454568105E-1
 8.116444085000000E9     5.061504012695031E-1    2.497137587373307E-2    4.926274674448009E-4    3.574093085830592E-3    5.317604121548485E-4    3.626401415186021E-3    4.299122723875839E-1   -1.317121116212878E-1
 8.116450397000000E9     5.061263311533389E-1    2.440763737219458E-2    5.044811979477850E-4    3.551464365422656E-3    5.606519948649492E-4    3.635052611802535E-3    4.298601893962845E-1   -1.319959710084858E-1
 8.116456709000000E9     5.062737208184168E-1    2.389954141786598E-2    4.956997807676437E-4    3.564768113674776E-3    5.341738416596549E-4    3.636224587317498E-3    4.296760557745907E-1   -1.324826595739051E-1
 8.116463021000000E9     5.062279693251238E-1    2.345750194921237E-2    5.021174663311619E-4    3.596781203467974E-3    5.470312393266758E-4    3.610978281779210E-3    4.296501748503266E-1   -1.329146713661143E-1
 8.116469333000000E9     5.062866689015204E-1    2.290511619161427E-2    5.120565332185136E-4    3.578854030022863E-3    5.570594199837515E-4    3.657596206451787E-3    4.295847839857348E-1   -1.333878313873953E-1
 8.116475645000000E9     5.062188011178738E-1    2.240447820109357E-2    5.034619421972361E-4    3.572837554635379E-3    5.517071095011303E-4    3.628965146338051E-3    4.294056144928239E-1   -1.336918107805517E-1
 8.116481957000000E9     5.062882711727924E-1    2.198127706575667E-2    5.118329991490631E-4    3.577116341575516E-3    5.660208487148533E-4    3.628569298761076E-3    4.292462137342677E-1   -1.342000843270431E-1
 8.116488269000000E9     5.062904227481466E-1    2.157955786128047E-2    5.164456775071850E-4    3.576766224171705E-3    5.611402433269610E-4    3.629750575293774E-3    4.290632815574337E-1   -1.345494866116735E-1
 8.116494581000000E9     5.062637387794918E-1    2.115554038691990E-2    5.283339295553265E-4    3.608892861053306E-3    5.648987333342572E-4    3.631824685316696E-3    4.291434108408694E-1   -1.351334163379763E-1
 8.116500893000000E9     5.062981080192832E-1    2.053847936974232E-2    5.164905631732226E-4    3.584268578912695E-3    5.816369950571948E-4    3.619492931642213E-3    4.289495062886094E-1   -1.355495253201071E-1
 8.116507205000000E9     5.063150005637155E-1    2.016534176493147E-2    5.434388667753682E-4    3.566683167079114E-3    5.873822143998233E-4    3.637064137039077E-3    4.288340005336099E-1   -1.356861555261229E-1
 8.116513517000000E9     5.062903162529614E-1    1.965598379361757E-2    5.200610811099146E-4    3.581052824265836E-3    5.942277532649827E-4    3.632670609066086E-3    4.285122936068382E-1   -1.362078707102609E-1
 8.116519829000000E9     5.063560416658409E-1    1.925127552783236E-2    5.580077797057680E-4    3.598235222502414E-3    5.880395269455434E-4    3.619387620127466E-3    4.286048325080776E-1   -1.366128805230618E-1
 8.116526141000000E9     5.063429968992100E-1    1.872693804991422E-2    5.224300673366547E-4    3.616361504302334E-3    6.224925189874598E-4    3.645490080105041E-3    4.284183355931840E-1   -1.370011570772257E-1
 8.116532453000000E9     5.062744553117209E-1    1.821708318784150E-2    5.448771492443078E-4    3.594524845856492E-3    6.367612049527642E-4    3.642232284036077E-3    4.282402688375107E-1   -1.374962502348522E-1
 8.116538765000000E9     5.063335633287186E-1    1.777640676672120E-2    5.504587915242085E-4    3.618823016904619E-3    5.960893206786081E-4    3.640098357582885E-3    4.281485969774018E-1   -1.378401691230249E-1
 8.116545077000000E9     5.063724984142813E-1    1.721516877759815E-2    5.499143233181578E-4    3.589469386062679E-3    6.397879005473123E-4    3.612203763853878E-3    4.280524099127924E-1   -1.382972752283455E-1
 8.116551389000000E9     5.062715191240111E-1    1.671643303453637E-2    5.468977680177032E-4    3.622870162204094E-3    6.157115219068534E-4    3.642562122674875E-3    4.279537170216148E-1   -1.389232777013560E-1
 8.116557701000000E9     5.064422644170977E-1    1.628108359830242E-2    5.629239584330403E-4    3.596850802942163E-3    6.230403855172231E-4    3.629385667008593E-3    4.277041221084644E-1   -1.392108809156659E-1
 8.116564013000000E9     5.062688152655954E-1    1.589524555329834E-2    5.840308742368357E-4    3.608238465791064E-3    6.543090706172648E-4    3.669251663284808E-3    4.277973993241665E-1   -1.396773129169772E-1
 8.116570325000000E9     5.063916078553178E-1    1.533932109822400E-2    5.646545922065990E-4    3.572478649252044E-3    6.379547132729720E-4    3.685857222093929E-3    4.276152847992125E-1   -1.400520373458673E-1
 8.116576637000000E9     5.064073413141981E-1    1.491437142637149E-2    5.476510842509124E-4    3.592787360981801E-3    6.175098145333682E-4    3.656879790261009E-3    4.273916230040129E-1   -1.404308778266492E-1
 8.116582949000000E9     5.064166730027182E-1    1.432649955330993E-2    5.931407192617715E-4    3.608234837639867E-3    6.347792260388586E-4    3.674499919214019E-3    4.274792532619741E-1   -1.410279589910232E-1
 8.116589261000000E9     5.063493161045010E-1    1.384574319705023E-2    5.760050631537654E-4    3.614321739369004E-3    6.430931540169530E-4    3.703865543909711E-3    4.273921343397273E-1   -1.414040734229119E-1
 8.116595573000000E9     5.064029423380900E-1    1.346877379170283E-2    5.898672387872633E-4    3.608555169133600E-3    6.436265142697103E-4    3.676274594181509E-3    4.270954944097003E-1   -1.417566641902542E-1
 8.116601885000000E9     5.063966708556185E-1    1.288390460838565E-2    5.716189819241835E-4    3.622697146911328E-3    6.423746612182981E-4    3.647558267180030E-3    4.269322439282757E-1   -1.421707752941022E-1
 8.116608197000000E9     5.063411333992238E-1    1.243671505314045E-2    6.010114153695436E-4    3.629824977784135E-3    6.665971885631321E-4    3.700018660243600E-3    4.267606713226078E-1   -1.426119164673495E-1
 8.116614509000000E9     5.064812029115410E-1    1.187409816466842E-2    6.092693800477079E-4    3.625913489738248E-3    6.704831406222844E-4    3.684360282233391E-3    4.266735742929097E-1   -1.431196851643623E-1
 8.116620821000000E9     5.064020898978464E-1    1.142466622535488E-2    6.092337260330787E-4    3.606642364826118E-3    6.645194135499402E-4    3.663122364215505E-3    4.266097739428917E-1   -1.434161194962523E-1
 8.116627133000000E9     5.064654930004246E-1    1.096245094875990E-2    6.184193977194930E-4    3.611218169606457E-3    6.832918075831316E-4    3.672128249464933E-3    4.264100199420719E-1   -1.439966568641724E-1
 8.116633445000000E9     5.063900337831218E-1    1.053702704481695E-2    6.091466007220481E-4    3.629753547640216E-3    6.774116281461751E-4    3.686574209419343E-3    4.263243012593051E-1   -1.443393658234908E-1
 8.116639757000000E9     5.064539514962314E-1    1.010777382449875E-2    6.359874043296102E-4    3.657644540085785E-3    6.663028810726247E-4    3.662278895738506E-3    4.262151869336664E-1   -1.448512025718537E-1
 8.116646069000000E9     5.064092104055131E-1    9.685906928831029E-3    6.211617423905809E-4    3.642616122265767E-3    6.936001171084422E-4    3.689642558508028E-3    4.261395515989127E-1   -1.450961296933701E-1
 8.116652381000000E9     5.064215672812219E-1    9.124616115956963E-3    6.206462669390876E-4    3.629721134498331E-3    6.991264135635791E-4    3.690814017019755E-3    4.260533033004735E-1   -1.456082923811314E-1
 8.116658693000000E9     5.063508439979439E-1    8.593959649650953E-3    6.063961111066041E-4    3.648865803604995E-3    6.593794963911970E-4    3.661491484146385E-3    4.258866833184395E-1   -1.460756466193114E-1
 8.116665005000000E9     5.063923499798761E-1    8.213681389783782E-3    6.214536850409147E-4    3.633101343352426E-3    6.850232538993728E-4    3.739847092449205E-3    4.257489147496949E-1   -1.463277833383663E-1
 8.116671317000000E9     5.064189868073254E-1    7.661652562507212E-3    6.347129489056285E-4    3.658133032090226E-3    6.998084422846368E-4    3.708704042900954E-3    4.256069963502454E-1   -1.469432058269419E-1
 8.116677629000000E9     5.063945404954210E-1    7.149166523837670E-3    6.450314611511958E-4    3.665361044127803E-3    7.083179780328977E-4    3.709275152647070E-3    4.255992245120928E-1   -1.472803620087385E-1
 8.116683941000000E9     5.064289674293566E-1    6.540915092882630E-3    6.638156938360411E-4    3.648761473510412E-3    7.388945039009327E-4    3.757499640804765E-3    4.253887878447433E-1   -1.477239168225387E-1
 8.116690253000000E9     5.064369855306715E-1    6.144294397998218E-3    6.465525639312189E-4    3.641972157594513E-3    7.397695306637015E-4    3.702157970937713E-3    4.253222864407641E-1   -1.480589883355338E-1
 8.116696565000000E9     5.063942331501156E-1    5.665013568330373E-3    6.658455640783995E-4    3.658022054665892E-3    6.940865057122804E-4    3.707326434987109E-3    4.251220570791271E-1   -1.485420465952544E-1
 8.116702877000000E9     5.064496900978714E-1    5.230638425460337E-3    6.759320487399118E-4    3.652813588523391E-3    7.253108437313429E-4    3.700651231259147E-3    4.249357247652519E-1   -1.488407947794308E-1
 8.116709189000000E9     5.064488026410398E-1    4.784787815383335E-3    6.666902962408199E-4    3.673975437147140E-3    7.271487307166237E-4    3.736805249937956E-3    4.248249125144225E-1   -1.494770305711205E-1
 8.116715501000000E9     5.063409310401602E-1    4.116139706086602E-3    6.834520897818123E-4    3.668430692284401E-3    7.662503961187466E-4    3.695609982264353E-3    4.246727479643965E-1   -1.498163403278845E-1
 8.116721813000000E9     5.063921462194053E-1    3.785711225710829E-3    6.722105861688142E-4    3.671155741343428E-3    7.615750465924063E-4    3.726257558834368E-3    4.245967206326189E-1   -1.502827568809279E-1
 8.116728125000000E9     5.063512756470459E-1    3.328709884343752E-3    6.684972156216577E-4    3.650249645269716E-3    7.087756389738943E-4    3.724954685500502E-3    4.245126125142014E-1   -1.507611411279501E-1
 8.116734437000000E9     5.062981076441490E-1    2.798287989486342E-3    6.861948091643032E-4    3.673804492626108E-3    7.011795150042191E-4    3.748455089812161E-3    4.243512561367275E-1   -1.510360334342330E-1
 8.116740749000000E9     5.063040577613014E-1    2.346437355541195E-3    6.927908728438764E-4    3.663381105963245E-3    7.734150393229656E-4    3.743170042740164E-3    4.242100365064736E-1   -1.512997159358579E-1
 8.116747061000000E9     5.063464901847381E-1    1.824362705245486E-3    7.155465183046767E-4    3.670978006179819E-3    7.566238487275110E-4    3.741550097537863E-3    4.239820216129741E-1   -1.518337250726386E-1
 8.116753373000000E9     5.063615885634719E-1    1.348353145550813E-3    6.778512391509047E-4    3.691011204068904E-3    7.627508972617618E-4    3.769204238782953E-3    4.239371824290784E-1   -1.522452464022977E-1
 8.116759685000000E9     5.063617750170476E-1    8.291871230371341E-4    7.020767633367483E-4    3.692211753383635E-3    7.567452978769284E-4    3.748936751289152E-3    4.238249810368426E-1   -1.526053572879242E-1
 8.116765997000000E9     5.063043197968189E-1    4.478056365913410E-4    6.853157600181919E-4    3.695344219455583E-3    7.808510472669411E-4    3.763536341908010E-3    4.237236538335629E-1   -1.530705226470546E-1
 8.116772309000000E9     5.062648301364813E-1   -1.671305504561822E-4    7.024416289866440E-4    3.686683857513091E-3    7.564209870208392E-4    3.764364959365307E-3    4.237446921367031E-1   -1.534827562491776E-1
 8.116778621000000E9     5.061710606671593E-1   -5.544215939748752E-4    7.137153382351752E-4    3.682488718099405E-3    7.892452489889609E-4    3.729508298985646E-3    4.234291055695399E-1   -1.538352296753331E-1
 8.116784933000000E9     5.063283587589318E-1   -1.052927967887609E-3    7.332405187227300E-4    3.695360321305464E-3    7.711688026128623E-4    3.741443803905153E-3    4.233755125536970E-1   -1.543273841375463E-1
