#  HZ   S   RI   R     50.00 
! Rohde & Schwarz Vector Network Analyzer 
! Rohde-Schwarz,ZNB20-2Port,1311601062101988,3.16
! Created: UTC 12/23/2023, 4:03:45 AM
! freq[Hz]                re:S11                  im:S11                  re:S21                  im:S21                  re:S12                  im:S12                  re:S22                  im:S22
 6.517228939000000E9    -2.287408941642423E-1   -1.226704861032457E-2    1.378475015527172E-2   -6.039433971377817E-3    1.396737294727213E-2   -5.459087664447606E-3    2.195076391002550E-1    5.028470157650798E-1
 6.517240119400000E9    -2.286492376855212E-1   -1.212865166334536E-2    1.381026766999221E-2   -6.158939719765067E-3    1.399567431850659E-2   -5.590992075736642E-3    2.203873810698079E-1    5.024260510502028E-1
 6.517251299800000E9    -2.285365901084915E-1   -1.197361414115982E-2    1.384491070107145E-2   -6.089627818863038E-3    1.409491175585739E-2   -5.662150750524932E-3    2.213167201564061E-1    5.021786651002882E-1
 6.517262480200000E9    -2.284297792503570E-1   -1.178692849988401E-2    1.387866268202795E-2   -6.093395698291611E-3    1.402290837577656E-2   -5.737589800975603E-3    2.220157091973360E-1    5.018475921098356E-1
 6.517273660600000E9    -2.282858050440619E-1   -1.160432698199604E-2    1.398030998007482E-2   -6.206130059208162E-3    1.408023725386383E-2   -5.872307558967372E-3    2.228858308027191E-1    5.014269771565651E-1
 6.517284841000000E9    -2.281790481199389E-1   -1.149194816864528E-2    1.404984826605862E-2   -6.255286537952359E-3    1.417155770947061E-2   -5.867952139223827E-3    2.237000780983564E-1    5.011712888360682E-1
 6.517296021400000E9    -2.280049374449241E-1   -1.132336357454353E-2    1.413392337099961E-2   -6.302956702010696E-3    1.436134227122781E-2   -5.880416625600570E-3    2.246224290631602E-1    5.008890577034081E-1
 6.517307201800000E9    -2.279409356066871E-1   -1.106047621740400E-2    1.428993686659905E-2   -6.478748066546437E-3    1.432214271931492E-2   -5.950011167933256E-3    2.251868009522900E-1    5.004052404957654E-1
 6.517318382200000E9    -2.277623815222036E-1   -1.100896129461863E-2    1.423094060258169E-2   -6.490844242371386E-3    1.443440407309938E-2   -5.890158338767882E-3    2.260149427334682E-1    5.001640854041223E-1
 6.517329562600000E9    -2.277260403026836E-1   -1.083196257244872E-2    1.429579804432401E-2   -6.543634073908160E-3    1.449465571629891E-2   -5.952669213643604E-3    2.270383196414304E-1    4.997290735071704E-1
 6.517340743000000E9    -2.275043040337107E-1   -1.078194689326032E-2    1.444618029539693E-2   -6.734699170689450E-3    1.448226763232735E-2   -6.071556476996346E-3    2.276426101891497E-1    4.992954079444066E-1
 6.517351923400000E9    -2.273355420589855E-1   -1.055825676670816E-2    1.450521146807473E-2   -6.482532998505258E-3    1.446958205102754E-2   -6.149141221411971E-3    2.285543441048966E-1    4.989692076640318E-1
 6.517363103800000E9    -2.271985166222138E-1   -1.022159774824397E-2    1.444782557812774E-2   -6.755926673718215E-3    1.459265121053512E-2   -6.194366621218213E-3    2.294667258235304E-1    4.985494654607051E-1
 6.517374284200000E9    -2.269757917058513E-1   -1.019433577691712E-2    1.440709514338879E-2   -6.810175039301066E-3    1.470336770855407E-2   -6.253441125179495E-3    2.302506097857973E-1    4.981959766661297E-1
 6.517385464600000E9    -2.269638294095751E-1   -1.005652479781258E-2    1.457516513366627E-2   -6.802373608237058E-3    1.479768154826279E-2   -6.330959737494836E-3    2.310218246173242E-1    4.978381614634870E-1
 6.517396645000000E9    -2.268523676852604E-1   -9.833897867781077E-3    1.460039874294299E-2   -6.910241888711363E-3    1.479592454410746E-2   -6.505366809358161E-3    2.318749489857352E-1    4.975611485888488E-1
 6.517407825400000E9    -2.267025716598481E-1   -9.756647667155387E-3    1.481594926579053E-2   -6.899834772735492E-3    1.491834484630382E-2   -6.438983755756088E-3    2.327219089946543E-1    4.970923256749376E-1
 6.517419005800000E9    -2.265963772019411E-1   -9.542336858377650E-3    1.488004570975229E-2   -7.105728762580108E-3    1.489914580789825E-2   -6.429703642085041E-3    2.336248557185318E-1    4.966625832010814E-1
 6.517430186200000E9    -2.265407274491446E-1   -9.415826540248532E-3    1.472317604932124E-2   -7.130152958619108E-3    1.513043036684435E-2   -6.562887039268782E-3    2.343300847607791E-1    4.963595805771223E-1
 6.517441366600000E9    -2.262906540779767E-1   -9.268826015832857E-3    1.482500261999033E-2   -7.111364638769886E-3    1.508105710513811E-2   -6.610435834932040E-3    2.352418354214201E-1    4.959782307896730E-1
 6.517452547000000E9    -2.261428168056488E-1   -9.043503569744942E-3    1.504133117726011E-2   -7.251215947710981E-3    1.517821470233691E-2   -6.730471101380970E-3    2.360023135068926E-1    4.955324550798850E-1
 6.517463727400000E9    -2.259404296566799E-1   -8.934149241887080E-3    1.504044142821926E-2   -7.261705466713014E-3    1.525326651130965E-2   -6.747087566183771E-3    2.368882052237431E-1    4.952210531949971E-1
 6.517474907800000E9    -2.258836352499717E-1   -8.795072576321235E-3    1.510047569683779E-2   -7.330981694091658E-3    1.529295030253179E-2   -6.845622742804758E-3    2.377190997094087E-1    4.948218804080689E-1
 6.517486088200000E9    -2.257751652646069E-1   -8.631164109336455E-3    1.518242526125449E-2   -7.527549548421543E-3    1.545232359923790E-2   -6.927644145470990E-3    2.385149051215948E-1    4.944735187792795E-1
 6.517497268600000E9    -2.255419760461660E-1   -8.539517717033899E-3    1.520472774065009E-2   -7.453125144912798E-3    1.551945721554947E-2   -6.874819856745857E-3    2.393165302955760E-1    4.939919678218956E-1
 6.517508449000000E9    -2.254920521335926E-1   -8.350896645157639E-3    1.535549110203915E-2   -7.553506527576188E-3    1.539042872382321E-2   -7.043717365452638E-3    2.401758135675926E-1    4.937242284496071E-1
 6.517519629400000E9    -2.252565271387953E-1   -8.342484641107087E-3    1.543364322738022E-2   -7.599371711006589E-3    1.554117231020809E-2   -7.054397584826952E-3    2.408842764948671E-1    4.931609263369013E-1
 6.517530809800000E9    -2.252678264923184E-1   -8.007883052377311E-3    1.551979290590827E-2   -7.645472577350888E-3    1.569532849315861E-2   -7.163698577056612E-3    2.418438630223088E-1    4.928569413744852E-1
 6.517541990200000E9    -2.250913866050168E-1   -8.035485144240852E-3    1.564738121207841E-2   -7.838516176849733E-3    1.577233472129629E-2   -7.252961418983435E-3    2.427074998738405E-1    4.926441255814747E-1
 6.517553170600000E9    -2.248655964694222E-1   -7.725430016604945E-3    1.572710185990883E-2   -7.849750599147510E-3    1.578990169140642E-2   -7.348926007633738E-3    2.433797223792526E-1    4.919507248166350E-1
 6.517564351000000E9    -2.247119090900793E-1   -7.678145121898373E-3    1.568110162729721E-2   -8.001343702905287E-3    1.586852747283709E-2   -7.292350796465971E-3    2.442486390657836E-1    4.917095003294311E-1
 6.517575531400000E9    -2.246210048444508E-1   -7.482245938768544E-3    1.570631351829957E-2   -8.034991711819362E-3    1.582465913279508E-2   -7.499268103788630E-3    2.450810493433915E-1    4.914231673385699E-1
 6.517586711800000E9    -2.244067862926150E-1   -7.380641945204638E-3    1.581159642127681E-2   -8.161910383030123E-3    1.601480537264643E-2   -7.385105543526338E-3    2.458016828167659E-1    4.909559239193603E-1
 6.517597892200000E9    -2.243034652521699E-1   -7.124906706964381E-3    1.588392835156624E-2   -8.148848828040005E-3    1.603551942974360E-2   -7.616717340264791E-3    2.467032655462673E-1    4.904811552767577E-1
 6.517609072600000E9    -2.241688829003245E-1   -7.108055256040339E-3    1.609490681829218E-2   -8.309076417966443E-3    1.610789932457877E-2   -7.691468938912096E-3    2.474514093492227E-1    4.900197011348996E-1
 6.517620253000000E9    -2.240635414860640E-1   -6.910876493276052E-3    1.593193825993487E-2   -8.322371222143887E-3    1.638417581715571E-2   -7.770859571693908E-3    2.482708924104455E-1    4.897612092147122E-1
 6.517631433400000E9    -2.239043691928872E-1   -6.804836518638236E-3    1.605866279419954E-2   -8.355378493966796E-3    1.634093029313020E-2   -7.948858051004067E-3    2.490856561939239E-1    4.892789182558518E-1
 6.517642613800000E9    -2.237151288189959E-1   -6.675627583472793E-3    1.615246989250498E-2   -8.367975942620450E-3    1.645785571560186E-2   -7.869527361938704E-3    2.497960146588297E-1    4.889402165986060E-1
 6.517653794200000E9    -2.235313495397102E-1   -6.465357543149380E-3    1.620444634583518E-2   -8.450679815544622E-3    1.649537214309116E-2   -8.045270606970148E-3    2.506285508469281E-1    4.883942770975685E-1
 6.517664974600000E9    -2.233844515543857E-1   -6.379841337774126E-3    1.628628065869743E-2   -8.729297905895394E-3    1.660237007170555E-2   -8.112234043113762E-3    2.515804368982569E-1    4.880695925814421E-1
 6.517676155000000E9    -2.232331683866091E-1   -6.189618694602466E-3    1.646908513770495E-2   -8.822126930325891E-3    1.679614844853946E-2   -8.284684545034610E-3    2.524901829880017E-1    4.875923548331897E-1
 6.517687335400000E9    -2.229968897769157E-1   -6.148049756064681E-3    1.643616510220186E-2   -8.831481654451833E-3    1.674692633595026E-2   -8.273998702309965E-3    2.531940393611274E-1    4.869602209655404E-1
 6.517698515800000E9    -2.228646444292818E-1   -6.067019523190447E-3    1.651460809681431E-2   -8.943295719863104E-3    1.690419020330356E-2   -8.417951902553631E-3    2.540895171577450E-1    4.866962499968020E-1
 6.517709696200000E9    -2.226325907362275E-1   -5.884695790232425E-3    1.664457643276424E-2   -8.950758889934780E-3    1.694115461524452E-2   -8.498216173653371E-3    2.549280890883667E-1    4.862930117041783E-1
 6.517720876600000E9    -2.226016043506054E-1   -5.728014251818081E-3    1.672244336619406E-2   -8.999553594245783E-3    1.707210286596750E-2   -8.499263550590953E-3    2.557736856157745E-1    4.858372243927757E-1
 6.517732057000000E9    -2.222787423044312E-1   -5.616204408557214E-3    1.683913118116397E-2   -9.203631668898640E-3    1.706974693880786E-2   -8.640831369963497E-3    2.565885216453113E-1    4.854393869942608E-1
 6.517743237400000E9    -2.223113165174717E-1   -5.553273443388037E-3    1.683243592047351E-2   -9.313314246205358E-3    1.707778768272761E-2   -8.711725245653923E-3    2.572612350601082E-1    4.850365810225225E-1
 6.517754417800000E9    -2.221803144669117E-1   -5.439094542682258E-3    1.692975114351486E-2   -9.408528073985812E-3    1.726985392660103E-2   -8.724712448301525E-3    2.581572836161753E-1    4.845152126536896E-1
 6.517765598200000E9    -2.218700448972007E-1   -5.288073481086617E-3    1.700399850370391E-2   -9.477429302405065E-3    1.734121290349520E-2   -8.957788162250927E-3    2.590031454096248E-1    4.841309748579959E-1
 6.517776778600000E9    -2.217009608590348E-1   -5.154316474197562E-3    1.728815947793673E-2   -9.559309548040065E-3    1.743191606392683E-2   -9.056676552231611E-3    2.598386809093917E-1    4.836282427868155E-1
 6.517787959000000E9    -2.214987461106038E-1   -5.076877186279314E-3    1.731207457752574E-2   -9.699962150031568E-3    1.752653306583743E-2   -9.145062162257406E-3    2.606345138587013E-1    4.832594091456428E-1
 6.517799139400000E9    -2.212727787195744E-1   -4.925006617307011E-3    1.735316471774428E-2   -9.768218017044004E-3    1.766703734434823E-2   -9.218653705575798E-3    2.615169142459647E-1    4.828647804984162E-1
 6.517810319800000E9    -2.211147395772524E-1   -4.829493716403387E-3    1.752829157662610E-2   -9.921228064862037E-3    1.778090340303443E-2   -9.345622537871329E-3    2.622703951076591E-1    4.824507578266783E-1
 6.517821500200000E9    -2.210703553936212E-1   -4.567129772703691E-3    1.753522787397743E-2   -9.963751188490305E-3    1.784775086000923E-2   -9.335328262847878E-3    2.631337440334896E-1    4.818460796142241E-1
 6.517832680600000E9    -2.208671920489827E-1   -4.576768209886109E-3    1.766089617452845E-2   -1.011250765904769E-2    1.794362845134814E-2   -9.522487479187394E-3    2.639381205018924E-1    4.813858814293035E-1
 6.517843861000000E9    -2.205929303509575E-1   -4.410745581066293E-3    1.783299454331936E-2   -1.017689109995535E-2    1.808805189365014E-2   -9.561689957594660E-3    2.647525822103157E-1    4.810107657101211E-1
 6.517855041400000E9    -2.204185018034063E-1   -4.333166367545732E-3    1.786621961784693E-2   -1.024876255750575E-2    1.802029826015528E-2   -9.622736103150151E-3    2.657112557255371E-1    4.804485074173188E-1
 6.517866221800000E9    -2.202488297679062E-1   -4.353061692530001E-3    1.795792398430272E-2   -1.039008791562906E-2    1.835522740272032E-2   -9.798055321532308E-3    2.663879044241974E-1    4.801265162327509E-1
 6.517877402200000E9    -2.201411074060742E-1   -4.086778255755428E-3    1.778747639196012E-2   -1.056695229451536E-2    1.832198644023964E-2   -1.000345140419655E-2    2.671339844631240E-1    4.796176866797626E-1
 6.517888582600000E9    -2.199305313782496E-1   -3.974956667990651E-3    1.821141499257245E-2   -1.057996396948457E-2    1.843586245266728E-2   -1.006639448646863E-2    2.682524332029138E-1    4.790705551302914E-1
 6.517899763000000E9    -2.196953089340291E-1   -3.907149868532994E-3    1.828636871434810E-2   -1.063149620823136E-2    1.854702575526152E-2   -1.017430270814083E-2    2.690107720588648E-1    4.786169426465174E-1
 6.517910943400000E9    -2.195434794240575E-1   -3.812654437360312E-3    1.835849344913074E-2   -1.079891958399799E-2    1.864311846472030E-2   -1.025639610316438E-2    2.696851748356905E-1    4.781161113336249E-1
 6.517922123800000E9    -2.193228068162379E-1   -3.734330835509583E-3    1.839051951009511E-2   -1.115009720667394E-2    1.871220522758283E-2   -1.029710673608865E-2    2.706443246745688E-1    4.777896620315617E-1
 6.517933304200000E9    -2.191485058708720E-1   -3.704084208354902E-3    1.853788232059513E-2   -1.107332987361828E-2    1.881420485849765E-2   -1.043746905648823E-2    2.713546129697849E-1    4.771243001581563E-1
 6.517944484600000E9    -2.190258863559856E-1   -3.519982174886123E-3    1.862807244197131E-2   -1.126502899475655E-2    1.912033695944737E-2   -1.062538733519617E-2    2.723050086352054E-1    4.766708165253487E-1
 6.517955665000000E9    -2.188508798766651E-1   -3.475202481245825E-3    1.867570249273974E-2   -1.118987076343021E-2    1.905665247875264E-2   -1.062444493841806E-2    2.731185079209543E-1    4.760728774475562E-1
 6.517966845400000E9    -2.185685909885534E-1   -3.281546699832518E-3    1.881968360233275E-2   -1.144105234879626E-2    1.913923688175935E-2   -1.086693872833981E-2    2.738921993961060E-1    4.758425481308831E-1
 6.517978025800000E9    -2.182960509148437E-1   -3.324922805338992E-3    1.884927631501811E-2   -1.149785264472933E-2    1.920791040683161E-2   -1.093870174646318E-2    2.746361339637438E-1    4.752518127767509E-1
 6.517989206200000E9    -2.181090918476797E-1   -3.218204053072138E-3    1.906583049126588E-2   -1.182086332531237E-2    1.946114427297055E-2   -1.120965002631888E-2    2.754359761530846E-1    4.747494777954659E-1
 6.518000386600000E9    -2.180164790718669E-1   -3.071818196324774E-3    1.922270345997595E-2   -1.190708731479024E-2    1.953735297058741E-2   -1.121724493766955E-2    2.763432903714518E-1    4.744079151655751E-1
 6.518011567000000E9    -2.177374051163259E-1   -3.004443581991145E-3    1.919590657905745E-2   -1.216532760201806E-2    1.969014513764708E-2   -1.136028104110056E-2    2.771992545087392E-1    4.737690851698586E-1
 6.518022747400000E9    -2.175464762459818E-1   -2.839908644689089E-3    1.935448066843733E-2   -1.203286024648692E-2    1.970612614377652E-2   -1.146457567209310E-2    2.780078856082532E-1    4.732715842575516E-1
 6.518033927800000E9    -2.173313527041793E-1   -2.771453647833674E-3    1.954930336851202E-2   -1.226751262821377E-2    1.984795529061573E-2   -1.143256046333775E-2    2.788119310377573E-1    4.727466252649519E-1
 6.518045108200000E9    -2.171981803517535E-1   -2.785021388654667E-3    1.963442776468997E-2   -1.246355005292374E-2    2.008479131891316E-2   -1.177882523000600E-2    2.796288619831555E-1    4.722009427363261E-1
 6.518056288600000E9    -2.169540941758571E-1   -2.703158434817801E-3    1.977355045467796E-2   -1.261387911057295E-2    2.013194327610212E-2   -1.192957265120131E-2    2.806481668502811E-1    4.718271079253113E-1
 6.518067469000000E9    -2.166230430598160E-1   -2.651366835205035E-3    1.994161323323644E-2   -1.264515264062838E-2    2.024153100283968E-2   -1.207629391540775E-2    2.812093173059899E-1    4.713270433590666E-1
 6.518078649400000E9    -2.165594565646121E-1   -2.535237509763425E-3    1.988231497604513E-2   -1.280695286869807E-2    2.041265475194578E-2   -1.223126481918044E-2    2.822786252506733E-1    4.706333248943518E-1
 6.518089829800000E9    -2.163274731188810E-1   -2.503082099121542E-3    2.016775419626374E-2   -1.304671980598735E-2    2.041343230484339E-2   -1.230772039881694E-2    2.830536656551367E-1    4.701696354277631E-1
 6.518101010200000E9    -2.160060312153489E-1   -2.525491038665758E-3    2.029050660019417E-2   -1.312945348558502E-2    2.071249484687649E-2   -1.249872842730521E-2    2.838080524605498E-1    4.695647207175521E-1
 6.518112190600000E9    -2.157190812731345E-1   -2.447388968338045E-3    2.031992150507019E-2   -1.334464791057489E-2    2.082231407024856E-2   -1.263340014731484E-2    2.846895563498438E-1    4.691680061105790E-1
 6.518123371000000E9    -2.155092129150840E-1   -2.317852619216784E-3    2.046682625290206E-2   -1.341780487168368E-2    2.100166693482110E-2   -1.279910704934470E-2    2.855778075788027E-1    4.686871986135455E-1
 6.518134551400000E9    -2.153433147758601E-1   -2.227886068094397E-3    2.046440685379848E-2   -1.369614553462309E-2    2.097315495929195E-2   -1.303285930661672E-2    2.863804319124325E-1    4.680006264274307E-1
 6.518145731800000E9    -2.151258877222150E-1   -2.137738966504813E-3    2.066382190401695E-2   -1.375743072475171E-2    2.114569573907584E-2   -1.314405210197152E-2    2.871064113439923E-1    4.675138716683041E-1
 6.518156912200000E9    -2.148157165061551E-1   -2.099746147396454E-3    2.086132466206382E-2   -1.394722457707858E-2    2.129051873318413E-2   -1.325863352270451E-2    2.880406652320824E-1    4.669426539430399E-1
 6.518168092600000E9    -2.145829714982262E-1   -2.106164549455789E-3    2.092957430172187E-2   -1.425033767574640E-2    2.150419843088904E-2   -1.359376460620822E-2    2.889423994234947E-1    4.663848527775972E-1
 6.518179273000000E9    -2.143431330393726E-1   -2.072972708106129E-3    2.102293876351990E-2   -1.435122300460519E-2    2.156512973664078E-2   -1.367263066181802E-2    2.895986532884942E-1    4.659608449092655E-1
 6.518190453400000E9    -2.141527979296100E-1   -2.035762550639487E-3    2.125314787554442E-2   -1.448466011610641E-2    2.180721071406005E-2   -1.368868703736218E-2    2.905166775691929E-1    4.652259464281097E-1
 6.518201633800000E9    -2.139678830937163E-1   -1.963428445350789E-3    2.135861440895188E-2   -1.474971853571020E-2    2.178345142221876E-2   -1.405311631528998E-2    2.914715222886011E-1    4.647601595890170E-1
 6.518212814200000E9    -2.136368260405346E-1   -1.974918360127774E-3    2.149974478047048E-2   -1.484262143490949E-2    2.199761525919425E-2   -1.422237671207433E-2    2.921707688005613E-1    4.643977483074281E-1
 6.518223994600000E9    -2.133250950028364E-1   -1.939187655350006E-3    2.169536827190313E-2   -1.509362524728060E-2    2.220156483638818E-2   -1.430371848124195E-2    2.931129088283611E-1    4.636101714622993E-1
 6.518235175000000E9    -2.131268483014701E-1   -1.968803779703310E-3    2.188366455639866E-2   -1.536540249528693E-2    2.229091352523653E-2   -1.451060682033314E-2    2.937864191464419E-1    4.629698461723075E-1
