#  HZ   S   RI   R     50.00 
! Rohde & Schwarz Vector Network Analyzer 
! Rohde-Schwarz,ZNB20-2Port,1311601062101988,3.16
! Created: UTC 3/20/2024, 11:49:19 AM
! freq[Hz]                re:S11                  im:S11                  re:S21                  im:S21                  re:S12                  im:S12                  re:S22                  im:S22
 8.116162051000000E9     5.049807137091442E-1    4.611338972713624E-2    3.119082806589928E-4    3.500182021969070E-3    3.852762068731947E-4    3.560841688612854E-3    4.344211693208589E-1   -1.126928291275768E-1
 8.116168583200000E9     5.050193211108965E-1    4.562155155534005E-2    3.223150568204126E-4    3.497455066597501E-3    3.578075418303516E-4    3.557288302024601E-3    4.345320211658206E-1   -1.130633771093244E-1
 8.116175115400000E9     5.050926284650717E-1    4.518901680222993E-2    3.039491743715721E-4    3.512127965152599E-3    3.985604344475074E-4    3.564542296412847E-3    4.345470015506865E-1   -1.133389047737200E-1
 8.116181647600000E9     5.051015031448024E-1    4.452635859455946E-2    3.201744109119508E-4    3.508235646675884E-3    3.638829276419559E-4    3.563456796734599E-3    4.342223386817383E-1   -1.137938568160314E-1
 8.116188179800000E9     5.051035141729910E-1    4.417651037452920E-2    3.407750246410305E-4    3.519211801362099E-3    3.887878283375003E-4    3.550642568691454E-3    4.341350813343068E-1   -1.142276183594265E-1
 8.116194712000000E9     5.051972719159340E-1    4.362064748311445E-2    3.639528386581422E-4    3.513365404844683E-3    4.169806487650432E-4    3.597483699742414E-3    4.341113869341729E-1   -1.148358080840738E-1
 8.116201244200000E9     5.051794449360870E-1    4.313094891014495E-2    3.115067863090162E-4    3.500138531245688E-3    3.985129636381308E-4    3.548185980696576E-3    4.339958883509618E-1   -1.152205612636672E-1
 8.116207776400000E9     5.052009245043109E-1    4.259165233894613E-2    3.307340919225964E-4    3.531614602719685E-3    3.612034704581396E-4    3.525135713753675E-3    4.337472487412315E-1   -1.156581323285529E-1
 8.116214308600000E9     5.052909679996949E-1    4.200791400365025E-2    3.522541274576680E-4    3.513571831450396E-3    4.140358797230357E-4    3.526767619471301E-3    4.338227370898718E-1   -1.160585199574283E-1
 8.116220840800000E9     5.052866429362756E-1    4.160376697380992E-2    3.724326591930049E-4    3.537539962100749E-3    4.237530152664486E-4    3.557086050036591E-3    4.335760184853686E-1   -1.164536910255072E-1
 8.116227373000000E9     5.052810983894127E-1    4.105924133777867E-2    3.624562937189814E-4    3.515074438875355E-3    3.844272150234528E-4    3.572100261006374E-3    4.335044887696555E-1   -1.168981211513417E-1
 8.116233905200000E9     5.053042690691175E-1    4.062655506860884E-2    3.480021250738884E-4    3.529913560852731E-3    4.254325849640186E-4    3.544777694712071E-3    4.335077675523455E-1   -1.174097244777654E-1
 8.116240437400000E9     5.052875943840075E-1    4.011253087717889E-2    3.719059808331368E-4    3.538023825433733E-3    4.462413947801161E-4    3.601424165443659E-3    4.332978053399941E-1   -1.176706141216088E-1
 8.116246969600000E9     5.053596644484840E-1    3.966643810353736E-2    3.813653833977075E-4    3.501501537056927E-3    4.264949477529290E-4    3.561635149663365E-3    4.332104400947714E-1   -1.183201493945958E-1
 8.116253501800000E9     5.054180336268020E-1    3.899521885048936E-2    3.512888897405009E-4    3.516946835088646E-3    4.507502235518160E-4    3.593571951824674E-3    4.331691035341326E-1   -1.186777060234812E-1
 8.116260034000000E9     5.054195328173540E-1    3.865277622012326E-2    3.610551282800567E-4    3.509348135680662E-3    4.124092537932500E-4    3.590275154464946E-3    4.330336462162959E-1   -1.192368590066464E-1
 8.116266566200000E9     5.055189965130902E-1    3.814120740911221E-2    3.748121047685454E-4    3.541551784974881E-3    4.345948311433034E-4    3.582612801048615E-3    4.329596517187560E-1   -1.195634158639243E-1
 8.116273098400000E9     5.055053337064491E-1    3.761552231819119E-2    3.878341268507620E-4    3.530616071733724E-3    4.301034502893214E-4    3.611299913659607E-3    4.328758135064902E-1   -1.199658626888856E-1
 8.116279630600000E9     5.055756529404833E-1    3.723773837192179E-2    4.057217855288881E-4    3.527044757182879E-3    4.272907984589397E-4    3.582984615660741E-3    4.327977818731040E-1   -1.205366556901158E-1
 8.116286162800000E9     5.055631036870669E-1    3.664632070802630E-2    3.886938163132421E-4    3.535083606424223E-3    4.795097915151449E-4    3.594803238218351E-3    4.325976472742230E-1   -1.210093003681079E-1
 8.116292695000000E9     5.055720144476651E-1    3.615165913484444E-2    4.123191944260087E-4    3.534058712968383E-3    4.319964754544685E-4    3.608742164268723E-3    4.325088792107457E-1   -1.214224847673335E-1
 8.116299227200000E9     5.055808478858319E-1    3.575496928036243E-2    3.879836557280421E-4    3.531066180334043E-3    4.728663609369326E-4    3.569772899542730E-3    4.325128874417213E-1   -1.219089110250591E-1
 8.116305759400000E9     5.057042639475210E-1    3.523425626449473E-2    4.082089118651486E-4    3.532718114345715E-3    4.329672695103052E-4    3.607755956550465E-3    4.322658199976613E-1   -1.221930954276940E-1
 8.116312291600000E9     5.056933726415408E-1    3.479161454882104E-2    4.064122064924061E-4    3.532890046004598E-3    4.945296151712104E-4    3.595149089110194E-3    4.322886727817825E-1   -1.228103100129821E-1
 8.116318823800000E9     5.057197435512876E-1    3.429340196531939E-2    3.968134400842102E-4    3.532506151713825E-3    5.008788724647319E-4    3.576730385971416E-3    4.321240891609590E-1   -1.232808396229524E-1
 8.116325356000000E9     5.056738874306927E-1    3.378600624551101E-2    4.083852852500217E-4    3.554338666719301E-3    4.569464655689236E-4    3.619467037131984E-3    4.321059710828452E-1   -1.235055584449503E-1
 8.116331888200000E9     5.058117101313084E-1    3.325797449962329E-2    4.244437958429810E-4    3.551419962974301E-3    4.718602417454676E-4    3.589069165769424E-3    4.319237652234315E-1   -1.240835889504439E-1
 8.116338420400000E9     5.057714158720087E-1    3.261380988191028E-2    4.222047955099601E-4    3.540795497902451E-3    4.436477642663258E-4    3.573133211353109E-3    4.317969171850643E-1   -1.244233629518503E-1
 8.116344952600000E9     5.058368813570058E-1    3.225304566466140E-2    4.096043053830431E-4    3.528610256175443E-3    4.905077178026640E-4    3.598438311391134E-3    4.316982413133159E-1   -1.249483549827011E-1
 8.116351484800000E9     5.057603457442602E-1    3.187599125670736E-2    4.123499279790813E-4    3.534525025773010E-3    5.022196665341950E-4    3.601003662931705E-3    4.315673180625049E-1   -1.252572552280290E-1
 8.116358017000000E9     5.058914746986833E-1    3.119272016454739E-2    4.241459946230348E-4    3.544007361099227E-3    4.920736681583696E-4    3.630350045861275E-3    4.314459269975788E-1   -1.256184446911434E-1
 8.116364549200000E9     5.058904635041913E-1    3.068462428469443E-2    4.377308132993762E-4    3.570060600283846E-3    4.776465319331198E-4    3.596357536356776E-3    4.312950350447303E-1   -1.261453289513266E-1
 8.116371081400000E9     5.058952243774264E-1    3.025905991180766E-2    4.506521415675209E-4    3.552870280513840E-3    4.972905613030671E-4    3.592097060969378E-3    4.312988310880739E-1   -1.266444830005935E-1
 8.116377613600000E9     5.059569246666362E-1    2.979018690030471E-2    4.582898078299911E-4    3.543223279817921E-3    4.684068187693937E-4    3.603336171487892E-3    4.312635716950500E-1   -1.270696614114398E-1
 8.116384145800000E9     5.059395339597520E-1    2.920445937379729E-2    4.705975832358360E-4    3.536721082341695E-3    4.753060508111748E-4    3.611829894218585E-3    4.310182649864577E-1   -1.275861831688705E-1
 8.116390678000000E9     5.059886501079423E-1    2.884606925753739E-2    4.581617491407934E-4    3.544102937726546E-3    4.944690532484357E-4    3.572981539143294E-3    4.309148334528101E-1   -1.279993764979159E-1
 8.116397210200000E9     5.060569221218851E-1    2.833879838952070E-2    4.490953040528972E-4    3.560680513920929E-3    5.196274884225787E-4    3.614887209559716E-3    4.307369386352124E-1   -1.284562616885878E-1
 8.116403742400000E9     5.059614614179978E-1    2.782015692882367E-2    4.772857852980113E-4    3.575223605103417E-3    5.188775010758622E-4    3.623402508978177E-3    4.306898228598501E-1   -1.288346053387118E-1
 8.116410274600000E9     5.060363267666190E-1    2.738813120360900E-2    4.552952364513632E-4    3.536507215144293E-3    5.467913830637962E-4    3.644795369444105E-3    4.305327066276847E-1   -1.294577830709009E-1
 8.116416806800000E9     5.060784590284084E-1    2.680537913668333E-2    4.679814022943412E-4    3.566016684101995E-3    5.531021963838400E-4    3.601309991759255E-3    4.304764193706070E-1   -1.296709254123752E-1
 8.116423339000000E9     5.060100129932000E-1    2.634672039892425E-2    4.881585642378952E-4    3.551124812929962E-3    5.183094474955014E-4    3.593654313116910E-3    4.302324116710059E-1   -1.303432690518262E-1
 8.116429871200000E9     5.060589564252105E-1    2.585136406830964E-2    4.806906382563462E-4    3.586185582318981E-3    5.323689763645389E-4    3.601161865300532E-3    4.302352704180413E-1   -1.306841454668873E-1
 8.116436403400000E9     5.061795151986830E-1    2.535720990355042E-2    4.595637557174302E-4    3.565671209805878E-3    5.556868987006388E-4    3.612592882456318E-3    4.300276991969224E-1   -1.310803204258249E-1
 8.116442935600000E9     5.059664945242683E-1    2.486777966102720E-2    4.720487704935886E-4    3.569875247359006E-3    5.618532067796488E-4    3.605358540770922E-3    4.297919614304822E-1   -1.316133669905744E-1
 8.116449467800000E9     5.060379734479830E-1    2.438034502022777E-2    5.039299591610911E-4    3.569466617181072E-3    5.262185276791053E-4    3.669811795277850E-3    4.298454818844071E-1   -1.319726934396213E-1
 8.116456000000000E9     5.060220319669818E-1    2.387692917936309E-2    4.925314470428891E-4    3.580533790937981E-3    5.187672389553551E-4    3.637101933306293E-3    4.297449419240948E-1   -1.324929084919379E-1
 8.116462532200000E9     5.061777360788111E-1    2.337783654374118E-2    4.901446568495588E-4    3.575676712510454E-3    5.652948588815270E-4    3.621254571329404E-3    4.295739172617649E-1   -1.327056983929028E-1
 8.116469064400000E9     5.061633304722071E-1    2.283183099940740E-2    5.266717650181959E-4    3.572467188162204E-3    5.495500404369121E-4    3.656743481073070E-3    4.294650444067586E-1   -1.333224432521866E-1
 8.116475596600000E9     5.061043030568304E-1    2.243724415461350E-2    5.048469361186836E-4    3.602347570563410E-3    5.642148133084575E-4    3.641435236639714E-3    4.295115827209910E-1   -1.337087406610404E-1
 8.116482128800000E9     5.061928713936291E-1    2.195674579285353E-2    5.129284187627076E-4    3.579826057447134E-3    5.697771335092918E-4    3.614932941073644E-3    4.292939462181747E-1   -1.341997995630746E-1
 8.116488661000000E9     5.062031781139849E-1    2.144501397391503E-2    5.272980813209318E-4    3.606109389350289E-3    5.653257166254322E-4    3.616631799167199E-3    4.290809174727589E-1   -1.345347394386698E-1
 8.116495193200000E9     5.061545430770940E-1    2.093753836069002E-2    5.188885557967757E-4    3.596591111492698E-3    6.014041244299151E-4    3.649093570395247E-3    4.291238990830130E-1   -1.350996710038956E-1
 8.116501725400000E9     5.061701900469603E-1    2.046633598084484E-2    5.099747219707449E-4    3.589479872848334E-3    5.879005994885620E-4    3.677558087980500E-3    4.287952550406703E-1   -1.355393714853347E-1
 8.116508257600000E9     5.061016050258269E-1    1.992593433609357E-2    5.147242347206915E-4    3.578211998684764E-3    6.217577321535756E-4    3.646549375833679E-3    4.286594115097667E-1   -1.359001940518805E-1
 8.116514789800000E9     5.062200841427268E-1    1.940367291346174E-2    5.349242757667006E-4    3.597994092796162E-3    5.779929443339445E-4    3.642484959747003E-3    4.285977246419772E-1   -1.361692625634501E-1
 8.116521322000000E9     5.061765270821076E-1    1.897905519021202E-2    5.309815543993719E-4    3.604526624301115E-3    6.040219079598106E-4    3.657626616034681E-3    4.285579005332866E-1   -1.367706164963771E-1
 8.116527854200000E9     5.061329003636281E-1    1.837032622601813E-2    5.356212227553965E-4    3.610773670574538E-3    5.953295260178802E-4    3.671245327053479E-3    4.284393945443669E-1   -1.372737758235744E-1
 8.116534386400000E9     5.062289118418618E-1    1.782898783917886E-2    5.581415358164511E-4    3.598254234928319E-3    6.101568322922183E-4    3.625559065569158E-3    4.282998917115408E-1   -1.377289059599823E-1
 8.116540918600000E9     5.062941491436576E-1    1.737895307179388E-2    5.504288751945399E-4    3.602161288731151E-3    6.191160872675574E-4    3.655274911591078E-3    4.281710379356271E-1   -1.380287859356272E-1
 8.116547450800000E9     5.062478723152609E-1    1.689604647145619E-2    5.748939132499952E-4    3.619572609916360E-3    6.353535212453921E-4    3.675790216177274E-3    4.280102736230432E-1   -1.384567658351614E-1
 8.116553983000000E9     5.063746503814271E-1    1.650212387251438E-2    5.490844112862280E-4    3.580226396888101E-3    6.092403607003832E-4    3.639182380884965E-3    4.278479859628194E-1   -1.389813196017179E-1
 8.116560515200000E9     5.063052042610491E-1    1.591115279285939E-2    5.455050200990283E-4    3.614074488137141E-3    6.024004133827012E-4    3.689860713524811E-3    4.278629692574973E-1   -1.393441503167753E-1
 8.116567047400000E9     5.063842748823699E-1    1.539546988185410E-2    5.504937348041976E-4    3.612748215958005E-3    6.222470178811107E-4    3.666408145273076E-3    4.275988382200955E-1   -1.398089788057743E-1
 8.116573579600000E9     5.062363649482965E-1    1.496538765626565E-2    5.664235566558359E-4    3.620840786139494E-3    6.448338341123519E-4    3.686582894905992E-3    4.275811693019915E-1   -1.402187739706182E-1
 8.116580111800000E9     5.062381368999875E-1    1.452203931567314E-2    5.656724068478601E-4    3.604384695281903E-3    6.391898191858711E-4    3.634060201943261E-3    4.273651913049289E-1   -1.407772945682853E-1
 8.116586644000000E9     5.062341350675770E-1    1.400321091350281E-2    5.832325885298256E-4    3.613897882003081E-3    6.055724787805646E-4    3.672728694633742E-3    4.272065888288565E-1   -1.410032212307262E-1
 8.116593176200000E9     5.062444139873364E-1    1.336782742535578E-2    5.905016762757023E-4    3.595080682917556E-3    6.689218027727624E-4    3.688341386135512E-3    4.272022966185879E-1   -1.416375717485462E-1
 8.116599708400000E9     5.062115246235530E-1    1.303142218702683E-2    5.768742001534155E-4    3.650507340499868E-3    6.337769869213856E-4    3.642601651011916E-3    4.269821533517985E-1   -1.419870870923208E-1
 8.116606240600000E9     5.062747760377616E-1    1.262952399083261E-2    6.133378458325557E-4    3.625443157770518E-3    6.504472824799453E-4    3.697074760833974E-3    4.269325961265191E-1   -1.423638740057042E-1
 8.116612772800000E9     5.062026979084157E-1    1.198811694187297E-2    5.890651926025112E-4    3.601713251117268E-3    6.411216387966895E-4    3.689987131011525E-3    4.268195309319431E-1   -1.428801907828718E-1
 8.116619305000000E9     5.063677913717572E-1    1.148923137350584E-2    5.998843480816476E-4    3.642011406709604E-3    6.492565349453648E-4    3.707252981807008E-3    4.267022647761550E-1   -1.433412156813498E-1
 8.116625837200000E9     5.062924995553736E-1    1.096304012735008E-2    6.008665695754909E-4    3.645501377565413E-3    6.975859694910799E-4    3.662013370264477E-3    4.265723988503766E-1   -1.437788279289157E-1
 8.116632369400000E9     5.062274310658493E-1    1.043730618589609E-2    6.218493562721041E-4    3.630968779357649E-3    6.624921858983846E-4    3.671185574094762E-3    4.263851372196432E-1   -1.441662290077486E-1
 8.116638901600000E9     5.062179783130060E-1    1.001514722688226E-2    6.126491794072749E-4    3.640012165138904E-3    6.783472409496454E-4    3.668368360578746E-3    4.262777816723937E-1   -1.446861826410626E-1
 8.116645433800000E9     5.061132104867190E-1    9.570281876829893E-3    6.073433825746485E-4    3.650769925769598E-3    6.722215360728719E-4    3.692673119916195E-3    4.261370279363413E-1   -1.450577938555550E-1
 8.116651966000000E9     5.062912784358234E-1    9.095344716187328E-3    6.098008330851568E-4    3.629844579158947E-3    7.029196140745259E-4    3.661120525725559E-3    4.262158512338874E-1   -1.454174841057735E-1
 8.116658498200000E9     5.063056874567294E-1    8.453963393055109E-3    6.074389683564857E-4    3.656997750586344E-3    7.134156648192021E-4    3.711744648577586E-3    4.258454306260009E-1   -1.459056706821178E-1
 8.116665030400000E9     5.062306602187855E-1    8.032123633244813E-3    6.370643044211795E-4    3.663488073126613E-3    6.819181845783599E-4    3.731762048067212E-3    4.258237011931060E-1   -1.464337327717958E-1
 8.116671562600000E9     5.064121949414013E-1    7.519152007220692E-3    6.076648913261026E-4    3.629820575733978E-3    6.700249517241893E-4    3.711639968931643E-3    4.257025323902200E-1   -1.467991141819508E-1
 8.116678094800000E9     5.062555465125337E-1    7.103367030902413E-3    6.673479560286444E-4    3.680116660390737E-3    6.769970512133790E-4    3.701276560742055E-3    4.254832230691710E-1   -1.471486631408302E-1
 8.116684627000000E9     5.062948716167569E-1    6.531160358322388E-3    6.519068233544409E-4    3.655676463601756E-3    6.895460525594264E-4    3.738628742951384E-3    4.253686261376649E-1   -1.475523052185149E-1
 8.116691159200000E9     5.062296588097738E-1    5.969500996181763E-3    6.579963952952786E-4    3.640284549968947E-3    7.353136276739385E-4    3.744054350130662E-3    4.252932158949838E-1   -1.479559608593642E-1
 8.116697691400000E9     5.064047837383171E-1    5.603110143437054E-3    6.610270805942671E-4    3.658730963414709E-3    7.082998219484287E-4    3.738040179496874E-3    4.251659416623265E-1   -1.485397734626044E-1
 8.116704223600000E9     5.062385088157016E-1    4.976778871284847E-3    6.475041448356755E-4    3.668318621835719E-3    7.295640680066448E-4    3.707886735432382E-3    4.249880154362435E-1   -1.489734123162934E-1
 8.116710755800000E9     5.062903536857020E-1    4.470020301524080E-3    6.705255946832925E-4    3.673564823358391E-3    7.327213024064947E-4    3.736290648368004E-3    4.247903128443536E-1   -1.493298222258875E-1
 8.116717288000000E9     5.062691059320876E-1    3.956433529065605E-3    6.750138154327409E-4    3.685347691068824E-3    7.226383456313362E-4    3.732537623375712E-3    4.246973559661339E-1   -1.500102649987132E-1
 8.116723820200000E9     5.061365273600218E-1    3.516741604910114E-3    6.746910497331765E-4    3.648102518891962E-3    7.120130535238935E-4    3.744717352816077E-3    4.245396821370757E-1   -1.502373248316696E-1
 8.116730352400000E9     5.061345676647846E-1    2.981635555744326E-3    7.059608504790054E-4    3.690913320017179E-3    7.520150990347216E-4    3.725888936827525E-3    4.244260619817139E-1   -1.506581433513642E-1
 8.116736884600000E9     5.062034486274005E-1    2.642270858556635E-3    6.828014424785938E-4    3.676496550103409E-3    7.797651146999326E-4    3.774800561399588E-3    4.242820301443910E-1   -1.511360371838502E-1
 8.116743416800000E9     5.062957923899745E-1    2.149002910032416E-3    6.859805099586595E-4    3.685247665593523E-3    7.587571705438555E-4    3.728233751403751E-3    4.242899484432828E-1   -1.516766175178875E-1
 8.116749949000000E9     5.063089611191869E-1    1.541181007268356E-3    6.899743699051606E-4    3.667132927790863E-3    7.716301463463069E-4    3.750138875923847E-3    4.240121979440108E-1   -1.519256891626217E-1
