#  HZ   S   RI   R     50.00 
! Rohde & Schwarz Vector Network Analyzer 
! Rohde-Schwarz,ZNB20-2Port,1311601062101988,3.16
! Created: UTC 12/23/2023, 4:04:29 AM
! freq[Hz]                re:S11                  im:S11                  re:S21                  im:S21                  re:S12                  im:S12                  re:S22                  im:S22
 1.001085592100000E+10  -3.127058759038151E-1    4.142793436886680E-1   -2.730219919424388E-2   -1.361690709918779E-2   -2.531821789185270E-2   -1.458945718493053E-2   -1.281124593714624E-1    5.040518623022668E-1
 1.001086424107500E+10  -3.119049076192806E-1    4.148585110058812E-1   -2.737164102721252E-2   -1.375015883053508E-2   -2.557227765610247E-2   -1.463280810551734E-2   -1.275698014502199E-1    5.040665856460527E-1
 1.001087256115000E+10  -3.110819726282220E-1    4.153177781918206E-1   -2.751540011651190E-2   -1.370708379727379E-2   -2.556941538086567E-2   -1.456897007909093E-2   -1.271863315263982E-1    5.042189434876150E-1
 1.001088088122500E+10  -3.105943301962900E-1    4.159440741880456E-1   -2.752416898748517E-2   -1.377784195810072E-2   -2.570344303978581E-2   -1.466431231446729E-2   -1.266220686331215E-1    5.041616159047426E-1
 1.001088920130000E+10  -3.098038870251906E-1    4.163542273816341E-1   -2.777428379622841E-2   -1.373749828447594E-2   -2.585169544794114E-2   -1.477423171652332E-2   -1.258471046263022E-1    5.044740348890584E-1
 1.001089752137500E+10  -3.091171807111463E-1    4.168766426451377E-1   -2.792638021058387E-2   -1.375627038740714E-2   -2.589527121069823E-2   -1.473175635148300E-2   -1.254550658096738E-1    5.045592851350097E-1
 1.001090584145000E+10  -3.083611399266936E-1    4.174460372368505E-1   -2.801012255544728E-2   -1.378235470686510E-2   -2.606277701018772E-2   -1.469352010856401E-2   -1.249160395055992E-1    5.047230531879815E-1
 1.001091416152500E+10  -3.076266541232452E-1    4.180225810768951E-1   -2.817715447145587E-2   -1.371276116494555E-2   -2.623740328302296E-2   -1.485310079746233E-2   -1.244107611713864E-1    5.047722285375040E-1
 1.001092248160000E+10  -3.069439784024318E-1    4.185629524116458E-1   -2.827250953907234E-2   -1.387689401189234E-2   -2.637630776305681E-2   -1.481827082466815E-2   -1.236761944021153E-1    5.049223594474230E-1
 1.001093080167500E+10  -3.062745681624857E-1    4.190861897326086E-1   -2.831676529271442E-2   -1.381157474499679E-2   -2.655390083907210E-2   -1.486912276141201E-2   -1.231661943151681E-1    5.050577852165326E-1
 1.001093912175000E+10  -3.054111634678964E-1    4.195370847329359E-1   -2.849669589945593E-2   -1.387605121607940E-2   -2.662273604314658E-2   -1.482046384847083E-2   -1.226074218860679E-1    5.052000767715317E-1
 1.001094744182500E+10  -3.046254899899545E-1    4.201276804696273E-1   -2.886284945851778E-2   -1.379556496672690E-2   -2.688549032643622E-2   -1.485894921189093E-2   -1.221071661894936E-1    5.055149218020363E-1
 1.001095576190000E+10  -3.039783526785409E-1    4.207293400302441E-1   -2.884507318627022E-2   -1.395145201481687E-2   -2.690675676416248E-2   -1.492339856675745E-2   -1.214307280503556E-1    5.055751118619809E-1
 1.001096408197500E+10  -3.033161598280585E-1    4.212005741841870E-1   -2.904885727312495E-2   -1.386057802232591E-2   -2.716489003444584E-2   -1.482430474347307E-2   -1.208935927956117E-1    5.055782308681418E-1
 1.001097240205000E+10  -3.025638707333527E-1    4.217751081193104E-1   -2.909918840792591E-2   -1.400401067058777E-2   -2.739974791858514E-2   -1.493386157112297E-2   -1.203896563784514E-1    5.058195953766494E-1
 1.001098072212500E+10  -3.018092125902831E-1    4.222245293694904E-1   -2.926326073050800E-2   -1.404384915135480E-2   -2.737123861265883E-2   -1.494318634957620E-2   -1.198337413258476E-1    5.058122078747311E-1
 1.001098904220000E+10  -3.010182002462551E-1    4.228557324628694E-1   -2.955140722683524E-2   -1.403701358783442E-2   -2.753125123203271E-2   -1.507427796966591E-2   -1.192187632656815E-1    5.060266154805405E-1
 1.001099736227500E+10  -3.003761578822271E-1    4.234659738434733E-1   -2.961432398535922E-2   -1.405086771908561E-2   -2.774490751582910E-2   -1.505046834066279E-2   -1.187549754668961E-1    5.061749043310645E-1
 1.001100568235000E+10  -2.994147160934841E-1    4.237840733291401E-1   -2.981822059565841E-2   -1.414814848680357E-2   -2.769215141211527E-2   -1.513753121160467E-2   -1.180428784670833E-1    5.064510955690852E-1
 1.001101400242500E+10  -2.985316529264110E-1    4.244656686228840E-1   -2.990328640049098E-2   -1.413426138806557E-2   -2.799843289957176E-2   -1.509232096411476E-2   -1.175836468701591E-1    5.064608475783806E-1
 1.001102232250000E+10  -2.979297892016494E-1    4.250338408781413E-1   -3.008249488858191E-2   -1.411196292104059E-2   -2.804165321461715E-2   -1.513197894552202E-2   -1.169749597366784E-1    5.065752396064088E-1
 1.001103064257500E+10  -2.970514312542027E-1    4.256695636682961E-1   -3.036446245311724E-2   -1.410028352590556E-2   -2.825785556632336E-2   -1.518056983176597E-2   -1.164175429714701E-1    5.066476534633592E-1
 1.001103896265000E+10  -2.963974804490992E-1    4.261699075585252E-1   -3.048457517402208E-2   -1.410976192161862E-2   -2.859532202125859E-2   -1.515217170576303E-2   -1.158226314326622E-1    5.067766715195779E-1
 1.001104728272500E+10  -2.954455309892483E-1    4.266027348303558E-1   -3.062049952385489E-2   -1.416594845029761E-2   -2.864851732258474E-2   -1.517553083155483E-2   -1.152819783977515E-1    5.070733016151251E-1
 1.001105560280000E+10  -2.947882248441893E-1    4.271517395112374E-1   -3.077168504812321E-2   -1.409467215824268E-2   -2.883737023150701E-2   -1.501934587978208E-2   -1.147304616775670E-1    5.070511617132546E-1
 1.001106392287500E+10  -2.937933660165862E-1    4.276940846116923E-1   -3.091711847774843E-2   -1.405649756445536E-2   -2.869202726431365E-2   -1.519674299788979E-2   -1.140505246214451E-1    5.073222965692017E-1
 1.001107224295000E+10  -2.932752905840457E-1    4.284391324205522E-1   -3.123658992849249E-2   -1.416738990865667E-2   -2.911702642345054E-2   -1.519130797536863E-2   -1.136054010876046E-1    5.073032827072834E-1
 1.001108056302500E+10  -2.923045662210225E-1    4.286978934312165E-1   -3.119884807598024E-2   -1.406236949393585E-2   -2.919866015498289E-2   -1.526927890719580E-2   -1.129678849703397E-1    5.075260602737031E-1
 1.001108888310000E+10  -2.916020948281468E-1    4.294187158238353E-1   -3.165760599185209E-2   -1.411247893568102E-2   -2.928431552045412E-2   -1.533252858521080E-2   -1.124042791434660E-1    5.076199428769264E-1
 1.001109720317500E+10  -2.905321476581517E-1    4.300531113461428E-1   -3.171092717158459E-2   -1.419191624120006E-2   -2.953171289828643E-2   -1.525571881770268E-2   -1.118106357544750E-1    5.077751569075661E-1
 1.001110552325000E+10  -2.897708392518651E-1    4.305359869975947E-1   -3.178361791328752E-2   -1.439814656726628E-2   -2.983914884830608E-2   -1.522934246296133E-2   -1.111254095905522E-1    5.078563988541936E-1
 1.001111384332500E+10  -2.890712926427780E-1    4.311000095170265E-1   -3.202248315417321E-2   -1.428438891264997E-2   -3.001598098580195E-2   -1.533768623691914E-2   -1.107109904276152E-1    5.080066009146529E-1
 1.001112216340000E+10  -2.881452929986973E-1    4.316394274440411E-1   -3.214950140989768E-2   -1.443555104413813E-2   -3.007503279341152E-2   -1.527961737097615E-2   -1.100108033637356E-1    5.081052471258384E-1
 1.001113048347500E+10  -2.873135073162750E-1    4.321582137731169E-1   -3.236624147271663E-2   -1.445338960914060E-2   -3.034708104137734E-2   -1.539671856365009E-2   -1.095919781805636E-1    5.081285837895705E-1
 1.001113880355000E+10  -2.865601417037422E-1    4.327696504234201E-1   -3.258510000315783E-2   -1.437428550523958E-2   -3.055922889657780E-2   -1.551602632967496E-2   -1.089160554278880E-1    5.083692546833612E-1
 1.001114712362500E+10  -2.856177226217741E-1    4.332966160613425E-1   -3.270875930009908E-2   -1.436849373452762E-2   -3.061583262949145E-2   -1.540125897956597E-2   -1.082475459083439E-1    5.084280981918036E-1
 1.001115544370000E+10  -2.847800408266722E-1    4.338588711498340E-1   -3.277858358860135E-2   -1.427934718092530E-2   -3.092996182596196E-2   -1.550519606299312E-2   -1.078132037735869E-1    5.086114754555346E-1
 1.001116376377500E+10  -2.838806674559469E-1    4.344249094258891E-1   -3.312566736193129E-2   -1.443537309312331E-2   -3.106391046766373E-2   -1.546048013615546E-2   -1.072813392269233E-1    5.088337474619102E-1
 1.001117208385000E+10  -2.831081768357460E-1    4.349885042682681E-1   -3.332805982585343E-2   -1.435548638998362E-2   -3.124742561585037E-2   -1.564378957584464E-2   -1.067329258896331E-1    5.088882557651392E-1
 1.001118040392500E+10  -2.822435314804615E-1    4.356213862191323E-1   -3.356538873852204E-2   -1.427849971287211E-2   -3.145641662616051E-2   -1.558658229802952E-2   -1.060496118659580E-1    5.090234021881969E-1
 1.001118872400000E+10  -2.813486809321623E-1    4.361971824867519E-1   -3.371429487054282E-2   -1.439718230418353E-2   -3.165694736466902E-2   -1.557643013072153E-2   -1.053374792103789E-1    5.091241035882957E-1
 1.001119704407500E+10  -2.803751064271792E-1    4.368131464589716E-1   -3.402160629324173E-2   -1.440088672987556E-2   -3.183098012698909E-2   -1.562935334625392E-2   -1.048790574854700E-1    5.093217302332232E-1
 1.001120536415000E+10  -2.794871020490931E-1    4.371683203491767E-1   -3.406858088793336E-2   -1.437881691593069E-2   -3.200619356790928E-2   -1.560384556270605E-2   -1.041607207916414E-1    5.093410947887343E-1
 1.001121368422500E+10  -2.786777171962450E-1    4.379512062072921E-1   -3.436129061371916E-2   -1.435926535378055E-2   -3.244491785149444E-2   -1.567241238753236E-2   -1.037636779617793E-1    5.095378704320442E-1
 1.001122200430000E+10  -2.776669108633025E-1    4.383687157965031E-1   -3.449309666322216E-2   -1.450549812919778E-2   -3.247321315787477E-2   -1.572035351326407E-2   -1.032172174346740E-1    5.095902596502874E-1
 1.001123032437500E+10  -2.768306278426045E-1    4.390759740527980E-1   -3.483926083762424E-2   -1.457864459479450E-2   -3.263220943615849E-2   -1.573136274571422E-2   -1.025080676947694E-1    5.096828534455722E-1
 1.001123864445000E+10  -2.758763597520710E-1    4.394054102162699E-1   -3.496429096002329E-2   -1.452190663032501E-2   -3.281692073525391E-2   -1.576812265858019E-2   -1.019500065551639E-1    5.099521215192231E-1
 1.001124696452500E+10  -2.748700910901302E-1    4.400748493753595E-1   -3.523960609875530E-2   -1.472022177840976E-2   -3.307621037469406E-2   -1.585974356428808E-2   -1.013442536550381E-1    5.099853420507646E-1
 1.001125528460000E+10  -2.738560031827877E-1    4.406886924985304E-1   -3.539231138342298E-2   -1.470614831931783E-2   -3.325694428947514E-2   -1.579596397797419E-2   -1.007493213767242E-1    5.101053341834556E-1
 1.001126360467500E+10  -2.728486759818678E-1    4.412424277851631E-1   -3.565815746604563E-2   -1.459913440228413E-2   -3.343588838254979E-2   -1.583030367285276E-2   -1.001670021875346E-1    5.102259541845260E-1
 1.001127192475000E+10  -2.720640665993036E-1    4.419316638305631E-1   -3.587823254865163E-2   -1.460092940330315E-2   -3.386535164424540E-2   -1.568412673422819E-2   -9.947000352194288E-2    5.101357824308138E-1
 1.001128024482500E+10  -2.710919316740388E-1    4.426105293124248E-1   -3.617302947195309E-2   -1.469223600085876E-2   -3.394148756722853E-2   -1.591394362949878E-2   -9.900668654589236E-2    5.102378686008991E-1
 1.001128856490000E+10  -2.700526135348624E-1    4.429716319034050E-1   -3.639317667855482E-2   -1.462740287238661E-2   -3.417206558223029E-2   -1.587912205554297E-2   -9.839577794585619E-2    5.104570473955090E-1
 1.001129688497500E+10  -2.692470266891362E-1    4.435397204727041E-1   -3.656921324927678E-2   -1.448154592091784E-2   -3.438350167058894E-2   -1.586082414348417E-2   -9.769389724702306E-2    5.105337181326202E-1
 1.001130520505000E+10  -2.681021784043817E-1    4.442905228937516E-1   -3.689415145974806E-2   -1.459376177941452E-2   -3.466885073110734E-2   -1.601924612053551E-2   -9.719023798073859E-2    5.105235044852504E-1
 1.001131352512500E+10  -2.671474630035383E-1    4.447423431237972E-1   -3.716909112929209E-2   -1.453547855672435E-2   -3.486787131604591E-2   -1.603199049854661E-2   -9.647185486450256E-2    5.108425449710433E-1
 1.001132184520000E+10  -2.660162538178352E-1    4.453993550658411E-1   -3.747640949556536E-2   -1.456768903120541E-2   -3.514678764273698E-2   -1.607579063182471E-2   -9.592914816386809E-2    5.109340930061202E-1
 1.001133016527500E+10  -2.651968918196368E-1    4.459394115446499E-1   -3.766221546521697E-2   -1.460295308390723E-2   -3.531237309326986E-2   -1.599644360223890E-2   -9.537698941368769E-2    5.109911362595648E-1
 1.001133848535000E+10  -2.639426647038807E-1    4.464863025383516E-1   -3.776847592800836E-2   -1.472345075026926E-2   -3.555073976914961E-2   -1.615741680166967E-2   -9.468828403877108E-2    5.111486891678887E-1
 1.001134680542500E+10  -2.629944310227689E-1    4.470782539202427E-1   -3.803794908587683E-2   -1.482378860818722E-2   -3.573169299107816E-2   -1.606886099115024E-2   -9.416480071007166E-2    5.110203492340922E-1
 1.001135512550000E+10  -2.619520604327207E-1    4.477286313961440E-1   -3.833216563155061E-2   -1.483581612593125E-2   -3.597509079743117E-2   -1.600106325374580E-2   -9.339633258165737E-2    5.113936299983257E-1
 1.001136344557500E+10  -2.608020570426330E-1    4.483869715513383E-1   -3.855501304331097E-2   -1.489980840214318E-2   -3.629182875541814E-2   -1.617853623814427E-2   -9.289230014130553E-2    5.113553003008998E-1
 1.001137176565000E+10  -2.597238081479411E-1    4.489273599700944E-1   -3.881577059044574E-2   -1.480795763733377E-2   -3.652580140146942E-2   -1.602999843945276E-2   -9.217534421358643E-2    5.113339086047005E-1
 1.001138008572500E+10  -2.586849299616006E-1    4.495318439654533E-1   -3.909567792176316E-2   -1.486513960707534E-2   -3.697591851179070E-2   -1.601522875962067E-2   -9.166219341900016E-2    5.116244451336919E-1
 1.001138840580000E+10  -2.575282071592191E-1    4.500600921598496E-1   -3.949062638927469E-2   -1.474574073877780E-2   -3.701531331118713E-2   -1.612063468684264E-2   -9.110401334593797E-2    5.116155509548510E-1
 1.001139672587500E+10  -2.567468580047968E-1    4.506807874487666E-1   -3.972510860927590E-2   -1.466702180644359E-2   -3.727872378019922E-2   -1.630499293939579E-2   -9.037066699005988E-2    5.117740163338527E-1
 1.001140504595000E+10  -2.554507662695184E-1    4.513435934457463E-1   -4.012957961948891E-2   -1.475446158675678E-2   -3.750233955142221E-2   -1.626733671156181E-2   -8.986681481000180E-2    5.118385697644005E-1
 1.001141336602500E+10  -2.544300884886919E-1    4.518516687640411E-1   -4.041156163717333E-2   -1.473228042703375E-2   -3.790323508886029E-2   -1.632825333198196E-2   -8.926025654483330E-2    5.119732226979180E-1
 1.001142168610000E+10  -2.531716661775958E-1    4.524518035167785E-1   -4.070987165964794E-2   -1.462755931963340E-2   -3.814579021249807E-2   -1.645216959067172E-2   -8.866929876919201E-2    5.119931168122431E-1
 1.001143000617500E+10  -2.520215540180844E-1    4.530436151762346E-1   -4.097444266186704E-2   -1.474042003713837E-2   -3.856801208139182E-2   -1.628410303376671E-2   -8.802243170586845E-2    5.120992581655694E-1
 1.001143832625000E+10  -2.508722561149975E-1    4.537313447447860E-1   -4.122491827501656E-2   -1.467122038547465E-2   -3.877977497356092E-2   -1.640013685598263E-2   -8.740457791699101E-2    5.120929020990411E-1
 1.001144664632500E+10  -2.495947159761020E-1    4.543462038056262E-1   -4.158363397188179E-2   -1.479592078655840E-2   -3.910294722381482E-2   -1.624747869929764E-2   -8.666647490993860E-2    5.123865765833904E-1
 1.001145496640000E+10  -2.487343861382283E-1    4.548532644413795E-1   -4.181049107149339E-2   -1.477499482583288E-2   -3.947496297122313E-2   -1.614603265532483E-2   -8.618450870885007E-2    5.123737237557843E-1
 1.001146328647500E+10  -2.474027101664167E-1    4.555154960065719E-1   -4.215432447345147E-2   -1.496976184924534E-2   -3.970242596669392E-2   -1.643878638443255E-2   -8.554482280730960E-2    5.124210126653653E-1
 1.001147160655000E+10  -2.461283019026003E-1    4.562449480837075E-1   -4.240968138285558E-2   -1.489835655371244E-2   -4.007713300087860E-2   -1.647278874577253E-2   -8.476750041664839E-2    5.125672948434002E-1
 1.001147992662500E+10  -2.449363731243554E-1    4.568941632138697E-1   -4.278113407188484E-2   -1.499933449969247E-2   -4.019465704621128E-2   -1.655297503838898E-2   -8.434023519132396E-2    5.126951970484898E-1
 1.001148824670000E+10  -2.436204263458575E-1    4.573402545295716E-1   -4.309936931853570E-2   -1.504656604145885E-2   -4.058226574942780E-2   -1.657696026493045E-2   -8.359349109528186E-2    5.127389818185059E-1
 1.001149656677500E+10  -2.424345486595015E-1    4.579987505568001E-1   -4.339198647099081E-2   -1.483877937334278E-2   -4.097198229927115E-2   -1.646244676655938E-2   -8.291648505175478E-2    5.127635352870994E-1
 1.001150488685000E+10  -2.412405607447377E-1    4.586032002306437E-1   -4.366606948989851E-2   -1.492476023127396E-2   -4.121492655077236E-2   -1.647306457719946E-2   -8.208144631439189E-2    5.129795104941341E-1
 1.001151320692500E+10  -2.398393981401829E-1    4.591713605722251E-1   -4.406330831385109E-2   -1.487657291573665E-2   -4.147224277530321E-2   -1.648326632688690E-2   -8.157000990831549E-2    5.129644577400189E-1
 1.001152152700000E+10  -2.385628707807022E-1    4.598991611621130E-1   -4.451028625357695E-2   -1.481902133294240E-2   -4.191285878097835E-2   -1.658854360579380E-2   -8.098776429358774E-2    5.131422780341979E-1
 1.001152984707500E+10  -2.373233924218525E-1    4.603484162540028E-1   -4.485066095698449E-2   -1.467778901970446E-2   -4.223208054518182E-2   -1.656110332499339E-2   -8.032658454682523E-2    5.132926748556277E-1
 1.001153816715000E+10  -2.359916127100645E-1    4.610761774107978E-1   -4.524683226176787E-2   -1.462059890084348E-2   -4.275310989568717E-2   -1.656935431349571E-2   -7.974585818723978E-2    5.132955304502117E-1
 1.001154648722500E+10  -2.346361202173601E-1    4.617511839235012E-1   -4.565355285023424E-2   -1.464943439712217E-2   -4.292407555952401E-2   -1.651622436707977E-2   -7.906876360262166E-2    5.132316637745186E-1
 1.001155480730000E+10  -2.331478967075118E-1    4.623654743225841E-1   -4.599769436212953E-2   -1.479408769153087E-2   -4.332971612259207E-2   -1.668641060933864E-2   -7.841088433040790E-2    5.134455349338013E-1
 1.001156312737500E+10  -2.319179769570585E-1    4.629307266901986E-1   -4.650368970745620E-2   -1.475420950224905E-2   -4.382564539622030E-2   -1.672773739721017E-2   -7.769395770309390E-2    5.133808795011088E-1
 1.001157144745000E+10  -2.305869197431173E-1    4.634824567330673E-1   -4.673970013234757E-2   -1.479294500213964E-2   -4.401776064556239E-2   -1.672115884754683E-2   -7.713821868097120E-2    5.135505053612306E-1
 1.001157976752500E+10  -2.290742492458760E-1    4.642570697511613E-1   -4.719694371638365E-2   -1.483811015333087E-2   -4.445004452194631E-2   -1.682805095003711E-2   -7.650701724816697E-2    5.134876225995082E-1
 1.001158808760000E+10  -2.276659358396335E-1    4.648992511882232E-1   -4.746158635828497E-2   -1.496787803087482E-2   -4.487918252356596E-2   -1.658787302110684E-2   -7.577607914525541E-2    5.136465682684659E-1
 1.001159640767500E+10  -2.261774564017253E-1    4.653965143876311E-1   -4.788410395087861E-2   -1.495551879129675E-2   -4.519134191073532E-2   -1.669697610846927E-2   -7.519648579445429E-2    5.136410757781782E-1
 1.001160472775000E+10  -2.247808543623891E-1    4.661714115438826E-1   -4.835676674417204E-2   -1.496373277213160E-2   -4.554065483389046E-2   -1.673796575512423E-2   -7.448271364146068E-2    5.137617661756216E-1
