#  HZ   S   RI   R     50.00 
! Rohde & Schwarz Vector Network Analyzer 
! Rohde-Schwarz,ZNB20-2Port,1311601062101988,3.16
! Created: UTC 12/23/2023, 3:37:28 AM
! freq[Hz]                re:S11                  im:S11                  re:S21                  im:S21                  re:S12                  im:S12                  re:S22                  im:S22
 7.837803370000000E9     5.663934446283597E-1   -1.865913144178935E-2    1.654659637978864E-3    3.713208822513998E-3    1.636098623678701E-3    3.638944456929413E-3    4.365990723815909E-1   -3.176025001924793E-1
 7.837833669150000E9     5.663931022987446E-1   -2.056206652689871E-2    1.671801575148111E-3    3.731814428252069E-3    1.690213852361410E-3    3.659517435038444E-3    4.352302716076516E-1   -3.196204155182082E-1
 7.837863968300000E9     5.662131167425918E-1   -2.264445341030836E-2    1.678760639553546E-3    3.697976062220245E-3    1.703542176945703E-3    3.649631599456263E-3    4.340058743334235E-1   -3.213746559097677E-1
 7.837894267450000E9     5.662443665706681E-1   -2.471875370225801E-2    1.660493546716931E-3    3.689213818550349E-3    1.704667703830491E-3    3.635765854652732E-3    4.328354781626402E-1   -3.229627368461889E-1
 7.837924566600000E9     5.661426100237662E-1   -2.676747168727082E-2    1.724238085397384E-3    3.701426466008922E-3    1.738647054890554E-3    3.656073819159798E-3    4.316022240699275E-1   -3.247116547569471E-1
 7.837954865750000E9     5.660563794127245E-1   -2.858807801813225E-2    1.744466478798035E-3    3.711441131789972E-3    1.728966749863679E-3    3.652492018484689E-3    4.303350542147740E-1   -3.263432210536069E-1
 7.837985164900000E9     5.659797190371988E-1   -3.056889490779614E-2    1.764908975513016E-3    3.728853082151876E-3    1.762256883860863E-3    3.645573828979202E-3    4.290806787419374E-1   -3.281275217603979E-1
 7.838015464050000E9     5.659014930472993E-1   -3.269384127478554E-2    1.752853858471891E-3    3.704950655860242E-3    1.771192582701437E-3    3.620106667960945E-3    4.278562296419028E-1   -3.297143214036148E-1
 7.838045763200000E9     5.657893404965173E-1   -3.469319065282360E-2    1.787083408769071E-3    3.702946345818118E-3    1.776903888137284E-3    3.625438011941178E-3    4.266052181549281E-1   -3.313188960425621E-1
 7.838076062350000E9     5.657043654778666E-1   -3.674413445503008E-2    1.800906509898159E-3    3.714015140830711E-3    1.810718182793140E-3    3.632703713505925E-3    4.251021555258936E-1   -3.332140648549994E-1
 7.838106361500000E9     5.654973569804969E-1   -3.873048142818496E-2    1.814895530564343E-3    3.708585901047486E-3    1.808755801722519E-3    3.623303055475097E-3    4.238275129637251E-1   -3.348449677960878E-1
 7.838136660650000E9     5.654472969694857E-1   -4.084011357753890E-2    1.821456815421572E-3    3.714256879033955E-3    1.839860975741931E-3    3.611004250377358E-3    4.225040031561144E-1   -3.366627422311887E-1
 7.838166959800000E9     5.651920723434670E-1   -4.287522604467207E-2    1.872746749161062E-3    3.706903365656906E-3    1.871771698863624E-3    3.621010345570716E-3    4.211961317520074E-1   -3.381252885994907E-1
 7.838197258950000E9     5.650387910379506E-1   -4.482920730421627E-2    1.863977250534465E-3    3.681744755705440E-3    1.883744714696654E-3    3.612517506190815E-3    4.198547991994866E-1   -3.397720255831012E-1
 7.838227558100000E9     5.649783290240832E-1   -4.668645174580444E-2    1.894891905806440E-3    3.678166548563426E-3    1.867181041348187E-3    3.637000894990387E-3    4.186876673802967E-1   -3.413964968171090E-1
 7.838257857250000E9     5.648165625032454E-1   -4.883277217986951E-2    1.915990333302783E-3    3.673408347466812E-3    1.896456151966404E-3    3.631645296167953E-3    4.172799109965136E-1   -3.431598826699849E-1
 7.838288156400000E9     5.644642160973721E-1   -5.089738565492971E-2    1.921695725890862E-3    3.696996123967040E-3    1.883190540167471E-3    3.612607445667272E-3    4.158342449276789E-1   -3.446898615301160E-1
 7.838318455550000E9     5.644786232302547E-1   -5.291486767042450E-2    1.937727645699671E-3    3.685308680861319E-3    1.936922781490288E-3    3.605312399630997E-3    4.145259628264206E-1   -3.464010656949436E-1
 7.838348754700000E9     5.643225347812766E-1   -5.472983506906826E-2    1.982654650042901E-3    3.649482478598767E-3    1.958158534563262E-3    3.625191683610325E-3    4.130865707912583E-1   -3.480766814902701E-1
 7.838379053850000E9     5.641524102079398E-1   -5.682463759740698E-2    1.998206607919844E-3    3.667713350659504E-3    1.992918914545482E-3    3.608833281449779E-3    4.116736105480676E-1   -3.497018246796813E-1
 7.838409353000000E9     5.638864181307744E-1   -5.898669213869910E-2    2.008549720129706E-3    3.675319016067361E-3    1.973840032865843E-3    3.607546174617639E-3    4.103946482458930E-1   -3.512627290977541E-1
 7.838439652150000E9     5.636862199769983E-1   -6.080383174258770E-2    2.023223379201352E-3    3.676545806951289E-3    1.961231070029026E-3    3.592689656871395E-3    4.091554567167075E-1   -3.529398739237045E-1
 7.838469951300000E9     5.635451231493604E-1   -6.278491886377535E-2    2.040807015407498E-3    3.691825467320870E-3    2.039652753312575E-3    3.606542479310909E-3    4.078084689911211E-1   -3.545216600347519E-1
 7.838500250450000E9     5.631666555459145E-1   -6.490213169412447E-2    2.069680940234766E-3    3.665474178031114E-3    2.038183897570340E-3    3.626096886046399E-3    4.063425285909937E-1   -3.560444878601983E-1
 7.838530549600000E9     5.630229183859047E-1   -6.693514834729848E-2    2.084824519747252E-3    3.677583871359487E-3    2.063538079034901E-3    3.577246071748690E-3    4.049629002260401E-1   -3.577323602150792E-1
 7.838560848750000E9     5.626627767427376E-1   -6.896231088625238E-2    2.093784315257580E-3    3.663234328733141E-3    2.081901884208497E-3    3.619198478960287E-3    4.035936945516847E-1   -3.593651392002650E-1
 7.838591147900000E9     5.625601035141362E-1   -7.080469986846523E-2    2.105478159863256E-3    3.665158595243815E-3    2.116018639717011E-3    3.584244444760374E-3    4.019818680971448E-1   -3.609354239901638E-1
 7.838621447050000E9     5.623706804883960E-1   -7.287739308303501E-2    2.153182636144849E-3    3.644797378055493E-3    2.153252325112105E-3    3.624263745938524E-3    4.006272008550582E-1   -3.624177094562839E-1
 7.838651746200000E9     5.620302815631153E-1   -7.500444917752035E-2    2.164339234379239E-3    3.643317838342948E-3    2.139338265882678E-3    3.623238226542447E-3    3.992077370340174E-1   -3.640384287109477E-1
 7.838682045350000E9     5.618965839429617E-1   -7.698181909683638E-2    2.174584666656236E-3    3.651073951719696E-3    2.184560438447219E-3    3.617916575545032E-3    3.978408325527918E-1   -3.657033717657810E-1
 7.838712344500000E9     5.615697600559136E-1   -7.895341002517239E-2    2.208118802362879E-3    3.652781275812560E-3    2.194671494583503E-3    3.575482011820974E-3    3.963050774582446E-1   -3.670928224913000E-1
 7.838742643650000E9     5.612192570981944E-1   -8.111928691563221E-2    2.210116990138927E-3    3.651941815135176E-3    2.208244005608073E-3    3.600415814710841E-3    3.949689424302121E-1   -3.688555725852860E-1
 7.838772942800000E9     5.610893911386922E-1   -8.302255872791903E-2    2.252322363189960E-3    3.654978313380178E-3    2.210557040173948E-3    3.615770731571443E-3    3.935272593273008E-1   -3.702337000890037E-1
 7.838803241950000E9     5.605758745023544E-1   -8.495244356968933E-2    2.253277820065217E-3    3.651039748592788E-3    2.255007277411852E-3    3.621673912981745E-3    3.920245514890535E-1   -3.718304154570956E-1
 7.838833541100000E9     5.604234883328995E-1   -8.703196523557359E-2    2.300538000763970E-3    3.624828337551174E-3    2.244433632445028E-3    3.602231902787952E-3    3.905514641128527E-1   -3.733566411544255E-1
 7.838863840250000E9     5.601079720338572E-1   -8.890972902218829E-2    2.320207237506203E-3    3.625175165740115E-3    2.274480111304669E-3    3.602807429196285E-3    3.890816472156203E-1   -3.748721966386405E-1
 7.838894139400000E9     5.596766833233694E-1   -9.091718037495282E-2    2.307922103083191E-3    3.654248470721744E-3    2.302116397594952E-3    3.615844762904568E-3    3.877657196931028E-1   -3.764504078684217E-1
 7.838924438550000E9     5.594595339224341E-1   -9.302632285956854E-2    2.337480028910002E-3    3.645376860299320E-3    2.310121314617723E-3    3.598133951763011E-3    3.861052323203006E-1   -3.780990898180178E-1
 7.838954737700000E9     5.591551611528166E-1   -9.495334662192181E-2    2.357120732885157E-3    3.625856968357251E-3    2.319310486104733E-3    3.574057253099104E-3    3.847607479672553E-1   -3.796504113701671E-1
 7.838985036850000E9     5.588483994551646E-1   -9.693678423324868E-2    2.366832291107400E-3    3.645457694561100E-3    2.331894898281891E-3    3.578439169541069E-3    3.833509216140139E-1   -3.811407847593493E-1
 7.839015336000000E9     5.583382590310058E-1   -9.885904438930125E-2    2.393726098870430E-3    3.647518621277156E-3    2.382578631894818E-3    3.623346174046390E-3    3.817694928966746E-1   -3.825612275410789E-1
 7.839045635150000E9     5.582500749891679E-1   -1.008784045693021E-1    2.405579434260132E-3    3.637203358756013E-3    2.386720859582913E-3    3.585456530413975E-3    3.802383060463053E-1   -3.840849835611539E-1
 7.839075934300000E9     5.577571269093553E-1   -1.030276022896874E-1    2.434919615763083E-3    3.651222308708116E-3    2.414914934703597E-3    3.591245250461245E-3    3.787292273855875E-1   -3.855605828061950E-1
 7.839106233450000E9     5.572987411202466E-1   -1.049423554699777E-1    2.468679107160723E-3    3.619832123300388E-3    2.412453209044182E-3    3.610714112271598E-3    3.772686463644823E-1   -3.869384213831280E-1
 7.839136532600000E9     5.569271179251457E-1   -1.067554695417560E-1    2.505685360276759E-3    3.625307798039627E-3    2.469314287861861E-3    3.576581065953295E-3    3.757603810041787E-1   -3.886681542594004E-1
 7.839166831750000E9     5.565923168482589E-1   -1.088836542770914E-1    2.503922077665898E-3    3.651111956691318E-3    2.486752497431247E-3    3.583064070177847E-3    3.741125300956789E-1   -3.900942173136071E-1
 7.839197130900000E9     5.562102841241422E-1   -1.109725893027026E-1    2.527003287588927E-3    3.620352240811228E-3    2.534706063658619E-3    3.576988921024358E-3    3.726487250444876E-1   -3.914276431928299E-1
 7.839227430050000E9     5.558270674546244E-1   -1.129282328906465E-1    2.523735391687639E-3    3.617503204050052E-3    2.509791325226123E-3    3.571890676990165E-3    3.711381217056868E-1   -3.930271291467219E-1
 7.839257729200000E9     5.553838489517761E-1   -1.148376982510170E-1    2.582097822150047E-3    3.615773468124298E-3    2.550786945274234E-3    3.518289317777630E-3    3.693422991359240E-1   -3.946512996368022E-1
 7.839288028350000E9     5.550610477568191E-1   -1.168683611892089E-1    2.595709495526128E-3    3.603420893074572E-3    2.571408737814026E-3    3.576836952117818E-3    3.680365480170920E-1   -3.958056360373170E-1
 7.839318327500000E9     5.546653081871524E-1   -1.189449256384209E-1    2.601319838990431E-3    3.582881487331619E-3    2.542244459489200E-3    3.574223750443202E-3    3.665382589498275E-1   -3.973397715210980E-1
 7.839348626650000E9     5.541991927977946E-1   -1.210293050342538E-1    2.630178829965172E-3    3.610361875851648E-3    2.603940837640497E-3    3.557336283055513E-3    3.648000145241216E-1   -3.988931524573615E-1
 7.839378925800000E9     5.536177291174299E-1   -1.227853890722958E-1    2.662835155601188E-3    3.610661850210773E-3    2.620467862528276E-3    3.550251705642482E-3    3.634580607337464E-1   -4.003814401357359E-1
 7.839409224950000E9     5.532961104956419E-1   -1.248996135980968E-1    2.661243162695942E-3    3.623292971745763E-3    2.669997963810225E-3    3.574646619517318E-3    3.617777221349647E-1   -4.016500698641198E-1
 7.839439524100000E9     5.528198994239234E-1   -1.267601060929084E-1    2.708370336837721E-3    3.591456626587017E-3    2.671792892272034E-3    3.542618616134839E-3    3.601678970471116E-1   -4.032611883154723E-1
 7.839469823250000E9     5.523434390927658E-1   -1.286789357248011E-1    2.709270791617382E-3    3.582718350728278E-3    2.673608745765031E-3    3.546275706559958E-3    3.586061915553368E-1   -4.046086880682795E-1
 7.839500122400000E9     5.518920585626121E-1   -1.307226592727446E-1    2.708744626429567E-3    3.583821752032150E-3    2.723818045389172E-3    3.573899475471250E-3    3.570578627153611E-1   -4.059859903448014E-1
 7.839530421550000E9     5.515086296246950E-1   -1.327734081323566E-1    2.766973289735500E-3    3.590661024936028E-3    2.730200515119833E-3    3.536122571508481E-3    3.555157071732848E-1   -4.073727860973174E-1
 7.839560720700000E9     5.509295604300338E-1   -1.347331175631754E-1    2.807255374502077E-3    3.601766402442483E-3    2.760826226713781E-3    3.543446277924121E-3    3.538167675726644E-1   -4.087088777541438E-1
 7.839591019850000E9     5.503784412886193E-1   -1.366755874588484E-1    2.820792388257490E-3    3.603429425414397E-3    2.746526773790650E-3    3.567490266673905E-3    3.521157140248588E-1   -4.102135640608702E-1
 7.839621319000000E9     5.499919185656782E-1   -1.386203472671656E-1    2.822071266285485E-3    3.603205793636396E-3    2.855963252562111E-3    3.527305676336679E-3    3.507080272734497E-1   -4.116674727052458E-1
 7.839651618150000E9     5.494620994319468E-1   -1.406430759650530E-1    2.868489873728787E-3    3.612491584159388E-3    2.821228774880337E-3    3.571424050765475E-3    3.489740376009751E-1   -4.130318930564450E-1
 7.839681917300000E9     5.488962739253037E-1   -1.426597511061292E-1    2.895760952472599E-3    3.579787477813031E-3    2.838623909449962E-3    3.541515935973684E-3    3.474076383405074E-1   -4.144421282380805E-1
 7.839712216450000E9     5.484113248037461E-1   -1.446178588643260E-1    2.896288459704860E-3    3.590164461697452E-3    2.860906338881670E-3    3.538853144447168E-3    3.458645354645396E-1   -4.157414857657739E-1
 7.839742515600000E9     5.480299765225626E-1   -1.466212444022913E-1    2.922298659477022E-3    3.583526151211820E-3    2.896829696079815E-3    3.530469141800860E-3    3.441530033461370E-1   -4.170856038173795E-1
 7.839772814750000E9     5.472918094419364E-1   -1.485440449443418E-1    2.960794016327219E-3    3.550642810669304E-3    2.970722282736931E-3    3.580291936085496E-3    3.425701719297917E-1   -4.185845772612065E-1
 7.839803113900000E9     5.468526333454566E-1   -1.506036224071589E-1    2.971158297687803E-3    3.582916932247685E-3    2.932877724685565E-3    3.596518166839988E-3    3.409286489666189E-1   -4.197916033018610E-1
 7.839833413050000E9     5.462311299735524E-1   -1.525554821434109E-1    3.018906669748289E-3    3.584385788994047E-3    2.959168934206241E-3    3.495406542744338E-3    3.392139361838452E-1   -4.211608084677948E-1
 7.839863712200000E9     5.455791520776313E-1   -1.544506229994022E-1    3.041023393295553E-3    3.570131498180179E-3    2.985009231289166E-3    3.522466757942906E-3    3.375156695394270E-1   -4.225179407228380E-1
 7.839894011350000E9     5.450690368401305E-1   -1.563767110470153E-1    3.066886028062499E-3    3.563519550703225E-3    2.984789035799560E-3    3.558549194835219E-3    3.358817731939199E-1   -4.237998043273475E-1
 7.839924310500000E9     5.445374570535558E-1   -1.581807696071100E-1    3.105026543043794E-3    3.566121893247814E-3    3.039110184338284E-3    3.551253165195906E-3    3.341818368548709E-1   -4.251969198550557E-1
 7.839954609650000E9     5.440337311778357E-1   -1.602840098609725E-1    3.123335906095828E-3    3.561879705566203E-3    3.098431542382819E-3    3.528287358266159E-3    3.325519906341031E-1   -4.264355536237140E-1
 7.839984908800000E9     5.433274538990681E-1   -1.621830946886410E-1    3.134898558692564E-3    3.560504939715457E-3    3.089726230429091E-3    3.521329902584935E-3    3.309014068968816E-1   -4.277464022205185E-1
 7.840015207950000E9     5.427909891010603E-1   -1.642238141619362E-1    3.167122219756098E-3    3.558935710092657E-3    3.087512707262902E-3    3.521665986980666E-3    3.291184208220698E-1   -4.289359303459295E-1
 7.840045507100000E9     5.420921816098847E-1   -1.661954635972430E-1    3.175144378597006E-3    3.543546422418175E-3    3.151385965072559E-3    3.528024731621598E-3    3.274991200428811E-1   -4.303316038197563E-1
 7.840075806250000E9     5.415556400295539E-1   -1.680640149095123E-1    3.203542810903588E-3    3.544129187753861E-3    3.161426879868702E-3    3.515760918522568E-3    3.258664957660045E-1   -4.315601373332212E-1
 7.840106105400000E9     5.408483416152857E-1   -1.701983542316312E-1    3.239283523335350E-3    3.538779922319266E-3    3.199000548451565E-3    3.491477267230634E-3    3.241036909106660E-1   -4.330201079387936E-1
 7.840136404550000E9     5.404340231012456E-1   -1.720980419485787E-1    3.295925129529738E-3    3.541897973191418E-3    3.245578533427936E-3    3.517240571159359E-3    3.224998080423165E-1   -4.342545555129697E-1
 7.840166703700000E9     5.397298792206059E-1   -1.740017924721356E-1    3.314981945054011E-3    3.525909004161663E-3    3.260373893161700E-3    3.498383155071152E-3    3.207338108580042E-1   -4.355174524145712E-1
 7.840197002850000E9     5.390712832486448E-1   -1.760615499881659E-1    3.325719882935062E-3    3.542858553420602E-3    3.303328420417067E-3    3.515279586991578E-3    3.190713349482150E-1   -4.367312769596696E-1
 7.840227302000000E9     5.385128832404072E-1   -1.778542830271424E-1    3.346893301973799E-3    3.529396346333316E-3    3.310397608726740E-3    3.520664493490665E-3    3.173005683441814E-1   -4.380276744357821E-1
 7.840257601150000E9     5.377991896507192E-1   -1.798440708343046E-1    3.389014783637517E-3    3.522887361421047E-3    3.322628505883368E-3    3.505769968688094E-3    3.156421687608820E-1   -4.393595504482300E-1
 7.840287900300000E9     5.371507916035628E-1   -1.817817656228589E-1    3.421978457889720E-3    3.525595208936975E-3    3.385416911149831E-3    3.503127217059108E-3    3.138971522751874E-1   -4.405119766214861E-1
 7.840318199450000E9     5.364561188383853E-1   -1.836907244353405E-1    3.439548252107097E-3    3.524879900499088E-3    3.379483147537344E-3    3.482494054599848E-3    3.122498303043033E-1   -4.416783589240261E-1
 7.840348498600000E9     5.358343911885807E-1   -1.856865034780144E-1    3.450886878782263E-3    3.520569260427424E-3    3.415214074817042E-3    3.488789235288332E-3    3.105460334539675E-1   -4.430137694701041E-1
 7.840378797750000E9     5.351795773222909E-1   -1.876101731627462E-1    3.491472672916324E-3    3.499201654762129E-3    3.440254109203161E-3    3.470586277732061E-3    3.088427158159392E-1   -4.442237056866255E-1
 7.840409096900000E9     5.344839361520288E-1   -1.894481333778231E-1    3.538130200521497E-3    3.508406548000543E-3    3.498550845632499E-3    3.495033048740373E-3    3.069702626845756E-1   -4.455939058575965E-1
 7.840439396050000E9     5.336862761388138E-1   -1.914409064854122E-1    3.560003935424274E-3    3.516152010628282E-3    3.534386382452165E-3    3.516268888806609E-3    3.051800578263321E-1   -4.466792060003597E-1
 7.840469695200000E9     5.329491979728468E-1   -1.933496366273258E-1    3.557425644227486E-3    3.511268007946775E-3    3.548829154691417E-3    3.476287291362565E-3    3.034509101675968E-1   -4.479943470302972E-1
 7.840499994350000E9     5.322423471460547E-1   -1.952670739812686E-1    3.611108414636694E-3    3.531899692080222E-3    3.528933062562426E-3    3.498981868003621E-3    3.018483080867919E-1   -4.492186357666768E-1
 7.840530293500000E9     5.315058176174253E-1   -1.971411736872913E-1    3.658728202020614E-3    3.519723894104421E-3    3.589102050467978E-3    3.480375905958865E-3    2.999108150705061E-1   -4.503257250724714E-1
