#  HZ   S   RI   R     50.00 
! Rohde & Schwarz Vector Network Analyzer 
! Rohde-Schwarz,ZNB20-2Port,1311601062101988,3.16
! Created: UTC 12/23/2023, 3:34:44 AM
! freq[Hz]                re:S11                  im:S11                  re:S21                  im:S21                  re:S12                  im:S12                  re:S22                  im:S22
 6.517132102000000E9    -2.299415711323679E-1   -1.413127995270274E-2    1.350575184442863E-2   -5.739256401459580E-3    1.368178276811613E-2   -5.312671220802046E-3    2.136797075764841E-1    5.054674712341327E-1
 6.517143499525000E9    -2.298609914367342E-1   -1.394637068420129E-2    1.366860337579064E-2   -5.845689457921915E-3    1.374373909034752E-2   -5.263514525722641E-3    2.146743617936908E-1    5.051492168758119E-1
 6.517154897050000E9    -2.298171494951275E-1   -1.382431456508368E-2    1.382382587691493E-2   -5.852467039860426E-3    1.387358545919796E-2   -5.442691453783422E-3    2.153375574854001E-1    5.048392563624596E-1
 6.517166294575000E9    -2.297787744549702E-1   -1.360154576764103E-2    1.366641392942801E-2   -5.997616062547736E-3    1.396476664013286E-2   -5.556806491691615E-3    2.162440885018495E-1    5.045560852085426E-1
 6.517177692100000E9    -2.295556334815977E-1   -1.350991426010940E-2    1.385228006676333E-2   -5.960281914068932E-3    1.392022032020188E-2   -5.519649624243045E-3    2.170259617136229E-1    5.041260751045168E-1
 6.517189089625000E9    -2.294049460159899E-1   -1.326139258825551E-2    1.379465071884089E-2   -6.137401288734591E-3    1.389227628947661E-2   -5.599538250221848E-3    2.179383488926531E-1    5.037020565068396E-1
 6.517200487150000E9    -2.292004151312341E-1   -1.305793088658525E-2    1.388418039457934E-2   -6.079538336921608E-3    1.408308369351461E-2   -5.552242886041017E-3    2.187654312660363E-1    5.035161551339686E-1
 6.517211884675000E9    -2.292202517762569E-1   -1.301517551627151E-2    1.401655971548535E-2   -6.235740062308079E-3    1.407122048793617E-2   -5.718288426426972E-3    2.196011601671291E-1    5.029209030101734E-1
 6.517223282200000E9    -2.290739302601574E-1   -1.274511473773408E-2    1.411257294869446E-2   -6.281468881175218E-3    1.417786679596145E-2   -5.780295647955044E-3    2.204855987576049E-1    5.027234812065907E-1
 6.517234679725000E9    -2.289333371266661E-1   -1.266141943613707E-2    1.414271422044889E-2   -6.269879734699091E-3    1.420340097008739E-2   -5.754747923975607E-3    2.213184160510272E-1    5.021503097959928E-1
 6.517246077250000E9    -2.288453790452389E-1   -1.251463326423219E-2    1.413083335056946E-2   -6.349815472327565E-3    1.428998954633362E-2   -5.888363291345131E-3    2.221277219300074E-1    5.020369273359692E-1
 6.517257474775000E9    -2.286799706637652E-1   -1.216805153948865E-2    1.432711781267056E-2   -6.318244494171954E-3    1.430090530415385E-2   -5.951075476542264E-3    2.228886027490863E-1    5.016150326616727E-1
 6.517268872300000E9    -2.286918895207079E-1   -1.203963104547334E-2    1.431373933826595E-2   -6.418380293981456E-3    1.451958390592382E-2   -5.842164817412190E-3    2.237727611769391E-1    5.012298900861002E-1
 6.517280269825000E9    -2.284031166205773E-1   -1.191035362913031E-2    1.443003484674887E-2   -6.592950020698999E-3    1.438040231324933E-2   -5.910565246491394E-3    2.244663351770951E-1    5.009031350195213E-1
 6.517291667350000E9    -2.282935816651022E-1   -1.179214160104181E-2    1.444058211036415E-2   -6.514290791194363E-3    1.452666354707185E-2   -6.080004041205699E-3    2.253271911135391E-1    5.005380076380446E-1
 6.517303064875000E9    -2.282018917127142E-1   -1.158516639518989E-2    1.448066314203538E-2   -6.573950213521041E-3    1.457463846525434E-2   -6.196344139823286E-3    2.263750530559270E-1    5.001103534731247E-1
 6.517314462400000E9    -2.279826035680710E-1   -1.141987960786131E-2    1.446819661289097E-2   -6.790151556134637E-3    1.466971853329287E-2   -6.163625438894318E-3    2.270458493041245E-1    4.996792787181599E-1
 6.517325859925000E9    -2.278310471242772E-1   -1.134445304210683E-2    1.456315240575510E-2   -6.842149096320901E-3    1.478570052000712E-2   -6.271945337122242E-3    2.279826327776147E-1    4.994010946423028E-1
 6.517337257450000E9    -2.277432309487144E-1   -1.105687943022707E-2    1.464043660770832E-2   -6.929476929228101E-3    1.473951078897965E-2   -6.319580372274940E-3    2.288825903255153E-1    4.990195147561198E-1
 6.517348654975000E9    -2.275870298933976E-1   -1.086626265298262E-2    1.481540063099676E-2   -6.844762272731172E-3    1.488469061451220E-2   -6.372299583325866E-3    2.296964872011562E-1    4.986938051267513E-1
 6.517360052500000E9    -2.275497777587491E-1   -1.080723804209644E-2    1.486184036587968E-2   -6.954152969028482E-3    1.501049780364771E-2   -6.393392289107999E-3    2.305204123427558E-1    4.981752961606367E-1
 6.517371450025000E9    -2.273340059883236E-1   -1.070760785019004E-2    1.492082348706513E-2   -6.975292881914921E-3    1.502153255521651E-2   -6.556680096556567E-3    2.313165070495233E-1    4.979692780678584E-1
 6.517382847550000E9    -2.271230565159269E-1   -1.047587978957158E-2    1.495892844429718E-2   -7.081085895578564E-3    1.504629739195107E-2   -6.617618253857478E-3    2.323381964201888E-1    4.975396151370464E-1
 6.517394245075000E9    -2.271464601573672E-1   -1.036314636184821E-2    1.497964624720493E-2   -7.206184411246925E-3    1.515999728898437E-2   -6.689884629147210E-3    2.331361566338316E-1    4.971248080022985E-1
 6.517405642600000E9    -2.269287382624340E-1   -1.014423364192781E-2    1.496549356454154E-2   -7.228126214464322E-3    1.520821778693627E-2   -6.602212461408165E-3    2.338237183447803E-1    4.967198988565740E-1
 6.517417040125000E9    -2.268107514920106E-1   -1.005508355523213E-2    1.517651192437568E-2   -7.367558364803292E-3    1.517498411389222E-2   -6.845072401940972E-3    2.346699804902359E-1    4.962901690348749E-1
 6.517428437650000E9    -2.266787615764795E-1   -9.787152761136111E-3    1.508036111200161E-2   -7.525795076708639E-3    1.540745648423285E-2   -6.826363058137198E-3    2.354189370045423E-1    4.958032833567498E-1
 6.517439835175000E9    -2.264658865960227E-1   -9.691606603645870E-3    1.529124121828981E-2   -7.470618609010762E-3    1.538406848110222E-2   -6.818090934676971E-3    2.363437850744336E-1    4.956816615741395E-1
 6.517451232700000E9    -2.264154509458114E-1   -9.500732166583696E-3    1.545317870317091E-2   -7.356836966100490E-3    1.550029619594682E-2   -7.118999099462248E-3    2.371065898009248E-1    4.952648936945837E-1
 6.517462630225000E9    -2.262442208326096E-1   -9.385343468583295E-3    1.543038478210064E-2   -7.535224259809001E-3    1.551787327648057E-2   -7.126151177045122E-3    2.379575325931662E-1    4.948954803593459E-1
 6.517474027750000E9    -2.260916130902478E-1   -9.292607292435109E-3    1.535487015018337E-2   -7.650088793217593E-3    1.562212356251164E-2   -7.234190366093904E-3    2.387864249827633E-1    4.944630473749440E-1
 6.517485425275000E9    -2.259924605221040E-1   -9.091223464032972E-3    1.555307565150110E-2   -7.690890375905799E-3    1.579333393458070E-2   -7.174455770214918E-3    2.397299570852306E-1    4.939468208936764E-1
 6.517496822800000E9    -2.257989853461025E-1   -8.996518260693604E-3    1.556439421175620E-2   -7.751270063499346E-3    1.572392973795867E-2   -7.281251790293772E-3    2.406091027529612E-1    4.935765319797853E-1
 6.517508220325000E9    -2.255971118715585E-1   -8.789782160746702E-3    1.567124399736600E-2   -7.842840822847294E-3    1.586115627780902E-2   -7.482541016458602E-3    2.413047857513479E-1    4.932235689271043E-1
 6.517519617850000E9    -2.254894975676174E-1   -8.572356804818819E-3    1.569130958935657E-2   -8.069613927102853E-3    1.595285094564659E-2   -7.418963036493804E-3    2.421424810460474E-1    4.928021179964600E-1
 6.517531015375000E9    -2.252932963993109E-1   -8.533250721729242E-3    1.571940648934772E-2   -7.941087587055869E-3    1.601467359115805E-2   -7.426361382351754E-3    2.430932495998894E-1    4.923353469621610E-1
 6.517542412900000E9    -2.252191017722751E-1   -8.403264083659868E-3    1.591756772358692E-2   -8.065449294215953E-3    1.613895381743498E-2   -7.623678947693298E-3    2.441165898308630E-1    4.920580150392075E-1
 6.517553810425000E9    -2.249994319942546E-1   -8.119190293902047E-3    1.596983090574864E-2   -8.222436639270003E-3    1.614682928989848E-2   -7.732573078660159E-3    2.447819929464293E-1    4.916327698091394E-1
 6.517565207950000E9    -2.248135112337157E-1   -8.058991854290279E-3    1.610544076741408E-2   -8.292488613795182E-3    1.627079969030365E-2   -7.750653103327519E-3    2.454868471539309E-1    4.910735092834782E-1
 6.517576605475000E9    -2.246267808586105E-1   -7.863672163340938E-3    1.620655260253077E-2   -8.405724892982960E-3    1.644283676169039E-2   -7.753673593327329E-3    2.465323508396360E-1    4.907117792845011E-1
 6.517588003000000E9    -2.246477800438058E-1   -7.792581795940110E-3    1.622050039380513E-2   -8.468814669976654E-3    1.642212235385217E-2   -7.915251092181063E-3    2.473024963920772E-1    4.902271437019171E-1
 6.517599400525000E9    -2.243361182956381E-1   -7.632767753683991E-3    1.631116578207778E-2   -8.569964791135455E-3    1.653828624835564E-2   -8.038036595640102E-3    2.481201341582566E-1    4.897847695157695E-1
 6.517610798050000E9    -2.243244660176849E-1   -7.546631165650942E-3    1.627510033734588E-2   -8.653330558435675E-3    1.657727939484299E-2   -8.038355646021324E-3    2.489143462945963E-1    4.894730073052136E-1
 6.517622195575000E9    -2.240793276215513E-1   -7.321178543735169E-3    1.622809770350623E-2   -8.707997864962349E-3    1.658322618995136E-2   -8.092982676084605E-3    2.498393322167280E-1    4.890007932094885E-1
 6.517633593100000E9    -2.239282298630599E-1   -7.252941089239364E-3    1.649588826045303E-2   -8.888021971617354E-3    1.670017806518701E-2   -8.264395928278769E-3    2.506945841198993E-1    4.886026133424912E-1
 6.517644990625000E9    -2.237254474747448E-1   -7.029743350408985E-3    1.655682093175812E-2   -8.927239051888722E-3    1.676907456093798E-2   -8.290477242012546E-3    2.515292346310992E-1    4.881203351643629E-1
 6.517656388150000E9    -2.234974496092912E-1   -6.995759950249355E-3    1.668136912722937E-2   -9.031409113493413E-3    1.691983222183569E-2   -8.445487759490285E-3    2.522501506664533E-1    4.876567772727389E-1
 6.517667785675000E9    -2.233907205699699E-1   -6.851156226069937E-3    1.675974749247529E-2   -9.142440316865052E-3    1.709151240078019E-2   -8.580264661861623E-3    2.532356800329332E-1    4.873094109331526E-1
 6.517679183200000E9    -2.232420336077068E-1   -6.768299177671235E-3    1.681655335887795E-2   -9.247030123857811E-3    1.706477998110869E-2   -8.655232299542055E-3    2.540429121007405E-1    4.869935076377057E-1
 6.517690580725000E9    -2.229766639283279E-1   -6.567542751764167E-3    1.705471425415686E-2   -9.281950125740674E-3    1.723777899104896E-2   -8.639074339868900E-3    2.547696965144003E-1    4.863533516534274E-1
 6.517701978250000E9    -2.229196596490366E-1   -6.477356100878481E-3    1.697199027252356E-2   -9.329413405764792E-3    1.725395194459081E-2   -8.746488684604065E-3    2.557436319739145E-1    4.859293628859354E-1
 6.517713375775000E9    -2.227587151659715E-1   -6.420810251950635E-3    1.719211169350083E-2   -9.415104590733893E-3    1.732706190474936E-2   -8.864745167453498E-3    2.565612019784073E-1    4.856010963093250E-1
 6.517724773300000E9    -2.225317983426947E-1   -6.209504094835037E-3    1.729686233462892E-2   -9.543102274311106E-3    1.749029844003360E-2   -9.005442233959177E-3    2.573911628606392E-1    4.850007025289296E-1
 6.517736170825000E9    -2.223769910072787E-1   -6.120610960605598E-3    1.728848618053678E-2   -9.675120544145549E-3    1.752049167478072E-2   -9.129872058330083E-3    2.583058668292967E-1    4.848349835547411E-1
 6.517747568350000E9    -2.222305681903830E-1   -5.935328254321825E-3    1.739893311115605E-2   -9.758868763519007E-3    1.766605903014239E-2   -9.151505168963901E-3    2.591638774554036E-1    4.840832908997722E-1
 6.517758965875000E9    -2.221429332385243E-1   -5.832812847025150E-3    1.749110366598392E-2   -9.861544926278396E-3    1.772596116105679E-2   -9.226372912216065E-3    2.598591419517309E-1    4.837881798066079E-1
 6.517770363400000E9    -2.218845202166586E-1   -5.650604334960093E-3    1.754936521604995E-2   -9.999561789857654E-3    1.781021275685870E-2   -9.348825915541988E-3    2.607263791790053E-1    4.833790439059359E-1
 6.517781760925000E9    -2.217306659384159E-1   -5.646793889962147E-3    1.752909606043874E-2   -1.009019091796346E-2    1.788985941930698E-2   -9.566253193415985E-3    2.615838750467013E-1    4.828123871057162E-1
 6.517793158450000E9    -2.214521791672037E-1   -5.489121738653425E-3    1.788480127604738E-2   -1.022518944297225E-2    1.803667369489041E-2   -9.564574917216472E-3    2.624204311078567E-1    4.823188004263177E-1
 6.517804555975000E9    -2.213153045600937E-1   -5.338913322263900E-3    1.786153695825715E-2   -1.034198255227248E-2    1.826926317255259E-2   -9.670338159133138E-3    2.632058506682357E-1    4.818040193253219E-1
 6.517815953500000E9    -2.212075641641851E-1   -5.268050537546439E-3    1.802734923028810E-2   -1.036088522181001E-2    1.826417110039926E-2   -9.841171677218770E-3    2.642166724058415E-1    4.814644613574210E-1
 6.517827351025000E9    -2.208899084728807E-1   -5.149610772826017E-3    1.815400244061765E-2   -1.051585995887564E-2    1.831308430104905E-2   -1.001460098574447E-2    2.650527615998112E-1    4.810129910080380E-1
 6.517838748550000E9    -2.207324361419885E-1   -5.125797675527061E-3    1.817728801770542E-2   -1.062746735578441E-2    1.858132667633449E-2   -1.006078894995497E-2    2.658446885385726E-1    4.805820289595329E-1
 6.517850146075000E9    -2.205522476282128E-1   -5.024881840573090E-3    1.823474689059816E-2   -1.076410931423886E-2    1.856293572791184E-2   -1.016918843067635E-2    2.666385190727290E-1    4.799620012146632E-1
 6.517861543600000E9    -2.203252043112751E-1   -5.015282822856822E-3    1.840538716668115E-2   -1.077594826749224E-2    1.857522819851096E-2   -1.027791086131228E-2    2.675110168100250E-1    4.794597810889193E-1
 6.517872941125000E9    -2.202133187794636E-1   -4.758208754199651E-3    1.845854594966315E-2   -1.095967888594702E-2    1.868104757442778E-2   -1.042751923539770E-2    2.683241600179957E-1    4.790424091496594E-1
 6.517884338650000E9    -2.198753249926850E-1   -4.703672162628326E-3    1.866551750380526E-2   -1.111355166396403E-2    1.894741837330407E-2   -1.060606159696468E-2    2.692734079129926E-1    4.784997143558029E-1
 6.517895736175000E9    -2.197998130163415E-1   -4.624772304469870E-3    1.876949304355879E-2   -1.130664948699953E-2    1.902117346377583E-2   -1.062446188129996E-2    2.700316562241296E-1    4.779349233091334E-1
 6.517907133700000E9    -2.194866741265787E-1   -4.577817749573516E-3    1.868395388720568E-2   -1.124111142540734E-2    1.907199932399248E-2   -1.079308156086833E-2    2.708365253732389E-1    4.775527003741659E-1
 6.517918531225000E9    -2.194281899075254E-1   -4.377206423258498E-3    1.888929245608091E-2   -1.146534912929874E-2    1.929961090360675E-2   -1.091596036971578E-2    2.717404927732057E-1    4.770449830734342E-1
 6.517929928750000E9    -2.191556020762300E-1   -4.259502241625277E-3    1.911122383266326E-2   -1.161162492533316E-2    1.934602522199575E-2   -1.096257946125071E-2    2.725334122795648E-1    4.766095241299427E-1
 6.517941326275000E9    -2.190059702034830E-1   -4.193017860765532E-3    1.908868986839785E-2   -1.172811728698526E-2    1.945132241568506E-2   -1.124733963658675E-2    2.734796270478253E-1    4.759615615710956E-1
 6.517952723800000E9    -2.187601366537023E-1   -4.107631878764034E-3    1.916406420084788E-2   -1.186918917836376E-2    1.959988654142356E-2   -1.134898552697396E-2    2.742766499290124E-1    4.755313826274673E-1
 6.517964121325000E9    -2.186125359441697E-1   -4.118282747970579E-3    1.934243287455282E-2   -1.206829732806013E-2    1.970477596753397E-2   -1.139608072574565E-2    2.751797278666095E-1    4.749693091254966E-1
 6.517975518850000E9    -2.183556623840565E-1   -3.948646027593013E-3    1.942098709631356E-2   -1.222024402928100E-2    1.979983917093450E-2   -1.159513310140828E-2    2.760038763584845E-1    4.745775817597927E-1
 6.517986916375000E9    -2.180454404844475E-1   -3.849989371705578E-3    1.963281921999604E-2   -1.230217856549435E-2    1.996546846911307E-2   -1.163570441809846E-2    2.768313364959169E-1    4.740536643945718E-1
 6.517998313900000E9    -2.179228606728633E-1   -3.820600583640327E-3    1.960327516124835E-2   -1.239910503129986E-2    2.004975804761655E-2   -1.187898784498531E-2    2.776904046696737E-1    4.734785121533026E-1
 6.518009711425000E9    -2.176727307947018E-1   -3.634376302908870E-3    1.991810035243243E-2   -1.269155694648504E-2    2.012219163246851E-2   -1.200809177405715E-2    2.785708811722213E-1    4.728583592773086E-1
 6.518021108950000E9    -2.174888360614477E-1   -3.703850367946561E-3    2.005331903270765E-2   -1.278473512114042E-2    2.035562288540145E-2   -1.209091419291592E-2    2.792299184331609E-1    4.724498043856199E-1
 6.518032506475000E9    -2.170621144739587E-1   -3.602877936775592E-3    2.003544507721016E-2   -1.289921335578168E-2    2.039451913849891E-2   -1.228326563254849E-2    2.801113916600229E-1    4.718894153620838E-1
 6.518043904000000E9    -2.170695781095425E-1   -3.525335548695556E-3    2.007571761590560E-2   -1.308198396078462E-2    2.067962553048422E-2   -1.237816581123916E-2    2.810841397849153E-1    4.713599750079026E-1
 6.518055301525000E9    -2.167566104850045E-1   -3.373527855949138E-3    2.025488475005077E-2   -1.339376747825555E-2    2.079824914319641E-2   -1.260987406344704E-2    2.820112827914317E-1    4.709881390408616E-1
 6.518066699050000E9    -2.164973770288698E-1   -3.379861632468087E-3    2.036884450671228E-2   -1.330889744255886E-2    2.084239513417255E-2   -1.283629736421705E-2    2.827911944447898E-1    4.703007785243843E-1
 6.518078096575000E9    -2.163551854384754E-1   -3.405720274939285E-3    2.048920262626531E-2   -1.350934247474291E-2    2.108878378266722E-2   -1.289240263542160E-2    2.836618906100641E-1    4.698122126390248E-1
 6.518089494100000E9    -2.160532549562951E-1   -3.302693313313289E-3    2.071821022694865E-2   -1.377024156016093E-2    2.118996671525107E-2   -1.305200822642656E-2    2.845325514874747E-1    4.692633477392740E-1
 6.518100891625000E9    -2.158754653532708E-1   -3.212869207737037E-3    2.063307590411848E-2   -1.391724710608322E-2    2.133993276169429E-2   -1.331594214994552E-2    2.853714248852537E-1    4.686639894253675E-1
 6.518112289150000E9    -2.154784531219152E-1   -3.246034277551394E-3    2.081835768424527E-2   -1.398863370657948E-2    2.138438926608995E-2   -1.342108115134496E-2    2.862622476521596E-1    4.682089013243809E-1
 6.518123686675000E9    -2.154199811034792E-1   -3.164901354661668E-3    2.106784217599953E-2   -1.425194295002601E-2    2.156872541803250E-2   -1.360826825812421E-2    2.870273689850667E-1    4.675538486467467E-1
 6.518135084200000E9    -2.152085073932912E-1   -3.225716235963895E-3    2.124083706744436E-2   -1.445576897116731E-2    2.169712017214242E-2   -1.361531729799272E-2    2.880416909656275E-1    4.669845370276878E-1
 6.518146481725000E9    -2.148556612047206E-1   -3.106704998146202E-3    2.121152095258544E-2   -1.482458949410118E-2    2.176451568281505E-2   -1.401666831089764E-2    2.888598453529790E-1    4.664121459857323E-1
 6.518157879250000E9    -2.146563499004543E-1   -3.070999447022638E-3    2.154586993381220E-2   -1.481998263225360E-2    2.193202415862317E-2   -1.422485714608806E-2    2.897291649472800E-1    4.659213966438554E-1
