#  HZ   S   RI   R     50.00 
! Rohde & Schwarz Vector Network Analyzer 
! Rohde-Schwarz,ZNB20-2Port,1311601062101988,3.16
! Created: UTC 12/23/2023, 4:04:45 AM
! freq[Hz]                re:S11                  im:S11                  re:S21                  im:S21                  re:S12                  im:S12                  re:S22                  im:S22
 7.837763536000000E9     5.663784435684722E-1   -1.495054564693818E-2    1.585127976164797E-3    3.702490521018531E-3    1.614683719076015E-3    3.578039610188486E-3    4.385790056651566E-1   -3.148020399097531E-1
 7.837794422700000E9     5.662522388259551E-1   -1.691205715215885E-2    1.611573054600670E-3    3.717169349560151E-3    1.599635329334360E-3    3.653400469640516E-3    4.373720571158693E-1   -3.163803371269304E-1
 7.837825309400000E9     5.661764836909098E-1   -1.904442592156161E-2    1.642181189860864E-3    3.662098005035586E-3    1.643570985874558E-3    3.614427257954878E-3    4.360190804855173E-1   -3.182282782730612E-1
 7.837856196100000E9     5.660865353450670E-1   -2.109729935649152E-2    1.636099052547526E-3    3.697052274964682E-3    1.666886872021294E-3    3.595926182786750E-3    4.347482416089435E-1   -3.201354681201641E-1
 7.837887082800000E9     5.662037246570644E-1   -2.310618207783848E-2    1.687627734768193E-3    3.711800266490493E-3    1.673701737943010E-3    3.619661030494763E-3    4.334843021801198E-1   -3.217959530504957E-1
 7.837917969500000E9     5.660138209319592E-1   -2.515145993481858E-2    1.669783167728987E-3    3.701333838077768E-3    1.713608462317579E-3    3.630221230878421E-3    4.323042410521251E-1   -3.235055680467188E-1
 7.837948856200000E9     5.658182567387984E-1   -2.716564522076107E-2    1.721292250810188E-3    3.697049714869287E-3    1.689113403966364E-3    3.622958101631353E-3    4.309551238566682E-1   -3.253804313919473E-1
 7.837979742900000E9     5.660765726859383E-1   -2.932672569687385E-2    1.715748827953811E-3    3.693023965700629E-3    1.736694468366790E-3    3.627923181921375E-3    4.295234808854422E-1   -3.269213305679102E-1
 7.838010629600000E9     5.659148780312363E-1   -3.128783275683816E-2    1.755968409033694E-3    3.691865355372067E-3    1.728351220587549E-3    3.630356331427302E-3    4.283655750746049E-1   -3.285431548246233E-1
 7.838041516300000E9     5.657382632523842E-1   -3.336918475517806E-2    1.754919447220992E-3    3.689730436470096E-3    1.778034794966992E-3    3.653676294616323E-3    4.271373218336879E-1   -3.304092881243958E-1
 7.838072403000000E9     5.656571745468340E-1   -3.554626268120988E-2    1.749622933209962E-3    3.685277888635082E-3    1.799466771604845E-3    3.611065510894964E-3    4.257266164378128E-1   -3.322625244831316E-1
 7.838103289700000E9     5.655776699227043E-1   -3.746318413069371E-2    1.813659391810976E-3    3.701745383357641E-3    1.827915127007558E-3    3.598049358309659E-3    4.245316753422182E-1   -3.339429431090573E-1
 7.838134176400000E9     5.652951192529261E-1   -3.949277715103312E-2    1.803970720944686E-3    3.723197657977976E-3    1.823121722104313E-3    3.649105997714051E-3    4.230132294162318E-1   -3.355496641786527E-1
 7.838165063100000E9     5.652508499274056E-1   -4.158374500872399E-2    1.816799084437212E-3    3.692990475550684E-3    1.813181482752225E-3    3.630359037895869E-3    4.217987552465022E-1   -3.373343987984689E-1
 7.838195949800000E9     5.650375786711991E-1   -4.354592094041846E-2    1.874854765588801E-3    3.673085791338229E-3    1.872173107077184E-3    3.630592257465313E-3    4.205078765572655E-1   -3.391191027033243E-1
 7.838226836500000E9     5.650202938256444E-1   -4.563133389470413E-2    1.883555974827845E-3    3.660503083103943E-3    1.889643870069142E-3    3.626284526403387E-3    4.190125921003569E-1   -3.405253645863385E-1
 7.838257723200000E9     5.648931807959052E-1   -4.772325032366626E-2    1.878367390694692E-3    3.687916913975667E-3    1.864579449658805E-3    3.602191197796231E-3    4.175248052522765E-1   -3.422840606895143E-1
 7.838288609900000E9     5.645994596940442E-1   -4.985481303831944E-2    1.906334916553222E-3    3.656955586968694E-3    1.902469331692854E-3    3.605217478724275E-3    4.162395547003863E-1   -3.439332818176369E-1
 7.838319496600000E9     5.643574014992764E-1   -5.181930540197911E-2    1.920431728807994E-3    3.653971430792466E-3    1.939752861716089E-3    3.595283859370980E-3    4.149492501975854E-1   -3.457085675605643E-1
 7.838350383300000E9     5.643092205543815E-1   -5.383390143835244E-2    1.923277197456540E-3    3.650488733625139E-3    1.932396358450037E-3    3.622891363714843E-3    4.137174198173289E-1   -3.474184072279876E-1
 7.838381270000000E9     5.640617491992936E-1   -5.603067644227865E-2    1.948576236617109E-3    3.663126289653506E-3    1.959911329745134E-3    3.577106179248779E-3    4.122156812748524E-1   -3.491283170204941E-1
 7.838412156700000E9     5.638798101971887E-1   -5.806637504378143E-2    2.004767908902598E-3    3.669284796546510E-3    1.951180741230718E-3    3.599990815468873E-3    4.108141017755618E-1   -3.506664452145282E-1
 7.838443043400000E9     5.637724683776337E-1   -6.013611807325744E-2    2.010720244426480E-3    3.660457666975235E-3    1.980834557085176E-3    3.633914704539385E-3    4.094834813969714E-1   -3.523759622508757E-1
 7.838473930100000E9     5.633815706228178E-1   -6.197437744195904E-2    2.057440890517893E-3    3.663463473940633E-3    2.018536291444104E-3    3.594795938449320E-3    4.078860468870424E-1   -3.540266650648953E-1
 7.838504816800000E9     5.632251095235652E-1   -6.423023348819974E-2    2.043974772912872E-3    3.651528213777039E-3    2.058863476472006E-3    3.587176439121942E-3    4.065862147933550E-1   -3.556334067714936E-1
 7.838535703500000E9     5.629624405696418E-1   -6.618888846820362E-2    2.050839165037777E-3    3.627698024231346E-3    2.059494097087537E-3    3.570516169523392E-3    4.051238464202365E-1   -3.571615763173086E-1
 7.838566590200000E9     5.627209925131382E-1   -6.821512120391077E-2    2.071722676195429E-3    3.646781750217990E-3    2.075407223413017E-3    3.580182499643761E-3    4.036805294216212E-1   -3.589385800871018E-1
 7.838597476900000E9     5.626203379661731E-1   -7.023085930073759E-2    2.108964695470186E-3    3.653088597775229E-3    2.080116375179923E-3    3.568171104238801E-3    4.022196670067652E-1   -3.603163092401501E-1
 7.838628363600000E9     5.622212715778749E-1   -7.246250683954046E-2    2.102919339772065E-3    3.659127420486108E-3    2.099098950588670E-3    3.584513495804245E-3    4.007759967883390E-1   -3.621856695335236E-1
 7.838659250300000E9     5.621143979584958E-1   -7.439122378149471E-2    2.175966144872534E-3    3.647074738937377E-3    2.116672825740406E-3    3.615068307572135E-3    3.993321569487358E-1   -3.637966798635777E-1
 7.838690137000000E9     5.616978345671984E-1   -7.652694930246426E-2    2.168819819202139E-3    3.640011047312315E-3    2.182519188087429E-3    3.574953873498363E-3    3.979712954737677E-1   -3.653114259711326E-1
 7.838721023700000E9     5.614062391115647E-1   -7.832821741640397E-2    2.173743634195646E-3    3.650070972359829E-3    2.174121514963049E-3    3.574756372861543E-3    3.963785099658867E-1   -3.669829203370298E-1
 7.838751910400000E9     5.610505034609099E-1   -8.048608086988669E-2    2.201016873291247E-3    3.647392996036024E-3    2.186096617056587E-3    3.573251449362964E-3    3.949540155840459E-1   -3.685811551977827E-1
 7.838782797100000E9     5.607350123114940E-1   -8.260163748900132E-2    2.223151773813957E-3    3.626282512965072E-3    2.225341263204100E-3    3.593223460996888E-3    3.934876465003896E-1   -3.700226905935859E-1
 7.838813683800000E9     5.605747265248857E-1   -8.463084595461691E-2    2.241253045421080E-3    3.629816757167958E-3    2.194926746911166E-3    3.580661715321320E-3    3.921380636726297E-1   -3.716623803124519E-1
 7.838844570500000E9     5.601187254408057E-1   -8.656113546091862E-2    2.268346611151698E-3    3.626856924442015E-3    2.256750359226674E-3    3.595806909616581E-3    3.905747566334116E-1   -3.733719796465886E-1
 7.838875457200000E9     5.598469404553559E-1   -8.871286632778363E-2    2.270916231456427E-3    3.648927644936681E-3    2.229458118456924E-3    3.586866935677121E-3    3.888771347832438E-1   -3.748761887618005E-1
 7.838906343900000E9     5.595584392172104E-1   -9.067446635195538E-2    2.290709410390669E-3    3.620343249341636E-3    2.298884692477321E-3    3.588351293800702E-3    3.875740505482405E-1   -3.763514455591570E-1
 7.838937230600000E9     5.592578866760521E-1   -9.286808073699018E-2    2.321002806073721E-3    3.618160183441372E-3    2.328558388747428E-3    3.538788770205016E-3    3.861177301116035E-1   -3.779168394754615E-1
 7.838968117300000E9     5.589917566929066E-1   -9.464904890460421E-2    2.350360680505405E-3    3.625151650275255E-3    2.328370840349721E-3    3.562937514192059E-3    3.846228854040792E-1   -3.795189134408669E-1
 7.838999004000000E9     5.585490315019807E-1   -9.691898489503165E-2    2.344402737476012E-3    3.623708369792415E-3    2.375995083211548E-3    3.535270212957109E-3    3.829147769523593E-1   -3.810585864066563E-1
 7.839029890700000E9     5.582578957351674E-1   -9.889511437565909E-2    2.404955830559911E-3    3.614512685620858E-3    2.346183637984436E-3    3.553245130618312E-3    3.814547567095444E-1   -3.825388645898043E-1
 7.839060777400000E9     5.577923043708624E-1   -1.008712920274835E-1    2.410647463889642E-3    3.644569420120240E-3    2.382148849520042E-3    3.597967858604853E-3    3.798506585730694E-1   -3.840688236730467E-1
 7.839091664100000E9     5.574521664324579E-1   -1.028865096162507E-1    2.414939646820126E-3    3.631728923985280E-3    2.414461778420919E-3    3.586716719319050E-3    3.785721863713760E-1   -3.857230692062481E-1
 7.839122550800000E9     5.572812552549831E-1   -1.049431896058494E-1    2.458406290187171E-3    3.628355517256135E-3    2.440944727974364E-3    3.550809493503796E-3    3.769849906102420E-1   -3.871892305702989E-1
 7.839153437500000E9     5.567208496046697E-1   -1.070194370842102E-1    2.442678924533707E-3    3.619518688582343E-3    2.474007913328738E-3    3.553542899942777E-3    3.753724766669201E-1   -3.887939260684609E-1
 7.839184324200000E9     5.564442328101642E-1   -1.091292754554922E-1    2.481749200805161E-3    3.591499800539032E-3    2.455021038807897E-3    3.547964607219011E-3    3.738764502882588E-1   -3.901685384949896E-1
 7.839215210900000E9     5.559012525088266E-1   -1.109451199534150E-1    2.508121125705740E-3    3.602233341985213E-3    2.477997861345749E-3    3.551704181348870E-3    3.723368314409901E-1   -3.917059632223895E-1
 7.839246097600000E9     5.557092901709303E-1   -1.131105349275097E-1    2.538921748791388E-3    3.610204057146123E-3    2.521052190924447E-3    3.561033990323533E-3    3.708735581815296E-1   -3.932781376613960E-1
 7.839276984300000E9     5.550554125736258E-1   -1.151263177576417E-1    2.574258342386820E-3    3.586204554041076E-3    2.513155737160505E-3    3.523769403171372E-3    3.690309648090013E-1   -3.948147072268707E-1
 7.839307871000000E9     5.548111957520222E-1   -1.171021406767754E-1    2.572911453572763E-3    3.595558843421382E-3    2.573571772816860E-3    3.572805172465565E-3    3.675472366513777E-1   -3.962054105009897E-1
 7.839338757700000E9     5.544393236177461E-1   -1.191944154990263E-1    2.621175776179685E-3    3.596036820325527E-3    2.557797959722580E-3    3.555850112614423E-3    3.657988747012597E-1   -3.976956973168802E-1
 7.839369644400000E9     5.539696101430063E-1   -1.212491781317361E-1    2.616466533971205E-3    3.599130965470600E-3    2.584168884899121E-3    3.533931912109602E-3    3.643318659741207E-1   -3.990760615757966E-1
 7.839400531100000E9     5.535158976222843E-1   -1.231151249632869E-1    2.656301485996726E-3    3.562725574647425E-3    2.586992946222355E-3    3.542255878526772E-3    3.628169720517543E-1   -4.008595756868558E-1
 7.839431417800000E9     5.531754217200821E-1   -1.252105135911317E-1    2.664529768251291E-3    3.586887332502107E-3    2.656674224302622E-3    3.533612057640416E-3    3.611749267056837E-1   -4.020380469654449E-1
 7.839462304500000E9     5.525576543646754E-1   -1.271723937433515E-1    2.684429325139011E-3    3.573785905356162E-3    2.661872290472747E-3    3.528465953377283E-3    3.596233733110606E-1   -4.035308829244555E-1
 7.839493191200000E9     5.519519259277519E-1   -1.292787859921969E-1    2.720074933951200E-3    3.568757880299237E-3    2.677181768385282E-3    3.543558160010720E-3    3.579057805042083E-1   -4.049312505834711E-1
 7.839524077900000E9     5.516229247575172E-1   -1.312308606591182E-1    2.726703460616022E-3    3.578971131044512E-3    2.736839428084576E-3    3.544082877241977E-3    3.563091310815238E-1   -4.063902727294473E-1
 7.839554964600000E9     5.512231165929716E-1   -1.333485331746359E-1    2.774282724216778E-3    3.598492345130127E-3    2.725243274359776E-3    3.538097879555036E-3    3.547930356213711E-1   -4.078495141675624E-1
 7.839585851300000E9     5.505732757588470E-1   -1.353419954341807E-1    2.770065154455255E-3    3.597790468531301E-3    2.723115431108297E-3    3.519617189679277E-3    3.531605527484997E-1   -4.093218055693751E-1
 7.839616738000000E9     5.501145371269557E-1   -1.373042609720774E-1    2.793065668374276E-3    3.584383976234925E-3    2.764506302400612E-3    3.528606699811241E-3    3.513546841252125E-1   -4.107242431223849E-1
 7.839647624700000E9     5.496156044030907E-1   -1.392264487508182E-1    2.811028615485781E-3    3.564292050015053E-3    2.815792084915457E-3    3.513227788452642E-3    3.499185378783736E-1   -4.121526039266797E-1
 7.839678511400000E9     5.489636484041429E-1   -1.413178269570046E-1    2.852919891867956E-3    3.567714931248841E-3    2.818821114604957E-3    3.508544524077647E-3    3.480793846344411E-1   -4.134553398137864E-1
 7.839709398100000E9     5.486712282529804E-1   -1.433079955249807E-1    2.871249096853271E-3    3.580536089205720E-3    2.832795740220957E-3    3.534284317041095E-3    3.464806101158960E-1   -4.149308168878101E-1
 7.839740284800000E9     5.480375855716320E-1   -1.454105203536867E-1    2.903729520806446E-3    3.551810166038579E-3    2.840015059658336E-3    3.519319132608243E-3    3.448392553311378E-1   -4.163404993625084E-1
 7.839771171500000E9     5.474236204773869E-1   -1.472909519443081E-1    2.929284344143729E-3    3.554622454484746E-3    2.888630752305891E-3    3.535482537213925E-3    3.431344851526837E-1   -4.178283690384766E-1
 7.839802058200000E9     5.469715379305317E-1   -1.493267627985711E-1    2.945751554461449E-3    3.541583420770948E-3    2.910250362429736E-3    3.521901712277862E-3    3.415331157604867E-1   -4.189635160187045E-1
 7.839832944900000E9     5.464430370274843E-1   -1.513549584446375E-1    2.966856007437716E-3    3.552823388687640E-3    2.944358700132657E-3    3.536420651256457E-3    3.398782528745182E-1   -4.203280715399166E-1
 7.839863831600000E9     5.458807461822652E-1   -1.532504801377391E-1    3.004669411414051E-3    3.547619262215834E-3    2.943634948969290E-3    3.547796793134147E-3    3.380038259828685E-1   -4.218849952620722E-1
 7.839894718300000E9     5.451777891251891E-1   -1.553625762429320E-1    3.015176435097058E-3    3.549286610838782E-3    2.989581913306227E-3    3.525173726647404E-3    3.364196453042583E-1   -4.231772088602712E-1
 7.839925605000000E9     5.446830877863590E-1   -1.572798606618359E-1    3.048489211801815E-3    3.557873319820500E-3    3.001982486417394E-3    3.519006006059983E-3    3.348606236894046E-1   -4.243801871749440E-1
 7.839956491700000E9     5.441823362234438E-1   -1.592691067859317E-1    3.082000171599292E-3    3.548058461341244E-3    3.013435052254721E-3    3.500043938770215E-3    3.328314689241625E-1   -4.259090003911259E-1
 7.839987378400000E9     5.435547720628706E-1   -1.613009261378831E-1    3.076518624074039E-3    3.546992263914944E-3    3.079782119099984E-3    3.501778282407702E-3    3.313775169775862E-1   -4.271636138631430E-1
 7.840018265100000E9     5.429364416513524E-1   -1.632788185214028E-1    3.115987368369828E-3    3.531227301942252E-3    3.087807263498196E-3    3.519350633709779E-3    3.295835309776934E-1   -4.285366364708393E-1
 7.840049151800000E9     5.423245151581665E-1   -1.652383955512119E-1    3.129022280902111E-3    3.527064654388277E-3    3.155104984721617E-3    3.527972342722511E-3    3.279722782881181E-1   -4.298928466371010E-1
 7.840080038500000E9     5.417519251703300E-1   -1.672605584894689E-1    3.177053212624067E-3    3.549814475549860E-3    3.105950830800959E-3    3.495704344830826E-3    3.262166100092601E-1   -4.311444825415224E-1
 7.840110925200000E9     5.411016612538379E-1   -1.692799889360642E-1    3.201214793758064E-3    3.532580643246778E-3    3.130744744980555E-3    3.513647439352752E-3    3.245085343827010E-1   -4.325939903292433E-1
 7.840141811900000E9     5.404138699220583E-1   -1.712961761798862E-1    3.218370535097001E-3    3.521072922247747E-3    3.181998822089801E-3    3.513330230147626E-3    3.228097147514473E-1   -4.338749849884024E-1
 7.840172698600000E9     5.397576632976874E-1   -1.731472856798590E-1    3.268883988220784E-3    3.516557193492005E-3    3.234631164769492E-3    3.516686357163814E-3    3.209376636659487E-1   -4.351609739689883E-1
 7.840203585300000E9     5.391873329806390E-1   -1.751210646659332E-1    3.281167440091666E-3    3.505561192941533E-3    3.213003759034167E-3    3.466174031278968E-3    3.193346242450537E-1   -4.364526756499123E-1
 7.840234472000000E9     5.386108466031114E-1   -1.771646302553944E-1    3.307681966034258E-3    3.542755833879402E-3    3.290550671472593E-3    3.493577012155479E-3    3.177988379450001E-1   -4.377923750053770E-1
 7.840265358700000E9     5.378458920906883E-1   -1.792284482623318E-1    3.350151676488139E-3    3.513387735585835E-3    3.275604539504184E-3    3.514853047938000E-3    3.157374346968029E-1   -4.391472075101141E-1
 7.840296245400000E9     5.370798436356821E-1   -1.811566561921177E-1    3.338332442697586E-3    3.489802181080735E-3    3.296599831970993E-3    3.496832087460308E-3    3.141684643334535E-1   -4.402424649692082E-1
 7.840327132100000E9     5.364768421634011E-1   -1.831020242653797E-1    3.373434227771611E-3    3.484108580499969E-3    3.343541071146535E-3    3.484052271212406E-3    3.123713288088228E-1   -4.414454048277826E-1
 7.840358018800000E9     5.358445597964722E-1   -1.851781831685266E-1    3.431873212209695E-3    3.514924737680042E-3    3.372083742831727E-3    3.454001055067681E-3    3.106077266923952E-1   -4.427864373803143E-1
 7.840388905500000E9     5.351762030580104E-1   -1.870507308234252E-1    3.440589610749744E-3    3.493502849043742E-3    3.392011995474646E-3    3.440782873275637E-3    3.085887293401401E-1   -4.440135249892900E-1
 7.840419792200000E9     5.343659722267091E-1   -1.891552346377718E-1    3.469275038273599E-3    3.507960167497049E-3    3.434141266975016E-3    3.481026992750420E-3    3.069510685515752E-1   -4.452822081877976E-1
 7.840450678900000E9     5.338187580808950E-1   -1.910362989988419E-1    3.473292677720268E-3    3.492263938873373E-3    3.465244889013271E-3    3.454705744754747E-3    3.051689941557487E-1   -4.464636709528240E-1
 7.840481565600000E9     5.330156933527230E-1   -1.929941915494903E-1    3.503939977491897E-3    3.490482092067611E-3    3.485758601542081E-3    3.482427814042738E-3    3.035394179996406E-1   -4.479027753287459E-1
 7.840512452300000E9     5.322577839165389E-1   -1.949427801866942E-1    3.584509564198508E-3    3.470300078465149E-3    3.523574672506437E-3    3.466172363527277E-3    3.017047902068857E-1   -4.489126772866029E-1
 7.840543339000000E9     5.315583717095000E-1   -1.968445726147292E-1    3.598934506535315E-3    3.483160554808011E-3    3.547001800765917E-3    3.472275385643013E-3    2.998742724243814E-1   -4.501234034459277E-1
