#  HZ   S   RI   R     50.00 
! Rohde & Schwarz Vector Network Analyzer 
! Rohde-Schwarz,ZNB20-2Port,1311601062101988,3.16
! Created: UTC 3/20/2024, 11:49:52 AM
! freq[Hz]                re:S11                  im:S11                  re:S21                  im:S21                  re:S12                  im:S12                  re:S22                  im:S22
 8.116107782000000E9     5.047833920167225E-1    5.012631406588068E-2    2.652407425056954E-4    3.496363336355205E-3    3.648045694703086E-4    3.536134677708612E-3    4.353564224496685E-1   -1.088242322566904E-1
 8.116114513200000E9     5.047234451278040E-1    4.972148787508034E-2    2.781290793283642E-4    3.504681285549502E-3    3.387468210536933E-4    3.547448288103482E-3    4.352859707438713E-1   -1.093097515513943E-1
 8.116121244400000E9     5.049120559887063E-1    4.915937188653077E-2    3.128310642165386E-4    3.524738234517043E-3    3.492585763383386E-4    3.524027368719268E-3    4.351953698421466E-1   -1.097889028425174E-1
 8.116127975600000E9     5.048527586676284E-1    4.868014605582637E-2    2.759448550072727E-4    3.522649359911675E-3    3.376027144519270E-4    3.535991429841182E-3    4.349932667569364E-1   -1.101597535033703E-1
 8.116134706800000E9     5.050210084610839E-1    4.820739320760366E-2    3.074221043182565E-4    3.503464795493948E-3    3.508461457938830E-4    3.551942932717789E-3    4.350095123077805E-1   -1.107798575621733E-1
 8.116141438000000E9     5.049653430257885E-1    4.752703890231492E-2    3.188587308261250E-4    3.500175150032689E-3    3.774360648469909E-4    3.564120300876465E-3    4.349099784338373E-1   -1.111477904199386E-1
 8.116148169200000E9     5.049146502865502E-1    4.709302962732084E-2    3.236196653070301E-4    3.482852546710640E-3    3.392035544690916E-4    3.556653628477823E-3    4.347426767291282E-1   -1.115145015662503E-1
 8.116154900400000E9     5.050062935409523E-1    4.660274088395417E-2    2.981648429048943E-4    3.500380458830343E-3    3.654954494847737E-4    3.564352005260877E-3    4.345061916603326E-1   -1.119608098486907E-1
 8.116161631600000E9     5.050481283950853E-1    4.600904895426254E-2    3.162986071425503E-4    3.505885497866976E-3    3.761100474479696E-4    3.571963102991965E-3    4.345837175508498E-1   -1.124191742491146E-1
 8.116168362800000E9     5.052290311943155E-1    4.544780331176781E-2    2.946115563436954E-4    3.498633187787828E-3    4.148684151003796E-4    3.570325395706488E-3    4.344239457302556E-1   -1.129273556101470E-1
 8.116175094000000E9     5.051520068626448E-1    4.501194039665046E-2    3.057768023560455E-4    3.511018629773647E-3    3.858187548781804E-4    3.585988529019738E-3    4.342409662095826E-1   -1.134565435544267E-1
 8.116181825200000E9     5.051178501948635E-1    4.447652675476421E-2    3.178383380734020E-4    3.508502569266879E-3    4.101592328611257E-4    3.543796683351890E-3    4.344248157106125E-1   -1.139483780271498E-1
 8.116188556400000E9     5.051805440373947E-1    4.402257152749460E-2    3.639307954186175E-4    3.512102995273571E-3    4.010016300956366E-4    3.559647275460861E-3    4.340881639825387E-1   -1.141633595059504E-1
 8.116195287600000E9     5.052591056166770E-1    4.340778621259067E-2    3.664548709782443E-4    3.519210303616687E-3    4.064318937741266E-4    3.554998482857989E-3    4.340506259663475E-1   -1.147430849720956E-1
 8.116202018800000E9     5.052838556359033E-1    4.301084062454086E-2    3.628024636196413E-4    3.513973338101156E-3    3.922311532646742E-4    3.569998564998240E-3    4.340081783201142E-1   -1.152030561281101E-1
 8.116208750000000E9     5.053606036835949E-1    4.248721018205955E-2    3.577952743743118E-4    3.515571449453172E-3    4.137121299534458E-4    3.548166454798527E-3    4.339714125153369E-1   -1.156044616171186E-1
 8.116215481200000E9     5.053534347195033E-1    4.201507806406932E-2    3.505727547758934E-4    3.517621826865454E-3    3.941162657044682E-4    3.586000040075806E-3    4.337493574542356E-1   -1.161821143540756E-1
 8.116222212400000E9     5.053732373104215E-1    4.149538903975751E-2    3.728447117141343E-4    3.515114474166729E-3    4.053657636030986E-4    3.534767425120424E-3    4.335879747266931E-1   -1.166885533599711E-1
 8.116228943600000E9     5.055472928046317E-1    4.103847952401245E-2    3.573693999643169E-4    3.509394832149853E-3    4.010253608988504E-4    3.577302474452117E-3    4.335756095636582E-1   -1.169250448826858E-1
 8.116235674800000E9     5.054469206480546E-1    4.056831304454892E-2    3.804006723703230E-4    3.535650077864085E-3    4.797052169127298E-4    3.566183641986878E-3    4.335687575711960E-1   -1.174148512619606E-1
 8.116242406000000E9     5.055133258563979E-1    4.005861804794185E-2    3.822464574769532E-4    3.517829774386928E-3    4.310537274834958E-4    3.571821037896396E-3    4.335333909707254E-1   -1.179263154065057E-1
 8.116249137200000E9     5.055861296826276E-1    3.950934011993817E-2    3.806377603679061E-4    3.532554642535942E-3    4.158617587151262E-4    3.598018673721792E-3    4.332677147207619E-1   -1.184019935247294E-1
 8.116255868400000E9     5.055712001107039E-1    3.901714195831393E-2    3.810646670323142E-4    3.521488690811691E-3    4.364207433915059E-4    3.593439485308973E-3    4.331808601660768E-1   -1.188906499252349E-1
 8.116262599600000E9     5.055399524624059E-1    3.844791926445972E-2    3.946097261981852E-4    3.523756116914380E-3    4.485830486287477E-4    3.590040009353105E-3    4.330550975446061E-1   -1.191369390294056E-1
 8.116269330800000E9     5.055546094252753E-1    3.800092853827751E-2    3.922497445183517E-4    3.537859797812405E-3    4.322421327139520E-4    3.571372987945406E-3    4.329367287534935E-1   -1.198582807660461E-1
 8.116276062000000E9     5.056672850201375E-1    3.752711960650146E-2    4.020012289654258E-4    3.542066540657439E-3    4.535247408984887E-4    3.559286036732412E-3    4.328023728300790E-1   -1.202322527498063E-1
 8.116282793200000E9     5.057275425820098E-1    3.700840818601218E-2    3.796145208828112E-4    3.530589384814097E-3    4.383964263656233E-4    3.594917279633637E-3    4.327228620419558E-1   -1.207016565714804E-1
 8.116289524400000E9     5.056483251381594E-1    3.641385504880585E-2    3.968663191557231E-4    3.523387798209538E-3    4.471806453428587E-4    3.581851938983081E-3    4.325828760068388E-1   -1.210714712392248E-1
 8.116296255600000E9     5.057275611007869E-1    3.588101095450255E-2    3.908950380357829E-4    3.545992598648597E-3    4.561930013255048E-4    3.631337516536642E-3    4.323896568759437E-1   -1.214856392900243E-1
 8.116302986800000E9     5.056684342251653E-1    3.555894518060554E-2    3.865788433894053E-4    3.527926419606774E-3    4.304870546288193E-4    3.569668331850375E-3    4.324415653323184E-1   -1.221024328494672E-1
 8.116309718000000E9     5.057112883107853E-1    3.486990559924167E-2    4.097698940926346E-4    3.536020573714679E-3    4.488278290043360E-4    3.582921355450576E-3    4.323206295074981E-1   -1.224970845363962E-1
 8.116316449200000E9     5.058218410891577E-1    3.442964261320994E-2    4.050296221604590E-4    3.550153159677425E-3    4.350752618029975E-4    3.603718101294575E-3    4.320700257828938E-1   -1.227930394318854E-1
 8.116323180400000E9     5.056997059315714E-1    3.390716195281592E-2    3.995283775213266E-4    3.534027583827668E-3    4.489286993216990E-4    3.590036812288437E-3    4.320546987147312E-1   -1.233806554369011E-1
 8.116329911600000E9     5.057997790020967E-1    3.350579531479007E-2    4.315135522695813E-4    3.541139676531648E-3    4.950809726791363E-4    3.605653673620254E-3    4.319865735626089E-1   -1.238397102203387E-1
 8.116336642800000E9     5.058932563429899E-1    3.288807764238602E-2    4.557174365463578E-4    3.567006242673721E-3    4.537903195494093E-4    3.627919113897112E-3    4.318458844464752E-1   -1.243326153121100E-1
 8.116343374000000E9     5.057676396333355E-1    3.239987333369959E-2    4.211318195103508E-4    3.537577285210216E-3    4.593580166815175E-4    3.583097315655958E-3    4.316173442060321E-1   -1.248325208759904E-1
 8.116350105200000E9     5.059981816946275E-1    3.183176072993832E-2    4.113092290631111E-4    3.528351308669229E-3    4.851670461091795E-4    3.600501549464594E-3    4.315661478840344E-1   -1.252003719355632E-1
 8.116356836400000E9     5.059096921236403E-1    3.134557204869372E-2    4.377801738192288E-4    3.551752465617315E-3    4.977799995375276E-4    3.614453116322775E-3    4.314099962923007E-1   -1.255983883117252E-1
 8.116363567600000E9     5.059722648391096E-1    3.096862852366028E-2    4.353779678934037E-4    3.560082522756874E-3    5.087355246875026E-4    3.633095294861023E-3    4.313783164904974E-1   -1.262743110141357E-1
 8.116370298800000E9     5.060415195441884E-1    3.044804698443021E-2    4.454911444298281E-4    3.543034885533954E-3    4.808733558607672E-4    3.631710210858912E-3    4.312433486170816E-1   -1.265834816642781E-1
 8.116377030000000E9     5.060395884359277E-1    2.987129722005767E-2    4.367266764608902E-4    3.557425489977754E-3    5.316457532711538E-4    3.628455998337036E-3    4.312117177325985E-1   -1.268204411284740E-1
 8.116383761200000E9     5.059264259434842E-1    2.938615163680797E-2    4.181390263885595E-4    3.564353808750476E-3    5.176826810165069E-4    3.629229572009900E-3    4.309096846028994E-1   -1.275189034166377E-1
 8.116390492400000E9     5.062196144049891E-1    2.894266937272437E-2    4.615839751600732E-4    3.543627854561302E-3    4.963430067644538E-4    3.586055047734057E-3    4.308914799868339E-1   -1.278435473852400E-1
 8.116397223600000E9     5.060890671260113E-1    2.844093851899335E-2    4.482400241094931E-4    3.571866558819731E-3    5.001387960088935E-4    3.623412481338243E-3    4.307518150232457E-1   -1.283855591470638E-1
 8.116403954800000E9     5.059935542956364E-1    2.772256082936313E-2    4.616998366000998E-4    3.578846584215652E-3    4.829950243102713E-4    3.631097111158636E-3    4.306693066282612E-1   -1.290055508249002E-1
 8.116410686000000E9     5.061318397770375E-1    2.727052766075917E-2    4.573315024067440E-4    3.570735718518396E-3    5.130591541094641E-4    3.586495821350481E-3    4.305938164604671E-1   -1.293191574463375E-1
 8.116417417200000E9     5.060047131539966E-1    2.680135809575300E-2    4.851678501253804E-4    3.575918055645813E-3    4.993781884413890E-4    3.586441877734036E-3    4.304488998151559E-1   -1.296666185021124E-1
 8.116424148400000E9     5.061151492937613E-1    2.626991178546293E-2    4.901852283157482E-4    3.588283033940596E-3    5.413859848840365E-4    3.628570618855448E-3    4.303830129649398E-1   -1.300939880049108E-1
 8.116430879600000E9     5.061652892361989E-1    2.584985607979217E-2    4.989460672977598E-4    3.573424849587944E-3    5.207150848756289E-4    3.628656445144402E-3    4.302780037680761E-1   -1.306382531136015E-1
 8.116437610800000E9     5.060907571634409E-1    2.531467439692442E-2    4.842309439528302E-4    3.581063616260482E-3    5.483227842322300E-4    3.631304207439097E-3    4.302396599459779E-1   -1.310157516200491E-1
 8.116444342000000E9     5.061908971236633E-1    2.474079248796039E-2    4.677727925310692E-4    3.582674584053092E-3    5.363332515164349E-4    3.612690666676199E-3    4.299046788220652E-1   -1.315202843155177E-1
 8.116451073200000E9     5.061260836672881E-1    2.434879911160259E-2    4.921248892383533E-4    3.565562052330901E-3    5.739265503677047E-4    3.651637849612093E-3    4.299082371702394E-1   -1.319532561539007E-1
 8.116457804400000E9     5.061421069989270E-1    2.374206165290252E-2    4.918996942318464E-4    3.577395918300866E-3    5.755921511399607E-4    3.656329002779279E-3    4.298757201612516E-1   -1.325939268362374E-1
 8.116464535600000E9     5.061317311146757E-1    2.332871927821378E-2    4.968976904215528E-4    3.599015049258076E-3    5.425206116795405E-4    3.642960208604587E-3    4.296188542928626E-1   -1.329268238390838E-1
 8.116471266800000E9     5.062561894390973E-1    2.275818752517457E-2    4.910836161636352E-4    3.579140517627465E-3    5.635576827292604E-4    3.611597024764379E-3    4.295057188254605E-1   -1.333562601955060E-1
 8.116477998000000E9     5.061211820525832E-1    2.232878685767962E-2    4.928166863545302E-4    3.571372583511049E-3    6.053426469031552E-4    3.638556643584848E-3    4.293219809029073E-1   -1.337036607122937E-1
 8.116484729200000E9     5.062281926216017E-1    2.178016216959076E-2    4.993374687678130E-4    3.593179469098714E-3    5.769395687227718E-4    3.639366664659071E-3    4.292715007770727E-1   -1.342966275254306E-1
 8.116491460400000E9     5.062477565824067E-1    2.116127084251860E-2    4.995362733704569E-4    3.582507190595328E-3    5.690775234856179E-4    3.664125421083190E-3    4.291294608122913E-1   -1.347711031040150E-1
 8.116498191600000E9     5.062848508770751E-1    2.077119082836455E-2    5.153553219634427E-4    3.610866867940655E-3    6.214913650974265E-4    3.651887129483869E-3    4.289869024100814E-1   -1.350624923559518E-1
 8.116504922800000E9     5.063231189557552E-1    2.025144799694130E-2    5.513798536502192E-4    3.592265385324885E-3    5.507780094750496E-4    3.638802170742956E-3    4.289873194436132E-1   -1.355156307787750E-1
 8.116511654000000E9     5.063346359927022E-1    1.977734426753846E-2    5.298716780741608E-4    3.596139192149267E-3    5.917536804248629E-4    3.651495428300793E-3    4.287661744361377E-1   -1.361268914550098E-1
 8.116518385200000E9     5.062656778082835E-1    1.909440634758426E-2    5.172436208809099E-4    3.578985776063539E-3    5.598835204574182E-4    3.653182711249187E-3    4.287440205431327E-1   -1.363325335003882E-1
 8.116525116400000E9     5.063841016595343E-1    1.871300472781054E-2    5.404009930251966E-4    3.611275300742678E-3    6.313322725407731E-4    3.652836084710462E-3    4.285661892077388E-1   -1.371055330645921E-1
 8.116531847600000E9     5.062874081541775E-1    1.820837881046857E-2    5.632426690172858E-4    3.594234511027749E-3    5.926806572176241E-4    3.648102888319191E-3    4.284376363330359E-1   -1.373688250708825E-1
 8.116538578800000E9     5.062662863131306E-1    1.768616226733122E-2    5.422632568025620E-4    3.617430458885686E-3    6.105668284362864E-4    3.656599546316108E-3    4.282723722455279E-1   -1.379307446840083E-1
 8.116545310000000E9     5.062834032101756E-1    1.717386698025742E-2    5.530906521808698E-4    3.612788258229355E-3    6.016568141985704E-4    3.642973014947632E-3    4.280132921358528E-1   -1.381955964574258E-1
 8.116552041200000E9     5.064568344631168E-1    1.685612138254603E-2    5.571414798113080E-4    3.581030861128355E-3    6.502530615490905E-4    3.677668281504628E-3    4.280313147243697E-1   -1.386604496902087E-1
 8.116558772400000E9     5.062688902398357E-1    1.608045533670734E-2    5.501061755765107E-4    3.602198082389960E-3    6.216624779247448E-4    3.647347585354946E-3    4.279686098351545E-1   -1.391665795547537E-1
 8.116565503600000E9     5.063126721021987E-1    1.564749542167327E-2    5.557130360648025E-4    3.632195076863952E-3    6.528107860029163E-4    3.642496426211287E-3    4.277626983229548E-1   -1.395517501545812E-1
 8.116572234800000E9     5.063000471523826E-1    1.509623505384454E-2    6.019099545928023E-4    3.605310186099306E-3    6.183647101889111E-4    3.667970465107754E-3    4.275723065805198E-1   -1.401018997350376E-1
 8.116578966000000E9     5.063802343701387E-1    1.469665298709976E-2    5.662636366703722E-4    3.627462445567786E-3    6.449729732799956E-4    3.659778464723682E-3    4.274175438565379E-1   -1.405342325682969E-1
 8.116585697200000E9     5.063582141356282E-1    1.411651732318665E-2    5.842986950705318E-4    3.640701489261082E-3    6.322355132250097E-4    3.701140617524473E-3    4.274291881840535E-1   -1.410139428160819E-1
 8.116592428400000E9     5.064083632557455E-1    1.354885144156672E-2    6.027696254186677E-4    3.628870901289992E-3    6.080418497270172E-4    3.668063675726535E-3    4.271272168190635E-1   -1.414684892950946E-1
 8.116599159600000E9     5.064612226445013E-1    1.310943692228194E-2    5.856189646745131E-4    3.601996964118802E-3    6.552763251811898E-4    3.633374214288835E-3    4.271186929510277E-1   -1.418198333121780E-1
 8.116605890800000E9     5.063324233748597E-1    1.252075345814688E-2    5.925958304918434E-4    3.618480652986576E-3    6.254794993123096E-4    3.659333924432808E-3    4.269124766140315E-1   -1.423227947576676E-1
 8.116612622000000E9     5.063864702148315E-1    1.212988013534837E-2    6.070915853082834E-4    3.650986796151987E-3    6.700401927789072E-4    3.706797386267588E-3    4.268795266615021E-1   -1.427556723071113E-1
 8.116619353200000E9     5.063877917568006E-1    1.144964571042991E-2    6.003756977505778E-4    3.614444580148158E-3    6.385553045079703E-4    3.667317944221221E-3    4.266367029759081E-1   -1.432916828688408E-1
 8.116626084400000E9     5.064178056672309E-1    1.100920833705231E-2    6.275009001624289E-4    3.638241838018306E-3    6.578692695550957E-4    3.685498523569290E-3    4.265031002501061E-1   -1.436977431856214E-1
 8.116632815600000E9     5.064063685835999E-1    1.058222498438434E-2    6.362256988210939E-4    3.637355756131550E-3    6.821410379981776E-4    3.693280678547914E-3    4.265822529820056E-1   -1.441403814481076E-1
 8.116639546800000E9     5.064028549307559E-1    1.002442619931446E-2    6.164254729007296E-4    3.631229248299241E-3    6.876753819517127E-4    3.705165881061356E-3    4.264740752083235E-1   -1.445421372392167E-1
 8.116646278000000E9     5.063426890248577E-1    9.456491512865853E-3    6.374987869940527E-4    3.628893879466337E-3    7.016996295230974E-4    3.702971882285706E-3    4.259863289324805E-1   -1.450533969762160E-1
 8.116653009200000E9     5.063544541458287E-1    8.905020985138184E-3    6.382693999859168E-4    3.639277990824328E-3    7.010640522693346E-4    3.699341129243753E-3    4.261045037644725E-1   -1.456373460996303E-1
 8.116659740400000E9     5.064766841094100E-1    8.296942117137204E-3    6.175968634251605E-4    3.638986946676239E-3    6.927567869270007E-4    3.682033523498651E-3    4.258704486285242E-1   -1.460595708362147E-1
 8.116666471600000E9     5.063361430963557E-1    7.909727437651455E-3    6.348981935840542E-4    3.656742222397807E-3    6.746974837906305E-4    3.723488919784087E-3    4.257988926557995E-1   -1.464878217226590E-1
 8.116673202800000E9     5.064443857331867E-1    7.401618155828891E-3    6.536338753198761E-4    3.661339464578920E-3    7.121664060100377E-4    3.729292895273385E-3    4.255990060157352E-1   -1.467870190477421E-1
 8.116679934000000E9     5.063996297126460E-1    6.923484569405677E-3    6.572759352407729E-4    3.664578442061727E-3    6.952992634639065E-4    3.734712480312053E-3    4.254387969427165E-1   -1.473318218612255E-1
 8.116686665200000E9     5.063337568790796E-1    6.408013068034188E-3    6.395836648396969E-4    3.662507735392435E-3    7.180870714891948E-4    3.745315146195301E-3    4.255396444291351E-1   -1.477998946627135E-1
 8.116693396400000E9     5.063415884055299E-1    5.892731479533595E-3    6.599931737635760E-4    3.657874049183340E-3    7.210301032476200E-4    3.704771526146677E-3    4.254509360390025E-1   -1.482972035105358E-1
 8.116700127600000E9     5.063168854992575E-1    5.280334180422576E-3    6.950316195390973E-4    3.678557054547022E-3    7.481927060996671E-4    3.692065803415585E-3    4.251352738363376E-1   -1.486685164163731E-1
 8.116706858800000E9     5.063086796784736E-1    4.889425103525248E-3    6.599904573509832E-4    3.673109870837291E-3    7.339550049486540E-4    3.742273132278897E-3    4.249637298310139E-1   -1.491288533900450E-1
 8.116713590000000E9     5.062884622047557E-1    4.317505623657047E-3    6.947474401088321E-4    3.667180580847331E-3    7.567225741764080E-4    3.743417460418333E-3    4.247868321210486E-1   -1.494434907182366E-1
