#  HZ   S   RI   R     50.00 
! Rohde & Schwarz Vector Network Analyzer 
! Rohde-Schwarz,ZNB20-2Port,1311601062101988,3.16
! Created: UTC 3/20/2024, 11:50:49 AM
! freq[Hz]                re:S11                  im:S11                  re:S21                  im:S21                  re:S12                  im:S12                  re:S22                  im:S22
 8.115974606000000E9     5.037663909446473E-1    5.994788778676667E-2    2.068307560412962E-4    3.492999393312833E-3    2.657316533834101E-4    3.547036748161768E-3    4.373961560485376E-1   -9.943803245516032E-2
 8.115981859050000E9     5.038140864130810E-1    5.950947349036637E-2    2.129611976420141E-4    3.494094522073572E-3    2.736055160076522E-4    3.525447552476195E-3    4.372627886769659E-1   -1.001291346688335E-1
 8.115989112100000E9     5.039753958892694E-1    5.888599976609286E-2    2.109463321834107E-4    3.486307794730225E-3    2.905712841253083E-4    3.531047403312895E-3    4.370637447976914E-1   -1.005499513305650E-1
 8.115996365150000E9     5.039134317386526E-1    5.849520277592983E-2    2.116747293828946E-4    3.514165020822577E-3    2.687120963933326E-4    3.528219667258284E-3    4.371027901409427E-1   -1.011289089865719E-1
 8.116003618200000E9     5.040461695205162E-1    5.780163147752789E-2    2.124913047066722E-4    3.483726864421881E-3    2.813862059928665E-4    3.551141057763745E-3    4.368254743157650E-1   -1.017782301407025E-1
 8.116010871250000E9     5.041215037072974E-1    5.714057084785567E-2    2.103248464605293E-4    3.489894479123231E-3    3.002573416974025E-4    3.515817781612546E-3    4.368885270080474E-1   -1.020046587665281E-1
 8.116018124300000E9     5.042182406409563E-1    5.679222169121641E-2    2.327025929589457E-4    3.479894028208441E-3    3.478455523720160E-4    3.555259208792520E-3    4.367225537378638E-1   -1.024865311572974E-1
 8.116025377350000E9     5.041102601764635E-1    5.622405127982533E-2    2.549617567817625E-4    3.455404582552672E-3    2.930057964131799E-4    3.553460513298743E-3    4.365791249275752E-1   -1.030825935738669E-1
 8.116032630400000E9     5.042610825637746E-1    5.562494920680751E-2    2.240410693620971E-4    3.470002983295408E-3    3.000212465803989E-4    3.560375502119923E-3    4.366437204563725E-1   -1.035584291328717E-1
 8.116039883450000E9     5.042372573277772E-1    5.502759742087746E-2    2.566046496515375E-4    3.470969532901009E-3    3.278840286758272E-4    3.560648216175481E-3    4.364740107040559E-1   -1.039026341846823E-1
 8.116047136500000E9     5.043440178752048E-1    5.459412909379555E-2    2.733585630605179E-4    3.507806529997380E-3    3.248476001442771E-4    3.543444744534564E-3    4.363007404503328E-1   -1.046032660614036E-1
 8.116054389550000E9     5.043522292575989E-1    5.396443422625218E-2    2.900316105447279E-4    3.507401325398710E-3    2.916321577415286E-4    3.521789744553960E-3    4.361945897639131E-1   -1.049319726712680E-1
 8.116061642600000E9     5.043551256716633E-1    5.351340984068217E-2    2.609105333462171E-4    3.494549475275981E-3    3.026400549933134E-4    3.583282112121148E-3    4.360871214802229E-1   -1.055010905018670E-1
 8.116068895650000E9     5.044917508989388E-1    5.298941863248022E-2    2.494064253817667E-4    3.511603736370614E-3    3.037970375480021E-4    3.559603748313517E-3    4.359600164429136E-1   -1.059185349887196E-1
 8.116076148700000E9     5.045836724514251E-1    5.253638608356995E-2    2.811604503047899E-4    3.490597433611756E-3    3.394743352841052E-4    3.546733232835893E-3    4.359282664480146E-1   -1.065773592714142E-1
 8.116083401750000E9     5.046687863590160E-1    5.185836508975648E-2    2.873983945828087E-4    3.514208781653506E-3    3.532698254599789E-4    3.524434811367514E-3    4.358817328702001E-1   -1.068972921890339E-1
 8.116090654800000E9     5.047067762013849E-1    5.128402511602489E-2    2.543820269626781E-4    3.511091917800157E-3    3.800934874244064E-4    3.540170211120948E-3    4.357507126182081E-1   -1.072900436140712E-1
 8.116097907850000E9     5.046281823636558E-1    5.075401930699793E-2    2.685228655895330E-4    3.474612411911734E-3    3.065228001352127E-4    3.563337658147178E-3    4.357050979877745E-1   -1.080244800392160E-1
 8.116105160900000E9     5.047258591737169E-1    5.022926980753897E-2    2.905359284908123E-4    3.522458874904153E-3    3.393511289279549E-4    3.554543681376798E-3    4.355935262599767E-1   -1.085137693771570E-1
 8.116112413950000E9     5.048408288894585E-1    4.968609976178655E-2    2.858402737095944E-4    3.498354422492363E-3    3.789538104357640E-4    3.537704765972270E-3    4.352674898747254E-1   -1.088441075556400E-1
 8.116119667000000E9     5.047689673055986E-1    4.919081519636125E-2    2.849198959452074E-4    3.509803275078991E-3    3.605464735763858E-4    3.542347364365504E-3    4.354237277593246E-1   -1.094117575504470E-1
 8.116126920050000E9     5.048836199165867E-1    4.849410140701951E-2    2.926763418895215E-4    3.539555866007770E-3    3.745403953872086E-4    3.549637310946846E-3    4.351726050901935E-1   -1.099403178425758E-1
 8.116134173100000E9     5.048532699750137E-1    4.810163697858326E-2    3.094852313100847E-4    3.504549111967206E-3    3.665174627947154E-4    3.571004810858056E-3    4.350244097972638E-1   -1.104013539701466E-1
 8.116141426150000E9     5.049519777506853E-1    4.752427759946923E-2    3.253589370952648E-4    3.493426091534937E-3    3.761287381582433E-4    3.570993830955445E-3    4.350008728611268E-1   -1.110117517976528E-1
 8.116148679200000E9     5.049345474513228E-1    4.695798062895989E-2    3.099147344789364E-4    3.534875040012020E-3    3.814015581344132E-4    3.569672191307141E-3    4.350531097606155E-1   -1.113958041216847E-1
 8.116155932250000E9     5.050498514589881E-1    4.636679390760063E-2    3.175295464724568E-4    3.538720558694581E-3    3.855770020733467E-4    3.554967347763033E-3    4.348640684764814E-1   -1.118924158245578E-1
 8.116163185300000E9     5.050964010915290E-1    4.576341799771023E-2    3.136276369490011E-4    3.530355956972818E-3    3.489985636999463E-4    3.581681055427870E-3    4.347037679671594E-1   -1.122481571866751E-1
 8.116170438350000E9     5.050841689516755E-1    4.525145546105588E-2    3.351749986156053E-4    3.512847512538251E-3    3.908794389169214E-4    3.562625197953738E-3    4.346459177719558E-1   -1.128829089714734E-1
 8.116177691400000E9     5.052019747204934E-1    4.479487824727221E-2    2.924303153343742E-4    3.515363127540488E-3    3.976557612892596E-4    3.560891660510360E-3    4.345174535591582E-1   -1.133844572710168E-1
 8.116184944450000E9     5.051819486398886E-1    4.412032952879294E-2    3.382006772756434E-4    3.514859595439101E-3    3.842218812725729E-4    3.601594169968166E-3    4.343316298335925E-1   -1.137417982839996E-1
 8.116192197500000E9     5.051994296005193E-1    4.372904452051005E-2    3.527244083235823E-4    3.510851889384205E-3    3.875756762024523E-4    3.560972940494839E-3    4.342332951126900E-1   -1.144110443954698E-1
 8.116199450550000E9     5.053341103355266E-1    4.310819669585822E-2    3.466610444451910E-4    3.525500612922979E-3    4.071582796766745E-4    3.562562401509217E-3    4.341550599089606E-1   -1.148093018709812E-1
 8.116206703600000E9     5.051955401295714E-1    4.256471130494793E-2    3.597245059128555E-4    3.537944938358908E-3    4.414244863800521E-4    3.590522325484064E-3    4.339393154771554E-1   -1.153253415889516E-1
 8.116213956650000E9     5.053299754959840E-1    4.212516438785599E-2    3.415415426807572E-4    3.522486178921077E-3    3.865053479160110E-4    3.584890692640245E-3    4.340420520181549E-1   -1.158285211172764E-1
 8.116221209700000E9     5.052860095734794E-1    4.145669389910327E-2    3.424132363586803E-4    3.522883885788810E-3    4.158217800949395E-4    3.568991566705193E-3    4.338229151712770E-1   -1.162922861125538E-1
 8.116228462750000E9     5.053682943680826E-1    4.107995722014193E-2    3.753926304759406E-4    3.540112396013037E-3    4.282867917685874E-4    3.604363105166937E-3    4.338167605733178E-1   -1.167939569477151E-1
 8.116235715800000E9     5.054037697071971E-1    4.035644623869304E-2    3.650970602341726E-4    3.531096243682544E-3    4.587149950176648E-4    3.573033982956411E-3    4.336379577512484E-1   -1.172943326620926E-1
 8.116242968850000E9     5.054001915176372E-1    4.002014622114666E-2    3.715660934733412E-4    3.526991906034042E-3    4.259118134848808E-4    3.553822984997286E-3    4.334712977983981E-1   -1.177805375012488E-1
 8.116250221900000E9     5.053702145342255E-1    3.934979994293140E-2    3.658216394163962E-4    3.529267231666485E-3    4.269435177130812E-4    3.586139610460669E-3    4.334028604262515E-1   -1.182636284761150E-1
 8.116257474950000E9     5.055326035086412E-1    3.881354583615362E-2    3.728498938824476E-4    3.534286287492393E-3    4.478329256074931E-4    3.600469926080684E-3    4.332035108153435E-1   -1.187114013271499E-1
 8.116264728000000E9     5.056837181652344E-1    3.823384306648135E-2    3.897930946038360E-4    3.534801486155710E-3    4.411883087923465E-4    3.544258837776576E-3    4.331708029953465E-1   -1.192870198942562E-1
 8.116271981050000E9     5.055935540060534E-1    3.780152326796234E-2    3.828952162397006E-4    3.540228834672122E-3    4.653618158655484E-4    3.585625921660407E-3    4.331284151049011E-1   -1.197310042116130E-1
 8.116279234100000E9     5.055856918762052E-1    3.713560984897266E-2    3.764845474991510E-4    3.539601542955431E-3    4.387663525380267E-4    3.592404012976224E-3    4.328492623045606E-1   -1.202499722619590E-1
 8.116286487150000E9     5.057151960257075E-1    3.668543486372548E-2    4.050498113039715E-4    3.539441596169522E-3    4.696352378533207E-4    3.571733062421710E-3    4.328234392431612E-1   -1.207965287121762E-1
 8.116293740200000E9     5.056158616894643E-1    3.602846997906523E-2    3.968496186437608E-4    3.539801133360452E-3    4.766656567951010E-4    3.613960736626436E-3    4.326776889755654E-1   -1.212237623045451E-1
 8.116300993250000E9     5.056833934845123E-1    3.546627946692067E-2    4.115219256338234E-4    3.544643606939545E-3    4.549062461563858E-4    3.612981480556844E-3    4.325764669592018E-1   -1.217909520647503E-1
 8.116308246300000E9     5.057422778033557E-1    3.489127804087439E-2    4.187694871907968E-4    3.534083260700341E-3    4.504348813456017E-4    3.610526349999722E-3    4.324705651976891E-1   -1.221906612645455E-1
 8.116315499350000E9     5.057145855194166E-1    3.433934284250760E-2    4.002058948440042E-4    3.546501947768390E-3    4.831064539505940E-4    3.557461101373916E-3    4.323411953775314E-1   -1.226929439681517E-1
 8.116322752400000E9     5.057639855644472E-1    3.384745526887980E-2    4.182201202290635E-4    3.557531098918347E-3    4.420308269915870E-4    3.620711744336264E-3    4.322101627008564E-1   -1.231247957096357E-1
 8.116330005450000E9     5.057932514741471E-1    3.334093262408959E-2    4.032444634180610E-4    3.533903413792957E-3    4.488511728028484E-4    3.623549786903516E-3    4.320996989587828E-1   -1.235667898698334E-1
 8.116337258500000E9     5.058424144752603E-1    3.272450176181756E-2    4.460126209150266E-4    3.568218352510884E-3    4.607965803406502E-4    3.582332782869162E-3    4.319392938838468E-1   -1.242086494884604E-1
 8.116344511550000E9     5.058056225894292E-1    3.224094580653645E-2    4.260051259724271E-4    3.540444130704928E-3    4.774323095071718E-4    3.599586486107228E-3    4.318928402659022E-1   -1.245378377520466E-1
 8.116351764600000E9     5.058972258912457E-1    3.173187051320760E-2    4.329509823337533E-4    3.559631659347873E-3    4.573364935252634E-4    3.615097466944087E-3    4.316613000693704E-1   -1.251608206966640E-1
 8.116359017650000E9     5.059554079032644E-1    3.114910266171236E-2    4.400082850310770E-4    3.569790724832092E-3    5.096806510859277E-4    3.597571173526951E-3    4.315061628426034E-1   -1.255632507761501E-1
 8.116366270700000E9     5.059097284874181E-1    3.061663751021646E-2    4.363611224722709E-4    3.554101246631279E-3    4.973412116985399E-4    3.606259302282399E-3    4.314829752270357E-1   -1.260816806107007E-1
 8.116373523750000E9     5.058967135631641E-1    3.010513652034379E-2    4.689076006846479E-4    3.558745736471927E-3    5.021137935652889E-4    3.639301062376945E-3    4.314329299240166E-1   -1.264535392876369E-1
 8.116380776800000E9     5.059512661273650E-1    2.943983967500369E-2    4.661439724324683E-4    3.558975859847497E-3    5.034344255666387E-4    3.597095908528691E-3    4.314263178919437E-1   -1.270528898789860E-1
 8.116388029850000E9     5.058530365834172E-1    2.892527453076438E-2    4.541174382248321E-4    3.566460199052423E-3    5.095395217059862E-4    3.645812304122232E-3    4.312307620491316E-1   -1.276083207368457E-1
 8.116395282900000E9     5.060332575100408E-1    2.852363043662184E-2    4.576983572401639E-4    3.547975244409229E-3    5.074799692509414E-4    3.625161456931718E-3    4.309462655528737E-1   -1.281427365692187E-1
 8.116402535950000E9     5.060871128458881E-1    2.780040732418256E-2    4.525982988068916E-4    3.581769999537011E-3    4.926029938650276E-4    3.637644118309378E-3    4.309121258996963E-1   -1.285807313251494E-1
 8.116409789000000E9     5.060233116161039E-1    2.727380106955790E-2    4.683735082367773E-4    3.582513905098248E-3    5.108127109023748E-4    3.583358564656572E-3    4.309153360689235E-1   -1.291024228125312E-1
 8.116417042050000E9     5.060560938887412E-1    2.684129895363973E-2    4.917178732035097E-4    3.567065442860561E-3    5.328508179093725E-4    3.641552135701058E-3    4.306344924033264E-1   -1.295147771731734E-1
 8.116424295100000E9     5.061585196368662E-1    2.621129310625191E-2    4.689267199083788E-4    3.577828665865236E-3    5.507780353677587E-4    3.638032392448169E-3    4.305582844389847E-1   -1.300142474024039E-1
 8.116431548150000E9     5.061224236688284E-1    2.574610066933225E-2    4.913889140651193E-4    3.573739776123587E-3    5.447393809895381E-4    3.606748138014447E-3    4.302152343059855E-1   -1.303140164757606E-1
 8.116438801200000E9     5.061264197380564E-1    2.516033274748881E-2    4.726247085927363E-4    3.566845058059467E-3    5.593697167558673E-4    3.638746934385030E-3    4.300978205976744E-1   -1.309668649329825E-1
 8.116446054250000E9     5.060919857980761E-1    2.467483180337849E-2    5.074519211207448E-4    3.587681277602748E-3    5.227439561936990E-4    3.657058175971797E-3    4.301362851200084E-1   -1.313284152787650E-1
 8.116453307300000E9     5.061068354814078E-1    2.394284129550689E-2    4.918300770063107E-4    3.574249648237567E-3    5.616052806516437E-4    3.647386638660041E-3    4.300769969085630E-1   -1.319823651422115E-1
 8.116460560350000E9     5.061824387312481E-1    2.351530471424635E-2    4.984736910914072E-4    3.610818710230900E-3    5.667869129639347E-4    3.607767941819962E-3    4.297993306663858E-1   -1.324385752979157E-1
 8.116467813400000E9     5.061069010458200E-1    2.291581105891741E-2    4.909234333608717E-4    3.594709217787303E-3    5.634242945074143E-4    3.659737616239620E-3    4.297418207282105E-1   -1.329667528954205E-1
 8.116475066450000E9     5.061628532987874E-1    2.232155153851766E-2    5.197211988913444E-4    3.594406440877165E-3    5.717247742622803E-4    3.662610353267174E-3    4.297190120059264E-1   -1.333639912141741E-1
 8.116482319500000E9     5.061787359679142E-1    2.195910623535155E-2    5.119609920282168E-4    3.588598100894948E-3    5.680619992481738E-4    3.647164685356960E-3    4.293806448509788E-1   -1.338374901152613E-1
 8.116489572550000E9     5.062232708557070E-1    2.135397080058029E-2    5.358888490504452E-4    3.587234409313386E-3    6.140698854312873E-4    3.646530614163466E-3    4.294191242614726E-1   -1.344037372108585E-1
 8.116496825600000E9     5.062732509311668E-1    2.075232212901466E-2    5.171647058881989E-4    3.592574261021529E-3    6.036967717738074E-4    3.665694136601934E-3    4.290657910957091E-1   -1.348796423241106E-1
 8.116504078650000E9     5.062905783902969E-1    2.021496215475871E-2    5.343488177833986E-4    3.610323630077578E-3    5.815657817778790E-4    3.630102685088298E-3    4.290056035415555E-1   -1.353999456486055E-1
 8.116511331700000E9     5.061532269997253E-1    1.967582891626912E-2    5.346547664658291E-4    3.589363676355481E-3    6.300551631698528E-4    3.658052595489344E-3    4.288891927058113E-1   -1.357674337713624E-1
 8.116518584750000E9     5.062416670217409E-1    1.907347491899367E-2    5.234167964507506E-4    3.614807234664304E-3    5.952845698539997E-4    3.657821124018031E-3    4.286998018851225E-1   -1.362955362096951E-1
 8.116525837800000E9     5.062362306499858E-1    1.854378025284281E-2    5.682324997850093E-4    3.592133396353164E-3    6.315130659878014E-4    3.649357259967180E-3    4.287377114381364E-1   -1.367455264382045E-1
 8.116533090850000E9     5.062488874662209E-1    1.809095857834796E-2    5.640573391045490E-4    3.605541102126743E-3    5.937949929269673E-4    3.654878948574662E-3    4.285488098746473E-1   -1.373122131543524E-1
 8.116540343900000E9     5.063820267625552E-1    1.745565417329137E-2    5.462030532904363E-4    3.619162835555631E-3    6.360903685617558E-4    3.676080615054285E-3    4.284110101786393E-1   -1.378850005570570E-1
 8.116547596950000E9     5.063380454368499E-1    1.691526548905616E-2    5.736764087632251E-4    3.598861036894926E-3    6.082010004560966E-4    3.715764972637372E-3    4.281878600994606E-1   -1.382393603416531E-1
 8.116554850000000E9     5.061455592390672E-1    1.627924641043710E-2    5.776786819526021E-4    3.615064956312955E-3    6.516062929726122E-4    3.659059932330286E-3    4.281761869151485E-1   -1.387473592851289E-1
 8.116562103050000E9     5.063853771539246E-1    1.583522834605431E-2    5.771816943659540E-4    3.628641914257109E-3    6.409610502787715E-4    3.646759155330787E-3    4.280955702819748E-1   -1.392964096844493E-1
 8.116569356100000E9     5.062135815103036E-1    1.527937217675247E-2    5.557476885187839E-4    3.644021432350213E-3    6.303461930953485E-4    3.653902066916978E-3    4.278065431295079E-1   -1.397603412840905E-1
 8.116576609150000E9     5.063898895500987E-1    1.478910453459942E-2    5.559031674811039E-4    3.639201831996012E-3    6.495536829083252E-4    3.705617886548099E-3    4.277829269567109E-1   -1.401810306374489E-1
 8.116583862200000E9     5.063963475050708E-1    1.415798503623817E-2    5.900132131440304E-4    3.621437887741804E-3    6.244961596283898E-4    3.680307546515492E-3    4.275332869352155E-1   -1.407521426131591E-1
 8.116591115250000E9     5.063493675868398E-1    1.359151816160240E-2    5.816906923782135E-4    3.621032176545865E-3    6.405546825971380E-4    3.727188029565016E-3    4.274471420879549E-1   -1.411769882746119E-1
 8.116598368300000E9     5.063444314764863E-1    1.308860583334340E-2    5.726594087789633E-4    3.616820967295024E-3    6.320885761436495E-4    3.709457459956274E-3    4.271734229640765E-1   -1.416611945575021E-1
 8.116605621350000E9     5.063929376276911E-1    1.257637222950018E-2    6.155474387794098E-4    3.651990037795150E-3    6.352435308372519E-4    3.672119727098811E-3    4.272392462825709E-1   -1.421250900109943E-1
 8.116612874400000E9     5.064115988521630E-1    1.196237634535942E-2    6.248933600536805E-4    3.652554451702480E-3    6.654526550332446E-4    3.668158104685447E-3    4.269887924614088E-1   -1.425529375831952E-1
 8.116620127450000E9     5.063246148261217E-1    1.139339792020728E-2    6.085156176515440E-4    3.646061647035354E-3    6.572098816758126E-4    3.696092595976634E-3    4.269790292085736E-1   -1.431723163697033E-1
 8.116627380500000E9     5.063527875887086E-1    1.088411676717582E-2    6.216672324771970E-4    3.639183231353245E-3    6.597220440066343E-4    3.650047089488012E-3    4.267067038831097E-1   -1.435657850434529E-1
