#  HZ   S   RI   R     50.00 
! Rohde & Schwarz Vector Network Analyzer 
! Rohde-Schwarz,ZNB20-2Port,1311601062101988,3.16
! Created: UTC 3/20/2024, 11:50:53 AM
! freq[Hz]                re:S11                  im:S11                  re:S21                  im:S21                  re:S12                  im:S12                  re:S22                  im:S22
 8.115963613000000E9     5.038013818523671E-1    6.093844628511357E-2    2.474715889386574E-4    3.484529196484443E-3    2.404926301438221E-4    3.567007560410583E-3    4.375535547327059E-1   -9.888371283545108E-2
 8.115970908625000E9     5.037532968206947E-1    6.024656034147707E-2    2.158236153246160E-4    3.483019480731684E-3    2.711476285380604E-4    3.536986644214020E-3    4.373580847588888E-1   -9.935960686187444E-2
 8.115978204250000E9     5.038138029666417E-1    5.970888259232902E-2    1.976415650315070E-4    3.495215184360283E-3    2.647431425116601E-4    3.524958817069398E-3    4.373238301084433E-1   -9.987592951303417E-2
 8.115985499875000E9     5.039133393749221E-1    5.915107005641903E-2    2.248556029284950E-4    3.497474146040058E-3    2.696183171216087E-4    3.491397424880924E-3    4.371586482481596E-1   -1.002978387800703E-1
 8.115992795500000E9     5.039547990300774E-1    5.848825326976392E-2    2.149585422579657E-4    3.473902071528794E-3    2.759605376931712E-4    3.537339097961817E-3    4.369769181092165E-1   -1.006708044380533E-1
 8.116000091125000E9     5.039628637206982E-1    5.804703831225398E-2    2.143561961275393E-4    3.491529007084970E-3    2.995421117025463E-4    3.521558619546688E-3    4.370642259329507E-1   -1.012965385077454E-1
 8.116007386750000E9     5.040328652013552E-1    5.740360422584503E-2    2.156046422609086E-4    3.501520834609086E-3    3.117339665716291E-4    3.530315013762790E-3    4.368630283142122E-1   -1.018318321188267E-1
 8.116014682375000E9     5.040965431586707E-1    5.678286231497676E-2    2.346068912083022E-4    3.489028966791405E-3    2.990775396881836E-4    3.534863152057994E-3    4.367644461670447E-1   -1.022741883537374E-1
 8.116021978000000E9     5.041202415631919E-1    5.640083645539083E-2    2.401057555199780E-4    3.481842427564906E-3    2.912854431150336E-4    3.561862863818014E-3    4.366350135767090E-1   -1.028424074461837E-1
 8.116029273625000E9     5.042443392362134E-1    5.583839860166279E-2    2.544127082844879E-4    3.499002925624675E-3    2.815697453494082E-4    3.546782317787487E-3    4.365721469148039E-1   -1.031034892095699E-1
 8.116036569250000E9     5.042917653851944E-1    5.536384713378324E-2    2.493428065256125E-4    3.474847366672121E-3    2.917668558680963E-4    3.539143296780117E-3    4.365333421679367E-1   -1.038155359668284E-1
 8.116043864875000E9     5.043439546660928E-1    5.477613820354195E-2    2.355716151797642E-4    3.513890852697467E-3    3.146874131118703E-4    3.554571092663257E-3    4.364517205278922E-1   -1.043228054213688E-1
 8.116051160500000E9     5.043627319584126E-1    5.420464518180022E-2    2.730821122239741E-4    3.512652062046710E-3    2.746499827822445E-4    3.531615996965767E-3    4.363194312886675E-1   -1.047560118272342E-1
 8.116058456125000E9     5.044089239355434E-1    5.360125608328015E-2    2.770537680263754E-4    3.515418358973204E-3    3.169634112317731E-4    3.545841154289005E-3    4.363088538282963E-1   -1.053868156247099E-1
 8.116065751750000E9     5.044385459695258E-1    5.299180105445925E-2    2.947628331446673E-4    3.489999592309776E-3    3.284382810793206E-4    3.563294526590789E-3    4.358825334473911E-1   -1.058341142986887E-1
 8.116073047375000E9     5.045650965157864E-1    5.259175582655520E-2    2.773194867234165E-4    3.502826485947049E-3    3.443895293783542E-4    3.556674927374735E-3    4.359885700619985E-1   -1.062413960247377E-1
 8.116080343000000E9     5.045641126915886E-1    5.202690133584357E-2    2.583200278796842E-4    3.505196729012085E-3    3.154215735347084E-4    3.550061957401439E-3    4.358241969023485E-1   -1.068350177411706E-1
 8.116087638625000E9     5.046350736896903E-1    5.142145373072110E-2    2.883451792322143E-4    3.515844544806667E-3    3.433867643197113E-4    3.531725664622724E-3    4.356699678683073E-1   -1.072183517506229E-1
 8.116094934250000E9     5.046791562309331E-1    5.098301424436721E-2    2.867390832350579E-4    3.526625364295271E-3    3.522847199936865E-4    3.573972666807318E-3    4.355309655671863E-1   -1.076969796541464E-1
 8.116102229875000E9     5.046211914003447E-1    5.039483590805727E-2    2.947046610585183E-4    3.519735063876975E-3    3.288194135958144E-4    3.518260927564497E-3    4.355603769902058E-1   -1.082424982446451E-1
 8.116109525500000E9     5.047162041636243E-1    4.988044965375252E-2    2.880802299596701E-4    3.529926397712285E-3    3.459094301979717E-4    3.552566201732470E-3    4.353972761644847E-1   -1.086224147805485E-1
 8.116116821125000E9     5.047121162919634E-1    4.931365033483311E-2    3.086679661653351E-4    3.524118739383787E-3    3.706555099870451E-4    3.561261816488238E-3    4.353484616581413E-1   -1.093123458306631E-1
 8.116124116750000E9     5.048391151899853E-1    4.873244271150959E-2    2.982589733788161E-4    3.510863233274453E-3    3.546722834460913E-4    3.557411230420248E-3    4.351623034779553E-1   -1.096982187654758E-1
 8.116131412375000E9     5.049355007388817E-1    4.832006998075014E-2    2.997317452959140E-4    3.504235948463291E-3    3.562692567586845E-4    3.558807971600780E-3    4.352035683510947E-1   -1.102200394766944E-1
 8.116138708000000E9     5.049488179014222E-1    4.768596242301576E-2    3.045257728983821E-4    3.518771801389767E-3    3.560981311069027E-4    3.574340297728752E-3    4.350509183448885E-1   -1.106592954457121E-1
 8.116146003625000E9     5.050969179415005E-1    4.707318380849131E-2    3.164660889251783E-4    3.498278010607223E-3    3.613778113213101E-4    3.537513967944396E-3    4.349200309906900E-1   -1.111061121093887E-1
 8.116153299250000E9     5.050110786370559E-1    4.664894106947921E-2    3.140449789665239E-4    3.500342371064926E-3    3.885115905772435E-4    3.572528368178396E-3    4.349178056236598E-1   -1.116496850825130E-1
 8.116160594875000E9     5.049429461677570E-1    4.607334829243281E-2    3.261351368596930E-4    3.518484297724802E-3    3.643951315343723E-4    3.551742695790528E-3    4.347211385977288E-1   -1.122353722284618E-1
 8.116167890500000E9     5.051087912928542E-1    4.552503504433283E-2    3.243832419711263E-4    3.523363728914524E-3    3.856502164459245E-4    3.577671434126116E-3    4.344977946364308E-1   -1.125926618939390E-1
 8.116175186125000E9     5.051429756691047E-1    4.496193877318728E-2    3.302929638582557E-4    3.533477454496500E-3    3.897256316531666E-4    3.579362780193574E-3    4.346089595192115E-1   -1.131642508574835E-1
 8.116182481750000E9     5.051294283752420E-1    4.439040364193256E-2    3.446927971960172E-4    3.519040789724186E-3    4.107883732065445E-4    3.582836590119045E-3    4.343010932355074E-1   -1.137062809554534E-1
 8.116189777375000E9     5.051210826581922E-1    4.385866136597870E-2    3.119008489129155E-4    3.492824315428492E-3    3.924736458714192E-4    3.590946446374638E-3    4.341436572348766E-1   -1.141657261311965E-1
 8.116197073000000E9     5.052552021454398E-1    4.334276135580922E-2    3.462851410139638E-4    3.531847844904392E-3    3.865504280121408E-4    3.566628847620068E-3    4.342336017709532E-1   -1.147008984455685E-1
 8.116204368625000E9     5.052392260445053E-1    4.281583718966108E-2    3.455754711916191E-4    3.518472018651368E-3    4.118984156195960E-4    3.588972106255227E-3    4.340787203441738E-1   -1.152962785599096E-1
 8.116211664250000E9     5.053136829126501E-1    4.223555593565883E-2    3.448297523081462E-4    3.522180862131376E-3    4.261355612267175E-4    3.606864535437084E-3    4.340698866844735E-1   -1.156027541722703E-1
 8.116218959875000E9     5.053512529243753E-1    4.158406810653952E-2    3.466276598875943E-4    3.521774821834891E-3    4.244134444288041E-4    3.588565411177371E-3    4.339265701780257E-1   -1.161388942617509E-1
 8.116226255500000E9     5.053722760523157E-1    4.104395983304532E-2    3.535278918683222E-4    3.542621466636298E-3    4.317713142715938E-4    3.560421961562273E-3    4.336786200814602E-1   -1.166591727075943E-1
 8.116233551125000E9     5.054122248461579E-1    4.055470726972689E-2    3.483807531775969E-4    3.547672375553236E-3    4.427692805654834E-4    3.585803103736196E-3    4.334932777944381E-1   -1.171816133276801E-1
 8.116240846750000E9     5.054625929767215E-1    4.001028114797985E-2    3.666325747883911E-4    3.511045623254127E-3    3.932486120708300E-4    3.599606491563404E-3    4.336014251600430E-1   -1.175594490028772E-1
 8.116248142375000E9     5.054502068086731E-1    3.952498305314359E-2    3.648925892733130E-4    3.514556096941495E-3    4.483483151378334E-4    3.587849855475112E-3    4.332200271852711E-1   -1.182391256772637E-1
 8.116255438000000E9     5.054809799960234E-1    3.895527703839886E-2    3.854203669343695E-4    3.527493326211504E-3    4.447715962797522E-4    3.590878106460767E-3    4.331970484753855E-1   -1.186526454570055E-1
 8.116262733625000E9     5.055565635067836E-1    3.839839997066116E-2    3.576883136014851E-4    3.535356598644796E-3    4.266703396424600E-4    3.575423530437473E-3    4.331961841639916E-1   -1.191254534753497E-1
 8.116270029250000E9     5.055990698992485E-1    3.777764138107333E-2    4.150987567847504E-4    3.536277276260399E-3    4.494576177833332E-4    3.587085957605810E-3    4.329387935781209E-1   -1.196455760466905E-1
 8.116277324875000E9     5.056402178627017E-1    3.725064376204361E-2    3.761403715502796E-4    3.537830412864195E-3    4.508169953163331E-4    3.634049116410078E-3    4.330878467245110E-1   -1.201977145964610E-1
 8.116284620500000E9     5.056897597314366E-1    3.682152493341469E-2    4.185152423336266E-4    3.557365248356808E-3    4.193223492626049E-4    3.597264842984873E-3    4.328219933292889E-1   -1.205469705975897E-1
 8.116291916125000E9     5.057057376814199E-1    3.623840234572848E-2    4.227300160103898E-4    3.558834634098128E-3    4.655203121600230E-4    3.586756956521839E-3    4.327038061299762E-1   -1.211331939672794E-1
 8.116299211750000E9     5.056684289872747E-1    3.559389757321731E-2    4.078693293315429E-4    3.559427577724625E-3    4.573325338311087E-4    3.595854985462030E-3    4.326029621287737E-1   -1.216621390700131E-1
 8.116306507375000E9     5.057093383753268E-1    3.503575754735687E-2    4.038599553058147E-4    3.550535945488713E-3    4.301413835037492E-4    3.582496140044846E-3    4.324464013280263E-1   -1.220793514213748E-1
 8.116313803000000E9     5.058377971592126E-1    3.457422272627758E-2    4.431715402327523E-4    3.559042422472989E-3    4.745860111866860E-4    3.625096856140402E-3    4.324054161163576E-1   -1.226593049650591E-1
 8.116321098625000E9     5.057781321836204E-1    3.407206268789462E-2    4.076477155664013E-4    3.549109449637530E-3    4.867936338105905E-4    3.582442670830417E-3    4.322494431547103E-1   -1.229586394283511E-1
 8.116328394250000E9     5.058091650268037E-1    3.346753888062853E-2    4.166488411518879E-4    3.527185038770677E-3    4.963852963823635E-4    3.584555690084906E-3    4.322243827307301E-1   -1.234909116726298E-1
 8.116335689875000E9     5.058139344407645E-1    3.286255481765962E-2    4.330643180206401E-4    3.576659255924696E-3    4.560336538328543E-4    3.604132167588590E-3    4.320182907511170E-1   -1.240963869861245E-1
 8.116342985500000E9     5.058481090145009E-1    3.240518406715361E-2    4.324522494808320E-4    3.556632564601587E-3    5.153557496557628E-4    3.631939941573156E-3    4.318784581304283E-1   -1.245355127538727E-1
 8.116350281125000E9     5.058152536302541E-1    3.182344665403512E-2    4.492936602810844E-4    3.556578043640999E-3    4.819566241242077E-4    3.593477773580808E-3    4.318387145642153E-1   -1.249593501964676E-1
 8.116357576750000E9     5.059688757425208E-1    3.126842521180031E-2    4.244439539034733E-4    3.565433450146599E-3    4.962100735974101E-4    3.594708215534081E-3    4.317262845173155E-1   -1.253817987997938E-1
 8.116364872375000E9     5.059350552655851E-1    3.080160037429099E-2    4.686541086717447E-4    3.567145080833549E-3    5.214231656717261E-4    3.620154887709135E-3    4.314070341057550E-1   -1.259613807436105E-1
 8.116372168000000E9     5.059175665717133E-1    3.008704627865066E-2    4.578764751111277E-4    3.548926112444714E-3    4.683126750212911E-4    3.607476828895756E-3    4.316563017773698E-1   -1.263990893471935E-1
 8.116379463625000E9     5.059536004436473E-1    2.964396368815091E-2    4.453149241433441E-4    3.567563497774491E-3    5.272259388394073E-4    3.610011014933409E-3    4.313100478166150E-1   -1.269780362659444E-1
 8.116386759250000E9     5.060110110409539E-1    2.896588281776130E-2    4.482176447475286E-4    3.561408588273363E-3    5.201991353863431E-4    3.645319830130854E-3    4.310972376972957E-1   -1.273221621944590E-1
 8.116394054875000E9     5.060249827351108E-1    2.858096361809783E-2    4.485365724793317E-4    3.560634039602236E-3    5.019958111950418E-4    3.612926254743033E-3    4.310533524202746E-1   -1.280032961516387E-1
 8.116401350500000E9     5.061002892935174E-1    2.807000987153343E-2    4.659306568894162E-4    3.560253368019988E-3    5.235797545134780E-4    3.608784737377040E-3    4.308840276898567E-1   -1.283847837199433E-1
 8.116408646125000E9     5.060798868037071E-1    2.746690081119548E-2    4.532957154216788E-4    3.555899000819298E-3    5.488670806081771E-4    3.610791388409713E-3    4.306729514891200E-1   -1.289607011981473E-1
 8.116415941750000E9     5.060536604239536E-1    2.690134012446084E-2    4.636831016769855E-4    3.588666560627612E-3    5.448023682124338E-4    3.611206794363428E-3    4.306073241280746E-1   -1.294208676631738E-1
 8.116423237375000E9     5.061135120684933E-1    2.633027024950768E-2    5.015178966926464E-4    3.562267957033108E-3    5.583768151829610E-4    3.613611331577635E-3    4.304652911943576E-1   -1.298682003073797E-1
 8.116430533000000E9     5.061130236729632E-1    2.581986826946338E-2    4.620701504156973E-4    3.558580126374836E-3    5.166930681543357E-4    3.644262780055062E-3    4.304066783891009E-1   -1.304537849969359E-1
 8.116437828625000E9     5.060996380958971E-1    2.532045702348246E-2    4.877749577600435E-4    3.568721178892814E-3    5.409938778935180E-4    3.637775195791917E-3    4.301779939208488E-1   -1.308734720681820E-1
 8.116445124250000E9     5.061568252737884E-1    2.452010310538309E-2    4.887214380118071E-4    3.600171462683739E-3    5.328846818070906E-4    3.634955440667121E-3    4.300427862018424E-1   -1.313462965134918E-1
 8.116452419875000E9     5.060665278017549E-1    2.413869517702530E-2    5.060047925473693E-4    3.561732924355850E-3    5.554598489058777E-4    3.598017938096587E-3    4.299708078687235E-1   -1.318638727226360E-1
 8.116459715500000E9     5.062803043298802E-1    2.365568308889379E-2    4.956438774851263E-4    3.594339106716252E-3    6.233141015554308E-4    3.685683632114371E-3    4.298643607730106E-1   -1.323837752329958E-1
 8.116467011125000E9     5.061270603445918E-1    2.296660376741093E-2    5.261236723733637E-4    3.596646832368806E-3    5.853375804192369E-4    3.632685597333497E-3    4.296334826862570E-1   -1.328778118292658E-1
 8.116474306750000E9     5.062500300767089E-1    2.250800251110631E-2    5.244911284275132E-4    3.573054664997294E-3    5.441607786727433E-4    3.639530354034846E-3    4.295171970838976E-1   -1.333008219193684E-1
 8.116481602375000E9     5.061883520745407E-1    2.200615426885521E-2    5.256075435382909E-4    3.604246205629251E-3    6.053505179291791E-4    3.611515936392215E-3    4.295563520462836E-1   -1.337957648785924E-1
 8.116488898000000E9     5.061453877612779E-1    2.133353424756503E-2    5.264473303450451E-4    3.599125788682728E-3    5.791090645495641E-4    3.647901720143196E-3    4.292446756030930E-1   -1.343670585604578E-1
 8.116496193625000E9     5.061378466757599E-1    2.071294033467093E-2    5.381033623413452E-4    3.599991922426982E-3    6.061388515975823E-4    3.634348430466761E-3    4.292375736590853E-1   -1.347256059151438E-1
 8.116503489250000E9     5.061684032923095E-1    2.027083856915317E-2    5.470063211038173E-4    3.629404216021984E-3    5.686218400195585E-4    3.663258930044128E-3    4.289867341734911E-1   -1.351639157274187E-1
 8.116510784875000E9     5.062064053824618E-1    1.967523368204106E-2    5.301083053756837E-4    3.609444891492684E-3    5.872644644479114E-4    3.655698887715001E-3    4.289425608953127E-1   -1.355817475311646E-1
 8.116518080500000E9     5.061583386572941E-1    1.915989696102326E-2    5.556308724434798E-4    3.623093903199642E-3    6.186415128163564E-4    3.664721151652164E-3    4.288291057753464E-1   -1.363712809404015E-1
 8.116525376125000E9     5.061943159867742E-1    1.852515657274504E-2    5.557078874054842E-4    3.613048019195468E-3    6.049405541341521E-4    3.653123236063613E-3    4.287696312179883E-1   -1.368089322660060E-1
 8.116532671750000E9     5.063475902788248E-1    1.804525140054537E-2    5.340533583360769E-4    3.599127310626427E-3    6.273354291660610E-4    3.685937886504237E-3    4.285613246587923E-1   -1.373091947293446E-1
 8.116539967375000E9     5.062564199962470E-1    1.751459361171209E-2    5.609337818389368E-4    3.592044162056780E-3    6.441206494719919E-4    3.671644694930447E-3    4.284278458866096E-1   -1.377551108869016E-1
 8.116547263000000E9     5.062740158538074E-1    1.697142594261474E-2    5.598595696645793E-4    3.626892019913592E-3    6.277298432299097E-4    3.684775446216138E-3    4.280979457624703E-1   -1.383704903211027E-1
 8.116554558625000E9     5.063335422409373E-1    1.637972203981616E-2    5.853690600242988E-4    3.626356650649693E-3    6.737904195211662E-4    3.673051475765010E-3    4.281456238891506E-1   -1.385911343631787E-1
 8.116561854250000E9     5.063167867381343E-1    1.576048223133528E-2    5.654939070331661E-4    3.599063152944743E-3    6.134008025912865E-4    3.684815770541119E-3    4.279460847918446E-1   -1.393446959108494E-1
 8.116569149875000E9     5.062612853963115E-1    1.544722982732851E-2    5.949587116320111E-4    3.630971188309538E-3    6.332489961935513E-4    3.654958891193119E-3    4.277885041797592E-1   -1.396827949351024E-1
 8.116576445500000E9     5.062825094756120E-1    1.479071650785230E-2    6.047584707264569E-4    3.633136125015612E-3    6.530659498107039E-4    3.701416191280255E-3    4.277617705426840E-1   -1.401915509283012E-1
 8.116583741125000E9     5.062876951095163E-1    1.422102098833651E-2    5.940957453765712E-4    3.654388371818365E-3    6.695479136731969E-4    3.692230420123886E-3    4.276550291582314E-1   -1.406901616083863E-1
 8.116591036750000E9     5.063607884826347E-1    1.360175317158520E-2    6.106425017762449E-4    3.608515480240193E-3    6.565407819607417E-4    3.685429018430653E-3    4.275307866957496E-1   -1.410984486092779E-1
 8.116598332375000E9     5.063440575819155E-1    1.313409560082388E-2    5.840863664277773E-4    3.637788592969448E-3    6.722051404964508E-4    3.698973807864390E-3    4.272289037458774E-1   -1.416929697321060E-1
 8.116605628000000E9     5.062600763699868E-1    1.259843651818645E-2    6.149145095459329E-4    3.635005180759874E-3    6.885590188661079E-4    3.690768970044770E-3    4.271303258277965E-1   -1.421233477509538E-1
 8.116612923625000E9     5.063426064005065E-1    1.200985022861659E-2    6.216217713365663E-4    3.627222458231224E-3    6.644505346975899E-4    3.692855241683634E-3    4.269286071804634E-1   -1.425792992268623E-1
 8.116620219250000E9     5.063344931062459E-1    1.142454562122982E-2    6.003995126029084E-4    3.638654464423114E-3    6.607124298556590E-4    3.702290305941504E-3    4.268513605592530E-1   -1.431258135157737E-1
