#  HZ   S   RI   R     50.00 
! Rohde & Schwarz Vector Network Analyzer 
! Rohde-Schwarz,ZNB20-2Port,1311601062101988,3.16
! Created: UTC 3/20/2024, 11:50:56 AM
! freq[Hz]                re:S11                  im:S11                  re:S21                  im:S21                  re:S12                  im:S12                  re:S22                  im:S22
 8.115974416000000E9     5.038168230924779E-1    6.001223661827235E-2    2.020759115078986E-4    3.489870642230579E-3    2.598562720226433E-4    3.537158394125603E-3    4.372419446257956E-1   -9.942028260847773E-2
 8.115981658175000E9     5.038072993766314E-1    5.935661641346036E-2    2.026377960735609E-4    3.493953705197974E-3    2.851707999955327E-4    3.537703077411909E-3    4.372443042144936E-1   -9.994834988363051E-2
 8.115988900350000E9     5.039856443729324E-1    5.887846956534380E-2    2.037000967067387E-4    3.487511633604456E-3    2.859108489671154E-4    3.503115474173593E-3    4.371493069262829E-1   -1.005585170180331E-1
 8.115996142525000E9     5.039837518184511E-1    5.839212974422784E-2    2.364029933916395E-4    3.494167551056263E-3    2.603404847546785E-4    3.509561961817857E-3    4.370234428590909E-1   -1.010289624625678E-1
 8.116003384700000E9     5.039999740158698E-1    5.774991548957221E-2    2.369846226093853E-4    3.499798860982152E-3    2.792008380171891E-4    3.550308307700603E-3    4.370680444355155E-1   -1.014269041647267E-1
 8.116010626875000E9     5.039882230598745E-1    5.723688756775717E-2    2.279048385997760E-4    3.488113234454121E-3    3.045025393097664E-4    3.521302680450014E-3    4.367978647689092E-1   -1.019577230105371E-1
 8.116017869050000E9     5.041483840182457E-1    5.670564988261013E-2    2.533001382170952E-4    3.491860112156111E-3    2.897846422940968E-4    3.557602609391901E-3    4.368600648001527E-1   -1.025523390748412E-1
 8.116025111225000E9     5.042068206620920E-1    5.624862606185531E-2    2.359021260729426E-4    3.476774261669548E-3    3.110923984161077E-4    3.510271134113942E-3    4.367925244501624E-1   -1.030281929988775E-1
 8.116032353400000E9     5.042060957141155E-1    5.558022353654054E-2    2.463195019296859E-4    3.479673245828392E-3    3.135336413683165E-4    3.557229381397814E-3    4.366940219411806E-1   -1.034056143281086E-1
 8.116039595575000E9     5.042765060456793E-1    5.516593539358936E-2    2.625114664957389E-4    3.516700003294843E-3    3.134499045843244E-4    3.543102618274192E-3    4.364601949135543E-1   -1.039895642117287E-1
 8.116046837750000E9     5.043977554815134E-1    5.455783497159346E-2    2.779603806597355E-4    3.491862232408529E-3    3.032944892046462E-4    3.558037783624922E-3    4.363983618116524E-1   -1.044610617510135E-1
 8.116054079925000E9     5.044394028723028E-1    5.392106679623321E-2    2.629167507430296E-4    3.489156829477191E-3    3.021734069813797E-4    3.570312851901558E-3    4.362339748535852E-1   -1.049383716593138E-1
 8.116061322100000E9     5.045314941700662E-1    5.352161833249641E-2    2.329652968064463E-4    3.487173825672736E-3    3.159640797329462E-4    3.587627518868863E-3    4.361087253405360E-1   -1.055605467770214E-1
 8.116068564275000E9     5.045690870363049E-1    5.290582232148259E-2    2.493421341677404E-4    3.516218399899025E-3    3.267333101369377E-4    3.564228566770437E-3    4.360871799850572E-1   -1.059675118523788E-1
 8.116075806450000E9     5.044639763092270E-1    5.223260213726236E-2    2.676856559466280E-4    3.513313947951654E-3    3.120285731287745E-4    3.559484687252959E-3    4.359628531635009E-1   -1.064552547147594E-1
 8.116083048625000E9     5.045083273583720E-1    5.183561771606326E-2    2.750997873779816E-4    3.546339816679031E-3    3.325902983707007E-4    3.554852077893854E-3    4.359474644938509E-1   -1.068971088032222E-1
 8.116090290800000E9     5.046012909258254E-1    5.131143387858551E-2    2.742803845006624E-4    3.516311368389523E-3    3.339949237498207E-4    3.583769445955076E-3    4.356728983320846E-1   -1.074886352643436E-1
 8.116097532975000E9     5.046441895671879E-1    5.073910881552524E-2    2.749546489245131E-4    3.493711900584176E-3    3.446767237983362E-4    3.543248170033188E-3    4.356393368862722E-1   -1.078864023025997E-1
 8.116104775150000E9     5.046466265195343E-1    5.021277532584525E-2    2.984426564539348E-4    3.533889550380618E-3    3.554785209634306E-4    3.546853640573897E-3    4.354710907275579E-1   -1.084510468578048E-1
 8.116112017325000E9     5.047210488863243E-1    4.972121522822647E-2    2.734101411475071E-4    3.501629095602857E-3    3.306733617790169E-4    3.556909876579335E-3    4.354576364166632E-1   -1.088784468436419E-1
 8.116119259500000E9     5.049186702718952E-1    4.911490281450405E-2    2.944830242638856E-4    3.517536290378359E-3    3.683237864225925E-4    3.572882516601120E-3    4.353413702356569E-1   -1.094013467592526E-1
 8.116126501675000E9     5.048141646965504E-1    4.860901739972018E-2    3.187016208171009E-4    3.521159749047588E-3    3.500405003682218E-4    3.562905713623364E-3    4.352872251735936E-1   -1.098678421461050E-1
 8.116133743850000E9     5.048285021528415E-1    4.803213840235365E-2    2.780801317643109E-4    3.503474351517287E-3    3.697849733051102E-4    3.544703271841792E-3    4.351205471303751E-1   -1.104259551683299E-1
 8.116140986025000E9     5.049885674589959E-1    4.752762415843129E-2    3.040415109428936E-4    3.513810516285055E-3    3.563159990166042E-4    3.550608219090883E-3    4.351111444447641E-1   -1.110000634708569E-1
 8.116148228200000E9     5.050344309651437E-1    4.688657584824586E-2    2.960973651382242E-4    3.516520238666620E-3    3.684472606015870E-4    3.562594542240443E-3    4.348582320295400E-1   -1.114094814121324E-1
 8.116155470375000E9     5.049752037038469E-1    4.643705139760202E-2    3.227715614877604E-4    3.549068468703254E-3    3.868433666118117E-4    3.561542426771776E-3    4.348083836523909E-1   -1.118317773365100E-1
 8.116162712550000E9     5.050404348835279E-1    4.595270225916240E-2    3.160117041866803E-4    3.530695872669911E-3    3.801554617513359E-4    3.570479470812355E-3    4.346646274336143E-1   -1.122233148957176E-1
 8.116169954725000E9     5.050545575897124E-1    4.533896281838543E-2    3.354448125372714E-4    3.510625840313107E-3    3.861880092577120E-4    3.578084912515083E-3    4.345808519800292E-1   -1.129282644538377E-1
 8.116177196900000E9     5.051425262997391E-1    4.486286957670740E-2    3.523969016169119E-4    3.488523680474140E-3    4.192059805294250E-4    3.571521940338216E-3    4.344790290897033E-1   -1.133201361316509E-1
 8.116184439075000E9     5.051359724663181E-1    4.424836739937011E-2    3.440671105311490E-4    3.526484743789669E-3    4.133597566144845E-4    3.561943610402516E-3    4.344230713510630E-1   -1.138804748768448E-1
 8.116191681250000E9     5.052556309433258E-1    4.367986365286144E-2    3.332252167198638E-4    3.492118820614694E-3    4.144410543354848E-4    3.588852978830141E-3    4.342939731803419E-1   -1.142781615175925E-1
 8.116198923425000E9     5.051653446283199E-1    4.315331986923657E-2    3.547869238372630E-4    3.518852911641211E-3    3.806132514714235E-4    3.574240011683558E-3    4.342117485947694E-1   -1.148694003436300E-1
 8.116206165600000E9     5.052569176535681E-1    4.263667935807233E-2    3.481774502782757E-4    3.534413888523624E-3    3.654728466181165E-4    3.560582515514575E-3    4.340585129991644E-1   -1.152763937600768E-1
 8.116213407775000E9     5.053490571622845E-1    4.208964413032228E-2    3.296094617907027E-4    3.540571128266660E-3    4.021945073241397E-4    3.596656665045753E-3    4.338419681515012E-1   -1.158592843225240E-1
 8.116220649950000E9     5.053939119330627E-1    4.149083588295421E-2    3.427155359141527E-4    3.498141349738577E-3    4.064251576731869E-4    3.587981004073852E-3    4.337706651455073E-1   -1.162506970621043E-1
 8.116227892125000E9     5.052968253385277E-1    4.105161621201352E-2    3.547943858389349E-4    3.520183347093060E-3    4.125640480709074E-4    3.610308031881549E-3    4.337462090293349E-1   -1.168667024257687E-1
 8.116235134300000E9     5.054210258543577E-1    4.047044612713270E-2    3.827321179153368E-4    3.541342420282397E-3    4.004718703629286E-4    3.568028790561856E-3    4.335934142498790E-1   -1.173210711799990E-1
 8.116242376475000E9     5.054426218447851E-1    3.995612807307820E-2    3.971720165749121E-4    3.506436380259561E-3    4.335031472928318E-4    3.599381198452851E-3    4.335992871963271E-1   -1.178439138176655E-1
 8.116249618650000E9     5.054175370830302E-1    3.941474070844925E-2    3.654078672858972E-4    3.543027461520648E-3    4.145452592745760E-4    3.561750152295995E-3    4.333344837922321E-1   -1.182647161130139E-1
 8.116256860825000E9     5.055582686810597E-1    3.880624983474715E-2    3.663875024293750E-4    3.537908358144709E-3    4.228267185952626E-4    3.569036789467315E-3    4.333115688940024E-1   -1.186486928318638E-1
 8.116264103000000E9     5.055381426216422E-1    3.827102706742360E-2    3.850296338516563E-4    3.556073904347580E-3    4.450566915770532E-4    3.612702890309020E-3    4.331527798915286E-1   -1.191848180939710E-1
 8.116271345175000E9     5.055643865281835E-1    3.757996188071287E-2    3.747523660802920E-4    3.544122328282517E-3    4.471791375179020E-4    3.624992563018843E-3    4.331477651734421E-1   -1.197080063914230E-1
 8.116278587350000E9     5.055680565052968E-1    3.714419245782774E-2    3.909602937017523E-4    3.545994508818871E-3    4.593035827864053E-4    3.578422217055855E-3    4.330509015592738E-1   -1.200328048077194E-1
 8.116285829525000E9     5.056367337546678E-1    3.659139242098617E-2    4.129347878246002E-4    3.551152401482884E-3    4.206605811399525E-4    3.594125678607116E-3    4.329133315393135E-1   -1.206479383403510E-1
 8.116293071700000E9     5.056481465244155E-1    3.609124144673519E-2    3.897534744302467E-4    3.548919678761244E-3    4.630793848023279E-4    3.578171465990593E-3    4.325637558958264E-1   -1.211122918581062E-1
 8.116300313875000E9     5.056564611965942E-1    3.563530742994214E-2    3.855757377273215E-4    3.564736087785961E-3    4.514723251014625E-4    3.592312363113122E-3    4.325124775698868E-1   -1.215710630156286E-1
 8.116307556050000E9     5.056794694283030E-1    3.499961799810078E-2    3.824486454426822E-4    3.574385539183335E-3    4.737692410349637E-4    3.621856018344933E-3    4.324373223084750E-1   -1.221795199047455E-1
 8.116314798225000E9     5.057438774181896E-1    3.452781215579574E-2    4.001748158907143E-4    3.559209279647597E-3    4.777763603532819E-4    3.610435440468619E-3    4.323238433075731E-1   -1.226097427673313E-1
 8.116322040400000E9     5.057037518446343E-1    3.386805641267448E-2    4.374360068201382E-4    3.557583564865246E-3    4.791848136820347E-4    3.610314404069866E-3    4.323236056142429E-1   -1.231282516455747E-1
 8.116329282575000E9     5.058381677742974E-1    3.330348432801875E-2    4.259261760736124E-4    3.560051659504968E-3    4.772837488750569E-4    3.606412540910435E-3    4.321311259663680E-1   -1.234237340312883E-1
 8.116336524750000E9     5.058460647913759E-1    3.286609930839115E-2    4.379578884986583E-4    3.556942761983085E-3    4.701796492422792E-4    3.599346199829237E-3    4.320373438348796E-1   -1.239167753681924E-1
 8.116343766925000E9     5.058667172841275E-1    3.234172467529839E-2    4.273103597901531E-4    3.547736416434055E-3    4.772603861324585E-4    3.601772284225288E-3    4.318720564443816E-1   -1.244770056237599E-1
 8.116351009100000E9     5.057531681626068E-1    3.175794796307815E-2    4.283378187433561E-4    3.546006864958659E-3    4.727473492141112E-4    3.619455365082053E-3    4.316691994330938E-1   -1.250096372179232E-1
 8.116358251275000E9     5.058637913344173E-1    3.120323011838676E-2    4.558392517690733E-4    3.554127649754200E-3    4.686898674662513E-4    3.602731019054117E-3    4.316287528611448E-1   -1.255666049638244E-1
 8.116365493450000E9     5.060372754436635E-1    3.063111349585280E-2    4.481265842931827E-4    3.558745524367419E-3    4.921416469680505E-4    3.617538179858288E-3    4.314139424344778E-1   -1.259326843684755E-1
 8.116372735625000E9     5.058722466970906E-1    3.009532295155260E-2    4.284122159019729E-4    3.553648439525314E-3    4.807214488231720E-4    3.612204649766727E-3    4.313424085242173E-1   -1.264491752032944E-1
 8.116379977800000E9     5.059789120218352E-1    2.963385341277646E-2    4.484423529804076E-4    3.539887012525895E-3    5.190539443386561E-4    3.616311589895540E-3    4.313541360926952E-1   -1.270085763212436E-1
 8.116387219975000E9     5.059179155849186E-1    2.902075012724276E-2    4.232857682064994E-4    3.578677327060531E-3    5.188171987858730E-4    3.648045455773886E-3    4.312019965143122E-1   -1.274234291246931E-1
 8.116394462150000E9     5.060917344889008E-1    2.844899703576953E-2    4.495841019285018E-4    3.584561985542616E-3    5.163472540895186E-4    3.579955152853685E-3    4.310562944003486E-1   -1.280391455960416E-1
 8.116401704325000E9     5.059312144192203E-1    2.798293665624871E-2    4.324472170935764E-4    3.546085110049979E-3    5.143836297484564E-4    3.648454405576883E-3    4.308526545944891E-1   -1.285246534981148E-1
 8.116408946500000E9     5.060299650907345E-1    2.733396677820215E-2    4.646294256734041E-4    3.558470616821812E-3    5.604455356202078E-4    3.650786028395670E-3    4.306929089129682E-1   -1.288813603902051E-1
 8.116416188675000E9     5.060824342843023E-1    2.686439776887648E-2    4.736081124647936E-4    3.563548260000029E-3    5.403100288729981E-4    3.627947586336141E-3    4.306663598781794E-1   -1.293346538780792E-1
 8.116423430850000E9     5.060183946181221E-1    2.633909250613145E-2    4.869823124872679E-4    3.576686088223963E-3    5.681879687363732E-4    3.613456619610014E-3    4.305872214819442E-1   -1.300011854989913E-1
 8.116430673025000E9     5.061110820362150E-1    2.571576114004124E-2    4.877032054133213E-4    3.584367877090876E-3    4.913842325521059E-4    3.640266463851819E-3    4.302735757421707E-1   -1.304580547188266E-1
 8.116437915200000E9     5.061695658155525E-1    2.528996051545825E-2    5.054963931905293E-4    3.589152524073207E-3    5.630433287045493E-4    3.652970742360016E-3    4.302895999714542E-1   -1.310774208345216E-1
 8.116445157375000E9     5.061084820010847E-1    2.474964961891777E-2    4.980357975670145E-4    3.589986953862271E-3    5.468041588134402E-4    3.658399967960975E-3    4.300789769554050E-1   -1.313282698724494E-1
 8.116452399550000E9     5.061056840703443E-1    2.417039122499363E-2    4.783616851371383E-4    3.576662653268568E-3    5.611681588783348E-4    3.638792779964312E-3    4.300396616055097E-1   -1.318200394307572E-1
 8.116459641725000E9     5.061770239896705E-1    2.356477539111914E-2    5.246130748727794E-4    3.566904126693430E-3    5.608746878514621E-4    3.667009123369448E-3    4.299849996237640E-1   -1.323441085470382E-1
 8.116466883900000E9     5.061817492284826E-1    2.306552190881308E-2    4.940054038927841E-4    3.602998271897362E-3    5.686248602656219E-4    3.652078408443896E-3    4.296336580218454E-1   -1.326210414280102E-1
 8.116474126075000E9     5.061448056758902E-1    2.238962155393940E-2    5.190572480887810E-4    3.570225242218186E-3    5.932543457758164E-4    3.612023546071290E-3    4.295967289787925E-1   -1.333968363626284E-1
 8.116481368250000E9     5.062024456030804E-1    2.195869676806557E-2    5.121003194535211E-4    3.581290849217424E-3    5.492639799268584E-4    3.652372497062290E-3    4.295574356791396E-1   -1.338561121715677E-1
 8.116488610425000E9     5.060882518233409E-1    2.129342669787669E-2    5.358911679978069E-4    3.589363645240858E-3    5.821053188604000E-4    3.654595029226131E-3    4.293346665081124E-1   -1.342587740989754E-1
 8.116495852600000E9     5.061934009822799E-1    2.086613370400503E-2    5.354830698478339E-4    3.618378415271576E-3    5.630365495102942E-4    3.680103396517280E-3    4.290718384910517E-1   -1.347200795900265E-1
 8.116503094775000E9     5.061989771370929E-1    2.028473008236131E-2    5.343503013622669E-4    3.601412904706219E-3    5.697258593539630E-4    3.689327140861211E-3    4.291259786928907E-1   -1.351685371293684E-1
 8.116510336950000E9     5.062834165438512E-1    1.981380004422939E-2    5.438761704499965E-4    3.606897799077441E-3    5.744396344713529E-4    3.660049149256040E-3    4.289594013899783E-1   -1.359279855441114E-1
 8.116517579125000E9     5.062178060695742E-1    1.922318732965855E-2    5.441003366240062E-4    3.596272904773730E-3    6.039391554359031E-4    3.659044601868818E-3    4.288276510210072E-1   -1.362534922636968E-1
 8.116524821300000E9     5.062774648479060E-1    1.864735681189270E-2    5.355355476876995E-4    3.617555406491747E-3    5.820352569772319E-4    3.676938911193516E-3    4.288318443576380E-1   -1.367850679972573E-1
 8.116532063475000E9     5.063541522376251E-1    1.801260598454853E-2    5.440336648016910E-4    3.599742717657944E-3    6.187124644483015E-4    3.647656081778014E-3    4.285305076460214E-1   -1.369717193027044E-1
 8.116539305650000E9     5.062074080934140E-1    1.751665754588205E-2    5.565853940599144E-4    3.605002765043087E-3    6.296740763234504E-4    3.680236155605400E-3    4.284684497214343E-1   -1.376820983554568E-1
 8.116546547825000E9     5.061858956940958E-1    1.696287921891159E-2    5.635324491215563E-4    3.635324554195100E-3    6.161755523597043E-4    3.664698929761323E-3    4.283446122811118E-1   -1.383751116679071E-1
 8.116553790000000E9     5.062475075058337E-1    1.645471063028543E-2    5.691581053522762E-4    3.636647463276823E-3    6.265748324311042E-4    3.636810970924925E-3    4.279699057058851E-1   -1.386546905560584E-1
 8.116561032175000E9     5.062789286449726E-1    1.589001257130054E-2    5.842388639879147E-4    3.633461097062212E-3    6.282259806458504E-4    3.695528648348030E-3    4.279899584478940E-1   -1.391743546691256E-1
 8.116568274350000E9     5.062458181724757E-1    1.533866533835699E-2    5.869196437202034E-4    3.604959428237271E-3    6.252534682973128E-4    3.677660910108150E-3    4.279372169340794E-1   -1.397249519223821E-1
 8.116575516525000E9     5.062242545325805E-1    1.483589038563045E-2    5.550631339225056E-4    3.611715596228343E-3    6.511036052629679E-4    3.697806364444977E-3    4.276627039056400E-1   -1.400002202288408E-1
 8.116582758700000E9     5.062767321081840E-1    1.422332429879022E-2    6.169020062149950E-4    3.608860518222055E-3    6.411912487930125E-4    3.674016822179113E-3    4.276657044966962E-1   -1.407078387446945E-1
 8.116590000875000E9     5.062983666778800E-1    1.374730804059053E-2    6.278176677602799E-4    3.623184524363996E-3    6.196400013588268E-4    3.656491804795853E-3    4.274228877688608E-1   -1.411505445756313E-1
 8.116597243050000E9     5.063956626239619E-1    1.325276610869408E-2    5.755459565722445E-4    3.627107026836154E-3    6.907027890484861E-4    3.668305484002642E-3    4.271992365540317E-1   -1.415167216840073E-1
 8.116604485225000E9     5.063388273328289E-1    1.259870400276212E-2    6.082763733952679E-4    3.645249327517321E-3    6.604056841242184E-4    3.705833625232748E-3    4.271129490176159E-1   -1.421394700352241E-1
 8.116611727400000E9     5.064430264304979E-1    1.214990438752540E-2    6.053257975497754E-4    3.636354110256350E-3    6.747815909164582E-4    3.679256235370301E-3    4.270444963575686E-1   -1.425291857054769E-1
 8.116618969575000E9     5.063195327636950E-1    1.148803282502052E-2    6.085672027176646E-4    3.647406147314851E-3    6.738562800803376E-4    3.702730339393852E-3    4.269142139745785E-1   -1.430537568263119E-1
 8.116626211750000E9     5.064054210113000E-1    1.095661171713017E-2    6.199035174727697E-4    3.645979692275084E-3    6.716371096037920E-4    3.683921358556083E-3    4.265997492547317E-1   -1.434876034451606E-1
