#  HZ   S   RI   R     50.00 
! Rohde & Schwarz Vector Network Analyzer 
! Rohde-Schwarz,ZNB20-2Port,1311601062101988,3.16
! Created: UTC 12/23/2023, 3:37:51 AM
! freq[Hz]                re:S11                  im:S11                  re:S21                  im:S21                  re:S12                  im:S12                  re:S22                  im:S22
 6.517094921000000E9    -2.299934470118018E-1   -1.532949851790363E-2    1.352663797866704E-2   -5.648059219401060E-3    1.363267481149353E-2   -5.155638661805541E-3    2.105554844533972E-1    5.066279794272704E-1
 6.517106443000000E9    -2.298285236678425E-1   -1.521179155657790E-2    1.359761979108765E-2   -5.666034057101167E-3    1.348964194480752E-2   -5.185316265114157E-3    2.115511469887478E-1    5.064091318207505E-1
 6.517117965000000E9    -2.297751055464673E-1   -1.489087330953164E-2    1.369619030861980E-2   -5.897601848957388E-3    1.380205512749273E-2   -5.221989166715110E-3    2.124312136018829E-1    5.057931012865472E-1
 6.517129487000000E9    -2.297155069580628E-1   -1.472337737920512E-2    1.357253958159437E-2   -5.776759862422354E-3    1.369294212596559E-2   -5.329584841791911E-3    2.132921795019763E-1    5.056130550757099E-1
 6.517141009000000E9    -2.294878855197115E-1   -1.464473834478193E-2    1.366861585840400E-2   -5.963168980788875E-3    1.382685339629759E-2   -5.420619085446156E-3    2.140415970591161E-1    5.051160072208294E-1
 6.517152531000000E9    -2.293447875517904E-1   -1.436493121607205E-2    1.368847808840588E-2   -5.807409073111526E-3    1.399371101175124E-2   -5.439725607002734E-3    2.149420831730657E-1    5.047818651028584E-1
 6.517164053000000E9    -2.293083723690961E-1   -1.421103991478846E-2    1.387818424377642E-2   -6.002329689130443E-3    1.392322246455224E-2   -5.529203469277457E-3    2.158192370498429E-1    5.046232008796868E-1
 6.517175575000000E9    -2.291429873916602E-1   -1.405393958857350E-2    1.387027987828348E-2   -6.037811417170962E-3    1.398962174595677E-2   -5.520009195945911E-3    2.166891506995122E-1    5.041814669325159E-1
 6.517187097000000E9    -2.289668627621639E-1   -1.399315076537233E-2    1.398164262103559E-2   -6.077875315649102E-3    1.405695109771455E-2   -5.637569384792966E-3    2.174693358567346E-1    5.037414920750641E-1
 6.517198619000000E9    -2.288323702062932E-1   -1.366281500243097E-2    1.399139250245484E-2   -6.141417886411762E-3    1.409965705255230E-2   -5.606067330687315E-3    2.181959225713923E-1    5.033705940766759E-1
 6.517210141000000E9    -2.288590882266665E-1   -1.353210082100387E-2    1.413028170028801E-2   -6.158380574216697E-3    1.420677860902996E-2   -5.722269328877923E-3    2.191238487712181E-1    5.031370786778184E-1
 6.517221663000000E9    -2.286260518537669E-1   -1.337479635849274E-2    1.403064263976797E-2   -6.367643943490453E-3    1.426536325128724E-2   -5.832601862235826E-3    2.200670308929916E-1    5.026514492932045E-1
 6.517233185000000E9    -2.284641425341896E-1   -1.314508059732553E-2    1.414479530749329E-2   -6.309358312721679E-3    1.429003500020960E-2   -5.849675603343398E-3    2.208537774698119E-1    5.023886246213929E-1
 6.517244707000000E9    -2.284321935230607E-1   -1.297467425417658E-2    1.419823910920713E-2   -6.394097444211713E-3    1.438929084267312E-2   -5.859572803444221E-3    2.216722714158392E-1    5.020426093849568E-1
 6.517256229000000E9    -2.283389328292539E-1   -1.297478254514640E-2    1.441528246972912E-2   -6.465680473535114E-3    1.434298636074790E-2   -5.866517833383683E-3    2.226585051276683E-1    5.016810393588268E-1
 6.517267751000000E9    -2.282376173613855E-1   -1.261476535214053E-2    1.428930758870228E-2   -6.412177969223629E-3    1.447765218103143E-2   -6.021447442921111E-3    2.233802236685094E-1    5.012810145092977E-1
 6.517279273000000E9    -2.279611754357006E-1   -1.257218269195150E-2    1.437566657373013E-2   -6.527786320463347E-3    1.455538790925481E-2   -6.054955777277445E-3    2.242288565140717E-1    5.009667628828895E-1
 6.517290795000000E9    -2.278843800794346E-1   -1.232338182653424E-2    1.439872105055713E-2   -6.654678088134503E-3    1.451812120939347E-2   -6.065155336205130E-3    2.251741151748390E-1    5.005101378351500E-1
 6.517302317000000E9    -2.277538211949753E-1   -1.218265022071182E-2    1.447623793205819E-2   -6.704491264521268E-3    1.453703130062166E-2   -6.211669121989153E-3    2.260470919285354E-1    5.002043398157168E-1
 6.517313839000000E9    -2.276577074652567E-1   -1.194606675405650E-2    1.454706966492888E-2   -6.682955908140996E-3    1.471963960220072E-2   -6.219706399130880E-3    2.267029190515622E-1    4.998984575709423E-1
 6.517325361000000E9    -2.274576120514263E-1   -1.183602255162522E-2    1.469156503787196E-2   -6.732717722221292E-3    1.470110403319913E-2   -6.368375956957310E-3    2.275771216860036E-1    4.995083155762726E-1
 6.517336883000000E9    -2.273890957566706E-1   -1.177179626070752E-2    1.463575429346889E-2   -6.755894030303889E-3    1.477198769313915E-2   -6.340458702098442E-3    2.283814707781707E-1    4.992613259321510E-1
 6.517348405000000E9    -2.270737023660969E-1   -1.152842727293897E-2    1.476698210636064E-2   -6.916000940780716E-3    1.488627383133198E-2   -6.457392119369304E-3    2.293635891966076E-1    4.987540005713408E-1
 6.517359927000000E9    -2.268755445810477E-1   -1.135645244076290E-2    1.481945873089143E-2   -6.950886476246207E-3    1.495878535587469E-2   -6.553106593180864E-3    2.302700280588110E-1    4.982156915677711E-1
 6.517371449000000E9    -2.269003290506869E-1   -1.123028150471975E-2    1.495665305872641E-2   -7.147449403099731E-3    1.510170145920101E-2   -6.508393788149792E-3    2.310224045686295E-1    4.978487954083256E-1
 6.517382971000000E9    -2.266905901197175E-1   -1.116979624666307E-2    1.511862584977537E-2   -7.174043129727906E-3    1.521282877860756E-2   -6.669975174420095E-3    2.319123132057751E-1    4.975388439826153E-1
 6.517394493000000E9    -2.266910711076626E-1   -1.083762718864825E-2    1.513166546228219E-2   -7.155342250276487E-3    1.518366700209958E-2   -6.719116854086898E-3    2.327923689186421E-1    4.971125912526071E-1
 6.517406015000000E9    -2.263908577454361E-1   -1.072322911541818E-2    1.504410620146590E-2   -7.136278932266322E-3    1.526532286625440E-2   -6.697078830467607E-3    2.337816994045920E-1    4.967335593388817E-1
 6.517417537000000E9    -2.263189512969455E-1   -1.052309124183772E-2    1.522113602195052E-2   -7.344630536168636E-3    1.537986392545889E-2   -6.854577074530106E-3    2.344504184864896E-1    4.963574885079609E-1
 6.517429059000000E9    -2.262018455271457E-1   -1.025575041971088E-2    1.511278965851262E-2   -7.334690180443818E-3    1.541730388763842E-2   -6.879472133016776E-3    2.353374370792583E-1    4.960080237453820E-1
 6.517440581000000E9    -2.260227403557164E-1   -1.030045310946849E-2    1.520261091909611E-2   -7.469953203528761E-3    1.546064773283421E-2   -7.021512743766933E-3    2.360851699486161E-1    4.956579975690993E-1
 6.517452103000000E9    -2.258881906015782E-1   -1.013344029832380E-2    1.546646428814738E-2   -7.666051190165801E-3    1.573292671507920E-2   -7.003933680327395E-3    2.371045331940155E-1    4.951097529528050E-1
 6.517463625000000E9    -2.258311926406735E-1   -1.003063069436548E-2    1.539007586183961E-2   -7.705093479806955E-3    1.563078586481039E-2   -7.070022102537563E-3    2.379328118226637E-1    4.947166893216631E-1
 6.517475147000000E9    -2.256655771542279E-1   -9.715829165680348E-3    1.536886683423420E-2   -7.779048297222371E-3    1.573211989038671E-2   -7.173107255547032E-3    2.386959253662185E-1    4.943200363990189E-1
 6.517486669000000E9    -2.254275631642518E-1   -9.546718377285530E-3    1.569784694788239E-2   -7.756438346543967E-3    1.574280547465124E-2   -7.248535548550367E-3    2.395703914686841E-1    4.938825751439454E-1
 6.517498191000000E9    -2.253649812755455E-1   -9.525986371398213E-3    1.559788509471803E-2   -7.921545435367780E-3    1.590760704270267E-2   -7.332092140932445E-3    2.403317452535739E-1    4.936062179584051E-1
 6.517509713000000E9    -2.251927858026798E-1   -9.339922090638770E-3    1.571095207151376E-2   -8.024827829236280E-3    1.603522195471921E-2   -7.371450251922738E-3    2.413147325724986E-1    4.930206939757704E-1
 6.517521235000000E9    -2.250010467925535E-1   -9.197502111386084E-3    1.587374690570525E-2   -7.989786869148264E-3    1.605253487966420E-2   -7.542962079135302E-3    2.421247241542570E-1    4.927916394903316E-1
 6.517532757000000E9    -2.249508248404594E-1   -9.088306863446773E-3    1.597854840463751E-2   -8.168285863037196E-3    1.608158032879957E-2   -7.607411942014132E-3    2.430671651600422E-1    4.923300479653759E-1
 6.517544279000000E9    -2.246758846102150E-1   -9.030377510086023E-3    1.598976685031446E-2   -8.193017018314036E-3    1.620112545996433E-2   -7.691914792948864E-3    2.437689399815428E-1    4.919631025685739E-1
 6.517555801000000E9    -2.245326314473296E-1   -8.770960805625177E-3    1.596560924091843E-2   -8.242183816467316E-3    1.626184186022120E-2   -7.614291735470249E-3    2.448644220906175E-1    4.914414985567271E-1
 6.517567323000000E9    -2.243856465890982E-1   -8.567279014071892E-3    1.614795646696663E-2   -8.347734502514231E-3    1.634959938512322E-2   -7.811681959292368E-3    2.454589299766851E-1    4.910796159190406E-1
 6.517578845000000E9    -2.242595258987983E-1   -8.485498746697333E-3    1.616313206916443E-2   -8.466169815888087E-3    1.642503244842422E-2   -7.831858509863739E-3    2.463406561766409E-1    4.905599591026072E-1
 6.517590367000000E9    -2.241460518698463E-1   -8.353526525586080E-3    1.633344870751936E-2   -8.605767818353271E-3    1.652559898688453E-2   -8.000478218154781E-3    2.472811310471886E-1    4.903124736913653E-1
 6.517601889000000E9    -2.239397393438133E-1   -8.315800590312891E-3    1.645583073764052E-2   -8.822876549537811E-3    1.656524855962796E-2   -8.001436303895219E-3    2.480653631076800E-1    4.898255828747380E-1
 6.517613411000000E9    -2.238618544538792E-1   -8.106233890495123E-3    1.657071594413048E-2   -8.687348982872470E-3    1.659844806195963E-2   -8.118460475170671E-3    2.488554003298636E-1    4.893374573790242E-1
 6.517624933000000E9    -2.236195776788358E-1   -8.006764975295295E-3    1.650966822688642E-2   -8.828428553484745E-3    1.672464627366364E-2   -8.217467362486523E-3    2.498250161900007E-1    4.890130130928815E-1
 6.517636455000000E9    -2.235030598193647E-1   -7.775876012666189E-3    1.662911640337189E-2   -8.934088740884969E-3    1.693197558910058E-2   -8.296701866521877E-3    2.505465134913408E-1    4.884939895926372E-1
 6.517647977000000E9    -2.233586956534101E-1   -7.603915411387163E-3    1.667020129906685E-2   -8.970466563221594E-3    1.697148238938763E-2   -8.440289318300711E-3    2.516677069392546E-1    4.882223305554399E-1
 6.517659499000000E9    -2.231144453552597E-1   -7.553129213706582E-3    1.667779485925690E-2   -9.261611193767871E-3    1.696421856853368E-2   -8.447108258072992E-3    2.521730342169753E-1    4.875700130972798E-1
 6.517671021000000E9    -2.229161934454521E-1   -7.389318371069527E-3    1.680062520448890E-2   -9.152430030832213E-3    1.711988172681065E-2   -8.655984087472949E-3    2.532395752455032E-1    4.872855384271837E-1
 6.517682543000000E9    -2.227346662241998E-1   -7.237554066153776E-3    1.694232782830057E-2   -9.291144289513961E-3    1.729051801823587E-2   -8.735181323837790E-3    2.539717109732010E-1    4.867315946494316E-1
 6.517694065000000E9    -2.225644259084453E-1   -7.136291850748832E-3    1.707903130707049E-2   -9.314057703698187E-3    1.723877088306885E-2   -8.864116893480111E-3    2.548084758035694E-1    4.863520613444137E-1
 6.517705587000000E9    -2.224329727626099E-1   -6.999083059319232E-3    1.709989134841487E-2   -9.522570450120223E-3    1.744011319081294E-2   -8.807010400321806E-3    2.555529899540736E-1    4.859024011362306E-1
 6.517717109000000E9    -2.222300438096983E-1   -6.906812814496232E-3    1.725267282612445E-2   -9.724519814734892E-3    1.753107173331973E-2   -8.946647574050429E-3    2.564684264222201E-1    4.853957575752481E-1
 6.517728631000000E9    -2.220194942620361E-1   -6.806447739163601E-3    1.727347040824610E-2   -9.707117318516385E-3    1.760922014151780E-2   -9.053307670751659E-3    2.573045833587232E-1    4.851342620259657E-1
 6.517740153000000E9    -2.219734861735061E-1   -6.682054733525802E-3    1.742041637327349E-2   -9.675751139639978E-3    1.768166326815022E-2   -9.128885194629288E-3    2.583207731742760E-1    4.844726686809578E-1
 6.517751675000000E9    -2.216830163484239E-1   -6.550523717450902E-3    1.753094383585689E-2   -9.994911096861476E-3    1.779021390378791E-2   -9.314843212069324E-3    2.592019134201035E-1    4.840049642182147E-1
 6.517763197000000E9    -2.214869285341629E-1   -6.459145737645998E-3    1.745415485838615E-2   -9.791231882644713E-3    1.791804703115536E-2   -9.368179982988953E-3    2.600637079357893E-1    4.835895152462540E-1
 6.517774719000000E9    -2.212847475304230E-1   -6.373836097100344E-3    1.779319138606510E-2   -1.002720323832911E-2    1.803981696719299E-2   -9.502810493579183E-3    2.606761079423261E-1    4.831073850388113E-1
 6.517786241000000E9    -2.211152241054735E-1   -6.172855574387956E-3    1.780763934306520E-2   -1.023773329674759E-2    1.815203144738711E-2   -9.619230963058388E-3    2.616861124263674E-1    4.827048017736514E-1
 6.517797763000000E9    -2.209307151250117E-1   -6.064118921297481E-3    1.807132091182262E-2   -1.030375451857852E-2    1.814856384187232E-2   -9.773654130345106E-3    2.624941230087110E-1    4.822454444484623E-1
 6.517809285000000E9    -2.207872956306031E-1   -6.077624608766320E-3    1.808338250876123E-2   -1.043250974668477E-2    1.832096605477392E-2   -9.955596981175464E-3    2.633866906488662E-1    4.816186430594684E-1
 6.517820807000000E9    -2.206254674733487E-1   -5.941527136573851E-3    1.805966199742451E-2   -1.052184559132895E-2    1.841618389997338E-2   -9.929982407968765E-3    2.642341068479767E-1    4.811253970033987E-1
 6.517832329000000E9    -2.203983147006391E-1   -5.734063936164262E-3    1.822153236207713E-2   -1.064880501512842E-2    1.849930787606959E-2   -1.004303117885170E-2    2.652206154867403E-1    4.808972522311066E-1
 6.517843851000000E9    -2.201751378349061E-1   -5.670800175199497E-3    1.820881802818325E-2   -1.089366599282254E-2    1.879372469773210E-2   -1.031153702357897E-2    2.658800517928371E-1    4.802440456795709E-1
 6.517855373000000E9    -2.200272548816785E-1   -5.503751919043254E-3    1.829098769712026E-2   -1.090543956052951E-2    1.872953654761132E-2   -1.038541924562646E-2    2.666830267831951E-1    4.797887127904514E-1
 6.517866895000000E9    -2.198630475435950E-1   -5.480121441097548E-3    1.850500695031716E-2   -1.107691592822122E-2    1.881974187382075E-2   -1.041521465047190E-2    2.677379044911659E-1    4.793061626511756E-1
 6.517878417000000E9    -2.195554850493855E-1   -5.413963043430472E-3    1.874052529931913E-2   -1.121824683585003E-2    1.901316947534783E-2   -1.060380751350649E-2    2.685561988966131E-1    4.789381585863214E-1
 6.517889939000000E9    -2.194641882181554E-1   -5.289225695802910E-3    1.877000421747201E-2   -1.141735144202310E-2    1.900929263141029E-2   -1.060596943539155E-2    2.693206016628355E-1    4.782266220590510E-1
 6.517901461000000E9    -2.192132340451519E-1   -5.108295179182653E-3    1.889579278668800E-2   -1.149974623750979E-2    1.929059404065661E-2   -1.080053731192324E-2    2.702039600624322E-1    4.777265479914907E-1
 6.517912983000000E9    -2.190512189491420E-1   -5.090880319283418E-3    1.892459575575511E-2   -1.153088455494555E-2    1.923942654295426E-2   -1.102679805539858E-2    2.711363162139281E-1    4.772623451481069E-1
 6.517924505000000E9    -2.188900509368828E-1   -4.893108189941054E-3    1.899878066293052E-2   -1.171722322119528E-2    1.949428892396200E-2   -1.112537137514341E-2    2.719657405712623E-1    4.767516921975323E-1
 6.517936027000000E9    -2.187191686137132E-1   -4.821721047464126E-3    1.901130920383766E-2   -1.186555680142877E-2    1.958247181409831E-2   -1.122205954332050E-2    2.727544837614664E-1    4.762927497285805E-1
 6.517947549000000E9    -2.183059291567138E-1   -4.777939247845578E-3    1.937027153682419E-2   -1.198882855568091E-2    1.967747401120201E-2   -1.139279933831687E-2    2.736661001188344E-1    4.756914895779226E-1
 6.517959071000000E9    -2.181225322130423E-1   -4.741952356748255E-3    1.945241762654911E-2   -1.207452758889477E-2    1.989052963677567E-2   -1.141060180336492E-2    2.743776823398382E-1    4.752995820794596E-1
 6.517970593000000E9    -2.179569009263271E-1   -4.656151174726416E-3    1.949344310896566E-2   -1.224397961568454E-2    1.993558334435754E-2   -1.170565439275336E-2    2.754501916516679E-1    4.746199517609240E-1
 6.517982115000000E9    -2.177167043956035E-1   -4.681804301391013E-3    1.960687360043123E-2   -1.243897528809274E-2    2.005256841752577E-2   -1.172183047489857E-2    2.762950530239082E-1    4.742727773405465E-1
 6.517993637000000E9    -2.175620644549314E-1   -4.616284473955837E-3    1.976855232043124E-2   -1.252979648017655E-2    2.009979491267099E-2   -1.186112322934811E-2    2.771518101850851E-1    4.736664381412513E-1
 6.518005159000000E9    -2.173490052957171E-1   -4.465574621919022E-3    1.988424875829555E-2   -1.273481252124189E-2    2.030172760285505E-2   -1.208945357417422E-2    2.781556970956899E-1    4.732845714693261E-1
 6.518016681000000E9    -2.171817539364085E-1   -4.357838118723559E-3    1.999861727399156E-2   -1.300989623024519E-2    2.038354248869653E-2   -1.225216115996296E-2    2.788391776993587E-1    4.725521720525609E-1
 6.518028203000000E9    -2.168040387535740E-1   -4.359753835688851E-3    2.009179275814391E-2   -1.288307458431370E-2    2.059929629749170E-2   -1.236649633223396E-2    2.797180776295893E-1    4.720547201597702E-1
 6.518039725000000E9    -2.166095305396873E-1   -4.249974077381985E-3    2.036359810837328E-2   -1.317447242475813E-2    2.064454449281990E-2   -1.262496833174207E-2    2.804958980139938E-1    4.715316004605276E-1
 6.518051247000000E9    -2.164164112255249E-1   -4.152452150299066E-3    2.038460147496080E-2   -1.333030993440321E-2    2.083435975271414E-2   -1.261235420209507E-2    2.813301391182084E-1    4.710300470982613E-1
 6.518062769000000E9    -2.162314300748025E-1   -4.114743867367895E-3    2.056976865353929E-2   -1.342624714609125E-2    2.096086222785897E-2   -1.286664590913887E-2    2.823060678508531E-1    4.703334750342696E-1
 6.518074291000000E9    -2.158377984012023E-1   -4.091463075444512E-3    2.049666510382287E-2   -1.364912993922672E-2    2.113690230601240E-2   -1.308048806659886E-2    2.832547970322860E-1    4.699280230908501E-1
 6.518085813000000E9    -2.157069304057455E-1   -4.063085318320636E-3    2.079124926414690E-2   -1.391853039753018E-2    2.118430158793001E-2   -1.331698530960342E-2    2.839849997946560E-1    4.693893769124125E-1
 6.518097335000000E9    -2.154625321479475E-1   -3.923245504958554E-3    2.098549821362907E-2   -1.393532104776777E-2    2.130150668504272E-2   -1.336738774350166E-2    2.848238321469621E-1    4.687710916380662E-1
 6.518108857000000E9    -2.151917322718443E-1   -3.887343051995209E-3    2.098985367030531E-2   -1.414208411274832E-2    2.155393557687761E-2   -1.357981107286809E-2    2.858106929570809E-1    4.682960174332200E-1
 6.518120379000000E9    -2.150971106711292E-1   -3.936298138805898E-3    2.109483949509146E-2   -1.449822194300198E-2    2.156324829188183E-2   -1.377490348006619E-2    2.866197032594055E-1    4.675892790668963E-1
 6.518131901000000E9    -2.146814312644063E-1   -3.906589018292725E-3    2.127659234192515E-2   -1.457448441874379E-2    2.178514595689176E-2   -1.388908635466364E-2    2.874465770747071E-1    4.670967235384210E-1
