#  HZ   S   RI   R     50.00 
! Rohde & Schwarz Vector Network Analyzer 
! Rohde-Schwarz,ZNB20-2Port,1311601062101988,3.16
! Created: UTC 3/20/2024, 11:51:41 AM
! freq[Hz]                re:S11                  im:S11                  re:S21                  im:S21                  re:S12                  im:S12                  re:S22                  im:S22
 8.115877568000000E9     5.030289701485938E-1    6.717824504160547E-2    1.829396419154554E-4    3.497199070071559E-3    2.147178564812901E-4    3.510850418403952E-3    4.384696587267704E-1   -9.283111617030478E-2
 8.115885285500000E9     5.030139824745005E-1    6.647371735567632E-2    1.483578793209458E-4    3.466544968746284E-3    1.858715155560041E-4    3.508291641375537E-3    4.386830594546255E-1   -9.336624754418597E-2
 8.115893003000000E9     5.031801639890057E-1    6.599927310131283E-2    1.658763877957202E-4    3.463095635542303E-3    2.449478105679735E-4    3.510302879074491E-3    4.385627356383995E-1   -9.392625593661122E-2
 8.115900720500000E9     5.031535235865227E-1    6.543556118328483E-2    1.603065275522445E-4    3.468329592723340E-3    2.367047341223429E-4    3.540255633193977E-3    4.382798008034152E-1   -9.437260786339306E-2
 8.115908438000000E9     5.033068116959744E-1    6.486502039695571E-2    1.785894802484390E-4    3.473676233629926E-3    2.494916782667527E-4    3.546371201451061E-3    4.382721272502598E-1   -9.490486084843969E-2
 8.115916155500000E9     5.033938687845239E-1    6.431941281263195E-2    1.540980399744650E-4    3.464453630915162E-3    2.138741138274059E-4    3.510412417398038E-3    4.381766465117217E-1   -9.553566124847380E-2
 8.115923873000000E9     5.033394486823018E-1    6.377064095927738E-2    1.623607763867900E-4    3.468310520626248E-3    2.593911973948754E-4    3.508019005566247E-3    4.379829132525203E-1   -9.613460785369320E-2
 8.115931590500000E9     5.034777425051961E-1    6.306353620501141E-2    1.799838407652956E-4    3.458106503159856E-3    2.462984761177641E-4    3.522196589857615E-3    4.378241824981575E-1   -9.661389631263875E-2
 8.115939308000000E9     5.035397926744275E-1    6.264400575687801E-2    1.885863932362542E-4    3.464008523625343E-3    2.711233533779263E-4    3.545925790810702E-3    4.376460930125617E-1   -9.691742066449906E-2
 8.115947025500000E9     5.035527836206968E-1    6.198399376526837E-2    1.760170966361547E-4    3.484186826773449E-3    2.226064563956798E-4    3.534335435007548E-3    4.377069936261781E-1   -9.741479310718694E-2
 8.115954743000000E9     5.035860414402378E-1    6.140449760179648E-2    2.176986658376638E-4    3.494183411620279E-3    2.506540695938564E-4    3.529834972685314E-3    4.375381986263089E-1   -9.806383846786515E-2
 8.115962460500000E9     5.038158475069450E-1    6.066521442259872E-2    2.027779629224373E-4    3.475802667456697E-3    2.887214591227456E-4    3.535346767999521E-3    4.373787434131700E-1   -9.857794500967224E-2
 8.115970178000000E9     5.038219787013378E-1    6.034803173032707E-2    1.960265721198231E-4    3.485501880915357E-3    2.812392183902717E-4    3.497038210787355E-3    4.373531915979517E-1   -9.917592773068150E-2
 8.115977895500000E9     5.038427506814085E-1    5.964239993528057E-2    2.200807878140422E-4    3.489617386261341E-3    2.911268195520752E-4    3.539299670800029E-3    4.372433112966267E-1   -9.962300825977434E-2
 8.115985613000000E9     5.039414728178490E-1    5.907105241924291E-2    2.049021282027689E-4    3.473206914683290E-3    2.827375547426513E-4    3.530854205393538E-3    4.372416417823898E-1   -1.002934426167455E-1
 8.115993330500000E9     5.038793603149750E-1    5.851587205849796E-2    2.185227728048994E-4    3.519149316574881E-3    2.907002140898520E-4    3.525214681909044E-3    4.371641049539642E-1   -1.005490279040942E-1
 8.116001048000000E9     5.040384381550700E-1    5.777733430578047E-2    2.411515628311949E-4    3.491908087693960E-3    3.015979520169804E-4    3.513866909015189E-3    4.370497852102446E-1   -1.012707071780532E-1
 8.116008765500000E9     5.040307732378664E-1    5.738700865207253E-2    2.305871476698729E-4    3.505065905723129E-3    2.868127991186917E-4    3.554999280549632E-3    4.370000605719307E-1   -1.018017953023879E-1
 8.116016483000000E9     5.041436344294126E-1    5.689723328488274E-2    2.395908853816897E-4    3.473191457085629E-3    2.977144045453977E-4    3.551480090851354E-3    4.368666389456438E-1   -1.022994912499472E-1
 8.116024200500000E9     5.041390650703262E-1    5.614579673598787E-2    2.435938271616148E-4    3.489243281132349E-3    2.873475660926909E-4    3.544554131456535E-3    4.366522792526876E-1   -1.027385409451721E-1
 8.116031918000000E9     5.042502992374408E-1    5.572512312735184E-2    2.573819884501641E-4    3.470668966859211E-3    2.977036549214953E-4    3.589786800136809E-3    4.366205328302756E-1   -1.031860757895482E-1
 8.116039635500000E9     5.041721593782843E-1    5.501762280719882E-2    2.681407958638013E-4    3.510723117488495E-3    3.144095916814974E-4    3.508177297308801E-3    4.365492882383400E-1   -1.039767981340086E-1
 8.116047353000000E9     5.043602295257095E-1    5.450308632004423E-2    2.708899004505999E-4    3.492583110640474E-3    3.008992504259021E-4    3.550587368178477E-3    4.364074044108683E-1   -1.044469437021997E-1
 8.116055070500000E9     5.044209864296363E-1    5.397390843517497E-2    2.472740599203653E-4    3.499088075667114E-3    3.030165114668818E-4    3.579091912230571E-3    4.362120287053034E-1   -1.050132250561326E-1
 8.116062788000000E9     5.043175719756703E-1    5.332235954254123E-2    2.653214162503298E-4    3.502665587515765E-3    3.344566849467873E-4    3.534857852616622E-3    4.361796690014069E-1   -1.054216654147896E-1
 8.116070505500000E9     5.044964377656933E-1    5.277866256624432E-2    2.345747048118301E-4    3.486349851722049E-3    3.117326947008761E-4    3.562237549032778E-3    4.361136760427314E-1   -1.058988577523803E-1
 8.116078223000000E9     5.044908527206696E-1    5.220975326392401E-2    2.905261079816272E-4    3.513886860675384E-3    3.238595378359549E-4    3.540517750618611E-3    4.359909584970468E-1   -1.065335264392607E-1
 8.116085940500000E9     5.045888099239765E-1    5.154277633103520E-2    2.637824794669669E-4    3.497159800842529E-3    3.636404879183103E-4    3.556090016044621E-3    4.358281049894783E-1   -1.069838912001284E-1
 8.116093658000000E9     5.046219970515191E-1    5.091275831786041E-2    2.947296974146381E-4    3.508599237324846E-3    3.316227379758744E-4    3.546849056476336E-3    4.357585257809324E-1   -1.075656241902382E-1
 8.116101375500000E9     5.046395501261398E-1    5.047190017983525E-2    2.917378467452487E-4    3.493996878128240E-3    3.721603458856987E-4    3.539237202985122E-3    4.356995597890980E-1   -1.080359233853443E-1
 8.116109093000000E9     5.047997735430966E-1    4.996191434254979E-2    3.061444682168741E-4    3.522572131107368E-3    3.807738531262469E-4    3.563742941105374E-3    4.355140286036538E-1   -1.085993343081126E-1
 8.116116810500000E9     5.047363854501262E-1    4.932731533090717E-2    2.752275629657410E-4    3.524075418268131E-3    3.390426686911122E-4    3.591898277029968E-3    4.355051215030614E-1   -1.092435160666434E-1
 8.116124528000000E9     5.048327428311744E-1    4.870599496508113E-2    3.066138063792882E-4    3.507906920806878E-3    3.660167523262595E-4    3.567507774761159E-3    4.354604559542400E-1   -1.096412979718774E-1
 8.116132245500000E9     5.048619402747341E-1    4.816014783788547E-2    3.080624182698743E-4    3.499534558152253E-3    3.478695994923376E-4    3.568750712196718E-3    4.353257454406543E-1   -1.101811628039077E-1
 8.116139963000000E9     5.049833293319886E-1    4.750403519907141E-2    2.912659269102822E-4    3.510678476987316E-3    3.556191822177111E-4    3.561379218474096E-3    4.350185589791657E-1   -1.107303924009192E-1
 8.116147680500000E9     5.050435087768376E-1    4.696463138177431E-2    2.984771975914884E-4    3.517888369347716E-3    3.488761680515176E-4    3.571818998860978E-3    4.350234030583083E-1   -1.112571957947081E-1
 8.116155398000000E9     5.049631821581860E-1    4.642438544762869E-2    3.127371295327081E-4    3.526225528325674E-3    3.807823718256407E-4    3.577425392393742E-3    4.348578227339771E-1   -1.117106543758729E-1
 8.116163115500000E9     5.050136302650049E-1    4.575499799887627E-2    2.942282934563828E-4    3.526814459596033E-3    3.708088877317075E-4    3.569614696123369E-3    4.347533614338913E-1   -1.123881853349635E-1
 8.116170833000000E9     5.050394053883713E-1    4.522481836173995E-2    3.344961216564729E-4    3.523983514688616E-3    3.515371588069913E-4    3.595332777459381E-3    4.346493912264785E-1   -1.126844175371053E-1
 8.116178550500000E9     5.052100406116912E-1    4.457724446059903E-2    3.286541477552428E-4    3.533399039953197E-3    4.186448309644367E-4    3.584839055465703E-3    4.346736974216989E-1   -1.133131684410662E-1
 8.116186268000000E9     5.051708418029742E-1    4.407583370186776E-2    3.236130186303640E-4    3.497011589797641E-3    3.910363310594855E-4    3.559204365353102E-3    4.345130787212579E-1   -1.137963018942342E-1
 8.116193985500000E9     5.051979911753542E-1    4.358624224688393E-2    3.125031099247657E-4    3.513625819305627E-3    4.037562493555059E-4    3.595755041963109E-3    4.341966883456890E-1   -1.143505134405609E-1
 8.116201703000000E9     5.052655135527476E-1    4.301484663854675E-2    3.530883471121641E-4    3.514544586050143E-3    3.974962813038598E-4    3.583887734208044E-3    4.342618569086168E-1   -1.148680800384504E-1
 8.116209420500000E9     5.053088569926470E-1    4.234738175914925E-2    3.429470287588903E-4    3.509160673549471E-3    4.195071275167311E-4    3.597625622768534E-3    4.339241359720986E-1   -1.152585234255021E-1
 8.116217138000000E9     5.052869321897795E-1    4.173744270215225E-2    3.669395686431890E-4    3.542100037703071E-3    3.867630634266594E-4    3.570613353281132E-3    4.339676250365749E-1   -1.159940720413092E-1
 8.116224855500000E9     5.053596564240489E-1    4.126006551673600E-2    3.807264423208587E-4    3.546986983865427E-3    4.380776563226734E-4    3.593409015003984E-3    4.338174919846967E-1   -1.163939097977771E-1
 8.116232573000000E9     5.053658093491920E-1    4.062830911642936E-2    3.511005320649116E-4    3.549775809435804E-3    4.125805587870481E-4    3.578060472311839E-3    4.336565284883969E-1   -1.167746643995685E-1
 8.116240290500000E9     5.055746285681678E-1    4.007916441662738E-2    3.736994024556897E-4    3.531756602153843E-3    4.186690747051070E-4    3.591034537095993E-3    4.334204757349310E-1   -1.173415601762366E-1
 8.116248008000000E9     5.053865826459282E-1    3.948815738539462E-2    3.512998045966774E-4    3.537584917214955E-3    4.034446943156047E-4    3.578137115249722E-3    4.333106808831108E-1   -1.179442350528496E-1
 8.116255725500000E9     5.054226293152755E-1    3.882889967229952E-2    3.605673147800693E-4    3.523049470032952E-3    4.260957416771500E-4    3.559222417776469E-3    4.333184820702958E-1   -1.184855522750336E-1
 8.116263443000000E9     5.056160070432769E-1    3.832781538916259E-2    3.753332074195017E-4    3.540129423719136E-3    4.678572159985645E-4    3.586355411313967E-3    4.331857986327738E-1   -1.189872485288524E-1
 8.116271160500000E9     5.055573833081708E-1    3.760607634034650E-2    3.813986631309480E-4    3.540377679972402E-3    4.474238930163970E-4    3.610601982891029E-3    4.329966482101426E-1   -1.196404402825972E-1
 8.116278878000000E9     5.056208937810780E-1    3.722759631359171E-2    4.082244025526173E-4    3.547233079187279E-3    4.642916505897687E-4    3.576889727042354E-3    4.330347733631682E-1   -1.199906845080910E-1
 8.116286595500000E9     5.055109531589945E-1    3.651051885473041E-2    3.730992962615787E-4    3.548335409226439E-3    4.404845715583361E-4    3.601934073204763E-3    4.327854675775638E-1   -1.205843812741208E-1
 8.116294313000000E9     5.057281933010664E-1    3.598274870993887E-2    4.058526076691579E-4    3.552470252500746E-3    4.625482846210158E-4    3.616667960721930E-3    4.326164957659568E-1   -1.211236318842024E-1
 8.116302030500000E9     5.057089708999960E-1    3.539088690410332E-2    4.310563581089859E-4    3.515404719769567E-3    4.736155340961226E-4    3.593524584560970E-3    4.325306525559736E-1   -1.217479395561529E-1
 8.116309748000000E9     5.057050996384787E-1    3.483420175607305E-2    3.908417070248467E-4    3.546460159442872E-3    4.760632162070873E-4    3.595647697663898E-3    4.325399650455535E-1   -1.221179409162841E-1
 8.116317465500000E9     5.058671996789520E-1    3.432933901254916E-2    4.338039659883216E-4    3.555126192559695E-3    4.401357964064582E-4    3.580397206679787E-3    4.324883772805298E-1   -1.226681690825533E-1
 8.116325183000000E9     5.057901530762562E-1    3.365418438513766E-2    4.211242317801501E-4    3.513380171019354E-3    4.834722719364903E-4    3.623473294637262E-3    4.322282141540557E-1   -1.231745880825475E-1
 8.116332900500000E9     5.058818995653690E-1    3.317316855242934E-2    4.141892453228997E-4    3.561551035362566E-3    4.649022522994115E-4    3.583375083535896E-3    4.319943817555665E-1   -1.237049714280308E-1
 8.116340618000000E9     5.057578602723316E-1    3.249831493536870E-2    4.392836557729251E-4    3.545551479716258E-3    5.102562304641470E-4    3.615985413919021E-3    4.318048924071718E-1   -1.243032638391816E-1
 8.116348335500000E9     5.060117615892021E-1    3.195413111604026E-2    4.253901673999369E-4    3.569179304954673E-3    4.830300567899196E-4    3.604852096685238E-3    4.319329219996025E-1   -1.248114070093963E-1
 8.116356053000000E9     5.058923793268099E-1    3.131345861086156E-2    4.376668321811960E-4    3.563825929780803E-3    5.020752772101086E-4    3.620652731751778E-3    4.317544195487247E-1   -1.254607957163365E-1
 8.116363770500000E9     5.059465674949973E-1    3.085266801775960E-2    4.304048470380292E-4    3.557511801181620E-3    5.065368070072501E-4    3.631688411385610E-3    4.315871506841317E-1   -1.258669658158912E-1
 8.116371488000000E9     5.059512268394672E-1    3.017915724544909E-2    4.339261807719108E-4    3.576985903898350E-3    4.835063860136084E-4    3.643764009381708E-3    4.313468186247781E-1   -1.262949082591223E-1
 8.116379205500000E9     5.058776078803501E-1    2.960430812618238E-2    4.524361532585751E-4    3.562467337137437E-3    5.012901326138198E-4    3.642104636201516E-3    4.313986982552336E-1   -1.268197562522961E-1
 8.116386923000000E9     5.059833768706115E-1    2.897707911870847E-2    4.802155667457353E-4    3.578452456132852E-3    5.226423620226430E-4    3.627318179713167E-3    4.312403700091660E-1   -1.274467287395384E-1
 8.116394640500000E9     5.060017020301089E-1    2.846062095323128E-2    4.577239178990940E-4    3.570986444330062E-3    4.927228445223370E-4    3.639054966335413E-3    4.308756752717439E-1   -1.279114890784009E-1
 8.116402358000000E9     5.060670487159917E-1    2.790710850495678E-2    4.658389676450267E-4    3.561783440591554E-3    5.157294377965809E-4    3.605048068888021E-3    4.308921950744533E-1   -1.283355284769827E-1
 8.116410075500000E9     5.060974810919731E-1    2.735870130699023E-2    4.503586646731636E-4    3.563230765330479E-3    4.899937063637792E-4    3.673134892917852E-3    4.308432355284708E-1   -1.289425162956657E-1
 8.116417793000000E9     5.061252435078529E-1    2.669536977811633E-2    4.785420135256983E-4    3.560374247837824E-3    5.247534450844505E-4    3.647712495757737E-3    4.306696316205897E-1   -1.296236875323312E-1
 8.116425510500000E9     5.061395060454864E-1    2.609877958966516E-2    4.857970990491206E-4    3.572755813609600E-3    5.454886668062899E-4    3.653706378440287E-3    4.304510492906208E-1   -1.299327176705358E-1
 8.116433228000000E9     5.061377813261005E-1    2.550715074336069E-2    4.622729874107084E-4    3.574870695150756E-3    5.569821935669015E-4    3.647235977731006E-3    4.303607385914208E-1   -1.305640171938053E-1
 8.116440945500000E9     5.061267690503892E-1    2.492970046900923E-2    4.933450979484169E-4    3.566187671895697E-3    5.538239502191547E-4    3.639789901857670E-3    4.302594378461053E-1   -1.310333391506149E-1
 8.116448663000000E9     5.061076432452345E-1    2.440178594441745E-2    4.846415616957308E-4    3.562800849889743E-3    5.598958708197301E-4    3.624373836394058E-3    4.300960061736063E-1   -1.315189482598687E-1
 8.116456380500000E9     5.062581564593175E-1    2.382537922146038E-2    4.967039713667207E-4    3.576487676458915E-3    5.654006800491659E-4    3.643222780542897E-3    4.299225056953108E-1   -1.319064617849229E-1
 8.116464098000000E9     5.062457587737852E-1    2.326148265783837E-2    4.891242576580669E-4    3.573322321749135E-3    5.419163610121662E-4    3.645084978567553E-3    4.298386281084435E-1   -1.325264719027416E-1
 8.116471815500000E9     5.061821899988413E-1    2.260474195154252E-2    5.027809168568526E-4    3.568937528543610E-3    5.784943142105536E-4    3.652081241657187E-3    4.296871546631225E-1   -1.332213531784155E-1
 8.116479533000000E9     5.063251191236522E-1    2.205838017464929E-2    5.137965209698716E-4    3.606695133048412E-3    5.749816102073061E-4    3.637683800829333E-3    4.295214327089080E-1   -1.335785480332245E-1
 8.116487250500000E9     5.061888943146952E-1    2.153385867963514E-2    5.150449208818472E-4    3.604612658502272E-3    5.726778065784843E-4    3.653397494432144E-3    4.294159945225173E-1   -1.341658679349872E-1
 8.116494968000000E9     5.063052416933512E-1    2.089923623197008E-2    5.281206864783106E-4    3.584385882221005E-3    5.620779949197474E-4    3.623336420690947E-3    4.293134148024871E-1   -1.345482749573472E-1
 8.116502685500000E9     5.062621211708566E-1    2.023561212819783E-2    5.103541927229649E-4    3.590501428421562E-3    5.949012779619279E-4    3.667868760244105E-3    4.290935145988846E-1   -1.351950231537382E-1
 8.116510403000000E9     5.062040925999663E-1    1.972408873426885E-2    5.208992420382809E-4    3.603372433452733E-3    5.965460491050591E-4    3.674713104925869E-3    4.289595261066446E-1   -1.356748936170808E-1
 8.116518120500000E9     5.062020027809417E-1    1.912282521013383E-2    5.671503837591562E-4    3.615756485009372E-3    6.142974886286157E-4    3.676985137681474E-3    4.288531670054556E-1   -1.361474062976150E-1
 8.116525838000000E9     5.062101580622806E-1    1.849703910737506E-2    5.208140864329996E-4    3.606624983809952E-3    6.115869576860155E-4    3.671154670577275E-3    4.287448261478094E-1   -1.365350006666106E-1
 8.116533555500000E9     5.062451324040499E-1    1.792403170907119E-2    5.260207045081533E-4    3.599436032740108E-3    5.875003182221376E-4    3.682083897802312E-3    4.285511621458817E-1   -1.372967232180015E-1
 8.116541273000000E9     5.062270808990831E-1    1.744024208870536E-2    5.524823391875695E-4    3.607084276887333E-3    5.728112332833112E-4    3.679575448153357E-3    4.285598937148780E-1   -1.376869329042600E-1
 8.116548990500000E9     5.062597169053766E-1    1.675072881034632E-2    5.487694584078574E-4    3.607237117048741E-3    6.235361000803709E-4    3.673362693055547E-3    4.283658200229929E-1   -1.382708581049018E-1
 8.116556708000000E9     5.062767668950683E-1    1.627713209366144E-2    5.618594913234010E-4    3.634740159761390E-3    6.410103009397472E-4    3.685042500203714E-3    4.280891146272244E-1   -1.388233167188086E-1
 8.116564425500000E9     5.062706072032490E-1    1.560730006667637E-2    5.587642647261040E-4    3.602630110196402E-3    6.225296854642151E-4    3.677116303713350E-3    4.279406649133202E-1   -1.394092128070237E-1
 8.116572143000000E9     5.063619254948101E-1    1.503617355292989E-2    5.927379311861143E-4    3.618646666430762E-3    6.296851667024517E-4    3.680663419165005E-3    4.276722221025904E-1   -1.398696999985699E-1
