#  HZ   S   RI   R     50.00 
! Rohde & Schwarz Vector Network Analyzer 
! Rohde-Schwarz,ZNB20-2Port,1311601062101988,3.16
! Created: UTC 12/23/2023, 3:38:03 AM
! freq[Hz]                re:S11                  im:S11                  re:S21                  im:S21                  re:S12                  im:S12                  re:S22                  im:S22
 6.517085455000000E9    -2.300149257653437E-1   -1.551254180485068E-2    1.340904352683242E-2   -5.579721126028100E-3    1.353755962226544E-2   -5.220452406050434E-3    2.099764036525966E-1    5.069940564806313E-1
 6.517097011950000E9    -2.298445079623587E-1   -1.531207326923450E-2    1.345330999612352E-2   -5.669240317575190E-3    1.363329115317467E-2   -5.107593963676267E-3    2.109019928737482E-1    5.065038988357101E-1
 6.517108568900000E9    -2.298187470625821E-1   -1.513734453766268E-2    1.352470286774533E-2   -5.548644699903447E-3    1.368194453666296E-2   -5.212529904251744E-3    2.116275546427701E-1    5.062054879688003E-1
 6.517120125850000E9    -2.297569098855117E-1   -1.502662722667273E-2    1.359028578241659E-2   -5.787946941063408E-3    1.371677542071681E-2   -5.372349190315072E-3    2.125190125965383E-1    5.059535964908034E-1
 6.517131682800000E9    -2.296352638152559E-1   -1.470192801524825E-2    1.364222704421282E-2   -5.716189115980330E-3    1.379613558391820E-2   -5.384292007675576E-3    2.133230833746507E-1    5.055748909251937E-1
 6.517143239750000E9    -2.294333422142144E-1   -1.469517288089408E-2    1.370036758133586E-2   -5.872837611245379E-3    1.385863341361314E-2   -5.469784775139090E-3    2.142270131252064E-1    5.050706514048019E-1
 6.517154796700000E9    -2.292665188888193E-1   -1.457207134370646E-2    1.375289489720662E-2   -5.791565380957897E-3    1.388384883678163E-2   -5.572759066485443E-3    2.149482067684311E-1    5.047806670350706E-1
 6.517166353650000E9    -2.292269573394648E-1   -1.423767565527371E-2    1.382883403474638E-2   -5.885678396858644E-3    1.398249000294085E-2   -5.458727985619240E-3    2.159943587477876E-1    5.043488966991506E-1
 6.517177910600000E9    -2.290154790155001E-1   -1.417695458575076E-2    1.387126466122432E-2   -6.052662450750406E-3    1.403883341630559E-2   -5.534700318310556E-3    2.168167975862964E-1    5.041225438984505E-1
 6.517189467550000E9    -2.288246000072571E-1   -1.396434135413673E-2    1.390662893768750E-2   -6.071373954979025E-3    1.404021921645517E-2   -5.550916963115000E-3    2.176771832262815E-1    5.038233331698281E-1
 6.517201024500000E9    -2.288728049111923E-1   -1.367461477137630E-2    1.399369895181407E-2   -6.147825833567428E-3    1.415322598694410E-2   -5.698283427235829E-3    2.183928371189909E-1    5.034718225078055E-1
 6.517212581450000E9    -2.287983945243568E-1   -1.357014852716737E-2    1.398990490836335E-2   -6.242842045281845E-3    1.421992643214021E-2   -5.802298780332915E-3    2.192777825858244E-1    5.030553259865097E-1
 6.517224138400000E9    -2.285674543096538E-1   -1.338955326100181E-2    1.413428188415854E-2   -6.260346673887185E-3    1.431962894990773E-2   -5.783500362979287E-3    2.201760848712899E-1    5.026908751946738E-1
 6.517235695350000E9    -2.284177360064099E-1   -1.328953030130494E-2    1.414848493615477E-2   -6.365161764546037E-3    1.424706198259542E-2   -5.764098329343758E-3    2.210093125051525E-1    5.024405187441024E-1
 6.517247252300000E9    -2.282846657150898E-1   -1.313475900323192E-2    1.426149013407119E-2   -6.357240154561216E-3    1.431818438664025E-2   -5.839516185220715E-3    2.218345524409878E-1    5.019519389178271E-1
 6.517258809250000E9    -2.281743035345656E-1   -1.288033592050461E-2    1.421034341202923E-2   -6.559433786469392E-3    1.447598455722799E-2   -5.901557330828394E-3    2.226436986759043E-1    5.015313776724667E-1
 6.517270366200000E9    -2.281443506052519E-1   -1.271475297050428E-2    1.427966413238237E-2   -6.585282061279067E-3    1.450685841260493E-2   -6.088387170665199E-3    2.235764362668831E-1    5.012660199403427E-1
 6.517281923150000E9    -2.279706892716296E-1   -1.261261182701823E-2    1.436840938383189E-2   -6.688403977999262E-3    1.446192753529742E-2   -6.109016605476168E-3    2.243547614796739E-1    5.007288750300688E-1
 6.517293480100000E9    -2.278512016763264E-1   -1.242329381254572E-2    1.438966834685602E-2   -6.598523330816224E-3    1.464276713982821E-2   -6.009628685179681E-3    2.252950689289388E-1    5.004792566325492E-1
 6.517305037050000E9    -2.277165648088730E-1   -1.226717654118905E-2    1.451928991286603E-2   -6.912840669003223E-3    1.463655622088926E-2   -6.195593047702891E-3    2.261667090173660E-1    5.001242637178505E-1
 6.517316594000000E9    -2.275858636671012E-1   -1.207920982835975E-2    1.469658829910593E-2   -6.702889410003108E-3    1.482093984701335E-2   -6.336383451323173E-3    2.270089212478006E-1    4.997490903835927E-1
 6.517328150950000E9    -2.274640507500110E-1   -1.197241628165731E-2    1.472588822926258E-2   -6.794533013681198E-3    1.484985121783571E-2   -6.460781021341915E-3    2.277941477160521E-1    4.993382464482358E-1
 6.517339707900000E9    -2.273297128506923E-1   -1.174358772685132E-2    1.486132352750787E-2   -6.894776548383700E-3    1.484945858068809E-2   -6.410902360827270E-3    2.286986119737383E-1    4.990674185687846E-1
 6.517351264850000E9    -2.270890477702759E-1   -1.169790499928836E-2    1.487848676757312E-2   -7.093230051755981E-3    1.499393589649029E-2   -6.368442729041915E-3    2.295079756211696E-1    4.985042855809850E-1
 6.517362821800000E9    -2.269477896960008E-1   -1.133647155842955E-2    1.491946178402670E-2   -6.951864657680058E-3    1.500876428823623E-2   -6.461610293370662E-3    2.303156975716135E-1    4.983092450733406E-1
 6.517374378750000E9    -2.268608648834024E-1   -1.125250261706859E-2    1.501239306727403E-2   -7.044202229705906E-3    1.518639044731685E-2   -6.533226682955383E-3    2.312050699748469E-1    4.979237110508448E-1
 6.517385935700000E9    -2.267735147025350E-1   -1.101284894663186E-2    1.496725036155954E-2   -7.181410083418384E-3    1.522658644708366E-2   -6.655555924003720E-3    2.321747742002143E-1    4.973984892192908E-1
 6.517397492650000E9    -2.266297718355675E-1   -1.092406069253034E-2    1.501165903454766E-2   -7.171210438998546E-3    1.522633669337111E-2   -6.633220317311971E-3    2.328291588505107E-1    4.969520005051329E-1
 6.517409049600000E9    -2.263831534557886E-1   -1.070259329415657E-2    1.511317012278465E-2   -7.480643970789765E-3    1.527823232452599E-2   -6.762705801579378E-3    2.338990650578039E-1    4.966200981497596E-1
 6.517420606550000E9    -2.262561212548201E-1   -1.060691680337211E-2    1.523240154137586E-2   -7.259459455565171E-3    1.542192015141143E-2   -6.891158025295986E-3    2.346504586474872E-1    4.963369129563718E-1
 6.517432163500000E9    -2.261788992697454E-1   -1.059206846044131E-2    1.531321136982784E-2   -7.364178074179079E-3    1.546818836429604E-2   -6.903939648658309E-3    2.355437248171564E-1    4.958938232133285E-1
 6.517443720450000E9    -2.259298422665340E-1   -1.031153274450076E-2    1.541060319597160E-2   -7.654811939734601E-3    1.552993461574811E-2   -7.063379500591834E-3    2.364226347342870E-1    4.955187749102228E-1
 6.517455277400000E9    -2.257561917423497E-1   -1.015907220286526E-2    1.545881033197733E-2   -7.441144165844303E-3    1.559670386183619E-2   -7.078787360759271E-3    2.370716702510995E-1    4.949243827277733E-1
 6.517466834350000E9    -2.257090898979513E-1   -9.899107522828559E-3    1.554432344162671E-2   -7.752075658143135E-3    1.567294076538540E-2   -7.096534815815691E-3    2.380408355646923E-1    4.947340913050813E-1
 6.517478391300000E9    -2.256412268935876E-1   -9.889482212142961E-3    1.551737139488898E-2   -7.889503843619769E-3    1.573914733451002E-2   -7.194845587841348E-3    2.388781843861401E-1    4.940776596701510E-1
 6.517489948250000E9    -2.253388948412535E-1   -9.755392328708531E-3    1.558997573328075E-2   -7.986730991556492E-3    1.583194551487305E-2   -7.190534731114554E-3    2.399046533042263E-1    4.937207324346717E-1
 6.517501505200000E9    -2.251862847464134E-1   -9.568988330334011E-3    1.568455194603644E-2   -7.899140683647421E-3    1.596186876073100E-2   -7.417678420033191E-3    2.406806369843029E-1    4.934508846698282E-1
 6.517513062150000E9    -2.250236331468640E-1   -9.390434542530447E-3    1.589452501977163E-2   -7.891297537651181E-3    1.600547761421384E-2   -7.497293469151394E-3    2.415000753708757E-1    4.930562418454777E-1
 6.517524619100000E9    -2.249467009283361E-1   -9.343338254939076E-3    1.593019728025864E-2   -7.952072421175781E-3    1.599394850520142E-2   -7.426663927765664E-3    2.424038597553001E-1    4.925986236232553E-1
 6.517536176050000E9    -2.247374193337198E-1   -9.187149367239711E-3    1.592770783285610E-2   -8.148387765527116E-3    1.610407247619010E-2   -7.743127494616356E-3    2.432163094960442E-1    4.920629429910787E-1
 6.517547733000000E9    -2.246258493125763E-1   -9.018420985392120E-3    1.610042946878481E-2   -8.305266280155838E-3    1.621783729161816E-2   -7.650799889126929E-3    2.440432310372426E-1    4.918472329917303E-1
 6.517559289950000E9    -2.245472173751504E-1   -8.776218031331242E-3    1.611644475497642E-2   -8.469945110304748E-3    1.639069809086061E-2   -7.844065633049511E-3    2.449790578017762E-1    4.913390204534451E-1
 6.517570846900000E9    -2.242597740732544E-1   -8.568873009596925E-3    1.614946585945319E-2   -8.406291700737789E-3    1.642524100006019E-2   -7.887541285515890E-3    2.457592425303974E-1    4.910433267381238E-1
 6.517582403850000E9    -2.241963064275262E-1   -8.464529314082415E-3    1.627420130161366E-2   -8.494700834374883E-3    1.645307777875624E-2   -7.916112577515878E-3    2.465251249892056E-1    4.906071084539880E-1
 6.517593960800000E9    -2.238365660117774E-1   -8.375644950399365E-3    1.643180708226093E-2   -8.463431454987819E-3    1.662700446298594E-2   -8.080263862661675E-3    2.474607572455707E-1    4.900660189482132E-1
 6.517605517750000E9    -2.238607679174526E-1   -8.240602024573801E-3    1.636848285373643E-2   -8.646996693756428E-3    1.666459517745731E-2   -8.116633280282714E-3    2.483678374293852E-1    4.896043459926882E-1
 6.517617074700000E9    -2.236814753312563E-1   -8.041361478679468E-3    1.647991560725805E-2   -8.782899115564752E-3    1.673693715354178E-2   -8.247974758584879E-3    2.491014952838686E-1    4.891801469933674E-1
 6.517628631650000E9    -2.234475587559216E-1   -7.934367721739570E-3    1.666935374663834E-2   -8.948888563754771E-3    1.681699796159992E-2   -8.272533424521750E-3    2.498352149513904E-1    4.888751338294013E-1
 6.517640188600000E9    -2.234202942128582E-1   -7.824984782518973E-3    1.668448802037910E-2   -9.002301656866728E-3    1.697420643152944E-2   -8.356646476034369E-3    2.509427279524206E-1    4.882893354278875E-1
 6.517651745550000E9    -2.231526704892700E-1   -7.755218294355364E-3    1.675139733882470E-2   -9.129910886756154E-3    1.698271087265406E-2   -8.491017440357978E-3    2.515749437608853E-1    4.879581827710632E-1
 6.517663302500000E9    -2.229162108921401E-1   -7.515391346049015E-3    1.692545394133108E-2   -9.051669846437401E-3    1.713365531818680E-2   -8.618929175602421E-3    2.525715210336107E-1    4.875264361411347E-1
 6.517674859450000E9    -2.228757727378154E-1   -7.377016046342466E-3    1.680991517016513E-2   -9.235372855222152E-3    1.718826831005853E-2   -8.642293827733618E-3    2.534395101922344E-1    4.869924960009420E-1
 6.517686416400000E9    -2.226086046220857E-1   -7.480976001326443E-3    1.698283894696839E-2   -9.366784937072379E-3    1.725600727278082E-2   -8.746127049210729E-3    2.543056205230810E-1    4.865315276888863E-1
 6.517697973350000E9    -2.225847785614929E-1   -7.386410371825016E-3    1.701204333056027E-2   -9.412572345095582E-3    1.735504486729241E-2   -8.875871881055002E-3    2.551626763784716E-1    4.861157654709743E-1
 6.517709530300000E9    -2.222662258192457E-1   -7.050368683993842E-3    1.716102152520548E-2   -9.589748011438607E-3    1.738186066405451E-2   -8.949693996542428E-3    2.559872742617206E-1    4.857283675299321E-1
 6.517721087250000E9    -2.222238476787660E-1   -7.075383550142405E-3    1.715186496200291E-2   -9.631470753791276E-3    1.754363036624692E-2   -9.095648812209495E-3    2.568258897059025E-1    4.851889615315639E-1
 6.517732644200000E9    -2.219552347647613E-1   -6.905892567801860E-3    1.733840106884994E-2   -9.685819261076376E-3    1.770979415602598E-2   -9.128233501058214E-3    2.575791322822705E-1    4.846776658916925E-1
 6.517744201150000E9    -2.218099248059918E-1   -6.806606766977043E-3    1.749315816317906E-2   -9.898106682767624E-3    1.772564364775599E-2   -9.240670481088013E-3    2.584907449245435E-1    4.842647246059078E-1
 6.517755758100000E9    -2.216051826261665E-1   -6.470143686379592E-3    1.752102610038984E-2   -9.919478849544434E-3    1.798624679535493E-2   -9.286370396732425E-3    2.594005866923560E-1    4.839701101687179E-1
 6.517767315050000E9    -2.214117231714257E-1   -6.527785702047490E-3    1.769127786743006E-2   -1.015587424150958E-2    1.796654094191457E-2   -9.422449587521442E-3    2.602450203135625E-1    4.833292408708212E-1
 6.517778872000000E9    -2.211984577976292E-1   -6.388932970345831E-3    1.772869918712593E-2   -1.016692130851491E-2    1.817032780236081E-2   -9.668157253275588E-3    2.611110327259719E-1    4.828188449979989E-1
 6.517790428950000E9    -2.210070440523485E-1   -6.259393106716847E-3    1.776097138324786E-2   -1.028940914195401E-2    1.817631074612031E-2   -9.670958769657297E-3    2.619943055193759E-1    4.823499376918036E-1
 6.517801985900000E9    -2.208103658248809E-1   -6.123392789394515E-3    1.790890815439597E-2   -1.026837290737710E-2    1.826051563889651E-2   -9.759246620645716E-3    2.627430206632598E-1    4.819812108402097E-1
 6.517813542850000E9    -2.207526321436963E-1   -6.011544986936121E-3    1.811461844584325E-2   -1.071031997677511E-2    1.844966655356232E-2   -9.927423851960280E-3    2.637274679113961E-1    4.815135986739254E-1
 6.517825099800000E9    -2.205803007431576E-1   -5.990285544567039E-3    1.817542112136245E-2   -1.063701100588992E-2    1.848277879456690E-2   -1.000103658948611E-2    2.645959420294452E-1    4.810714663067683E-1
 6.517836656750000E9    -2.203119313698118E-1   -5.874747495401946E-3    1.842461292802207E-2   -1.088928627757559E-2    1.856791371407919E-2   -1.010943462699682E-2    2.653959917707999E-1    4.805337888666514E-1
 6.517848213700000E9    -2.201948957957559E-1   -5.722005305559332E-3    1.831028222455344E-2   -1.086392149389595E-2    1.871850172976609E-2   -1.027282964796074E-2    2.662755262173500E-1    4.800729996233785E-1
 6.517859770650000E9    -2.200589479951834E-1   -5.505167124531922E-3    1.851985334819641E-2   -1.101131947180699E-2    1.882357403034072E-2   -1.034110852666055E-2    2.672152759433907E-1    4.795119844369187E-1
 6.517871327600000E9    -2.197081130378443E-1   -5.452346478670633E-3    1.852316406274136E-2   -1.102367553744487E-2    1.885339507007220E-2   -1.048649948438355E-2    2.679813070123519E-1    4.791810877165876E-1
 6.517882884550000E9    -2.195084472710687E-1   -5.441526254419324E-3    1.866211770920812E-2   -1.116697515364565E-2    1.890675618678907E-2   -1.068225431804480E-2    2.688711666645627E-1    4.786950860119306E-1
 6.517894441500000E9    -2.193012473970441E-1   -5.279519674431040E-3    1.884918585425401E-2   -1.139010153704590E-2    1.917730637896588E-2   -1.078135243834035E-2    2.697169683126542E-1    4.781177425873023E-1
 6.517905998450000E9    -2.191242442214479E-1   -5.251827703637750E-3    1.885890609339270E-2   -1.151222494405560E-2    1.930721635433034E-2   -1.093728356584131E-2    2.705782998553355E-1    4.776131984951160E-1
 6.517917555400000E9    -2.190715950207786E-1   -5.112816689103091E-3    1.905312614122811E-2   -1.162679661730170E-2    1.930602622537316E-2   -1.099174183994837E-2    2.714977570507124E-1    4.771024319168372E-1
 6.517929112350000E9    -2.185903202373171E-1   -5.076177648277041E-3    1.916964395078472E-2   -1.187539742620656E-2    1.945357861668015E-2   -1.119501109105030E-2    2.723452141364084E-1    4.765014293676811E-1
 6.517940669300000E9    -2.184898717458100E-1   -4.995221446758825E-3    1.921306916125280E-2   -1.186586432453081E-2    1.962148620300305E-2   -1.119971740389850E-2    2.731830390470102E-1    4.760732280315185E-1
 6.517952226250000E9    -2.182132341301952E-1   -4.822767176912678E-3    1.935388614627573E-2   -1.205629637629534E-2    1.982024350891871E-2   -1.143451322567247E-2    2.739924976141110E-1    4.756548756966896E-1
 6.517963783200000E9    -2.180099080626019E-1   -4.744289342248179E-3    1.956395725295650E-2   -1.220634475284198E-2    1.988635009892818E-2   -1.147441849048574E-2    2.748473834296944E-1    4.750362711755686E-1
 6.517975340150000E9    -2.178501213450474E-1   -4.710382919399221E-3    1.966259144076033E-2   -1.244917461073026E-2    1.997022757926798E-2   -1.172357389014862E-2    2.757151643427676E-1    4.744922033132085E-1
 6.517986897100000E9    -2.176048389958022E-1   -4.574696648043918E-3    1.977823933605443E-2   -1.251687563266601E-2    2.011875354861957E-2   -1.185932044218580E-2    2.765680932942299E-1    4.739450044986987E-1
 6.517998454050000E9    -2.173591367050533E-1   -4.603105361042591E-3    1.978059559278447E-2   -1.268045841652469E-2    2.023424874097922E-2   -1.198654726493274E-2    2.774364844401556E-1    4.733419491438271E-1
 6.518010011000000E9    -2.171476398593836E-1   -4.571452814020249E-3    1.994866360367445E-2   -1.294769813698455E-2    2.039619864205775E-2   -1.233735119714183E-2    2.783556113649884E-1    4.729308779421931E-1
 6.518021567950000E9    -2.169165502881434E-1   -4.402274703392193E-3    2.009965522698378E-2   -1.295868288580551E-2    2.051563857110773E-2   -1.232972208527170E-2    2.792373421815970E-1    4.723773916141305E-1
 6.518033124900000E9    -2.167072401523093E-1   -4.454323921194442E-3    2.014890621464583E-2   -1.308794188794216E-2    2.062722618106413E-2   -1.249656020425816E-2    2.799720018269137E-1    4.718875895312836E-1
 6.518044681850000E9    -2.165212879664191E-1   -4.371436236655419E-3    2.049236810305976E-2   -1.326300084365929E-2    2.073547246326798E-2   -1.252484119738454E-2    2.809524954472144E-1    4.712442149185688E-1
 6.518056238800000E9    -2.163035459161903E-1   -4.261191367451551E-3    2.037911493964506E-2   -1.337397555906310E-2    2.083559421488988E-2   -1.274723360084418E-2    2.818272791771380E-1    4.707680284308312E-1
 6.518067795750000E9    -2.161794780954498E-1   -4.281322491808084E-3    2.052755746986936E-2   -1.356333787916275E-2    2.103247430481873E-2   -1.299403837752432E-2    2.826780419685667E-1    4.701663367753584E-1
 6.518079352700000E9    -2.157153101931465E-1   -4.095999620322522E-3    2.077577803881106E-2   -1.384487996467920E-2    2.126396610308953E-2   -1.316544917364786E-2    2.833271821531835E-1    4.697128492309897E-1
 6.518090909650000E9    -2.154725833539987E-1   -4.112249491772348E-3    2.090330576688108E-2   -1.406971960408196E-2    2.126044116855427E-2   -1.332967068646913E-2    2.843306034109108E-1    4.691439452914229E-1
 6.518102466600000E9    -2.152993663843966E-1   -4.159816515154782E-3    2.098629835475073E-2   -1.404494499825724E-2    2.153282076323338E-2   -1.343178095759468E-2    2.851350277009814E-1    4.683934369424943E-1
 6.518114023550000E9    -2.150099156457588E-1   -3.986706947515875E-3    2.115739828412157E-2   -1.442479146414851E-2    2.157718643410600E-2   -1.363238765778626E-2    2.862075573079649E-1    4.677327527968347E-1
 6.518125580500000E9    -2.148476264157213E-1   -4.078841692819010E-3    2.125218794603019E-2   -1.445304266072360E-2    2.177322897406449E-2   -1.383262837534764E-2    2.869769167840096E-1    4.673302883014808E-1
