#  HZ   S   RI   R     50.00 
! Rohde & Schwarz Vector Network Analyzer 
! Rohde-Schwarz,ZNB20-2Port,1311601062101988,3.16
! Created: UTC 3/20/2024, 11:52:14 AM
! freq[Hz]                re:S11                  im:S11                  re:S21                  im:S21                  re:S12                  im:S12                  re:S22                  im:S22
 8.115957741000000E9     5.038374806278814E-1    6.132885377861286E-2    2.105269784523211E-4    3.473735024681443E-3    2.853505451568312E-4    3.539249722458903E-3    4.376584428085685E-1   -9.830277786598413E-2
 8.115965116900000E9     5.037603142343736E-1    6.074588611446212E-2    2.126298145407720E-4    3.469536273106430E-3    2.560169137928777E-4    3.547248409233609E-3    4.376057551178270E-1   -9.886020567196904E-2
 8.115972492800000E9     5.037055681897432E-1    6.009024101840223E-2    2.190001928919993E-4    3.477692607911178E-3    2.964778758971539E-4    3.522870917912248E-3    4.373363027271226E-1   -9.942252353092107E-2
 8.115979868700000E9     5.039327598227905E-1    5.958274115581859E-2    1.962510304015902E-4    3.477899539446705E-3    2.841064010864524E-4    3.549133418263790E-3    4.374242985380604E-1   -9.986746339895168E-2
 8.115987244600000E9     5.039717366636219E-1    5.909985018858963E-2    2.162948457888885E-4    3.472471899775417E-3    2.586221474224976E-4    3.576639799181049E-3    4.372525485930355E-1   -1.003087357432297E-1
 8.115994620500000E9     5.039744718803650E-1    5.848501204022495E-2    2.238454099040076E-4    3.485587596792476E-3    2.907417155261870E-4    3.525868875032184E-3    4.370720105052416E-1   -1.008711390331910E-1
 8.116001996400000E9     5.039356412062715E-1    5.786745001022836E-2    2.493962728556272E-4    3.478690963387601E-3    2.720456442123726E-4    3.572887217112009E-3    4.369435873151729E-1   -1.012863077774881E-1
 8.116009372300000E9     5.041573978117264E-1    5.737637840190398E-2    2.062873877115944E-4    3.502023051434753E-3    3.039152462816076E-4    3.521981614605423E-3    4.369216975311987E-1   -1.019015834573592E-1
 8.116016748200000E9     5.041170967041958E-1    5.692318738893245E-2    2.214852638293309E-4    3.486285684660751E-3    3.036659906345346E-4    3.541540424146080E-3    4.368381232775286E-1   -1.022525828284952E-1
 8.116024124100000E9     5.042865202233066E-1    5.630471886111294E-2    2.304195348609931E-4    3.493083644192937E-3    3.187175159390284E-4    3.525666536687862E-3    4.366635727298884E-1   -1.027766605330456E-1
 8.116031500000000E9     5.042703322751521E-1    5.573579918245498E-2    2.259409969564155E-4    3.493690492353839E-3    2.687613452011526E-4    3.539442351003746E-3    4.366147446948441E-1   -1.031746484870783E-1
 8.116038875900000E9     5.042399566063951E-1    5.523200192567714E-2    2.502803365740086E-4    3.497768989202499E-3    3.249085047971635E-4    3.573931824879119E-3    4.365506312596414E-1   -1.038494004545763E-1
 8.116046251800000E9     5.044393988868020E-1    5.457477293205733E-2    2.304846655105843E-4    3.500589627283325E-3    3.106496454741778E-4    3.521252011416459E-3    4.364236839332328E-1   -1.042871806002786E-1
 8.116053627700000E9     5.044202524703103E-1    5.410143806161522E-2    2.587831295894853E-4    3.506085095904586E-3    3.098094929844663E-4    3.580329483434504E-3    4.363024162663117E-1   -1.048306878521855E-1
 8.116061003600000E9     5.044448780379012E-1    5.345082575869815E-2    2.716500961761999E-4    3.506766008401405E-3    3.241684896915022E-4    3.544888871929292E-3    4.362344983118645E-1   -1.052955826725325E-1
 8.116068379500000E9     5.045174281654018E-1    5.295801789510451E-2    2.775068023028030E-4    3.515401504247409E-3    3.235496227539941E-4    3.559582399908035E-3    4.362606740281095E-1   -1.057149722143282E-1
 8.116075755400000E9     5.045395811741640E-1    5.239529731851227E-2    2.805198444272456E-4    3.521188471806817E-3    3.268900944930772E-4    3.553192344407511E-3    4.360519049651187E-1   -1.062764889352807E-1
 8.116083131300000E9     5.045443748244632E-1    5.179096757824195E-2    2.890505342424482E-4    3.518158048464073E-3    3.447853949886141E-4    3.534618491286341E-3    4.357940899774519E-1   -1.068664487395577E-1
 8.116090507200000E9     5.046401189222749E-1    5.129893452649013E-2    2.816886267568710E-4    3.491024594820490E-3    3.782042896905895E-4    3.555928164669742E-3    4.358911938503878E-1   -1.073125071980865E-1
 8.116097883100000E9     5.047418256666230E-1    5.075946697038246E-2    2.833000274293657E-4    3.492203067637771E-3    3.386898719408418E-4    3.576110653342479E-3    4.356289856553023E-1   -1.077849653848824E-1
 8.116105259000000E9     5.046793355315597E-1    5.020718894650589E-2    2.852352690669453E-4    3.515214815991741E-3    3.455398842985335E-4    3.544196941500024E-3    4.355556641884883E-1   -1.084507948870561E-1
 8.116112634900000E9     5.046337141321637E-1    4.964709440016141E-2    3.013724561789510E-4    3.522586435851915E-3    3.183744673113069E-4    3.543535352564694E-3    4.356477796675288E-1   -1.088772348197417E-1
 8.116120010800000E9     5.047629972017030E-1    4.902159313166303E-2    2.942288900507781E-4    3.510128429099754E-3    3.768462405986845E-4    3.574770222834868E-3    4.353906224457958E-1   -1.093560161624393E-1
 8.116127386700000E9     5.048340011988670E-1    4.840833453482007E-2    3.138661347063288E-4    3.517015560198464E-3    3.768431562370117E-4    3.583315962698061E-3    4.353457688014403E-1   -1.099277665544990E-1
 8.116134762600000E9     5.049001805133168E-1    4.801505529591450E-2    2.994346518723033E-4    3.518152371961617E-3    3.950046011357659E-4    3.573279988987430E-3    4.353861934045841E-1   -1.102713942809623E-1
 8.116142138500000E9     5.050476648716068E-1    4.746492050113887E-2    3.132061436507057E-4    3.502918461408931E-3    3.989595424824040E-4    3.577205517469310E-3    4.352269623414050E-1   -1.107155953702383E-1
 8.116149514400000E9     5.049644654265784E-1    4.695405780635493E-2    3.050352033283636E-4    3.521929964938571E-3    3.737845578538197E-4    3.538991408117260E-3    4.349288676656932E-1   -1.113962521044724E-1
 8.116156890300000E9     5.049756432176118E-1    4.640655707120467E-2    3.040630738041151E-4    3.499338613314706E-3    3.540271719519040E-4    3.549553008048603E-3    4.348762807399781E-1   -1.117336266470502E-1
 8.116164266200000E9     5.051100989438266E-1    4.589486202853811E-2    3.158071415605515E-4    3.522559444179951E-3    3.870943227057000E-4    3.576762152351105E-3    4.347409087107240E-1   -1.123932315527164E-1
 8.116171642100000E9     5.050534805702409E-1    4.530771694054734E-2    3.608154950396384E-4    3.514976653198837E-3    3.810525219368237E-4    3.610371970325592E-3    4.346660024824445E-1   -1.128564580606765E-1
 8.116179018000000E9     5.051777239719325E-1    4.473121414660156E-2    3.372276212433711E-4    3.521623821334730E-3    3.798315381241920E-4    3.573284553058366E-3    4.347012285488835E-1   -1.133966632359650E-1
 8.116186393900000E9     5.052265504600175E-1    4.408804617039171E-2    3.227774061033258E-4    3.512860184487958E-3    4.041086624832391E-4    3.565728766359494E-3    4.344571642094763E-1   -1.139275163295579E-1
 8.116193769800000E9     5.052588104979474E-1    4.365137019355902E-2    3.448589463235202E-4    3.514559534566428E-3    3.768885998293337E-4    3.608762126211652E-3    4.343356706481349E-1   -1.142783127331080E-1
 8.116201145700000E9     5.051669553322544E-1    4.305994882634005E-2    3.546595674200209E-4    3.500715505608354E-3    4.315257897778417E-4    3.613683396570864E-3    4.342571101099595E-1   -1.148515880437111E-1
 8.116208521600000E9     5.052659422743196E-1    4.251265254158414E-2    3.572307380694773E-4    3.506712653596952E-3    3.886649177169378E-4    3.557604660635716E-3    4.340699393883178E-1   -1.153958118182101E-1
 8.116215897500000E9     5.053712179813704E-1    4.189684935234753E-2    3.777849442480782E-4    3.528853344416793E-3    3.965614285282257E-4    3.571125854674173E-3    4.340795108381888E-1   -1.159137379064652E-1
 8.116223273400000E9     5.053595311032270E-1    4.148156221471674E-2    3.525864026059000E-4    3.516464882062185E-3    3.742473968041747E-4    3.586567756802096E-3    4.338842894221692E-1   -1.163634893423980E-1
 8.116230649300000E9     5.054937348138913E-1    4.084401968769892E-2    3.499836386450675E-4    3.537892153076407E-3    4.223571765748542E-4    3.564231258207730E-3    4.336580412678441E-1   -1.169094312956498E-1
 8.116238025200000E9     5.054564016173948E-1    4.021722938351704E-2    3.743668091972939E-4    3.538554648219126E-3    4.258159110282381E-4    3.564458017968941E-3    4.336433518881845E-1   -1.174057873402455E-1
 8.116245401100000E9     5.055586805387524E-1    3.965655661881735E-2    3.714876436719769E-4    3.533044754610944E-3    4.191208485115348E-4    3.626091483102599E-3    4.335757780322653E-1   -1.177506708317114E-1
 8.116252777000000E9     5.055393679830444E-1    3.923467383992820E-2    3.613936757363931E-4    3.523746194348666E-3    4.416473058542686E-4    3.583949859439541E-3    4.333836257543060E-1   -1.182998361797892E-1
 8.116260152900000E9     5.055186558787955E-1    3.865281260275883E-2    3.767892393762718E-4    3.541714480059336E-3    4.379144554027461E-4    3.568411094892668E-3    4.331966421936023E-1   -1.189537092285649E-1
 8.116267528800000E9     5.055685337759368E-1    3.805250509726720E-2    3.760830159936078E-4    3.545590621372315E-3    4.456836639994295E-4    3.604866369671834E-3    4.332619635229983E-1   -1.193584148136010E-1
 8.116274904700000E9     5.055676706212388E-1    3.736131182618183E-2    3.910216814492298E-4    3.513018046175181E-3    4.389261709975322E-4    3.588504814270363E-3    4.330678976570520E-1   -1.199291397716886E-1
 8.116282280600000E9     5.055767517999215E-1    3.694765246326329E-2    3.912878887802255E-4    3.553974630148198E-3    4.327215367147344E-4    3.577130684511268E-3    4.331288635515873E-1   -1.203127658806690E-1
 8.116289656500000E9     5.057085579973953E-1    3.635342626459036E-2    3.997975032926677E-4    3.516278189531870E-3    4.643559446945393E-4    3.623101785203508E-3    4.327804802358547E-1   -1.208532513779280E-1
 8.116297032400000E9     5.056921975917146E-1    3.587328318268554E-2    3.949162231340894E-4    3.555658536598790E-3    4.546773671829610E-4    3.579671275321588E-3    4.325702140281508E-1   -1.213428083599406E-1
 8.116304408300000E9     5.058447070838399E-1    3.525950872830821E-2    4.300272530532246E-4    3.528262585792247E-3    4.217674796894757E-4    3.618658359880521E-3    4.325640717935303E-1   -1.220029635409114E-1
 8.116311784200000E9     5.057314126413744E-1    3.476867676357093E-2    4.177383729291887E-4    3.536681431442306E-3    4.533917824421163E-4    3.604564445626678E-3    4.324493405214290E-1   -1.222638655237735E-1
 8.116319160100000E9     5.057735752541950E-1    3.422475675847196E-2    4.184620942908134E-4    3.557619810933662E-3    5.192125821776484E-4    3.577279811641153E-3    4.323824197202976E-1   -1.229085933322494E-1
 8.116326536000000E9     5.058749070618341E-1    3.363762117163969E-2    4.102728703923014E-4    3.545290201597317E-3    4.528216137253097E-4    3.595902741887126E-3    4.321248057688505E-1   -1.233188151568099E-1
 8.116333911900000E9     5.058965540696106E-1    3.303901567382683E-2    3.992726064218683E-4    3.526420363632356E-3    4.983788312021500E-4    3.614129740159260E-3    4.321446422560678E-1   -1.237036608025574E-1
 8.116341287800000E9     5.057670394295986E-1    3.248758682806911E-2    4.391255683499283E-4    3.548843025186449E-3    4.717018129043523E-4    3.605609515821102E-3    4.320449579818755E-1   -1.243331815938863E-1
 8.116348663700000E9     5.058335069086773E-1    3.194945881019844E-2    4.463792926338896E-4    3.539088318219716E-3    4.642576467000397E-4    3.607186950845406E-3    4.319134106019307E-1   -1.247488781682225E-1
 8.116356039600000E9     5.058297570813631E-1    3.137149165741639E-2    4.106741502582075E-4    3.540822450471210E-3    4.742710591319676E-4    3.635283649297825E-3    4.317987329734926E-1   -1.253172839021461E-1
 8.116363415500000E9     5.060237155999419E-1    3.088149507779847E-2    4.619213885927266E-4    3.555309193297005E-3    5.091506239310780E-4    3.615956955587420E-3    4.315787190300183E-1   -1.256337239887668E-1
 8.116370791400000E9     5.060154972436419E-1    3.028747786728906E-2    4.578641248579304E-4    3.555663722149046E-3    4.874702447475301E-4    3.594668009395870E-3    4.315517192495972E-1   -1.263089262051766E-1
 8.116378167300000E9     5.059548827547694E-1    2.981438509434789E-2    4.663646741235394E-4    3.573752359283833E-3    4.763827011211254E-4    3.589323900469170E-3    4.313085037736658E-1   -1.267382874645552E-1
 8.116385543200000E9     5.059756601128848E-1    2.923948684091331E-2    4.557604397487405E-4    3.543776296830148E-3    5.028682164590475E-4    3.627482962732694E-3    4.312432106045608E-1   -1.272613460954869E-1
 8.116392919100000E9     5.059473379394835E-1    2.873692991855884E-2    4.613711879147863E-4    3.530819222144093E-3    5.045762443003303E-4    3.637082016473273E-3    4.311250842643091E-1   -1.278737261097958E-1
 8.116400295000000E9     5.061490033092529E-1    2.816742514033668E-2    4.603875489395412E-4    3.602313074604300E-3    5.165340244565453E-4    3.620679935016189E-3    4.310325734337194E-1   -1.283283153794947E-1
 8.116407670900000E9     5.060555240554335E-1    2.758860955613445E-2    4.500764185921333E-4    3.552074784225950E-3    5.320890018300056E-4    3.592786998878755E-3    4.309052275647744E-1   -1.287032621597300E-1
 8.116415046800000E9     5.060552147193988E-1    2.704987540339050E-2    4.458200477401517E-4    3.611397481200893E-3    5.627799627327126E-4    3.636965208851302E-3    4.306692254337713E-1   -1.292961470010640E-1
 8.116422422700000E9     5.061294644429187E-1    2.646210625788598E-2    4.657767300597479E-4    3.573691466237799E-3    5.363738912844334E-4    3.629797813721788E-3    4.305297813720023E-1   -1.298099751077342E-1
 8.116429798600000E9     5.061894031956333E-1    2.582181559563728E-2    4.721163019159293E-4    3.567236074346912E-3    5.617265690256425E-4    3.628756066791228E-3    4.305705145759509E-1   -1.303577558977510E-1
 8.116437174500000E9     5.061799052911305E-1    2.527555885065591E-2    5.021214990552314E-4    3.576348316595819E-3    5.413837882178238E-4    3.649251797377891E-3    4.302838758763834E-1   -1.308204744009824E-1
 8.116444550400000E9     5.060629364549165E-1    2.481665430733285E-2    5.175184860380502E-4    3.574750798265297E-3    5.303555220399812E-4    3.646275573968495E-3    4.301976115549600E-1   -1.313289754649613E-1
 8.116451926300000E9     5.061587687693733E-1    2.429513374571723E-2    4.986940396089979E-4    3.573942264121984E-3    5.552497770501674E-4    3.631996735268626E-3    4.300362582547217E-1   -1.318154300168088E-1
 8.116459302200000E9     5.060993518245109E-1    2.362489580694217E-2    5.149158332723406E-4    3.567984143141723E-3    5.576851842988336E-4    3.625558167988888E-3    4.297883974253570E-1   -1.322818201364902E-1
 8.116466678100000E9     5.062104160119136E-1    2.302611910186102E-2    5.337822475394268E-4    3.569118724938511E-3    5.885626011278716E-4    3.638257363679831E-3    4.297563648282585E-1   -1.327039825657559E-1
 8.116474054000000E9     5.063298362980343E-1    2.249182923151302E-2    5.413245978224947E-4    3.591491703019279E-3    5.817338330699860E-4    3.658140733328740E-3    4.297226309406011E-1   -1.332304307039987E-1
 8.116481429900000E9     5.063229880521966E-1    2.206198797690101E-2    5.173359462536754E-4    3.584455057862163E-3    5.728818105127293E-4    3.654687015890987E-3    4.296283431888407E-1   -1.337638722920921E-1
 8.116488805800000E9     5.062461600138115E-1    2.141981760928803E-2    5.150534281423956E-4    3.593670694340537E-3    6.034757131638909E-4    3.612990108358964E-3    4.294995519459184E-1   -1.342414934676983E-1
 8.116496181700000E9     5.063424214959007E-1    2.079044254505307E-2    4.820899767822928E-4    3.611531390698720E-3    5.973989650150728E-4    3.638251231832892E-3    4.292167461366219E-1   -1.346669110869622E-1
 8.116503557600000E9     5.062896879116713E-1    2.028093598613446E-2    5.534355750989266E-4    3.594929447672815E-3    6.267644980571504E-4    3.634282420554366E-3    4.291903992181070E-1   -1.351492541999396E-1
 8.116510933500000E9     5.062047465518457E-1    1.975462294378208E-2    5.276734809722552E-4    3.614152759127357E-3    5.810907577573721E-4    3.658220807429756E-3    4.290391822790267E-1   -1.356149274626469E-1
 8.116518309400000E9     5.063033366386811E-1    1.920130726808277E-2    5.480729010581899E-4    3.603412207625395E-3    5.774418371177914E-4    3.639722931414187E-3    4.287639258454981E-1   -1.361635139496433E-1
 8.116525685300000E9     5.063114856543545E-1    1.865765427650877E-2    5.485512477738121E-4    3.586841910407104E-3    6.324860313482034E-4    3.691059024077409E-3    4.288173200989598E-1   -1.366525362706589E-1
 8.116533061200000E9     5.062703300217941E-1    1.807873055891217E-2    5.347427790768226E-4    3.592881719327800E-3    6.102128826052893E-4    3.652077107433714E-3    4.286692425374845E-1   -1.372382154741803E-1
 8.116540437100000E9     5.063009427421125E-1    1.762997033261544E-2    5.529478681708462E-4    3.632416590570247E-3    6.517549746255384E-4    3.656287427544504E-3    4.284301097757689E-1   -1.377032579593648E-1
 8.116547813000000E9     5.062376131670920E-1    1.696720331789137E-2    5.626892493389979E-4    3.610263430528955E-3    6.048914480434789E-4    3.701042805498741E-3    4.282571160550744E-1   -1.381383846842471E-1
 8.116555188900000E9     5.063274293825515E-1    1.642852270672356E-2    5.677896633790047E-4    3.606883682621440E-3    6.329368016040306E-4    3.677681760216057E-3    4.282273213303472E-1   -1.386349452678229E-1
 8.116562564800000E9     5.063272471535141E-1    1.586239093433861E-2    5.771265108727197E-4    3.623287964305284E-3    6.285887006278505E-4    3.665948018667654E-3    4.280372026870441E-1   -1.390604375179378E-1
 8.116569940700000E9     5.063596599150502E-1    1.521364265046849E-2    5.847445225061736E-4    3.618781900979377E-3    6.245349120246659E-4    3.682163068606291E-3    4.279325176011172E-1   -1.396390141425136E-1
 8.116577316600000E9     5.063931719216062E-1    1.475158398646025E-2    5.862797419671838E-4    3.607266028573605E-3    6.318759589502416E-4    3.707602531922179E-3    4.277701780631554E-1   -1.401855276493324E-1
 8.116584692500000E9     5.063558504284932E-1    1.413498278532055E-2    5.845408067488949E-4    3.631986073304195E-3    6.398535773302415E-4    3.670268570584262E-3    4.276599951444965E-1   -1.406000156959452E-1
 8.116592068400000E9     5.063990818050765E-1    1.352595781100320E-2    6.123743002531169E-4    3.645176202522007E-3    6.388148502068905E-4    3.689519025246876E-3    4.274983062875388E-1   -1.411567250528168E-1
 8.116599444300000E9     5.064096485060784E-1    1.298632993883178E-2    6.010630378663743E-4    3.603615826714203E-3    6.316656060401096E-4    3.710688177207390E-3    4.273181176607549E-1   -1.415070528498775E-1
 8.116606820200000E9     5.063086389380381E-1    1.241192370699699E-2    5.931193185441120E-4    3.603904068669080E-3    6.642148908290773E-4    3.699247760707887E-3    4.272119970005475E-1   -1.421758502314488E-1
 8.116614196100000E9     5.063378747902055E-1    1.181721457799051E-2    6.111227385308265E-4    3.619542774148456E-3    6.958528022955845E-4    3.704184094408496E-3    4.271136024626633E-1   -1.425676047802175E-1
 8.116621572000000E9     5.063287198499764E-1    1.140179761795644E-2    6.249265097771842E-4    3.629469567841301E-3    6.335572738026192E-4    3.707670775015647E-3    4.268363317006189E-1   -1.432408856376232E-1
