#  HZ   S   RI   R     50.00 
! Rohde & Schwarz Vector Network Analyzer 
! Rohde-Schwarz,ZNB20-2Port,1311601062101988,3.16
! Created: UTC 3/20/2024, 11:52:42 AM
! freq[Hz]                re:S11                  im:S11                  re:S21                  im:S21                  re:S12                  im:S12                  re:S22                  im:S22
 8.116019848000000E9     5.040211959548084E-1    5.675474370289620E-2    2.598103406135217E-4    3.523577399331310E-3    3.203041847033355E-4    3.531164106425482E-3    4.370317876832368E-1   -1.024866824198534E-1
 8.116026966725000E9     5.041771294600497E-1    5.621291962083626E-2    2.543202299883518E-4    3.481788275907295E-3    2.912391439523768E-4    3.513140915902452E-3    4.365997411267872E-1   -1.029607771074234E-1
 8.116034085450000E9     5.041862875736242E-1    5.559946188410050E-2    2.422419494911802E-4    3.482111678311433E-3    3.260937758316112E-4    3.552996687396791E-3    4.365794533191227E-1   -1.035091279933248E-1
 8.116041204175000E9     5.043154391568508E-1    5.509613257442324E-2    2.599656968260547E-4    3.503470677798236E-3    3.220558690292169E-4    3.555579389715645E-3    4.364602153888001E-1   -1.039172952741183E-1
 8.116048322900000E9     5.043461175026300E-1    5.459503735552202E-2    2.784840872475875E-4    3.510947998754826E-3    2.976639941847166E-4    3.546482394260840E-3    4.364608632628249E-1   -1.044173994251546E-1
 8.116055441625000E9     5.044050507325419E-1    5.397802219356754E-2    2.568514249645068E-4    3.487993914183315E-3    3.247834621821628E-4    3.571658673044308E-3    4.364102646183249E-1   -1.050157316642892E-1
 8.116062560350000E9     5.046248740064398E-1    5.360434954521377E-2    2.497620477488876E-4    3.486110398016544E-3    3.124051622100406E-4    3.569020670041325E-3    4.362232850508935E-1   -1.054179088478065E-1
 8.116069679075000E9     5.044952478550140E-1    5.294819376311270E-2    2.808277000635379E-4    3.498764095409874E-3    3.377660745859185E-4    3.553489922565741E-3    4.361464408528430E-1   -1.059087786181079E-1
 8.116076797800000E9     5.045720767730406E-1    5.246081763958561E-2    2.847136513826413E-4    3.486873278471716E-3    3.099141106811637E-4    3.577412125390649E-3    4.359907654234878E-1   -1.064100662155634E-1
 8.116083916525000E9     5.045356891142391E-1    5.197016650061229E-2    2.950053099737142E-4    3.513637783697516E-3    3.082700559172401E-4    3.548107866375669E-3    4.359911565246919E-1   -1.068615846036242E-1
 8.116091035250000E9     5.047175498764753E-1    5.133344849384285E-2    2.681896223534723E-4    3.485030598895609E-3    3.316475495265362E-4    3.552540019564327E-3    4.358235687358519E-1   -1.073036578302869E-1
 8.116098153975000E9     5.046804028266941E-1    5.080920600774810E-2    2.898771517487872E-4    3.505916449834835E-3    3.301323066850420E-4    3.546296586446880E-3    4.358530129860909E-1   -1.078698013177425E-1
 8.116105272700000E9     5.047642298994707E-1    5.030155479007933E-2    2.948627504080221E-4    3.532757173039356E-3    3.466407434039765E-4    3.561480529407655E-3    4.356471842709175E-1   -1.084501335228991E-1
 8.116112391425000E9     5.047681732360779E-1    4.969723483888335E-2    2.904398575429471E-4    3.507548508540954E-3    3.250192993121760E-4    3.579459950922547E-3    4.354877179838819E-1   -1.088003133796234E-1
 8.116119510150000E9     5.047755524730277E-1    4.925281441186507E-2    2.689911128477917E-4    3.492648654434618E-3    3.512948745323972E-4    3.552730068346294E-3    4.354446013277082E-1   -1.092870378462956E-1
 8.116126628875000E9     5.048017509707706E-1    4.873703822090256E-2    3.084571575461413E-4    3.511692372278627E-3    3.454949461913227E-4    3.556798792932947E-3    4.352896379502479E-1   -1.098243768253477E-1
 8.116133747600000E9     5.049746297528432E-1    4.813042215743742E-2    2.999626464774835E-4    3.489398235076825E-3    3.537712719194474E-4    3.549748202026741E-3    4.351672225130448E-1   -1.103236145167203E-1
 8.116140866325000E9     5.049044632556037E-1    4.763257403208608E-2    3.029824988795152E-4    3.498991758476485E-3    3.381524348851565E-4    3.546340963018160E-3    4.352736214157821E-1   -1.107510679690106E-1
 8.116147985050000E9     5.050243777027780E-1    4.707260710258716E-2    3.088882122801969E-4    3.493234499664351E-3    3.711135165745404E-4    3.560721576702679E-3    4.351234592535627E-1   -1.111802994208933E-1
 8.116155103775000E9     5.050050473623516E-1    4.655089847809302E-2    3.031066864279536E-4    3.508602007531602E-3    3.770500277701422E-4    3.552030913516144E-3    4.349946908767771E-1   -1.117740405899499E-1
 8.116162222500000E9     5.049897910839170E-1    4.608281716695545E-2    3.268498665123640E-4    3.507289535684109E-3    3.597786665659180E-4    3.539910550378039E-3    4.348133605381317E-1   -1.122062243723881E-1
 8.116169341225000E9     5.051994401456450E-1    4.548433302063162E-2    3.133144013223637E-4    3.522094253109908E-3    3.486134670137026E-4    3.589703585371247E-3    4.348059658007906E-1   -1.126089330520852E-1
 8.116176459950000E9     5.051117545950732E-1    4.499696304224958E-2    3.267565903377466E-4    3.523838184318112E-3    3.789836161448799E-4    3.535683402143320E-3    4.346260223551967E-1   -1.132461580362253E-1
 8.116183578675000E9     5.051484046647893E-1    4.453989075556235E-2    3.309139058693797E-4    3.537012116677742E-3    3.853772213564400E-4    3.560911417453515E-3    4.344987699168137E-1   -1.135616459629954E-1
 8.116190697400000E9     5.051836737133927E-1    4.382921681039637E-2    3.496465198892916E-4    3.502589319380282E-3    4.279535478299107E-4    3.548271813631975E-3    4.345253979820957E-1   -1.142739270761248E-1
 8.116197816125000E9     5.051776770534628E-1    4.340112624059995E-2    3.513076860091117E-4    3.523437755270348E-3    4.250778642935868E-4    3.581159606283736E-3    4.343344479967840E-1   -1.146561019061477E-1
 8.116204934850000E9     5.053652579931474E-1    4.284486054412173E-2    3.614581418165518E-4    3.531925709402740E-3    3.756411278370250E-4    3.605601871574123E-3    4.341832282055615E-1   -1.151976962076230E-1
 8.116212053575000E9     5.052523611332786E-1    4.231824786446187E-2    3.545718479227008E-4    3.486069051884850E-3    4.007288627790487E-4    3.607928447472820E-3    4.341283505785710E-1   -1.155103176727081E-1
 8.116219172300000E9     5.054540000195736E-1    4.167286362912245E-2    3.544834581797289E-4    3.515401710926266E-3    4.303072460836120E-4    3.565210275906784E-3    4.338854096676758E-1   -1.160227960660483E-1
 8.116226291025000E9     5.052421537733425E-1    4.116397900487398E-2    3.458175777698328E-4    3.524063615882820E-3    4.231305974596145E-4    3.587972869343574E-3    4.338474492017635E-1   -1.166410405637282E-1
 8.116233409750000E9     5.053672502162521E-1    4.064616433878017E-2    3.586581303071645E-4    3.532790034233947E-3    3.932623602942234E-4    3.541238337310809E-3    4.338334396279404E-1   -1.169768129318526E-1
 8.116240528475000E9     5.054447707646945E-1    4.009713560370612E-2    3.917919374742149E-4    3.525558029422171E-3    4.283356566585011E-4    3.596774946161992E-3    4.337322574532406E-1   -1.173774133434082E-1
 8.116247647200000E9     5.055678802217428E-1    3.965898831259643E-2    3.711598865750405E-4    3.526189843990955E-3    4.212425341115050E-4    3.597421440420746E-3    4.336427198920792E-1   -1.179861742577563E-1
 8.116254765925000E9     5.055242940992301E-1    3.915134994804070E-2    3.834276211283114E-4    3.494541952965674E-3    4.240438272169777E-4    3.593099071342193E-3    4.334484022280419E-1   -1.184917100955694E-1
 8.116261884650000E9     5.056353587258287E-1    3.863089476499577E-2    3.843223943455319E-4    3.550619209257250E-3    4.247658332983713E-4    3.597876840029826E-3    4.332782651378023E-1   -1.188882501603614E-1
 8.116269003375000E9     5.055420748159414E-1    3.805531868057925E-2    4.092840386702378E-4    3.522365154744192E-3    4.460884403649388E-4    3.597408392315658E-3    4.333352849946994E-1   -1.195079701838898E-1
 8.116276122100000E9     5.057027790420633E-1    3.744956297629982E-2    3.754398572814222E-4    3.532064038475268E-3    4.831259408622088E-4    3.598056228393095E-3    4.330761393215010E-1   -1.198813275770028E-1
 8.116283240825000E9     5.055570244146526E-1    3.699280823944939E-2    3.802483940064759E-4    3.543424424541564E-3    4.402414945415885E-4    3.597884120837089E-3    4.329241189829339E-1   -1.204530852421740E-1
 8.116290359550000E9     5.055772322111997E-1    3.635310334870584E-2    3.698190966674764E-4    3.526668035519227E-3    4.362672345849583E-4    3.545767417176746E-3    4.328668513106658E-1   -1.207452779797034E-1
 8.116297478275000E9     5.056823883105668E-1    3.591793081765893E-2    3.805419049065905E-4    3.545716076728608E-3    4.291817186830900E-4    3.588133553567092E-3    4.327908508336416E-1   -1.214298340913929E-1
 8.116304597000000E9     5.056174752695277E-1    3.529963166068621E-2    4.085730671050720E-4    3.536197252702465E-3    4.439868915682485E-4    3.605605850763780E-3    4.325837060069516E-1   -1.217517990909140E-1
 8.116311715725000E9     5.056660319202436E-1    3.484282917852094E-2    4.079179851129775E-4    3.529741904017893E-3    4.887614166997693E-4    3.574895660967153E-3    4.324121339624620E-1   -1.224311982331829E-1
 8.116318834450000E9     5.057840269475182E-1    3.430168552741854E-2    4.086998684288544E-4    3.534858949249743E-3    4.591831760028612E-4    3.603439473746365E-3    4.324655129626447E-1   -1.228805863485297E-1
 8.116325953175000E9     5.058262318735369E-1    3.372408238580771E-2    4.046250111041763E-4    3.540101369848613E-3    4.635564117757262E-4    3.591017605847498E-3    4.322704823968222E-1   -1.233241924774690E-1
 8.116333071900000E9     5.057928160480646E-1    3.321714359973076E-2    4.329375207596102E-4    3.544734576615432E-3    4.730914602446480E-4    3.605400181987783E-3    4.321832825454980E-1   -1.237648161405327E-1
 8.116340190625000E9     5.059105157531981E-1    3.272264723888860E-2    4.162692974053376E-4    3.547287241946195E-3    4.674814900335876E-4    3.590794268857938E-3    4.319444490786125E-1   -1.241092307352974E-1
 8.116347309350000E9     5.059951719393070E-1    3.216942475421553E-2    4.190642353569113E-4    3.571997799096186E-3    4.889608371869955E-4    3.621006048517285E-3    4.320275490316845E-1   -1.247822739540684E-1
 8.116354428075000E9     5.058948129978553E-1    3.159329566053286E-2    4.159451600516729E-4    3.561048502366816E-3    4.863800258070710E-4    3.580844730894138E-3    4.318566190231812E-1   -1.252233796078465E-1
 8.116361546800000E9     5.058643763328613E-1    3.111678383568360E-2    4.198112527347692E-4    3.546534875442140E-3    4.881334032310841E-4    3.620864240161337E-3    4.317064524926569E-1   -1.258078613182485E-1
 8.116368665525000E9     5.057913897169752E-1    3.049097684715283E-2    4.394214020645166E-4    3.543012492942344E-3    5.098700876720357E-4    3.578214486430086E-3    4.314744193661149E-1   -1.261744569626490E-1
 8.116375784250000E9     5.060027799343662E-1    3.002642493923165E-2    4.668444846509777E-4    3.533696520119702E-3    4.876701559833262E-4    3.590943368297568E-3    4.315055072977673E-1   -1.266408873069506E-1
 8.116382902975000E9     5.059513770651417E-1    2.953147371448280E-2    4.699236860227014E-4    3.559569874181201E-3    5.208100823180991E-4    3.621786211884862E-3    4.312466695619779E-1   -1.271955811812802E-1
 8.116390021700000E9     5.059386086701005E-1    2.889929763758649E-2    4.554874182464544E-4    3.553106716050100E-3    4.995473284931628E-4    3.620996835284116E-3    4.312484578762512E-1   -1.275329710476529E-1
 8.116397140425000E9     5.061970111507267E-1    2.835011603312233E-2    4.477620048173170E-4    3.552610461538377E-3    4.988422972953187E-4    3.555516413973758E-3    4.311270204803384E-1   -1.280995309345834E-1
 8.116404259150000E9     5.060221313288473E-1    2.791385119423371E-2    4.695155624346278E-4    3.563852787593186E-3    5.193490850823368E-4    3.621600192813476E-3    4.310035210420659E-1   -1.284610041138206E-1
 8.116411377875000E9     5.060837694822811E-1    2.735632859406084E-2    4.797538639378534E-4    3.564025257973231E-3    5.475355271019412E-4    3.612862799500944E-3    4.307514104715832E-1   -1.289594705278864E-1
 8.116418496600000E9     5.060038521197965E-1    2.686989987847657E-2    4.749668653063512E-4    3.559839432997516E-3    5.327582490499240E-4    3.649476093543848E-3    4.307795641296365E-1   -1.293409132902877E-1
 8.116425615325000E9     5.061659903368178E-1    2.637611811546364E-2    4.763614217627207E-4    3.552826193717182E-3    5.577246241325365E-4    3.637632273336855E-3    4.305256532312455E-1   -1.300053803673873E-1
 8.116432734050000E9     5.061337659249857E-1    2.572562304004430E-2    4.968552452933798E-4    3.574215811810503E-3    5.348858369298951E-4    3.612796919975526E-3    4.305982251051886E-1   -1.304293115256724E-1
 8.116439852775000E9     5.060888472515155E-1    2.512782884258522E-2    4.854569075811596E-4    3.543158849712140E-3    5.518080959568587E-4    3.610322034763071E-3    4.301539195865957E-1   -1.310470529101730E-1
 8.116446971500000E9     5.062294569348886E-1    2.478019037043102E-2    5.036013598091160E-4    3.578793550555505E-3    5.649666298026011E-4    3.657081274204596E-3    4.301886617624722E-1   -1.314842949725538E-1
 8.116454090225000E9     5.060925321097431E-1    2.406777607347755E-2    5.042688620349765E-4    3.562180669275746E-3    5.518160859832200E-4    3.614510412345259E-3    4.300826921105639E-1   -1.319386092495647E-1
 8.116461208950000E9     5.061200956223328E-1    2.358476138113883E-2    4.981784645469010E-4    3.595141102629220E-3    5.566624360504826E-4    3.615811790321726E-3    4.301011250643036E-1   -1.324437449177305E-1
 8.116468327675000E9     5.062246929840521E-1    2.307904009023867E-2    5.127769654724002E-4    3.583089548474069E-3    5.560097858252055E-4    3.610909857862232E-3    4.298649142362171E-1   -1.328428718297120E-1
 8.116475446400000E9     5.061578704548561E-1    2.248589441535884E-2    4.831810109338937E-4    3.582302836003552E-3    5.524959770258652E-4    3.655832405352010E-3    4.296450576673688E-1   -1.334293518344090E-1
 8.116482565125000E9     5.063676352398970E-1    2.192238528759434E-2    5.192388971972220E-4    3.581236967418366E-3    5.790302002841727E-4    3.624366106413847E-3    4.295968009632667E-1   -1.337538929869320E-1
 8.116489683850000E9     5.061761169837168E-1    2.140480183314634E-2    5.292211589833165E-4    3.582973783405418E-3    5.480978789063782E-4    3.629906203174372E-3    4.294865621126941E-1   -1.343942518693741E-1
 8.116496802575000E9     5.061984479231254E-1    2.088339990401174E-2    5.347912180519279E-4    3.582331173501712E-3    6.281592564039185E-4    3.634775983679992E-3    4.293869464825559E-1   -1.347452040952300E-1
 8.116503921300000E9     5.062816367514483E-1    2.033684168925108E-2    5.242660683188486E-4    3.580543357345452E-3    5.775619305857206E-4    3.649166078912467E-3    4.291775402099183E-1   -1.352101723582107E-1
 8.116511040025000E9     5.062591072798103E-1    1.972122421092743E-2    5.086341148663489E-4    3.568878967910927E-3    5.848372201756288E-4    3.658089521617810E-3    4.290034617882717E-1   -1.356742700930544E-1
 8.116518158750000E9     5.062793619437772E-1    1.927728403729157E-2    5.260753435072088E-4    3.603557559573626E-3    5.995770588746929E-4    3.667877011649999E-3    4.288259238436401E-1   -1.362353178769443E-1
 8.116525277475000E9     5.063793511195632E-1    1.881785625058612E-2    5.348360985577472E-4    3.590202035168983E-3    6.173926414250152E-4    3.648495380864312E-3    4.289254131470363E-1   -1.366520687799349E-1
 8.116532396200000E9     5.062572836344462E-1    1.809955003753809E-2    5.422787083367817E-4    3.590643882236891E-3    6.173913929079470E-4    3.664691626274422E-3    4.287505956892150E-1   -1.371999207773907E-1
 8.116539514925000E9     5.062737235056944E-1    1.774528070918140E-2    5.679667511819672E-4    3.616039308804444E-3    6.194527508638145E-4    3.627113152126993E-3    4.285432283341480E-1   -1.375183892355510E-1
 8.116546633650000E9     5.062933251047272E-1    1.705831747134836E-2    5.900413482083163E-4    3.601869494061491E-3    6.128296841490835E-4    3.695727877933932E-3    4.282190591448036E-1   -1.381569901927041E-1
 8.116553752375000E9     5.063674815758927E-1    1.662531450548837E-2    5.404620067085785E-4    3.631887691088608E-3    6.230538800076447E-4    3.647567931837416E-3    4.282301850337434E-1   -1.385170506476469E-1
 8.116560871100000E9     5.062941063053668E-1    1.598594378194183E-2    5.721435187455728E-4    3.633627126276809E-3    6.161365412080319E-4    3.671406725050777E-3    4.280779121332849E-1   -1.391669637297777E-1
 8.116567989825000E9     5.063430255298125E-1    1.554214487516567E-2    5.713607065222649E-4    3.622858202762332E-3    6.243265162968565E-4    3.647913829827117E-3    4.279762807104271E-1   -1.396022248446155E-1
 8.116575108550000E9     5.062460375420020E-1    1.500921282593645E-2    5.761684463632484E-4    3.613117191412206E-3    6.131597861618159E-4    3.685586269083381E-3    4.278790966811779E-1   -1.400371477935340E-1
 8.116582227275000E9     5.063779132205658E-1    1.435025841995996E-2    5.532937199403472E-4    3.599836609562543E-3    6.594198166056708E-4    3.699477325130262E-3    4.277196582867969E-1   -1.404729773233571E-1
 8.116589346000000E9     5.063158200262778E-1    1.382551689761636E-2    6.011137460127748E-4    3.659318624158552E-3    6.555888034189761E-4    3.666017464883924E-3    4.275996225760508E-1   -1.411728232029277E-1
 8.116596464725000E9     5.063541200206771E-1    1.332398163805470E-2    5.680521711193401E-4    3.630059919192216E-3    6.388177900752178E-4    3.636484876294966E-3    4.275257572348196E-1   -1.415482779063428E-1
 8.116603583450000E9     5.063757875717262E-1    1.284417050599334E-2    6.065644850688045E-4    3.647679158570211E-3    6.618791635095191E-4    3.639459855743132E-3    4.273454441041316E-1   -1.419020003554730E-1
 8.116610702175000E9     5.063254990690409E-1    1.214910488515547E-2    5.928657411160297E-4    3.636760658413978E-3    6.551787145040324E-4    3.690763622943717E-3    4.272796337175886E-1   -1.423739308658320E-1
 8.116617820900000E9     5.063402237148297E-1    1.164757295557444E-2    6.110813243721839E-4    3.625937233620377E-3    6.519706416378920E-4    3.687599195475746E-3    4.272254020872014E-1   -1.428989298277574E-1
 8.116624939625000E9     5.064700452732538E-1    1.110779930306971E-2    6.268449146812603E-4    3.615484380943187E-3    6.876711412056576E-4    3.663785462734560E-3    4.268959422933455E-1   -1.433635015382021E-1
 8.116632058350000E9     5.064477949187258E-1    1.057328660393512E-2    6.370927289734452E-4    3.659556450513011E-3    6.759113327304428E-4    3.700041945310053E-3    4.268337979319798E-1   -1.439508121130971E-1
 8.116639177075000E9     5.063501115720864E-1    1.005196143357315E-2    6.078594805356932E-4    3.647837672657231E-3    6.490466261635852E-4    3.680524989594369E-3    4.266014290832669E-1   -1.442750437950846E-1
 8.116646295800000E9     5.062875527444295E-1    9.548384253129608E-3    6.244901023396786E-4    3.661102006405150E-3    6.997742725570641E-4    3.718099087837142E-3    4.264266033093843E-1   -1.447333104609280E-1
 8.116653414525000E9     5.062969654369138E-1    9.011505797502477E-3    6.379574237377042E-4    3.654290879747215E-3    7.110263920712059E-4    3.682157439561890E-3    4.263748056669982E-1   -1.453250901323529E-1
 8.116660533250000E9     5.062675237486867E-1    8.346595664994301E-3    6.259328236323193E-4    3.658826209152513E-3    7.040422062802312E-4    3.701275293112662E-3    4.262229416661553E-1   -1.457099723012308E-1
