#  HZ   S   RI   R     50.00 
! Rohde & Schwarz Vector Network Analyzer 
! Rohde-Schwarz,ZNB20-2Port,1311601062101988,3.16
! Created: UTC 12/23/2023, 3:38:20 AM
! freq[Hz]                re:S11                  im:S11                  re:S21                  im:S21                  re:S12                  im:S12                  re:S22                  im:S22
 6.517081626000000E9    -2.300266353453660E-1   -1.562690766838339E-2    1.341296090068176E-2   -5.505178079828148E-3    1.355401276721037E-2   -5.193798795306648E-3    2.097014181236911E-1    5.068949678738542E-1
 6.517093191375000E9    -2.298244304979990E-1   -1.544400415592831E-2    1.346928550106597E-2   -5.604542600272861E-3    1.358565449407942E-2   -5.103960157947991E-3    2.105933352755408E-1    5.066229332081654E-1
 6.517104756750000E9    -2.297309708935659E-1   -1.521255903343900E-2    1.347619451157844E-2   -5.619419062628457E-3    1.362149684561772E-2   -5.350930882260026E-3    2.113554251637234E-1    5.063231365457208E-1
 6.517116322125000E9    -2.295466407518512E-1   -1.498703979622629E-2    1.370022907580857E-2   -5.802585690854224E-3    1.371523800732595E-2   -5.236973916582036E-3    2.123829879162831E-1    5.060147954295021E-1
 6.517127887500000E9    -2.295563945930216E-1   -1.481144485503014E-2    1.365063191136394E-2   -5.915219970595235E-3    1.372986690791155E-2   -5.397614837047702E-3    2.129662004248371E-1    5.054929877455608E-1
 6.517139452875000E9    -2.294326717658243E-1   -1.468826509324051E-2    1.377822954426546E-2   -5.767712828166637E-3    1.383381268518241E-2   -5.363212799596930E-3    2.139713916479394E-1    5.052400336430217E-1
 6.517151018250000E9    -2.292254808981736E-1   -1.452595786631507E-2    1.369133150325812E-2   -5.992535702914455E-3    1.386421453656089E-2   -5.486538337446395E-3    2.149181267893287E-1    5.049769063253062E-1
 6.517162583625000E9    -2.291117197079350E-1   -1.423330281821533E-2    1.386664189101241E-2   -5.977016212775982E-3    1.381857017029539E-2   -5.489133836434220E-3    2.157205168870020E-1    5.046840895058763E-1
 6.517174149000000E9    -2.290919372839163E-1   -1.421625571201049E-2    1.378971888258924E-2   -5.995569846103766E-3    1.407135267302300E-2   -5.473483794232846E-3    2.165046252534752E-1    5.042544517755835E-1
 6.517185714375000E9    -2.289113283243693E-1   -1.404635266330079E-2    1.388162878723596E-2   -6.168246052819386E-3    1.400538636609969E-2   -5.600409830134890E-3    2.174233324010486E-1    5.038183617595808E-1
 6.517197279750000E9    -2.287904049530170E-1   -1.384323072282731E-2    1.393249358973544E-2   -6.238029693931075E-3    1.415348773903388E-2   -5.626834678268974E-3    2.181561349318280E-1    5.035613679851214E-1
 6.517208845125000E9    -2.287073282649016E-1   -1.368171835410685E-2    1.410071972939309E-2   -6.342742965064873E-3    1.431546994120407E-2   -5.641211546446380E-3    2.189863759525492E-1    5.030236795780241E-1
 6.517220410500000E9    -2.285764036670480E-1   -1.355632809183682E-2    1.407212742728826E-2   -6.220769706701205E-3    1.432216651841227E-2   -5.734365264990328E-3    2.200408235223494E-1    5.027573513520167E-1
 6.517231975875000E9    -2.284192396090281E-1   -1.321693434035984E-2    1.420674704602547E-2   -6.322918481031991E-3    1.443592801303427E-2   -5.773420395068445E-3    2.208079761165669E-1    5.025193379021133E-1
 6.517243541250000E9    -2.283346502444819E-1   -1.318426309950901E-2    1.409417487066151E-2   -6.376860249344268E-3    1.432342760833903E-2   -5.975321213196241E-3    2.215270125186888E-1    5.020361920801825E-1
 6.517255106625000E9    -2.281744555228869E-1   -1.307475266667157E-2    1.411472011988355E-2   -6.526755956716612E-3    1.445802913351607E-2   -5.960101784684849E-3    2.224883628354730E-1    5.017316108937059E-1
 6.517266672000000E9    -2.280693094155060E-1   -1.279352380885680E-2    1.432068356810279E-2   -6.430911196127805E-3    1.454773207404640E-2   -6.075397453579791E-3    2.233392807879201E-1    5.013136260381287E-1
 6.517278237375000E9    -2.280264890409439E-1   -1.263672842752684E-2    1.449233868614745E-2   -6.537577346681576E-3    1.451844791090405E-2   -6.006619915909931E-3    2.241793077322658E-1    5.009118323638364E-1
 6.517289802750000E9    -2.277913111997714E-1   -1.244858554203021E-2    1.439484221313912E-2   -6.617717269569819E-3    1.466554088547858E-2   -6.038876972756668E-3    2.251804710549523E-1    5.005208645138099E-1
 6.517301368125000E9    -2.277308225579233E-1   -1.228871050245994E-2    1.463372341201101E-2   -6.648098242574682E-3    1.471235243183821E-2   -6.236947430295878E-3    2.258580591631767E-1    5.002233582495413E-1
 6.517312933500000E9    -2.275957798980030E-1   -1.195075822261795E-2    1.447848534039664E-2   -6.646719844956155E-3    1.473751801171020E-2   -6.222268445450837E-3    2.266024326678240E-1    4.997817723446994E-1
 6.517324498875000E9    -2.273744105335720E-1   -1.203234721450392E-2    1.463395446971051E-2   -6.811826794129477E-3    1.483481257465971E-2   -6.355504802718370E-3    2.275324650414659E-1    4.994667998021615E-1
 6.517336064250000E9    -2.272913396612114E-1   -1.173478939022014E-2    1.477902585321689E-2   -6.879983114280161E-3    1.490007136518088E-2   -6.381805141703622E-3    2.284171500958381E-1    4.990122485782638E-1
 6.517347629625000E9    -2.271118076440214E-1   -1.164263337901458E-2    1.472371711412417E-2   -6.923390007595404E-3    1.498319113325307E-2   -6.463300370256614E-3    2.293350279765463E-1    4.986333967330444E-1
 6.517359195000000E9    -2.269620088512536E-1   -1.153384539614305E-2    1.488461260512283E-2   -6.981319457660845E-3    1.499468835526489E-2   -6.522499722607532E-3    2.301616278240315E-1    4.983410689524231E-1
 6.517370760375000E9    -2.268915849195348E-1   -1.133028625486223E-2    1.481836806886574E-2   -6.935644752943366E-3    1.510254684762637E-2   -6.740456545851049E-3    2.310451419807948E-1    4.979300193589642E-1
 6.517382325750000E9    -2.266940896295404E-1   -1.125500261705170E-2    1.496739864791033E-2   -7.238965077844800E-3    1.520703401776969E-2   -6.603592847652237E-3    2.318828423196799E-1    4.974816549694477E-1
 6.517393891125000E9    -2.266734183833993E-1   -1.103462242120592E-2    1.508831985761426E-2   -7.167269481078296E-3    1.521999297001221E-2   -6.708444639358800E-3    2.327404965908775E-1    4.971921538188240E-1
 6.517405456500000E9    -2.264540349765253E-1   -1.086857898964066E-2    1.507553610257720E-2   -7.338199257744473E-3    1.532605504478150E-2   -6.836875132425287E-3    2.334563597082632E-1    4.967123258727089E-1
 6.517417021875000E9    -2.263500111331967E-1   -1.072959291860245E-2    1.532495995628240E-2   -7.310789473541016E-3    1.538953158692496E-2   -6.905281115217230E-3    2.343871882096286E-1    4.963823022566639E-1
 6.517428587250000E9    -2.261798188964065E-1   -1.058350663387296E-2    1.515478751339448E-2   -7.372254273944378E-3    1.552367785045142E-2   -7.016456395326466E-3    2.352704324683736E-1    4.959034928478717E-1
 6.517440152625000E9    -2.260139393231498E-1   -1.043149423188176E-2    1.549892047914669E-2   -7.566001258473037E-3    1.554123374313797E-2   -7.046711912752050E-3    2.360624791848768E-1    4.955213469016485E-1
 6.517451718000000E9    -2.258861123295028E-1   -1.028530531991253E-2    1.546992007845581E-2   -7.550483673109455E-3    1.562894358835961E-2   -7.100541475868174E-3    2.369336280023725E-1    4.950631755905565E-1
 6.517463283375000E9    -2.257749303602604E-1   -1.013523165453299E-2    1.553618136301083E-2   -7.651364684275261E-3    1.563712496472869E-2   -7.095927397036026E-3    2.377984947366999E-1    4.947068055544546E-1
 6.517474848750000E9    -2.255026402592047E-1   -9.839162849733794E-3    1.560029811680247E-2   -7.720493856165023E-3    1.564801829837000E-2   -7.272583311247459E-3    2.386404213305778E-1    4.944221094849194E-1
 6.517486414125000E9    -2.253893874161835E-1   -9.731008979974696E-3    1.568243368277484E-2   -7.663885339210407E-3    1.589291742131753E-2   -7.361165132545129E-3    2.396293415924196E-1    4.939026718280496E-1
 6.517497979500000E9    -2.252578649627611E-1   -9.694755157199720E-3    1.562145687956831E-2   -7.978929967310222E-3    1.597473395523080E-2   -7.310755830498878E-3    2.402689296337391E-1    4.934931659583681E-1
 6.517509544875000E9    -2.251349064147666E-1   -9.576026473948590E-3    1.570629566250511E-2   -7.992203672126720E-3    1.600503415616236E-2   -7.335158616019572E-3    2.412211524156889E-1    4.931137865394949E-1
 6.517521110250000E9    -2.250174842514773E-1   -9.347428802166016E-3    1.588653182656331E-2   -8.158931156008164E-3    1.608120549157666E-2   -7.549565323690538E-3    2.422472151933920E-1    4.927092289258767E-1
 6.517532675625000E9    -2.247578737325025E-1   -9.224650918543154E-3    1.596688094314452E-2   -8.082491777715852E-3    1.622330471610425E-2   -7.570233706005816E-3    2.429303606873351E-1    4.924114975561701E-1
 6.517544241000000E9    -2.245977378038643E-1   -9.006273674277756E-3    1.590454189111521E-2   -8.198054563569342E-3    1.618140817765520E-2   -7.717230503524202E-3    2.437910905973273E-1    4.919027394224398E-1
 6.517555806375000E9    -2.245375713550489E-1   -9.000592255244647E-3    1.610999513691926E-2   -8.296109424115116E-3    1.634129280325114E-2   -7.834491167790511E-3    2.446642736328625E-1    4.913864471523079E-1
 6.517567371750000E9    -2.242240757286772E-1   -8.750532965684945E-3    1.626324045025802E-2   -8.582845452041592E-3    1.644584534431040E-2   -7.979640631444490E-3    2.454815020100234E-1    4.909791352204821E-1
 6.517578937125000E9    -2.240937344621483E-1   -8.551502822083055E-3    1.633829639739485E-2   -8.417531234740629E-3    1.643905865785060E-2   -7.975927044823750E-3    2.463899895450642E-1    4.906703055779115E-1
 6.517590502500000E9    -2.239131569748732E-1   -8.406920921428106E-3    1.633736746077807E-2   -8.660947608420837E-3    1.657033986708871E-2   -8.040649010268372E-3    2.472987230786561E-1    4.903013584802259E-1
 6.517602067875000E9    -2.238436990860278E-1   -8.436294676750802E-3    1.642945630165775E-2   -8.632154136473851E-3    1.667974470649014E-2   -8.164449908185588E-3    2.478390722635322E-1    4.899214501943741E-1
 6.517613633250000E9    -2.236622276758683E-1   -8.135185845178989E-3    1.653859354624035E-2   -8.778208602349860E-3    1.684178123992769E-2   -8.272535721902586E-3    2.488687697037119E-1    4.893416689841603E-1
 6.517625198625000E9    -2.235170823319505E-1   -8.015125744978148E-3    1.661954441752673E-2   -8.847265478729171E-3    1.682388438479130E-2   -8.234407673050680E-3    2.496969907354486E-1    4.889293113994813E-1
 6.517636764000000E9    -2.234190588010244E-1   -7.901995229846418E-3    1.660740555133329E-2   -8.924625694080535E-3    1.687664103734344E-2   -8.380183007532052E-3    2.504781966522345E-1    4.884902102201322E-1
 6.517648329375000E9    -2.232097646859781E-1   -7.828666686058222E-3    1.687054291500388E-2   -9.020279343410218E-3    1.696963348647032E-2   -8.493016854894521E-3    2.514144254845951E-1    4.879489761839563E-1
 6.517659894750000E9    -2.230110128988685E-1   -7.772807895815879E-3    1.692602680648173E-2   -9.052261004032124E-3    1.711937276127379E-2   -8.587240630710664E-3    2.523368680361207E-1    4.875795577734509E-1
 6.517671460125000E9    -2.227830431549069E-1   -7.522108671494901E-3    1.695324179696703E-2   -9.261689331511776E-3    1.716116828651496E-2   -8.620968860224974E-3    2.531787874403836E-1    4.871336276730733E-1
 6.517683025500000E9    -2.227201367673852E-1   -7.408675387903314E-3    1.705474061694764E-2   -9.413195517425081E-3    1.728359646932331E-2   -8.836592489489710E-3    2.540467902700017E-1    4.867811647661697E-1
 6.517694590875000E9    -2.225667335570927E-1   -7.254759818448748E-3    1.715183165127680E-2   -9.332892918858526E-3    1.741821025614889E-2   -8.845259635298516E-3    2.549078233123455E-1    4.862415964713138E-1
 6.517706156250000E9    -2.222569463284116E-1   -7.056434708023720E-3    1.720577563579117E-2   -9.451867417717001E-3    1.748506589246081E-2   -8.985658137870823E-3    2.558391134930233E-1    4.858406782124031E-1
 6.517717721625000E9    -2.222071563252702E-1   -7.073663701165096E-3    1.721469698727539E-2   -9.617006328459070E-3    1.759510095167894E-2   -9.080261557780044E-3    2.564418574543838E-1    4.853675326997506E-1
 6.517729287000000E9    -2.219560688333719E-1   -6.890351176253692E-3    1.739613669018599E-2   -9.682366261237420E-3    1.761312797317318E-2   -9.160795069663222E-3    2.573884708310479E-1    4.848676239501649E-1
 6.517740852375000E9    -2.217751569186836E-1   -6.845036251746172E-3    1.741455600398747E-2   -9.932443537512074E-3    1.775974076334485E-2   -9.255707960179478E-3    2.582402228717963E-1    4.844284374787374E-1
 6.517752417750000E9    -2.215743891218911E-1   -6.723299333641852E-3    1.757001036666831E-2   -9.944891270764490E-3    1.780112528453382E-2   -9.277147075211711E-3    2.591852529961142E-1    4.838494055782517E-1
 6.517763983125000E9    -2.214141296691792E-1   -6.615926379533187E-3    1.772615292666703E-2   -1.001557856852278E-2    1.791966444406892E-2   -9.413891845685498E-3    2.600028290473579E-1    4.835455995298658E-1
 6.517775548500000E9    -2.211598347201764E-1   -6.410524645023620E-3    1.794150827581947E-2   -1.014882545771123E-2    1.809035887956250E-2   -9.529134681032874E-3    2.609493355276329E-1    4.829192188255038E-1
 6.517787113875000E9    -2.209910214792936E-1   -6.343138753434308E-3    1.788717064210197E-2   -1.027664869042423E-2    1.816416754960680E-2   -9.658021122605517E-3    2.617771408661688E-1    4.825500005201329E-1
 6.517798679250000E9    -2.209709313390910E-1   -6.200856197572300E-3    1.803736555098377E-2   -1.031904525994055E-2    1.828445710773424E-2   -9.849314308788281E-3    2.626241120771295E-1    4.820307411641493E-1
 6.517810244625000E9    -2.206897142031021E-1   -6.127567284220950E-3    1.787216262273545E-2   -1.055363995542712E-2    1.832308702361848E-2   -9.951582075460666E-3    2.634248211283538E-1    4.816613253161304E-1
 6.517821810000000E9    -2.204859504203363E-1   -6.003654252518277E-3    1.810433399197482E-2   -1.066991820552369E-2    1.853630097009458E-2   -1.008252103689105E-2    2.643402364359449E-1    4.811167258600171E-1
 6.517833375375000E9    -2.204566524745632E-1   -5.915330818748749E-3    1.825155403683802E-2   -1.088158982451787E-2    1.847413989736852E-2   -1.012658086097495E-2    2.650624469427094E-1    4.806579745571454E-1
 6.517844940750000E9    -2.201074636080297E-1   -5.837620470950908E-3    1.844147222021180E-2   -1.086891511035147E-2    1.873915374510140E-2   -1.021093714082260E-2    2.658883268121229E-1    4.802315074895219E-1
 6.517856506125000E9    -2.199580571410562E-1   -5.781759491002885E-3    1.846450877486988E-2   -1.095077172971449E-2    1.879985072775381E-2   -1.036225864895811E-2    2.669333175794639E-1    4.797024304397866E-1
 6.517868071500000E9    -2.197391813016437E-1   -5.529571234031564E-3    1.854621460300035E-2   -1.108805816434056E-2    1.891405372974044E-2   -1.059466226934485E-2    2.677390246672376E-1    4.791134515821964E-1
 6.517879636875000E9    -2.195117174846690E-1   -5.485776394177488E-3    1.866593005265674E-2   -1.126318045622052E-2    1.912712269824736E-2   -1.043904913763379E-2    2.685763952560827E-1    4.786378864296914E-1
 6.517891202250000E9    -2.192637716503379E-1   -5.451088800616813E-3    1.882284743851825E-2   -1.145449608316463E-2    1.912161839404976E-2   -1.072931683763550E-2    2.694917247637780E-1    4.781587290035260E-1
 6.517902767625000E9    -2.191903742916328E-1   -5.290853513848500E-3    1.880419201226551E-2   -1.139458183681769E-2    1.919398625929039E-2   -1.083627877330714E-2    2.703875726954963E-1    4.777236815315480E-1
 6.517914333000000E9    -2.188717961699625E-1   -5.223378853992822E-3    1.910964803107165E-2   -1.161008623055488E-2    1.934409315703214E-2   -1.104625438844381E-2    2.712081487750347E-1    4.773199449845539E-1
 6.517925898375000E9    -2.186532652262525E-1   -5.077006823125398E-3    1.908067266031643E-2   -1.175704036505521E-2    1.947662781307548E-2   -1.114162164503575E-2    2.720045526137443E-1    4.767210425901743E-1
 6.517937463750000E9    -2.184587159125629E-1   -4.981524207111004E-3    1.926120753735512E-2   -1.179362887212352E-2    1.960701909881781E-2   -1.123212984072163E-2    2.729101120792107E-1    4.761872013836155E-1
 6.517949029125000E9    -2.182692366142259E-1   -5.025756843766744E-3    1.930311009618835E-2   -1.197990057466384E-2    1.976793872474831E-2   -1.150609244177895E-2    2.737992858097648E-1    4.758053743817069E-1
 6.517960594500000E9    -2.180519217686247E-1   -4.994130082944850E-3    1.942574726776566E-2   -1.220402379861952E-2    1.978950231705854E-2   -1.158855247728930E-2    2.746519118760699E-1    4.752828841979183E-1
 6.517972159875000E9    -2.178035716071652E-1   -4.889580694219368E-3    1.951287467721109E-2   -1.231226022116602E-2    1.995611145579640E-2   -1.169952747456396E-2    2.755461562516536E-1    4.745800270043766E-1
 6.517983725250000E9    -2.176852338157156E-1   -4.634498821110703E-3    1.962804591512804E-2   -1.258281821399477E-2    2.003555921688028E-2   -1.185469657829046E-2    2.762658904189056E-1    4.740476589517407E-1
 6.517995290625000E9    -2.172037685384785E-1   -4.639282394667639E-3    1.984634996705868E-2   -1.270098371997191E-2    2.023927147768937E-2   -1.199102945470207E-2    2.772214632217826E-1    4.734617563745127E-1
 6.518006856000000E9    -2.172412479043238E-1   -4.538943596489015E-3    1.994174185094484E-2   -1.270638221871033E-2    2.035328332673406E-2   -1.214217162117020E-2    2.780245501887272E-1    4.730757890301800E-1
 6.518018421375000E9    -2.169894496070335E-1   -4.643313339238543E-3    2.005251296976748E-2   -1.276428980155630E-2    2.049162421015712E-2   -1.228951728830284E-2    2.790296153219132E-1    4.725516574614218E-1
 6.518029986750000E9    -2.167188484217324E-1   -4.453431322324682E-3    2.016273367418344E-2   -1.311508935005580E-2    2.052572645450249E-2   -1.240352695545519E-2    2.798891262700482E-1    4.719572555577287E-1
 6.518041552125000E9    -2.164438730887681E-1   -4.527785483992742E-3    2.037643940962171E-2   -1.329601205785913E-2    2.079230759646333E-2   -1.252982235025596E-2    2.806830720271900E-1    4.714567709709213E-1
 6.518053117500000E9    -2.162597157646093E-1   -4.274001329080212E-3    2.047759325296447E-2   -1.337908194126889E-2    2.084732924024999E-2   -1.278324410120961E-2    2.815995928039107E-1    4.708591558154472E-1
 6.518064682875000E9    -2.160175027165986E-1   -4.321793530935454E-3    2.045598982545267E-2   -1.356566037440644E-2    2.108325599639960E-2   -1.289213063270272E-2    2.826221631387101E-1    4.702796632913114E-1
 6.518076248250000E9    -2.157441435949820E-1   -4.241002501120460E-3    2.075812036993725E-2   -1.370613185730474E-2    2.116858413429589E-2   -1.306370818946003E-2    2.832785375578746E-1    4.696715965089952E-1
 6.518087813625000E9    -2.154787532550161E-1   -4.274401658204672E-3    2.088747223362152E-2   -1.413158288596950E-2    2.130096836659238E-2   -1.326060216241831E-2    2.841383605646620E-1    4.693491015725765E-1
 6.518099379000000E9    -2.152679654402675E-1   -4.166209953144495E-3    2.100169511603222E-2   -1.412670282366802E-2    2.148703011984328E-2   -1.357837109065160E-2    2.850935369711098E-1    4.687271176759912E-1
 6.518110944375000E9    -2.149566812452632E-1   -4.168614883430185E-3    2.111598098667651E-2   -1.422065461417630E-2    2.163791173740743E-2   -1.358989756433762E-2    2.858833774241487E-1    4.681383463741090E-1
 6.518122509750000E9    -2.148084360674762E-1   -4.030796437121905E-3    2.136857321039883E-2   -1.463262213056604E-2    2.164606025183069E-2   -1.384096782510815E-2    2.868910844518723E-1    4.674430251910459E-1
