#  HZ   S   RI   R     50.00 
! Rohde & Schwarz Vector Network Analyzer 
! Rohde-Schwarz,ZNB20-2Port,1311601062101988,3.16
! Created: UTC 3/20/2024, 11:53:19 AM
! freq[Hz]                re:S11                  im:S11                  re:S21                  im:S21                  re:S12                  im:S12                  re:S22                  im:S22
 8.116126496000000E9     5.047235104141696E-1    4.882366245645474E-2    2.988896958481765E-4    3.507521735744391E-3    3.714528079929394E-4    3.564264696856037E-3    4.352016461534517E-1   -1.097371390943892E-1
 8.116133168600000E9     5.047945008807598E-1    4.830839612339938E-2    2.755409821628748E-4    3.528376647840355E-3    3.522504062701146E-4    3.560065673270817E-3    4.352729533313081E-1   -1.100669399390032E-1
 8.116139841200000E9     5.048511275706178E-1    4.774058449524048E-2    2.812302453053853E-4    3.505288811603069E-3    3.700439144752911E-4    3.562980935145651E-3    4.352582491947539E-1   -1.107181584853648E-1
 8.116146513800000E9     5.049099847002068E-1    4.724159396358425E-2    3.507765825489968E-4    3.518827908316014E-3    3.757174198854103E-4    3.566442659890859E-3    4.350792132429493E-1   -1.110546484943365E-1
 8.116153186400000E9     5.048837174149959E-1    4.673414618799322E-2    3.115716072900947E-4    3.508333475330391E-3    3.489569817383811E-4    3.584822855776464E-3    4.349916103771166E-1   -1.114820979381220E-1
 8.116159859000000E9     5.050662947148989E-1    4.623533236218138E-2    3.036233434363067E-4    3.553533492428590E-3    3.999257812166216E-4    3.580946170336966E-3    4.348750116364117E-1   -1.119688222660540E-1
 8.116166531600000E9     5.050125411142580E-1    4.582907888575157E-2    3.229485999716101E-4    3.522612474725007E-3    3.742388705693741E-4    3.567375606641981E-3    4.349605887875672E-1   -1.124429313072338E-1
 8.116173204200000E9     5.050829440214207E-1    4.534158394784209E-2    3.352567787752264E-4    3.516612326672224E-3    3.819717995686448E-4    3.543197105400558E-3    4.347622182644719E-1   -1.129858190701938E-1
 8.116179876800000E9     5.052186444177179E-1    4.480557592251642E-2    3.301962519688842E-4    3.526373907229861E-3    4.075475309862926E-4    3.592138708383751E-3    4.345271117419574E-1   -1.134372553595172E-1
 8.116186549400000E9     5.052773839621941E-1    4.424491911576446E-2    3.324683867941222E-4    3.490063512672756E-3    4.064388601829075E-4    3.569627454264068E-3    4.344598826829022E-1   -1.137744919475051E-1
 8.116193222000000E9     5.052817409231892E-1    4.382516366935551E-2    3.079335513068280E-4    3.516461846288559E-3    3.844165791934262E-4    3.552591772989438E-3    4.344235374502733E-1   -1.142162862270220E-1
 8.116199894600000E9     5.052920670995806E-1    4.333309352101201E-2    3.480353139201650E-4    3.521160158817288E-3    3.942691717722482E-4    3.559439073159935E-3    4.342425247407462E-1   -1.147341516109144E-1
 8.116206567200000E9     5.053402573281391E-1    4.287349292231118E-2    3.580199245993536E-4    3.522118267182264E-3    3.852753660803436E-4    3.555219398507701E-3    4.341870430960343E-1   -1.152271324946485E-1
 8.116213239800000E9     5.053090951731510E-1    4.227803162498476E-2    3.279262201114371E-4    3.500460982405258E-3    4.119868136005436E-4    3.579979421509287E-3    4.341243707713357E-1   -1.155339289117000E-1
 8.116219912400000E9     5.052420941887622E-1    4.185361225858871E-2    3.411403707438874E-4    3.513202370592951E-3    4.338797954101226E-4    3.565916278035543E-3    4.340237344127003E-1   -1.161717706893085E-1
 8.116226585000000E9     5.052736660984020E-1    4.126131473004096E-2    3.629586889460113E-4    3.515047668708714E-3    4.149298983155102E-4    3.572150800191620E-3    4.338637863219141E-1   -1.166065952644599E-1
 8.116233257600000E9     5.055016595268397E-1    4.068987062036229E-2    3.732641076191319E-4    3.504122963543382E-3    4.234741688394275E-4    3.558464146256638E-3    4.339174337578098E-1   -1.170524775195480E-1
 8.116239930200000E9     5.053935029543747E-1    4.029611393261591E-2    3.712960637491688E-4    3.507825472738981E-3    4.308769799474187E-4    3.581087428761435E-3    4.336100981445401E-1   -1.173913642828202E-1
 8.116246602800000E9     5.054631616615579E-1    3.968763306827872E-2    3.713158561494260E-4    3.544830758785561E-3    4.031196462003963E-4    3.586433706770408E-3    4.334826589434208E-1   -1.178912753261248E-1
 8.116253275400000E9     5.054591187685590E-1    3.926117765546536E-2    3.598932930898123E-4    3.525305000614946E-3    4.208960787517131E-4    3.604991536510207E-3    4.335254074693589E-1   -1.183411991384830E-1
 8.116259948000000E9     5.055778518612598E-1    3.870591742429265E-2    3.862383255701278E-4    3.527742172913555E-3    4.122809887385916E-4    3.587705013313445E-3    4.332643389632119E-1   -1.189662450369734E-1
 8.116266620600000E9     5.055045600992349E-1    3.835570068773629E-2    4.059397385773439E-4    3.525454477125918E-3    4.462515148627540E-4    3.594417884292198E-3    4.333607576326205E-1   -1.191435214283295E-1
 8.116273293200000E9     5.055381601513745E-1    3.774778850844163E-2    3.875534249698111E-4    3.530321410056593E-3    4.223896835113739E-4    3.596655956855062E-3    4.330579102976639E-1   -1.197449962151684E-1
 8.116279965800000E9     5.056155536178418E-1    3.727927038958415E-2    3.869300478069232E-4    3.539977855629847E-3    4.600126083323393E-4    3.620075268386121E-3    4.330828530062200E-1   -1.201562610756785E-1
 8.116286638400000E9     5.056012890682844E-1    3.675526105609336E-2    3.955139072275683E-4    3.510655202835586E-3    4.574640114689529E-4    3.590354738320604E-3    4.328608388310476E-1   -1.205582474596845E-1
 8.116293311000000E9     5.055840676401645E-1    3.625297751175465E-2    3.919821293302519E-4    3.539849111998138E-3    4.585210057197797E-4    3.608083282412424E-3    4.327861291282905E-1   -1.210369794875140E-1
 8.116299983600000E9     5.058151151983881E-1    3.581077336729153E-2    4.036256664170848E-4    3.525256511452257E-3    4.777400869079661E-4    3.596724089497281E-3    4.326839013482608E-1   -1.214999141186652E-1
 8.116306656200000E9     5.056528439980653E-1    3.523604714416055E-2    4.088109636006456E-4    3.525324489600279E-3    4.657785012374822E-4    3.583322427456721E-3    4.326149460727508E-1   -1.218571810901339E-1
 8.116313328800000E9     5.057366193321357E-1    3.478398763859385E-2    4.087087881420592E-4    3.533330146596376E-3    4.766495573750436E-4    3.585569103522486E-3    4.325553475214534E-1   -1.224218791972593E-1
 8.116320001400000E9     5.057255971177166E-1    3.429208105439165E-2    4.344240553507025E-4    3.573409418119583E-3    4.644246287124794E-4    3.595684709652256E-3    4.323957913063037E-1   -1.227002128728335E-1
 8.116326674000000E9     5.057962439120642E-1    3.381735464458640E-2    4.437781061190093E-4    3.551265695843434E-3    4.790939560117983E-4    3.582801077748380E-3    4.322220587300683E-1   -1.231951186244863E-1
 8.116333346600000E9     5.058106935934682E-1    3.317685955753592E-2    4.135312678326818E-4    3.558499659839841E-3    4.782099150568044E-4    3.611377800695008E-3    4.322210088946284E-1   -1.238193457666456E-1
 8.116340019200000E9     5.058119463636425E-1    3.273971314531404E-2    3.872707475889594E-4    3.551046563484756E-3    4.961210371720558E-4    3.596182911294184E-3    4.320764140633215E-1   -1.242079182211063E-1
 8.116346691800000E9     5.059282963373593E-1    3.223247100447784E-2    4.430606505304494E-4    3.558898972231826E-3    4.775219272224070E-4    3.553759316697134E-3    4.319141946273414E-1   -1.247664983158955E-1
 8.116353364400000E9     5.058681029800542E-1    3.183220406939900E-2    4.235611143299581E-4    3.541804385701899E-3    4.581744090362854E-4    3.607242764280818E-3    4.318476465605380E-1   -1.250945876420242E-1
 8.116360037000000E9     5.058464059267933E-1    3.121942158738615E-2    4.270318822828537E-4    3.546130583434534E-3    5.251608235755065E-4    3.614349104347939E-3    4.316062495392901E-1   -1.255730960536660E-1
 8.116366709600000E9     5.058688302072794E-1    3.079582254686678E-2    4.528207427237543E-4    3.582052663252775E-3    5.564968052951710E-4    3.617296385744403E-3    4.316671080342008E-1   -1.260148160221695E-1
 8.116373382200000E9     5.059685680782288E-1    3.017869832675033E-2    4.602152378989422E-4    3.546968076078983E-3    4.867611344826929E-4    3.614126298846442E-3    4.315327570783278E-1   -1.264663827219258E-1
 8.116380054800000E9     5.060531635414702E-1    2.971962497636023E-2    4.437347633341694E-4    3.551772873205992E-3    5.099407999962219E-4    3.592455991909038E-3    4.314253792365662E-1   -1.268723759570547E-1
 8.116386727400000E9     5.059676491602718E-1    2.933094771660108E-2    4.605434725207636E-4    3.564084327323015E-3    5.122365794428737E-4    3.605545528843710E-3    4.312853550382788E-1   -1.272835254195780E-1
 8.116393400000000E9     5.060031847859512E-1    2.877037127661613E-2    4.426794410393939E-4    3.572989997853632E-3    5.155652663855844E-4    3.609898907850127E-3    4.310632373574294E-1   -1.278500523027844E-1
 8.116400072600000E9     5.059956660602221E-1    2.820072134044617E-2    4.739235666874078E-4    3.563021325088314E-3    5.147007210450481E-4    3.587834784908076E-3    4.310526420080273E-1   -1.281635075972107E-1
 8.116406745200000E9     5.060834093388182E-1    2.763092809805309E-2    4.511309432340879E-4    3.571509846140566E-3    5.389416821776219E-4    3.601295512510022E-3    4.309283801118888E-1   -1.285181719689966E-1
 8.116413417800000E9     5.059221550703298E-1    2.717722086290164E-2    4.628171693484092E-4    3.561128614490817E-3    5.232214700649166E-4    3.594501576449327E-3    4.307783786104584E-1   -1.290581460195727E-1
 8.116420090400000E9     5.061631949790135E-1    2.671063342532272E-2    4.809333035106265E-4    3.561618475743045E-3    5.611624117909114E-4    3.603708220354804E-3    4.309341840569600E-1   -1.294879738078030E-1
 8.116426763000000E9     5.060604515598265E-1    2.620983342293571E-2    4.871340005314323E-4    3.560824040748623E-3    5.363924060448577E-4    3.628108561239872E-3    4.305012798606671E-1   -1.300340119078830E-1
 8.116433435600000E9     5.061318369705951E-1    2.562284600436887E-2    4.964563064307999E-4    3.567036229893972E-3    5.453712834850157E-4    3.655512842157125E-3    4.304518810919323E-1   -1.305739035305144E-1
 8.116440108200000E9     5.061238166055975E-1    2.523257927071438E-2    5.119885807957827E-4    3.580687683605836E-3    5.104001139469108E-4    3.620931724391745E-3    4.303666523413303E-1   -1.308861999939374E-1
 8.116446780800000E9     5.062148800918801E-1    2.468643159778133E-2    4.689125419399304E-4    3.550539823737151E-3    5.513245830171948E-4    3.641653014286263E-3    4.302636956347002E-1   -1.313668206725344E-1
 8.116453453400000E9     5.061904449840654E-1    2.416360743752335E-2    5.048155743801354E-4    3.583373149047405E-3    5.636219248626377E-4    3.630432866564735E-3    4.301240880096127E-1   -1.317404793103510E-1
 8.116460126000000E9     5.062561304659707E-1    2.360529852716408E-2    4.941379036562463E-4    3.580632231905018E-3    5.694993619013516E-4    3.641893356414945E-3    4.298805128363342E-1   -1.324176094576388E-1
 8.116466798600000E9     5.062035303490161E-1    2.326225300695153E-2    5.089059277877630E-4    3.590817048149378E-3    5.431679791076415E-4    3.639643943455686E-3    4.297678247787646E-1   -1.327903502972908E-1
 8.116473471200000E9     5.062001375656819E-1    2.271956891602064E-2    5.247298810114358E-4    3.587294882534744E-3    5.669906860024633E-4    3.645256019151411E-3    4.298022514542074E-1   -1.330652465964778E-1
 8.116480143800000E9     5.061799215207755E-1    2.209263669106871E-2    5.269998593169356E-4    3.603605035002896E-3    5.563772184189196E-4    3.613579120331163E-3    4.297583147756329E-1   -1.335406472990852E-1
 8.116486816400000E9     5.061806235978884E-1    2.167782171260079E-2    5.158705247936951E-4    3.591672452247550E-3    5.753863072288149E-4    3.640870529293194E-3    4.295800330766907E-1   -1.339643094917282E-1
 8.116493489000000E9     5.062132552151692E-1    2.122148114297022E-2    5.273140253138293E-4    3.599678972659690E-3    5.608536535239108E-4    3.629499475784664E-3    4.293955571678585E-1   -1.345916680070350E-1
 8.116500161600000E9     5.063022808837191E-1    2.053390749694334E-2    5.285226305864355E-4    3.596295513035992E-3    5.990694315095332E-4    3.659816893498710E-3    4.292369557737892E-1   -1.350162136072177E-1
 8.116506834200000E9     5.062568697769451E-1    2.018337950266075E-2    5.236117452473345E-4    3.594744411440428E-3    6.104096582450649E-4    3.602503804246145E-3    4.290878852868544E-1   -1.354273934873846E-1
 8.116513506800000E9     5.062408314132004E-1    1.963756278293765E-2    5.039104005067485E-4    3.615799337837105E-3    5.729993542801973E-4    3.639486125561424E-3    4.290711684360851E-1   -1.357842719120922E-1
 8.116520179400000E9     5.061343833378218E-1    1.921244434887039E-2    5.331156601303730E-4    3.590689959826305E-3    6.084029874205935E-4    3.664677978699656E-3    4.290342461288444E-1   -1.363426741020089E-1
 8.116526852000000E9     5.063737190791054E-1    1.863314292148249E-2    5.427269369611948E-4    3.580575889319188E-3    5.748350566872653E-4    3.645327785764770E-3    4.286961477246113E-1   -1.367712897810329E-1
 8.116533524600000E9     5.062830195747599E-1    1.816422201292051E-2    5.592465797546656E-4    3.583354117748247E-3    5.763850241927100E-4    3.654924859749753E-3    4.286386718653710E-1   -1.371308064422252E-1
 8.116540197200000E9     5.063188809927670E-1    1.762060352340894E-2    5.554443281211097E-4    3.623353161041666E-3    6.204513376875350E-4    3.647557064726690E-3    4.284422469737133E-1   -1.377313858912396E-1
 8.116546869800000E9     5.062132165541732E-1    1.709064725455159E-2    5.687133875097773E-4    3.621451484420781E-3    5.933209912438763E-4    3.658349384568904E-3    4.284936722177197E-1   -1.380242490284002E-1
 8.116553542400000E9     5.063054333845766E-1    1.657872738345786E-2    5.844310788320333E-4    3.625584286214060E-3    6.061985429872610E-4    3.659448341354999E-3    4.283180337245492E-1   -1.386340336513900E-1
 8.116560215000000E9     5.062351797112603E-1    1.617164113803869E-2    5.836967135610414E-4    3.615615410018410E-3    6.352373554643723E-4    3.657212681085186E-3    4.282176247759156E-1   -1.389238047328789E-1
 8.116566887600000E9     5.062923797452746E-1    1.570782906027120E-2    5.620123970984242E-4    3.624978770233695E-3    6.111623888642218E-4    3.625839627416455E-3    4.280278662004516E-1   -1.392686528110038E-1
 8.116573560200000E9     5.063923162899847E-1    1.511545831419231E-2    5.790681257495037E-4    3.622840370008516E-3    6.239093145732260E-4    3.692988637976431E-3    4.279430062318679E-1   -1.397498730313030E-1
 8.116580232800000E9     5.063745619485625E-1    1.469249200553470E-2    5.666180197208718E-4    3.614849422359371E-3    6.190935036218598E-4    3.694515207552133E-3    4.277343858241086E-1   -1.403616834927149E-1
 8.116586905400000E9     5.062417064387549E-1    1.406815442414229E-2    5.662369941776525E-4    3.623998161632161E-3    6.672291201279234E-4    3.676131887328543E-3    4.277538008304017E-1   -1.407323694428163E-1
 8.116593578000000E9     5.064325906223885E-1    1.355450313763961E-2    5.905173315400360E-4    3.625749955569314E-3    6.663674980028839E-4    3.669562045373262E-3    4.276261708912547E-1   -1.413069564760079E-1
 8.116600250600000E9     5.063626964715672E-1    1.302423631670520E-2    5.752864195286572E-4    3.619946165606265E-3    6.278066557926166E-4    3.692184023893636E-3    4.276742937944209E-1   -1.415485063026288E-1
 8.116606923200000E9     5.064789480153087E-1    1.249975357601034E-2    5.800940162570630E-4    3.610337553697011E-3    6.367362623257528E-4    3.685834038223830E-3    4.272882631189623E-1   -1.421058229875407E-1
 8.116613595800000E9     5.063800106491108E-1    1.211032185875556E-2    5.993781261888491E-4    3.619271098118056E-3    6.507610374440286E-4    3.672278167545855E-3    4.271627936237171E-1   -1.425195280078012E-1
 8.116620268400000E9     5.063275028717711E-1    1.153387348355437E-2    6.124353912429465E-4    3.633201068067629E-3    6.726991480023698E-4    3.682778690557869E-3    4.270511990181623E-1   -1.430591885604414E-1
 8.116626941000000E9     5.063641732536562E-1    1.106555189386804E-2    6.187456239245528E-4    3.653249564783780E-3    6.898697988622951E-4    3.696602327184507E-3    4.268458815586709E-1   -1.434399264314490E-1
 8.116633613600000E9     5.063461407343239E-1    1.053285197114102E-2    5.942023366079586E-4    3.651332403219325E-3    6.652200241590060E-4    3.689419673240845E-3    4.268131020567668E-1   -1.439705744002358E-1
 8.116640286200000E9     5.065138268256215E-1    1.012459171742633E-2    6.072943448973030E-4    3.617192923252976E-3    6.573798292739659E-4    3.669155347764471E-3    4.266472439979535E-1   -1.444393457416523E-1
 8.116646958800000E9     5.063308090099082E-1    9.486372603844216E-3    6.292011613651447E-4    3.650923690550439E-3    6.963862326050329E-4    3.720706903426299E-3    4.265582842211706E-1   -1.446987944856009E-1
 8.116653631400000E9     5.063143296234390E-1    9.035032379098154E-3    6.340079435905243E-4    3.638176857365657E-3    6.610111623722272E-4    3.709288501604691E-3    4.264184915733845E-1   -1.452624432896714E-1
 8.116660304000000E9     5.062867347775634E-1    8.453755267942148E-3    6.637020591109182E-4    3.648776406423761E-3    6.857209988398879E-4    3.666145093368883E-3    4.261918037873126E-1   -1.456135235743428E-1
 8.116666976600000E9     5.063250013623160E-1    7.984043539957238E-3    6.309164057317731E-4    3.623158406078427E-3    6.939386879932289E-4    3.701986432254115E-3    4.261717564788095E-1   -1.461443476184696E-1
 8.116673649200000E9     5.062493888388316E-1    7.495870318751318E-3    6.485133339977267E-4    3.638018162900770E-3    7.042433338098289E-4    3.699334555283968E-3    4.260459547801902E-1   -1.465657779168597E-1
 8.116680321800000E9     5.063187213435194E-1    6.911268859339055E-3    6.419191247550782E-4    3.663360660736613E-3    7.049684337634430E-4    3.728595889455243E-3    4.258051941240408E-1   -1.469748145122655E-1
 8.116686994400000E9     5.063657326633890E-1    6.522609008441055E-3    6.520223000661873E-4    3.662770864373586E-3    6.962015724504038E-4    3.733115253282055E-3    4.256562354948775E-1   -1.474681282563878E-1
 8.116693667000000E9     5.061963511356886E-1    5.901723183988135E-3    6.564287183594605E-4    3.639195741589019E-3    7.116264296836323E-4    3.687424016577552E-3    4.255257585968721E-1   -1.479221642252894E-1
 8.116700339600000E9     5.063565282970567E-1    5.521368020898327E-3    6.704674976277501E-4    3.665181958161267E-3    7.605147804821568E-4    3.746421091578627E-3    4.253884231489553E-1   -1.482860959925410E-1
 8.116707012200000E9     5.063444288155192E-1    4.948358684221909E-3    7.061479695374992E-4    3.699046439396284E-3    7.178665193125377E-4    3.728518806189912E-3    4.253309178660113E-1   -1.488068699574547E-1
 8.116713684800000E9     5.063042983783655E-1    4.415224837577864E-3    6.667654870614655E-4    3.651736562068609E-3    7.209574805057530E-4    3.713699031161850E-3    4.251489347032245E-1   -1.492659536304224E-1
 8.116720357400000E9     5.062234511249643E-1    3.703919714984151E-3    6.578310249334417E-4    3.679434078523630E-3    7.681790594678627E-4    3.740112525524859E-3    4.250924080569136E-1   -1.496372490366628E-1
 8.116727030000000E9     5.062234464694964E-1    3.337841069502009E-3    7.001179432231556E-4    3.703487883047240E-3    7.436628233381240E-4    3.758848317629292E-3    4.249041003146013E-1   -1.502655792739395E-1
