#  HZ   S   RI   R     50.00 
! Rohde & Schwarz Vector Network Analyzer 
! Rohde-Schwarz,ZNB20-2Port,1311601062101988,3.16
! Created: UTC 3/20/2024, 11:53:32 AM
! freq[Hz]                re:S11                  im:S11                  re:S21                  im:S21                  re:S12                  im:S12                  re:S22                  im:S22
 8.116133861000000E9     5.049282872065992E-1    4.823599912833808E-2    2.991573970454921E-4    3.492803840386212E-3    3.758229274208866E-4    3.551298802752807E-3    4.352196077854162E-1   -1.101836421804797E-1
 8.116140516550000E9     5.049171549268293E-1    4.765451710346704E-2    3.032433712280610E-4    3.487239475081398E-3    3.947642665028986E-4    3.576139333744158E-3    4.352950559408041E-1   -1.105670732993341E-1
 8.116147172100000E9     5.049519388506096E-1    4.726285016771837E-2    3.027125143909738E-4    3.506316278886438E-3    3.605576935973296E-4    3.531888896700203E-3    4.350476881780509E-1   -1.110291241677921E-1
 8.116153827650000E9     5.049601483018353E-1    4.683423421710319E-2    3.142327725472267E-4    3.509489544943836E-3    3.707910427944262E-4    3.568879706055413E-3    4.349796784852831E-1   -1.115772564404707E-1
 8.116160483200000E9     5.050463576865223E-1    4.620203361952296E-2    3.176086808812919E-4    3.537558738458747E-3    3.801598004183726E-4    3.578457075453143E-3    4.348803670694851E-1   -1.120071623205622E-1
 8.116167138750000E9     5.050617679793362E-1    4.579557362659824E-2    3.096280257259101E-4    3.496083233814368E-3    3.615338415686200E-4    3.607745918456039E-3    4.349357245252538E-1   -1.123978486418008E-1
 8.116173794300000E9     5.051631848046408E-1    4.521969383491257E-2    3.212932788852718E-4    3.509371104756065E-3    3.729402895030393E-4    3.594618776633998E-3    4.348546383490836E-1   -1.127822060758306E-1
 8.116180449850000E9     5.050492950175699E-1    4.460630061451862E-2    3.313985065703747E-4    3.547361041547668E-3    3.827865773586109E-4    3.557642006079839E-3    4.346192586395594E-1   -1.133574126308905E-1
 8.116187105400000E9     5.050872254242226E-1    4.414134271692540E-2    3.231257405396624E-4    3.524356080421313E-3    3.701063311823732E-4    3.558868330215632E-3    4.345618580125667E-1   -1.137974029939563E-1
 8.116193760950000E9     5.052878062213337E-1    4.372022259790813E-2    3.291714564278429E-4    3.510892484650148E-3    3.821249154028496E-4    3.577513019024537E-3    4.344852473935726E-1   -1.144349837188287E-1
 8.116200416500000E9     5.052188033700979E-1    4.332431091029539E-2    3.573881647421161E-4    3.516481991544214E-3    3.878993604780295E-4    3.588549347261595E-3    4.342940535705870E-1   -1.148258990110116E-1
 8.116207072050000E9     5.052272106377343E-1    4.267968348164281E-2    3.682495890650760E-4    3.536992037000503E-3    3.950502124887596E-4    3.613164585210403E-3    4.341731271164910E-1   -1.150933522089241E-1
 8.116213727600000E9     5.052543493692022E-1    4.215304302473660E-2    3.439493404059261E-4    3.521227724058835E-3    4.358229460134956E-4    3.571768275954792E-3    4.341269471793879E-1   -1.154548382734380E-1
 8.116220383150000E9     5.053445372942644E-1    4.164081782377754E-2    3.708240131315630E-4    3.527647122981367E-3    4.283464742288456E-4    3.569218887791379E-3    4.339706750234449E-1   -1.159706540730750E-1
 8.116227038700000E9     5.053381112399514E-1    4.119681762409302E-2    3.618261622376397E-4    3.520125200203097E-3    3.906231368575580E-4    3.596761489719099E-3    4.338330839061257E-1   -1.166550279436464E-1
 8.116233694250000E9     5.053436395272249E-1    4.074666473479892E-2    3.497205716673577E-4    3.520956281070239E-3    4.428639244125769E-4    3.554582733506300E-3    4.337913574851622E-1   -1.169244701488108E-1
 8.116240349800000E9     5.054991468503626E-1    4.026295488389118E-2    3.565022932721476E-4    3.532803724448581E-3    4.007857967214491E-4    3.578060199644060E-3    4.336989220156501E-1   -1.174256785762914E-1
 8.116247005350000E9     5.054629299814151E-1    3.971431924804746E-2    3.818486960585695E-4    3.560791520400627E-3    4.060159757707474E-4    3.577167237512119E-3    4.336594336878224E-1   -1.177981294043632E-1
 8.116253660900000E9     5.054097307157750E-1    3.920431576550118E-2    3.796019109342828E-4    3.507930504543274E-3    4.228601268867609E-4    3.569506275097948E-3    4.334748960569499E-1   -1.183050404760384E-1
 8.116260316450000E9     5.054164536014075E-1    3.871687314261198E-2    3.583566870152799E-4    3.537943778693642E-3    4.333413777154960E-4    3.587511508113802E-3    4.334505190248411E-1   -1.186465486360249E-1
 8.116266972000000E9     5.055588810594468E-1    3.813616957690449E-2    3.820983944700919E-4    3.525867701806015E-3    4.456739319168231E-4    3.543265395894549E-3    4.331284732713994E-1   -1.191801969316212E-1
 8.116273627550000E9     5.056025995346389E-1    3.773713131006177E-2    3.766209209145687E-4    3.544788125020658E-3    4.488680989779537E-4    3.561830358637855E-3    4.331969111106767E-1   -1.197431300168743E-1
 8.116280283100000E9     5.055293510783729E-1    3.723121807664436E-2    3.991233279802129E-4    3.511984496298958E-3    4.492667139263366E-4    3.585410554770534E-3    4.330531564030828E-1   -1.201583040989238E-1
 8.116286938650000E9     5.056694604397932E-1    3.670726924604998E-2    3.817727578479510E-4    3.542613700626430E-3    4.255314108683711E-4    3.575331971106454E-3    4.330700660889857E-1   -1.204785600715459E-1
 8.116293594200000E9     5.057121913237408E-1    3.620267894865765E-2    3.899610126385475E-4    3.531478463362912E-3    4.358997252470518E-4    3.590057404888687E-3    4.329178606692017E-1   -1.211083234784339E-1
 8.116300249750000E9     5.056465566019390E-1    3.571620345921005E-2    3.796530340242619E-4    3.527415024980451E-3    4.757123924043668E-4    3.582885417733624E-3    4.327509036429384E-1   -1.215289094773925E-1
 8.116306905300000E9     5.056519344013312E-1    3.532577210872971E-2    4.069738381678613E-4    3.533751026110579E-3    4.749606217269966E-4    3.555393317841671E-3    4.326052668752492E-1   -1.217962682475260E-1
 8.116313560850000E9     5.057668494690155E-1    3.451695928610589E-2    3.857380453135205E-4    3.546527399723491E-3    4.817031427616359E-4    3.586973420351228E-3    4.325869092507324E-1   -1.223505793627625E-1
 8.116320216400000E9     5.057080062352290E-1    3.429534062700972E-2    4.018694210540604E-4    3.538242032261307E-3    4.426315404405313E-4    3.554217733122691E-3    4.324755760616783E-1   -1.227452945289611E-1
 8.116326871950000E9     5.057325002623462E-1    3.367419445231681E-2    3.781066347151354E-4    3.538672462606399E-3    4.737514688538864E-4    3.574945812738210E-3    4.322565173435802E-1   -1.232531884591531E-1
 8.116333527500000E9     5.057829308490080E-1    3.318299042213429E-2    4.352611475839176E-4    3.527562672191556E-3    4.624779434597031E-4    3.584400345223092E-3    4.321641829699515E-1   -1.236503325272992E-1
 8.116340183050000E9     5.059038191158638E-1    3.264509834159472E-2    4.442482917358956E-4    3.520380339624975E-3    4.822307663546452E-4    3.580654738330142E-3    4.321445898180936E-1   -1.242728167014373E-1
 8.116346838600000E9     5.058207920890230E-1    3.229006025660928E-2    4.171585888005325E-4    3.525624157917815E-3    5.020168590677002E-4    3.611310403698502E-3    4.321155875811607E-1   -1.245685490018518E-1
 8.116353494150000E9     5.059160644746877E-1    3.174532145621685E-2    4.258067668522515E-4    3.540458173658078E-3    4.748252204549272E-4    3.604834530242575E-3    4.319221557402649E-1   -1.250563985455465E-1
 8.116360149700000E9     5.058982692971979E-1    3.119691976314341E-2    4.346152173443917E-4    3.571327020445852E-3    5.140854824943814E-4    3.635308018634742E-3    4.318212091912579E-1   -1.255566914885159E-1
 8.116366805250000E9     5.058533397423466E-1    3.062421683257811E-2    4.200956682001158E-4    3.543403827713853E-3    5.146513495511173E-4    3.595325110062986E-3    4.316318286929505E-1   -1.259379417058298E-1
 8.116373460800000E9     5.057804558431113E-1    3.024918009440003E-2    4.302256433499955E-4    3.548857859653605E-3    5.203818405672772E-4    3.622077061506714E-3    4.315699108472844E-1   -1.264296428987036E-1
 8.116380116350000E9     5.059879207593254E-1    2.963467750954897E-2    4.380748490621989E-4    3.544898681291228E-3    5.266542525289486E-4    3.624076329938156E-3    4.314898665946834E-1   -1.268380629969956E-1
 8.116386771900000E9     5.059984751254616E-1    2.927275074340909E-2    4.682408909424838E-4    3.589702731292256E-3    5.135685588940564E-4    3.593413287919789E-3    4.312498724838809E-1   -1.272826621796360E-1
 8.116393427450000E9     5.060148741269427E-1    2.870624162652343E-2    4.509634633605885E-4    3.569745729599354E-3    4.857004840066681E-4    3.599212918511766E-3    4.312847275367366E-1   -1.278119132149287E-1
 8.116400083000000E9     5.060608425308525E-1    2.822618387288862E-2    4.376849031731411E-4    3.581019756322819E-3    4.982635267839002E-4    3.617851023455506E-3    4.310080866671602E-1   -1.282117668569290E-1
 8.116406738550000E9     5.061285398645321E-1    2.773418501227280E-2    4.721192505279081E-4    3.583106356693599E-3    5.277081309593688E-4    3.621753378161278E-3    4.310544018586548E-1   -1.287215350650399E-1
 8.116413394100000E9     5.059834194108010E-1    2.716608787239481E-2    4.684731301320976E-4    3.578333736925242E-3    5.359300544299008E-4    3.619287333129099E-3    4.309658561711962E-1   -1.292364823122765E-1
 8.116420049650000E9     5.059533534823928E-1    2.677277949799620E-2    4.813656748017089E-4    3.567483436544040E-3    5.001745376572067E-4    3.635493702572624E-3    4.307274346751137E-1   -1.295089880056782E-1
 8.116426705200000E9     5.060636661372407E-1    2.623590953416029E-2    4.684443349321568E-4    3.577030118055113E-3    4.909529974289749E-4    3.593740138650239E-3    4.305768867986065E-1   -1.300822334514011E-1
 8.116433360750000E9     5.060907720376497E-1    2.568298842007356E-2    4.706866468673149E-4    3.584968995696818E-3    5.502162293175729E-4    3.657360659044483E-3    4.305047177613454E-1   -1.304070021278023E-1
 8.116440016300000E9     5.061175331557074E-1    2.521638737251555E-2    4.962616110500275E-4    3.606034355333190E-3    5.359242929498116E-4    3.631089812941286E-3    4.303189821751231E-1   -1.308775245332689E-1
 8.116446671850000E9     5.061579078902624E-1    2.479603594837768E-2    4.784141958716906E-4    3.560772672398188E-3    5.568047143958844E-4    3.629268485580454E-3    4.303813183897440E-1   -1.313806901562924E-1
 8.116453327400000E9     5.060866717399425E-1    2.409692690124537E-2    5.013643656181791E-4    3.556081575298427E-3    5.744268175832679E-4    3.580200498502831E-3    4.300666230907699E-1   -1.319116169749721E-1
 8.116459982950000E9     5.061913844990675E-1    2.358598764882659E-2    5.019798129556117E-4    3.572552663902195E-3    5.494613043451884E-4    3.631278638283464E-3    4.300159019238151E-1   -1.322834810312584E-1
 8.116466638500000E9     5.062446185004144E-1    2.318922646279640E-2    5.102575121023143E-4    3.578707906121922E-3    5.874193722447396E-4    3.642191580623544E-3    4.297874303008465E-1   -1.325625700262701E-1
 8.116473294050000E9     5.062825611757842E-1    2.274717991434780E-2    5.041761328156435E-4    3.583399180068058E-3    5.668914118078409E-4    3.598101762367971E-3    4.296852821938820E-1   -1.331849485437692E-1
 8.116479949600000E9     5.060878200253095E-1    2.225607093932501E-2    5.010319434619364E-4    3.586246357790972E-3    5.568805377299190E-4    3.656203609470428E-3    4.297991352987975E-1   -1.336365075296251E-1
 8.116486605150000E9     5.061524189122668E-1    2.157287454348894E-2    5.118496790333034E-4    3.581895017871782E-3    5.893784733647395E-4    3.647012319802014E-3    4.295757234209648E-1   -1.340675274759514E-1
 8.116493260700000E9     5.062451244555930E-1    2.120710815787738E-2    5.061367111608532E-4    3.589029881641535E-3    5.616427120430186E-4    3.637891531202838E-3    4.295294417455977E-1   -1.345951724733383E-1
 8.116499916250000E9     5.061245127005092E-1    2.052899654952443E-2    5.166107977358572E-4    3.587842467803228E-3    5.620462701421925E-4    3.650092903320882E-3    4.292133356498926E-1   -1.349294460898529E-1
 8.116506571800000E9     5.062643565357119E-1    2.016139124109626E-2    5.409679163232657E-4    3.584436566764606E-3    6.077759809356378E-4    3.657894771056603E-3    4.291516984675293E-1   -1.353145319340970E-1
 8.116513227350000E9     5.062107291002319E-1    1.971479210520500E-2    5.494003390703985E-4    3.578616012868565E-3    5.770132804524329E-4    3.636932656922894E-3    4.290982002011133E-1   -1.357850794305127E-1
 8.116519882900000E9     5.062474107906275E-1    1.914872755166097E-2    5.486841727882958E-4    3.598126117860676E-3    6.245090556599537E-4    3.629885040844008E-3    4.288663426971336E-1   -1.363064681012008E-1
 8.116526538450000E9     5.062797007351881E-1    1.862519056073230E-2    5.394055276919585E-4    3.594427660247080E-3    5.911840633341190E-4    3.658279799216544E-3    4.287866065261513E-1   -1.365653786191521E-1
 8.116533194000000E9     5.063208148322319E-1    1.824661214232135E-2    5.755499806315009E-4    3.603779728685782E-3    5.795336828647499E-4    3.661313098094389E-3    4.287552021113571E-1   -1.371590876944110E-1
 8.116539849550000E9     5.062741531671809E-1    1.759756184062303E-2    5.567333851943850E-4    3.619507000885212E-3    6.006137907184701E-4    3.655176313748094E-3    4.285182373041056E-1   -1.374839468907792E-1
 8.116546505100000E9     5.063292833746809E-1    1.721211241454269E-2    5.458804510170331E-4    3.585011002810609E-3    6.178570173740876E-4    3.642450165928629E-3    4.283357971192889E-1   -1.380824177510546E-1
 8.116553160650000E9     5.062210882926046E-1    1.659019824192711E-2    5.488811988975356E-4    3.612377938201217E-3    5.974671228043332E-4    3.655047946154774E-3    4.283707209650402E-1   -1.384271336087986E-1
 8.116559816200000E9     5.062257461192818E-1    1.616729069336469E-2    5.424837477217966E-4    3.608776104902873E-3    6.416243035135208E-4    3.680120850855128E-3    4.283777958385687E-1   -1.389698208000859E-1
 8.116566471750000E9     5.063116177214355E-1    1.557763213847080E-2    5.623482246353239E-4    3.617721020407386E-3    6.438716371140865E-4    3.650083411303313E-3    4.281270223257438E-1   -1.394078568204538E-1
 8.116573127300000E9     5.063378285725246E-1    1.507743283517417E-2    5.625142589370657E-4    3.604047452940316E-3    5.957286486677430E-4    3.664051964026724E-3    4.278695137886000E-1   -1.398994498173118E-1
 8.116579782850000E9     5.063480512803245E-1    1.461133164706801E-2    5.689129780444750E-4    3.613971143044652E-3    6.270739321442264E-4    3.683784593319030E-3    4.276853131121585E-1   -1.403156384326346E-1
 8.116586438400000E9     5.062462802772383E-1    1.406334565495184E-2    5.956333594628395E-4    3.625461246764020E-3    6.477410994351576E-4    3.667212347788234E-3    4.276235971759983E-1   -1.406889357505634E-1
 8.116593093950000E9     5.063359520849092E-1    1.355097071377027E-2    5.794902762710587E-4    3.610278826699515E-3    6.473468016311677E-4    3.652954455112710E-3    4.273849010689614E-1   -1.412705134163089E-1
 8.116599749500000E9     5.062976109866962E-1    1.306974995602831E-2    5.954278978006002E-4    3.614527588645858E-3    6.579228833907186E-4    3.656565294217548E-3    4.274822478316311E-1   -1.417328731376766E-1
 8.116606405050000E9     5.063866880304567E-1    1.258356951231922E-2    6.015343006253270E-4    3.601235404784753E-3    6.736415638465495E-4    3.687150658467656E-3    4.272536091556308E-1   -1.420670133699857E-1
 8.116613060600000E9     5.063859594671092E-1    1.217003165346216E-2    6.040224334448771E-4    3.621923004587080E-3    6.798561282932804E-4    3.654275381015162E-3    4.271333394258193E-1   -1.426330141537005E-1
 8.116619716150000E9     5.063089514166097E-1    1.160420403687645E-2    6.148821191875710E-4    3.639681228061906E-3    6.533098271108458E-4    3.660799311212889E-3    4.271583721667687E-1   -1.429950582263019E-1
 8.116626371700000E9     5.064413771432057E-1    1.109050041075119E-2    6.043706312886780E-4    3.653770465837442E-3    6.832022841673056E-4    3.681597149229734E-3    4.268430372698149E-1   -1.433492340639694E-1
 8.116633027250000E9     5.062918781359308E-1    1.055919974957599E-2    6.220545935817534E-4    3.636746285605291E-3    6.642937142410090E-4    3.681259714271854E-3    4.267488726261877E-1   -1.437952988755744E-1
 8.116639682800000E9     5.063651667981830E-1    1.008945820006479E-2    6.133783883251658E-4    3.633319627556181E-3    6.828707275780084E-4    3.703222109443031E-3    4.266640600278976E-1   -1.442033919260094E-1
 8.116646338350000E9     5.063649338056109E-1    9.461662473966051E-3    6.411449770009982E-4    3.654581945967037E-3    6.676028538052990E-4    3.681206591386565E-3    4.265730031912648E-1   -1.447955215783468E-1
 8.116652993900000E9     5.062089443690044E-1    9.165873792409565E-3    6.172608940495432E-4    3.621759182916645E-3    6.974313073539387E-4    3.681203907168757E-3    4.264496060652831E-1   -1.451679043247671E-1
 8.116659649450000E9     5.063261667176174E-1    8.604774509738459E-3    6.410470719389685E-4    3.658983546222946E-3    6.812382848964171E-4    3.685540068558380E-3    4.261743913175584E-1   -1.455778404127380E-1
 8.116666305000000E9     5.062850407168838E-1    7.991259859474083E-3    6.398343115626802E-4    3.641137552652568E-3    6.859550849564329E-4    3.714491435250257E-3    4.261668884366165E-1   -1.460177002233290E-1
 8.116672960550000E9     5.063008166367120E-1    7.593186369619685E-3    6.382875541757451E-4    3.652978382982678E-3    6.996698006724553E-4    3.683321502858063E-3    4.260994447096434E-1   -1.465047941651402E-1
 8.116679616100000E9     5.063446580239647E-1    6.989306207308592E-3    6.479178708122968E-4    3.627129234778462E-3    7.070620846811988E-4    3.706569345908333E-3    4.258212076923184E-1   -1.469829203138762E-1
 8.116686271650000E9     5.063919364360476E-1    6.502855776617195E-3    6.516412121902555E-4    3.637315836298271E-3    7.121804944551835E-4    3.700369526199313E-3    4.258731051414864E-1   -1.473301457167377E-1
 8.116692927200000E9     5.063909882496562E-1    5.962614280308792E-3    6.598661446615663E-4    3.658339683880718E-3    7.321761994673509E-4    3.708107222041731E-3    4.255604306929013E-1   -1.478706162836131E-1
 8.116699582750000E9     5.063602530320170E-1    5.559706696395190E-3    6.532219557242381E-4    3.655133064243640E-3    7.125320656858600E-4    3.703240968596391E-3    4.253652599896968E-1   -1.482112552575929E-1
 8.116706238300000E9     5.062523694979025E-1    5.059082461898712E-3    6.596986645268937E-4    3.652770090166749E-3    7.158904586977742E-4    3.669669453176592E-3    4.253984035718930E-1   -1.485103784695982E-1
 8.116712893850000E9     5.063081738905332E-1    4.471437049363635E-3    6.565239245610793E-4    3.652633709144548E-3    7.265050231040171E-4    3.726634881410766E-3    4.250774995057148E-1   -1.492292377377709E-1
 8.116719549400000E9     5.062608321164224E-1    4.072792466920448E-3    6.716463233706926E-4    3.670277872869019E-3    7.232197638634700E-4    3.715475682659624E-3    4.250321401646568E-1   -1.496319077675500E-1
 8.116726204950000E9     5.063331644369795E-1    3.479912107999449E-3    6.763914400113658E-4    3.674373782724083E-3    7.505408860812352E-4    3.717206924835376E-3    4.249033975727014E-1   -1.500165255659586E-1
 8.116732860500000E9     5.062621676629664E-1    2.907611965652871E-3    7.009650604980671E-4    3.683064832134577E-3    7.780653032621373E-4    3.729591173533294E-3    4.248328917584260E-1   -1.504184978956261E-1
