#  HZ   S   RI   R     50.00 
! Rohde & Schwarz Vector Network Analyzer 
! Rohde-Schwarz,ZNB20-2Port,1311601062101988,3.16
! Created: UTC 3/20/2024, 11:53:37 AM
! freq[Hz]                re:S11                  im:S11                  re:S21                  im:S21                  re:S12                  im:S12                  re:S22                  im:S22
 8.116156464000000E9     5.050621686232932E-1    4.658873856089076E-2    3.269259099726452E-4    3.511976615013148E-3    3.828599530226927E-4    3.552891111187298E-3    4.348609257663621E-1   -1.117583747761771E-1
 8.116163023050000E9     5.049703609305364E-1    4.618072894101644E-2    3.062082146101291E-4    3.478103109504353E-3    4.044653227907821E-4    3.542933361733485E-3    4.350104186272001E-1   -1.122782637129549E-1
 8.116169582100000E9     5.050272919906532E-1    4.555405499537586E-2    3.196056521089142E-4    3.492601364030591E-3    3.903443321155896E-4    3.574667212114443E-3    4.347578857789234E-1   -1.127665586911722E-1
 8.116176141150000E9     5.049671815569212E-1    4.514724253716762E-2    3.014916231910813E-4    3.482789205489660E-3    3.513548921229668E-4    3.566446667674000E-3    4.346957086154132E-1   -1.130527114279126E-1
 8.116182700200000E9     5.051040938055835E-1    4.467768080293189E-2    3.451422970458023E-4    3.515752697247874E-3    3.795106139678857E-4    3.527272826330242E-3    4.346417044070515E-1   -1.135477791460439E-1
 8.116189259250000E9     5.051069576665623E-1    4.403653305002384E-2    3.566528228018968E-4    3.524373283850103E-3    3.681153005308463E-4    3.571835288277805E-3    4.345409599422305E-1   -1.140564349344973E-1
 8.116195818300000E9     5.051948156657861E-1    4.370231243638224E-2    3.023063300390642E-4    3.499101593665490E-3    4.072311933303966E-4    3.550638821432444E-3    4.343695404341226E-1   -1.143831008859897E-1
 8.116202377350000E9     5.052373435072866E-1    4.315392444877487E-2    3.411759904043564E-4    3.522356459786579E-3    3.996640220130694E-4    3.554884192383643E-3    4.343237536760196E-1   -1.148223846601741E-1
 8.116208936400000E9     5.052619066473549E-1    4.269861807822018E-2    3.297599548885949E-4    3.527381378322017E-3    4.105888110269021E-4    3.582876615381182E-3    4.343028830672490E-1   -1.152388648810558E-1
 8.116215495450000E9     5.053092778475978E-1    4.213507944992741E-2    3.644652549738078E-4    3.517883157549526E-3    4.318471409215285E-4    3.553707614169132E-3    4.340862635170997E-1   -1.156568095114894E-1
 8.116222054500000E9     5.054071278031331E-1    4.166256936763992E-2    3.538788503773143E-4    3.501456679439359E-3    4.081502794300094E-4    3.597733058926203E-3    4.341033562390918E-1   -1.160995781139170E-1
 8.116228613550000E9     5.053282402722560E-1    4.107993274126664E-2    3.425384397423580E-4    3.533417335245010E-3    4.008197168618217E-4    3.563045889781791E-3    4.339075757927304E-1   -1.165658595035387E-1
 8.116235172600000E9     5.054251047478957E-1    4.066639957546750E-2    3.714884770075803E-4    3.518475333397528E-3    4.555185738795192E-4    3.573896663996378E-3    4.338350478470668E-1   -1.170639155183743E-1
 8.116241731650000E9     5.054581073458614E-1    4.024210052222817E-2    3.454216422775396E-4    3.540912322285456E-3    4.412066076228588E-4    3.582137868934283E-3    4.336764172893238E-1   -1.175622458542149E-1
 8.116248290700000E9     5.054393907116612E-1    3.966043088077035E-2    3.678957975126352E-4    3.526395851903103E-3    4.397063502063819E-4    3.579732442547803E-3    4.337342944226051E-1   -1.179536175817463E-1
 8.116254849750000E9     5.054066106511935E-1    3.917082080824270E-2    3.605879540128309E-4    3.547530017347137E-3    4.348335375717141E-4    3.604803938026846E-3    4.335965888851079E-1   -1.185170520317455E-1
 8.116261408800000E9     5.054576830716496E-1    3.870760425174578E-2    3.664555621297353E-4    3.529406103716528E-3    4.388527635703178E-4    3.603562016328497E-3    4.334590118038781E-1   -1.188033799759032E-1
 8.116267967850000E9     5.054869709671448E-1    3.826412830601637E-2    3.638743221297660E-4    3.541251595826248E-3    4.619978566031576E-4    3.580852446062860E-3    4.333502870528727E-1   -1.193284689432299E-1
 8.116274526900000E9     5.055433214676642E-1    3.779852688020276E-2    3.778183255187000E-4    3.534975891756689E-3    4.132187759252723E-4    3.544037640270429E-3    4.330952847633205E-1   -1.197358351921264E-1
 8.116281085950000E9     5.054801716306303E-1    3.719898056632737E-2    4.054449191969640E-4    3.539515247412739E-3    4.523658980187749E-4    3.583597925031071E-3    4.330767402177768E-1   -1.202042127424743E-1
 8.116287645000000E9     5.055716319053652E-1    3.668175237413027E-2    3.830189126561667E-4    3.547545452319947E-3    4.295294262239896E-4    3.602573063240000E-3    4.329499701401479E-1   -1.207210593115709E-1
 8.116294204050000E9     5.056515921849601E-1    3.619851518091628E-2    4.342083178693308E-4    3.535829311379423E-3    4.652175188605355E-4    3.612345522755985E-3    4.328470690447180E-1   -1.211758080529625E-1
 8.116300763100000E9     5.057048496383151E-1    3.568801873806809E-2    3.908782268886134E-4    3.538996085515223E-3    4.864772108866750E-4    3.605379792547004E-3    4.327030863378741E-1   -1.214935462756965E-1
 8.116307322150000E9     5.057313425621267E-1    3.518510371184870E-2    3.965927771502043E-4    3.537072489930609E-3    4.381763815113584E-4    3.597542101527507E-3    4.326353338407827E-1   -1.218456090229394E-1
 8.116313881200000E9     5.057270277439931E-1    3.475415250331938E-2    4.151214048520689E-4    3.524692363945027E-3    4.106170418254872E-4    3.594654451849466E-3    4.325585519146170E-1   -1.224223276546462E-1
 8.116320440250000E9     5.057301195842987E-1    3.420481406038452E-2    4.139862452953552E-4    3.553516113537452E-3    4.729030806376450E-4    3.575920113787931E-3    4.324399043401738E-1   -1.229056696429994E-1
 8.116326999300000E9     5.057801383093038E-1    3.372916540496976E-2    4.311317558145816E-4    3.537307269031724E-3    4.735142532037931E-4    3.603374552579573E-3    4.322553367004612E-1   -1.233947400765091E-1
 8.116333558350000E9     5.058715079581935E-1    3.317776112427673E-2    3.999800482359492E-4    3.548201324476625E-3    4.981652844398105E-4    3.575484420719081E-3    4.321027488038269E-1   -1.237714259595563E-1
 8.116340117400000E9     5.058684399565461E-1    3.267816644508792E-2    4.187130000140984E-4    3.543882365532403E-3    4.689492548696670E-4    3.596234230138630E-3    4.321026879799113E-1   -1.240802086251892E-1
 8.116346676450000E9     5.058334005574867E-1    3.232715789597639E-2    4.183825214993556E-4    3.553380885004757E-3    5.197333568056948E-4    3.577604662344358E-3    4.320456038639532E-1   -1.245518409127263E-1
 8.116353235500000E9     5.059693978680737E-1    3.178386163618466E-2    4.375719711801833E-4    3.570413947776565E-3    4.999198470368338E-4    3.609672237763877E-3    4.320108749486464E-1   -1.250813167975796E-1
 8.116359794550000E9     5.058200318859486E-1    3.125091631126389E-2    4.306985802524902E-4    3.534771916675519E-3    4.719986454912355E-4    3.590845006909218E-3    4.318583306404853E-1   -1.254164941434492E-1
 8.116366353600000E9     5.059111713445620E-1    3.081932875252207E-2    4.393438957257171E-4    3.527342051951305E-3    4.944236515942534E-4    3.597593355762500E-3    4.315129671128040E-1   -1.259130832809105E-1
 8.116372912650000E9     5.060169798824072E-1    3.028759249526936E-2    4.452612503864471E-4    3.558939453302575E-3    4.803294921330447E-4    3.584899082812348E-3    4.315858385786092E-1   -1.263659666140915E-1
 8.116379471700000E9     5.059220261220458E-1    2.983175447159294E-2    4.682261207798237E-4    3.556110851786725E-3    5.102654660187108E-4    3.600648918699248E-3    4.315755919426559E-1   -1.267956800292113E-1
 8.116386030750000E9     5.060661422784906E-1    2.928775777821999E-2    4.563490672581193E-4    3.552054841005662E-3    4.992897949326320E-4    3.592476890854299E-3    4.313889336617395E-1   -1.272303214082970E-1
 8.116392589800000E9     5.058950248234934E-1    2.870985419951626E-2    4.689120308812940E-4    3.586036066274512E-3    5.231935403580406E-4    3.597117539600260E-3    4.311220274778900E-1   -1.277647062207191E-1
 8.116399148850000E9     5.059271519792322E-1    2.829374618811264E-2    4.463140336040133E-4    3.565203394413970E-3    4.987707473372096E-4    3.596095262268076E-3    4.311864864660978E-1   -1.281122124459664E-1
 8.116405707900000E9     5.059608150094710E-1    2.783995624584057E-2    4.555528305376274E-4    3.553477805072977E-3    5.271901096344151E-4    3.623891088977062E-3    4.309499692802383E-1   -1.284779449403596E-1
 8.116412266950000E9     5.059575370513313E-1    2.741125147403135E-2    4.408469155828702E-4    3.602957719914838E-3    4.885203446667311E-4    3.600205198245741E-3    4.309334435638232E-1   -1.289097682379044E-1
 8.116418826000000E9     5.060413044170682E-1    2.687756899291320E-2    4.571977853614475E-4    3.579248237289221E-3    5.427020565413213E-4    3.641570207251041E-3    4.308046951855057E-1   -1.294930812210684E-1
 8.116425385050000E9     5.060469615604015E-1    2.626105121832842E-2    4.736191307574505E-4    3.569452601869348E-3    5.223562260239545E-4    3.613527997794944E-3    4.306667719187684E-1   -1.299993884519725E-1
 8.116431944100000E9     5.060865547906627E-1    2.587434310716540E-2    4.895805397892127E-4    3.594717345361037E-3    5.559595966829456E-4    3.631498079459355E-3    4.305240358539926E-1   -1.303634543131829E-1
 8.116438503150000E9     5.060694187547270E-1    2.531862996390249E-2    4.583614083093991E-4    3.580485468155666E-3    5.467643138464320E-4    3.640543636952505E-3    4.304991217466972E-1   -1.307982065377660E-1
 8.116445062200000E9     5.061110252316793E-1    2.478912401087711E-2    4.865570696338640E-4    3.588566617113649E-3    5.422658177311998E-4    3.592952440500025E-3    4.302931208263324E-1   -1.312710928704140E-1
 8.116451621250000E9     5.061392207885422E-1    2.435194229206998E-2    4.814610834523489E-4    3.565163594430306E-3    5.703460268582942E-4    3.642188387579821E-3    4.302385143093318E-1   -1.317469256927957E-1
 8.116458180300000E9     5.061563567867066E-1    2.372548306462158E-2    5.043807968689386E-4    3.547632707588047E-3    5.416270073337106E-4    3.625988946659147E-3    4.301237088422440E-1   -1.320996024058450E-1
 8.116464739350000E9     5.061270610338763E-1    2.331872708703351E-2    4.958284303192961E-4    3.582157364050350E-3    5.686059643244948E-4    3.597809704466398E-3    4.298316827480634E-1   -1.325569699035974E-1
 8.116471298400000E9     5.061484723687396E-1    2.290126750877428E-2    5.030363990213032E-4    3.589916845765688E-3    5.702413176411256E-4    3.625032328533575E-3    4.298994215253696E-1   -1.330553224934637E-1
 8.116477857450000E9     5.061110442061216E-1    2.242952386755393E-2    5.023571377167260E-4    3.585410261978499E-3    5.646707556700799E-4    3.637596891364038E-3    4.297156177037001E-1   -1.334033546383252E-1
 8.116484416500000E9     5.061679048184743E-1    2.186172519124186E-2    4.879663417200406E-4    3.585882360365768E-3    5.746224959871320E-4    3.655564480573625E-3    4.297655465012947E-1   -1.339802591315452E-1
 8.116490975550000E9     5.061795293503404E-1    2.141873656363438E-2    5.356210153484972E-4    3.579557996496438E-3    5.660218139780891E-4    3.643943063082066E-3    4.294430508082641E-1   -1.343828522360073E-1
 8.116497534600000E9     5.062531877929419E-1    2.085651575496306E-2    5.372973757724870E-4    3.568754476555419E-3    5.834599569447967E-4    3.623410686399768E-3    4.294567889825893E-1   -1.348191412073516E-1
 8.116504093650000E9     5.063391833742037E-1    2.034583454162006E-2    5.177763856601194E-4    3.580428190896944E-3    5.906225717827832E-4    3.630372677269353E-3    4.292219173923818E-1   -1.352124237036692E-1
 8.116510652700000E9     5.062727662260680E-1    1.986945514659352E-2    5.185431538669024E-4    3.584195639819522E-3    5.837423070271549E-4    3.640685756411004E-3    4.291978196257357E-1   -1.356181749938388E-1
 8.116517211750000E9     5.062853957675020E-1    1.932996028116262E-2    5.322410935883494E-4    3.602674981333924E-3    5.531458452218042E-4    3.677245057420553E-3    4.289194275647882E-1   -1.361971112258429E-1
 8.116523770800000E9     5.062823549707804E-1    1.887263180835892E-2    5.546539965524788E-4    3.585805359244563E-3    5.886454814309239E-4    3.646113927978905E-3    4.288558723393442E-1   -1.364774749455344E-1
 8.116530329850000E9     5.062830198091792E-1    1.842979176096668E-2    5.562098696075434E-4    3.592768166011115E-3    6.202928468933693E-4    3.618651670951670E-3    4.288499448442094E-1   -1.370578795351537E-1
 8.116536888900000E9     5.062514188085044E-1    1.797098376029064E-2    5.405008330048935E-4    3.583168034137831E-3    6.010087843155754E-4    3.653977235291237E-3    4.287586182368840E-1   -1.372902553298894E-1
 8.116543447950000E9     5.063108826041904E-1    1.745280140691728E-2    5.457383108650169E-4    3.607509630019363E-3    5.995873351907820E-4    3.647269199538364E-3    4.284915186446682E-1   -1.378934898291927E-1
 8.116550007000000E9     5.062697413772257E-1    1.685972020768527E-2    5.728455118438997E-4    3.622364082004729E-3    6.030433672066355E-4    3.666631557790552E-3    4.283952361338595E-1   -1.381655435070932E-1
 8.116556566050000E9     5.062452996998311E-1    1.628921911103215E-2    5.814294688170044E-4    3.594310162324109E-3    6.245068796312716E-4    3.647673625125990E-3    4.282452692749451E-1   -1.387801196738647E-1
 8.116563125100000E9     5.063172493262095E-1    1.602811157035147E-2    5.609438098167830E-4    3.594517800856068E-3    6.280254893128189E-4    3.652474406366822E-3    4.281358358348347E-1   -1.391287457799457E-1
 8.116569684150000E9     5.063778612867914E-1    1.540659079232587E-2    5.815320431081607E-4    3.589580155527627E-3    6.356453795753431E-4    3.635496567284557E-3    4.280259389352403E-1   -1.395526859683370E-1
 8.116576243200000E9     5.064008610888829E-1    1.493143545093672E-2    5.895340609323074E-4    3.619232903210154E-3    6.354410393871782E-4    3.647744733629051E-3    4.278487196835330E-1   -1.401251062323389E-1
 8.116582802250000E9     5.062458394883637E-1    1.442205413119152E-2    5.785491830126835E-4    3.599887235769642E-3    6.158067765204700E-4    3.655802355355355E-3    4.276434659683700E-1   -1.405257596646914E-1
 8.116589361300000E9     5.064133190208390E-1    1.402254195514995E-2    5.872813690192383E-4    3.627942025904127E-3    6.503446592175370E-4    3.632585342290484E-3    4.277488479024253E-1   -1.407996385703398E-1
 8.116595920350000E9     5.062890048688602E-1    1.345854923909553E-2    5.944136572704334E-4    3.605516260411386E-3    6.375385287240106E-4    3.680768500801514E-3    4.275210971487731E-1   -1.415118410031675E-1
 8.116602479400000E9     5.062603344444407E-1    1.294137883214263E-2    5.780838626860381E-4    3.633987804709658E-3    6.569535528619644E-4    3.663925531627274E-3    4.273189766410355E-1   -1.419142955251887E-1
 8.116609038450000E9     5.062183892119702E-1    1.253555136770842E-2    6.139535362821070E-4    3.639697846950547E-3    6.477196478282415E-4    3.656231288494140E-3    4.270846031146572E-1   -1.423811800571650E-1
 8.116615597500000E9     5.062674347826526E-1    1.184267010103655E-2    6.216259296361340E-4    3.640544005581005E-3    7.114078422580371E-4    3.674124731580004E-3    4.272232389613512E-1   -1.427300550308045E-1
 8.116622156550000E9     5.063010164612038E-1    1.147858201186178E-2    6.254202026924942E-4    3.651419865509683E-3    6.760195388345278E-4    3.727425756258199E-3    4.270837859338844E-1   -1.430389104959816E-1
 8.116628715600000E9     5.063309494451139E-1    1.096935472896389E-2    6.448008020222375E-4    3.649344422726698E-3    6.470227367208990E-4    3.710599260050568E-3    4.269257253485150E-1   -1.436434762470207E-1
 8.116635274650000E9     5.062388340728139E-1    1.034880600286339E-2    6.109065136914761E-4    3.631669466069217E-3    7.014138087351061E-4    3.701532448137399E-3    4.267415966267837E-1   -1.439587571887549E-1
 8.116641833700000E9     5.063452050028402E-1    9.999148358612077E-3    6.366910627476532E-4    3.655229952483336E-3    6.636598214090116E-4    3.691368628981876E-3    4.266921682611819E-1   -1.444529772382933E-1
 8.116648392750000E9     5.063026661636943E-1    9.408739157126053E-3    6.209172021187148E-4    3.632640922890379E-3    6.807669235832660E-4    3.676023300944642E-3    4.266273136657787E-1   -1.448599342751828E-1
 8.116654951800000E9     5.063550053678177E-1    9.009968515041324E-3    6.407998527054333E-4    3.636805531032724E-3    7.025883086181797E-4    3.683869751116202E-3    4.265131446853875E-1   -1.452452782057616E-1
 8.116661510850000E9     5.064481189337753E-1    8.492324379650147E-3    6.398165223309195E-4    3.655855144148495E-3    6.982230546071305E-4    3.690783081423283E-3    4.262736796768783E-1   -1.456418362967483E-1
 8.116668069900000E9     5.063314996655086E-1    7.976101169669403E-3    6.327290653630022E-4    3.656141202981879E-3    6.740792260582218E-4    3.697806431056580E-3    4.260382090864767E-1   -1.460791899514235E-1
 8.116674628950000E9     5.064015742527316E-1    7.416024730983324E-3    6.546662369888698E-4    3.655689865789229E-3    6.806103424878639E-4    3.706650471557253E-3    4.259843309593022E-1   -1.467014359728610E-1
 8.116681188000000E9     5.063135653606590E-1    6.936160903142501E-3    6.568894673568314E-4    3.684462355896869E-3    6.951069755913493E-4    3.715405226654273E-3    4.260088578332744E-1   -1.469909984260075E-1
 8.116687747050000E9     5.063562691910435E-1    6.448005206335296E-3    6.654278576081078E-4    3.640531184065797E-3    7.058215633467305E-4    3.680509352903933E-3    4.256742183056560E-1   -1.474728838500478E-1
 8.116694306100000E9     5.062734508222039E-1    5.910788228315485E-3    6.640952431753718E-4    3.668083187571660E-3    7.526407740944789E-4    3.723600845021041E-3    4.254854784141763E-1   -1.480082995145509E-1
 8.116700865150000E9     5.063449572268203E-1    5.531112129339937E-3    6.601443757356777E-4    3.681641865474491E-3    7.213991583067496E-4    3.722092675645823E-3    4.254309397271970E-1   -1.483886749603530E-1
 8.116707424200000E9     5.062262800404610E-1    4.807586266178636E-3    6.674924074292270E-4    3.648086912404570E-3    7.505813569315668E-4    3.716755856922753E-3    4.253413079381709E-1   -1.487192272257957E-1
 8.116713983250000E9     5.062910176440262E-1    4.392016468200856E-3    6.860308629138822E-4    3.682720230206969E-3    7.308270199712961E-4    3.736393135276361E-3    4.253163848129899E-1   -1.491695519023382E-1
 8.116720542300000E9     5.062234120438087E-1    3.928227300588699E-3    6.786506123376344E-4    3.679901232374617E-3    7.384917177251079E-4    3.731280218482407E-3    4.251583340158173E-1   -1.497138712123697E-1
 8.116727101350000E9     5.062997358554269E-1    3.408240657367260E-3    6.819647731588916E-4    3.661417469170771E-3    7.438191034543948E-4    3.714337634155836E-3    4.249032706468285E-1   -1.500973835399128E-1
 8.116733660400000E9     5.062526940358910E-1    2.997192509505206E-3    6.972322378918403E-4    3.682041292431842E-3    7.450047053882257E-4    3.730264663760868E-3    4.247639003769803E-1   -1.506552054561669E-1
 8.116740219450000E9     5.061885737317753E-1    2.411935112727068E-3    6.964296093113330E-4    3.657828895626958E-3    7.605776007570487E-4    3.721191940970769E-3    4.246768508164900E-1   -1.509953501192737E-1
 8.116746778500000E9     5.062737091156729E-1    1.855154093495088E-3    7.265635640735339E-4    3.674383031395990E-3    7.431808398228357E-4    3.729708195383367E-3    4.245429659261886E-1   -1.513336622286209E-1
