#  HZ   S   RI   R     50.00 
! Rohde & Schwarz Vector Network Analyzer 
! Rohde-Schwarz,ZNB20-2Port,1311601062101988,3.16
! Created: UTC 3/20/2024, 11:53:59 AM
! freq[Hz]                re:S11                  im:S11                  re:S21                  im:S21                  re:S12                  im:S12                  re:S22                  im:S22
 8.116202903000000E9     5.052377141995614E-1    4.321577065701736E-2    3.524468931220095E-4    3.556772987232092E-3    3.829443228512794E-4    3.567766343708141E-3    4.343366289151470E-1   -1.150112377152362E-1
 8.116209281575000E9     5.052980094947495E-1    4.274135301778361E-2    3.516748606011944E-4    3.519232399012027E-3    4.120652823074262E-4    3.565707189950790E-3    4.342785462632173E-1   -1.153171995493480E-1
 8.116215660150000E9     5.053111542518023E-1    4.216175976296093E-2    3.609065108583548E-4    3.533637038543121E-3    3.804227114472052E-4    3.592371095385564E-3    4.341576756944102E-1   -1.157430498592434E-1
 8.116222038725000E9     5.052089610535041E-1    4.165853004272166E-2    3.799206802421493E-4    3.515062048213035E-3    4.100209351786347E-4    3.563102083535583E-3    4.339207888050826E-1   -1.161759803675066E-1
 8.116228417300000E9     5.054432520357605E-1    4.124629188062823E-2    3.461344357780371E-4    3.540997665169134E-3    4.018369469410013E-4    3.582759815445103E-3    4.339243397129570E-1   -1.166520763730928E-1
 8.116234795875000E9     5.054023819734597E-1    4.081830363958437E-2    3.818927550632597E-4    3.512120471884306E-3    4.137711548596503E-4    3.597435310955696E-3    4.338465679631198E-1   -1.171845725035387E-1
 8.116241174450000E9     5.053880699921790E-1    4.023811426131232E-2    3.749708082107622E-4    3.531317728997226E-3    3.957594112950250E-4    3.584593277376551E-3    4.336646801941537E-1   -1.175722397982873E-1
 8.116247553025000E9     5.053695894497010E-1    3.980883176103406E-2    3.683327932233958E-4    3.523451574065008E-3    4.095295287258596E-4    3.583630914559483E-3    4.336996451281415E-1   -1.178916645304460E-1
 8.116253931600000E9     5.054579991477421E-1    3.927088139110913E-2    3.549815036031806E-4    3.531444007161231E-3    4.391520192573037E-4    3.587543544382696E-3    4.335854219314678E-1   -1.182615036954885E-1
 8.116260310175000E9     5.054523574957073E-1    3.877520405405484E-2    3.712142171497766E-4    3.516814517062327E-3    4.331591981766933E-4    3.563324398282601E-3    4.334883672268922E-1   -1.186014639833998E-1
 8.116266688750000E9     5.055366000770192E-1    3.835762665809071E-2    3.891022968674493E-4    3.532585878719268E-3    4.339834844563008E-4    3.551168177978132E-3    4.332616984169960E-1   -1.192521116477671E-1
 8.116273067325000E9     5.055721451360526E-1    3.790145600370239E-2    3.781519397580782E-4    3.518245404386368E-3    4.575250769696611E-4    3.553885416207684E-3    4.330969378033083E-1   -1.196317408070577E-1
 8.116279445900000E9     5.055084156463431E-1    3.735139054493131E-2    3.777441675477448E-4    3.548646568176766E-3    4.643133805343058E-4    3.588266255057487E-3    4.332109117508501E-1   -1.201603904601251E-1
 8.116285824475000E9     5.055908532871942E-1    3.693749878189977E-2    4.062294868432524E-4    3.534087975056110E-3    4.562891676822038E-4    3.582671859966166E-3    4.331388036447526E-1   -1.205488963975050E-1
 8.116292203050000E9     5.054865117140130E-1    3.633912173631767E-2    3.726898005424788E-4    3.517898370082693E-3    4.472639272114657E-4    3.551963653391220E-3    4.329109073313668E-1   -1.210178284054347E-1
 8.116298581625000E9     5.056387905221802E-1    3.587937154780254E-2    3.767187308812827E-4    3.523094221467341E-3    4.755143831544476E-4    3.589666689799445E-3    4.328299744296389E-1   -1.215095743415716E-1
 8.116304960200000E9     5.056236783616175E-1    3.542634553452680E-2    3.826515817333001E-4    3.526915684745786E-3    4.629661269703661E-4    3.588105523703031E-3    4.327784084050389E-1   -1.217747453525828E-1
 8.116311338775000E9     5.057844628384516E-1    3.499738334918712E-2    4.348928146992531E-4    3.544064786709890E-3    4.858030383841882E-4    3.593824390424842E-3    4.325250599290589E-1   -1.222657355533752E-1
 8.116317717350000E9     5.056928360195886E-1    3.455533934922738E-2    4.121057956449314E-4    3.549295089727467E-3    4.672657303878391E-4    3.559005105104913E-3    4.325283980154335E-1   -1.227745667935131E-1
 8.116324095925000E9     5.057749498895842E-1    3.406941948234963E-2    4.253549721548269E-4    3.528674255845225E-3    4.840634504458545E-4    3.596459848858485E-3    4.324854479520561E-1   -1.230684199812013E-1
 8.116330474500000E9     5.058710572228053E-1    3.354790892797675E-2    4.267226640392080E-4    3.551332837319354E-3    4.894584794512641E-4    3.588014978242814E-3    4.322959097215011E-1   -1.236839833945654E-1
 8.116336853075000E9     5.057481527565056E-1    3.299016609354398E-2    4.146515126523455E-4    3.556267498622049E-3    4.683514605064965E-4    3.592793187586269E-3    4.322820533165188E-1   -1.239747121335462E-1
 8.116343231650000E9     5.058703710544143E-1    3.251722740003786E-2    4.225752360729570E-4    3.555666702969551E-3    4.685615891185508E-4    3.572416625136058E-3    4.321423888102459E-1   -1.244168917065206E-1
 8.116349610225000E9     5.058918720572670E-1    3.196814488859737E-2    4.498337585162311E-4    3.547687420471480E-3    4.995439053444590E-4    3.580054045540986E-3    4.319714703751764E-1   -1.247963489146315E-1
 8.116355988800000E9     5.060755313368659E-1    3.152792370841750E-2    4.115541449275672E-4    3.536651964618487E-3    4.911942369825981E-4    3.584516886787192E-3    4.318889900055800E-1   -1.252151485444608E-1
 8.116362367375000E9     5.059564425648714E-1    3.109009551379333E-2    4.193984213487330E-4    3.548621616041330E-3    4.681908542998697E-4    3.600808940963237E-3    4.318163758376911E-1   -1.255292978388380E-1
 8.116368745950000E9     5.060427911366767E-1    3.056503698967237E-2    4.388562372706484E-4    3.555839390901316E-3    4.752903627102427E-4    3.595710567837892E-3    4.316709005392056E-1   -1.260646440621095E-1
 8.116375124525000E9     5.059010048237822E-1    3.017662658640849E-2    4.459004892449442E-4    3.535566659386087E-3    5.196096030829990E-4    3.598788501082569E-3    4.315988813610974E-1   -1.265854727260698E-1
 8.116381503100000E9     5.058990560016863E-1    2.962788379714177E-2    4.432959959239650E-4    3.562667195705620E-3    4.932387094966231E-4    3.620478673179170E-3    4.314726365852607E-1   -1.269526274791673E-1
 8.116387881675000E9     5.060563958494926E-1    2.921271484778294E-2    4.545320433319152E-4    3.534398744732326E-3    4.930607631345667E-4    3.594166389743505E-3    4.314242461038919E-1   -1.273771751399258E-1
 8.116394260250000E9     5.059648904253733E-1    2.865934002067807E-2    4.608912443480890E-4    3.559469270692229E-3    5.061570243443962E-4    3.589338149694681E-3    4.312182922855666E-1   -1.278017584230985E-1
 8.116400638825000E9     5.061096045400413E-1    2.825184852429428E-2    4.636255217916189E-4    3.569682930999740E-3    5.296160875016013E-4    3.603180750683272E-3    4.309727341768164E-1   -1.283076689184537E-1
 8.116407017400000E9     5.060947761606892E-1    2.761974987964369E-2    4.509634083557015E-4    3.573829776419613E-3    5.266169736301514E-4    3.632533034999587E-3    4.310422547266941E-1   -1.286635930860953E-1
 8.116413395975000E9     5.060146027995350E-1    2.738256775799051E-2    4.565809243361399E-4    3.560191911261367E-3    5.329273772100110E-4    3.592476330723928E-3    4.308225580118910E-1   -1.290363080538482E-1
 8.116419774550000E9     5.060445933451527E-1    2.680001895605398E-2    4.652280768198048E-4    3.548930042523683E-3    5.535631702682048E-4    3.587291401149146E-3    4.306956565818075E-1   -1.294406849573438E-1
 8.116426153125000E9     5.060963009546692E-1    2.633680818729043E-2    4.796545763176765E-4    3.567857935913431E-3    5.385314363671510E-4    3.638863975187881E-3    4.305982997037669E-1   -1.299550025975338E-1
 8.116432531700000E9     5.060178469752133E-1    2.578989419562951E-2    4.578506593416318E-4    3.548281255431981E-3    5.210921321401308E-4    3.619978518378954E-3    4.305997730573761E-1   -1.304210882383984E-1
 8.116438910275000E9     5.061073853823987E-1    2.534785549528861E-2    4.476447586232885E-4    3.563362777151863E-3    5.076718470036359E-4    3.620285783291290E-3    4.303210107065132E-1   -1.308446124788952E-1
 8.116445288850000E9     5.062430433655556E-1    2.488397210799679E-2    4.898735332795404E-4    3.578096703517845E-3    5.743674379960290E-4    3.636871521169172E-3    4.302638640012598E-1   -1.311455126865382E-1
 8.116451667425000E9     5.061484108296358E-1    2.437145389828133E-2    4.794280497510653E-4    3.576869205717928E-3    5.645708227188751E-4    3.630682895636649E-3    4.301947785367420E-1   -1.317324548250972E-1
 8.116458046000000E9     5.062471433817489E-1    2.380807022623932E-2    4.973627426242738E-4    3.565377954846016E-3    5.693339896743273E-4    3.633500430213552E-3    4.301954797848278E-1   -1.321188023891872E-1
 8.116464424575000E9     5.062569353528975E-1    2.345069979039247E-2    5.045106943977098E-4    3.556574426385926E-3    5.510353052583297E-4    3.606604535804292E-3    4.299448465447779E-1   -1.324018896643760E-1
 8.116470803150000E9     5.061340898326054E-1    2.292469187974983E-2    5.068187804782631E-4    3.584999452767716E-3    5.585551800183661E-4    3.646290209416676E-3    4.298598142888553E-1   -1.329225938424168E-1
 8.116477181725000E9     5.062664958061222E-1    2.249892986879612E-2    5.052142973651724E-4    3.571502023361582E-3    5.469163976220337E-4    3.630629699017935E-3    4.297192985904512E-1   -1.333177187156856E-1
 8.116483560300000E9     5.061586990736756E-1    2.187227209835498E-2    4.836136750645469E-4    3.577570244015390E-3    5.553888271684637E-4    3.667961599137316E-3    4.296105241987601E-1   -1.338311189909500E-1
 8.116489938875000E9     5.061921098039193E-1    2.148636376331904E-2    5.030908747532011E-4    3.568458955639089E-3    6.009653979901150E-4    3.622231000583114E-3    4.293764842189343E-1   -1.342991259544920E-1
 8.116496317450000E9     5.061858331408308E-1    2.094053238878525E-2    5.324612430453716E-4    3.581816368332045E-3    5.868232133108420E-4    3.635529863932401E-3    4.293487619518436E-1   -1.346784372853601E-1
 8.116502696025000E9     5.062536593878100E-1    2.045774555308795E-2    5.226104251568645E-4    3.587390397707351E-3    5.687842180869128E-4    3.641153748778654E-3    4.291684908694863E-1   -1.350244802450769E-1
 8.116509074600000E9     5.062252122472687E-1    1.989962400290188E-2    5.318483698933001E-4    3.573357429975129E-3    6.074295815894364E-4    3.667255751634206E-3    4.292598536678695E-1   -1.355311242540455E-1
 8.116515453175000E9     5.063127506081637E-1    1.954968334522466E-2    5.445611243871050E-4    3.565866845627405E-3    5.917732512260680E-4    3.627915119990579E-3    4.291452876801082E-1   -1.359186945513566E-1
 8.116521831750000E9     5.062802225284203E-1    1.914868052222517E-2    5.246272323551907E-4    3.556073653046508E-3    5.929306834006387E-4    3.667501430131623E-3    4.289797773484600E-1   -1.364917044261988E-1
 8.116528210325000E9     5.062492974081553E-1    1.858249798426209E-2    5.418142167045901E-4    3.598040947807028E-3    5.806392906700910E-4    3.641009262538630E-3    4.288281234878547E-1   -1.368604680319659E-1
 8.116534588900000E9     5.063007545106575E-1    1.813374905185425E-2    5.427651952288596E-4    3.582814567510489E-3    5.841421427248525E-4    3.656087570557705E-3    4.287068301482200E-1   -1.372341350723890E-1
 8.116540967475000E9     5.063505562779694E-1    1.757456615329001E-2    5.638209692254686E-4    3.606536415633883E-3    6.068338900124835E-4    3.647375259881345E-3    4.284952388556699E-1   -1.377485534423313E-1
 8.116547346050000E9     5.062877756666242E-1    1.722583545757797E-2    5.462215611439839E-4    3.617649235905856E-3    6.289077799505571E-4    3.626189848137757E-3    4.285068276586709E-1   -1.379806336714025E-1
 8.116553724625000E9     5.062836463528148E-1    1.672251036838079E-2    5.393331543525303E-4    3.601527080428488E-3    6.643746811736907E-4    3.636153103863890E-3    4.284568214519285E-1   -1.385654849419349E-1
 8.116560103200000E9     5.063972694288567E-1    1.614652735294193E-2    5.694259696473026E-4    3.585864716191384E-3    6.013379007696321E-4    3.671826349251930E-3    4.282692493744368E-1   -1.390526104073608E-1
 8.116566481775000E9     5.063402283594910E-1    1.562482649525448E-2    5.757392714442694E-4    3.599993750189358E-3    6.232189359161459E-4    3.663750049378033E-3    4.282096839126350E-1   -1.394139300819477E-1
 8.116572860350000E9     5.063679583008296E-1    1.528353397401652E-2    5.860601253470630E-4    3.620795127010294E-3    6.422978892773578E-4    3.671180940800706E-3    4.281043430783374E-1   -1.398837573202933E-1
 8.116579238925000E9     5.063641743531968E-1    1.459195125432192E-2    5.623929340362199E-4    3.595606465799596E-3    6.089716504387999E-4    3.657877000986684E-3    4.279588851120770E-1   -1.401961788041276E-1
 8.116585617500000E9     5.063831898764074E-1    1.417743231546340E-2    5.735888529302054E-4    3.613491241770107E-3    6.543929754466763E-4    3.661006268602804E-3    4.278238919802165E-1   -1.406500392089670E-1
 8.116591996075000E9     5.064184419952948E-1    1.371267861530439E-2    5.977617184911695E-4    3.609868054594136E-3    6.219348046198231E-4    3.638759606628166E-3    4.276980768210862E-1   -1.411852270752920E-1
 8.116598374650000E9     5.064361669649811E-1    1.321794943975686E-2    6.060501067956608E-4    3.617226496605012E-3    6.525415101798184E-4    3.682273356348960E-3    4.274667617184666E-1   -1.414443414483030E-1
 8.116604753225000E9     5.063865153528281E-1    1.273331821836778E-2    5.925633139822907E-4    3.600901020775932E-3    6.465756693941479E-4    3.685912952693801E-3    4.273292657407050E-1   -1.419353170402549E-1
 8.116611131800000E9     5.064323396068499E-1    1.229134225907724E-2    5.806007414814792E-4    3.632413308835203E-3    6.475747527708951E-4    3.696948560762420E-3    4.272598135255040E-1   -1.423391820259199E-1
 8.116617510375000E9     5.063301209069665E-1    1.170625138326112E-2    5.791796439431115E-4    3.643408194009497E-3    6.540671745902685E-4    3.698121185707625E-3    4.271768649813725E-1   -1.428842017383855E-1
 8.116623888950000E9     5.063486816079130E-1    1.131933447524246E-2    6.038065738715932E-4    3.603508299850326E-3    6.569531338368168E-4    3.681991421219277E-3    4.270274858808196E-1   -1.432762462637550E-1
 8.116630267525000E9     5.063803893724030E-1    1.077834883515232E-2    6.109225270599865E-4    3.646239593895136E-3    6.743784227419941E-4    3.686362164498277E-3    4.268398174983042E-1   -1.435537750333476E-1
 8.116636646100000E9     5.063543732649145E-1    1.037738633496180E-2    6.284762961920180E-4    3.620165210168451E-3    6.692426375022288E-4    3.672994550401960E-3    4.268176921250155E-1   -1.441022055326290E-1
 8.116643024675000E9     5.063626538718223E-1    9.806799092317669E-3    6.019143433968494E-4    3.650267561709654E-3    6.760466484196363E-4    3.701681933006609E-3    4.266200857137732E-1   -1.446004510031705E-1
 8.116649403250000E9     5.064112922770466E-1    9.354802397684225E-3    6.285344763766463E-4    3.634713239862854E-3    6.811602235814207E-4    3.669956507684150E-3    4.264644422742763E-1   -1.449699022413721E-1
 8.116655781825000E9     5.064075529814671E-1    8.836025887997439E-3    6.179279405324195E-4    3.620913044699198E-3    6.734628020639977E-4    3.709758372605928E-3    4.264301307794058E-1   -1.453502722507411E-1
 8.116662160400000E9     5.063188369933451E-1    8.434270912926379E-3    6.359853567106482E-4    3.653579163469181E-3    6.781990987504890E-4    3.676710746468562E-3    4.262869160649214E-1   -1.458288487652058E-1
 8.116668538975000E9     5.062130174867771E-1    7.965292818900651E-3    6.365094317808385E-4    3.655884603455267E-3    6.965448894444733E-4    3.707580950843805E-3    4.259527412057139E-1   -1.461245577379733E-1
 8.116674917550000E9     5.062512131316719E-1    7.538438363783639E-3    6.447420108488861E-4    3.664776234732684E-3    7.034444107224725E-4    3.699823950221686E-3    4.259747063145377E-1   -1.465874302956492E-1
 8.116681296125000E9     5.063453652689746E-1    6.915343118764045E-3    6.699132285508685E-4    3.636771091234915E-3    7.059982316758689E-4    3.687632757245702E-3    4.257710908471385E-1   -1.470522810541019E-1
 8.116687674700000E9     5.063363160607592E-1    6.492868190852325E-3    6.581097203928931E-4    3.665886004093339E-3    7.140838460632392E-4    3.725955152794390E-3    4.258040246081422E-1   -1.474456253456978E-1
 8.116694053275000E9     5.063260310528485E-1    6.090370324258030E-3    6.550875447303462E-4    3.661144672042015E-3    7.004520863580992E-4    3.730303884558560E-3    4.256911926974902E-1   -1.477587011123100E-1
 8.116700431850000E9     5.063033310623135E-1    5.467102196075684E-3    6.745225833674602E-4    3.679452522927291E-3    7.233450382349483E-4    3.721289530031711E-3    4.254007291029492E-1   -1.482260017867432E-1
 8.116706810425000E9     5.063947626152084E-1    4.938193439605735E-3    6.445733146722758E-4    3.660772675336235E-3    6.994187550420114E-4    3.722632147617094E-3    4.252861357413024E-1   -1.486715931605478E-1
 8.116713189000000E9     5.063008061009651E-1    4.561610051272359E-3    6.704306704545026E-4    3.644106717329753E-3    7.104583404826639E-4    3.680405119190649E-3    4.251961841896804E-1   -1.492424632114887E-1
 8.116719567575000E9     5.063093784888087E-1    4.007859770168165E-3    6.676214559789900E-4    3.639844023331929E-3    7.179822541366783E-4    3.694835935757123E-3    4.251347136645228E-1   -1.496357355956574E-1
 8.116725946150000E9     5.062973783821336E-1    3.646228660443985E-3    6.734958371225815E-4    3.668041697736416E-3    7.271894863677962E-4    3.745945811785222E-3    4.250257444249533E-1   -1.500694466476142E-1
 8.116732324725000E9     5.062574736787108E-1    3.116870340334096E-3    6.859602914948521E-4    3.679852699271857E-3    7.564494592912608E-4    3.709036500664425E-3    4.248521173917105E-1   -1.503875332234415E-1
 8.116738703300000E9     5.063194356569926E-1    2.613103199385577E-3    7.094015639219603E-4    3.685434455989286E-3    7.242720106025001E-4    3.757332124626240E-3    4.245829799474040E-1   -1.509928727927926E-1
 8.116745081875000E9     5.063244363907583E-1    2.097609310240726E-3    7.017245669114878E-4    3.670650262472206E-3    7.488222613253874E-4    3.756816066222329E-3    4.246050942589213E-1   -1.510855928189766E-1
 8.116751460450000E9     5.062582782057586E-1    1.582417316582037E-3    7.160938185058825E-4    3.679594569477458E-3    7.669781933877182E-4    3.761013782714803E-3    4.243686326981660E-1   -1.515736503745353E-1
 8.116757839025000E9     5.062754058688375E-1    1.009337612003413E-3    7.041021187854966E-4    3.687569280318746E-3    7.538582521544919E-4    3.729097784811515E-3    4.242714010059279E-1   -1.520493709793335E-1
 8.116764217600000E9     5.062440159750092E-1    7.178102865162101E-4    6.987794554995821E-4    3.703320189619069E-3    7.693312988826070E-4    3.751050760049549E-3    4.240507629409045E-1   -1.525087554021834E-1
 8.116770596175000E9     5.062007242296672E-1    2.073872527289717E-4    7.124115320485804E-4    3.679135083678009E-3    7.613275883283508E-4    3.777157911449025E-3    4.240397274327201E-1   -1.530500196355609E-1
 8.116776974750000E9     5.062602431550589E-1   -4.068902639367793E-4    7.252364059545823E-4    3.697843315508188E-3    7.704953717356235E-4    3.736990900543981E-3    4.238804477069342E-1   -1.534517176847714E-1
