#  HZ   S   RI   R     50.00 
! Rohde & Schwarz Vector Network Analyzer 
! Rohde-Schwarz,ZNB20-2Port,1311601062101988,3.16
! Created: UTC 3/20/2024, 11:54:06 AM
! freq[Hz]                re:S11                  im:S11                  re:S21                  im:S21                  re:S12                  im:S12                  re:S22                  im:S22
 8.116206616000000E9     5.052741897273937E-1    4.284057678184126E-2    3.367293998264933E-4    3.547198729092967E-3    3.710719148419880E-4    3.568493570964209E-3    4.345307928828410E-1   -1.151806902065231E-1
 8.116212986900000E9     5.053155639009830E-1    4.241371163862375E-2    3.417986251596473E-4    3.517122842188000E-3    4.269401108246875E-4    3.556556395382446E-3    4.340706190348583E-1   -1.156048305543741E-1
 8.116219357800000E9     5.053413929347721E-1    4.194649217401770E-2    3.656696855566844E-4    3.518021860271290E-3    4.164128220557954E-4    3.577816717821400E-3    4.340964318106974E-1   -1.160614795481135E-1
 8.116225728700000E9     5.054787135290603E-1    4.143300051618524E-2    3.731252132134553E-4    3.531411043461812E-3    3.914237492215751E-4    3.568858541811386E-3    4.340334555045265E-1   -1.163536073992834E-1
 8.116232099600000E9     5.052824117918765E-1    4.104364336584043E-2    3.691905473424245E-4    3.527826399670307E-3    4.074526372206143E-4    3.581315942439342E-3    4.338793904479403E-1   -1.169178577055692E-1
 8.116238470500000E9     5.053876335394821E-1    4.053022936749789E-2    3.928439952682874E-4    3.508152888098935E-3    4.178069195528605E-4    3.587485530782863E-3    4.338473557653975E-1   -1.172582234301842E-1
 8.116244841400000E9     5.054710505980212E-1    3.997997843891089E-2    3.512469781139528E-4    3.518248083806489E-3    4.357512474924266E-4    3.573528925377153E-3    4.336292854687216E-1   -1.177605479033364E-1
 8.116251212300000E9     5.053991087651859E-1    3.944546522802628E-2    3.791555558241401E-4    3.549077832796579E-3    4.168277298674276E-4    3.571427022571799E-3    4.337369491842647E-1   -1.181721808464580E-1
 8.116257583200000E9     5.054839066157515E-1    3.900603908542510E-2    3.759388329846217E-4    3.546344879241224E-3    4.371452829469118E-4    3.559811128748863E-3    4.335583929951952E-1   -1.184976505682548E-1
 8.116263954100000E9     5.056214846167297E-1    3.848368891627271E-2    3.938008819863841E-4    3.508450147779598E-3    4.059767647770190E-4    3.564655166399065E-3    4.333853306968551E-1   -1.190609459076478E-1
 8.116270325000000E9     5.055364517505649E-1    3.797845475301478E-2    3.710232219764541E-4    3.550475736156231E-3    4.113398267439386E-4    3.585680059832639E-3    4.333957630845982E-1   -1.195443556130201E-1
 8.116276695900000E9     5.056614202621258E-1    3.762448773339636E-2    4.285450128741632E-4    3.525948039003402E-3    4.262292917515061E-4    3.617582430695559E-3    4.332624171138167E-1   -1.199138242223904E-1
 8.116283066800000E9     5.055925109204468E-1    3.697324965127921E-2    3.745961514084175E-4    3.504786244720927E-3    4.664073191774563E-4    3.564472829637962E-3    4.331021437187418E-1   -1.203474929451843E-1
 8.116289437700000E9     5.056561283702000E-1    3.671095506628687E-2    4.314016615234425E-4    3.522304589943936E-3    4.620925763786157E-4    3.605756400465834E-3    4.328651374458024E-1   -1.207828559502797E-1
 8.116295808600000E9     5.057475322874014E-1    3.613149280335422E-2    3.954016748918200E-4    3.543846363074495E-3    4.736369987919439E-4    3.589263186789981E-3    4.328970603870517E-1   -1.211941834715742E-1
 8.116302179500000E9     5.057095634437518E-1    3.568723934604629E-2    4.226464005024757E-4    3.535563304816750E-3    4.507330371024852E-4    3.595376906202024E-3    4.327956116713491E-1   -1.218333056614535E-1
 8.116308550400000E9     5.056432360703823E-1    3.516429415095729E-2    3.972603882486085E-4    3.546815015629454E-3    4.745366523304570E-4    3.578597506043666E-3    4.327105254361260E-1   -1.219349291270051E-1
 8.116314921300000E9     5.057123708580089E-1    3.468613574832628E-2    3.805344532373685E-4    3.537199861237001E-3    4.695814405809619E-4    3.600518629407073E-3    4.325620512272529E-1   -1.224542399095928E-1
 8.116321292200000E9     5.059292069008041E-1    3.427229845696253E-2    4.112607602945867E-4    3.542716520663527E-3    4.382065165150938E-4    3.607052826170535E-3    4.325026927889632E-1   -1.228205216127866E-1
 8.116327663100000E9     5.057503762210670E-1    3.371034795334247E-2    3.910663111285889E-4    3.517531219635142E-3    4.854696445994805E-4    3.603895537372134E-3    4.323500687262768E-1   -1.233257485302691E-1
 8.116334034000000E9     5.058449092978303E-1    3.322429752159799E-2    3.892910610109587E-4    3.529205416191544E-3    4.977808967943468E-4    3.587378943084719E-3    4.322989198310049E-1   -1.236882161108662E-1
 8.116340404900000E9     5.058459297863088E-1    3.273462076821254E-2    4.198224549139274E-4    3.561505285462859E-3    4.600035643956523E-4    3.597913903661200E-3    4.321256169080050E-1   -1.240969201606386E-1
 8.116346775800000E9     5.058561535026206E-1    3.222008434468331E-2    4.179188596815789E-4    3.528646769144421E-3    4.846843072093308E-4    3.638466345175542E-3    4.319989308307278E-1   -1.245640395836330E-1
 8.116353146700000E9     5.058634419587513E-1    3.172474700899998E-2    4.120061834344568E-4    3.564474130963841E-3    4.970881123856689E-4    3.615522652662938E-3    4.319987593846137E-1   -1.251293648205858E-1
 8.116359517600000E9     5.059306312829946E-1    3.129143577311550E-2    4.350003098294448E-4    3.552494148867756E-3    4.912749185860533E-4    3.603586536531114E-3    4.318924379673401E-1   -1.255638514475108E-1
 8.116365888500000E9     5.059422915233571E-1    3.076030964122201E-2    4.310786415215205E-4    3.524324211363329E-3    4.805914456895126E-4    3.619341713544675E-3    4.316386267217357E-1   -1.258176306627331E-1
 8.116372259400000E9     5.059936093878542E-1    3.040485524641818E-2    4.311049161460797E-4    3.557040213637255E-3    4.585210540098252E-4    3.582301797426302E-3    4.316806706619672E-1   -1.263712032947193E-1
 8.116378630300000E9     5.058939549850466E-1    2.984941601412303E-2    4.488607857997957E-4    3.543299866249118E-3    5.159594175405474E-4    3.593285537841384E-3    4.313731885575182E-1   -1.267057501292740E-1
 8.116385001200000E9     5.059191926884068E-1    2.930201715854049E-2    4.606595017675220E-4    3.530110171284479E-3    5.059259503204864E-4    3.614409843650016E-3    4.313823938787493E-1   -1.273051211478655E-1
 8.116391372100000E9     5.060415407450535E-1    2.898408561934725E-2    4.716311438841915E-4    3.579000044142803E-3    5.253976613635635E-4    3.584247132772319E-3    4.314416278087759E-1   -1.275853633893264E-1
 8.116397743000000E9     5.060560174540230E-1    2.838326318000623E-2    4.659168362220443E-4    3.552898675109669E-3    5.145196309737836E-4    3.593641038418273E-3    4.313911272198557E-1   -1.280466224654572E-1
 8.116404113900000E9     5.060507572395133E-1    2.792503655989141E-2    4.627840229375997E-4    3.544925444395892E-3    4.897087526437874E-4    3.611066313300425E-3    4.310781690238043E-1   -1.285026498040471E-1
 8.116410484800000E9     5.059753612591993E-1    2.759729341468162E-2    4.664485188377058E-4    3.547589231690987E-3    5.464228412869759E-4    3.621338112860947E-3    4.310442034396630E-1   -1.290123603784155E-1
 8.116416855700000E9     5.060921396604943E-1    2.689989468550561E-2    4.971214426684307E-4    3.554326127353786E-3    4.897834192348677E-4    3.601299941528485E-3    4.308021265471484E-1   -1.294038828481624E-1
 8.116423226600000E9     5.060569268736682E-1    2.651557967737214E-2    4.651394569846424E-4    3.560098083570432E-3    5.327263052055306E-4    3.636778047169815E-3    4.308215427507182E-1   -1.297814729903014E-1
 8.116429597500000E9     5.059418900505576E-1    2.610017634689901E-2    4.927925260439790E-4    3.562397955949162E-3    5.479723567566137E-4    3.651408161672292E-3    4.306739582514841E-1   -1.301699235080180E-1
 8.116435968400000E9     5.061030382364879E-1    2.551151296138986E-2    4.668516621270321E-4    3.577983909546305E-3    5.369192026699444E-4    3.622694868344526E-3    4.305484974396944E-1   -1.306340820423545E-1
 8.116442339300000E9     5.061093106321686E-1    2.518687468033285E-2    4.891545275988350E-4    3.555497168792273E-3    4.947404091874949E-4    3.632699449118632E-3    4.303920466981618E-1   -1.311168141257611E-1
 8.116448710200000E9     5.061212104185417E-1    2.460201795433951E-2    5.077558353349978E-4    3.572890633919721E-3    5.336059207917557E-4    3.600042403399024E-3    4.302478249503294E-1   -1.314798356963086E-1
 8.116455081100000E9     5.061101088256503E-1    2.413047451173554E-2    5.067083341943510E-4    3.564321563996988E-3    5.534530946196088E-4    3.629324345994612E-3    4.302234515100588E-1   -1.319386182695365E-1
 8.116461452000000E9     5.062041027597535E-1    2.359092353404613E-2    4.934775757126326E-4    3.576431254358815E-3    5.409587486769306E-4    3.625217062544225E-3    4.300902735257537E-1   -1.323487432338741E-1
 8.116467822900000E9     5.061346651521205E-1    2.325648719664014E-2    4.823367968666423E-4    3.592713164478145E-3    5.639104248155778E-4    3.653590356777291E-3    4.300008243393743E-1   -1.328606722025382E-1
 8.116474193800000E9     5.062183429761871E-1    2.270752767257816E-2    5.042341656401370E-4    3.589522394489644E-3    5.423660073468142E-4    3.621346091676310E-3    4.298572267959379E-1   -1.332366193481061E-1
 8.116480564700000E9     5.062875183044442E-1    2.221350748342200E-2    5.235995779490365E-4    3.557161589802116E-3    5.498428166626126E-4    3.644998069085956E-3    4.296447963863848E-1   -1.335875582893800E-1
 8.116486935600000E9     5.061788218034270E-1    2.169858471070390E-2    5.257955612876799E-4    3.557433735663406E-3    6.083883767790207E-4    3.654488091022163E-3    4.296959389118465E-1   -1.341135133848405E-1
 8.116493306500000E9     5.061723570923715E-1    2.128633133067076E-2    5.135351189459227E-4    3.588183790267778E-3    5.704950970908233E-4    3.613767347193739E-3    4.294548840746807E-1   -1.344226809203605E-1
 8.116499677400000E9     5.062425856997567E-1    2.066557941078506E-2    5.309504686583310E-4    3.581736286781862E-3    6.149441236296806E-4    3.655691741653322E-3    4.293285822382072E-1   -1.348060632459292E-1
 8.116506048300000E9     5.063134144966712E-1    2.035171147160173E-2    5.293355021060463E-4    3.593816467745250E-3    5.509688146142438E-4    3.660910770035972E-3    4.292761563294948E-1   -1.352118155447850E-1
 8.116512419200000E9     5.063152981023452E-1    1.971376327305686E-2    5.151796072311815E-4    3.595574764836112E-3    5.903095904373121E-4    3.649974370845179E-3    4.290625077230950E-1   -1.357255120680130E-1
 8.116518790100000E9     5.062464978720839E-1    1.936014594957130E-2    5.407780537487265E-4    3.583421146831161E-3    6.081299386803858E-4    3.616637471696355E-3    4.291619206857730E-1   -1.362538881008626E-1
 8.116525161000000E9     5.062662969031212E-1    1.887079279975279E-2    5.157959100864326E-4    3.598259896020890E-3    5.831214389509857E-4    3.632725978323531E-3    4.288359072395464E-1   -1.365707209237464E-1
 8.116531531900000E9     5.062977647557313E-1    1.828746841122832E-2    5.462241485379153E-4    3.607336981835079E-3    6.106739761863792E-4    3.653630665971727E-3    4.287811647537526E-1   -1.370380476745063E-1
 8.116537902800000E9     5.063305656397369E-1    1.792779522252467E-2    5.460733053768231E-4    3.593526214927711E-3    6.355217426978089E-4    3.660241808605632E-3    4.286958624779028E-1   -1.374042833005310E-1
 8.116544273700000E9     5.062855870009714E-1    1.744946350501824E-2    5.402168424888079E-4    3.598307212552960E-3    6.025820047595700E-4    3.666082390977092E-3    4.285769132183198E-1   -1.379136706429926E-1
 8.116550644600000E9     5.061661830080012E-1    1.692480120027857E-2    5.301118105428840E-4    3.600737534733407E-3    6.046287923536706E-4    3.688816467043730E-3    4.284089728454460E-1   -1.383875407150826E-1
 8.116557015500000E9     5.063962328981778E-1    1.639960593829986E-2    5.879515664689408E-4    3.609096028512417E-3    6.305204065082627E-4    3.635546562879614E-3    4.282763455001037E-1   -1.387211523232723E-1
 8.116563386400000E9     5.064214849753125E-1    1.598571475775630E-2    5.800629688667217E-4    3.600732831509784E-3    6.260585602234690E-4    3.632054135030505E-3    4.281329658416124E-1   -1.392301143215700E-1
 8.116569757300000E9     5.064283720227448E-1    1.541214705320209E-2    5.926789866422560E-4    3.599726883709644E-3    6.238378529638592E-4    3.650031751410072E-3    4.280637941346669E-1   -1.395849352711247E-1
 8.116576128200000E9     5.063137530051899E-1    1.498127131248108E-2    5.638353173247597E-4    3.589597642726058E-3    6.318004591339461E-4    3.683097343182204E-3    4.279084733474135E-1   -1.399039465721289E-1
 8.116582499100000E9     5.064565443953396E-1    1.449392234661655E-2    5.831605161774045E-4    3.603589796797281E-3    6.777449665854513E-4    3.690723565278875E-3    4.278056912892349E-1   -1.404977040456145E-1
 8.116588870000000E9     5.063218324703581E-1    1.410158567627669E-2    5.892030298681870E-4    3.628853137676993E-3    6.480550301407355E-4    3.663114950830820E-3    4.277187598776279E-1   -1.408521588629076E-1
 8.116595240900000E9     5.064461558057651E-1    1.354807730219346E-2    5.595599553771609E-4    3.607954692216732E-3    6.091567276968455E-4    3.693730177275491E-3    4.276413102372496E-1   -1.412938618369692E-1
 8.116601611800000E9     5.063700787132192E-1    1.297295669966591E-2    6.292766782854827E-4    3.615970472274361E-3    6.247188216697814E-4    3.649559771485365E-3    4.274672732558504E-1   -1.418192239070791E-1
 8.116607982700000E9     5.064281527809272E-1    1.260447650024295E-2    5.689510070847019E-4    3.630024457840620E-3    6.498240291965675E-4    3.696118904177160E-3    4.273800003500031E-1   -1.420863428450754E-1
 8.116614353600000E9     5.063344373265677E-1    1.218401721396421E-2    6.080238379217688E-4    3.648609352237386E-3    6.909583848058740E-4    3.681599929489634E-3    4.272881592985379E-1   -1.426028615092696E-1
 8.116620724500000E9     5.063108609885179E-1    1.160351133361908E-2    6.256964076916798E-4    3.636314793068145E-3    6.658199837761123E-4    3.700880982083180E-3    4.271407557435137E-1   -1.430076278852448E-1
 8.116627095400000E9     5.063118273401738E-1    1.112606924881378E-2    6.189169070316161E-4    3.631036423529422E-3    6.831740420912119E-4    3.683428240948774E-3    4.270452492526392E-1   -1.434958771908630E-1
 8.116633466300000E9     5.063414096485578E-1    1.055641798347536E-2    6.223852739923520E-4    3.653718195803977E-3    6.662873355476451E-4    3.658955470209941E-3    4.269100523688853E-1   -1.438185676200745E-1
 8.116639837200000E9     5.064330281637066E-1    1.009911294316377E-2    6.115085685607999E-4    3.644024036145031E-3    6.546784773958637E-4    3.661220166854118E-3    4.267116223942100E-1   -1.442174283020614E-1
 8.116646208100000E9     5.063841036074345E-1    9.740702558741359E-3    6.188093116292994E-4    3.620918768721188E-3    6.830751022379949E-4    3.676071357590908E-3    4.266316521466116E-1   -1.446657320685223E-1
 8.116652579000000E9     5.063887807889137E-1    9.203925593518233E-3    6.424675172535982E-4    3.618141569062821E-3    7.042047030627927E-4    3.709804834886450E-3    4.265229977656065E-1   -1.451390685796873E-1
 8.116658949900000E9     5.063941712101360E-1    8.650309522857351E-3    6.308372397617246E-4    3.649913126879128E-3    7.013914574691361E-4    3.672291478145259E-3    4.261784332912121E-1   -1.456104870106672E-1
 8.116665320800000E9     5.064447712692182E-1    8.184007332782753E-3    6.195149468694910E-4    3.674178277628891E-3    6.848595676530112E-4    3.667875631103718E-3    4.261417677932157E-1   -1.458381833102945E-1
 8.116671691700000E9     5.064248594290071E-1    7.703255460588084E-3    6.044235415627044E-4    3.663453760210201E-3    7.180494118460064E-4    3.705908857030611E-3    4.260092254134819E-1   -1.462753778266201E-1
 8.116678062600000E9     5.063144811399277E-1    7.208894708652400E-3    6.556021193852656E-4    3.649427970366222E-3    6.981098976034259E-4    3.715014678133583E-3    4.260148901574106E-1   -1.468692981819013E-1
 8.116684433500000E9     5.064530751121330E-1    6.814538011482575E-3    6.523638454540474E-4    3.647986350042697E-3    7.138071490249914E-4    3.706299187118481E-3    4.258052634315010E-1   -1.472942455033516E-1
 8.116690804400000E9     5.064630169401069E-1    6.322447748359908E-3    6.565141120210976E-4    3.659549631908149E-3    6.965063113413060E-4    3.683541219152171E-3    4.256405537032517E-1   -1.476214281261981E-1
 8.116697175300000E9     5.063934592526529E-1    5.836352319402141E-3    6.772837417740956E-4    3.631334862586353E-3    7.203752603573772E-4    3.708940908160645E-3    4.255722604892711E-1   -1.481247705241668E-1
 8.116703546200000E9     5.062934002949081E-1    5.262230892667334E-3    6.590277222891193E-4    3.643041554733418E-3    6.992176010146955E-4    3.704547148020958E-3    4.255089176608144E-1   -1.484331019971588E-1
 8.116709917100000E9     5.063327954355191E-1    4.766072937834438E-3    6.696256465540714E-4    3.696912560677736E-3    7.359522136580421E-4    3.692223637360370E-3    4.253077120173965E-1   -1.490078519110944E-1
 8.116716288000000E9     5.064366856551038E-1    4.425346875525367E-3    6.827257683644788E-4    3.684137913607649E-3    7.220389179904378E-4    3.711576713451842E-3    4.251025513427701E-1   -1.494081947831672E-1
 8.116722658900000E9     5.064114438348394E-1    3.663953979926614E-3    6.697569856363411E-4    3.674164734554781E-3    7.253668847438555E-4    3.720792246376246E-3    4.250390424385369E-1   -1.498445393173042E-1
 8.116729029800000E9     5.063007662932071E-1    3.263501866395952E-3    6.916044095309523E-4    3.662316150854361E-3    7.451181641921961E-4    3.757258362204900E-3    4.249470001675777E-1   -1.503077722909738E-1
 8.116735400700000E9     5.062578212865442E-1    2.775511472327836E-3    7.018288909527032E-4    3.663093997758928E-3    7.251277985685891E-4    3.725144422479144E-3    4.249202596285144E-1   -1.505348726145510E-1
 8.116741771600000E9     5.063169965856095E-1    2.374100828545294E-3    7.004937560475343E-4    3.668587477461516E-3    7.631557359998810E-4    3.724284350223447E-3    4.246382996430011E-1   -1.510812312696868E-1
 8.116748142500000E9     5.063095408000264E-1    1.841678532058121E-3    6.891171493074718E-4    3.679335568392284E-3    7.472174733347030E-4    3.743328727331365E-3    4.245763699213673E-1   -1.515583297047507E-1
 8.116754513400000E9     5.064263107492080E-1    1.382503414701905E-3    7.099679778883098E-4    3.687636890680236E-3    7.675413422473900E-4    3.739982022648605E-3    4.245080892796463E-1   -1.518260030430013E-1
 8.116760884300000E9     5.062754592476844E-1    7.946462119481698E-4    6.916678688924111E-4    3.692092127373121E-3    7.502587015230607E-4    3.738804344970982E-3    4.243357440646050E-1   -1.523808163849675E-1
 8.116767255200000E9     5.062328135975485E-1    3.475680061681819E-4    7.112835551833682E-4    3.693083829511434E-3    7.854757067400041E-4    3.745664768937522E-3    4.241051484333537E-1   -1.527247877125764E-1
 8.116773626100000E9     5.062073522386518E-1   -7.608454765364968E-5    7.143473321591652E-4    3.683121182904043E-3    7.710963494584941E-4    3.780441825879013E-3    4.240602410329303E-1   -1.530670846929622E-1
 8.116779997000000E9     5.061814850321700E-1   -5.553280232942896E-4    7.132434603720016E-4    3.689902448580429E-3    7.864362178403377E-4    3.765371495160690E-3    4.238952072309757E-1   -1.536462559295329E-1
