#  HZ   S   RI   R     50.00 
! Rohde & Schwarz Vector Network Analyzer 
! Rohde-Schwarz,ZNB20-2Port,1311601062101988,3.16
! Created: UTC 3/20/2024, 11:54:53 AM
! freq[Hz]                re:S11                  im:S11                  re:S21                  im:S21                  re:S12                  im:S12                  re:S22                  im:S22
 8.116321295000000E9     5.058221378502114E-1    3.443315459218531E-2    4.077090929082856E-4    3.532114261684348E-3    4.569849307289193E-4    3.594289304991582E-3    4.326051504696961E-1   -1.229089084522544E-1
 8.116327218175000E9     5.059433602162607E-1    3.403492254333213E-2    4.165803222266391E-4    3.511471384165834E-3    4.463906165899188E-4    3.589733078713481E-3    4.325857633202706E-1   -1.232224443928708E-1
 8.116333141350000E9     5.058797804588423E-1    3.354913496705294E-2    4.018752356903303E-4    3.563103511439865E-3    4.876078197711244E-4    3.590705953861941E-3    4.322652355405817E-1   -1.238116099354312E-1
 8.116339064525000E9     5.060784186603137E-1    3.315479588770729E-2    4.251104137373415E-4    3.548235381589377E-3    4.738872486059274E-4    3.612921423241924E-3    4.323500978985356E-1   -1.241009722653878E-1
 8.116344987700000E9     5.059710677980179E-1    3.272957723453837E-2    4.436018044710296E-4    3.550125884987199E-3    4.938223579912601E-4    3.591070009898076E-3    4.319800544241113E-1   -1.244275470339888E-1
 8.116350910875000E9     5.059869813308869E-1    3.214196743638480E-2    4.127431879395556E-4    3.564332149534360E-3    5.251304390538714E-4    3.609334132347984E-3    4.320910581321674E-1   -1.249184593147215E-1
 8.116356834050000E9     5.060235092030886E-1    3.179379809365714E-2    4.390954998153592E-4    3.525470785039351E-3    4.899058541914716E-4    3.573762846781413E-3    4.318620003294389E-1   -1.253145460167122E-1
 8.116362757225000E9     5.059805284973949E-1    3.135823237503179E-2    4.487840094943486E-4    3.520566654157054E-3    4.831034601665372E-4    3.605377721925464E-3    4.318195312388425E-1   -1.257576377023686E-1
 8.116368680400000E9     5.059735682465722E-1    3.089540100440103E-2    4.427895703206491E-4    3.532583630278909E-3    4.768160010727913E-4    3.569179398483661E-3    4.318195259587863E-1   -1.261863086995920E-1
 8.116374603575000E9     5.060970118238612E-1    3.045253064167207E-2    4.420999019398458E-4    3.540830702186411E-3    4.566033203648923E-4    3.590437591381483E-3    4.316486807045467E-1   -1.265677680746955E-1
 8.116380526750000E9     5.060575751354515E-1    2.991160340684121E-2    4.411780801583175E-4    3.531199220201594E-3    4.993561978415187E-4    3.605253190324916E-3    4.315908371515467E-1   -1.268514082771906E-1
 8.116386449925000E9     5.061526126168434E-1    2.953718481958846E-2    4.229308327108435E-4    3.538656878486865E-3    4.959105075938351E-4    3.587087400802723E-3    4.316423628385890E-1   -1.273056165135681E-1
 8.116392373100000E9     5.060682011510862E-1    2.903830172153484E-2    4.612143853569229E-4    3.534103054870441E-3    4.860603946497386E-4    3.602913211223956E-3    4.311914362204318E-1   -1.275783795522045E-1
 8.116398296275000E9     5.061967903914115E-1    2.858353672674690E-2    4.517284656408593E-4    3.557641748513784E-3    5.282479621636444E-4    3.617197979746275E-3    4.312715242545950E-1   -1.281351186398806E-1
 8.116404219450000E9     5.060483951248131E-1    2.812449755790988E-2    4.354979224631576E-4    3.532865145233552E-3    5.040402929643885E-4    3.602032597950550E-3    4.311404345236226E-1   -1.284613598352966E-1
 8.116410142625000E9     5.061631908688236E-1    2.772618527076224E-2    4.747143521962684E-4    3.533781055058029E-3    5.292751300221375E-4    3.584141637094712E-3    4.310930310080884E-1   -1.289469168534889E-1
 8.116416065800000E9     5.062187036565968E-1    2.729563211026379E-2    4.677647145973910E-4    3.567661235867642E-3    5.315927566959832E-4    3.597012308678011E-3    4.308727904180539E-1   -1.293382305843817E-1
 8.116421988975000E9     5.062022177151331E-1    2.686235370596567E-2    5.069319477877215E-4    3.556388164784870E-3    5.348403874485582E-4    3.632495840801447E-3    4.309525414070850E-1   -1.297604299038403E-1
 8.116427912150000E9     5.062065396693332E-1    2.644289381129752E-2    4.584323826387899E-4    3.538718977754259E-3    5.276841225004515E-4    3.632195973049266E-3    4.306912130461593E-1   -1.300489395247648E-1
 8.116433835325000E9     5.062534438038064E-1    2.592874222589293E-2    4.874007066795864E-4    3.542985221283607E-3    5.576742146932042E-4    3.616322684944915E-3    4.305920005561935E-1   -1.305229563472311E-1
 8.116439758500000E9     5.061488455185438E-1    2.548072668711138E-2    4.693296997626067E-4    3.548367012693290E-3    5.374551753958393E-4    3.621905936041381E-3    4.303959049454055E-1   -1.309942613402076E-1
 8.116445681675000E9     5.064434282815043E-1    2.502388416875389E-2    4.717091132008493E-4    3.566954348742365E-3    5.527786166091105E-4    3.625749273087365E-3    4.304429065159865E-1   -1.312401187151122E-1
 8.116451604850000E9     5.063033603011022E-1    2.458833523047282E-2    4.751882982865339E-4    3.561468866517704E-3    5.383890759144479E-4    3.630997890746361E-3    4.302672452643620E-1   -1.317533320997019E-1
 8.116457528025000E9     5.062568758009454E-1    2.415547508727112E-2    4.966472798904185E-4    3.559130465269651E-3    5.480741277623587E-4    3.650625759696539E-3    4.302149022197331E-1   -1.321334877010854E-1
 8.116463451200000E9     5.063878512565526E-1    2.364872772942407E-2    5.176085203633369E-4    3.570058837239248E-3    5.729103674684361E-4    3.629349588143043E-3    4.300627383076053E-1   -1.325518561452973E-1
 8.116469374375000E9     5.063754239956066E-1    2.326532586339412E-2    5.056519541384797E-4    3.571801095688865E-3    5.641177814809681E-4    3.626322262900596E-3    4.300232452116816E-1   -1.328865531019450E-1
 8.116475297550000E9     5.063870481750916E-1    2.264498754465228E-2    4.928431335297193E-4    3.551607521567550E-3    5.646793161362710E-4    3.636539574375098E-3    4.299855078047096E-1   -1.333124684661436E-1
 8.116481220725000E9     5.063043743661177E-1    2.231865090130915E-2    4.982239251580216E-4    3.584465574828448E-3    5.858496599580054E-4    3.640415268568907E-3    4.295986012752281E-1   -1.336355498299534E-1
 8.116487143900000E9     5.063087183042370E-1    2.193962786679935E-2    5.203746242099381E-4    3.578616798484521E-3    5.180536725409371E-4    3.636855783035435E-3    4.296664252753053E-1   -1.340561840056695E-1
 8.116493067075000E9     5.064652208531614E-1    2.138939985181715E-2    5.164063671887488E-4    3.566735966849464E-3    5.918179500453973E-4    3.657301787070335E-3    4.295736220059115E-1   -1.345886906679850E-1
 8.116498990250000E9     5.063150712600314E-1    2.098229701252904E-2    5.187226600025946E-4    3.580948247749319E-3    5.818111609197335E-4    3.642730639755015E-3    4.294137662911506E-1   -1.349376576153619E-1
 8.116504913425000E9     5.063656096727817E-1    2.047436421621665E-2    5.410743104771579E-4    3.572230475952163E-3    5.724549633163490E-4    3.627283523290390E-3    4.292228441123176E-1   -1.352879396446112E-1
 8.116510836600000E9     5.063718281746706E-1    2.019556518593033E-2    5.362376346672261E-4    3.582216972174220E-3    5.771160109930047E-4    3.672872220219954E-3    4.290833868974772E-1   -1.355382814657655E-1
 8.116516759775000E9     5.064163778263747E-1    1.955692663074214E-2    5.376242937769564E-4    3.573857787233178E-3    5.672496652987637E-4    3.642283936777079E-3    4.290944787168451E-1   -1.359908857782830E-1
 8.116522682950000E9     5.063790698932022E-1    1.919517195401260E-2    5.309785053053881E-4    3.595778103941307E-3    5.490631369285909E-4    3.641515777759725E-3    4.290448531077662E-1   -1.364606146754357E-1
 8.116528606125000E9     5.064157398692075E-1    1.871629407603471E-2    5.334390334585516E-4    3.604304991416358E-3    5.843025038367032E-4    3.660565287720396E-3    4.289828810700925E-1   -1.367892576986393E-1
 8.116534529300000E9     5.063892441379145E-1    1.835249728697490E-2    5.329716170765651E-4    3.573290766722457E-3    5.968894652849725E-4    3.662272163071952E-3    4.288750098430439E-1   -1.372750596064928E-1
 8.116540452475000E9     5.063334184749660E-1    1.781130834099764E-2    5.388379853218069E-4    3.585550279875028E-3    6.519571627246824E-4    3.640064693230975E-3    4.286151071751331E-1   -1.377508365060079E-1
 8.116546375650000E9     5.063572302046834E-1    1.743289428479104E-2    5.509257431568549E-4    3.616302961594306E-3    5.725413207571883E-4    3.657938204557353E-3    4.287770438688560E-1   -1.381947256165118E-1
 8.116552298825000E9     5.065269214070307E-1    1.699053054256445E-2    5.674370592602570E-4    3.593572844982924E-3    6.191115574458645E-4    3.627041891480103E-3    4.284903785841498E-1   -1.384510348850002E-1
 8.116558222000000E9     5.065415414987783E-1    1.656618745707497E-2    5.595726102224731E-4    3.603748249002901E-3    6.208566637892301E-4    3.631801882078987E-3    4.282821994568079E-1   -1.389701153703325E-1
 8.116564145175000E9     5.065819478385616E-1    1.613311199376031E-2    5.774897865694519E-4    3.596600814062208E-3    6.082569834787246E-4    3.660232740184512E-3    4.281159453114881E-1   -1.392150689929563E-1
 8.116570068350000E9     5.065122754623956E-1    1.567341942705113E-2    5.360207291346341E-4    3.583414809743858E-3    6.102536809697850E-4    3.654667953221267E-3    4.280514311736215E-1   -1.396820003067779E-1
 8.116575991525000E9     5.064186485206400E-1    1.526720626129701E-2    5.707036012673289E-4    3.616551449680431E-3    6.369332491915047E-4    3.642281037444358E-3    4.279830246366997E-1   -1.399500217796120E-1
 8.116581914700000E9     5.064004979336340E-1    1.470534095074586E-2    5.731654252262679E-4    3.607882811646696E-3    6.360343786135737E-4    3.650423957123256E-3    4.278875839562890E-1   -1.405304649707224E-1
 8.116587837875000E9     5.064947347949670E-1    1.424605231957909E-2    5.871325441019434E-4    3.617297780112135E-3    6.567408759243855E-4    3.647503941649533E-3    4.277826484725328E-1   -1.408344621514986E-1
 8.116593761050000E9     5.064973229039204E-1    1.380349859678047E-2    5.814211232302496E-4    3.608648318699741E-3    6.396629285476842E-4    3.643580120200441E-3    4.276721425766516E-1   -1.412756905464214E-1
 8.116599684225000E9     5.064778535747664E-1    1.332191012480316E-2    5.954868223349974E-4    3.608484650754740E-3    6.589405572463002E-4    3.649006997338911E-3    4.274695493428017E-1   -1.417427506875734E-1
 8.116605607400000E9     5.065063944469610E-1    1.286507263785488E-2    6.071822638788152E-4    3.603462512246577E-3    6.369659901992793E-4    3.655468684972182E-3    4.274760564177702E-1   -1.420825017314482E-1
 8.116611530575000E9     5.065480365808139E-1    1.245751841304023E-2    6.020372642036850E-4    3.625070581326093E-3    6.692025437941907E-4    3.645033057713833E-3    4.271574539334551E-1   -1.423491476791222E-1
 8.116617453750000E9     5.064802224210243E-1    1.186017452669471E-2    5.754086450472690E-4    3.605479888182763E-3    6.421291336448419E-4    3.667778059053809E-3    4.272098678616283E-1   -1.428739455665689E-1
 8.116623376925000E9     5.065515507814503E-1    1.155442194406859E-2    5.741328483222122E-4    3.626661687075227E-3    6.864115952078312E-4    3.658949241950548E-3    4.269216476580787E-1   -1.431957703512323E-1
 8.116629300100000E9     5.064613408390081E-1    1.098732805979870E-2    6.117525636176853E-4    3.620800149470689E-3    6.563990724999738E-4    3.690999627452432E-3    4.269728471340677E-1   -1.435549783116788E-1
 8.116635223275000E9     5.064080576434258E-1    1.061239701491070E-2    6.259811779045517E-4    3.621164665484522E-3    6.915002717321964E-4    3.643357938095128E-3    4.268263706947256E-1   -1.440191535122425E-1
 8.116641146450000E9     5.063140131547693E-1    1.009580585845771E-2    6.011233316968197E-4    3.628100740884412E-3    6.982606554648098E-4    3.655364632936807E-3    4.266185152420945E-1   -1.444309877625451E-1
 8.116647069625000E9     5.063193170186515E-1    9.767327095054665E-3    6.438935330134391E-4    3.631556455746271E-3    6.347390480827540E-4    3.661248289073119E-3    4.267659969761410E-1   -1.446291380697190E-1
 8.116652992800000E9     5.065543838687281E-1    9.343201191749053E-3    6.188422037691701E-4    3.649139751823246E-3    6.944345575453120E-4    3.688786096696307E-3    4.264100057756446E-1   -1.451264117607320E-1
 8.116658915975000E9     5.064841114045668E-1    8.904102386175087E-3    6.241648147961143E-4    3.649099925971545E-3    6.730895839378077E-4    3.702180798133562E-3    4.263567891673005E-1   -1.455873977509317E-1
 8.116664839150000E9     5.065420253342054E-1    8.454111902704016E-3    6.275517047158512E-4    3.636196387382029E-3    7.125870199182209E-4    3.690657618343427E-3    4.262300129215394E-1   -1.460725284002116E-1
 8.116670762325000E9     5.064430661431361E-1    7.869416276069253E-3    6.383262716856843E-4    3.617809056889071E-3    6.816979753391636E-4    3.658420853048011E-3    4.261965180718378E-1   -1.463013859062998E-1
 8.116676685500000E9     5.064847968298851E-1    7.408008827878137E-3    6.378043290957968E-4    3.607667331836067E-3    7.032138944623310E-4    3.677706359946214E-3    4.261610007969130E-1   -1.468768598005356E-1
 8.116682608675000E9     5.064653131005493E-1    7.065456311752966E-3    6.549996606057887E-4    3.650828006580225E-3    6.833727140335916E-4    3.689005665495692E-3    4.258123319098422E-1   -1.471184208468952E-1
 8.116688531850000E9     5.065294635560397E-1    6.521037517102595E-3    6.618023829357448E-4    3.629953700874352E-3    6.854970117925201E-4    3.677579132289601E-3    4.257726675923179E-1   -1.475979540464589E-1
 8.116694455025000E9     5.065868772466743E-1    6.134560143679192E-3    6.457317373578026E-4    3.668862989639590E-3    6.855033061216478E-4    3.698970239298038E-3    4.256186995946551E-1   -1.479964809453433E-1
 8.116700378200000E9     5.064243287900851E-1    5.813087538419533E-3    6.424241348665892E-4    3.641844439092796E-3    7.089052609378666E-4    3.705968604763685E-3    4.255100150244874E-1   -1.482531920951026E-1
 8.116706301375000E9     5.064699712140224E-1    5.195113637584897E-3    6.758714286601203E-4    3.661578269958817E-3    6.910238716155643E-4    3.715365088205023E-3    4.254826692717867E-1   -1.487693332938567E-1
 8.116712224550000E9     5.065575699085417E-1    4.742600319151713E-3    6.514708362102723E-4    3.657181016672255E-3    7.023481473926713E-4    3.702628968320876E-3    4.254002520495067E-1   -1.491573911284406E-1
 8.116718147725000E9     5.063756123740977E-1    4.331196697210157E-3    6.774314135766705E-4    3.676682921252490E-3    7.260437688409845E-4    3.685233471258476E-3    4.252150782934015E-1   -1.495979594381998E-1
 8.116724070900000E9     5.064069712885716E-1    3.923481071176411E-3    6.622815907647237E-4    3.661751194378929E-3    7.404616536096710E-4    3.763499951441616E-3    4.250726398787055E-1   -1.498864811102152E-1
 8.116729994075000E9     5.064317758471665E-1    3.446700074404236E-3    6.801678955778268E-4    3.659063283174336E-3    7.498239393004670E-4    3.705559260628911E-3    4.249914279612703E-1   -1.502783584334478E-1
 8.116735917250000E9     5.064060974975049E-1    3.062307589946155E-3    6.830253542429769E-4    3.672868731500190E-3    7.762633132534909E-4    3.707673698104018E-3    4.247966616038544E-1   -1.507665760860017E-1
 8.116741840425000E9     5.065739220095923E-1    2.590836043450090E-3    7.125835493174934E-4    3.683787443528112E-3    7.321161715153059E-4    3.731266288153338E-3    4.246071427640901E-1   -1.509943581750655E-1
 8.116747763600000E9     5.064322018427835E-1    2.025373901150934E-3    7.041071021082420E-4    3.652654296741805E-3    7.179248591797483E-4    3.745641678424053E-3    4.244560604212218E-1   -1.515610058806725E-1
 8.116753686775000E9     5.064883986927181E-1    1.589457890229014E-3    7.098686005369201E-4    3.691262294313739E-3    7.408886310393400E-4    3.727259304904063E-3    4.244745916278919E-1   -1.519028409314146E-1
 8.116759609950000E9     5.063405903310486E-1    1.226582176130454E-3    6.924963471397463E-4    3.679826087954593E-3    7.407824998034146E-4    3.745452026060147E-3    4.244080112006037E-1   -1.522444488405973E-1
 8.116765533125000E9     5.063598170003670E-1    5.690030055127243E-4    7.077286726734379E-4    3.692533481544204E-3    7.632039749540207E-4    3.743450140232734E-3    4.241969867706698E-1   -1.527338407288817E-1
 8.116771456300000E9     5.065008848699414E-1    1.868450792265683E-4    7.070854803951217E-4    3.684241686534129E-3    7.742383564454137E-4    3.746254629389252E-3    4.240888779045296E-1   -1.531800031064484E-1
 8.116777379475000E9     5.064541724499901E-1   -2.623299424855696E-4    7.299327814812907E-4    3.680634826294300E-3    7.839060217968568E-4    3.719413517989606E-3    4.239376030295536E-1   -1.534350665771735E-1
 8.116783302650000E9     5.063613001684061E-1   -7.446041622815192E-4    7.139376360090205E-4    3.714715178867691E-3    7.851987813514863E-4    3.754270198457621E-3    4.239463852870933E-1   -1.539765588578874E-1
 8.116789225825000E9     5.063264095332151E-1   -1.143185993148044E-3    7.253394302688161E-4    3.695279574515193E-3    7.586421706372884E-4    3.738343552749619E-3    4.236732960300872E-1   -1.542645348313717E-1
 8.116795149000000E9     5.062027390547844E-1   -1.668389038960997E-3    7.264249822298262E-4    3.694113381030280E-3    7.982878606500905E-4    3.753020843512940E-3    4.235315154308300E-1   -1.547355002345396E-1
 8.116801072175000E9     5.063028182835544E-1   -2.068887616043264E-3    7.231534644826573E-4    3.703748291939516E-3    7.621620346192780E-4    3.756027668642174E-3    4.234500938717615E-1   -1.550588947894520E-1
 8.116806995350000E9     5.063125153452899E-1   -2.523115506998347E-3    7.498789571107029E-4    3.682726396059863E-3    7.968052458773184E-4    3.742321329799363E-3    4.231631121763947E-1   -1.554097062202160E-1
 8.116812918525000E9     5.062328972904634E-1   -2.983987596123675E-3    7.226372415250989E-4    3.683055900817631E-3    7.921518165548035E-4    3.751994534312230E-3    4.232298832709911E-1   -1.558480911906068E-1
 8.116818841700000E9     5.062879957339705E-1   -3.401030393944956E-3    7.617931702446670E-4    3.676661316020803E-3    8.124190514537979E-4    3.793796580917968E-3    4.229510004528494E-1   -1.562683558444067E-1
 8.116824764875000E9     5.062883805048720E-1   -3.979526265751837E-3    7.518834651206994E-4    3.727731808829915E-3    8.363855343307095E-4    3.788210136092393E-3    4.229149013505039E-1   -1.566042607705304E-1
 8.116830688050000E9     5.063056080456473E-1   -4.327747763958631E-3    7.465417072472778E-4    3.701243021696268E-3    8.420886469540945E-4    3.782967356341971E-3    4.227729468611148E-1   -1.571038729748621E-1
 8.116836611225000E9     5.062581997601970E-1   -4.793649119775725E-3    7.428181787869740E-4    3.733315962039666E-3    8.001432255736793E-4    3.800312676024247E-3    4.225894557067660E-1   -1.573614535219184E-1
 8.116842534400000E9     5.062691338151958E-1   -5.292636041411032E-3    7.737573634337786E-4    3.751913168447214E-3    8.151969409567031E-4    3.771448523568575E-3    4.224677578085545E-1   -1.577722983905089E-1
 8.116848457575000E9     5.062452840054611E-1   -5.649732299957229E-3    7.878431601895131E-4    3.714254913146616E-3    8.441950234241688E-4    3.798955051757856E-3    4.224672641774466E-1   -1.582551123356062E-1
 8.116854380750000E9     5.061824810547868E-1   -6.130725104593820E-3    7.939005835439533E-4    3.724605437182597E-3    8.460410587188413E-4    3.787969748681948E-3    4.222198291643446E-1   -1.586216743990445E-1
