#  HZ   S   RI   R     50.00 
! Rohde & Schwarz Vector Network Analyzer 
! Rohde-Schwarz,ZNB20-2Port,1311601062101988,3.16
! Created: UTC 3/20/2024, 11:55:45 AM
! freq[Hz]                re:S11                  im:S11                  re:S21                  im:S21                  re:S12                  im:S12                  re:S22                  im:S22
 8.116412593000000E9     5.065304463878965E-1    2.804397550288418E-2    4.950410960755137E-4    3.551226620765506E-3    5.268302657809504E-4    3.599481507792519E-3    4.310744740070721E-1   -1.290905368632087E-1
 8.116418190050000E9     5.064757920399547E-1    2.764969989465398E-2    4.485058303807518E-4    3.517374017789030E-3    5.223660192057312E-4    3.618835683717272E-3    4.308242145491051E-1   -1.295012767347104E-1
 8.116423787100000E9     5.066374932690266E-1    2.724615425771811E-2    4.715752402798709E-4    3.550878575367988E-3    5.400414497571714E-4    3.619243487211042E-3    4.306328143943714E-1   -1.298634625582842E-1
 8.116429384150000E9     5.065651869824300E-1    2.679409615985184E-2    4.739917073690023E-4    3.547867591787401E-3    5.337882084225802E-4    3.608851595910297E-3    4.307199264257346E-1   -1.303308433343230E-1
 8.116434981200000E9     5.066231810384707E-1    2.633480396352033E-2    4.568343148509653E-4    3.569549440722931E-3    4.881680779571477E-4    3.587664562215436E-3    4.306106170192580E-1   -1.306168335801272E-1
 8.116440578250000E9     5.065653451519353E-1    2.599492011287828E-2    4.902942201926459E-4    3.570470379623324E-3    5.496144344752011E-4    3.614245107869724E-3    4.304062762407114E-1   -1.309632399858677E-1
 8.116446175300000E9     5.065937095418647E-1    2.552826531245956E-2    4.666750848305032E-4    3.546207640729849E-3    5.288283949127769E-4    3.610239730523995E-3    4.304602450696344E-1   -1.313054351559252E-1
 8.116451772350000E9     5.067361505437517E-1    2.506368715990726E-2    4.838921149255722E-4    3.546630169072295E-3    5.060721610421522E-4    3.617241808022204E-3    4.302965117804781E-1   -1.317155681719058E-1
 8.116457369400000E9     5.066819426840597E-1    2.465390924371374E-2    4.880140519748003E-4    3.539031428852860E-3    5.592778040924200E-4    3.622431531628748E-3    4.301577983699235E-1   -1.320009158803489E-1
 8.116462966450000E9     5.066622598476339E-1    2.426715285824829E-2    4.787986168736830E-4    3.556256447014341E-3    5.809530874461433E-4    3.608012354402472E-3    4.301386568188407E-1   -1.324547574338284E-1
 8.116468563500000E9     5.066500501701754E-1    2.384505863335662E-2    5.024881213377946E-4    3.565201529976597E-3    6.025639403021319E-4    3.640530662901375E-3    4.299846257362457E-1   -1.329482133792336E-1
 8.116474160550000E9     5.066655391169413E-1    2.341970285178487E-2    5.044552151855283E-4    3.578664329384364E-3    5.534460038952938E-4    3.597238992984589E-3    4.299903983632707E-1   -1.332937098978585E-1
 8.116479757600000E9     5.067766219288022E-1    2.305198385660050E-2    4.985149602377866E-4    3.580956427488155E-3    5.577895774392438E-4    3.600742963906885E-3    4.297054399216582E-1   -1.336319633960782E-1
 8.116485354650000E9     5.067640279555545E-1    2.254459752402832E-2    5.148300493445351E-4    3.560939062333658E-3    5.635185355543015E-4    3.634342617743431E-3    4.297079792620791E-1   -1.340112346925634E-1
 8.116490951700000E9     5.067428229260584E-1    2.217438659177168E-2    5.206251640603724E-4    3.576606378258415E-3    5.436707253319156E-4    3.650539826273328E-3    4.295683398526551E-1   -1.343691897788770E-1
 8.116496548750000E9     5.067016036545139E-1    2.161366271708430E-2    4.884792087276179E-4    3.575045016161405E-3    5.989178308049196E-4    3.627709280797374E-3    4.295360780081365E-1   -1.347785446255279E-1
 8.116502145800000E9     5.067359136424000E-1    2.132304135671954E-2    5.021224036830999E-4    3.591539657406607E-3    5.757493897215270E-4    3.633567830484424E-3    4.294828646404192E-1   -1.352426849059919E-1
 8.116507742850000E9     5.067187130416104E-1    2.081083803773807E-2    5.288599912987656E-4    3.584056100502869E-3    5.888847133240392E-4    3.644614087449147E-3    4.292278610939041E-1   -1.354851175025754E-1
 8.116513339900000E9     5.067737909130766E-1    2.044429928561771E-2    5.190168098127953E-4    3.592987294412642E-3    5.894905492870475E-4    3.634404593200814E-3    4.292050666786171E-1   -1.358640036934884E-1
 8.116518936950000E9     5.068725611241772E-1    1.994187984370938E-2    5.256900357188968E-4    3.583411125414666E-3    5.826037879094390E-4    3.640591721396875E-3    4.292398305123004E-1   -1.361132498858865E-1
 8.116524534000000E9     5.067515939807522E-1    1.953376674080092E-2    5.252598588042913E-4    3.593445461134575E-3    5.833575033371566E-4    3.614755898805395E-3    4.290250092807947E-1   -1.366209745411616E-1
 8.116530131050000E9     5.067655568165786E-1    1.915945447602425E-2    5.336759249720367E-4    3.580858258395395E-3    5.953535451929492E-4    3.658486993345002E-3    4.288733880403853E-1   -1.369775181973181E-1
 8.116535728100000E9     5.067919403690198E-1    1.869463663610678E-2    5.557246998237095E-4    3.574736314209734E-3    6.208609291954787E-4    3.636902990551282E-3    4.287469155690700E-1   -1.373074162781392E-1
 8.116541325150000E9     5.068241037746717E-1    1.827561116672435E-2    5.771628291904893E-4    3.581256793720234E-3    6.196857041828595E-4    3.650498589089616E-3    4.286603526270323E-1   -1.377428404472882E-1
 8.116546922200000E9     5.068270801415499E-1    1.775857007895679E-2    5.270008277382561E-4    3.594594015235650E-3    6.231025862948782E-4    3.638526340114190E-3    4.285723231651790E-1   -1.382229302341218E-1
 8.116552519250000E9     5.067683266710751E-1    1.749332591491866E-2    5.699826652482646E-4    3.579157919440939E-3    6.052936984127347E-4    3.665199503301131E-3    4.285424572584053E-1   -1.386463372192747E-1
 8.116558116300000E9     5.067819919351555E-1    1.694437877524504E-2    5.182320826806119E-4    3.580926025229519E-3    6.010599219707214E-4    3.630423605896908E-3    4.283869020768903E-1   -1.390579816544113E-1
 8.116563713350000E9     5.068189686854113E-1    1.665471557990410E-2    5.546670585288693E-4    3.576112675281084E-3    6.265972460071590E-4    3.652715129131163E-3    4.284367425233463E-1   -1.392796934480105E-1
 8.116569310400000E9     5.067943364681046E-1    1.619674422982597E-2    5.632045129894093E-4    3.576858469761069E-3    5.917247947467613E-4    3.672386066516058E-3    4.280756014162300E-1   -1.395748886594603E-1
 8.116574907450000E9     5.067749810791567E-1    1.575707758726898E-2    5.629115625587479E-4    3.592721831522669E-3    6.528313439697618E-4    3.653849312616363E-3    4.279561649047111E-1   -1.400910439796295E-1
 8.116580504500000E9     5.068367626834157E-1    1.532223382607320E-2    5.742311489100580E-4    3.590518849070650E-3    6.326949446887494E-4    3.629757132530230E-3    4.279458620087253E-1   -1.403428252183153E-1
 8.116586101550000E9     5.068362562117706E-1    1.478310371727291E-2    5.704583196833097E-4    3.631568412629595E-3    6.201580795123406E-4    3.690780543001629E-3    4.276694450961355E-1   -1.407917564412176E-1
 8.116591698600000E9     5.067951033005860E-1    1.439194637746421E-2    5.772353977410979E-4    3.600496914651779E-3    6.686471033787603E-4    3.652331179138549E-3    4.278194804491576E-1   -1.410932400896997E-1
 8.116597295650000E9     5.069595829519356E-1    1.409506334427155E-2    5.627815574362794E-4    3.589495848034409E-3    6.127642399585618E-4    3.638409971181781E-3    4.275505202301197E-1   -1.415780634915945E-1
 8.116602892700000E9     5.068468097412434E-1    1.360490621532402E-2    5.910933643945529E-4    3.616970452629939E-3    6.152482896730709E-4    3.618502377158884E-3    4.275176288076848E-1   -1.418781846875716E-1
 8.116608489750000E9     5.068372577461387E-1    1.318400254739141E-2    5.619732754658929E-4    3.606643230774955E-3    6.677350419896098E-4    3.672061363309521E-3    4.274013999949254E-1   -1.422338847531102E-1
 8.116614086800000E9     5.069189812331987E-1    1.275229864519109E-2    5.749510205090713E-4    3.607323844133314E-3    6.536179454114024E-4    3.667079392772150E-3    4.273241935356566E-1   -1.425610144507548E-1
 8.116619683850000E9     5.069786665291788E-1    1.221124820126234E-2    6.000667012025175E-4    3.601269329070209E-3    6.657973606547033E-4    3.688935945629046E-3    4.271756936791458E-1   -1.430142366815008E-1
 8.116625280900000E9     5.069176863083980E-1    1.194750681958614E-2    5.995026470288269E-4    3.608601523284857E-3    6.709270819375530E-4    3.663198305024684E-3    4.270790275246145E-1   -1.432878849722843E-1
 8.116630877950000E9     5.068540685667233E-1    1.143199140099168E-2    6.217940114722647E-4    3.614464777808165E-3    6.538600397167528E-4    3.650491185296103E-3    4.268936003173965E-1   -1.438016619892735E-1
 8.116636475000000E9     5.068351994809762E-1    1.111616586568989E-2    6.160908920799187E-4    3.602433292437541E-3    6.695611434174734E-4    3.675634960359650E-3    4.268276749729755E-1   -1.441800639059056E-1
 8.116642072050000E9     5.069644745160591E-1    1.053680965586228E-2    5.801369967048094E-4    3.616338809170188E-3    6.750214782990602E-4    3.673051962448409E-3    4.267787773144059E-1   -1.446265638922764E-1
 8.116647669100000E9     5.068312569440958E-1    1.012328056292972E-2    6.160954472401995E-4    3.622289755652504E-3    6.491480920856969E-4    3.661854907893190E-3    4.266519697408090E-1   -1.448914629082751E-1
 8.116653266150000E9     5.068927927031429E-1    9.854809874299415E-3    6.203752843504003E-4    3.602990549370471E-3    6.850301514001726E-4    3.674884282428776E-3    4.265659818003045E-1   -1.452901100058074E-1
 8.116658863200000E9     5.068845769379497E-1    9.225442766359162E-3    6.256753308023403E-4    3.646997667228182E-3    6.862673059903230E-4    3.660013067930012E-3    4.264124834361502E-1   -1.456013601774273E-1
 8.116664460250000E9     5.069237528865123E-1    8.846318116752233E-3    6.379207383113169E-4    3.612897478267349E-3    6.802632882349269E-4    3.697205283736980E-3    4.262389025433710E-1   -1.459723844625565E-1
 8.116670057300000E9     5.069201072363169E-1    8.420786427016196E-3    6.459263868898388E-4    3.601919645498730E-3    6.466191444491474E-4    3.698518177012913E-3    4.263436096140372E-1   -1.463775921448636E-1
 8.116675654350000E9     5.069217900256155E-1    8.053652283117116E-3    6.222956116511093E-4    3.653067695816492E-3    6.719151867898500E-4    3.687685544208708E-3    4.261335157199190E-1   -1.467610408138744E-1
 8.116681251400000E9     5.068804058603249E-1    7.707501347491197E-3    6.607216214804919E-4    3.603703206152747E-3    7.040898642090167E-4    3.698454604573765E-3    4.257710054861829E-1   -1.470755592915995E-1
 8.116686848450000E9     5.068201651548053E-1    7.135415352797855E-3    6.465817667675634E-4    3.650011974869186E-3    6.895885091226282E-4    3.663564959581474E-3    4.258435128200691E-1   -1.474127904081201E-1
 8.116692445500000E9     5.069332562611764E-1    6.794798896824761E-3    6.338567508083471E-4    3.646421664002962E-3    6.888746055975966E-4    3.689038804607336E-3    4.258073445089910E-1   -1.478191489935598E-1
 8.116698042550000E9     5.068896546855618E-1    6.299620689428146E-3    6.625620536704456E-4    3.641442199002787E-3    6.794571411405482E-4    3.696123625114595E-3    4.255635768833875E-1   -1.481630945678918E-1
 8.116703639600000E9     5.069353835511310E-1    5.912510427264412E-3    6.661795018337474E-4    3.624004067808900E-3    7.340594680376866E-4    3.684599745188672E-3    4.255413339864240E-1   -1.485757497038047E-1
 8.116709236650000E9     5.068411694454499E-1    5.427390672916929E-3    6.945806547197238E-4    3.647324937901150E-3    6.847535357329157E-4    3.687121811204599E-3    4.253668042258556E-1   -1.490915186878624E-1
 8.116714833700000E9     5.068667188896091E-1    4.953058376745952E-3    6.369187239111825E-4    3.635112018969166E-3    7.136902901145651E-4    3.700720319278945E-3    4.251953118551634E-1   -1.493146484336490E-1
 8.116720430750000E9     5.069058807458795E-1    4.642671889222019E-3    6.659727202859467E-4    3.632201288325181E-3    7.314757861674862E-4    3.722591709745935E-3    4.252351724214799E-1   -1.497258823199402E-1
 8.116726027800000E9     5.067630614975416E-1    4.249120444971605E-3    6.732917868320823E-4    3.643463914358827E-3    7.108774776218920E-4    3.706634920739619E-3    4.249430746112649E-1   -1.502681189128811E-1
 8.116731624850000E9     5.068558935458588E-1    3.780150720830797E-3    6.854726162409568E-4    3.655333171633569E-3    7.493386652501158E-4    3.730135908181560E-3    4.249437117485009E-1   -1.505302765841000E-1
 8.116737221900000E9     5.069310456472875E-1    3.231921945594232E-3    6.620101313654528E-4    3.660184152385984E-3    7.740622450726020E-4    3.704290301912104E-3    4.249110312521944E-1   -1.509317143258077E-1
 8.116742818950000E9     5.068730614415994E-1    2.889162447919716E-3    6.898633527130851E-4    3.649815760822029E-3    7.345635947408629E-4    3.701658036495149E-3    4.246267235790485E-1   -1.512613268607628E-1
 8.116748416000000E9     5.068926169509198E-1    2.538219309683147E-3    6.776327576565607E-4    3.647047272286542E-3    7.504326347324103E-4    3.696831745823868E-3    4.245324189628603E-1   -1.515965883719426E-1
 8.116754013050000E9     5.066687985006602E-1    2.055955447547572E-3    6.776362723684591E-4    3.667837984680212E-3    7.615527915211454E-4    3.713725135340432E-3    4.244576597845570E-1   -1.520619523728534E-1
 8.116759610100000E9     5.068591989527789E-1    1.682971596785557E-3    6.898466170910434E-4    3.664478090649983E-3    6.964972775336870E-4    3.742567880573346E-3    4.244068359169086E-1   -1.523572472217528E-1
 8.116765207150000E9     5.067862071417827E-1    1.175122834321216E-3    6.944706543841686E-4    3.685178336386831E-3    7.663969980821920E-4    3.730801878172089E-3    4.241762921277483E-1   -1.526398725344214E-1
 8.116770804200000E9     5.068756532949912E-1    6.626947436377288E-4    6.725083976620765E-4    3.677732530181345E-3    7.289950966475555E-4    3.755000549318298E-3    4.241737983972643E-1   -1.530877729655560E-1
 8.116776401250000E9     5.067165589433826E-1    3.255410860813840E-4    7.113695047065569E-4    3.670399299259838E-3    7.535083390109148E-4    3.762829758629407E-3    4.240055388988199E-1   -1.535233879678777E-1
 8.116781998300000E9     5.067755686266083E-1   -5.618525215286328E-5    7.028600320500713E-4    3.692167075559896E-3    7.812888847900401E-4    3.720858297949296E-3    4.238342133998755E-1   -1.538922457909607E-1
 8.116787595350000E9     5.067013146828373E-1   -6.072742930707648E-4    7.158012000336750E-4    3.698178636894785E-3    7.751951755370385E-4    3.761630500442292E-3    4.238774095805647E-1   -1.541238587318230E-1
 8.116793192400000E9     5.067050146308925E-1   -8.551309306687830E-4    7.288217227785218E-4    3.701771703536116E-3    8.065294482192975E-4    3.738204030583912E-3    4.236707825104962E-1   -1.546114423667211E-1
 8.116798789450000E9     5.067058911396758E-1   -1.422511685707809E-3    6.966615620867887E-4    3.687644059937347E-3    7.685445053384034E-4    3.738064185308269E-3    4.235070367454963E-1   -1.547676112628320E-1
 8.116804386500000E9     5.066748859050639E-1   -1.818741925188810E-3    7.315153397773896E-4    3.711695826640107E-3    7.661860907942370E-4    3.746045017148054E-3    4.233890108557254E-1   -1.553546149752900E-1
 8.116809983550000E9     5.067283090386878E-1   -2.258742427973423E-3    7.508134163368369E-4    3.706004400400413E-3    7.952346532284981E-4    3.728306866822335E-3    4.232984706170563E-1   -1.556249473047973E-1
 8.116815580600000E9     5.067901590601955E-1   -2.795572764054035E-3    7.457814666541270E-4    3.713840344513393E-3    8.167829451028232E-4    3.774253477496957E-3    4.232755201713136E-1   -1.560680577122105E-1
 8.116821177650000E9     5.067088600463735E-1   -3.149277369841635E-3    7.608295037543217E-4    3.707815186833941E-3    7.897555729481566E-4    3.762371825341340E-3    4.230612879013317E-1   -1.562680405332799E-1
 8.116826774700000E9     5.066866632979418E-1   -3.537141487062941E-3    7.344086236790239E-4    3.711350314803193E-3    8.189840125549464E-4    3.741946899221850E-3    4.229514129922011E-1   -1.567992122976362E-1
 8.116832371750000E9     5.066302681985823E-1   -3.909979751313894E-3    7.491648186346971E-4    3.702377251018343E-3    8.053848129558077E-4    3.749636259052759E-3    4.227463895244854E-1   -1.571368401747749E-1
 8.116837968800000E9     5.067156482682760E-1   -4.249974857177504E-3    7.451866754809586E-4    3.715012446457523E-3    8.127592763021912E-4    3.782910079201921E-3    4.226982438152649E-1   -1.574770856374677E-1
 8.116843565850000E9     5.067050773200739E-1   -4.893117893603532E-3    7.625393275920874E-4    3.714026982027738E-3    7.742147306848913E-4    3.770643562656123E-3    4.225468261615323E-1   -1.578030005336073E-1
 8.116849162900000E9     5.067268647196841E-1   -5.204060772035528E-3    7.832926628410942E-4    3.735054706940943E-3    8.378843157053864E-4    3.765631963185934E-3    4.224812804337797E-1   -1.583167531868245E-1
 8.116854759950000E9     5.067115156577393E-1   -5.707168957929731E-3    7.926394841867374E-4    3.725409977521486E-3    8.463369002091694E-4    3.794301528284824E-3    4.222403122625666E-1   -1.586207516425089E-1
 8.116860357000000E9     5.065320688182440E-1   -6.161004388636022E-3    7.769389732842596E-4    3.723477946591400E-3    8.362280270707511E-4    3.765244971046163E-3    4.223047685922414E-1   -1.589807953973024E-1
 8.116865954050000E9     5.065742449669235E-1   -6.643838261747765E-3    7.650488388742272E-4    3.723212520363733E-3    8.288915632409740E-4    3.747804735040662E-3    4.221116498035657E-1   -1.593948725759756E-1
 8.116871551100000E9     5.065900039264827E-1   -7.103611063872699E-3    7.689649463850593E-4    3.727457992048875E-3    8.487913923905804E-4    3.779205456109156E-3    4.219194484675629E-1   -1.597489052179300E-1
 8.116877148150000E9     5.065487164658111E-1   -7.520813918852222E-3    7.891131583776016E-4    3.719148602889185E-3    8.560898994699632E-4    3.782858718585167E-3    4.217292978393516E-1   -1.602039768609140E-1
 8.116882745200000E9     5.065875932818008E-1   -7.832132072367009E-3    7.922019175839474E-4    3.732433690297817E-3    8.737525959372981E-4    3.770364339236058E-3    4.216194725899124E-1   -1.605596318870629E-1
 8.116888342250000E9     5.065220794590828E-1   -8.390178257209349E-3    8.009464855691152E-4    3.727109919955383E-3    8.692277894405060E-4    3.796326905293062E-3    4.215679537009322E-1   -1.608361615544939E-1
 8.116893939300000E9     5.064263981914348E-1   -8.780877141744506E-3    8.259088252568905E-4    3.745150511108777E-3    8.243309438031907E-4    3.816448559113849E-3    4.214365671134621E-1   -1.613415014565558E-1
 8.116899536350000E9     5.064619086989859E-1   -9.137349297615061E-3    8.292189237554462E-4    3.728604461847937E-3    8.855034112338222E-4    3.813433951107982E-3    4.214686140954650E-1   -1.616165113591959E-1
 8.116905133400000E9     5.064542647064633E-1   -9.694090211706049E-3    8.069139329712209E-4    3.738381568256013E-3    8.721230833868795E-4    3.799572213483732E-3    4.211965277339230E-1   -1.620513636087272E-1
 8.116910730450000E9     5.065081847768742E-1   -9.960249735909586E-3    8.371209384752529E-4    3.760911537091637E-3    8.750775536899022E-4    3.854300047460962E-3    4.210670467073618E-1   -1.622855374658236E-1
 8.116916327500000E9     5.064721695008984E-1   -1.054968593930943E-2    8.289907712943945E-4    3.756976379739302E-3    8.458418397076298E-4    3.853907255996170E-3    4.209351005034448E-1   -1.628336163246852E-1
