#  HZ   S   RI   R     50.00 
! Rohde & Schwarz Vector Network Analyzer 
! Rohde-Schwarz,ZNB20-2Port,1311601062101988,3.16
! Created: UTC 3/20/2024, 11:56:19 AM
! freq[Hz]                re:S11                  im:S11                  re:S21                  im:S21                  re:S12                  im:S12                  re:S22                  im:S22
 8.116493783000000E9     5.067342738240512E-1    2.207981130911784E-2    4.826760496576385E-4    3.557690104414434E-3    5.896542899831758E-4    3.661790966526498E-3    4.295920505116544E-1   -1.345102832662870E-1
 8.116499067175000E9     5.067708816006381E-1    2.171115078272752E-2    5.219722002424601E-4    3.556363115507643E-3    5.778756206206062E-4    3.620297159807945E-3    4.294364513066574E-1   -1.349534126821982E-1
 8.116504351350000E9     5.067718495800515E-1    2.133458121131241E-2    5.308260193830108E-4    3.573912447824027E-3    5.758711718281846E-4    3.597026081436010E-3    4.293922870590044E-1   -1.352834238447670E-1
 8.116509635525000E9     5.066421183378006E-1    2.077654310093949E-2    5.256450644043237E-4    3.562166122433442E-3    5.781203585722960E-4    3.653914795883737E-3    4.292108343767495E-1   -1.357094602845970E-1
 8.116514919700000E9     5.067121992081827E-1    2.048400273958365E-2    5.247214446016361E-4    3.584229569764117E-3    5.777276542203094E-4    3.631614393592011E-3    4.291033508467414E-1   -1.358698028050011E-1
 8.116520203875000E9     5.067448079512362E-1    2.001971206125263E-2    5.373229724558242E-4    3.582495649936842E-3    5.767955662625372E-4    3.615340730994454E-3    4.290265956518070E-1   -1.362894461219037E-1
 8.116525488050000E9     5.067297721977835E-1    1.967353435091473E-2    5.412021903047303E-4    3.572075879983880E-3    6.024109534722523E-4    3.611808586085919E-3    4.290435185986150E-1   -1.366651542027845E-1
 8.116530772225000E9     5.067562709497481E-1    1.915662560050180E-2    5.263399872754247E-4    3.575351459139289E-3    6.030491801359813E-4    3.620139825843175E-3    4.287516521738521E-1   -1.369390785809828E-1
 8.116536056400000E9     5.068072256061766E-1    1.892474616461471E-2    5.388495129070996E-4    3.580664158349208E-3    5.782615443401573E-4    3.629324460353011E-3    4.287901874194672E-1   -1.373909055769749E-1
 8.116541340575000E9     5.067596064586506E-1    1.827386763804986E-2    5.410583284502623E-4    3.578202360707554E-3    6.405150903791392E-4    3.616056813200660E-3    4.285924410656846E-1   -1.378104418508318E-1
 8.116546624750000E9     5.069899696221538E-1    1.804470789755290E-2    5.375281616787672E-4    3.586286833146969E-3    5.857082580434909E-4    3.635113503342347E-3    4.285934395937934E-1   -1.381469757368256E-1
 8.116551908925000E9     5.069364389433745E-1    1.769293717912152E-2    5.515975082840297E-4    3.565510315175938E-3    6.130935903658275E-4    3.629634051269700E-3    4.284523303834630E-1   -1.386006288822995E-1
 8.116557193100000E9     5.067626911035376E-1    1.732423769965766E-2    5.455750166505077E-4    3.579485505574792E-3    6.281474255377909E-4    3.655509548633978E-3    4.283794114774111E-1   -1.387315019682026E-1
 8.116562477275000E9     5.068304572651170E-1    1.678552120444276E-2    5.726571667236493E-4    3.593811313863555E-3    6.684787856597984E-4    3.634290826549181E-3    4.281718907803221E-1   -1.392298683714879E-1
 8.116567761450000E9     5.069360933201886E-1    1.638347920116489E-2    5.794400734070704E-4    3.586033252769734E-3    6.081809170926467E-4    3.636626726428782E-3    4.281691019564126E-1   -1.395378907295225E-1
 8.116573045625000E9     5.068025837340064E-1    1.605495614969593E-2    5.692725212678673E-4    3.592020320286733E-3    6.137911076393123E-4    3.642732204269650E-3    4.279659645932742E-1   -1.398884181871158E-1
 8.116578329800000E9     5.069937965770507E-1    1.562875069687044E-2    5.724338140871095E-4    3.600259130379331E-3    6.365131075353460E-4    3.657152513762978E-3    4.279918680839206E-1   -1.401772854022402E-1
 8.116583613975000E9     5.069330591955612E-1    1.535865521064990E-2    5.634562516653787E-4    3.602996098809048E-3    6.237503162833161E-4    3.630306512694424E-3    4.278637228833848E-1   -1.406652230157991E-1
 8.116588898150000E9     5.067847332308446E-1    1.480065732360857E-2    5.735767343549320E-4    3.594842791556187E-3    6.181329567076257E-4    3.657838557293239E-3    4.278417159191231E-1   -1.411042241713493E-1
 8.116594182325000E9     5.068609338561337E-1    1.437580440023654E-2    5.784611853337134E-4    3.587214368995557E-3    5.953280608409889E-4    3.655280057246549E-3    4.276108305606751E-1   -1.413176072428304E-1
 8.116599466500000E9     5.068476008186731E-1    1.406424055700233E-2    6.104792407689129E-4    3.567419899718785E-3    6.360279602878505E-4    3.685987597616152E-3    4.275688468407559E-1   -1.416879965858105E-1
 8.116604750675000E9     5.069434382733813E-1    1.360441470166292E-2    5.764921204280014E-4    3.606626946217238E-3    6.504005441578467E-4    3.640638589479465E-3    4.273804218531729E-1   -1.419497335392805E-1
 8.116610034850000E9     5.069723758155321E-1    1.322156043693024E-2    5.754829320506673E-4    3.581069593617250E-3    6.544640596845243E-4    3.643783667822889E-3    4.275426006256058E-1   -1.423062006758868E-1
 8.116615319025000E9     5.069579286651236E-1    1.282379121101248E-2    5.786446849808495E-4    3.583175848587467E-3    6.235933600644238E-4    3.630909961731202E-3    4.272966902203943E-1   -1.427583595789561E-1
 8.116620603200000E9     5.069751116777970E-1    1.233232610104985E-2    5.956659226505983E-4    3.590951860765024E-3    6.779517994839445E-4    3.635062457028328E-3    4.273162148847989E-1   -1.430866208428241E-1
 8.116625887375000E9     5.068891210131070E-1    1.195550468725346E-2    5.851941051756729E-4    3.610440173417780E-3    6.425274398329890E-4    3.710075988786598E-3    4.268196256099821E-1   -1.434955162919062E-1
 8.116631171550000E9     5.068242607063662E-1    1.158819407519866E-2    5.972986329161438E-4    3.619529852939552E-3    6.691197052767920E-4    3.685328212981155E-3    4.269851114388881E-1   -1.436315342071239E-1
 8.116636455725000E9     5.069725009894959E-1    1.125670106650888E-2    5.999492025004884E-4    3.618943598779805E-3    6.512288731057944E-4    3.628585267785060E-3    4.269084249455197E-1   -1.439642144792414E-1
 8.116641739900000E9     5.069035651604745E-1    1.073805036598438E-2    5.869313149200349E-4    3.607977352085128E-3    6.627338045530082E-4    3.676374160974019E-3    4.267618674019015E-1   -1.445070766523408E-1
 8.116647024075000E9     5.068692275372522E-1    1.042819488921629E-2    5.801260850077513E-4    3.612605406985377E-3    6.661360715884879E-4    3.663681587075538E-3    4.266434866131641E-1   -1.448835419010836E-1
 8.116652308250000E9     5.069367011097067E-1    1.006032757246056E-2    6.235690969773172E-4    3.631270332436222E-3    6.714432724505654E-4    3.654941961798661E-3    4.265046211704349E-1   -1.451918311513947E-1
 8.116657592425000E9     5.069344979876463E-1    9.556386826118731E-3    6.178398632804200E-4    3.596865063059659E-3    6.723930693036056E-4    3.698399733636666E-3    4.264239133903485E-1   -1.454535577246795E-1
 8.116662876600000E9     5.068502775399961E-1    9.258115669269134E-3    6.201991637858022E-4    3.639315314599907E-3    7.337203877698326E-4    3.679207994665270E-3    4.263385942955751E-1   -1.459329178530946E-1
 8.116668160775000E9     5.069564527354722E-1    8.749771244513892E-3    6.302228275557171E-4    3.605607855027535E-3    7.023331045354246E-4    3.683587719179660E-3    4.262707729093196E-1   -1.462442383761638E-1
 8.116673444950000E9     5.069454806323174E-1    8.424387950903420E-3    6.430069363852093E-4    3.615146118084707E-3    6.615838944519591E-4    3.667528247163981E-3    4.261261932060742E-1   -1.466459557942001E-1
 8.116678729125000E9     5.069388415912169E-1    8.096868200382070E-3    6.531875131313680E-4    3.631864185522144E-3    6.702773011936590E-4    3.695234630542448E-3    4.261093773460718E-1   -1.472205219668537E-1
 8.116684013300000E9     5.069224620170834E-1    7.564283378979594E-3    6.447498329494427E-4    3.647944077318196E-3    6.904254004504709E-4    3.678957760942611E-3    4.258520130320990E-1   -1.473356248585087E-1
 8.116689297475000E9     5.068772204815362E-1    7.221640806266002E-3    6.249778403057047E-4    3.635507629645872E-3    7.099127321389898E-4    3.691438620747867E-3    4.258280292628659E-1   -1.476351767748950E-1
 8.116694581650000E9     5.068040571979758E-1    6.771988026996689E-3    6.329758119554005E-4    3.654547298080635E-3    7.170213634662566E-4    3.671008160304012E-3    4.256240201450975E-1   -1.478162304655058E-1
 8.116699865825000E9     5.068542262493145E-1    6.425491278291800E-3    6.534061639035562E-4    3.622627113826728E-3    7.236652391213014E-4    3.691408534651322E-3    4.254751314755140E-1   -1.483313974095415E-1
 8.116705150000000E9     5.069500116610015E-1    5.989588965084049E-3    6.652473135436292E-4    3.644655366507331E-3    7.080539876602111E-4    3.683937182017019E-3    4.254565943666107E-1   -1.488114862871660E-1
 8.116710434175000E9     5.068472023344245E-1    5.551285893386246E-3    6.654163020796518E-4    3.648324474223659E-3    7.114048720895811E-4    3.697770036283982E-3    4.253467057864090E-1   -1.490747823067630E-1
 8.116715718350000E9     5.068798806645002E-1    5.193831545264230E-3    6.733851592174610E-4    3.660047960689346E-3    7.124244823380739E-4    3.679748254254247E-3    4.252683790396187E-1   -1.494487667486243E-1
 8.116721002525000E9     5.069046661299808E-1    4.794733570742204E-3    6.536470209650718E-4    3.645955887193376E-3    7.398777828233245E-4    3.676786289310033E-3    4.252582261648813E-1   -1.497474209079599E-1
 8.116726286700000E9     5.068396295205958E-1    4.383933924896304E-3    6.762983014695409E-4    3.641344585713436E-3    7.446598893949296E-4    3.719438020990168E-3    4.250314799800998E-1   -1.501239899347695E-1
 8.116731570875000E9     5.068796690156966E-1    3.905624246264556E-3    6.780991246912548E-4    3.658641524891299E-3    7.157493770083220E-4    3.696828351042020E-3    4.248980619415025E-1   -1.503084426101420E-1
 8.116736855050000E9     5.068984154939675E-1    3.674028027806750E-3    6.667992853252416E-4    3.654556405807945E-3    7.067336486376411E-4    3.691028747330077E-3    4.247902893272030E-1   -1.508677929588475E-1
 8.116742139225000E9     5.068031695415491E-1    3.040769151543677E-3    6.640692589602699E-4    3.654865713759484E-3    6.984337256781157E-4    3.701223493337482E-3    4.246680322797887E-1   -1.511010617550740E-1
 8.116747423400000E9     5.067756667514535E-1    2.751064709181179E-3    6.963731567656297E-4    3.652824440761412E-3    7.632062957723799E-4    3.710442707286559E-3    4.245933311884704E-1   -1.516552374830294E-1
 8.116752707575000E9     5.068922392846210E-1    2.320194971062833E-3    6.922500994644734E-4    3.632085413049290E-3    7.209091940822625E-4    3.694257026327389E-3    4.245442421093474E-1   -1.519358524132100E-1
 8.116757991750000E9     5.068825972278791E-1    1.990019853703234E-3    7.069698565531074E-4    3.656934404587048E-3    7.380318113445013E-4    3.749839832427678E-3    4.242213203712321E-1   -1.522670676889080E-1
 8.116763275925000E9     5.068493950624594E-1    1.625204277084932E-3    6.904848177748330E-4    3.672327062770075E-3    7.498695855582952E-4    3.707131124878042E-3    4.242423628435600E-1   -1.525937901088520E-1
 8.116768560100000E9     5.067077575778485E-1    1.127863464149445E-3    7.172595749810156E-4    3.662539095506725E-3    7.734947214976955E-4    3.709068674197339E-3    4.242240030432890E-1   -1.529470020719578E-1
 8.116773844275000E9     5.067589083361201E-1    7.436208751335820E-4    7.046517934364789E-4    3.650907147862167E-3    7.937574782012299E-4    3.725807667047794E-3    4.241100553207884E-1   -1.532818777416477E-1
 8.116779128450000E9     5.067872369026905E-1    3.295843693605011E-4    7.025130236977308E-4    3.668443774019395E-3    7.285649068577351E-4    3.751715625597701E-3    4.239348385095468E-1   -1.536255413516491E-1
 8.116784412625000E9     5.068596431292527E-1   -5.150152109904264E-5    7.227630023203986E-4    3.671735038685397E-3    7.854722693110843E-4    3.724800175456133E-3    4.237021934275270E-1   -1.539599777366386E-1
 8.116789696800000E9     5.068411271825386E-1   -3.923871870067845E-4    7.009438835707217E-4    3.662731111599861E-3    8.033360023948956E-4    3.693901207405005E-3    4.236172092941789E-1   -1.543516471025835E-1
 8.116794980975000E9     5.067674561613085E-1   -8.830684592239154E-4    7.161761401083514E-4    3.693905193162889E-3    7.434458155380827E-4    3.727243020730220E-3    4.235266272718834E-1   -1.547049840648783E-1
 8.116800265150000E9     5.067208502579892E-1   -1.231677534134105E-3    7.023151594636280E-4    3.700828254783291E-3    8.111324775025347E-4    3.756550699854073E-3    4.235113242378555E-1   -1.549507213395918E-1
 8.116805549325000E9     5.067856634894743E-1   -1.768120425304499E-3    7.199985256099472E-4    3.665756519551092E-3    7.758586841025796E-4    3.712012226885282E-3    4.232255107561484E-1   -1.554183984960947E-1
 8.116810833500000E9     5.066768993741683E-1   -2.197595380382783E-3    7.374494575538014E-4    3.682632149015345E-3    7.834954122019543E-4    3.741733357333940E-3    4.231693890008115E-1   -1.557602751927712E-1
 8.116816117675000E9     5.068407671171854E-1   -2.627301802616377E-3    7.240077364304152E-4    3.664981996936172E-3    7.774997556975270E-4    3.765931328771168E-3    4.232107255154980E-1   -1.561084809386045E-1
 8.116821401850000E9     5.067413726842745E-1   -3.015113870622816E-3    7.546115520985977E-4    3.705193124215692E-3    8.276447197533233E-4    3.733251086331056E-3    4.228125153230947E-1   -1.564613389195681E-1
 8.116826686025000E9     5.066695291708796E-1   -3.310830045684888E-3    7.555391636287603E-4    3.672003994722817E-3    7.808468866362631E-4    3.737917180740076E-3    4.227760944908769E-1   -1.567434418573943E-1
 8.116831970200000E9     5.067326431035714E-1   -3.709555451291542E-3    7.427498967518515E-4    3.688886961922819E-3    7.678148957820797E-4    3.747952726407767E-3    4.228137006774848E-1   -1.573211852818036E-1
 8.116837254375000E9     5.065947690395136E-1   -4.105288149824800E-3    7.578602025550781E-4    3.680760101909431E-3    8.649542128801920E-4    3.726611169052358E-3    4.226746433090854E-1   -1.575308355953438E-1
 8.116842538550000E9     5.066411656961373E-1   -4.546762057224286E-3    7.600040655046957E-4    3.703455778299029E-3    8.522668577759211E-4    3.767406470466905E-3    4.225384137630946E-1   -1.578510852508434E-1
 8.116847822725000E9     5.066353914905970E-1   -5.032295474262071E-3    7.461375171311761E-4    3.709320424377625E-3    8.309846804500049E-4    3.765244236826454E-3    4.225476239484947E-1   -1.581991557549855E-1
 8.116853106900000E9     5.066356609661334E-1   -5.424044425860434E-3    7.472920702153133E-4    3.695178527459543E-3    8.026974555258706E-4    3.779675603161104E-3    4.223253659311311E-1   -1.585812358261182E-1
 8.116858391075000E9     5.065785664282161E-1   -5.802666850098765E-3    8.062318480976827E-4    3.701556448941829E-3    7.970147336633968E-4    3.781168828494310E-3    4.222289466235146E-1   -1.589172791194566E-1
 8.116863675250000E9     5.065907706880157E-1   -6.297535396732759E-3    7.793654784864379E-4    3.714940949477838E-3    8.064332716513861E-4    3.772696638267794E-3    4.220464983518935E-1   -1.592704621551684E-1
 8.116868959425000E9     5.066241641465674E-1   -6.620331538457680E-3    7.919115394524603E-4    3.711267766172861E-3    8.169243757960714E-4    3.786579268298105E-3    4.219769775248001E-1   -1.596307588596090E-1
 8.116874243600000E9     5.066535780895107E-1   -6.941907186641593E-3    7.786663553425746E-4    3.750101606373691E-3    8.450659121692739E-4    3.799888119313628E-3    4.217978059616665E-1   -1.598167069725672E-1
 8.116879527775000E9     5.066446227283755E-1   -7.513079612844390E-3    7.684265908248439E-4    3.708885064321640E-3    8.149413164207126E-4    3.764181145054706E-3    4.216940533465744E-1   -1.604700991397073E-1
 8.116884811950000E9     5.065437912931203E-1   -7.902622828615468E-3    8.120197890999839E-4    3.737711683908032E-3    8.377681975624405E-4    3.784918848857734E-3    4.216875150153448E-1   -1.605820022473866E-1
 8.116890096125000E9     5.065724294676524E-1   -8.274140200914980E-3    8.075077013796922E-4    3.735503612051653E-3    8.534643891163083E-4    3.752508020498874E-3    4.215298556222094E-1   -1.611532317599890E-1
 8.116895380300000E9     5.063809606091453E-1   -8.683206045880335E-3    7.922711984054978E-4    3.745019547661175E-3    8.474601893546931E-4    3.769720843689522E-3    4.214472806089551E-1   -1.614163232105609E-1
 8.116900664475000E9     5.064713820408603E-1   -8.987663269844648E-3    8.057242643787213E-4    3.727904916590994E-3    8.768980702415048E-4    3.810069570989268E-3    4.211895299541606E-1   -1.617670094961436E-1
 8.116905948650000E9     5.064622949201667E-1   -9.398864820616807E-3    8.215300623575092E-4    3.770531660082222E-3    8.377852514185254E-4    3.825263845717239E-3    4.211840354577580E-1   -1.620213000283495E-1
 8.116911232825000E9     5.064585492006582E-1   -9.868021504566282E-3    8.132626271975494E-4    3.727846106966712E-3    8.411444269598337E-4    3.791176929031823E-3    4.210964251976877E-1   -1.624691150058054E-1
 8.116916517000000E9     5.064200581578948E-1   -1.036917471149608E-2    8.032025002989605E-4    3.740188548145851E-3    8.612923140190114E-4    3.808504116067536E-3    4.208548111185871E-1   -1.627711906682852E-1
 8.116921801175000E9     5.064181648820543E-1   -1.078726810557143E-2    8.147152119719134E-4    3.729265370646752E-3    8.682438580189477E-4    3.798119667027426E-3    4.209226398472103E-1   -1.631076789649656E-1
 8.116927085350000E9     5.064288986701027E-1   -1.111855350234895E-2    8.337955537126675E-4    3.754134058744231E-3    8.850006618684836E-4    3.794659535599387E-3    4.206629969579569E-1   -1.635476573874896E-1
 8.116932369525000E9     5.063754809106911E-1   -1.151631809354782E-2    8.444557049108846E-4    3.772474152848923E-3    9.173433173894332E-4    3.810148874687022E-3    4.205644866025987E-1   -1.638290256531597E-1
 8.116937653700000E9     5.063335147510248E-1   -1.203168738271762E-2    8.274792014266694E-4    3.751201927886767E-3    8.827097006658748E-4    3.848899021345539E-3    4.203577314336983E-1   -1.642108349581831E-1
 8.116942937875000E9     5.063840392475024E-1   -1.227288941695527E-2    8.548392643240938E-4    3.758323674206132E-3    9.146133080268099E-4    3.867864517331946E-3    4.202902117021937E-1   -1.645521618049857E-1
 8.116948222050000E9     5.062996380681332E-1   -1.285807251941583E-2    8.447343139938950E-4    3.770634670951879E-3    9.245804962131719E-4    3.848941527509019E-3    4.202262879900751E-1   -1.648236067645299E-1
 8.116953506225000E9     5.063198689930014E-1   -1.317234414805254E-2    8.525371433531221E-4    3.787812808367309E-3    9.402732368525460E-4    3.829710358513427E-3    4.200399672413506E-1   -1.651889062871202E-1
 8.116958790400000E9     5.063014968680651E-1   -1.361579155345853E-2    8.830813162084302E-4    3.773266840415826E-3    8.898442699512952E-4    3.853030297984554E-3    4.200626993756120E-1   -1.654661499431083E-1
 8.116964074575000E9     5.063096276911521E-1   -1.411516822920573E-2    8.599879115963026E-4    3.765015710824862E-3    9.512452563062550E-4    3.851767721844656E-3    4.197920540235562E-1   -1.658176187147281E-1
 8.116969358750000E9     5.061527485927044E-1   -1.440417428231228E-2    8.701025364414602E-4    3.769415083196500E-3    9.101315943925878E-4    3.853243428636332E-3    4.196520640269140E-1   -1.661735423959105E-1
