#  HZ   S   RI   R     50.00 
! Rohde & Schwarz Vector Network Analyzer 
! Rohde-Schwarz,ZNB20-2Port,1311601062101988,3.16
! Created: UTC 3/20/2024, 11:57:54 AM
! freq[Hz]                re:S11                  im:S11                  re:S21                  im:S21                  re:S12                  im:S12                  re:S22                  im:S22
 8.116701996000000E9     5.068561808920145E-1    6.683767187693276E-3    6.389380644374381E-4    3.618827272796025E-3    7.402391653173800E-4    3.685226715245316E-3    4.253382774722784E-1   -1.485028168416862E-1
 8.116706490200000E9     5.067998283177204E-1    6.331892354560591E-3    6.272198314546351E-4    3.620686047039017E-3    6.848514934605655E-4    3.644265377933595E-3    4.252203329657360E-1   -1.490182585201712E-1
 8.116710984400000E9     5.068500368124593E-1    5.988267011077836E-3    6.583336197983297E-4    3.636864748277076E-3    6.769662039127452E-4    3.678309725301813E-3    4.251158814786972E-1   -1.491615001250208E-1
 8.116715478600000E9     5.069104884408004E-1    5.701219337756973E-3    6.327370791460692E-4    3.630204524670833E-3    7.008685961268538E-4    3.679405782784281E-3    4.249357274394717E-1   -1.495976149127770E-1
 8.116719972800000E9     5.069312660385011E-1    5.316285570229241E-3    6.309954592427994E-4    3.592097236847501E-3    6.862620011933308E-4    3.686680475094710E-3    4.249621790684215E-1   -1.497978075317274E-1
 8.116724467000000E9     5.068607073768192E-1    4.868296094388857E-3    6.576903900844676E-4    3.610362980210109E-3    6.743382706948235E-4    3.694462503751891E-3    4.247979706984316E-1   -1.501451823986223E-1
 8.116728961200000E9     5.068791156371080E-1    4.539952738542504E-3    6.558045271586168E-4    3.604700635458813E-3    7.145888394505250E-4    3.674827488440962E-3    4.247246396315260E-1   -1.504391699635723E-1
 8.116733455400000E9     5.068275526504975E-1    4.097399396397461E-3    6.771290896052454E-4    3.621158977035521E-3    7.238677084251334E-4    3.679952254860674E-3    4.245794174554293E-1   -1.506440664341465E-1
 8.116737949600000E9     5.069263153854369E-1    3.858289576170255E-3    6.505968648840426E-4    3.636827340603066E-3    7.438186970114392E-4    3.683372279896762E-3    4.246646769228534E-1   -1.511721423653445E-1
 8.116742443800000E9     5.069078359229773E-1    3.431237913603191E-3    6.677722468154412E-4    3.632641488277313E-3    7.127540001762267E-4    3.698502744889420E-3    4.243890651795491E-1   -1.513725074623584E-1
 8.116746938000000E9     5.068842867589601E-1    3.129345870230059E-3    6.604641174118958E-4    3.638538705207806E-3    7.086842305552457E-4    3.677506210285134E-3    4.243239436003982E-1   -1.516382994770241E-1
 8.116751432200000E9     5.068161227205272E-1    2.696925738215864E-3    6.673548324077669E-4    3.646649273730721E-3    7.203006901258490E-4    3.680578201454275E-3    4.243341632999670E-1   -1.520271892388726E-1
 8.116755926400000E9     5.068517045552104E-1    2.499506649481957E-3    6.725567941071536E-4    3.647264177754527E-3    7.267625724341608E-4    3.708570914205127E-3    4.241644636367772E-1   -1.522106353526423E-1
 8.116760420600000E9     5.068996591909971E-1    2.056308375275821E-3    6.883925324130775E-4    3.628000198905332E-3    7.201951646974918E-4    3.683830523901082E-3    4.241097579414008E-1   -1.525611188139685E-1
 8.116764914800000E9     5.068584621353585E-1    1.702829037953402E-3    6.883552878564296E-4    3.641869004686673E-3    7.115653387627941E-4    3.700344535852238E-3    4.239897308806513E-1   -1.527215230181525E-1
 8.116769409000000E9     5.068472863385288E-1    1.486697382763731E-3    6.686591873511363E-4    3.646059987760539E-3    7.133576793550493E-4    3.688685636231019E-3    4.240018794529279E-1   -1.531762397640131E-1
 8.116773903200000E9     5.069743951921535E-1    1.065904058995565E-3    6.896510106654241E-4    3.651307946648862E-3    7.088522977715907E-4    3.716604152493116E-3    4.238817624488925E-1   -1.534127358903863E-1
 8.116778397400000E9     5.068509251126935E-1    8.276556830055758E-4    6.937634681275541E-4    3.658380689852479E-3    7.527584410874934E-4    3.741348165425787E-3    4.237208898479092E-1   -1.536804064712161E-1
 8.116782891600000E9     5.068427324075115E-1    3.955278686844285E-4    6.904845769948924E-4    3.661893920201792E-3    7.182262032585911E-4    3.722050853536738E-3    4.238637079203235E-1   -1.541646448386822E-1
 8.116787385800000E9     5.067911902518790E-1    1.362837798617593E-4    6.697178697316362E-4    3.664618565661404E-3    7.448210880419198E-4    3.733585833946707E-3    4.235585628515674E-1   -1.543123510275500E-1
 8.116791880000000E9     5.067487641289748E-1   -2.729947577634234E-4    7.152138229330269E-4    3.663269563497518E-3    7.511588218697909E-4    3.712686004071828E-3    4.233875633700627E-1   -1.547662699252214E-1
 8.116796374200000E9     5.067560514803283E-1   -5.718840519150244E-4    7.426061663242398E-4    3.647528973078466E-3    7.561181663672776E-4    3.705410845522171E-3    4.232824560536840E-1   -1.550686816872855E-1
 8.116800868400000E9     5.067052499756747E-1   -1.002476921732965E-3    7.149772199460766E-4    3.628333330434383E-3    7.430899053319744E-4    3.754630757807245E-3    4.232995242958538E-1   -1.551937971218188E-1
 8.116805362600000E9     5.067319090796025E-1   -1.374132387794839E-3    7.218837648375094E-4    3.667829495010052E-3    7.922045111613482E-4    3.719976872570102E-3    4.232087522098757E-1   -1.554649077660930E-1
 8.116809856800000E9     5.067451818042482E-1   -1.702640024540851E-3    7.296450128587356E-4    3.680260233843755E-3    7.644402284638365E-4    3.710640044742345E-3    4.230846492768889E-1   -1.556190576866814E-1
 8.116814351000000E9     5.067040143543210E-1   -2.044775300206389E-3    7.273066380342266E-4    3.655655449293554E-3    7.961530457194126E-4    3.749836065579644E-3    4.229877249659884E-1   -1.560839082542974E-1
 8.116818845200000E9     5.066961700948815E-1   -2.357993730723010E-3    7.272459462189574E-4    3.637157542936035E-3    7.999673186434865E-4    3.730089449039319E-3    4.228899948223303E-1   -1.563012701431359E-1
 8.116823339400000E9     5.067249696260047E-1   -2.636967590329710E-3    7.305280074619924E-4    3.659589357763427E-3    7.977754118190451E-4    3.733378730710027E-3    4.227798351787707E-1   -1.567212040353211E-1
 8.116827833600000E9     5.066908928264923E-1   -3.034265733009926E-3    7.298890477958058E-4    3.672502101317184E-3    7.771505452350238E-4    3.752495880472049E-3    4.225771510525438E-1   -1.570188847981362E-1
 8.116832327800000E9     5.067192737851813E-1   -3.386727666790056E-3    7.369628363501040E-4    3.665885368244003E-3    7.767133228201828E-4    3.724125308776231E-3    4.225622557708906E-1   -1.573390675209706E-1
 8.116836822000000E9     5.067004003776169E-1   -3.758638722184883E-3    7.181692948393932E-4    3.686550855312520E-3    8.288435981176270E-4    3.720277835439792E-3    4.225074595729716E-1   -1.576267642647387E-1
 8.116841316200000E9     5.067002968156401E-1   -4.024775308358270E-3    7.376818007519099E-4    3.691626230344274E-3    7.630539939987045E-4    3.735208440053454E-3    4.224455297864428E-1   -1.579186400757374E-1
 8.116845810400000E9     5.067908914787629E-1   -4.447411119196857E-3    7.494448887872373E-4    3.673120001851259E-3    7.895703214472696E-4    3.772111572413817E-3    4.223319300290348E-1   -1.582530006196642E-1
 8.116850304600000E9     5.067863638582828E-1   -4.696292023591053E-3    7.647611016723339E-4    3.698148192470468E-3    8.373047909443491E-4    3.733185838359918E-3    4.222966680005393E-1   -1.585954950598001E-1
 8.116854798800000E9     5.066789685799277E-1   -5.179608130811310E-3    7.576512611987524E-4    3.696860275969095E-3    8.349521253006051E-4    3.758735119370777E-3    4.220813011262626E-1   -1.587650824141559E-1
 8.116859293000000E9     5.067085607911745E-1   -5.451067689225597E-3    7.466525266621057E-4    3.675719694158761E-3    8.137406102419545E-4    3.762490288090040E-3    4.218763295520362E-1   -1.591159557062703E-1
 8.116863787200000E9     5.066788234257409E-1   -5.735030064755471E-3    7.514970547317200E-4    3.688069331388598E-3    8.480485326292830E-4    3.761951744878396E-3    4.219301928108846E-1   -1.593197694328554E-1
 8.116868281400000E9     5.066989841825220E-1   -6.190407858506128E-3    7.434299905815526E-4    3.675999462510458E-3    8.103827923663574E-4    3.750451637018459E-3    4.217582978965804E-1   -1.596427497563625E-1
 8.116872775600000E9     5.065724001498356E-1   -6.438090957104550E-3    7.689396332309986E-4    3.730439682134784E-3    8.332632568110727E-4    3.748767222631513E-3    4.216338788043997E-1   -1.600013200243605E-1
 8.116877269800000E9     5.067084215442101E-1   -6.923141412850910E-3    7.970264712239954E-4    3.680368347885148E-3    8.319691063752569E-4    3.762814752325219E-3    4.215801052366485E-1   -1.603583288472300E-1
 8.116881764000000E9     5.066138000597087E-1   -7.233089278953713E-3    7.732886875408239E-4    3.699962360843722E-3    8.478180465732567E-4    3.746484413075744E-3    4.213248679876346E-1   -1.604391966155958E-1
 8.116886258200000E9     5.066824035592896E-1   -7.529404972294199E-3    7.820198777498026E-4    3.694255225082268E-3    8.397355876989014E-4    3.764927261332186E-3    4.213897443811170E-1   -1.607903025002455E-1
 8.116890752400000E9     5.067422499219969E-1   -7.831631379904091E-3    7.780679890142383E-4    3.717307383522778E-3    8.498827584225387E-4    3.756916858316234E-3    4.213928788409250E-1   -1.611011475790345E-1
 8.116895246600000E9     5.065887971582018E-1   -8.277119382287548E-3    8.111108532347255E-4    3.715130956505326E-3    8.250821824513830E-4    3.762077041996526E-3    4.213109993170573E-1   -1.613215871621697E-1
 8.116899740800000E9     5.064596677091903E-1   -8.646306218184237E-3    7.802337447784133E-4    3.724752276633642E-3    8.430732893985731E-4    3.795171607139231E-3    4.210195250684657E-1   -1.616872391291072E-1
 8.116904235000000E9     5.066102513244751E-1   -8.920240806859677E-3    7.898867352321233E-4    3.731690211248796E-3    8.187258887220297E-4    3.759151424716522E-3    4.209617965158239E-1   -1.620105786019268E-1
 8.116908729200000E9     5.065598263251311E-1   -9.324625868846520E-3    7.808467037343478E-4    3.719487554104879E-3    8.498301184212616E-4    3.761278177022070E-3    4.210345145315673E-1   -1.623963024458515E-1
 8.116913223400000E9     5.065448288051914E-1   -9.684621984639256E-3    8.076183399535450E-4    3.718142114795257E-3    8.595549795491250E-4    3.786028162999988E-3    4.207710422749839E-1   -1.626205414430142E-1
 8.116917717600000E9     5.065035461651263E-1   -1.001909002546068E-2    7.940170408685214E-4    3.698628650294898E-3    9.150452363728647E-4    3.797791922057806E-3    4.206632204021635E-1   -1.629313624136249E-1
 8.116922211800000E9     5.065311539207464E-1   -1.037586283624213E-2    7.834325089927978E-4    3.724930302226679E-3    8.333823062509366E-4    3.773489762182446E-3    4.207031868357098E-1   -1.631190225838037E-1
 8.116926706000000E9     5.064144803855504E-1   -1.072463930008152E-2    8.140632236737396E-4    3.721474701263966E-3    8.450543988074870E-4    3.797950814033497E-3    4.204448800073681E-1   -1.635211755595299E-1
 8.116931200200000E9     5.065293104864800E-1   -1.100977552716386E-2    8.226566512651685E-4    3.720792640137524E-3    8.660744958143334E-4    3.795120950541696E-3    4.204255413170838E-1   -1.639314217914940E-1
 8.116935694400000E9     5.064099039262571E-1   -1.135197748391242E-2    8.017382268126287E-4    3.734116410647209E-3    8.709248109557700E-4    3.822184694478399E-3    4.204120509903574E-1   -1.640934532426885E-1
 8.116940188600000E9     5.063994112569398E-1   -1.168412691239131E-2    8.341667627726467E-4    3.719452207858373E-3    8.330495534745064E-4    3.791606655603865E-3    4.202347971205124E-1   -1.643940094380955E-1
 8.116944682800000E9     5.063592644995784E-1   -1.216680658061346E-2    8.134334553928380E-4    3.752109943338368E-3    8.840350186291460E-4    3.790796814071481E-3    4.200941807428097E-1   -1.647375288435591E-1
 8.116949177000000E9     5.063616076961990E-1   -1.254720957103751E-2    8.187960671509498E-4    3.755205874456347E-3    8.797817335412868E-4    3.769782242428007E-3    4.199766223708439E-1   -1.649319223695667E-1
 8.116953671200000E9     5.063598387968437E-1   -1.282976207704588E-2    8.452994643650797E-4    3.750340974573213E-3    8.770952734368191E-4    3.812838682006962E-3    4.198084480126545E-1   -1.651869398963754E-1
 8.116958165400000E9     5.063159990866493E-1   -1.315760967626013E-2    8.405342901243848E-4    3.750056650673345E-3    8.783750646570856E-4    3.845215844963421E-3    4.196444495872413E-1   -1.654165550289397E-1
 8.116962659600000E9     5.063351933921698E-1   -1.346080504593948E-2    8.435576750332274E-4    3.788097427426285E-3    8.998722396667458E-4    3.807747292963577E-3    4.196847305207755E-1   -1.657926696336169E-1
 8.116967153800000E9     5.061487203080113E-1   -1.389345102596632E-2    8.399835637291177E-4    3.759440427909875E-3    8.916650955842722E-4    3.836762976370224E-3    4.196369949516763E-1   -1.663416112626220E-1
 8.116971648000000E9     5.062599789774850E-1   -1.408964609510436E-2    8.442143746359514E-4    3.743210950633954E-3    9.249753403780752E-4    3.829371840316930E-3    4.193669664627032E-1   -1.662967377474663E-1
 8.116976142200000E9     5.062267977020283E-1   -1.459578737105090E-2    8.441988758690738E-4    3.772342676230396E-3    8.860030506689047E-4    3.815530099133352E-3    4.192796937493267E-1   -1.668259836641768E-1
 8.116980636400000E9     5.062729385094520E-1   -1.476223348383523E-2    8.638278978083816E-4    3.772801969815331E-3    8.886739979318568E-4    3.824278504238001E-3    4.192580498395913E-1   -1.671709213452773E-1
 8.116985130600000E9     5.061583639605631E-1   -1.537541394723796E-2    8.512147632431232E-4    3.791156504710310E-3    9.167961459116186E-4    3.851052341032406E-3    4.192333440668504E-1   -1.674488630311289E-1
 8.116989624800000E9     5.062770372597351E-1   -1.558492731012503E-2    8.648370396888278E-4    3.788501942476224E-3    9.499227696826259E-4    3.845196932365271E-3    4.191091143331409E-1   -1.678679381909931E-1
 8.116994119000000E9     5.062141940774704E-1   -1.599271505396582E-2    8.830638050157096E-4    3.778332084503376E-3    9.989191387491879E-4    3.851933050222093E-3    4.189308698301807E-1   -1.679884122598622E-1
 8.116998613200000E9     5.061636956524179E-1   -1.630479737624196E-2    8.775212773125728E-4    3.767675074677029E-3    9.167612389878639E-4    3.798605768381006E-3    4.187913329012229E-1   -1.680998459433533E-1
 8.117003107400000E9     5.061968543413546E-1   -1.664242549345457E-2    8.752076273009933E-4    3.797295182606110E-3    9.525069769637424E-4    3.834395522077952E-3    4.187817703358062E-1   -1.685218216307426E-1
 8.117007601600000E9     5.061366838621126E-1   -1.703161072012728E-2    9.083483434506147E-4    3.794571641301174E-3    9.588109818224650E-4    3.855890342042053E-3    4.186046499606456E-1   -1.688130860353871E-1
 8.117012095800000E9     5.061359010011043E-1   -1.738945330902411E-2    9.113878928042793E-4    3.766077742684396E-3    9.303372007013908E-4    3.827243955790061E-3    4.184896823675160E-1   -1.690692614756771E-1
 8.117016590000000E9     5.060626637235958E-1   -1.767350551003301E-2    8.748539193855717E-4    3.803293030222875E-3    9.251950974989196E-4    3.849222692377691E-3    4.184613953887151E-1   -1.694092680754985E-1
 8.117021084200000E9     5.060301649686130E-1   -1.814190459904732E-2    9.081708130379867E-4    3.793703564282058E-3    9.711015725860888E-4    3.840477206363484E-3    4.183554341148893E-1   -1.697783531198955E-1
 8.117025578400000E9     5.059943220801646E-1   -1.840352885407618E-2    9.223154644616049E-4    3.804291234146279E-3    9.658273619826073E-4    3.867456199108502E-3    4.181866550805678E-1   -1.700220052381805E-1
 8.117030072600000E9     5.060015497243711E-1   -1.875511375231662E-2    9.015135334162821E-4    3.808637544936697E-3    9.479383416896373E-4    3.886186505571230E-3    4.180235918419143E-1   -1.702741408549467E-1
 8.117034566800000E9     5.058872070975552E-1   -1.917760372063057E-2    9.044805160784190E-4    3.814455177586983E-3    9.301695280828087E-4    3.890575390021410E-3    4.180103029267557E-1   -1.704571259952996E-1
 8.117039061000000E9     5.058678156729414E-1   -1.951175567213642E-2    9.323476788965585E-4    3.820282954069514E-3    9.634600321202096E-4    3.859685963305467E-3    4.179944348076282E-1   -1.709877987465112E-1
 8.117043555200000E9     5.058607228455757E-1   -1.980516914945032E-2    9.310641870824585E-4    3.811042785319386E-3    9.889944275215238E-4    3.875942592761782E-3    4.176653129313667E-1   -1.711496312714165E-1
 8.117048049400000E9     5.058284149094445E-1   -2.026418372785841E-2    9.287095412442283E-4    3.846826300296800E-3    9.913130149069469E-4    3.890952983218401E-3    4.177753260084302E-1   -1.714487580914812E-1
 8.117052543600000E9     5.058092962787151E-1   -2.060952536057496E-2    9.413288477609150E-4    3.823581528959329E-3    9.590656852024868E-4    3.889469532413082E-3    4.176298180885031E-1   -1.717118110926962E-1
 8.117057037800000E9     5.059041772740808E-1   -2.094611059394259E-2    9.427925793233895E-4    3.823261033274563E-3    1.003587296693458E-3    3.894611600793836E-3    4.174455906433747E-1   -1.720750204738137E-1
 8.117061532000000E9     5.058444129672713E-1   -2.135034809797391E-2    9.204963085382248E-4    3.851161682611057E-3    1.017304087140161E-3    3.905757761761433E-3    4.173936595703715E-1   -1.724134489430672E-1
 8.117066026200000E9     5.058696660539440E-1   -2.163477452826598E-2    9.414934612809302E-4    3.834634478989883E-3    1.044747784462969E-3    3.886594532112616E-3    4.173300740902713E-1   -1.726395345921796E-1
 8.117070520400000E9     5.057787260905449E-1   -2.195855009479452E-2    9.388117149899438E-4    3.851266405432652E-3    1.008726924325586E-3    3.900088984697371E-3    4.170308642258971E-1   -1.730277832391209E-1
 8.117075014600000E9     5.058185106000715E-1   -2.238042968501077E-2    9.548902567250991E-4    3.823449028184109E-3    1.031319552385082E-3    3.894183610840389E-3    4.169865242310359E-1   -1.732752304388269E-1
 8.117079508800000E9     5.057015243356422E-1   -2.270804716766110E-2    9.585765062454486E-4    3.878157832523691E-3    1.037157264323066E-3    3.904666632501469E-3    4.168273042389322E-1   -1.736138112606934E-1
 8.117084003000000E9     5.057036107063143E-1   -2.314949038129784E-2    9.890203319983589E-4    3.847469895872048E-3    1.019703972299271E-3    3.936702752125213E-3    4.168227344305946E-1   -1.737212411576560E-1
 8.117088497200000E9     5.057180796075040E-1   -2.339607171197338E-2    9.729972191734097E-4    3.886720994377924E-3    1.025686734601357E-3    3.901869673432638E-3    4.166967877919082E-1   -1.742080509766067E-1
 8.117092991400000E9     5.056388659839676E-1   -2.380193217843408E-2    9.597130157683513E-4    3.860878210973928E-3    1.018509411652558E-3    3.948145900341437E-3    4.166383056229909E-1   -1.744144139090985E-1
 8.117097485600000E9     5.056851076862253E-1   -2.415904251623673E-2    9.562826442796590E-4    3.891167023506664E-3    1.060129891621250E-3    3.946324286120978E-3    4.164406369313383E-1   -1.747837978230240E-1
 8.117101979800000E9     5.056083563177467E-1   -2.444353398480789E-2    1.003277331276872E-3    3.883494167235262E-3    1.038750975062616E-3    3.942443970001435E-3    4.164654682392923E-1   -1.748960665500423E-1
 8.117106474000000E9     5.055094260619093E-1   -2.480888501481299E-2    9.835911477956778E-4    3.870541819760170E-3    1.078611675748943E-3    3.964558750117303E-3    4.162405890287075E-1   -1.752775852615956E-1
