#  HZ   S   RI   R     50.00 
! Rohde & Schwarz Vector Network Analyzer 
! Rohde-Schwarz,ZNB20-2Port,1311601062101988,3.16
! Created: UTC 3/20/2024, 11:58:18 AM
! freq[Hz]                re:S11                  im:S11                  re:S21                  im:S21                  re:S12                  im:S12                  re:S22                  im:S22
 8.116738366000000E9     5.068261688229750E-1    3.926564110202702E-3    6.613437481989210E-4    3.611672986133567E-3    7.280907892681827E-4    3.666663197011227E-3    4.245227508014336E-1   -1.510702334794958E-1
 8.116742736050000E9     5.068115699008497E-1    3.696651968945132E-3    6.546007562585844E-4    3.611872285085770E-3    7.246282044492749E-4    3.693376779932299E-3    4.245650612007116E-1   -1.512850182585982E-1
 8.116747106100000E9     5.067862523781070E-1    3.228406652721492E-3    6.661185378539674E-4    3.615770763572004E-3    7.301954194502668E-4    3.687661977441896E-3    4.244072256741858E-1   -1.518597916548289E-1
 8.116751476150000E9     5.068522399647916E-1    3.004119825247021E-3    6.813748161355449E-4    3.664993834118471E-3    7.214568017929894E-4    3.689597310772095E-3    4.242726076857212E-1   -1.520505807224947E-1
 8.116755846200000E9     5.067541695153756E-1    2.566908501687518E-3    6.717175694700690E-4    3.619564593757942E-3    7.549070429744659E-4    3.702396062357169E-3    4.242214395629179E-1   -1.522228293686989E-1
 8.116760216250000E9     5.067237459866776E-1    2.187467879900393E-3    6.557998135994841E-4    3.653595109658985E-3    7.115360807337341E-4    3.689418488285953E-3    4.241118568767815E-1   -1.525698243329664E-1
 8.116764586300000E9     5.067540146484172E-1    2.020766172613206E-3    6.831024669422723E-4    3.644188868931707E-3    7.341624642582145E-4    3.659961931685972E-3    4.240333104794257E-1   -1.528118998286337E-1
 8.116768956350000E9     5.067321326399434E-1    1.622719219497985E-3    6.678243626571225E-4    3.656707793311234E-3    7.438591418994669E-4    3.711064895226355E-3    4.238689715300348E-1   -1.531641867526012E-1
 8.116773326400000E9     5.068380293276503E-1    1.378944032669249E-3    7.026614699243823E-4    3.652004994852199E-3    7.158782633683478E-4    3.679433768876428E-3    4.238917060256438E-1   -1.531097972244558E-1
 8.116777696450000E9     5.068000740497970E-1    8.994013015630315E-4    6.945713552489509E-4    3.622581508700048E-3    7.545591479564232E-4    3.692604580165028E-3    4.236236818349433E-1   -1.536061937990597E-1
 8.116782066500000E9     5.067863943977224E-1    5.272297943408862E-4    6.934500663321408E-4    3.629351161900076E-3    7.348077536950098E-4    3.738711702032137E-3    4.235689966395906E-1   -1.538578552059622E-1
 8.116786436550000E9     5.068147585802129E-1    2.652089944960948E-4    6.981392635733689E-4    3.652744739321948E-3    7.498811438820814E-4    3.737507301251444E-3    4.235627084826197E-1   -1.541152830394723E-1
 8.116790806600000E9     5.067591764362651E-1   -1.589210730686378E-4    6.972954848414902E-4    3.661644909697853E-3    7.683238413427236E-4    3.700768308669160E-3    4.236043225448428E-1   -1.545459890579232E-1
 8.116795176650000E9     5.067920373609011E-1   -3.833760169234976E-4    7.009592717759771E-4    3.652679687410663E-3    7.249377593636282E-4    3.694785266353208E-3    4.233650781309551E-1   -1.547275173947202E-1
 8.116799546700000E9     5.067114287640794E-1   -8.130924425590914E-4    7.210581271344778E-4    3.642979575046880E-3    7.364357303442097E-4    3.703912727035488E-3    4.233612811029364E-1   -1.550874908151193E-1
 8.116803916750000E9     5.066672124665939E-1   -1.132639007773980E-3    7.197938722625936E-4    3.663621351512801E-3    7.879061323812733E-4    3.699728354542755E-3    4.231491922456008E-1   -1.553225191951575E-1
 8.116808286800000E9     5.066485497279398E-1   -1.468128921792612E-3    7.383445097172757E-4    3.641203116680845E-3    7.674876929525443E-4    3.692711991122732E-3    4.230466740147871E-1   -1.556345704269277E-1
 8.116812656850000E9     5.066923641646649E-1   -1.816696970444771E-3    7.224928281407005E-4    3.640189779676819E-3    7.737719685761740E-4    3.722647666392458E-3    4.230146304326499E-1   -1.559594370148690E-1
 8.116817026900000E9     5.068728763781416E-1   -2.114817054710982E-3    7.446201782831759E-4    3.634435100107466E-3    7.865851770509294E-4    3.703738477902677E-3    4.229754792353057E-1   -1.562663146956133E-1
 8.116821396950000E9     5.066629240965567E-1   -2.435961047454004E-3    7.212187561495831E-4    3.624148079236338E-3    7.718212465168718E-4    3.710607025845190E-3    4.228750096786082E-1   -1.565924693649223E-1
 8.116825767000000E9     5.066168024196981E-1   -2.793578837803232E-3    7.032555975393904E-4    3.682314623282568E-3    7.914797125531077E-4    3.717182612783947E-3    4.226796110711079E-1   -1.569002068082788E-1
 8.116830137050000E9     5.067439642342462E-1   -3.069971829232777E-3    7.638424924954147E-4    3.665743432469505E-3    7.628806869470342E-4    3.743485106393496E-3    4.227283533084478E-1   -1.571914810006803E-1
 8.116834507100000E9     5.065845415730068E-1   -3.551717495608629E-3    7.166371372098909E-4    3.649338038253428E-3    7.622108638103047E-4    3.737987372198991E-3    4.225804804375387E-1   -1.574971445414134E-1
 8.116838877150000E9     5.066657460569035E-1   -3.831665082137120E-3    7.221007707077392E-4    3.670794022366101E-3    7.797780444803783E-4    3.720048773441918E-3    4.222853878837762E-1   -1.577123430340485E-1
 8.116843247200000E9     5.067045676336994E-1   -4.131613206857106E-3    7.427506797721254E-4    3.676378616567446E-3    7.941671972991957E-4    3.716150611479885E-3    4.223866422305946E-1   -1.580207982960478E-1
 8.116847617250000E9     5.067233487267515E-1   -4.425993277972951E-3    7.265966864160356E-4    3.692994720041286E-3    7.927199935772632E-4    3.702425634133249E-3    4.223130699244389E-1   -1.583298198686673E-1
 8.116851987300000E9     5.066108125835798E-1   -4.843411160148847E-3    7.615326954755203E-4    3.676787211924034E-3    8.008223626496623E-4    3.734796490665144E-3    4.221101685535731E-1   -1.586027985745675E-1
 8.116856357350000E9     5.066073573643870E-1   -5.058837293265126E-3    7.456191615870092E-4    3.659453834815510E-3    7.880221039302241E-4    3.740024242172394E-3    4.221155099069539E-1   -1.588117048260393E-1
 8.116860727400000E9     5.066980966040796E-1   -5.596853654502741E-3    7.524486534478640E-4    3.689203336415007E-3    7.822903819198935E-4    3.757174204370229E-3    4.219155493841220E-1   -1.592044920795294E-1
 8.116865097450000E9     5.064758677146963E-1   -5.908270109370289E-3    7.606726648219375E-4    3.688435394090587E-3    8.036108552814975E-4    3.716268916388752E-3    4.219049648394918E-1   -1.593361360787292E-1
 8.116869467500000E9     5.065067145296525E-1   -6.277820430270383E-3    7.592544974050148E-4    3.685905995936374E-3    8.370979870106631E-4    3.727635569189307E-3    4.217431399666987E-1   -1.596093367581431E-1
 8.116873837550000E9     5.066068278026525E-1   -6.544649190502075E-3    7.725173782733546E-4    3.692339495520545E-3    8.145553366359133E-4    3.732319296818960E-3    4.215621868277544E-1   -1.600937390362719E-1
 8.116878207600000E9     5.066032235475137E-1   -6.910022657954702E-3    7.608618070451167E-4    3.661015489206028E-3    8.086244355680438E-4    3.734935284541611E-3    4.214643794489353E-1   -1.604234440158477E-1
 8.116882577650000E9     5.064382952358131E-1   -7.258766393279206E-3    7.411597965229350E-4    3.673427938972750E-3    8.779185185429665E-4    3.765372555735804E-3    4.214658369490601E-1   -1.605896980064135E-1
 8.116886947700000E9     5.065115664645271E-1   -7.514318365531205E-3    7.638518320798525E-4    3.696113214166653E-3    8.372521874843570E-4    3.729578524866934E-3    4.212665654582869E-1   -1.608074309560495E-1
 8.116891317750000E9     5.064830566417486E-1   -7.895162867364922E-3    7.763319057181614E-4    3.722653821237522E-3    8.359579547828381E-4    3.769328042935996E-3    4.213126612932319E-1   -1.611050668253431E-1
 8.116895687800000E9     5.065817562689560E-1   -8.151915352368765E-3    7.722334459893968E-4    3.684631738920249E-3    8.556363927044990E-4    3.777472812133579E-3    4.211528860951423E-1   -1.613950103805504E-1
 8.116900057850000E9     5.064987237386466E-1   -8.494444832862751E-3    7.955700136580501E-4    3.682774134007996E-3    8.294146900335027E-4    3.760286505629361E-3    4.211383406577939E-1   -1.616277394787076E-1
 8.116904427900000E9     5.064516510851892E-1   -8.984009047508320E-3    7.902440462517578E-4    3.720066878797487E-3    8.733395021669311E-4    3.788536131489306E-3    4.210879079881372E-1   -1.620391601084121E-1
 8.116908797950000E9     5.064684363787634E-1   -9.192365821490441E-3    8.045892334722843E-4    3.691929785297607E-3    8.527694524514771E-4    3.740827251487533E-3    4.210043002610180E-1   -1.623203226569631E-1
 8.116913168000000E9     5.064491886314711E-1   -9.446909872867046E-3    7.747419407670383E-4    3.732850607100486E-3    7.908074295066368E-4    3.764444025897043E-3    4.208603752634456E-1   -1.626570333113872E-1
 8.116917538050000E9     5.064403070968101E-1   -9.890882651001309E-3    8.110490851721965E-4    3.731357044570383E-3    8.918680663774360E-4    3.768723789365902E-3    4.206484145189704E-1   -1.628176423052804E-1
 8.116921908100000E9     5.064951780120738E-1   -1.027577057320972E-2    7.985956507504600E-4    3.731999044427415E-3    8.325048351577919E-4    3.820537642402016E-3    4.205870138777758E-1   -1.632167140459923E-1
 8.116926278150000E9     5.065133346319417E-1   -1.059461086457984E-2    8.230134206365510E-4    3.718547537010772E-3    8.622142138841247E-4    3.810893525725154E-3    4.205308436996960E-1   -1.634365234847430E-1
 8.116930648200000E9     5.063837246128478E-1   -1.097908263877728E-2    8.205614095913123E-4    3.702245305514352E-3    8.695655825754927E-4    3.758945374935374E-3    4.204586927297900E-1   -1.637239277192910E-1
 8.116935018250000E9     5.064477880947098E-1   -1.135565188996265E-2    8.241411173472741E-4    3.710875094105969E-3    9.097604321065169E-4    3.805323318679585E-3    4.203492902808237E-1   -1.640397423912391E-1
 8.116939388300000E9     5.063696361834562E-1   -1.161483862845153E-2    8.129294951250273E-4    3.753729640604290E-3    8.911306104429251E-4    3.792177733784567E-3    4.201991164963550E-1   -1.643152225433728E-1
 8.116943758350000E9     5.064616240886244E-1   -1.199518350041386E-2    8.314365647726347E-4    3.748970502462959E-3    8.819699985378832E-4    3.764650400041078E-3    4.200788670830005E-1   -1.645605919395511E-1
 8.116948128400000E9     5.063837858432630E-1   -1.235865599355917E-2    8.134750683428197E-4    3.725365707527398E-3    8.835439567618825E-4    3.800611390794829E-3    4.199863944382825E-1   -1.650155048820783E-1
 8.116952498450000E9     5.063114524317073E-1   -1.258678909843960E-2    8.389917565671675E-4    3.764240861300720E-3    8.871508628531621E-4    3.831717349596827E-3    4.199761759095239E-1   -1.651865742001408E-1
 8.116956868500000E9     5.062557609432363E-1   -1.293550659244499E-2    8.149329997328665E-4    3.742627630498601E-3    8.891833886290642E-4    3.807151575668604E-3    4.198045011642402E-1   -1.655414482456609E-1
 8.116961238550000E9     5.063117416862399E-1   -1.331833038067836E-2    8.295398012584876E-4    3.732774651686323E-3    8.916334281567926E-4    3.780873616618077E-3    4.196846026699824E-1   -1.657901644922655E-1
 8.116965608600000E9     5.063629139661383E-1   -1.366011346188630E-2    8.272295650978468E-4    3.724973258386491E-3    9.010486856536725E-4    3.779494579555526E-3    4.195407279104442E-1   -1.659993564882504E-1
 8.116969978650000E9     5.062282091407182E-1   -1.404923788552974E-2    8.683438003074941E-4    3.748187497356964E-3    8.854434203329801E-4    3.792466085134843E-3    4.195134261646786E-1   -1.663622795600843E-1
 8.116974348700000E9     5.061689168717902E-1   -1.431015955767112E-2    8.391010207860092E-4    3.743024413838124E-3    8.891579547714008E-4    3.834912589008785E-3    4.194695777560305E-1   -1.667250976754040E-1
 8.116978718750000E9     5.062012474842000E-1   -1.483239885886783E-2    8.503010873169290E-4    3.742467810445951E-3    8.716509220052465E-4    3.816610443100081E-3    4.192799120666120E-1   -1.668912750049806E-1
 8.116983088800000E9     5.062255559598277E-1   -1.509757110933592E-2    8.541702344481627E-4    3.757155415811290E-3    9.180554671557918E-4    3.810117821279768E-3    4.191097723488084E-1   -1.670846329126382E-1
 8.116987458850000E9     5.061482555784776E-1   -1.552732661660217E-2    8.320197663056605E-4    3.750366628976797E-3    9.280139832747353E-4    3.846777475394647E-3    4.189241405387176E-1   -1.673785676946167E-1
 8.116991828900000E9     5.062156756061050E-1   -1.573108221829151E-2    8.540124993714112E-4    3.762122007884778E-3    9.375507454019219E-4    3.838184346119986E-3    4.190358615896662E-1   -1.677974860908401E-1
 8.116996198950000E9     5.060636829160587E-1   -1.610594551023178E-2    8.602269025234945E-4    3.792038184931153E-3    9.242552598875515E-4    3.791997730842975E-3    4.188727948950235E-1   -1.680807408591995E-1
 8.117000569000000E9     5.062086746667124E-1   -1.628231712174037E-2    8.649841098233293E-4    3.765554297697318E-3    9.542186415781773E-4    3.836430246886699E-3    4.189119190590384E-1   -1.684354369874161E-1
 8.117004939050000E9     5.061285431134849E-1   -1.666062431267084E-2    8.554322744112663E-4    3.778230402592611E-3    9.326305070513150E-4    3.819834032286485E-3    4.186759271797584E-1   -1.687628904093452E-1
 8.117009309100000E9     5.060860740762607E-1   -1.710327791074118E-2    8.858303158916812E-4    3.798640205903862E-3    9.453655240707907E-4    3.841788293752060E-3    4.186615575124653E-1   -1.689859528783475E-1
 8.117013679150000E9     5.060615781781135E-1   -1.748360075961006E-2    8.692852381666120E-4    3.787515716090803E-3    9.287684485518155E-4    3.855976950283181E-3    4.184703938493781E-1   -1.692691915369989E-1
 8.117018049200000E9     5.059372790276585E-1   -1.773293888359190E-2    8.821132599420436E-4    3.788184700690804E-3    9.579456849875986E-4    3.843108110662104E-3    4.182948383811300E-1   -1.695394577920325E-1
 8.117022419250000E9     5.060372509294825E-1   -1.813647134622058E-2    8.917289090955499E-4    3.784117225262661E-3    9.583546878385449E-4    3.838999273688529E-3    4.181916809562611E-1   -1.696616668662292E-1
 8.117026789300000E9     5.060013021396669E-1   -1.835211393554466E-2    8.873104372373122E-4    3.794099788724221E-3    9.602511596924566E-4    3.876960663522451E-3    4.181318498276166E-1   -1.700777079755194E-1
 8.117031159350000E9     5.059469738094055E-1   -1.881539878567995E-2    8.995927411179357E-4    3.797374479836532E-3    9.626595353427165E-4    3.851417565508540E-3    4.179983381537574E-1   -1.703368482935081E-1
 8.117035529400000E9     5.060408778660151E-1   -1.909142618875630E-2    9.159475110708966E-4    3.767693026199465E-3    9.439586910369425E-4    3.875413584243724E-3    4.178064968654358E-1   -1.705688332529973E-1
 8.117039899450000E9     5.060129325160092E-1   -1.951157627385485E-2    9.245898319348344E-4    3.805212278646564E-3    9.717499441784195E-4    3.867892924630529E-3    4.177399778352685E-1   -1.709566847311989E-1
 8.117044269500000E9     5.058669407208755E-1   -1.996177619633315E-2    9.165086527758133E-4    3.811058671973953E-3    9.882342146677256E-4    3.870842200394593E-3    4.177780291627669E-1   -1.711543071866046E-1
 8.117048639550000E9     5.059503614217113E-1   -2.019948598244883E-2    9.384273088825937E-4    3.820711749042069E-3    9.852556676872004E-4    3.894015212042753E-3    4.175247619795498E-1   -1.713995048930398E-1
 8.117053009600000E9     5.057982731562971E-1   -2.062536873618026E-2    9.137688036977737E-4    3.814611806784967E-3    1.010895216596857E-3    3.836665673125370E-3    4.174181371354879E-1   -1.717645202864277E-1
 8.117057379650000E9     5.058050686543065E-1   -2.082907411975834E-2    9.340231187203611E-4    3.826356134620369E-3    1.002439981567813E-3    3.877408121736659E-3    4.174884032072325E-1   -1.721085310406081E-1
 8.117061749700000E9     5.058467236481273E-1   -2.123248759548491E-2    9.369844095024427E-4    3.831326852434098E-3    9.998865821949394E-4    3.838832553412204E-3    4.173174227776802E-1   -1.724066481457110E-1
 8.117066119750000E9     5.057674393733974E-1   -2.154929842249859E-2    9.440680762658416E-4    3.830281456467744E-3    1.012126816304619E-3    3.870243544998390E-3    4.171785626574259E-1   -1.727488814457313E-1
 8.117070489800000E9     5.057691070023863E-1   -2.183787822426120E-2    9.539202881053273E-4    3.805683872770786E-3    9.950514028824722E-4    3.885293358789769E-3    4.171757211548055E-1   -1.729412881826918E-1
 8.117074859850000E9     5.057304297437243E-1   -2.230611791010827E-2    9.346377746335613E-4    3.825492303099813E-3    1.036593417716319E-3    3.930003145823676E-3    4.171496998293762E-1   -1.731474487997050E-1
 8.117079229900000E9     5.057687954215586E-1   -2.255160411200986E-2    9.351918694134423E-4    3.845781847657224E-3    1.007353938701995E-3    3.888333466476458E-3    4.168762990578596E-1   -1.734690449780772E-1
 8.117083599950000E9     5.057405372095608E-1   -2.301950270598349E-2    9.457641977200842E-4    3.854656716214639E-3    1.044970607995608E-3    3.910322899846364E-3    4.167467730687066E-1   -1.738059885350930E-1
 8.117087970000000E9     5.056696720449939E-1   -2.329944392223612E-2    9.553247576727801E-4    3.832616298709185E-3    9.872380626009534E-4    3.930907553582556E-3    4.167792046865310E-1   -1.741538458565505E-1
 8.117092340050000E9     5.057235204044466E-1   -2.362091609320386E-2    9.702186419689804E-4    3.862252341690988E-3    1.019147691860278E-3    3.933109734858230E-3    4.166217040418714E-1   -1.744430352033995E-1
 8.117096710100000E9     5.056212951363386E-1   -2.395265494392154E-2    9.696459925127156E-4    3.863787494283042E-3    1.074326140611371E-3    3.918918280021154E-3    4.164752543419999E-1   -1.746666220291949E-1
 8.117101080150000E9     5.055937254087400E-1   -2.423168406142436E-2    9.854911011917867E-4    3.861872112973586E-3    1.056579261487444E-3    3.935346191982563E-3    4.164501257855571E-1   -1.749668235895732E-1
 8.117105450200000E9     5.054958611597430E-1   -2.474703393111087E-2    9.653822547498375E-4    3.850251678579548E-3    1.041278794497976E-3    3.916504377131491E-3    4.163448878347294E-1   -1.751987574770749E-1
 8.117109820250000E9     5.056333486746186E-1   -2.493168512313674E-2    9.912144345199064E-4    3.868598577423173E-3    1.022725787990580E-3    3.910810051781565E-3    4.161062785415838E-1   -1.755524744864856E-1
 8.117114190300000E9     5.054400892409093E-1   -2.543658850938416E-2    1.005854657398719E-3    3.860891498154582E-3    1.060067845762384E-3    3.943852784043056E-3    4.159131138402680E-1   -1.757832819342035E-1
 8.117118560350000E9     5.054606617852084E-1   -2.568878624722687E-2    9.809817620931678E-4    3.875696032319252E-3    1.026738140601336E-3    3.967357366667205E-3    4.157591136727567E-1   -1.759446914174510E-1
 8.117122930400000E9     5.054639719389266E-1   -2.607889270502104E-2    1.011732211184305E-3    3.888144488367836E-3    1.062812594091564E-3    3.959699503251558E-3    4.159218060866486E-1   -1.763682447954893E-1
 8.117127300450000E9     5.053612843586632E-1   -2.635224609074188E-2    9.957969053389130E-4    3.901071655963221E-3    1.076840820450734E-3    3.955834810150685E-3    4.157786499277066E-1   -1.767135740645719E-1
 8.117131670500000E9     5.052780863051788E-1   -2.677863274977623E-2    1.022937794385540E-3    3.932372365489458E-3    1.057130772457021E-3    3.998226287429430E-3    4.157380388034685E-1   -1.769547751424980E-1
