#  HZ   S   RI   R     50.00 
! Rohde & Schwarz Vector Network Analyzer 
! Rohde-Schwarz,ZNB20-2Port,1311601062101988,3.16
! Created: UTC 3/20/2024, 11:58:39 AM
! freq[Hz]                re:S11                  im:S11                  re:S21                  im:S21                  re:S12                  im:S12                  re:S22                  im:S22
 8.116784469000000E9     5.068143240777586E-1    4.828215416893405E-4    6.933361034627972E-4    3.619810098573065E-3    7.675116226999293E-4    3.677850670973271E-3    4.236544985338790E-1   -1.541336258692165E-1
 8.116788663350000E9     5.066820091953215E-1    1.719550516830996E-4    6.980426588544190E-4    3.632590248628267E-3    7.294967971839497E-4    3.714605959757120E-3    4.234076112450114E-1   -1.543793728248451E-1
 8.116792857700000E9     5.066814760145942E-1   -1.887414378901476E-4    6.907599660379602E-4    3.661635589041305E-3    7.734681980708224E-4    3.697718058218214E-3    4.234462604321403E-1   -1.545966330007822E-1
 8.116797052050000E9     5.067679035471498E-1   -4.642882975729665E-4    7.056705422677752E-4    3.646712986966319E-3    7.427289662792363E-4    3.745169337253857E-3    4.234511710415095E-1   -1.549277881638131E-1
 8.116801246400000E9     5.066890244130017E-1   -7.933200035596598E-4    7.209165116830653E-4    3.636344481645784E-3    7.444168765123371E-4    3.685808868047347E-3    4.232251278669362E-1   -1.553523774917412E-1
 8.116805440750000E9     5.067218622751889E-1   -1.186862271114074E-3    6.965074059900984E-4    3.653901451829190E-3    7.703811231143627E-4    3.726803888507788E-3    4.233204639410437E-1   -1.554457577093234E-1
 8.116809635100000E9     5.068103304483716E-1   -1.430547069698772E-3    7.102597468805989E-4    3.644674887308699E-3    7.571776567796660E-4    3.727191331809419E-3    4.231765258241943E-1   -1.559044747101967E-1
 8.116813829450000E9     5.067027726442841E-1   -1.895312838224488E-3    7.066611862414779E-4    3.644896519312244E-3    7.623277633502591E-4    3.718031703224684E-3    4.229587252146862E-1   -1.561835762897768E-1
 8.116818023800000E9     5.066493391858586E-1   -2.117016996856108E-3    7.219167892772813E-4    3.635480283382658E-3    7.745801440027078E-4    3.711176589303529E-3    4.229596131301072E-1   -1.563218732404520E-1
 8.116822218150000E9     5.067011367654252E-1   -2.429415954202234E-3    7.132547197696061E-4    3.667824104075069E-3    7.484579114059170E-4    3.695781982879639E-3    4.228374157000120E-1   -1.565167538240618E-1
 8.116826412500000E9     5.066078867696528E-1   -2.798441736753556E-3    7.228867510706521E-4    3.683518330899426E-3    7.917632436220181E-4    3.742148264259871E-3    4.227512450871995E-1   -1.568970623056413E-1
 8.116830606850000E9     5.066940936204631E-1   -3.112511079609450E-3    7.299781244015184E-4    3.667864772152438E-3    7.987168319844234E-4    3.716568932787204E-3    4.227679065620757E-1   -1.571591383452920E-1
 8.116834801200000E9     5.066566688448503E-1   -3.497409530312816E-3    7.330498269116349E-4    3.673309763078611E-3    7.749966562304781E-4    3.723668765311398E-3    4.224993288263392E-1   -1.574524861569689E-1
 8.116838995550000E9     5.065750327478705E-1   -3.795585573943455E-3    7.235062662433042E-4    3.654529456233257E-3    8.071534912608545E-4    3.708183566986939E-3    4.225155719233802E-1   -1.577519506620628E-1
 8.116843189900000E9     5.066768721292098E-1   -4.123156932253545E-3    7.328758459338278E-4    3.665133393884018E-3    8.028151112748476E-4    3.708971760461666E-3    4.224863973118141E-1   -1.580696432550374E-1
 8.116847384250000E9     5.066029135676983E-1   -4.381894081068378E-3    7.330482012251043E-4    3.671138666445432E-3    8.059170665534190E-4    3.707673776811986E-3    4.223924793546105E-1   -1.582343523120104E-1
 8.116851578600000E9     5.065968692017578E-1   -4.721480612629119E-3    7.293628401759097E-4    3.662186009065257E-3    7.883628038260676E-4    3.741742407011343E-3    4.222615919429381E-1   -1.585379796203445E-1
 8.116855772950000E9     5.067193357571446E-1   -5.141545151385377E-3    7.228770302294765E-4    3.688577708486374E-3    7.556558759920976E-4    3.721502697858651E-3    4.220198300825387E-1   -1.587516933403924E-1
 8.116859967300000E9     5.066072265051004E-1   -5.285329235441807E-3    7.424223122711575E-4    3.666479480992252E-3    8.090094872549310E-4    3.723956671488057E-3    4.219985463693912E-1   -1.591681604727039E-1
 8.116864161650000E9     5.065406862985913E-1   -5.703983675453355E-3    7.515203205135210E-4    3.668246602377547E-3    7.663072774355408E-4    3.738725904258478E-3    4.218933464072433E-1   -1.592994417853699E-1
 8.116868356000000E9     5.065216637099610E-1   -5.935337940175919E-3    7.542462285976401E-4    3.697711473544430E-3    8.102343514964770E-4    3.741906585734746E-3    4.217645411185972E-1   -1.595637378619179E-1
 8.116872550350000E9     5.065213452532763E-1   -6.338616875125462E-3    7.714097845810494E-4    3.698049650995765E-3    8.165827901775959E-4    3.747500069980971E-3    4.216711283954852E-1   -1.599177510663731E-1
 8.116876744700000E9     5.065730697071775E-1   -6.647886472099604E-3    7.493864206521149E-4    3.683844488319463E-3    8.181218391624241E-4    3.747798283110357E-3    4.215904896092772E-1   -1.601680645455773E-1
 8.116880939050000E9     5.065267058265362E-1   -7.119832118794511E-3    7.516358063991998E-4    3.686206865839501E-3    8.066607444674729E-4    3.741820711867462E-3    4.216137230153296E-1   -1.606660266014161E-1
 8.116885133400000E9     5.064696283675180E-1   -7.350530268965138E-3    7.772769160626559E-4    3.702939284577756E-3    8.398553111290164E-4    3.746576408672917E-3    4.214991982935913E-1   -1.608059282156175E-1
 8.116889327750000E9     5.065088793443394E-1   -7.588978599221192E-3    7.915931008852521E-4    3.688831000859875E-3    8.109568977004428E-4    3.742852398665254E-3    4.213142429721156E-1   -1.610022811101769E-1
 8.116893522100000E9     5.064907927715163E-1   -7.845723825156898E-3    7.635970237924363E-4    3.710597301183603E-3    8.312836151165672E-4    3.753801608855873E-3    4.212345983427547E-1   -1.612506854972252E-1
 8.116897716450000E9     5.064974063212248E-1   -8.223330944214404E-3    7.760051658219021E-4    3.702883513000986E-3    8.484180722930135E-4    3.755766037172281E-3    4.211899253683641E-1   -1.616952914972108E-1
 8.116901910800000E9     5.065221282672485E-1   -8.642229611546036E-3    7.812303450035491E-4    3.707329434997991E-3    8.653157072831100E-4    3.736426172885700E-3    4.210863574267278E-1   -1.619262941011912E-1
 8.116906105150000E9     5.063443108754904E-1   -8.992697382406965E-3    7.681279538463134E-4    3.698738926442566E-3    8.411497071095738E-4    3.757254881418740E-3    4.210782567330119E-1   -1.622450055801235E-1
 8.116910299500000E9     5.063487839943337E-1   -9.305579749888493E-3    7.878568851597833E-4    3.712105325851946E-3    8.340172649083824E-4    3.776434803551626E-3    4.208954515333644E-1   -1.624733878315438E-1
 8.116914493850000E9     5.064580047905949E-1   -9.653370939645477E-3    8.046276771067804E-4    3.717475676688470E-3    8.320542740844942E-4    3.744684046368258E-3    4.208371578662388E-1   -1.626992459216764E-1
 8.116918688200000E9     5.063381066979047E-1   -9.936798974381125E-3    8.101907772677045E-4    3.710273180176827E-3    8.601696095784120E-4    3.752225522075427E-3    4.205883682800902E-1   -1.629800043801737E-1
 8.116922882550000E9     5.063522104532083E-1   -1.020472102479757E-2    7.950848269152082E-4    3.727287549214372E-3    8.886678343299923E-4    3.751304508818351E-3    4.204634633467924E-1   -1.633483163399799E-1
 8.116927076900000E9     5.064142560400282E-1   -1.061610848157183E-2    7.821876019576108E-4    3.711884524981049E-3    8.508590642155729E-4    3.756647109809995E-3    4.206181506633790E-1   -1.635717994842607E-1
 8.116931271250000E9     5.063913456183239E-1   -1.085105707509532E-2    7.963118225372268E-4    3.723139878959918E-3    8.786642556652734E-4    3.776198672116393E-3    4.206544854809931E-1   -1.638319309266314E-1
 8.116935465600000E9     5.064800863849827E-1   -1.127646060466183E-2    8.182731927666208E-4    3.726784725019646E-3    8.524908185641345E-4    3.808326839551315E-3    4.202577953661478E-1   -1.641143298178335E-1
 8.116939659950000E9     5.063703512378541E-1   -1.157799709935418E-2    8.026561260560319E-4    3.722947175353460E-3    9.042937217843072E-4    3.815191840479050E-3    4.201120834537158E-1   -1.643026265178610E-1
 8.116943854300000E9     5.063473673043423E-1   -1.174317489459499E-2    7.942251536888389E-4    3.731238430234973E-3    8.566150049256327E-4    3.818078229156075E-3    4.200356643917830E-1   -1.646931487237371E-1
 8.116948048650000E9     5.063655192617926E-1   -1.215714765525028E-2    8.048436455090361E-4    3.724108346952984E-3    8.474732977538298E-4    3.782439739856653E-3    4.200031046704696E-1   -1.648690952652675E-1
 8.116952243000000E9     5.063205414203178E-1   -1.252188646202511E-2    8.148265068593889E-4    3.718746162132674E-3    8.792634092132607E-4    3.781129615784118E-3    4.198236136813076E-1   -1.650800071414397E-1
 8.116956437350000E9     5.062966846827773E-1   -1.282998482222119E-2    8.292450334334046E-4    3.742716523428268E-3    8.809840499149039E-4    3.787315368216191E-3    4.198310999137528E-1   -1.654896424499420E-1
 8.116960631700000E9     5.063491979748225E-1   -1.310877175945264E-2    8.338462708905002E-4    3.743910444772859E-3    8.783240126615517E-4    3.803503086861879E-3    4.197367571199557E-1   -1.658229609608765E-1
 8.116964826050000E9     5.062608375342584E-1   -1.356828154134882E-2    8.614318418730747E-4    3.736549791764941E-3    8.926618348114028E-4    3.820469503328965E-3    4.195517034099331E-1   -1.660195559219438E-1
 8.116969020400000E9     5.063380609156405E-1   -1.391964102872495E-2    8.465983674369029E-4    3.722142121411459E-3    9.067298631397770E-4    3.843323460416503E-3    4.195009958417463E-1   -1.661201999866011E-1
 8.116973214750000E9     5.061997113714245E-1   -1.416528813736106E-2    8.267319190459916E-4    3.725260128807088E-3    9.050874234421636E-4    3.799184660828588E-3    4.194747641299574E-1   -1.665821274610053E-1
 8.116977409100000E9     5.062654414428525E-1   -1.447739992267432E-2    8.570696390093490E-4    3.747040187222387E-3    9.033999495597776E-4    3.791663866711716E-3    4.193784710423031E-1   -1.668502820177760E-1
 8.116981603450000E9     5.062820546178838E-1   -1.472730239396708E-2    8.609315715782790E-4    3.762531313150531E-3    8.772208662080675E-4    3.837639214969010E-3    4.192252487418663E-1   -1.671707565773659E-1
 8.116985797800000E9     5.062283220527759E-1   -1.516506368019420E-2    8.315045083668213E-4    3.738527992941407E-3    8.898869843560217E-4    3.791878847594897E-3    4.192059493027860E-1   -1.674138338533613E-1
 8.116989992150000E9     5.062103206554178E-1   -1.542834377867551E-2    8.431854480531517E-4    3.764610907350710E-3    9.027778602400786E-4    3.838702547178657E-3    4.190810669904973E-1   -1.676948198048356E-1
 8.116994186500000E9     5.060484025323875E-1   -1.580338442500551E-2    8.461322056994591E-4    3.764420168082731E-3    9.016841503001610E-4    3.825517503534672E-3    4.189457399738008E-1   -1.678786599677833E-1
 8.116998380850000E9     5.061153452689870E-1   -1.613039286174467E-2    8.709165002834454E-4    3.773677398983169E-3    8.785671425620949E-4    3.808704713995130E-3    4.188943884062266E-1   -1.681366000296390E-1
 8.117002575200000E9     5.060850632164205E-1   -1.633727413539575E-2    8.683844472294022E-4    3.758967661475324E-3    9.384176168136498E-4    3.822417502880117E-3    4.187397260253733E-1   -1.685486675293728E-1
 8.117006769550000E9     5.061559986753622E-1   -1.677194048084141E-2    8.736314525526534E-4    3.778526934569458E-3    8.798351855754658E-4    3.864196106850319E-3    4.186285962878766E-1   -1.689144298907026E-1
 8.117010963900000E9     5.060147200085998E-1   -1.708691140619490E-2    8.745532936282156E-4    3.767009616106228E-3    9.383781131442928E-4    3.843704087847297E-3    4.186331390890509E-1   -1.690540934848531E-1
 8.117015158250000E9     5.060055397945130E-1   -1.746188941102019E-2    8.800005875216841E-4    3.815865124188582E-3    8.994436856455595E-4    3.875054408363087E-3    4.185791275058213E-1   -1.693496656670237E-1
 8.117019352600000E9     5.060504965456009E-1   -1.778832611602359E-2    8.866157178627053E-4    3.811211472621623E-3    9.352398153025793E-4    3.840593143307348E-3    4.184163096181827E-1   -1.695356142800825E-1
 8.117023546950000E9     5.059702467365548E-1   -1.803597064496457E-2    8.941212890254089E-4    3.766321626281309E-3    9.472345132865559E-4    3.801207117671107E-3    4.182750693429185E-1   -1.698898579283091E-1
 8.117027741300000E9     5.060285235250130E-1   -1.841019428040517E-2    9.088432242093204E-4    3.787531656529494E-3    9.610144778585899E-4    3.832371390515367E-3    4.181846856757717E-1   -1.701011502888183E-1
 8.117031935650000E9     5.060173866182079E-1   -1.883422449084479E-2    9.092944530572813E-4    3.786178783875942E-3    9.738593331159927E-4    3.841019354633722E-3    4.180798561472497E-1   -1.704375509904890E-1
 8.117036130000000E9     5.060140275153879E-1   -1.908906026862707E-2    8.965145316156587E-4    3.794223280569331E-3    9.564577870306551E-4    3.864031435664397E-3    4.179511608786581E-1   -1.707328068722290E-1
 8.117040324350000E9     5.059132689729900E-1   -1.937279466654603E-2    9.035580093705787E-4    3.803436673923139E-3    9.596560667226881E-4    3.849778527537072E-3    4.177028712767671E-1   -1.710473701210732E-1
 8.117044518700000E9     5.059227279093077E-1   -1.978084620470383E-2    9.214088639118230E-4    3.796995732283518E-3    9.898114978292185E-4    3.846293935227054E-3    4.178857352116932E-1   -1.712252364854550E-1
 8.117048713050000E9     5.059324560646506E-1   -2.007399124326797E-2    8.987833660953354E-4    3.800392008065858E-3    9.630488394762993E-4    3.870230398234312E-3    4.176443608796152E-1   -1.716426898520655E-1
 8.117052907400000E9     5.059130141472156E-1   -2.037003752376823E-2    9.146718577412916E-4    3.806270776171136E-3    9.829953596437093E-4    3.869305280102063E-3    4.176529219492761E-1   -1.718066605643764E-1
 8.117057101750000E9     5.058656388102686E-1   -2.077489204797848E-2    9.443145080190562E-4    3.805542537173169E-3    9.879040080640561E-4    3.874406995771249E-3    4.174728673731751E-1   -1.720724847097632E-1
 8.117061296100000E9     5.057611418632942E-1   -2.098311368323068E-2    9.178937047324362E-4    3.810637117158636E-3    9.850967232355699E-4    3.896592859812292E-3    4.174214381398513E-1   -1.724278141188030E-1
 8.117065490450000E9     5.057665796694880E-1   -2.139880658705195E-2    9.351196206557279E-4    3.836153384256640E-3    1.028476828254322E-3    3.864846023110685E-3    4.171884952709184E-1   -1.727857237002797E-1
 8.117069684800000E9     5.056854546211639E-1   -2.169343912166529E-2    9.216808321158771E-4    3.831274864263738E-3    1.010167611659598E-3    3.877748014081088E-3    4.170746515805736E-1   -1.729108916351145E-1
 8.117073879150000E9     5.057036499875238E-1   -2.203288265664512E-2    9.545956550940818E-4    3.849132111451754E-3    9.978364455183169E-4    3.889907124563089E-3    4.170104612585080E-1   -1.732056973352801E-1
 8.117078073500000E9     5.057555570319683E-1   -2.238909611337200E-2    9.404379231936086E-4    3.792044127223781E-3    1.016349811102557E-3    3.894341808387991E-3    4.169721666703898E-1   -1.733696496259297E-1
 8.117082267850000E9     5.057633827476022E-1   -2.281738200540397E-2    9.411811242860648E-4    3.837620499322962E-3    1.038202501317753E-3    3.899276847468185E-3    4.169671581612604E-1   -1.736968724834842E-1
 8.117086462200000E9     5.056779930253978E-1   -2.308592921525269E-2    9.407874634094897E-4    3.835762130800024E-3    1.011784818524496E-3    3.890429506878955E-3    4.167587045232107E-1   -1.740010862733121E-1
 8.117090656550000E9     5.056534593234495E-1   -2.335428277439308E-2    9.557048291347041E-4    3.828830108911143E-3    1.043735742491652E-3    3.900438039607853E-3    4.167167736108973E-1   -1.742547604644627E-1
 8.117094850900000E9     5.056619233584345E-1   -2.358691014447201E-2    9.879886969620254E-4    3.847519413836022E-3    1.047183379491093E-3    3.904881113065610E-3    4.164049701638047E-1   -1.745784131367604E-1
 8.117099045250000E9     5.056076423123248E-1   -2.405615419231524E-2    9.649468532312187E-4    3.849077362685535E-3    9.907263141334067E-4    3.908278703674795E-3    4.164179054231511E-1   -1.748396107585184E-1
 8.117103239600000E9     5.055382634543998E-1   -2.444743916154179E-2    9.942615050239144E-4    3.852016683353300E-3    1.048023498516484E-3    3.926147554563362E-3    4.162673981129031E-1   -1.751401432096967E-1
 8.117107433950000E9     5.055279837819657E-1   -2.479172357502839E-2    9.971892126585911E-4    3.827658563447471E-3    1.073026712103479E-3    3.951146567347186E-3    4.162089225108041E-1   -1.754440575433987E-1
 8.117111628300000E9     5.055382208016957E-1   -2.494939558133128E-2    9.804346266748516E-4    3.843993249820315E-3    1.022087517330880E-3    3.959892466938470E-3    4.159077399529131E-1   -1.755789079450833E-1
 8.117115822650000E9     5.055058212841690E-1   -2.545152140149716E-2    9.969754720743971E-4    3.835334137703884E-3    1.004748319646318E-3    3.949080695872721E-3    4.161163699321143E-1   -1.758796012021697E-1
 8.117120017000000E9     5.055482139184300E-1   -2.570466780075412E-2    9.705901814874745E-4    3.883605836197486E-3    1.019266252932392E-3    3.927823522459321E-3    4.158530596141070E-1   -1.763355222511576E-1
 8.117124211350000E9     5.054170636617050E-1   -2.608268997106433E-2    9.916891226389116E-4    3.885709638797563E-3    1.076850317990975E-3    3.989372095126419E-3    4.158705908856943E-1   -1.765661589387793E-1
 8.117128405700000E9     5.055053778250934E-1   -2.655165422861115E-2    1.015305787197676E-3    3.904082547144939E-3    1.075975525369257E-3    3.948345550343371E-3    4.156778149092042E-1   -1.767185722014823E-1
 8.117132600050000E9     5.053566459631623E-1   -2.667386337610114E-2    1.014387035175557E-3    3.902293569896909E-3    1.077123829148022E-3    3.977735560743899E-3    4.156483144275892E-1   -1.769954166332613E-1
 8.117136794400000E9     5.054152228718115E-1   -2.699537480718383E-2    1.008690601909929E-3    3.888961605569375E-3    1.054346553026561E-3    3.970540737603883E-3    4.155065679914370E-1   -1.773204501788167E-1
 8.117140988750000E9     5.052926086972525E-1   -2.748849326349442E-2    1.009797178863029E-3    3.904870414421686E-3    1.107050413936283E-3    3.986626146198505E-3    4.152975705621696E-1   -1.775545578499367E-1
 8.117145183100000E9     5.053173867395108E-1   -2.774654500340709E-2    1.009613099936829E-3    3.920363671925555E-3    1.074999901682893E-3    3.998601820515671E-3    4.153090572240921E-1   -1.778115108953947E-1
 8.117149377450000E9     5.051352592291909E-1   -2.805833464110138E-2    1.040968284418120E-3    3.897457239154005E-3    1.083647541710687E-3    3.966272320523048E-3    4.151290067197309E-1   -1.781756768032503E-1
 8.117153571800000E9     5.050675203144472E-1   -2.852000417066394E-2    1.016227116147668E-3    3.910075612062802E-3    1.089046911246087E-3    3.983738594402895E-3    4.149911366566464E-1   -1.784991202404078E-1
 8.117157766150000E9     5.052526057341115E-1   -2.871696131675196E-2    1.043538253017669E-3    3.908147728682056E-3    1.106811223194318E-3    3.981913175180906E-3    4.149218981058890E-1   -1.786173105973504E-1
 8.117161960500000E9     5.050779930622832E-1   -2.916978713168376E-2    1.057827558889676E-3    3.899619793806975E-3    1.103355729241005E-3    3.996317613118012E-3    4.150142761411038E-1   -1.790741559708396E-1
