#  HZ   S   RI   R     50.00 
! Rohde & Schwarz Vector Network Analyzer 
! Rohde-Schwarz,ZNB20-2Port,1311601062101988,3.16
! Created: UTC 3/20/2024, 11:58:51 AM
! freq[Hz]                re:S11                  im:S11                  re:S21                  im:S21                  re:S12                  im:S12                  re:S22                  im:S22
 8.116793145000000E9     5.068096041037218E-1   -1.473131488778512E-4    7.141328715731630E-4    3.621733425371225E-3    7.788776126146693E-4    3.737353106250445E-3    4.233938956164093E-1   -1.547509770501759E-1
 8.116797319850000E9     5.067855894734152E-1   -3.516812959288858E-4    6.888922904111521E-4    3.634362290976969E-3    7.590540101873614E-4    3.689331720009415E-3    4.231598705128563E-1   -1.550792121651120E-1
 8.116801494700000E9     5.066971819243604E-1   -8.168676761202424E-4    7.053997697997462E-4    3.661200078130393E-3    7.620266596849157E-4    3.726871164400131E-3    4.231440482536558E-1   -1.551432614063429E-1
 8.116805669550000E9     5.066696493844298E-1   -1.198378104735767E-3    7.092337229100676E-4    3.656978518427284E-3    7.586068251374101E-4    3.716649389665832E-3    4.230677638287066E-1   -1.555162953496577E-1
 8.116809844400000E9     5.066419556426809E-1   -1.409240462811746E-3    7.207420165476520E-4    3.620459535193164E-3    7.503815299771997E-4    3.693030952733126E-3    4.232512332257561E-1   -1.557344517433960E-1
 8.116814019250000E9     5.067493906979811E-1   -1.748844291437554E-3    7.238049929923987E-4    3.636450294003377E-3    7.571009644430717E-4    3.723068614427436E-3    4.229658494336384E-1   -1.561321351693563E-1
 8.116818194100000E9     5.066304660689924E-1   -1.965728739180764E-3    6.967261224222988E-4    3.670424175510571E-3    8.096200273185733E-4    3.678839764146007E-3    4.228379760983498E-1   -1.562919766309026E-1
 8.116822368950000E9     5.066876173045122E-1   -2.426553775995755E-3    7.070147103497629E-4    3.656044848164495E-3    7.787024566219035E-4    3.737377477920121E-3    4.228801751287329E-1   -1.566235018186575E-1
 8.116826543800000E9     5.066759595712109E-1   -2.693385311887651E-3    7.327907348082071E-4    3.661225253294508E-3    7.836709829550300E-4    3.730275825235632E-3    4.227329655471816E-1   -1.569177178742041E-1
 8.116830718650000E9     5.066909945283883E-1   -3.067360250624969E-3    7.128151509927783E-4    3.676236238284113E-3    7.604815845878271E-4    3.716657443056692E-3    4.225707347987582E-1   -1.570419786637073E-1
 8.116834893500000E9     5.065277327037463E-1   -3.395350688569361E-3    7.536841469042006E-4    3.667972240048408E-3    7.918802152410241E-4    3.671497626501140E-3    4.225502576486317E-1   -1.575827131751173E-1
 8.116839068350000E9     5.066597233197628E-1   -3.699900558819889E-3    7.415740424821278E-4    3.648619403244065E-3    7.979671155882023E-4    3.703871381538946E-3    4.224345086552037E-1   -1.576703595531234E-1
 8.116843243200000E9     5.065825905742742E-1   -4.140812661448378E-3    7.380352253453887E-4    3.667500011070679E-3    8.041396938754756E-4    3.742435424261438E-3    4.224467789645606E-1   -1.580504652962854E-1
 8.116847418050000E9     5.066587288002434E-1   -4.340064112154702E-3    7.264120009213042E-4    3.694978633116172E-3    7.744460076187968E-4    3.677987392954002E-3    4.222698065243100E-1   -1.582421796222649E-1
 8.116851592900000E9     5.064898530909800E-1   -4.644720770571861E-3    7.409521937813678E-4    3.664421715130795E-3    8.084286829868203E-4    3.755842333252436E-3    4.221420868734418E-1   -1.586029897150766E-1
 8.116855767750000E9     5.065778900381972E-1   -5.000534166141280E-3    7.513139004278088E-4    3.669936286854694E-3    8.429035763014046E-4    3.727014557435569E-3    4.221156973835282E-1   -1.588873264205864E-1
 8.116859942600000E9     5.065726011706231E-1   -5.357562418420017E-3    7.476832393627606E-4    3.649821720420986E-3    8.052135108759952E-4    3.728057833490166E-3    4.220445314409116E-1   -1.591154702561546E-1
 8.116864117450000E9     5.064921640909269E-1   -5.619839820952898E-3    7.483868555129070E-4    3.665345610292351E-3    8.020530515042238E-4    3.740539984358016E-3    4.220776716582542E-1   -1.592951907984887E-1
 8.116868292300000E9     5.065206383807466E-1   -5.931576581579696E-3    7.654791687935975E-4    3.647875703589639E-3    8.174341735120327E-4    3.725864342670858E-3    4.218946874435541E-1   -1.598363580623936E-1
 8.116872467150000E9     5.064691647729910E-1   -6.353533451118308E-3    7.539419686895149E-4    3.683544403529425E-3    8.145473073145944E-4    3.759100275689777E-3    4.218236229457171E-1   -1.598101746894168E-1
 8.116876642000000E9     5.065106452175937E-1   -6.638976373746815E-3    7.516766246944289E-4    3.672914716000848E-3    7.971789468219208E-4    3.756611037909752E-3    4.218093483151766E-1   -1.601547886763564E-1
 8.116880816850000E9     5.065625544978962E-1   -6.910132368680119E-3    7.622460403236927E-4    3.670198167379423E-3    8.147896529815550E-4    3.707185101167247E-3    4.215413282510915E-1   -1.606160096194721E-1
 8.116884991700000E9     5.065281135625235E-1   -7.195975366670742E-3    7.667935799764944E-4    3.697554065562399E-3    8.213489685569835E-4    3.718000343523024E-3    4.214942215951553E-1   -1.607482317859381E-1
 8.116889166550000E9     5.066409484577511E-1   -7.615300615794129E-3    7.613661720801630E-4    3.669890028100862E-3    8.305741943257124E-4    3.757651014272998E-3    4.213756990099436E-1   -1.609422852775891E-1
 8.116893341400000E9     5.064786569508822E-1   -7.931866982504679E-3    7.901879959289979E-4    3.675167580344558E-3    8.294124460115334E-4    3.746990697766091E-3    4.212076185235328E-1   -1.613513890752326E-1
 8.116897516250000E9     5.064539333362467E-1   -8.230001578771259E-3    7.850493310585214E-4    3.709362250323811E-3    8.232125780581346E-4    3.724825282311352E-3    4.212779565933018E-1   -1.616982937421168E-1
 8.116901691100000E9     5.065641559451526E-1   -8.594344394877324E-3    7.817090741929332E-4    3.707080603233753E-3    8.568052319748805E-4    3.739590949621538E-3    4.210170457652773E-1   -1.619920848237142E-1
 8.116905865950000E9     5.064752013681769E-1   -8.864688245245035E-3    8.026019468464589E-4    3.684978076438985E-3    8.148670923307335E-4    3.794075430832555E-3    4.209408191571549E-1   -1.622252382024059E-1
 8.116910040800000E9     5.064724394484009E-1   -9.227439267000212E-3    7.902423599901940E-4    3.673627771631676E-3    8.843220208786126E-4    3.755503170325656E-3    4.210284348698484E-1   -1.623576681339710E-1
 8.116914215650000E9     5.064441042269766E-1   -9.519697773915618E-3    7.919200967506494E-4    3.683661236626402E-3    8.359537543795085E-4    3.768964784242599E-3    4.208050747101509E-1   -1.626139350277678E-1
 8.116918390500000E9     5.063820239087089E-1   -9.958393561447792E-3    8.035468250411789E-4    3.707754913753960E-3    8.777517114195970E-4    3.785205635197643E-3    4.206307750680484E-1   -1.630255241584383E-1
 8.116922565350000E9     5.063844145655760E-1   -1.011161164723910E-2    8.268117950729216E-4    3.705548690848972E-3    8.571576547534155E-4    3.796498026697734E-3    4.206601126812519E-1   -1.631957466379111E-1
 8.116926740200000E9     5.063482621168919E-1   -1.036580949199125E-2    7.964280694876374E-4    3.705705931800318E-3    8.869082142259140E-4    3.789823518248088E-3    4.204351722333936E-1   -1.634709252707283E-1
 8.116930915050000E9     5.063542507470502E-1   -1.082428499617507E-2    7.964619963005075E-4    3.727516264869070E-3    8.219013471635892E-4    3.794367296559777E-3    4.204537640076507E-1   -1.639193372309849E-1
 8.116935089900000E9     5.064219188660463E-1   -1.128594045873812E-2    8.196123788838402E-4    3.704423915901580E-3    8.779868889057114E-4    3.790908063866450E-3    4.202115301992021E-1   -1.642246530705360E-1
 8.116939264750000E9     5.063468986065603E-1   -1.147841156764533E-2    7.885793811507917E-4    3.736671757583467E-3    8.540071101799654E-4    3.764062255855108E-3    4.201629003548340E-1   -1.643822920476092E-1
 8.116943439600000E9     5.063025882200093E-1   -1.182581639861453E-2    8.036478807838804E-4    3.713697509715759E-3    8.476385707746616E-4    3.770431368329472E-3    4.201298962007976E-1   -1.646596904630510E-1
 8.116947614450000E9     5.063232629657960E-1   -1.198091187181528E-2    8.280244348374032E-4    3.704124323519864E-3    8.884385008450650E-4    3.796608279600325E-3    4.201254563878468E-1   -1.648781005480439E-1
 8.116951789300000E9     5.063428747842714E-1   -1.246052228411378E-2    8.306637477560408E-4    3.735438868859305E-3    8.629030732295014E-4    3.736824457000234E-3    4.198802058301403E-1   -1.650929295872668E-1
 8.116955964150000E9     5.064250789951890E-1   -1.281088737136605E-2    8.362794254441819E-4    3.746613218948203E-3    8.704633977740338E-4    3.782429928994147E-3    4.197968906194801E-1   -1.655457133122143E-1
 8.116960139000000E9     5.062598896058118E-1   -1.312787075046972E-2    8.315965916836806E-4    3.721598752556242E-3    8.735804285068661E-4    3.809650558104351E-3    4.197024210676092E-1   -1.657726602882353E-1
 8.116964313850000E9     5.062647107967171E-1   -1.348551244309662E-2    8.218551868102658E-4    3.726894028288640E-3    8.795883206576488E-4    3.825037313899971E-3    4.196929458214384E-1   -1.660316309286708E-1
 8.116968488700000E9     5.062295178602663E-1   -1.379917391398567E-2    8.290419969912536E-4    3.759195542754425E-3    9.007628399709928E-4    3.847142265165406E-3    4.195439479988624E-1   -1.661645030026060E-1
 8.116972663550000E9     5.062027447449330E-1   -1.405791309806877E-2    8.408572377512456E-4    3.733624458368234E-3    9.021953008224895E-4    3.853641644000438E-3    4.194762932698299E-1   -1.664827502227712E-1
 8.116976838400000E9     5.061859972135060E-1   -1.440250168301162E-2    8.442908535528057E-4    3.750303946602439E-3    9.053373011048262E-4    3.792644007603039E-3    4.193591877277664E-1   -1.668526952208750E-1
 8.116981013250000E9     5.061967658779657E-1   -1.476092025406948E-2    8.488154780956791E-4    3.783462140659677E-3    8.971251348348502E-4    3.798622427033464E-3    4.193412667122525E-1   -1.669512074964685E-1
 8.116985188100000E9     5.061534789338272E-1   -1.505071289220482E-2    8.754796240393409E-4    3.757074117599134E-3    9.199681122840880E-4    3.813947513131770E-3    4.192830618434025E-1   -1.673889969113014E-1
 8.116989362950000E9     5.060950492593427E-1   -1.537928214645985E-2    8.627416054396249E-4    3.770273566455175E-3    9.084477475522693E-4    3.824155107671545E-3    4.190558583571471E-1   -1.677184452101534E-1
 8.116993537800000E9     5.060828528793843E-1   -1.572001744965764E-2    8.643453943895350E-4    3.757553414674022E-3    9.514633846149550E-4    3.776953052891482E-3    4.189737770182987E-1   -1.679304411746607E-1
 8.116997712650000E9     5.061332375938307E-1   -1.598697250473901E-2    8.597407627780548E-4    3.755378573412735E-3    9.136617990771412E-4    3.797771953466691E-3    4.188552268791574E-1   -1.682428802197156E-1
 8.117001887500000E9     5.060895617176444E-1   -1.633533385895764E-2    8.459536240894708E-4    3.746386291797940E-3    9.307553204665550E-4    3.821545355096724E-3    4.187905569096721E-1   -1.684772339859930E-1
 8.117006062350000E9     5.060124986793167E-1   -1.680795930228549E-2    8.667197555697856E-4    3.777888786922510E-3    9.088433688923078E-4    3.834387601471293E-3    4.185804849724693E-1   -1.687073196116776E-1
 8.117010237200000E9     5.060432980876506E-1   -1.707934389783097E-2    8.527144774444002E-4    3.752908830605385E-3    9.268741665006082E-4    3.815036545089121E-3    4.184931155705521E-1   -1.689923954428071E-1
 8.117014412050000E9     5.061043032138151E-1   -1.739302268948661E-2    8.840755600815822E-4    3.763384631908929E-3    9.628102603600636E-4    3.803912532729414E-3    4.185186924476060E-1   -1.694398259829006E-1
 8.117018586900000E9     5.060230840545985E-1   -1.775705996067201E-2    8.691821557280224E-4    3.780162935846831E-3    8.920858811119170E-4    3.847634170327554E-3    4.184889570979155E-1   -1.694883457995464E-1
 8.117022761750000E9     5.060661733048679E-1   -1.799151497146035E-2    9.052673633326206E-4    3.764120665866984E-3    9.261858077092773E-4    3.850146428969340E-3    4.183113305684860E-1   -1.697429669175995E-1
 8.117026936600000E9     5.060464271160339E-1   -1.828993284791313E-2    8.676352090705129E-4    3.777111573185333E-3    9.215969421055829E-4    3.837340934680281E-3    4.181882196738774E-1   -1.700281838725596E-1
 8.117031111450000E9     5.058710448694240E-1   -1.869757891299774E-2    8.921071797562549E-4    3.764735609204545E-3    9.431267052197491E-4    3.847730804649305E-3    4.180017004949854E-1   -1.703987576937423E-1
 8.117035286300000E9     5.059969571516579E-1   -1.902575291702802E-2    8.800694234484730E-4    3.809332099879764E-3    9.462592150139882E-4    3.825567539292026E-3    4.180492724866015E-1   -1.706202349064087E-1
 8.117039461150000E9     5.059105710651686E-1   -1.926559401768876E-2    8.833433124346671E-4    3.802600281084218E-3    9.365262008345478E-4    3.862925750944449E-3    4.177565559870839E-1   -1.710084737416334E-1
 8.117043636000000E9     5.058188062692918E-1   -1.972235441369601E-2    9.144214355987779E-4    3.794277389561400E-3    9.623977731067858E-4    3.851892932876276E-3    4.178923691173853E-1   -1.711797720929603E-1
 8.117047810850000E9     5.058495311707136E-1   -1.995890504555311E-2    9.393787672247416E-4    3.812611835338890E-3    9.741487952265596E-4    3.849653010000356E-3    4.176163276913542E-1   -1.715616257097781E-1
 8.117051985700000E9     5.058251676695520E-1   -2.033193821391819E-2    9.225561494295717E-4    3.817319809186766E-3    9.837581546523076E-4    3.841959444280961E-3    4.174910430897647E-1   -1.716748895233485E-1
 8.117056160550000E9     5.058377196157741E-1   -2.056483214981656E-2    9.313563757757575E-4    3.786878824187638E-3    9.888613180917270E-4    3.860537280641882E-3    4.175431258559528E-1   -1.720604861130863E-1
 8.117060335400000E9     5.058919425778353E-1   -2.092571874681901E-2    9.174656332150417E-4    3.824674489305813E-3    1.004667752088628E-3    3.894557253203510E-3    4.173314273479725E-1   -1.722777801864833E-1
 8.117064510250000E9     5.057717410052007E-1   -2.121942347270094E-2    9.374864078932270E-4    3.804622914208332E-3    1.000360849536534E-3    3.897301502347128E-3    4.172404023554731E-1   -1.725447935582945E-1
 8.117068685100000E9     5.057592096790395E-1   -2.163721321198252E-2    9.262065368695548E-4    3.817670742462400E-3    1.007956510999659E-3    3.871236134346362E-3    4.170609048093996E-1   -1.727446731844189E-1
 8.117072859950000E9     5.057170071514689E-1   -2.191002145780383E-2    9.418510401199707E-4    3.822084970151621E-3    9.818471920084754E-4    3.904549126775391E-3    4.171818399976291E-1   -1.731851840175562E-1
 8.117077034800000E9     5.057044588521409E-1   -2.237761874329089E-2    9.545031285989238E-4    3.823298307452749E-3    9.867960561421236E-4    3.862088716171593E-3    4.170088447608739E-1   -1.733230864190417E-1
 8.117081209650000E9     5.057330031735706E-1   -2.251236750784035E-2    9.541375740192327E-4    3.834033033517798E-3    1.025302733884582E-3    3.887627375885918E-3    4.169515838854002E-1   -1.737477620337568E-1
 8.117085384500000E9     5.056580339065027E-1   -2.289077877940370E-2    9.747616544079155E-4    3.842287854472794E-3    1.027141478497517E-3    3.884579612063763E-3    4.166101791585090E-1   -1.739923106995676E-1
 8.117089559350000E9     5.056015878842784E-1   -2.327475509731408E-2    9.661762770980942E-4    3.854890862210456E-3    1.016156359574176E-3    3.913375400960283E-3    4.165719772587964E-1   -1.742586919019160E-1
 8.117093734200000E9     5.056947815439358E-1   -2.361841286309501E-2    9.723215041278519E-4    3.848281003617288E-3    1.037966435255544E-3    3.897418200035347E-3    4.165830967623441E-1   -1.745044799844765E-1
 8.117097909050000E9     5.055606888361146E-1   -2.386260646113814E-2    9.740209736019301E-4    3.858691411735296E-3    1.036423931610398E-3    3.918486466473791E-3    4.164070022564347E-1   -1.747000916411522E-1
 8.117102083900000E9     5.055228436899369E-1   -2.422676564250593E-2    9.526277903732276E-4    3.876533280350101E-3    1.035055496154539E-3    3.911093510495066E-3    4.163817402084131E-1   -1.749648427322499E-1
 8.117106258750000E9     5.054291676937249E-1   -2.452126684704488E-2    9.546285923177758E-4    3.857431950465135E-3    1.018404695441774E-3    3.922308760442032E-3    4.161333942904821E-1   -1.752104813781284E-1
 8.117110433600000E9     5.054662448662539E-1   -2.495343783156352E-2    9.891251583188962E-4    3.899724772487320E-3    1.014802014568714E-3    3.899189834372258E-3    4.161181246771982E-1   -1.758118946647485E-1
 8.117114608450000E9     5.055387200104072E-1   -2.523515309704281E-2    9.910918532144287E-4    3.857786511381171E-3    1.039071650024078E-3    3.940551248766202E-3    4.159317563352489E-1   -1.759153824830428E-1
 8.117118783300000E9     5.054412662197290E-1   -2.553269049882100E-2    9.957975653165207E-4    3.885053083856078E-3    1.026177710663602E-3    3.907764457912971E-3    4.159593043521965E-1   -1.761620565232124E-1
 8.117122958150000E9     5.055104641788493E-1   -2.588926240131311E-2    9.775603527228973E-4    3.848781899004965E-3    1.050262892144709E-3    3.933489048756829E-3    4.158054094141146E-1   -1.764461846912798E-1
 8.117127133000000E9     5.053201150391289E-1   -2.626697995832813E-2    9.868918031484888E-4    3.872785940089360E-3    1.091894966581681E-3    3.909224119522401E-3    4.156772393751330E-1   -1.766044428722415E-1
 8.117131307850000E9     5.053707403518648E-1   -2.658469471390133E-2    1.017575578241462E-3    3.891570129337432E-3    1.051462830019902E-3    3.950986344737270E-3    4.155909014490024E-1   -1.768074724443521E-1
 8.117135482700000E9     5.054336802218864E-1   -2.691958318521033E-2    1.052689720326486E-3    3.874083116724767E-3    1.073037977714715E-3    3.961946240898095E-3    4.154181157789306E-1   -1.772213820939593E-1
 8.117139657550000E9     5.053399557137188E-1   -2.727693504883892E-2    1.011095401855926E-3    3.861395214323983E-3    1.103558074717870E-3    3.986584423288246E-3    4.154762456539777E-1   -1.774683991795862E-1
 8.117143832400000E9     5.052195151938359E-1   -2.767657329500104E-2    1.041172235388642E-3    3.907072120949883E-3    1.063258389481325E-3    3.934486989990451E-3    4.154025697650101E-1   -1.777267757853286E-1
 8.117148007250000E9     5.051737275102101E-1   -2.792639604969640E-2    1.032766738653460E-3    3.939220989324730E-3    1.097584581953959E-3    3.950438278490498E-3    4.152183658995482E-1   -1.780502292170783E-1
 8.117152182100000E9     5.052842771361769E-1   -2.831100824654954E-2    1.049422963723593E-3    3.914167982705241E-3    1.054941548276396E-3    3.978798159379187E-3    4.152688791465710E-1   -1.784213539159341E-1
 8.117156356950000E9     5.052370258372669E-1   -2.864382635949757E-2    1.025679356558187E-3    3.938936108412634E-3    1.111067188357994E-3    3.959852522667785E-3    4.150350441163433E-1   -1.787061470416098E-1
 8.117160531800000E9     5.051300354541896E-1   -2.889493478052408E-2    1.056455732731577E-3    3.927341171910686E-3    1.120713363696297E-3    3.973219152592462E-3    4.149512311968382E-1   -1.789159442740780E-1
 8.117164706650000E9     5.050869703885448E-1   -2.924759090854723E-2    1.040802666005602E-3    3.911261491742821E-3    1.148884925010293E-3    3.998148775747258E-3    4.148395411352022E-1   -1.791245516225132E-1
 8.117168881500000E9     5.050966276474587E-1   -2.953803171492995E-2    1.057753427078376E-3    3.925239064468999E-3    1.111906608369088E-3    4.018969921759759E-3    4.148787673600148E-1   -1.794259517252687E-1
