#  HZ   S   RI   R     50.00 
! Rohde & Schwarz Vector Network Analyzer 
! Rohde-Schwarz,ZNB20-2Port,1311601062101988,3.16
! Created: UTC 3/20/2024, 11:59:03 AM
! freq[Hz]                re:S11                  im:S11                  re:S21                  im:S21                  re:S12                  im:S12                  re:S22                  im:S22
 8.116821084000000E9     5.068713700270375E-1   -2.033206670872082E-3    7.045185705226174E-4    3.622300905110729E-3    7.823212380525830E-4    3.695507917169891E-3    4.228246552973776E-1   -1.565015546216864E-1
 8.116825151350000E9     5.069079717598080E-1   -2.274091537032315E-3    7.275171706957859E-4    3.655298066651768E-3    7.298283119197513E-4    3.748350493738031E-3    4.227859723306160E-1   -1.569155366083938E-1
 8.116829218700000E9     5.067737878458155E-1   -2.692926477221611E-3    7.168571728809625E-4    3.645463711198001E-3    8.023344603621415E-4    3.743144515075783E-3    4.226204074307262E-1   -1.570555455177073E-1
 8.116833286050000E9     5.068323233638723E-1   -2.886089871232096E-3    6.989378210379698E-4    3.641287971977434E-3    7.833116897108388E-4    3.710257785737991E-3    4.225693635158924E-1   -1.572994453835569E-1
 8.116837353400000E9     5.067426799786768E-1   -3.293206258368050E-3    7.447951659739001E-4    3.672341132105405E-3    7.964984146767852E-4    3.732514207175190E-3    4.225357774864359E-1   -1.575588727490747E-1
 8.116841420750000E9     5.066999855739794E-1   -3.641407907582850E-3    7.544128105583513E-4    3.661505591864744E-3    7.845176226156178E-4    3.713686165132586E-3    4.223668979111904E-1   -1.579812275937639E-1
 8.116845488100000E9     5.067488198791995E-1   -3.878530397870824E-3    7.337160307631197E-4    3.681322521642063E-3    7.764489473894728E-4    3.709339125566492E-3    4.222178624764764E-1   -1.581978320285966E-1
 8.116849555450000E9     5.068864554660087E-1   -4.344896277825573E-3    7.416002930783888E-4    3.685845589001891E-3    7.912225473529106E-4    3.752233082508909E-3    4.221611156533528E-1   -1.583942334487755E-1
 8.116853622800000E9     5.068258538398887E-1   -4.587699130689430E-3    7.443115017636455E-4    3.668105313401501E-3    7.661998902707297E-4    3.736230864721174E-3    4.220753480033626E-1   -1.586778929475428E-1
 8.116857690150000E9     5.067955025475639E-1   -4.902261919978341E-3    7.550264815085429E-4    3.663319471367104E-3    8.069485539513453E-4    3.749425682760720E-3    4.219555197703463E-1   -1.590844640855177E-1
 8.116861757500000E9     5.066831739453986E-1   -5.162915544070425E-3    7.680293162053726E-4    3.665772160111303E-3    7.803236001179253E-4    3.730901279374522E-3    4.220424344858439E-1   -1.592820490264185E-1
 8.116865824850000E9     5.067251224537023E-1   -5.518604637615877E-3    7.376787602443982E-4    3.683410568008714E-3    8.075503508431212E-4    3.745716393086484E-3    4.219398143253767E-1   -1.597057981194435E-1
 8.116869892200000E9     5.067979362044306E-1   -5.927542912784012E-3    7.291558188473443E-4    3.677193719080110E-3    7.961566108330421E-4    3.723469219708209E-3    4.218099373576176E-1   -1.597825508717747E-1
 8.116873959550000E9     5.066935878276350E-1   -6.205597691851699E-3    7.824318968461612E-4    3.665113900777374E-3    7.862259858204884E-4    3.712052777531154E-3    4.217249310255438E-1   -1.600269845459367E-1
 8.116878026900000E9     5.066194481555391E-1   -6.491709086825547E-3    7.545073322512267E-4    3.678097569084784E-3    8.165654669061700E-4    3.765949231050166E-3    4.215935623559747E-1   -1.603072370320839E-1
 8.116882094250000E9     5.067553455739693E-1   -6.825843900704578E-3    7.790146783663343E-4    3.664518717561903E-3    8.284626967660167E-4    3.731391147649268E-3    4.214491732834684E-1   -1.605578961201707E-1
 8.116886161600000E9     5.067504741778410E-1   -7.079144456546991E-3    7.693591259483159E-4    3.717358422784232E-3    8.525185215181023E-4    3.734012832053442E-3    4.215190108147891E-1   -1.608269425935762E-1
 8.116890228950000E9     5.066760679224167E-1   -7.481905851344742E-3    7.962985973957573E-4    3.663907797760416E-3    8.361447994479071E-4    3.759947055031652E-3    4.213285947134984E-1   -1.612058801799299E-1
 8.116894296300000E9     5.066954924101156E-1   -7.841056263954276E-3    7.888393769537035E-4    3.673598234072143E-3    8.407743932264823E-4    3.759156857604445E-3    4.211680175374545E-1   -1.613666317730309E-1
 8.116898363650000E9     5.067368642942698E-1   -8.079907370532602E-3    7.642348059386021E-4    3.667289143969719E-3    8.477407947789633E-4    3.774805376495368E-3    4.211339802787222E-1   -1.618213558202033E-1
 8.116902431000000E9     5.067405852689515E-1   -8.337732324624229E-3    7.765153422487645E-4    3.682744599191375E-3    8.166084814687071E-4    3.766310855515420E-3    4.209226176231609E-1   -1.619638276104374E-1
 8.116906498350000E9     5.066783200116415E-1   -8.786493916976458E-3    7.677060252834322E-4    3.687652675816611E-3    8.495262534440019E-4    3.777001034651545E-3    4.209279992973718E-1   -1.621141598558868E-1
 8.116910565700000E9     5.065854536725304E-1   -9.058205959310093E-3    7.894783951808203E-4    3.718040298275117E-3    8.370064246099058E-4    3.765551826207067E-3    4.208140415811135E-1   -1.625213357873111E-1
 8.116914633050000E9     5.065900517082866E-1   -9.324766428677822E-3    7.887949471790993E-4    3.698122362050997E-3    8.335028586863905E-4    3.751234633502887E-3    4.207528347499009E-1   -1.628279830143707E-1
 8.116918700400000E9     5.066912674946438E-1   -9.528741407263475E-3    8.093756276482397E-4    3.680685900191089E-3    8.432758429761601E-4    3.785899566828675E-3    4.206754765664926E-1   -1.630078307817414E-1
 8.116922767750000E9     5.066083858736804E-1   -1.003274804296380E-2    7.729854569190828E-4    3.704763797167489E-3    8.624505914974771E-4    3.736951988593578E-3    4.205798028417524E-1   -1.632085336117029E-1
 8.116926835100000E9     5.065714184216602E-1   -1.019753623429579E-2    7.711161670373377E-4    3.700953987787632E-3    8.616779513598295E-4    3.768602371695347E-3    4.203953789349551E-1   -1.635951386731781E-1
 8.116930902450000E9     5.066299326701912E-1   -1.052580972247673E-2    7.967545979248949E-4    3.701928712074709E-3    8.272783076831833E-4    3.786988618791399E-3    4.205188920643862E-1   -1.638328222900773E-1
 8.116934969800000E9     5.065179849512867E-1   -1.097384070898483E-2    8.189348339816419E-4    3.728836544703598E-3    8.689634481790277E-4    3.828225461383021E-3    4.204088950061951E-1   -1.641995650557342E-1
 8.116939037150000E9     5.065743925839198E-1   -1.119006429373496E-2    7.915182678529513E-4    3.753779922998856E-3    8.746744972727379E-4    3.771814199420576E-3    4.203122666954278E-1   -1.642115348898843E-1
 8.116943104500000E9     5.065271621926345E-1   -1.165564542210430E-2    7.881113288300405E-4    3.740952493406338E-3    8.397656314510296E-4    3.789871862789839E-3    4.200794548431865E-1   -1.645625937847336E-1
 8.116947171850000E9     5.065040118760704E-1   -1.188953366133417E-2    8.014202660484693E-4    3.742717268850526E-3    8.365183583902934E-4    3.771662510397944E-3    4.199942863142906E-1   -1.649740319574768E-1
 8.116951239200000E9     5.065707476656842E-1   -1.210536363084497E-2    8.379393803531886E-4    3.720736606925451E-3    8.633437106543081E-4    3.751195130916480E-3    4.200157526341248E-1   -1.652700902335853E-1
 8.116955306550000E9     5.063667889216681E-1   -1.255532957653755E-2    8.133135184766613E-4    3.723508895686756E-3    8.960565979877163E-4    3.752059312014925E-3    4.196871451494429E-1   -1.654596187137743E-1
 8.116959373900000E9     5.065858565928615E-1   -1.273924085959462E-2    8.301060928006801E-4    3.728551660283717E-3    8.665113372851157E-4    3.752563868067193E-3    4.197030241417962E-1   -1.656696423142086E-1
 8.116963441250000E9     5.063870696867745E-1   -1.313751283611445E-2    8.242731152780121E-4    3.721013600227118E-3    9.028106175989383E-4    3.813406146987463E-3    4.196624778338469E-1   -1.660771203456980E-1
 8.116967508600000E9     5.064657242843889E-1   -1.338066065080703E-2    8.424076001901562E-4    3.737435798583039E-3    9.291902902153413E-4    3.832419374209980E-3    4.197045572880018E-1   -1.663386275825942E-1
 8.116971575950000E9     5.063927777910766E-1   -1.372550936540451E-2    8.432715596760815E-4    3.743214802825239E-3    8.457545439199506E-4    3.777438853304672E-3    4.195190873843553E-1   -1.664832278045379E-1
 8.116975643300000E9     5.065037140152624E-1   -1.402893140800857E-2    8.390150405622618E-4    3.722614884362871E-3    8.228460928960945E-4    3.796890360777908E-3    4.192981939154243E-1   -1.668918869793221E-1
 8.116979710650000E9     5.063532339516225E-1   -1.441446159275385E-2    8.577391636988401E-4    3.759977253240647E-3    8.387350034378154E-4    3.822425869176229E-3    4.192425541751274E-1   -1.670242772286165E-1
 8.116983778000000E9     5.064059259942190E-1   -1.471522150668749E-2    8.193784796792274E-4    3.732833937774561E-3    8.843898659004147E-4    3.781734643446231E-3    4.192922417155983E-1   -1.672341251083871E-1
 8.116987845350000E9     5.063861470086550E-1   -1.503113080566174E-2    8.532596698178945E-4    3.736744246373692E-3    9.007940040843156E-4    3.805741039754962E-3    4.190600633262500E-1   -1.675822064411606E-1
 8.116991912700000E9     5.062641584130960E-1   -1.534250452860660E-2    8.607987898381671E-4    3.752133620320600E-3    8.966446761382057E-4    3.793373748303999E-3    4.191644448730644E-1   -1.677606834960761E-1
 8.116995980050000E9     5.063456928985125E-1   -1.571798040441983E-2    8.691180196212661E-4    3.731245262647923E-3    9.149400447460900E-4    3.809524757813936E-3    4.189090291199389E-1   -1.680382776501226E-1
 8.117000047400000E9     5.063520401144171E-1   -1.597753865700680E-2    8.731189802351632E-4    3.739604958836394E-3    9.080466257549913E-4    3.828832341079673E-3    4.189226105840038E-1   -1.683345797818334E-1
 8.117004114750000E9     5.063272129217730E-1   -1.622579402789610E-2    8.743582921872929E-4    3.742062859282808E-3    9.076216865369000E-4    3.813386026573073E-3    4.186687861865364E-1   -1.685729797225476E-1
 8.117008182100000E9     5.063286806941075E-1   -1.660837855159090E-2    8.784277298854824E-4    3.765643898889661E-3    9.592387082099643E-4    3.855520602523089E-3    4.185022775810464E-1   -1.687197396310453E-1
 8.117012249450000E9     5.063661237826930E-1   -1.696447337070342E-2    8.580086509582611E-4    3.768873179342854E-3    9.191672188943306E-4    3.828977977921701E-3    4.185581633327571E-1   -1.691450250828466E-1
 8.117016316800000E9     5.062488898228648E-1   -1.724220920888052E-2    8.935348866479709E-4    3.788902273116025E-3    9.401762865092949E-4    3.876907823676993E-3    4.184194189841657E-1   -1.694351331348077E-1
 8.117020384150000E9     5.062712845996490E-1   -1.759291708646838E-2    9.046764272539660E-4    3.782093986752275E-3    8.795554325198349E-4    3.844579913084340E-3    4.184696520804976E-1   -1.696528206466131E-1
 8.117024451500000E9     5.062004881358947E-1   -1.779351343461749E-2    9.148888073178293E-4    3.771637377757284E-3    9.205249970320848E-4    3.797064291471275E-3    4.181523673966556E-1   -1.699487182964399E-1
 8.117028518850000E9     5.061838300789374E-1   -1.818084647266957E-2    9.029014786261149E-4    3.778920802417286E-3    9.911316379117839E-4    3.860229919459978E-3    4.180931744369516E-1   -1.702779411870294E-1
 8.117032586200000E9     5.061524863031126E-1   -1.859088590943247E-2    9.172346716083219E-4    3.772578945031357E-3    9.523989808094161E-4    3.845096283243331E-3    4.178914059468598E-1   -1.706059188281152E-1
 8.117036653550000E9     5.060881791987628E-1   -1.881908193267624E-2    9.141228568659374E-4    3.754862435316501E-3    9.312302269487439E-4    3.866591305000956E-3    4.177803325197690E-1   -1.707265840809961E-1
 8.117040720900000E9     5.061320219404786E-1   -1.923670886606711E-2    9.069746886566102E-4    3.787272794863818E-3    9.181990122601800E-4    3.833945387867781E-3    4.177709688052113E-1   -1.710916732641864E-1
 8.117044788250000E9     5.061145991484027E-1   -1.937099173396639E-2    9.063550925213458E-4    3.787382337134123E-3    9.718992973265910E-4    3.875350591074517E-3    4.176443635932525E-1   -1.712354026451785E-1
 8.117048855600000E9     5.060495277653194E-1   -1.981134625995322E-2    9.250985581965957E-4    3.822934302988627E-3    9.973229235347549E-4    3.847724192776009E-3    4.176044156181558E-1   -1.714983881570102E-1
 8.117052922950000E9     5.059999942669648E-1   -2.006720670121446E-2    9.183433086838921E-4    3.800153988725081E-3    9.680653474956064E-4    3.845331009774707E-3    4.175224703872524E-1   -1.717692297352345E-1
 8.117056990300000E9     5.060550324501250E-1   -2.028907740617190E-2    9.463230571121777E-4    3.818474446804908E-3    9.575097797235462E-4    3.884845872539085E-3    4.174318470497865E-1   -1.720994214195818E-1
 8.117061057650000E9     5.059728227702776E-1   -2.080551546459324E-2    9.021688600987194E-4    3.794923071371701E-3    9.737179317086404E-4    3.935541081123210E-3    4.174077973110800E-1   -1.723849851351705E-1
 8.117065125000000E9     5.059939729790440E-1   -2.116929087772207E-2    9.393444849636356E-4    3.829876147491606E-3    9.978784730961256E-4    3.862168221083976E-3    4.172273501449988E-1   -1.726094608537398E-1
 8.117069192350000E9     5.060125956227670E-1   -2.151342672341021E-2    9.332123094046269E-4    3.794680920796054E-3    1.006428426247939E-3    3.875740349741651E-3    4.172852185289697E-1   -1.730120027762620E-1
 8.117073259700000E9     5.059265856055922E-1   -2.163608190394603E-2    9.473229137694825E-4    3.839799186009218E-3    1.016693753229020E-3    3.886001795829221E-3    4.169705091159446E-1   -1.731334714143410E-1
 8.117077327050000E9     5.058601876516230E-1   -2.208857965556166E-2    9.720055282587055E-4    3.819025635008307E-3    1.009705678230493E-3    3.879136024803343E-3    4.169989557552721E-1   -1.733728259503072E-1
 8.117081394400000E9     5.059298994227124E-1   -2.251758466699516E-2    9.477021841435787E-4    3.817585992515808E-3    9.989392961663810E-4    3.909698636814792E-3    4.168371094135985E-1   -1.737718720364243E-1
 8.117085461750000E9     5.060136128280106E-1   -2.272546145028098E-2    9.195081530050740E-4    3.843637815828815E-3    1.002916509295751E-3    3.874691158254949E-3    4.166819846436192E-1   -1.738808054965003E-1
 8.117089529100000E9     5.059507234493102E-1   -2.307522609737352E-2    9.440311896223582E-4    3.843382818257426E-3    1.008232522413891E-3    3.901642913206536E-3    4.166983571314277E-1   -1.742278643356411E-1
 8.117093596450000E9     5.058714152278052E-1   -2.339044197250207E-2    9.735324792296610E-4    3.814433743695335E-3    1.010041810479666E-3    3.919981592869269E-3    4.166696483478186E-1   -1.745344603864969E-1
 8.117097663800000E9     5.057295140772284E-1   -2.382897712519134E-2    9.699437262443934E-4    3.824346473092453E-3    1.029384428754101E-3    3.879303860342563E-3    4.164611115722589E-1   -1.747625238786233E-1
 8.117101731150000E9     5.057921381645664E-1   -2.405165249754322E-2    9.656883052653963E-4    3.865610149481012E-3    1.018021150918020E-3    3.913962204320793E-3    4.164153488501552E-1   -1.750571937950917E-1
 8.117105798500000E9     5.058283336291712E-1   -2.438022106551637E-2    9.621322370353654E-4    3.849721338677200E-3    1.039679089036621E-3    3.932757277667902E-3    4.162795156167083E-1   -1.751585571216167E-1
 8.117109865850000E9     5.057547731779448E-1   -2.460547940737474E-2    9.799225976394039E-4    3.844207613379981E-3    1.032714233421324E-3    3.904361419341438E-3    4.163864351768324E-1   -1.755139296894255E-1
 8.117113933200000E9     5.057503311845689E-1   -2.498492783999122E-2    9.879574918061054E-4    3.847140751611492E-3    1.066987696101096E-3    3.914883563347901E-3    4.161264831614231E-1   -1.757650764190245E-1
 8.117118000550000E9     5.057764890693264E-1   -2.538265143482443E-2    9.728630381183330E-4    3.858908799567308E-3    1.018983431380261E-3    3.909634718640535E-3    4.158937834767451E-1   -1.760793218029773E-1
 8.117122067900000E9     5.056334752436604E-1   -2.571889657794096E-2    9.978797824622750E-4    3.870474612417032E-3    1.054540145116386E-3    3.934870900922162E-3    4.158121515867980E-1   -1.764020264280952E-1
 8.117126135250000E9     5.056819633097036E-1   -2.591070563963794E-2    9.931478626889981E-4    3.868596346290207E-3    1.061911410404248E-3    3.891374024406753E-3    4.157964069087862E-1   -1.764887385584330E-1
 8.117130202600000E9     5.055077876276823E-1   -2.634011017710628E-2    1.016566737414249E-3    3.866069387704809E-3    1.045242827951652E-3    3.937840964894015E-3    4.156334166720987E-1   -1.769001142563686E-1
 8.117134269950000E9     5.055974197717814E-1   -2.666862638714601E-2    1.017214112240259E-3    3.873873823983522E-3    1.092255185959402E-3    3.955329968906921E-3    4.155059721221510E-1   -1.771659043012688E-1
 8.117138337300000E9     5.054525452768263E-1   -2.687155145050475E-2    1.009717926405006E-3    3.907930512501007E-3    1.042011172913966E-3    3.978049242921221E-3    4.155359412936002E-1   -1.774524714446283E-1
 8.117142404650000E9     5.056039027790743E-1   -2.724728511847478E-2    1.000930991719537E-3    3.909756760951071E-3    1.049445624348881E-3    3.965812505685484E-3    4.153591600018771E-1   -1.776193049695599E-1
 8.117146472000000E9     5.055065053512238E-1   -2.761334278725211E-2    1.012294290329674E-3    3.917225778518956E-3    1.085923399828010E-3    3.950788296672540E-3    4.152401817985457E-1   -1.779658998035047E-1
 8.117150539350000E9     5.054619186630284E-1   -2.784002146574277E-2    1.039975876532560E-3    3.881928562626179E-3    1.097511044195742E-3    3.966883678031906E-3    4.150904342977677E-1   -1.783112991916306E-1
 8.117154606700000E9     5.054551557345167E-1   -2.818947147258393E-2    1.033895631883393E-3    3.905861063311212E-3    1.077556291169836E-3    3.972944660962294E-3    4.150564676733732E-1   -1.784899831361441E-1
 8.117158674050000E9     5.055135947041751E-1   -2.859813375989792E-2    1.016305759100244E-3    3.925726257556723E-3    1.106723120035445E-3    4.004096277836273E-3    4.150416281819174E-1   -1.787165427475713E-1
 8.117162741400000E9     5.054114872244567E-1   -2.896735125241601E-2    1.025513635126986E-3    3.913480033575705E-3    1.088742496672105E-3    3.966940569291562E-3    4.149363271662772E-1   -1.790344227270922E-1
 8.117166808750000E9     5.051895283688899E-1   -2.923213932732723E-2    1.062151166513435E-3    3.930142655175351E-3    1.116442789471218E-3    4.009440115887635E-3    4.147383442364811E-1   -1.793783958263050E-1
 8.117170876100000E9     5.051000290172868E-1   -2.960698734087848E-2    1.056568616425838E-3    3.915106545671810E-3    1.114459651249916E-3    4.027864111351488E-3    4.146414171032948E-1   -1.795217021750460E-1
 8.117174943450000E9     5.052439959174719E-1   -2.985680130968468E-2    1.048625430683397E-3    3.950485619576212E-3    1.128595750572618E-3    4.028291513428625E-3    4.146908296699098E-1   -1.797671774277306E-1
 8.117179010800000E9     5.051641437830077E-1   -3.013415522427517E-2    1.071063911548912E-3    3.948471575277656E-3    1.134017524842130E-3    4.020247876757968E-3    4.145178795298821E-1   -1.802503554661809E-1
 8.117183078150000E9     5.051650945868618E-1   -3.060670909448425E-2    1.065010705173582E-3    3.950758315312785E-3    1.130118532161147E-3    4.048756481745030E-3    4.142030657745109E-1   -1.802079591220116E-1
 8.117187145500000E9     5.051424282967021E-1   -3.080680617216936E-2    1.051679764121779E-3    3.977447080211358E-3    1.120923614259744E-3    4.043886590792477E-3    4.142615232226034E-1   -1.805977035799598E-1
