#  HZ   S   RI   R     50.00 
! Rohde & Schwarz Vector Network Analyzer 
! Rohde-Schwarz,ZNB20-2Port,1311601062101988,3.16
! Created: UTC 3/20/2024, 11:59:38 AM
! freq[Hz]                re:S11                  im:S11                  re:S21                  im:S21                  re:S12                  im:S12                  re:S22                  im:S22
 8.116890887000000E9     5.066806573517249E-1   -7.159060334875770E-3    7.561472723423861E-4    3.664898748209854E-3    8.427808537598159E-4    3.733174766294511E-3    4.212093383092823E-1   -1.611953400827197E-1
 8.116894692150000E9     5.066269432832909E-1   -7.700714297672928E-3    7.758839156134291E-4    3.674634425941306E-3    8.458121160858268E-4    3.720074487476987E-3    4.212697179451783E-1   -1.615459826731939E-1
 8.116898497300000E9     5.067682863938702E-1   -7.859031160731372E-3    7.451240179830385E-4    3.714423845522744E-3    8.225377071417029E-4    3.779202648864018E-3    4.211313858768155E-1   -1.617238303114825E-1
 8.116902302450000E9     5.066769113527357E-1   -8.206393259493544E-3    7.876052649051971E-4    3.682570513692626E-3    8.222750097897319E-4    3.759234645105374E-3    4.210141683182360E-1   -1.620029390615814E-1
 8.116906107600000E9     5.065331184996366E-1   -8.611581285644133E-3    7.806456204175436E-4    3.685066029732695E-3    7.970017593316521E-4    3.731737866034219E-3    4.208262649315771E-1   -1.621447194465188E-1
 8.116909912750000E9     5.066592374998626E-1   -8.810714662268362E-3    7.944029738434622E-4    3.683011490057178E-3    8.432702733807488E-4    3.757336324385557E-3    4.207815786498311E-1   -1.624511780357098E-1
 8.116913717900000E9     5.066635779982211E-1   -9.103892303681371E-3    7.606751038467714E-4    3.683239685420226E-3    8.100371610185868E-4    3.743028143526562E-3    4.207770674598536E-1   -1.627866451153019E-1
 8.116917523050000E9     5.066215225496509E-1   -9.417878968229860E-3    8.112362667671506E-4    3.698907662639642E-3    8.508732603376269E-4    3.773694478498924E-3    4.205573896359995E-1   -1.629894048020337E-1
 8.116921328200000E9     5.065582276323235E-1   -9.761088413222053E-3    7.935349760164474E-4    3.715110217650024E-3    8.675758547189734E-4    3.748270134491525E-3    4.206022284269733E-1   -1.631459444924781E-1
 8.116925133350000E9     5.067496660445486E-1   -1.009275098759129E-2    7.889952961084557E-4    3.700459265200145E-3    8.700536056989215E-4    3.764536866726064E-3    4.204573053977738E-1   -1.635315083205554E-1
 8.116928938500000E9     5.067830609216341E-1   -1.040357908577469E-2    7.874430078083563E-4    3.707311300815266E-3    8.449540792435411E-4    3.718782083575556E-3    4.203944872113234E-1   -1.636652309996262E-1
 8.116932743650000E9     5.066272293237082E-1   -1.055151643644132E-2    7.979055976639806E-4    3.709062016547734E-3    8.623560693690936E-4    3.791585414246329E-3    4.202789325261625E-1   -1.639298541593293E-1
 8.116936548800000E9     5.066227853404859E-1   -1.083697933559037E-2    8.047737108907173E-4    3.697046707334961E-3    8.118776068390915E-4    3.762605694165502E-3    4.201881276351251E-1   -1.642159374464519E-1
 8.116940353950000E9     5.065568118506089E-1   -1.130371013639639E-2    7.870280044227854E-4    3.721734254756844E-3    8.596992771885116E-4    3.796836655883429E-3    4.202021475655904E-1   -1.644958602672567E-1
 8.116944159100000E9     5.065351827256800E-1   -1.154366713545055E-2    8.005280417717456E-4    3.720253607383661E-3    9.035913073548929E-4    3.770844278145811E-3    4.200631422965758E-1   -1.648405494867672E-1
 8.116947964250000E9     5.065910292203577E-1   -1.179826440300331E-2    8.226809091759474E-4    3.734092665694378E-3    8.667165525725113E-4    3.748651147199008E-3    4.200122888386597E-1   -1.650073236182212E-1
 8.116951769400000E9     5.065527329015764E-1   -1.220583587197822E-2    8.310168544237269E-4    3.708009625144130E-3    9.157204231861057E-4    3.761757218192097E-3    4.198336188650028E-1   -1.652421954126640E-1
 8.116955574550000E9     5.064979158391318E-1   -1.246285626667010E-2    8.268055508799014E-4    3.707895344546934E-3    8.778666987668408E-4    3.779438640485413E-3    4.198484807658798E-1   -1.654164299201242E-1
 8.116959379700000E9     5.065175683230202E-1   -1.267300054126853E-2    8.318075383001307E-4    3.724133107529014E-3    8.794728224238095E-4    3.775996808741334E-3    4.197470196606869E-1   -1.656502107806728E-1
 8.116963184850000E9     5.064651416448885E-1   -1.293101574873883E-2    8.200741076628166E-4    3.704734608696969E-3    8.594529081981748E-4    3.788747477433394E-3    4.196034153983456E-1   -1.660989817993194E-1
 8.116966990000000E9     5.064422366783411E-1   -1.336525703741046E-2    8.374346609082024E-4    3.730864993339378E-3    8.937393936721558E-4    3.747572524702774E-3    4.195301552680519E-1   -1.662041106209505E-1
 8.116970795150000E9     5.064009356108566E-1   -1.367502521543034E-2    8.342005242118209E-4    3.751442332747021E-3    8.851081606235779E-4    3.783888803558213E-3    4.193608323435501E-1   -1.666650506119718E-1
 8.116974600300000E9     5.064038704725768E-1   -1.391246240745262E-2    8.375035941470695E-4    3.746710902047320E-3    8.818185454967682E-4    3.781546539223675E-3    4.194224509077449E-1   -1.667773041645420E-1
 8.116978405450000E9     5.063829340707025E-1   -1.411999292353143E-2    8.581228979780737E-4    3.741787922264418E-3    8.944180803931068E-4    3.818642104159386E-3    4.192560766237767E-1   -1.670331118638007E-1
 8.116982210600000E9     5.064568937304824E-1   -1.438912047654143E-2    8.431387537386250E-4    3.750090692074119E-3    8.843671512907649E-4    3.815836717806866E-3    4.191845318682382E-1   -1.672951380188063E-1
 8.116986015750000E9     5.063274447244179E-1   -1.482044032071618E-2    8.707238523788004E-4    3.735332530792555E-3    8.725310587922041E-4    3.837698332468008E-3    4.190097806173355E-1   -1.675227984006361E-1
 8.116989820900000E9     5.063997216501942E-1   -1.503648875705492E-2    8.424234803377299E-4    3.723381944535957E-3    8.995944688557493E-4    3.789419433348027E-3    4.190147180550750E-1   -1.677800081026538E-1
 8.116993626050000E9     5.063399050078342E-1   -1.525885300296818E-2    8.459619940185328E-4    3.774659794377753E-3    8.757195389318530E-4    3.816885837083530E-3    4.190074646054430E-1   -1.680560810088253E-1
 8.116997431200000E9     5.063180303521414E-1   -1.563096862797790E-2    8.393552251615484E-4    3.719565387588289E-3    9.164097110888196E-4    3.794962180093544E-3    4.188204706536975E-1   -1.682114826473444E-1
 8.117001236350000E9     5.063125165046543E-1   -1.595116308533932E-2    8.481155663799759E-4    3.756314497987141E-3    9.091822764691353E-4    3.802872181762253E-3    4.188926099359242E-1   -1.684189000681671E-1
 8.117005041500000E9     5.062683717306217E-1   -1.635623361948688E-2    8.658569286716928E-4    3.735301562853468E-3    9.056803973697330E-4    3.804918390638144E-3    4.186520856185134E-1   -1.688447959447080E-1
 8.117008846650000E9     5.062956967623039E-1   -1.655427825671750E-2    8.582328400972055E-4    3.754428183944799E-3    9.218428005993609E-4    3.789363352362583E-3    4.185962804442724E-1   -1.689967430367448E-1
 8.117012651800000E9     5.062027274289320E-1   -1.680562701960336E-2    8.740135956191860E-4    3.747554685901723E-3    9.433274999268560E-4    3.809225472005656E-3    4.183626719019100E-1   -1.692745788731632E-1
 8.117016456950000E9     5.062180767489189E-1   -1.708980972564292E-2    8.618355680183439E-4    3.764601692186447E-3    9.569321668299784E-4    3.837367645671323E-3    4.185019710544853E-1   -1.695107819883630E-1
 8.117020262100000E9     5.061243008070445E-1   -1.744158356379114E-2    8.618845375499641E-4    3.732709372042589E-3    9.310056973089226E-4    3.819138315398440E-3    4.183393694417951E-1   -1.697327503973090E-1
 8.117024067250000E9     5.061875691740708E-1   -1.764875308929643E-2    8.715104027470294E-4    3.754178135064329E-3    9.296167848144108E-4    3.810830406054456E-3    4.182307952779931E-1   -1.699672724446529E-1
 8.117027872400000E9     5.061968995114436E-1   -1.812450686354646E-2    8.744713724561413E-4    3.771033058928180E-3    9.174859101225048E-4    3.796321383464472E-3    4.181102120664275E-1   -1.701781923756568E-1
 8.117031677550000E9     5.061368557444816E-1   -1.839985453871832E-2    8.814466148997725E-4    3.773863034605348E-3    9.519064388203539E-4    3.805596832504156E-3    4.180026677805060E-1   -1.705552714231134E-1
 8.117035482700000E9     5.061062747626971E-1   -1.873034946597511E-2    8.862974337386782E-4    3.758040550711821E-3    9.442965950149582E-4    3.856079164009772E-3    4.180975203914394E-1   -1.709107547443816E-1
 8.117039287850000E9     5.061519138430572E-1   -1.906279194411149E-2    9.136989603084214E-4    3.770574273087310E-3    9.383164933652677E-4    3.858218095685156E-3    4.179044754007664E-1   -1.711094068166167E-1
 8.117043093000000E9     5.061462272107937E-1   -1.922429026794928E-2    8.788290647107048E-4    3.805069855889018E-3    9.582524484159120E-4    3.871950832136359E-3    4.178117103460959E-1   -1.712979837786544E-1
 8.117046898150000E9     5.061237435158725E-1   -1.952926544736080E-2    8.897354497270831E-4    3.807186484814228E-3    9.541164823401694E-4    3.829768621496505E-3    4.175551204666393E-1   -1.714270736084104E-1
 8.117050703300000E9     5.060688907986132E-1   -1.978628089296116E-2    8.814237169542078E-4    3.819626864905371E-3    9.142737203362591E-4    3.852557717426908E-3    4.175473723910551E-1   -1.717163666119150E-1
 8.117054508450000E9     5.061092703114602E-1   -2.007551260645670E-2    8.934166910302315E-4    3.785421105415836E-3    9.273419384025679E-4    3.884472169640975E-3    4.174662941697125E-1   -1.721090004658529E-1
 8.117058313600000E9     5.060596951472273E-1   -2.040256496509623E-2    8.979119045129539E-4    3.794647350693003E-3    9.582868097251302E-4    3.845806267684138E-3    4.173713477176378E-1   -1.722614293864954E-1
 8.117062118750000E9     5.061023786713135E-1   -2.079016596321255E-2    9.125223068810368E-4    3.779094277257913E-3    9.653057760136122E-4    3.824107784229016E-3    4.172840894194447E-1   -1.725477407221264E-1
 8.117065923900000E9     5.060543490521889E-1   -2.095532559913946E-2    9.105946327750135E-4    3.794868865399784E-3    9.886159341724876E-4    3.858553736072044E-3    4.172598210821992E-1   -1.727249551845673E-1
 8.117069729050000E9     5.060171980613077E-1   -2.143485644115493E-2    9.063297812508885E-4    3.837139893411000E-3    9.854751775871000E-4    3.882008350073768E-3    4.170111540848815E-1   -1.729288357264731E-1
 8.117073534200000E9     5.059721746056253E-1   -2.172635103732832E-2    8.995061187764260E-4    3.793657607925831E-3    9.606254867880743E-4    3.886409288893620E-3    4.170497230233020E-1   -1.732130776001401E-1
 8.117077339350000E9     5.060080542120291E-1   -2.181697498160688E-2    9.360477941639854E-4    3.808134181085903E-3    9.679895285626486E-4    3.866408168723451E-3    4.169861178840065E-1   -1.736185854069935E-1
 8.117081144500000E9     5.058139941379679E-1   -2.229562893950011E-2    9.295859892996427E-4    3.794349664382222E-3    1.000574336914332E-3    3.880633540225357E-3    4.169295019463523E-1   -1.737090607834760E-1
 8.117084949650000E9     5.058367229275310E-1   -2.245210227335251E-2    9.270693707908504E-4    3.799949216122204E-3    9.979176379155200E-4    3.879072378195332E-3    4.167014546444320E-1   -1.739314361850773E-1
 8.117088754800000E9     5.059021546005971E-1   -2.283767192005405E-2    9.421094858021907E-4    3.823875597430715E-3    1.019004680693479E-3    3.868229072574442E-3    4.166610518615306E-1   -1.741970826511195E-1
 8.117092559950000E9     5.057846325407059E-1   -2.319515068833191E-2    9.508676483754594E-4    3.827512319927830E-3    9.959597155211660E-4    3.884975888390796E-3    4.165425579476248E-1   -1.743438578313883E-1
 8.117096365100000E9     5.057854181377784E-1   -2.348017295990911E-2    9.428641810318882E-4    3.818724589324482E-3    9.997208444163096E-4    3.869421895285048E-3    4.164937510585499E-1   -1.746836861859489E-1
 8.117100170250000E9     5.058596727832571E-1   -2.372289030428821E-2    9.695153162941334E-4    3.828817761969141E-3    9.869648712031154E-4    3.902098697431414E-3    4.162649779295752E-1   -1.749328139821910E-1
 8.117103975400000E9     5.058472042965401E-1   -2.410823680996662E-2    9.605463818753751E-4    3.831593104863255E-3    1.050381663702839E-3    3.885286042465480E-3    4.161800861008260E-1   -1.752790231272074E-1
 8.117107780550000E9     5.056690404518903E-1   -2.430916641100623E-2    9.775823433690284E-4    3.844078947576368E-3    1.032458288445225E-3    3.929416253064308E-3    4.161763255913775E-1   -1.754621120630033E-1
 8.117111585700000E9     5.057881712556780E-1   -2.472097998413308E-2    9.642563163758097E-4    3.820655490668048E-3    1.017043037655139E-3    3.915074107807303E-3    4.158785644519456E-1   -1.757612637814518E-1
 8.117115390850000E9     5.057252433085099E-1   -2.508396022479620E-2    9.862613346674866E-4    3.868454470866315E-3    1.036400646439291E-3    3.926336835352675E-3    4.160531384096910E-1   -1.760598204873565E-1
 8.117119196000000E9     5.057025363169342E-1   -2.539978524458439E-2    9.927102290906871E-4    3.865276937777632E-3    1.038081323754989E-3    3.920596651477176E-3    4.159190956263782E-1   -1.761281755070727E-1
 8.117123001150000E9     5.056346841065479E-1   -2.548739150959805E-2    9.482287159312072E-4    3.854642500174927E-3    1.018588929266209E-3    3.918368322604515E-3    4.158984503995807E-1   -1.764817495317829E-1
 8.117126806300000E9     5.056400502221119E-1   -2.586127235419712E-2    9.770945874177166E-4    3.856996191779680E-3    1.001887271540669E-3    3.943046453073118E-3    4.157673828944392E-1   -1.767192852440822E-1
 8.117130611450000E9     5.056027321687814E-1   -2.615263229542979E-2    1.007408467296419E-3    3.887696467674306E-3    1.065363371703152E-3    3.929975124698185E-3    4.157328160982129E-1   -1.768340916221691E-1
 8.117134416600000E9     5.057296751720602E-1   -2.651028134053576E-2    9.843053542100434E-4    3.854528878782155E-3    1.061701994734833E-3    3.913799919870137E-3    4.155468295600260E-1   -1.771639825237470E-1
 8.117138221750000E9     5.055489209645109E-1   -2.677339468729106E-2    1.014222514829112E-3    3.856598799246927E-3    1.075885263728237E-3    3.945094626494018E-3    4.153756333737875E-1   -1.773583347231826E-1
 8.117142026900000E9     5.055948006192154E-1   -2.714619824603961E-2    9.859689542481736E-4    3.888616343220002E-3    1.086515487911298E-3    3.956620727508200E-3    4.152331543041870E-1   -1.776679140496416E-1
 8.117145832050000E9     5.054977135043228E-1   -2.741404206070920E-2    9.983248410710176E-4    3.900435717153013E-3    1.069718450809495E-3    3.950601016662685E-3    4.152491337236702E-1   -1.778988374757720E-1
 8.117149637200000E9     5.054189553608067E-1   -2.765918446287785E-2    9.985624234997495E-4    3.901151072102309E-3    1.030809516380928E-3    3.957769515507373E-3    4.152055620858089E-1   -1.781524736734279E-1
 8.117153442350000E9     5.054192108780120E-1   -2.799391505376357E-2    9.993878234047288E-4    3.887694793156806E-3    1.098905239298275E-3    3.957552542971744E-3    4.148012458249988E-1   -1.784783096799946E-1
 8.117157247500000E9     5.054301468875390E-1   -2.839015398488169E-2    1.004435306250759E-3    3.900517606123823E-3    1.052495618295500E-3    3.963670354061354E-3    4.149553694886504E-1   -1.787649888807122E-1
 8.117161052650000E9     5.053982073424309E-1   -2.864787849284277E-2    1.031986741656123E-3    3.912923128748650E-3    1.056994189986010E-3    3.976256587701181E-3    4.150144078726319E-1   -1.789136184697265E-1
 8.117164857800000E9     5.054580056128078E-1   -2.899705008067750E-2    1.039188067316144E-3    3.895780883978001E-3    1.058860454651590E-3    3.961290930171456E-3    4.147317287381342E-1   -1.792356282442146E-1
 8.117168662950000E9     5.053839847122505E-1   -2.922491711817241E-2    1.042566838436731E-3    3.916547105909378E-3    1.129622339134811E-3    3.977853862496830E-3    4.147016870489316E-1   -1.794832680556912E-1
 8.117172468100000E9     5.052863538048602E-1   -2.947361090692362E-2    1.053420884933230E-3    3.893984541479060E-3    1.096271631020111E-3    4.000208878725362E-3    4.144470746313414E-1   -1.797538520415723E-1
 8.117176273250000E9     5.053452905343868E-1   -2.983266466228447E-2    1.049230739093000E-3    3.908258876190301E-3    1.101836417411579E-3    3.967162036163341E-3    4.143810170746201E-1   -1.800098984515901E-1
 8.117180078400000E9     5.051759470496825E-1   -3.020798906043554E-2    1.071437251670693E-3    3.899027659036572E-3    1.139468440471371E-3    3.962802993322682E-3    4.142995699149539E-1   -1.801591644092535E-1
 8.117183883550000E9     5.053073467548880E-1   -3.041400339675635E-2    1.050999461626890E-3    3.947467379458320E-3    1.124099184848369E-3    4.002849276419580E-3    4.142389645670518E-1   -1.804584814927869E-1
 8.117187688700000E9     5.051923028811892E-1   -3.081673371681282E-2    1.060940857270508E-3    3.913673851557970E-3    1.110259163076213E-3    3.983678467769043E-3    4.141372852412417E-1   -1.806828544732329E-1
 8.117191493850000E9     5.050959159361920E-1   -3.117813212407321E-2    1.065520178179148E-3    3.939108702157835E-3    1.156239196442697E-3    4.000435365322927E-3    4.141111743598059E-1   -1.809570577263036E-1
 8.117195299000000E9     5.050849683208568E-1   -3.132489469748743E-2    1.073360527159713E-3    3.939647652581158E-3    1.127606179357403E-3    4.013364836689839E-3    4.138539281093379E-1   -1.811728093072913E-1
 8.117199104150000E9     5.051251570363122E-1   -3.172626032830521E-2    1.079440814116033E-3    3.940795489664266E-3    1.154842069001086E-3    4.021327222571000E-3    4.138569804020990E-1   -1.814701935795664E-1
 8.117202909300000E9     5.051117863009842E-1   -3.198373270935537E-2    1.094750786465100E-3    3.979798481480280E-3    1.131151167717636E-3    4.043920831383518E-3    4.138366980880290E-1   -1.816433132585150E-1
 8.117206714450000E9     5.050480620243943E-1   -3.243960451332962E-2    1.086548458880948E-3    3.950309359810032E-3    1.131768886863863E-3    4.041831261075846E-3    4.136836517596814E-1   -1.819156803217935E-1
 8.117210519600000E9     5.049738944247497E-1   -3.265905690137676E-2    1.089936056559250E-3    3.969930070743481E-3    1.184552393563742E-3    4.031032775855631E-3    4.137056815334533E-1   -1.822127031004032E-1
 8.117214324750000E9     5.049902083975920E-1   -3.290254420035090E-2    1.082595015618592E-3    3.959651010437364E-3    1.130326696053381E-3    4.071213154681963E-3    4.136121722765240E-1   -1.823665237691375E-1
 8.117218129900000E9     5.048560596786386E-1   -3.329113648736025E-2    1.111403200753590E-3    3.969168861556557E-3    1.185444576707774E-3    4.047594801238510E-3    4.133630336310714E-1   -1.825899106598523E-1
 8.117221935050000E9     5.048540962625749E-1   -3.362277938906644E-2    1.123918525673325E-3    3.991283062045591E-3    1.166319788223903E-3    4.077558896189923E-3    4.132492868524352E-1   -1.830094694583309E-1
 8.117225740200000E9     5.048789999104201E-1   -3.389453186955338E-2    1.118621934783014E-3    3.964146330019633E-3    1.161092238913075E-3    4.037489049838211E-3    4.131400083357002E-1   -1.831592129508529E-1
 8.117229545350000E9     5.048390517807565E-1   -3.430050005980259E-2    1.116658266125404E-3    4.016750713013326E-3    1.193962861845954E-3    4.034772292869560E-3    4.131705079230983E-1   -1.833500450898964E-1
 8.117233350500000E9     5.049345110982941E-1   -3.451853058608331E-2    1.104996943443265E-3    3.999946960362096E-3    1.193674768583446E-3    4.041257812753073E-3    4.131024230163536E-1   -1.836578562685998E-1
