#  HZ   S   RI   R     50.00 
! Rohde & Schwarz Vector Network Analyzer 
! Rohde-Schwarz,ZNB20-2Port,1311601062101988,3.16
! Created: UTC 12/23/2023, 3:39:51 AM
! freq[Hz]                re:S11                  im:S11                  re:S21                  im:S21                  re:S12                  im:S12                  re:S22                  im:S22
 6.517046265000000E9    -2.302297984339706E-1   -1.624140503584112E-2    1.339576748300039E-2   -5.481732072327895E-3    1.348905267702840E-2   -4.904129230241181E-3    2.070942529270073E-1    5.079717705934775E-1
 6.517057952075000E9    -2.301341569602859E-1   -1.624766718034655E-2    1.338375840562034E-2   -5.474671877506126E-3    1.355897005130365E-2   -5.048048922845136E-3    2.078576706102651E-1    5.075546355065477E-1
 6.517069639150000E9    -2.299278884313296E-1   -1.596743465204298E-2    1.340675797548023E-2   -5.616461384897189E-3    1.357191025984806E-2   -5.081051900625313E-3    2.087893510936104E-1    5.072291836875492E-1
 6.517081326225000E9    -2.299657798652861E-1   -1.595279778407084E-2    1.350038507864352E-2   -5.685345338394842E-3    1.352238946425694E-2   -5.202522978052051E-3    2.096400271714321E-1    5.069454141771320E-1
 6.517093013300000E9    -2.298092617556577E-1   -1.570171048052221E-2    1.348375112411341E-2   -5.719725551499908E-3    1.368430419251283E-2   -5.196504884053352E-3    2.105824047413229E-1    5.065342362521604E-1
 6.517104700375000E9    -2.296548365678119E-1   -1.541274872009832E-2    1.357765588244190E-2   -5.688006368868409E-3    1.373746991925986E-2   -5.238273716333968E-3    2.113987769451176E-1    5.063452342574959E-1
 6.517116387450000E9    -2.295586391324677E-1   -1.537724521614350E-2    1.360226957438511E-2   -5.839910097832736E-3    1.379522453024075E-2   -5.346271285589552E-3    2.121859419345751E-1    5.059274224103544E-1
 6.517128074525000E9    -2.294305797836488E-1   -1.508698301678590E-2    1.368324048597779E-2   -5.867131049304335E-3    1.382447815043044E-2   -5.359531911340696E-3    2.130723043731441E-1    5.056061002547285E-1
 6.517139761600000E9    -2.292304645132214E-1   -1.486794592364220E-2    1.378100608639568E-2   -5.983622285856626E-3    1.388640561892009E-2   -5.434149111377000E-3    2.140131765171325E-1    5.051663382724418E-1
 6.517151448675000E9    -2.291054290554383E-1   -1.477716383211014E-2    1.381908409473919E-2   -6.059116088683904E-3    1.402858779612391E-2   -5.557154440729712E-3    2.147335122979145E-1    5.047746685324163E-1
 6.517163135750000E9    -2.291339279768335E-1   -1.463681254306372E-2    1.382503886629168E-2   -6.047409100006405E-3    1.398258147720840E-2   -5.519750463111505E-3    2.157538565115023E-1    5.044446823130555E-1
 6.517174822825000E9    -2.289546210880320E-1   -1.446334442908748E-2    1.405085515101719E-2   -6.097044978696791E-3    1.403098740826997E-2   -5.634457298501110E-3    2.165832757604441E-1    5.041311037500932E-1
 6.517186509900000E9    -2.288629733176171E-1   -1.433127343995167E-2    1.403074103207712E-2   -6.043119111147679E-3    1.411492772042211E-2   -5.721719079401824E-3    2.174522720319637E-1    5.037630668755921E-1
 6.517198196975000E9    -2.286367699161761E-1   -1.407535408308050E-2    1.409058096784631E-2   -6.091469691295665E-3    1.420097559172689E-2   -5.710732291269448E-3    2.183178649674650E-1    5.034391022211230E-1
 6.517209884050000E9    -2.286335309266030E-1   -1.391729234518503E-2    1.401111697980735E-2   -6.302540051476975E-3    1.422959571955320E-2   -5.763258961967121E-3    2.191390064234605E-1    5.030176607082475E-1
 6.517221571125000E9    -2.284285022957487E-1   -1.370123803586032E-2    1.408910692705670E-2   -6.329840897161652E-3    1.424441332326767E-2   -5.847534945414156E-3    2.199365278120817E-1    5.026847385146426E-1
 6.517233258200000E9    -2.282693134056563E-1   -1.358171326320527E-2    1.426644525890276E-2   -6.350397807531817E-3    1.431829576614159E-2   -5.855901142504601E-3    2.208643337582044E-1    5.023744711523419E-1
 6.517244945275000E9    -2.281728266227410E-1   -1.341140330402519E-2    1.435423352075821E-2   -6.434675324684069E-3    1.453529337227474E-2   -5.946020212502741E-3    2.217257343583822E-1    5.019348769770440E-1
 6.517256632350000E9    -2.280765386358630E-1   -1.319781423407099E-2    1.448638557838977E-2   -6.477180496345843E-3    1.454902044478391E-2   -6.035490162109100E-3    2.226475638007059E-1    5.013617770824059E-1
 6.517268319425000E9    -2.278660925042606E-1   -1.313551417872622E-2    1.438533758033032E-2   -6.537647510427967E-3    1.454146593671708E-2   -6.040304554753542E-3    2.234741147465382E-1    5.013086075331670E-1
 6.517280006500000E9    -2.277869001169049E-1   -1.281746070261382E-2    1.442121421036776E-2   -6.655988955132673E-3    1.465356263309572E-2   -6.087714023471736E-3    2.243109320557507E-1    5.008536078446362E-1
 6.517291693575000E9    -2.275935213830460E-1   -1.265941746016652E-2    1.452497196677355E-2   -6.711420193832747E-3    1.475012238085293E-2   -6.296466220061028E-3    2.251105070525008E-1    5.005139468988778E-1
 6.517303380650000E9    -2.274635634946382E-1   -1.255727442880061E-2    1.443814385448280E-2   -6.749832771559892E-3    1.478153420040095E-2   -6.126460380774770E-3    2.260943538899825E-1    5.000027638095704E-1
 6.517315067725000E9    -2.272737202927271E-1   -1.239051350223591E-2    1.457988290248045E-2   -6.862233343521136E-3    1.470957252497363E-2   -6.270055036151385E-3    2.267639088800214E-1    4.997010603153748E-1
 6.517326754800000E9    -2.272291008063400E-1   -1.217447198548291E-2    1.471503336754341E-2   -6.856303444405428E-3    1.489956175105664E-2   -6.391744137385262E-3    2.278124022130348E-1    4.992272382823442E-1
 6.517338441875000E9    -2.270232888146087E-1   -1.197830883189089E-2    1.483495954777186E-2   -6.954621182825061E-3    1.494063792371240E-2   -6.407699646557825E-3    2.285683289966027E-1    4.989073618336546E-1
 6.517350128950000E9    -2.269095264038234E-1   -1.185690444063869E-2    1.496867353601217E-2   -6.937600130170567E-3    1.502050554081982E-2   -6.468873549676336E-3    2.295004014695939E-1    4.984412895682762E-1
 6.517361816025000E9    -2.267245700280106E-1   -1.166227051770970E-2    1.498086268579258E-2   -7.139169897255881E-3    1.517718401027287E-2   -6.500179314484675E-3    2.302884831936174E-1    4.981354041717971E-1
 6.517373503100000E9    -2.266230447173891E-1   -1.167097389008007E-2    1.498766290706992E-2   -7.091361166787159E-3    1.516522276347185E-2   -6.614906457460953E-3    2.312455406593774E-1    4.977401892581759E-1
 6.517385190175000E9    -2.264954840530596E-1   -1.152170390117328E-2    1.518816587998335E-2   -7.247134107881928E-3    1.514672173493021E-2   -6.696899937979604E-3    2.321665010559933E-1    4.972615565150358E-1
 6.517396877250000E9    -2.262627227248561E-1   -1.117443011204371E-2    1.516633539453510E-2   -7.320384521571020E-3    1.533147970754653E-2   -6.789961989740254E-3    2.329563819255369E-1    4.969065907467236E-1
 6.517408564325000E9    -2.262387368370822E-1   -1.113994198386555E-2    1.527637178698083E-2   -7.313101580271256E-3    1.541530132828167E-2   -6.823611500764303E-3    2.338207457735897E-1    4.965975676276486E-1
 6.517420251400000E9    -2.260440848106016E-1   -1.084213333303996E-2    1.526441774206189E-2   -7.570335194275546E-3    1.550211261253841E-2   -6.914810998062964E-3    2.346799611233129E-1    4.961967919529016E-1
 6.517431938475000E9    -2.259369395108949E-1   -1.072246663702449E-2    1.535271579601364E-2   -7.505096322556647E-3    1.550861759204043E-2   -7.023834736083845E-3    2.354584953850176E-1    4.957059955293973E-1
 6.517443625550000E9    -2.257450600613556E-1   -1.065494207401738E-2    1.539686109585208E-2   -7.594948850756431E-3    1.552841321355606E-2   -7.219545125564212E-3    2.362659084958673E-1    4.955037579400169E-1
 6.517455312625000E9    -2.255580936170697E-1   -1.039061623634740E-2    1.561001457563710E-2   -7.588735707217852E-3    1.569213731896160E-2   -7.112538510369070E-3    2.370832337089307E-1    4.949094874605665E-1
 6.517466999700000E9    -2.255383341988628E-1   -1.027501996502757E-2    1.555967005501942E-2   -7.842052570049642E-3    1.585401899662787E-2   -7.247619034961816E-3    2.382961641238097E-1    4.946471957826377E-1
 6.517478686775000E9    -2.252471657378857E-1   -1.023169878749964E-2    1.564525794929241E-2   -7.868952243321152E-3    1.582345841099448E-2   -7.228057596595457E-3    2.389510360342953E-1    4.942674228157193E-1
 6.517490373850000E9    -2.251624214008591E-1   -1.005864925016010E-2    1.581680566694368E-2   -8.025535814011000E-3    1.598752567940446E-2   -7.420351701671211E-3    2.397810097253752E-1    4.936296803657033E-1
 6.517502060925000E9    -2.250852626715975E-1   -9.912038849737974E-3    1.590375393136527E-2   -7.893436841014099E-3    1.591866102095595E-2   -7.497292718549983E-3    2.407485039301166E-1    4.934259266536768E-1
 6.517513748000000E9    -2.248981178277641E-1   -9.698012132376631E-3    1.588797412808666E-2   -8.030029461937612E-3    1.614520260184576E-2   -7.543170796276967E-3    2.416708847665411E-1    4.929873834056965E-1
 6.517525435075000E9    -2.247868938743986E-1   -9.564710936721576E-3    1.598298486739258E-2   -8.211571431445601E-3    1.634761683990636E-2   -7.604024425906189E-3    2.425700349998606E-1    4.924845949913439E-1
 6.517537122150000E9    -2.245063620957768E-1   -9.483149857723992E-3    1.608247824524085E-2   -8.255978679450250E-3    1.627629264136315E-2   -7.644087219036193E-3    2.432457636452304E-1    4.920476002291226E-1
 6.517548809225000E9    -2.244782727418298E-1   -9.238283772174628E-3    1.610237864173418E-2   -8.161604808655199E-3    1.630922236162725E-2   -7.769751690130226E-3    2.442336755074410E-1    4.915538412172982E-1
 6.517560496300000E9    -2.242197747655511E-1   -9.124483280213962E-3    1.620494527516610E-2   -8.511586461736442E-3    1.650656911031374E-2   -7.888493749259205E-3    2.451060275653255E-1    4.911546502216593E-1
 6.517572183375000E9    -2.240810357105481E-1   -9.048121927512122E-3    1.638152853915269E-2   -8.505628444991305E-3    1.645154739251508E-2   -7.905391891915000E-3    2.458803159580188E-1    4.907886242868417E-1
 6.517583870450000E9    -2.239203439867020E-1   -8.871922101084083E-3    1.638228077015976E-2   -8.571924826824175E-3    1.661148084757338E-2   -8.159503714133454E-3    2.467922834695306E-1    4.903787978475108E-1
 6.517595557525000E9    -2.237350458315334E-1   -8.693141065104392E-3    1.651868401195903E-2   -8.513306681357455E-3    1.675141929950440E-2   -8.138177606295737E-3    2.476796181381360E-1    4.899143946529923E-1
 6.517607244600000E9    -2.235660566362138E-1   -8.499278608628412E-3    1.661393643866000E-2   -8.761691014921748E-3    1.670151414023112E-2   -8.339194395293294E-3    2.484738201050151E-1    4.895228918423643E-1
 6.517618931675000E9    -2.233442661511837E-1   -8.467819540325361E-3    1.662953912161643E-2   -8.932670696238302E-3    1.689875053970465E-2   -8.271892938782317E-3    2.492253569822518E-1    4.890353237060797E-1
 6.517630618750000E9    -2.232654753370511E-1   -8.353524949306071E-3    1.676421601335588E-2   -8.954575473903433E-3    1.685829854298999E-2   -8.432499124573768E-3    2.502071847734344E-1    4.886233656873296E-1
 6.517642305825000E9    -2.231105781195794E-1   -8.110314143163318E-3    1.687194875287871E-2   -9.025946818116920E-3    1.709987946231970E-2   -8.453765144685670E-3    2.510497663031402E-1    4.881433417741377E-1
 6.517653992900000E9    -2.229438100675495E-1   -8.052335220764399E-3    1.693685703529217E-2   -9.292939190565650E-3    1.718430285512075E-2   -8.620066586859194E-3    2.518303771083650E-1    4.876420798223839E-1
 6.517665679975000E9    -2.227400304153069E-1   -7.925917446271993E-3    1.691257420756540E-2   -9.297752647421552E-3    1.731788847741642E-2   -8.786428827300416E-3    2.526660721048068E-1    4.873714998327600E-1
 6.517677367050000E9    -2.225277870197518E-1   -7.865211959055065E-3    1.709103212670163E-2   -9.392647066394205E-3    1.730986083270973E-2   -8.780195028357304E-3    2.536282895181699E-1    4.868783701840882E-1
 6.517689054125000E9    -2.224602262907930E-1   -7.731955759854561E-3    1.711888567108189E-2   -9.441509615432438E-3    1.732840532466266E-2   -8.871628390990892E-3    2.545614582137489E-1    4.862995270474996E-1
 6.517700741200000E9    -2.222265964986958E-1   -7.578836540100135E-3    1.721528346992763E-2   -9.479138912450429E-3    1.754212401032705E-2   -8.866347346007381E-3    2.552741805027817E-1    4.860345845933737E-1
 6.517712428275000E9    -2.219905076761498E-1   -7.393343487700653E-3    1.730319623760431E-2   -9.705588366906928E-3    1.760948906533505E-2   -9.079085661179841E-3    2.563427497424887E-1    4.854267506180230E-1
 6.517724115350000E9    -2.218723935737181E-1   -7.305793056662574E-3    1.744678638233553E-2   -9.807011198949498E-3    1.774485105258673E-2   -9.164338818303907E-3    2.570066081477638E-1    4.850791095587766E-1
 6.517735802425000E9    -2.216106491900384E-1   -7.167746161719781E-3    1.758066937666165E-2   -9.843540168561342E-3    1.785243665960086E-2   -9.291393772795113E-3    2.581345688316388E-1    4.844693364235811E-1
 6.517747489500000E9    -2.214580061653696E-1   -7.038594399407028E-3    1.761609595243304E-2   -9.986091820022138E-3    1.791056933789063E-2   -9.380869589542085E-3    2.587121858081027E-1    4.842066910489065E-1
 6.517759176575000E9    -2.212426005567032E-1   -6.863946425774197E-3    1.768036529578767E-2   -1.009826630219189E-2    1.788437908937356E-2   -9.534811924799063E-3    2.596091164296830E-1    4.835538247570256E-1
 6.517770863650000E9    -2.211945978324346E-1   -6.754318053676863E-3    1.784721320599640E-2   -1.029612431894360E-2    1.814576311003847E-2   -9.635872833056657E-3    2.606338750713093E-1    4.831013564206025E-1
 6.517782550725000E9    -2.210003573428757E-1   -6.682453748297399E-3    1.800677204110625E-2   -1.026204188698152E-2    1.822171112472693E-2   -9.718925557539936E-3    2.614704739181832E-1    4.825840474146396E-1
 6.517794237800000E9    -2.207526836676492E-1   -6.501753791288149E-3    1.804107719166733E-2   -1.057646338188193E-2    1.826278903961928E-2   -9.809066796050668E-3    2.622619954085958E-1    4.820635419844056E-1
 6.517805924875000E9    -2.206393409496955E-1   -6.492394709580295E-3    1.815427099574942E-2   -1.059881289317338E-2    1.846156069295749E-2   -9.851801505203150E-3    2.632037697431650E-1    4.818044909406419E-1
 6.517817611950000E9    -2.203363972812788E-1   -6.420509075473766E-3    1.822812150025110E-2   -1.063173250343679E-2    1.852923729851393E-2   -1.008095725763841E-2    2.639839580661682E-1    4.811229548199585E-1
 6.517829299025000E9    -2.202114508015962E-1   -6.335756665546344E-3    1.837527620764151E-2   -1.080621983442106E-2    1.859383517118066E-2   -1.011715416793267E-2    2.649006236530461E-1    4.805463420542462E-1
 6.517840986100000E9    -2.199294983163325E-1   -6.137427926778003E-3    1.842984641438471E-2   -1.097214391946843E-2    1.873120979366505E-2   -1.035894479956912E-2    2.657605943522292E-1    4.803844767989142E-1
 6.517852673175000E9    -2.198780802106030E-1   -6.022923352749106E-3    1.855990026655758E-2   -1.101074543630850E-2    1.879874357697888E-2   -1.051998592883828E-2    2.666359867077013E-1    4.796633535485598E-1
 6.517864360250000E9    -2.195244386017880E-1   -6.008111107617479E-3    1.865302338661304E-2   -1.122286899616640E-2    1.901435374279546E-2   -1.059463992841764E-2    2.675183459792425E-1    4.792749785618962E-1
 6.517876047325000E9    -2.193324607362938E-1   -5.968608324583033E-3    1.874262725947667E-2   -1.130698491944235E-2    1.917777951096682E-2   -1.065777757503907E-2    2.682564871379660E-1    4.787449329620482E-1
 6.517887734400000E9    -2.192083618158667E-1   -5.660446296227313E-3    1.887976237522251E-2   -1.149289888613834E-2    1.937161940027484E-2   -1.085575186834955E-2    2.692263797866164E-1    4.781295803428192E-1
 6.517899421475000E9    -2.189759033380697E-1   -5.568326552295565E-3    1.902007464309814E-2   -1.162730037747503E-2    1.928015086015152E-2   -1.092567469301516E-2    2.700419212470395E-1    4.777670175924097E-1
 6.517911108550000E9    -2.187770334603507E-1   -5.686404803107101E-3    1.906233075857462E-2   -1.163208189098730E-2    1.942556770386252E-2   -1.102342486668122E-2    2.711056135678188E-1    4.772171883480442E-1
 6.517922795625000E9    -2.184560826935458E-1   -5.585253003771024E-3    1.921106798743218E-2   -1.184472748399179E-2    1.959791384194826E-2   -1.127715463272817E-2    2.720117158194825E-1    4.767440145215388E-1
 6.517934482700000E9    -2.183951238167010E-1   -5.300286210179848E-3    1.930307882713912E-2   -1.196793910864924E-2    1.963284138340046E-2   -1.141483740700835E-2    2.727146382187973E-1    4.761681721898829E-1
 6.517946169775000E9    -2.181149092269138E-1   -5.363718147551461E-3    1.938945711377050E-2   -1.221154107862220E-2    1.987697293315473E-2   -1.157536451877954E-2    2.736306582704413E-1    4.757170983859902E-1
 6.517957856850000E9    -2.178577961656919E-1   -5.200546916351274E-3    1.957002861311680E-2   -1.226327671433508E-2    1.986507768972415E-2   -1.170326230741823E-2    2.745302724328619E-1    4.749312400364449E-1
 6.517969543925000E9    -2.176938326930508E-1   -5.219177032472889E-3    1.970653807497917E-2   -1.254831780192126E-2    2.011046305450091E-2   -1.184533973975226E-2    2.752691160341103E-1    4.746446575460035E-1
 6.517981231000000E9    -2.174953209430741E-1   -5.171844036704516E-3    1.983707924728418E-2   -1.256709720633163E-2    2.017428233597491E-2   -1.193214496005192E-2    2.762981479811056E-1    4.740432758293851E-1
 6.517992918075000E9    -2.170580961507591E-1   -4.991070960209735E-3    1.990780795093331E-2   -1.280032698543159E-2    2.030308597678333E-2   -1.211588163372108E-2    2.771330271265701E-1    4.735154885027107E-1
 6.518004605150000E9    -2.170070889730435E-1   -4.916439285182175E-3    2.003536787900454E-2   -1.285654774097916E-2    2.033464725294091E-2   -1.223118577640199E-2    2.780477345546552E-1    4.729036174855573E-1
 6.518016292225000E9    -2.167992378121002E-1   -4.934949890775657E-3    2.011799040655817E-2   -1.303257593111724E-2    2.061453870718652E-2   -1.251445170034161E-2    2.789192406674051E-1    4.723026370952411E-1
 6.518027979300000E9    -2.165505773434692E-1   -4.879787739844241E-3    2.029610391545136E-2   -1.319623834490627E-2    2.076925314655561E-2   -1.269112016505766E-2    2.797697481604756E-1    4.719471586759330E-1
 6.518039666375000E9    -2.162682070221573E-1   -4.732991454346860E-3    2.050556702043814E-2   -1.337741311300275E-2    2.082038606289874E-2   -1.277605160391159E-2    2.806936610241272E-1    4.714150960662064E-1
 6.518051353450000E9    -2.160412648177427E-1   -4.679629855963396E-3    2.058027791847675E-2   -1.360885481952288E-2    2.096262363902534E-2   -1.283025208543054E-2    2.814070888605217E-1    4.707436658848294E-1
 6.518063040525000E9    -2.157910960509947E-1   -4.649492481074706E-3    2.071338547608277E-2   -1.367908887697175E-2    2.115441017063990E-2   -1.303230669378803E-2    2.823654282920097E-1    4.703037471391589E-1
 6.518074727600000E9    -2.155714668428935E-1   -4.578764064519138E-3    2.082030350750695E-2   -1.393102779167318E-2    2.122229109914466E-2   -1.313664185955564E-2    2.833215922128045E-1    4.695649342859526E-1
 6.518086414675000E9    -2.152479687364509E-1   -4.663267696954887E-3    2.092656466633192E-2   -1.415274856308450E-2    2.143201520637599E-2   -1.353037035260586E-2    2.840940925602891E-1    4.691436452224452E-1
 6.518098101750000E9    -2.151450906982948E-1   -4.526755400949121E-3    2.121315575845766E-2   -1.425231820689030E-2    2.153477201359221E-2   -1.362976795334676E-2    2.850200935693749E-1    4.685735751219399E-1
