#  HZ   S   RI   R     50.00 
! Rohde & Schwarz Vector Network Analyzer 
! Rohde-Schwarz,ZNB20-2Port,1311601062101988,3.16
! Created: UTC 3/20/2024, 12:00:15 PM
! freq[Hz]                re:S11                  im:S11                  re:S21                  im:S21                  re:S12                  im:S12                  re:S22                  im:S22
 8.116968912000000E9     5.063167378496087E-1   -1.335356186827909E-2    8.044712773474272E-4    3.726641201746589E-3    8.507015180730601E-4    3.743855318408543E-3    4.195500034250109E-1   -1.664377803373099E-1
 8.116972420575000E9     5.064029270681372E-1   -1.356320898359690E-2    8.128784738902094E-4    3.734607509906555E-3    8.646351731284844E-4    3.773332881432026E-3    4.194401942766863E-1   -1.667065994783216E-1
 8.116975929150000E9     5.064135411573708E-1   -1.385892132671421E-2    8.412336866717606E-4    3.730609169627012E-3    8.375070197602408E-4    3.772724365766357E-3    4.195391949644958E-1   -1.668913035336508E-1
 8.116979437725000E9     5.063597446862853E-1   -1.422409160547598E-2    8.138292104047739E-4    3.696193357194577E-3    9.218669215574193E-4    3.764986227643663E-3    4.193619441842124E-1   -1.670544473179783E-1
 8.116982946300000E9     5.063314756644858E-1   -1.455915377991502E-2    8.368428916686266E-4    3.704607389551184E-3    8.980076182436244E-4    3.752135847096146E-3    4.191792722320764E-1   -1.673995220138968E-1
 8.116986454875000E9     5.063657308211708E-1   -1.477196795210453E-2    8.152198292948316E-4    3.717915465221423E-3    8.933354749363992E-4    3.781202492776362E-3    4.191015745414570E-1   -1.676018948170609E-1
 8.116989963450000E9     5.063967412633721E-1   -1.488692659642290E-2    8.338238844857733E-4    3.730785673614341E-3    8.976098523014290E-4    3.772492338858304E-3    4.188202501085058E-1   -1.677543733584458E-1
 8.116993472025000E9     5.063659174937351E-1   -1.521905881947721E-2    8.391783988921457E-4    3.751976785906477E-3    8.768149325870310E-4    3.831806501774677E-3    4.190414248671719E-1   -1.680276750174382E-1
 8.116996980600000E9     5.062458649165709E-1   -1.553703563276495E-2    8.717534690752354E-4    3.725094951277430E-3    8.801119124598315E-4    3.814501310597239E-3    4.189320772227984E-1   -1.683354910208372E-1
 8.117000489175000E9     5.063100407205243E-1   -1.587310613999538E-2    8.471937565726191E-4    3.737580819299979E-3    8.749348270054275E-4    3.786202444794676E-3    4.188055801657906E-1   -1.684109902593835E-1
 8.117003997750000E9     5.063426250567068E-1   -1.609077290069183E-2    8.615216067740177E-4    3.756243993442841E-3    9.142372011212533E-4    3.809927883472782E-3    4.186040214317157E-1   -1.687888694280504E-1
 8.117007506325000E9     5.062280223088185E-1   -1.642045813386075E-2    8.615483687454805E-4    3.732007011683297E-3    8.878274297214977E-4    3.787363381424771E-3    4.184904867206292E-1   -1.689751907815537E-1
 8.117011014900000E9     5.061305401787864E-1   -1.665346387834188E-2    8.481044853460879E-4    3.739654830058958E-3    9.048494483154721E-4    3.779941748875103E-3    4.185520032335532E-1   -1.690909419882298E-1
 8.117014523475000E9     5.062764507693883E-1   -1.697162102220500E-2    8.941420834482112E-4    3.760167016545197E-3    9.137810153764764E-4    3.808127982977616E-3    4.183906796179349E-1   -1.695520007094086E-1
 8.117018032050000E9     5.062327392122334E-1   -1.718074357950529E-2    8.656626628562554E-4    3.733505482230839E-3    9.180579250968149E-4    3.816279391395827E-3    4.183185098014394E-1   -1.697848287158048E-1
 8.117021540625000E9     5.061136589487900E-1   -1.761272355733782E-2    8.626815690985531E-4    3.750605580965553E-3    9.493092231477817E-4    3.845999350099799E-3    4.182519171250722E-1   -1.698578710797041E-1
 8.117025049200000E9     5.060295584299090E-1   -1.777895500351317E-2    8.841572189906665E-4    3.728328376524549E-3    9.202892963837975E-4    3.782811092249606E-3    4.182842265986846E-1   -1.700657169026629E-1
 8.117028557775000E9     5.061088791592726E-1   -1.793448386235784E-2    8.699578088960416E-4    3.760872577542258E-3    9.551073283491113E-4    3.812267918551743E-3    4.181796280878915E-1   -1.704380557091313E-1
 8.117032066350000E9     5.062460387648596E-1   -1.822742460386470E-2    8.613569711593492E-4    3.787130160129716E-3    9.314788586141198E-4    3.818825390730033E-3    4.181023030740054E-1   -1.705962717932669E-1
 8.117035574925000E9     5.061685090707657E-1   -1.857405444477334E-2    8.744059576146777E-4    3.755862040322434E-3    9.270855157388121E-4    3.789877876637864E-3    4.178789833502623E-1   -1.709046541227241E-1
 8.117039083500000E9     5.060718740494083E-1   -1.889126282535765E-2    9.064493186792155E-4    3.784735942396907E-3    9.864205207675250E-4    3.813440829188287E-3    4.177495866417897E-1   -1.710791201750649E-1
 8.117042592075000E9     5.059599586345209E-1   -1.905340400038466E-2    8.855876001340711E-4    3.749625581335685E-3    9.380683568060063E-4    3.836957160549326E-3    4.177450304627756E-1   -1.713042622031756E-1
 8.117046100650000E9     5.061435290473929E-1   -1.934779525038424E-2    8.981147151964078E-4    3.751265018977263E-3    9.646748808605062E-4    3.836695950043545E-3    4.176679248217990E-1   -1.714447026670861E-1
 8.117049609225000E9     5.060254072482150E-1   -1.973643602050799E-2    8.807183112266992E-4    3.792710304660876E-3    9.747554543721324E-4    3.829131830615045E-3    4.177025362047099E-1   -1.717836589287962E-1
 8.117053117800000E9     5.060389019062647E-1   -1.990821963973849E-2    8.981841529923804E-4    3.787281116886823E-3    9.589667950456424E-4    3.842860638668687E-3    4.174866624471609E-1   -1.720129012657094E-1
 8.117056626375000E9     5.059415701968046E-1   -2.031314223270104E-2    8.883530727479261E-4    3.783192761993603E-3    9.624342947069114E-4    3.841292350196630E-3    4.173532839414641E-1   -1.721105984148346E-1
 8.117060134950000E9     5.060212215884390E-1   -2.059172339859692E-2    9.130667106762708E-4    3.812311842191604E-3    9.699883781507819E-4    3.845029851354962E-3    4.173425751125460E-1   -1.724412901375338E-1
 8.117063643525000E9     5.059649383652673E-1   -2.084369594649061E-2    9.030859226289343E-4    3.788215160367529E-3    9.991980748186885E-4    3.873330061784040E-3    4.172770939877818E-1   -1.725784324926433E-1
 8.117067152100000E9     5.059766153035736E-1   -2.109486211704810E-2    9.110765968452070E-4    3.778803280513687E-3    9.746085130577961E-4    3.877377785901689E-3    4.169739284775224E-1   -1.729075315090971E-1
 8.117070660675000E9     5.059470195965203E-1   -2.134258044566088E-2    9.221302938338438E-4    3.781493055040573E-3    9.725943137179907E-4    3.854795837605342E-3    4.170758170442981E-1   -1.730448411004529E-1
 8.117074169250000E9     5.059231813347658E-1   -2.161817592425199E-2    9.237574021036489E-4    3.810972833292093E-3    9.638877883557860E-4    3.867859214157899E-3    4.169864496179252E-1   -1.733857910802735E-1
 8.117077677825000E9     5.059743261240321E-1   -2.201510977353622E-2    9.256917377678907E-4    3.813031744374408E-3    9.675607258630171E-4    3.859977486635125E-3    4.169688201958556E-1   -1.733912878711930E-1
 8.117081186400000E9     5.059271922569090E-1   -2.226910899451964E-2    9.220066687014812E-4    3.791387602415658E-3    1.007914372508828E-3    3.827316973294241E-3    4.169175353421729E-1   -1.738687569306353E-1
 8.117084694975000E9     5.058231383842741E-1   -2.244225421279639E-2    9.336726226013460E-4    3.799161780112017E-3    9.909357096058778E-4    3.864336898324040E-3    4.168027335481727E-1   -1.740348273534337E-1
 8.117088203550000E9     5.058660725280425E-1   -2.282743361646401E-2    9.292037436896578E-4    3.805821627786370E-3    9.829366322678063E-4    3.869440283965356E-3    4.165907907159597E-1   -1.742264951106394E-1
 8.117091712125000E9     5.058306975574833E-1   -2.306772455070509E-2    9.215597401852215E-4    3.788893600268204E-3    1.009082009833833E-3    3.886242274382845E-3    4.165558141884622E-1   -1.744134262787072E-1
 8.117095220700000E9     5.058721432166334E-1   -2.339183845486548E-2    9.730000114061917E-4    3.815250526530345E-3    1.018972712501810E-3    3.913723980032100E-3    4.164343826398295E-1   -1.747239441221996E-1
 8.117098729275000E9     5.057528338258173E-1   -2.363181475140355E-2    9.628809907005838E-4    3.826895948462267E-3    9.704134758431784E-4    3.894227640864102E-3    4.163817280038207E-1   -1.749582252922774E-1
 8.117102237850000E9     5.057531673099205E-1   -2.372044413872778E-2    9.604672173101841E-4    3.802972123599311E-3    1.056484818733065E-3    3.897593649589815E-3    4.163012674228891E-1   -1.752238013214883E-1
 8.117105746425000E9     5.058539431299620E-1   -2.422711130852237E-2    9.285215101203403E-4    3.839422365456696E-3    9.957487787283544E-4    3.890072472898909E-3    4.163314605014590E-1   -1.754394601591957E-1
 8.117109255000000E9     5.057181504435598E-1   -2.443962047164468E-2    9.778344342724616E-4    3.842101563987441E-3    1.009987772422156E-3    3.901801513703609E-3    4.160767046913673E-1   -1.756537944158288E-1
 8.117112763575000E9     5.056849311990355E-1   -2.474679655689703E-2    9.847579838293556E-4    3.812588186516811E-3    1.011584357342251E-3    3.924078015552014E-3    4.160998257860835E-1   -1.756787221133185E-1
 8.117116272150000E9     5.057184941421443E-1   -2.493352500387318E-2    9.642684124162294E-4    3.844053585996177E-3    9.699004990568927E-4    3.910036552031331E-3    4.160358095982969E-1   -1.761868606116190E-1
 8.117119780725000E9     5.056934969085808E-1   -2.525373860658993E-2    9.714484965854550E-4    3.851073595136063E-3    1.021380875892561E-3    3.897053889683313E-3    4.158616919954555E-1   -1.763287743674879E-1
 8.117123289300000E9     5.055605235853710E-1   -2.551423531543832E-2    1.001524219246585E-3    3.846349008664603E-3    1.014307450260648E-3    3.945466798112206E-3    4.157110469901653E-1   -1.765634078358161E-1
 8.117126797875000E9     5.055594679987183E-1   -2.581429180572787E-2    9.757191414497523E-4    3.860530338923072E-3    1.031134055740837E-3    3.910440384791294E-3    4.158395574242129E-1   -1.767630774922293E-1
 8.117130306450000E9     5.055396424553791E-1   -2.617286462597951E-2    9.794157468836673E-4    3.833614179056008E-3    1.026250854329170E-3    3.900629607532295E-3    4.156176756979444E-1   -1.770054569353281E-1
 8.117133815025000E9     5.055094094946680E-1   -2.640875284964174E-2    9.865501104965883E-4    3.881755398981537E-3    1.042853359788484E-3    3.906554406713651E-3    4.155492601601692E-1   -1.772864384863124E-1
 8.117137323600000E9     5.055484052584052E-1   -2.669833270351688E-2    9.902479847168854E-4    3.868829967332235E-3    1.060721363739927E-3    3.923948073482687E-3    4.154221484481572E-1   -1.775163995155818E-1
 8.117140832175000E9     5.054820251269346E-1   -2.699078443599720E-2    9.681112256826090E-4    3.883061407340724E-3    1.061440090520454E-3    3.931460384215113E-3    4.153783853835657E-1   -1.777424925918462E-1
 8.117144340750000E9     5.054901865291087E-1   -2.731950283547152E-2    1.002734998630991E-3    3.864571333060910E-3    1.080169005140641E-3    3.935579825951599E-3    4.153649506681004E-1   -1.778074443123283E-1
 8.117147849325000E9     5.055509243258473E-1   -2.757800024341665E-2    1.008451867528132E-3    3.875301851856972E-3    1.059882545230251E-3    3.932420298273691E-3    4.150813868791692E-1   -1.781417112529200E-1
 8.117151357900000E9     5.054340014473225E-1   -2.792098361000438E-2    1.022456022042031E-3    3.877107065982353E-3    1.045811360249444E-3    3.916996721503451E-3    4.150866852196257E-1   -1.783521648010219E-1
 8.117154866475000E9     5.054321207931632E-1   -2.803043274003077E-2    1.013136846923020E-3    3.869122702539978E-3    1.073564853616018E-3    3.918617070040641E-3    4.150006306430939E-1   -1.785130407421936E-1
 8.117158375050000E9     5.053683937960677E-1   -2.836825873111894E-2    1.015885119433946E-3    3.870674223995688E-3    1.060805206136650E-3    3.924235941034916E-3    4.148278052129860E-1   -1.788320738777581E-1
 8.117161883625000E9     5.054630218848937E-1   -2.872243636492729E-2    1.026863527056937E-3    3.884619325600638E-3    1.067688544159838E-3    3.956659690851952E-3    4.147371122560126E-1   -1.791140383227681E-1
 8.117165392200000E9     5.052892129311127E-1   -2.898086448810250E-2    1.003158771671831E-3    3.886333248522156E-3    1.090872602248842E-3    3.940739322434025E-3    4.146187533526159E-1   -1.792781190986314E-1
 8.117168900775000E9     5.053061628286483E-1   -2.922675208311513E-2    1.028613704647577E-3    3.889489039918440E-3    1.035160682360585E-3    3.932748652396179E-3    4.147808353635062E-1   -1.795711513526147E-1
 8.117172409350000E9     5.051694042668603E-1   -2.951231603251984E-2    1.006671980140464E-3    3.901033925750524E-3    1.090663033892299E-3    3.975337373892968E-3    4.145888149551265E-1   -1.798215203924872E-1
 8.117175917925000E9     5.052313318329005E-1   -2.970483275601641E-2    1.025118670765689E-3    3.909578406661513E-3    1.085572147213642E-3    3.987025629832941E-3    4.145187778879285E-1   -1.800126779542335E-1
 8.117179426500000E9     5.051897700395107E-1   -3.001574460487051E-2    1.055206862175985E-3    3.885303296595399E-3    1.075384824654142E-3    3.951968485536896E-3    4.144260108518865E-1   -1.802023297073837E-1
 8.117182935075000E9     5.051039284116953E-1   -3.039193441207076E-2    1.048155084486599E-3    3.895147179352775E-3    1.118857118499703E-3    4.000053754964505E-3    4.144025379433650E-1   -1.805239592407048E-1
 8.117186443650000E9     5.052557708277278E-1   -3.060437108153929E-2    1.027508104178291E-3    3.931892145080926E-3    1.085944588488751E-3    3.987380657700119E-3    4.141776635824217E-1   -1.806350431032059E-1
 8.117189952225000E9     5.051403428169511E-1   -3.096092248842431E-2    1.051217226108086E-3    3.956130092879422E-3    1.088310399068302E-3    4.011663894757287E-3    4.141886599344090E-1   -1.808055729321778E-1
 8.117193460800000E9     5.050856242109732E-1   -3.133212147365654E-2    1.040862641042505E-3    3.932697072502403E-3    1.109075727343412E-3    3.989708043152381E-3    4.141121014286411E-1   -1.811825245452875E-1
 8.117196969375000E9     5.049078130654328E-1   -3.147361783286041E-2    1.071520178011974E-3    3.935533992657642E-3    1.082641032105887E-3    3.972383697407661E-3    4.138138403232605E-1   -1.814133243244350E-1
 8.117200477950000E9     5.050498983071716E-1   -3.180628207987986E-2    1.056732583758193E-3    3.931449365036564E-3    1.142858831952090E-3    4.036495385335576E-3    4.138662924848266E-1   -1.815477989202702E-1
 8.117203986525000E9     5.049662196879231E-1   -3.198797139999260E-2    1.060963597380841E-3    3.951772304580268E-3    1.110400613975558E-3    4.019325493829214E-3    4.138010304472182E-1   -1.817747679974580E-1
 8.117207495100000E9     5.050569483561728E-1   -3.232141113999858E-2    1.060511012522787E-3    3.959037696654517E-3    1.127978802319754E-3    4.025432117224189E-3    4.136746572334651E-1   -1.819557511567828E-1
 8.117211003675000E9     5.049306858901260E-1   -3.257854138721299E-2    1.077495393039055E-3    3.918997694882958E-3    1.144368026531034E-3    4.043601534872524E-3    4.136302988749479E-1   -1.822442571991370E-1
 8.117214512250000E9     5.049757783947613E-1   -3.289460618941444E-2    1.070097103147120E-3    3.958625835610901E-3    1.107448035335188E-3    3.988164498369900E-3    4.134186418077765E-1   -1.825886090312006E-1
 8.117218020825000E9     5.048807879835848E-1   -3.326195210897555E-2    1.071702452300817E-3    3.949649084362197E-3    1.159619024303108E-3    4.030443625789093E-3    4.133815954110119E-1   -1.826922938319477E-1
 8.117221529400000E9     5.049002327638876E-1   -3.343541987871846E-2    1.096156150933560E-3    3.945724401753962E-3    1.131268814694117E-3    4.026897502845855E-3    4.132757243524606E-1   -1.828353471177784E-1
 8.117225037975000E9     5.048520887256988E-1   -3.376529650710548E-2    1.098243628023871E-3    3.954834025819190E-3    1.146785695472707E-3    4.035104686810172E-3    4.132664591322137E-1   -1.831229364361751E-1
 8.117228546550000E9     5.048804203334200E-1   -3.408708705606011E-2    1.102621990214880E-3    3.976644848681293E-3    1.155780446759850E-3    4.051912330338994E-3    4.131702806849752E-1   -1.834715972045173E-1
 8.117232055125000E9     5.048258752915961E-1   -3.445751618360233E-2    1.090682571615349E-3    3.978795146516463E-3    1.166007577987638E-3    4.049150494429923E-3    4.129587903578309E-1   -1.836208859167621E-1
 8.117235563700000E9     5.047377569125449E-1   -3.469156219072121E-2    1.129041035081236E-3    4.016439345729594E-3    1.194601345072054E-3    4.048829298266361E-3    4.129368494251892E-1   -1.839042778326546E-1
 8.117239072275000E9     5.047346653788918E-1   -3.488999987009974E-2    1.126787438635925E-3    3.966494516446222E-3    1.155596738051041E-3    4.049310800814690E-3    4.127554232162934E-1   -1.841477103221848E-1
 8.117242580850000E9     5.047276532605225E-1   -3.520518075628355E-2    1.116230023282296E-3    4.019541906792138E-3    1.179507178510565E-3    4.095172376665753E-3    4.126514978841395E-1   -1.842497363443952E-1
 8.117246089425000E9     5.046679516302338E-1   -3.543914207121798E-2    1.100084986067099E-3    3.995950582121112E-3    1.183147568287938E-3    4.034424135089412E-3    4.127303253807941E-1   -1.845910838463216E-1
 8.117249598000000E9     5.047418837159097E-1   -3.584556799567250E-2    1.144077905500161E-3    4.018244059470258E-3    1.225054224130179E-3    4.083963779106687E-3    4.126123917874643E-1   -1.847758431491655E-1
 8.117253106575000E9     5.045557430086824E-1   -3.612835456719592E-2    1.137467565529589E-3    4.021107482659228E-3    1.198986536305843E-3    4.071295112636504E-3    4.125030122366359E-1   -1.849396624415214E-1
 8.117256615150000E9     5.045208102242184E-1   -3.631577718126797E-2    1.121071798004503E-3    4.015674296788918E-3    1.205788465220949E-3    4.122740101256428E-3    4.122903795238984E-1   -1.852817930116563E-1
 8.117260123725000E9     5.045038625398814E-1   -3.671545055434734E-2    1.164740487030142E-3    4.019804492553997E-3    1.209057124502979E-3    4.063673009827990E-3    4.123720782154845E-1   -1.855014760087296E-1
 8.117263632300000E9     5.044288324715461E-1   -3.695782914840082E-2    1.148562362372144E-3    4.027658104674077E-3    1.202199169957315E-3    4.076406879015232E-3    4.121377601956562E-1   -1.856349109397009E-1
 8.117267140875000E9     5.045199318606052E-1   -3.730615528707835E-2    1.166150172442890E-3    4.057435221019710E-3    1.208678534563766E-3    4.132090985165819E-3    4.121735958495530E-1   -1.857409039629307E-1
 8.117270649450000E9     5.044100486471943E-1   -3.756863894378215E-2    1.177542727381542E-3    4.033381303909933E-3    1.207995588642090E-3    4.126267817629532E-3    4.119960728836670E-1   -1.861601287122624E-1
 8.117274158025000E9     5.044125902478358E-1   -3.786859089103616E-2    1.160568339661975E-3    4.054243929272267E-3    1.209812060714510E-3    4.124959366538292E-3    4.119466638641940E-1   -1.864167570371379E-1
 8.117277666600000E9     5.043165865289138E-1   -3.819592862008611E-2    1.193423000098879E-3    4.050089548218088E-3    1.213039463239076E-3    4.120831031748150E-3    4.118582896995101E-1   -1.866069298180968E-1
 8.117281175175000E9     5.044647879500220E-1   -3.851253893454299E-2    1.206577720751708E-3    4.073627481070669E-3    1.284820864109776E-3    4.095907493040406E-3    4.116697386236973E-1   -1.868703765510333E-1
 8.117284683750000E9     5.043594116443370E-1   -3.873898487250405E-2    1.177980368849214E-3    4.101595091987541E-3    1.233956660314659E-3    4.133770426172138E-3    4.116700190213374E-1   -1.869869427372773E-1
