#  HZ   S   RI   R     50.00 
! Rohde & Schwarz Vector Network Analyzer 
! Rohde-Schwarz,ZNB20-2Port,1311601062101988,3.16
! Created: UTC 3/20/2024, 12:00:42 PM
! freq[Hz]                re:S11                  im:S11                  re:S21                  im:S21                  re:S12                  im:S12                  re:S22                  im:S22
 8.117025108000000E9     5.063594308710548E-1   -1.740610098193215E-2    8.560305534891864E-4    3.765802046956512E-3    9.086304921092340E-4    3.787599080303600E-3    4.181552349662395E-1   -1.702487754043534E-1
 8.117028401350000E9     5.064402962389000E-1   -1.766571421505117E-2    8.731932476569314E-4    3.750652331815756E-3    9.171584613340638E-4    3.815314007805703E-3    4.181683208215453E-1   -1.702944361409964E-1
 8.117031694700000E9     5.063499033348705E-1   -1.790957272835409E-2    8.730386076674145E-4    3.762228716289108E-3    9.192526756840850E-4    3.796477528627835E-3    4.180115685759107E-1   -1.706034503483114E-1
 8.117034988050000E9     5.062495538565353E-1   -1.831283047936701E-2    8.847273603172945E-4    3.786617558299469E-3    9.004679223180314E-4    3.833849260446452E-3    4.178071204195418E-1   -1.707627961775304E-1
 8.117038281400000E9     5.063254286456245E-1   -1.844223566330144E-2    8.702094516474397E-4    3.772241740337844E-3    9.263470201492403E-4    3.808327169444530E-3    4.177382236412697E-1   -1.710329469169475E-1
 8.117041574750000E9     5.063440972474202E-1   -1.883438460685458E-2    8.805008650841098E-4    3.749190163441064E-3    9.066963632096671E-4    3.831467532076113E-3    4.177862217635404E-1   -1.711752601004282E-1
 8.117044868100000E9     5.063366797005627E-1   -1.903391529142957E-2    8.949754807359727E-4    3.768232100615365E-3    9.162697506624085E-4    3.830577711841387E-3    4.176089322482398E-1   -1.714894183059254E-1
 8.117048161450000E9     5.063014094649146E-1   -1.929955230887049E-2    8.764666930116363E-4    3.748364368541617E-3    9.425445809348613E-4    3.841284445074142E-3    4.177453669820908E-1   -1.716837438347522E-1
 8.117051454800000E9     5.062556442030340E-1   -1.961396620810141E-2    9.008485822128180E-4    3.733679717667845E-3    9.303337989945161E-4    3.860143906740933E-3    4.175197463046321E-1   -1.718999551028172E-1
 8.117054748150000E9     5.062871649121699E-1   -1.983360378951999E-2    8.821103912818207E-4    3.769272203605716E-3    9.534426974962766E-4    3.850282237332905E-3    4.174547887096061E-1   -1.721647109451555E-1
 8.117058041500000E9     5.061785377535583E-1   -2.015971181439198E-2    8.936032828222526E-4    3.777895551617415E-3    9.443813563955129E-4    3.801863459130049E-3    4.174112184978428E-1   -1.723398429809000E-1
 8.117061334850000E9     5.061605418291955E-1   -2.034579049376851E-2    8.763923922352206E-4    3.776103963846461E-3    9.655548242819494E-4    3.852738523626882E-3    4.173928678957398E-1   -1.725037829371489E-1
 8.117064628200000E9     5.062333618311695E-1   -2.069730464354715E-2    9.046783665493337E-4    3.769157926499297E-3    9.718055099067212E-4    3.845330506105938E-3    4.171840699495362E-1   -1.726947754378285E-1
 8.117067921550000E9     5.061703374973150E-1   -2.088050095270436E-2    8.944615372775893E-4    3.766018292993974E-3    9.465458167119577E-4    3.814520173196954E-3    4.171829259054620E-1   -1.729196170566583E-1
 8.117071214900000E9     5.061405294075688E-1   -2.116234250601415E-2    9.241592379016946E-4    3.771290163715927E-3    9.456395459612110E-4    3.819610229514291E-3    4.171830891826230E-1   -1.731663439403361E-1
 8.117074508250000E9     5.061429554929625E-1   -2.149712934067261E-2    8.807420206750544E-4    3.802034279125619E-3    9.473409574767391E-4    3.847642338687838E-3    4.170696053246840E-1   -1.732977954328946E-1
 8.117077801600000E9     5.060667497030069E-1   -2.164482454637994E-2    9.128524969179231E-4    3.806404130495951E-3    9.496811341879806E-4    3.841557431589394E-3    4.169527627838344E-1   -1.735331082813997E-1
 8.117081094950000E9     5.061124444807764E-1   -2.183745791246772E-2    9.111602408106356E-4    3.790292505155970E-3    9.815057496062162E-4    3.821969954813841E-3    4.168154063055334E-1   -1.737403152881181E-1
 8.117084388300000E9     5.061086615367536E-1   -2.224274539681462E-2    9.092802694898728E-4    3.792846466771209E-3    9.790505175187132E-4    3.869981014567440E-3    4.167741778807038E-1   -1.739531898788071E-1
 8.117087681650000E9     5.059861672888502E-1   -2.253637870801599E-2    9.332392114289504E-4    3.789747897464924E-3    9.953904098726572E-4    3.863883155729952E-3    4.165643340643133E-1   -1.742288876713434E-1
 8.117090975000000E9     5.060554668100949E-1   -2.275141924813162E-2    9.114023017673000E-4    3.800111700482713E-3    9.657485204701833E-4    3.861307143383941E-3    4.165820234766225E-1   -1.745562214217268E-1
 8.117094268350000E9     5.060963560130453E-1   -2.301995366312423E-2    9.242321249849701E-4    3.825858137293541E-3    1.019849308048266E-3    3.883188641808533E-3    4.164534247596322E-1   -1.746418421973718E-1
 8.117097561700000E9     5.060823433393528E-1   -2.322437294120954E-2    9.340746174750444E-4    3.789400677178685E-3    9.921593538644157E-4    3.858145647392597E-3    4.164469689613711E-1   -1.747972792269327E-1
 8.117100855050000E9     5.059799311224999E-1   -2.356282127043524E-2    9.197620236227814E-4    3.805480885271378E-3    9.987081375050625E-4    3.872744800216014E-3    4.164146075231783E-1   -1.751876760662426E-1
 8.117104148400000E9     5.059933300191342E-1   -2.380114566441100E-2    9.580879833267227E-4    3.802562477254000E-3    9.973824119624412E-4    3.897278652451716E-3    4.163936383657938E-1   -1.753898436679840E-1
 8.117107441750000E9     5.059553533878806E-1   -2.396600419383907E-2    9.658497436341537E-4    3.814537538006022E-3    9.903350370471221E-4    3.888176758791636E-3    4.160451918488959E-1   -1.755254600077015E-1
 8.117110735100000E9     5.059361564512480E-1   -2.427717550204657E-2    9.657076375654582E-4    3.807451557401365E-3    1.016792084675591E-3    3.868509858667101E-3    4.160810050902343E-1   -1.757846305971942E-1
 8.117114028450000E9     5.058952879544136E-1   -2.453612756646081E-2    9.577963209638464E-4    3.826365417778576E-3    1.011895163791427E-3    3.875459573421271E-3    4.161177290715047E-1   -1.759221459102290E-1
 8.117117321800000E9     5.059392194176731E-1   -2.484403675946838E-2    9.238371346643459E-4    3.807532687511954E-3    1.001554782445806E-3    3.867912458634215E-3    4.158808422010297E-1   -1.762340270938245E-1
 8.117120615150000E9     5.058891078950624E-1   -2.511068575751790E-2    9.714710644834316E-4    3.808842136644181E-3    9.880420882692324E-4    3.882430037067950E-3    4.158486549436415E-1   -1.763770258022312E-1
 8.117123908500000E9     5.058933570108035E-1   -2.535617790358292E-2    9.569179401140205E-4    3.848214085054971E-3    1.000196821427894E-3    3.890849672159039E-3    4.156944524943235E-1   -1.765104873067537E-1
 8.117127201850000E9     5.058326937728272E-1   -2.569266321954377E-2    9.682693119889411E-4    3.839049728128286E-3    1.006563928234432E-3    3.891718647047340E-3    4.155798895784072E-1   -1.767394264413568E-1
 8.117130495200000E9     5.057935304338438E-1   -2.581764776087267E-2    9.953244376261433E-4    3.824189825666198E-3    1.051339244623988E-3    3.912015889263406E-3    4.154704046936024E-1   -1.771388355406906E-1
 8.117133788550000E9     5.057946985112078E-1   -2.607584399537391E-2    9.845611946600785E-4    3.854810105670534E-3    1.057966717242919E-3    3.897417252116926E-3    4.154714448810493E-1   -1.771381269173747E-1
 8.117137081900000E9     5.057940640880723E-1   -2.652223685235573E-2    9.560436016710003E-4    3.844580438122978E-3    1.004155724017493E-3    3.934490669676053E-3    4.155414002339291E-1   -1.775269214681215E-1
 8.117140375250000E9     5.058241386769687E-1   -2.659776978201417E-2    9.930103466367966E-4    3.842575101105083E-3    1.013095903726592E-3    3.953385930203326E-3    4.153497258212449E-1   -1.776323102559751E-1
 8.117143668600000E9     5.057978168076281E-1   -2.690957369424161E-2    9.829336750582639E-4    3.844587187492868E-3    1.006989475864597E-3    3.924902048310704E-3    4.151361407316821E-1   -1.777612258742789E-1
 8.117146961950000E9     5.057266653764378E-1   -2.713980571768591E-2    1.008604784501045E-3    3.851914839055334E-3    1.054586073083386E-3    3.920842250473188E-3    4.152947352606682E-1   -1.780424403106164E-1
 8.117150255300000E9     5.058133678804272E-1   -2.748981454889322E-2    1.016312756552790E-3    3.850562094237308E-3    1.108719376669661E-3    3.920042443443129E-3    4.151876328129794E-1   -1.782374574630235E-1
 8.117153548650000E9     5.056758667735456E-1   -2.777579318562037E-2    1.035683028679333E-3    3.857037755076962E-3    1.042261581960539E-3    3.904120441713768E-3    4.149641342134020E-1   -1.785102672851629E-1
 8.117156842000000E9     5.057482032983770E-1   -2.803048491168219E-2    1.007259925449982E-3    3.861713452542888E-3    1.044094442339272E-3    3.916642865096947E-3    4.149981132610154E-1   -1.785921712332508E-1
 8.117160135350000E9     5.056297152087578E-1   -2.812526187197123E-2    1.026375556872076E-3    3.882593634690235E-3    1.067897851632938E-3    3.948831408945046E-3    4.148830057572434E-1   -1.789417251335523E-1
 8.117163428700000E9     5.056273915414705E-1   -2.849502968188339E-2    9.975120624428643E-4    3.844746173941932E-3    1.048285951894453E-3    3.910467682723038E-3    4.147131382608458E-1   -1.791293092776539E-1
 8.117166722050000E9     5.054922164913079E-1   -2.872869187858514E-2    1.017308758967910E-3    3.915167502832658E-3    1.032456068559425E-3    3.942393267376596E-3    4.146212283908576E-1   -1.795013676728308E-1
 8.117170015400000E9     5.056224106406044E-1   -2.912954749824965E-2    1.038655476754768E-3    3.895677176471033E-3    1.054057233754248E-3    3.943463521266240E-3    4.145679440808792E-1   -1.797046962197137E-1
 8.117173308750000E9     5.055769467714726E-1   -2.939597136282849E-2    1.027472890511407E-3    3.893778666400569E-3    1.078596650871703E-3    3.951634642464666E-3    4.146749919617733E-1   -1.797557585249275E-1
 8.117176602100000E9     5.054951877372879E-1   -2.954784758557239E-2    1.040154957355597E-3    3.887255995344378E-3    1.042264476948371E-3    3.948253875931024E-3    4.144379270049304E-1   -1.800927326905765E-1
 8.117179895450000E9     5.054329571643468E-1   -2.981183084781831E-2    1.021403126176824E-3    3.908672687623459E-3    1.015783494497723E-3    3.982990375848902E-3    4.142973804274963E-1   -1.802671207484558E-1
 8.117183188800000E9     5.054674234779341E-1   -3.013819755148811E-2    1.021948986344025E-3    3.900907245482104E-3    1.068327725670218E-3    3.941058497983451E-3    4.142549922765932E-1   -1.804942970966680E-1
 8.117186482150000E9     5.055528418900460E-1   -3.038103439873099E-2    1.042221482986358E-3    3.891500461601174E-3    1.083483851298231E-3    3.980035990092170E-3    4.141732986867539E-1   -1.808524024990043E-1
 8.117189775500000E9     5.054508654194312E-1   -3.071817591448183E-2    1.052266454478145E-3    3.909811173113263E-3    1.060935898325609E-3    4.022139175676143E-3    4.141179365840300E-1   -1.808195928359499E-1
 8.117193068850000E9     5.054208431023697E-1   -3.096388511351402E-2    1.030598565990821E-3    3.910088830477563E-3    1.073911020587990E-3    3.969788636348785E-3    4.140120005403827E-1   -1.810298117833922E-1
 8.117196362200000E9     5.052861845793049E-1   -3.114035689316221E-2    1.040388094055909E-3    3.917949873848295E-3    1.118609715407900E-3    3.993526961681588E-3    4.140014475088672E-1   -1.814669962025454E-1
 8.117199655550000E9     5.053291637599212E-1   -3.140599641616907E-2    1.060967438277505E-3    3.946416802920950E-3    1.143679273643447E-3    3.963519275839988E-3    4.139259263717767E-1   -1.816176088955060E-1
 8.117202948900000E9     5.052744472280739E-1   -3.166406775085433E-2    1.060233428435684E-3    3.936832821651109E-3    1.130881159633248E-3    4.014857520646664E-3    4.137567690511721E-1   -1.818273282222003E-1
 8.117206242250000E9     5.053282509294607E-1   -3.200917106465029E-2    1.057519092104424E-3    3.914211611653374E-3    1.152679071189643E-3    3.991577534218849E-3    4.135319220819579E-1   -1.820624080512713E-1
 8.117209535600000E9     5.052163883561634E-1   -3.228888004157041E-2    1.068516670831412E-3    3.942406781634756E-3    1.120130109249857E-3    4.052109583210936E-3    4.135687512410168E-1   -1.821445876178968E-1
 8.117212828950000E9     5.052236422676706E-1   -3.252991903012283E-2    1.065046116018091E-3    3.924761759084967E-3    1.137592785909713E-3    3.979625314267919E-3    4.134703634262331E-1   -1.824265729104751E-1
 8.117216122300000E9     5.051731100334642E-1   -3.283848726679839E-2    1.105241576993862E-3    3.934910110005416E-3    1.143818198075006E-3    4.013901889659967E-3    4.134110635041662E-1   -1.825884318662064E-1
 8.117219415650000E9     5.051661130366509E-1   -3.317511511834241E-2    1.080830337629024E-3    3.937580711827327E-3    1.128080105307182E-3    4.027568389890109E-3    4.133951498541450E-1   -1.827456206442576E-1
 8.117222709000000E9     5.052468545316954E-1   -3.327118836759196E-2    1.070659954340536E-3    3.946791892154294E-3    1.127442347183616E-3    4.003030922841566E-3    4.132588905044367E-1   -1.831204058388436E-1
 8.117226002350000E9     5.050431039830816E-1   -3.358590316446781E-2    1.066880760703084E-3    3.959076941524915E-3    1.164647072145590E-3    4.026904516361057E-3    4.130953677690887E-1   -1.832902909951064E-1
 8.117229295700000E9     5.050885903691236E-1   -3.383683662911660E-2    1.099728465318227E-3    3.995510858798902E-3    1.125147772512776E-3    4.037426461585686E-3    4.131383031587261E-1   -1.834279756888954E-1
 8.117232589050000E9     5.050981897207641E-1   -3.417159092740951E-2    1.103600795750914E-3    3.950532616407105E-3    1.185992469320165E-3    4.070254068280260E-3    4.129238759819510E-1   -1.838131623683495E-1
 8.117235882400000E9     5.049231472985083E-1   -3.440349312015484E-2    1.085337415651338E-3    3.955193651654205E-3    1.161376141420678E-3    4.056890259729109E-3    4.129319671570271E-1   -1.838338784449961E-1
 8.117239175750000E9     5.049855709802149E-1   -3.464207795767549E-2    1.106218618629443E-3    3.958741120044382E-3    1.196871670661263E-3    4.039204108364062E-3    4.127968023695766E-1   -1.841616471546169E-1
 8.117242469100000E9     5.050470672984110E-1   -3.494939736326454E-2    1.097172255269874E-3    3.976713392162526E-3    1.175258152750201E-3    4.038122301333519E-3    4.127207778982943E-1   -1.843819981901215E-1
 8.117245762450000E9     5.049598265997957E-1   -3.522915079397100E-2    1.106823245732571E-3    3.991474943377547E-3    1.150744453398720E-3    4.086794086817386E-3    4.126291217357380E-1   -1.846680862455074E-1
 8.117249055800000E9     5.048579792572078E-1   -3.554130500666385E-2    1.116929796362936E-3    3.986163664089310E-3    1.220352004447580E-3    4.068215293684895E-3    4.126678273464350E-1   -1.848288798420063E-1
 8.117252349150000E9     5.049336106972095E-1   -3.572455694222609E-2    1.117271616676995E-3    3.994168423410055E-3    1.155451310851797E-3    4.052782593163699E-3    4.124853869184973E-1   -1.849001802539584E-1
 8.117255642500000E9     5.048429852063394E-1   -3.597450505443812E-2    1.112099918543697E-3    3.987071195798484E-3    1.206617252843543E-3    4.086775346442049E-3    4.123757686528637E-1   -1.850703739096856E-1
 8.117258935850000E9     5.048670239641385E-1   -3.637073575531664E-2    1.143424360131528E-3    4.016061264247572E-3    1.147256932388413E-3    4.078151198307707E-3    4.122860086922475E-1   -1.854109454642363E-1
 8.117262229200000E9     5.048371055758024E-1   -3.652494040476832E-2    1.121242561073133E-3    4.017092344421718E-3    1.198788418108989E-3    4.109477316921567E-3    4.122448786394303E-1   -1.856672550084363E-1
 8.117265522550000E9     5.047238088708812E-1   -3.686085655341920E-2    1.156436334348290E-3    4.033524821489062E-3    1.235051779964083E-3    4.099153518776539E-3    4.121465345449733E-1   -1.857894176722082E-1
 8.117268815900000E9     5.046992910861064E-1   -3.707931785709954E-2    1.134268567916396E-3    4.019480561329197E-3    1.198182649559926E-3    4.131554901340839E-3    4.120164099158005E-1   -1.861387433179207E-1
 8.117272109250000E9     5.045522209407821E-1   -3.739718862159774E-2    1.132607226611167E-3    4.042675859787688E-3    1.250037607399125E-3    4.102308714136952E-3    4.119370335625834E-1   -1.862852886324781E-1
 8.117275402600000E9     5.046990792188892E-1   -3.768627123257740E-2    1.150650476219782E-3    4.031683437217610E-3    1.208510386360690E-3    4.126177817217113E-3    4.119179987777280E-1   -1.864355881319290E-1
 8.117278695950000E9     5.045577261618404E-1   -3.796992306487407E-2    1.186581856665577E-3    4.040779671149152E-3    1.239302428151078E-3    4.102070397163628E-3    4.118005334779724E-1   -1.867081898355052E-1
 8.117281989300000E9     5.045420845895217E-1   -3.822019709519751E-2    1.189185900181479E-3    4.097309706461760E-3    1.230556288138961E-3    4.106879650772888E-3    4.115897743195565E-1   -1.869597128175671E-1
 8.117285282650000E9     5.045423428220733E-1   -3.852732731051404E-2    1.182443644939958E-3    4.053009349576294E-3    1.213003027514864E-3    4.126995659064575E-3    4.116481806038189E-1   -1.871738455721323E-1
 8.117288576000000E9     5.045580739040579E-1   -3.876280276293008E-2    1.195981778847365E-3    4.037034244613550E-3    1.258382341109006E-3    4.145939387687045E-3    4.115571810962665E-1   -1.873449809483289E-1
 8.117291869350000E9     5.044549912436012E-1   -3.903856650812552E-2    1.202826791470050E-3    4.090295766356613E-3    1.252939277237673E-3    4.136257436443273E-3    4.114265628876326E-1   -1.875452823086846E-1
 8.117295162700000E9     5.044907109016140E-1   -3.934886120370317E-2    1.213756179700953E-3    4.068199828252664E-3    1.265183709898523E-3    4.155894075722056E-3    4.113773396104015E-1   -1.877799636450305E-1
 8.117298456050000E9     5.044020682932737E-1   -3.963032970510352E-2    1.199542644272711E-3    4.068000935388346E-3    1.248536678494548E-3    4.149251731547772E-3    4.112619602014048E-1   -1.879751372930681E-1
 8.117301749400000E9     5.044504363398699E-1   -3.974611196827753E-2    1.223694578226392E-3    4.074491390233635E-3    1.289505146574470E-3    4.128144239254296E-3    4.111992370247088E-1   -1.884370962011366E-1
 8.117305042750000E9     5.043936435968350E-1   -4.014243335029195E-2    1.218533376187672E-3    4.087673798108989E-3    1.269634991494233E-3    4.228067708759377E-3    4.111097809643618E-1   -1.884736384076161E-1
 8.117308336100000E9     5.043043147879530E-1   -4.044810697413964E-2    1.216792141093732E-3    4.087049268896468E-3    1.258887630666128E-3    4.185641577388541E-3    4.109687282837681E-1   -1.886802455695656E-1
 8.117311629450000E9     5.042767525290831E-1   -4.082807223463020E-2    1.210516030683447E-3    4.119336764212190E-3    1.256793483857110E-3    4.168083339230945E-3    4.109718257557131E-1   -1.889208616178391E-1
 8.117314922800000E9     5.042647284231543E-1   -4.113718930357172E-2    1.207980773426975E-3    4.130849970587570E-3    1.315941641616275E-3    4.187979238263467E-3    4.108267150825645E-1   -1.890879509262846E-1
 8.117318216150000E9     5.042291086459617E-1   -4.140716707245648E-2    1.245642085348901E-3    4.150491147071575E-3    1.278478267286284E-3    4.181646314254523E-3    4.107375430398902E-1   -1.893084041686987E-1
 8.117321509500000E9     5.042202392692894E-1   -4.149720088343850E-2    1.225133135202317E-3    4.137570513288642E-3    1.271533247829255E-3    4.190667357333504E-3    4.107200930924065E-1   -1.894690425165242E-1
