#  HZ   S   RI   R     50.00 
! Rohde & Schwarz Vector Network Analyzer 
! Rohde-Schwarz,ZNB20-2Port,1311601062101988,3.16
! Created: UTC 12/23/2023, 3:40:05 AM
! freq[Hz]                re:S11                  im:S11                  re:S21                  im:S21                  re:S12                  im:S12                  re:S22                  im:S22
 6.517041765000000E9    -2.302826382972840E-1   -1.653522558630634E-2    1.334455065896728E-2   -5.430707193852699E-3    1.331236529263891E-2   -4.915611129291525E-3    2.067468585297813E-1    5.080694316327103E-1
 6.517053464900000E9    -2.301264963742955E-1   -1.624506983782028E-2    1.344015757598804E-2   -5.532669661965694E-3    1.339663413289699E-2   -5.043584659696598E-3    2.076220078275335E-1    5.077888090020706E-1
 6.517065164800000E9    -2.300134169619316E-1   -1.608369656010961E-2    1.342419896325620E-2   -5.639255822215369E-3    1.353058611299024E-2   -5.212529415713847E-3    2.083953710416757E-1    5.072182026863278E-1
 6.517076864700000E9    -2.298581231582159E-1   -1.586992418083167E-2    1.342689570287019E-2   -5.527770978496179E-3    1.356618122328949E-2   -5.166177862570447E-3    2.092340158687380E-1    5.070759861939832E-1
 6.517088564600000E9    -2.297000339042804E-1   -1.578323113450279E-2    1.353216256176814E-2   -5.644948777607959E-3    1.372739596531771E-2   -5.219866084541038E-3    2.100704387986705E-1    5.067562174044218E-1
 6.517100264500000E9    -2.296875246103077E-1   -1.559126331253141E-2    1.351391390314705E-2   -5.707758168505273E-3    1.372856783086597E-2   -5.287119784892657E-3    2.110790063812511E-1    5.064353289800230E-1
 6.517111964400000E9    -2.294583153201122E-1   -1.533078527690500E-2    1.371111204131863E-2   -5.858076752647483E-3    1.378944298567631E-2   -5.295141716660725E-3    2.118884682264203E-1    5.060565959700782E-1
 6.517123664300000E9    -2.294711563335817E-1   -1.517602691415505E-2    1.363858759192610E-2   -5.886784976009053E-3    1.381800349800258E-2   -5.359102357984100E-3    2.127297831652661E-1    5.056545975208070E-1
 6.517135364200000E9    -2.294033881361587E-1   -1.509583513648927E-2    1.398003395560246E-2   -5.993081550781818E-3    1.390708045368570E-2   -5.365493698960061E-3    2.136316884608364E-1    5.051705330249758E-1
 6.517147064100000E9    -2.291198615594382E-1   -1.491884698234881E-2    1.380732915851110E-2   -6.087365523667978E-3    1.405665558193614E-2   -5.444523793891672E-3    2.144218164634970E-1    5.050353947178413E-1
 6.517158764000000E9    -2.289766573922512E-1   -1.469050590155821E-2    1.384711259572158E-2   -6.050249781949406E-3    1.398283415854785E-2   -5.571269857500978E-3    2.152018966189870E-1    5.045683458261754E-1
 6.517170463900000E9    -2.289162870714428E-1   -1.440539004877394E-2    1.393636304030180E-2   -6.173251578979377E-3    1.406994600642971E-2   -5.606382632740074E-3    2.162478206142208E-1    5.042534824499645E-1
 6.517182163800000E9    -2.287807200363575E-1   -1.436385800718305E-2    1.407910090183378E-2   -6.268597671526402E-3    1.414632559809781E-2   -5.618438809053192E-3    2.170205378706551E-1    5.038842239449765E-1
 6.517193863700000E9    -2.285933891768436E-1   -1.414767785887200E-2    1.400438686282717E-2   -6.193028968241887E-3    1.423949071244883E-2   -5.702399032354206E-3    2.179546406611162E-1    5.035517024653714E-1
 6.517205563600000E9    -2.285600256301783E-1   -1.398578995937171E-2    1.401737317088329E-2   -6.330302533295081E-3    1.428193591946172E-2   -5.732070847611152E-3    2.188097598945277E-1    5.031721231645494E-1
 6.517217263500000E9    -2.284325983906275E-1   -1.390255432023739E-2    1.415421609642422E-2   -6.180251316735889E-3    1.420957444573941E-2   -5.788290725193121E-3    2.197083944513219E-1    5.028078972297501E-1
 6.517228963400000E9    -2.282995484739043E-1   -1.357081602588033E-2    1.418056552455303E-2   -6.346145095682907E-3    1.439929657563654E-2   -5.833558499738051E-3    2.204639516617954E-1    5.023671134367985E-1
 6.517240663300000E9    -2.281677461259296E-1   -1.344213885985862E-2    1.429432242587327E-2   -6.459429650136283E-3    1.441404764099913E-2   -5.934321354751876E-3    2.213815378239294E-1    5.020381367757124E-1
 6.517252363200000E9    -2.279721701600380E-1   -1.333684239303683E-2    1.440470619372286E-2   -6.497140615452934E-3    1.443299113920291E-2   -6.071628457431084E-3    2.222927725092961E-1    5.018182878101017E-1
 6.517264063100000E9    -2.278687373034957E-1   -1.317271288043240E-2    1.445397950555594E-2   -6.495482598918591E-3    1.460333379408247E-2   -6.137093162739746E-3    2.231088262328358E-1    5.012570304830640E-1
 6.517275763000000E9    -2.278304630721304E-1   -1.290984669423139E-2    1.447531862072258E-2   -6.571683248654966E-3    1.474161562508805E-2   -6.175144512396081E-3    2.240189443829895E-1    5.009199096832592E-1
 6.517287462900000E9    -2.276259749253567E-1   -1.286323841419602E-2    1.448943168677781E-2   -6.685019226868393E-3    1.467069898738980E-2   -6.128969892374191E-3    2.247698232956757E-1    5.006230993879821E-1
 6.517299162800000E9    -2.274688443003699E-1   -1.259898658254499E-2    1.456029355966309E-2   -6.755741365648072E-3    1.482912549447541E-2   -6.223714276262353E-3    2.256622538080326E-1    5.001764663895272E-1
 6.517310862700000E9    -2.273593936740856E-1   -1.233372410305618E-2    1.474735534854220E-2   -6.753359571199956E-3    1.475940059876090E-2   -6.319113861882531E-3    2.266913714601116E-1    4.997773219472981E-1
 6.517322562600000E9    -2.272676031970738E-1   -1.230723193573053E-2    1.479789978534309E-2   -6.849836706672521E-3    1.484082444485412E-2   -6.244533091264295E-3    2.274304676872135E-1    4.993394834624330E-1
 6.517334262500000E9    -2.270680904452826E-1   -1.210669992430290E-2    1.484954543543458E-2   -6.953080364959115E-3    1.504046441800315E-2   -6.458675815418350E-3    2.283149686740939E-1    4.990041279976261E-1
 6.517345962400000E9    -2.269894678239833E-1   -1.193876812811286E-2    1.489940704860899E-2   -7.077939876235662E-3    1.498781966302228E-2   -6.470590947114776E-3    2.292394090233521E-1    4.986135693772724E-1
 6.517357662300000E9    -2.268064472548982E-1   -1.178371799439964E-2    1.496463141568873E-2   -7.116538152426462E-3    1.511058993364139E-2   -6.591960354862284E-3    2.300979433566678E-1    4.983691475393131E-1
 6.517369362200000E9    -2.266416625937896E-1   -1.162697851746771E-2    1.504135180791782E-2   -7.135630692392632E-3    1.522448785594754E-2   -6.652853404441353E-3    2.310026097076000E-1    4.978025846120001E-1
 6.517381062100000E9    -2.265077118299079E-1   -1.154870021851873E-2    1.517199744124409E-2   -7.213888215956175E-3    1.529868591197069E-2   -6.673897088162996E-3    2.318064603845350E-1    4.974942651036961E-1
 6.517392762000000E9    -2.264338924359622E-1   -1.143583441644407E-2    1.506225052732071E-2   -7.236017893653215E-3    1.529079974284819E-2   -6.746986180559369E-3    2.325497961568340E-1    4.970882185600611E-1
 6.517404461900000E9    -2.261601377263173E-1   -1.112163476126269E-2    1.524635336196683E-2   -7.242865711210601E-3    1.535821349444499E-2   -6.870347540704124E-3    2.334718354426629E-1    4.966987100042152E-1
 6.517416161800000E9    -2.260641702354221E-1   -1.099687470533714E-2    1.530595988162614E-2   -7.554689208702283E-3    1.542953653158675E-2   -6.975735754400835E-3    2.344086410849397E-1    4.964036574816985E-1
 6.517427861700000E9    -2.258862313563170E-1   -1.082497180757641E-2    1.532629209294055E-2   -7.605765862744827E-3    1.562505310780712E-2   -6.978647736801829E-3    2.352391092689671E-1    4.957173150908386E-1
 6.517439561600000E9    -2.257249920411783E-1   -1.072895161574621E-2    1.531021788562270E-2   -7.518336544381343E-3    1.562640731438988E-2   -7.082680654161380E-3    2.361878325131039E-1    4.954367291569639E-1
 6.517451261500000E9    -2.256371181627256E-1   -1.053710723342804E-2    1.539673909959781E-2   -7.565690867906322E-3    1.570514097378606E-2   -6.995672159361892E-3    2.369605668163396E-1    4.950200924866847E-1
 6.517462961400000E9    -2.254841007615941E-1   -1.036679985122521E-2    1.560033043399104E-2   -7.761731591407748E-3    1.582384514070627E-2   -7.317637642878844E-3    2.377455985591134E-1    4.946901963464030E-1
 6.517474661300000E9    -2.252861240953272E-1   -1.027542194277888E-2    1.571475611952354E-2   -7.812665899738721E-3    1.587154496644695E-2   -7.358161215223265E-3    2.386218749887446E-1    4.942300277732679E-1
 6.517486361200000E9    -2.253169895378420E-1   -1.009285277671637E-2    1.566602456393034E-2   -7.896709979998901E-3    1.599415987589923E-2   -7.383651471941853E-3    2.395931230083541E-1    4.938977623910408E-1
 6.517498061100000E9    -2.251005115463416E-1   -9.880508964781723E-3    1.568350681091639E-2   -7.894378429688209E-3    1.604529432633639E-2   -7.274435254719732E-3    2.402982574569024E-1    4.934786780518973E-1
 6.517509761000000E9    -2.248408840258797E-1   -9.785552450783171E-3    1.586370208799896E-2   -8.098195180066849E-3    1.610128988909779E-2   -7.559310076806897E-3    2.414062770912326E-1    4.929229723519010E-1
 6.517521460900000E9    -2.246892867396128E-1   -9.686266414183910E-3    1.602516557869781E-2   -8.187840822932236E-3    1.616868190313785E-2   -7.533478143545339E-3    2.422047985139366E-1    4.927012465864224E-1
 6.517533160800000E9    -2.245887263446439E-1   -9.473021407234701E-3    1.611081699037531E-2   -8.257522490981148E-3    1.625937344333315E-2   -7.675191003765224E-3    2.430896117924476E-1    4.921935618302747E-1
 6.517544860700000E9    -2.243883740986370E-1   -9.359282146953054E-3    1.604054324813463E-2   -8.377276300222319E-3    1.640496469662640E-2   -7.720945456599322E-3    2.439003290694629E-1    4.916928177640377E-1
 6.517556560600000E9    -2.243256603726807E-1   -9.170553684086116E-3    1.612366410989657E-2   -8.373871497544769E-3    1.640361101734479E-2   -7.830951080109479E-3    2.446931757844742E-1    4.914244257274738E-1
 6.517568260500000E9    -2.240508282604078E-1   -8.976518486780653E-3    1.625170376098735E-2   -8.436192932764030E-3    1.656065584022717E-2   -7.965139252582963E-3    2.456311877133127E-1    4.908732244541849E-1
 6.517579960400000E9    -2.239446344966629E-1   -8.847316603987942E-3    1.634534799001788E-2   -8.637816286652545E-3    1.655355220877730E-2   -7.977691769524229E-3    2.463468915311159E-1    4.904091000166234E-1
 6.517591660300000E9    -2.236906399286240E-1   -8.793163279632844E-3    1.663577507909351E-2   -8.583855526409528E-3    1.671469229616876E-2   -8.079013600204766E-3    2.472268524284109E-1    4.901303335223409E-1
 6.517603360200000E9    -2.235746396253640E-1   -8.646808091601940E-3    1.644855892616228E-2   -8.739507971741967E-3    1.685943004027613E-2   -8.181587630397670E-3    2.480623163796397E-1    4.895575107711191E-1
 6.517615060100000E9    -2.234439601613740E-1   -8.439819584677872E-3    1.659371183726150E-2   -8.816707525329523E-3    1.687040995669985E-2   -8.258908764965383E-3    2.490701528419391E-1    4.890231765099266E-1
 6.517626760000000E9    -2.232395104974241E-1   -8.352992678587329E-3    1.666910697384144E-2   -8.963166850434892E-3    1.697350982646916E-2   -8.318773092382360E-3    2.498907245016344E-1    4.884113579133040E-1
 6.517638459900000E9    -2.231603476410730E-1   -8.189105309406296E-3    1.672427903972218E-2   -8.945826287990372E-3    1.701777524045373E-2   -8.519983526356540E-3    2.509300246451448E-1    4.882917436140368E-1
 6.517650159800000E9    -2.228772624720634E-1   -8.072545736564539E-3    1.683711161346573E-2   -9.020790754678563E-3    1.711669719967004E-2   -8.571350953695357E-3    2.515268236781175E-1    4.878010303593481E-1
 6.517661859700000E9    -2.226882350758422E-1   -8.010596438134262E-3    1.688542018952139E-2   -9.204421024839602E-3    1.732881404319297E-2   -8.517741028045638E-3    2.526169235442868E-1    4.873617328804440E-1
 6.517673559600000E9    -2.225295416562196E-1   -7.878432704659995E-3    1.695849656898748E-2   -9.342033959278328E-3    1.735311168574058E-2   -8.864333807056710E-3    2.534479209139685E-1    4.869973936582186E-1
 6.517685259500000E9    -2.223519930061245E-1   -7.656365307362759E-3    1.701241736765231E-2   -9.424709417703748E-3    1.745154045538375E-2   -8.905615855795369E-3    2.541792458884597E-1    4.865316963044495E-1
 6.517696959400000E9    -2.222370117395614E-1   -7.609608014863456E-3    1.712849207647541E-2   -9.553668624343472E-3    1.748666493058514E-2   -8.947055713762928E-3    2.551106612123720E-1    4.860170388256567E-1
 6.517708659300000E9    -2.220981705608530E-1   -7.420355661615801E-3    1.722093175342857E-2   -9.662502975334343E-3    1.757915230286035E-2   -9.028465437542682E-3    2.560060763362833E-1    4.856829943983763E-1
 6.517720359200000E9    -2.218317976553276E-1   -7.388255875888634E-3    1.744711689775598E-2   -9.727247354478575E-3    1.776068294092049E-2   -9.194684413876357E-3    2.568235327594778E-1    4.851301491966214E-1
 6.517732059100000E9    -2.216266548737711E-1   -7.257421189483001E-3    1.755290852557636E-2   -9.886183164576996E-3    1.783510158914238E-2   -9.365616895370694E-3    2.577850377035060E-1    4.846384572148935E-1
 6.517743759000000E9    -2.215339138842691E-1   -7.080034053635131E-3    1.761713200265894E-2   -1.002628193397959E-2    1.796660187955293E-2   -9.357579786122078E-3    2.585483160554991E-1    4.842417896726244E-1
 6.517755458900000E9    -2.212976475681475E-1   -6.992729568023602E-3    1.766926898025483E-2   -1.014082819908520E-2    1.805825679493632E-2   -9.421010118716235E-3    2.593771448259455E-1    4.836573347007406E-1
 6.517767158800000E9    -2.211203564994001E-1   -6.933950669843762E-3    1.775477111237751E-2   -1.010846533340221E-2    1.806095170587949E-2   -9.592540242240119E-3    2.603799551512450E-1    4.831138382628353E-1
 6.517778858700000E9    -2.209723325636911E-1   -6.809685061981139E-3    1.795263083502101E-2   -1.024246187824164E-2    1.823593001133078E-2   -9.689175327876389E-3    2.612894648444026E-1    4.826994481627430E-1
 6.517790558600000E9    -2.207347456687804E-1   -6.628076718391568E-3    1.800755838237271E-2   -1.029721785888410E-2    1.826588226271013E-2   -9.817494586300249E-3    2.621161405583910E-1    4.822630805785756E-1
 6.517802258500000E9    -2.205960947522897E-1   -6.527305078780739E-3    1.807821376924565E-2   -1.051952435460798E-2    1.836315650533972E-2   -9.935714530749103E-3    2.630160904285846E-1    4.817466562568287E-1
 6.517813958400000E9    -2.203413089466486E-1   -6.386656181472434E-3    1.828333619759827E-2   -1.068961221437844E-2    1.857857192000509E-2   -1.006852309709829E-2    2.637769243378151E-1    4.813663687284433E-1
 6.517825658300000E9    -2.202181301084692E-1   -6.246581478230988E-3    1.832733461867380E-2   -1.082695774811026E-2    1.868826801952688E-2   -1.014746632534367E-2    2.646497123625434E-1    4.808581717869314E-1
 6.517837358200000E9    -2.200508700417584E-1   -6.231006645950021E-3    1.840191606106339E-2   -1.091966432634603E-2    1.867560122463793E-2   -1.036185830004714E-2    2.656126155968566E-1    4.802824075490792E-1
 6.517849058100000E9    -2.196909535499394E-1   -6.113357987513703E-3    1.858781081072592E-2   -1.098998964349361E-2    1.890231104913792E-2   -1.040473770417606E-2    2.663405121310453E-1    4.798737976075146E-1
 6.517860758000000E9    -2.196126194889651E-1   -6.033777326240549E-3    1.857055876975763E-2   -1.108465453558126E-2    1.904777137897543E-2   -1.057238898180955E-2    2.673725101113882E-1    4.793055788943824E-1
 6.517872457900000E9    -2.192951694888678E-1   -5.968496020359192E-3    1.862473440671397E-2   -1.114785649693105E-2    1.905685741945181E-2   -1.064582970272883E-2    2.681215867269692E-1    4.788233759229492E-1
 6.517884157800000E9    -2.190676557434118E-1   -5.774189940005441E-3    1.885102617036014E-2   -1.139312759176065E-2    1.919018340142356E-2   -1.087503551354089E-2    2.690261244738757E-1    4.784238534730007E-1
 6.517895857700000E9    -2.189550766511840E-1   -5.685287737325921E-3    1.900402986034018E-2   -1.154628077000266E-2    1.932975154703276E-2   -1.091203421845950E-2    2.698589308563448E-1    4.778434170332268E-1
 6.517907557600000E9    -2.187368603750594E-1   -5.571775209769458E-3    1.903905386877133E-2   -1.170330992503085E-2    1.934216140258309E-2   -1.107211534903735E-2    2.706817594903552E-1    4.773221899795818E-1
 6.517919257500000E9    -2.185917801254452E-1   -5.449481738832257E-3    1.917611803713995E-2   -1.177761612940294E-2    1.962061315426093E-2   -1.120173611762379E-2    2.717161674727946E-1    4.767822916638628E-1
 6.517930957400000E9    -2.182793090543218E-1   -5.513612389095884E-3    1.934006690596456E-2   -1.195091200244621E-2    1.964885312427143E-2   -1.134846847636171E-2    2.724151761574884E-1    4.762714007716785E-1
 6.517942657300000E9    -2.180778976790822E-1   -5.358728070874566E-3    1.944753805131216E-2   -1.220424413720357E-2    1.969025502481232E-2   -1.138283213497611E-2    2.734264271018197E-1    4.757152443043364E-1
 6.517954357200000E9    -2.179623932722128E-1   -5.292438729178475E-3    1.963451462939158E-2   -1.232348564769492E-2    1.989583728442505E-2   -1.168236939697952E-2    2.743334398455509E-1    4.752054518866474E-1
 6.517966057100000E9    -2.176782241130845E-1   -5.178047672369200E-3    1.972000638723410E-2   -1.233538933672855E-2    1.996283608605480E-2   -1.176802146065608E-2    2.750384061280693E-1    4.745915943928902E-1
 6.517977757000000E9    -2.174781164734602E-1   -5.213737306090121E-3    1.980294194823277E-2   -1.258703735722665E-2    2.018490700445760E-2   -1.189102277260254E-2    2.760035671333232E-1    4.742682734631257E-1
 6.517989456900000E9    -2.172641375215261E-1   -5.021225217246109E-3    1.990277986826596E-2   -1.281742989566255E-2    2.022618972857072E-2   -1.208730947617167E-2    2.768749868432619E-1    4.736753199292600E-1
 6.518001156800000E9    -2.169988953352259E-1   -5.024931698714764E-3    1.999661036307208E-2   -1.292489856767700E-2    2.047379264426003E-2   -1.226857657735330E-2    2.777915697870337E-1    4.731108490605930E-1
 6.518012856700000E9    -2.167703855927287E-1   -5.005399205113043E-3    2.028450992525060E-2   -1.309672024887966E-2    2.060757393674070E-2   -1.231517919909549E-2    2.786888397217070E-1    4.725423120938579E-1
 6.518024556600000E9    -2.165169505077430E-1   -4.916794345354495E-3    2.035078230567699E-2   -1.323457237045285E-2    2.073641618199899E-2   -1.252836981500938E-2    2.793853233644128E-1    4.719859164639304E-1
 6.518036256500000E9    -2.163113039829425E-1   -4.838408768063915E-3    2.026672292588914E-2   -1.333629785220844E-2    2.083768551586023E-2   -1.269668310319544E-2    2.802581303024500E-1    4.716075941839057E-1
 6.518047956400000E9    -2.160734400469548E-1   -4.790646951413110E-3    2.055362645487797E-2   -1.355409320934081E-2    2.103077967306135E-2   -1.283682744097019E-2    2.812187545037113E-1    4.709532938648402E-1
 6.518059656300000E9    -2.157414358913951E-1   -4.643896127498186E-3    2.070914007896222E-2   -1.382412557385396E-2    2.121473413218196E-2   -1.303416418905196E-2    2.821074192687628E-1    4.703445478776498E-1
 6.518071356200000E9    -2.154747783449022E-1   -4.720418481160856E-3    2.083363601532614E-2   -1.383293654462838E-2    2.130417962221373E-2   -1.321077509274682E-2    2.829213104619407E-1    4.697572809403434E-1
 6.518083056100000E9    -2.153852070720172E-1   -4.664745584391939E-3    2.104985031480892E-2   -1.409795501308971E-2    2.149024718069447E-2   -1.335597824713908E-2    2.839230457671528E-1    4.691914740227454E-1
 6.518094756000000E9    -2.150387047882141E-1   -4.567526799094371E-3    2.113197290929870E-2   -1.429276398834480E-2    2.160419298095044E-2   -1.354221099517603E-2    2.847458049818669E-1    4.685383820215158E-1
