#  HZ   S   RI   R     50.00 
! Rohde & Schwarz Vector Network Analyzer 
! Rohde-Schwarz,ZNB20-2Port,1311601062101988,3.16
! Created: UTC 3/20/2024, 12:00:59 PM
! freq[Hz]                re:S11                  im:S11                  re:S21                  im:S21                  re:S12                  im:S12                  re:S22                  im:S22
 8.117071302000000E9     5.061870516358015E-1   -2.092329701141680E-2    9.012619574537440E-4    3.772294695439918E-3    9.629308045849100E-4    3.861085971554806E-3    4.169393601663846E-1   -1.732605907978386E-1
 8.117074411500000E9     5.062269850922589E-1   -2.116896140095926E-2    8.904082836663191E-4    3.816818632537003E-3    9.413204200860850E-4    3.847895056121787E-3    4.169498732173739E-1   -1.732887668840853E-1
 8.117077521000000E9     5.063096984530139E-1   -2.153586592104984E-2    9.148304262911306E-4    3.786383320881752E-3    9.938713883466668E-4    3.870776399380485E-3    4.168484775006180E-1   -1.735030619362385E-1
 8.117080630500000E9     5.062159358877748E-1   -2.181104154836550E-2    8.961935556384875E-4    3.792437149957484E-3    9.606550683957529E-4    3.867930402956261E-3    4.169387971253701E-1   -1.738309335685330E-1
 8.117083740000000E9     5.060867464945459E-1   -2.197209655704692E-2    9.143118406074300E-4    3.780681946404468E-3    9.658371913391810E-4    3.840961379282499E-3    4.168908880321801E-1   -1.741237041208277E-1
 8.117086849500000E9     5.060589409032339E-1   -2.230856608332827E-2    9.182932963188763E-4    3.794406178235135E-3    9.899627620333280E-4    3.888448606778923E-3    4.165943077393043E-1   -1.741172773584787E-1
 8.117089959000000E9     5.061475164774080E-1   -2.251959409701436E-2    9.326592577840155E-4    3.765303546509578E-3    9.953503599559844E-4    3.874554896561746E-3    4.165766713111029E-1   -1.744643195004212E-1
 8.117093068500000E9     5.062211462232575E-1   -2.270559681653775E-2    9.207269623453521E-4    3.799886827822107E-3    1.026434066397257E-3    3.850442021379118E-3    4.165219627131141E-1   -1.745766357168151E-1
 8.117096178000000E9     5.060960980240929E-1   -2.292838490475707E-2    9.060712286591885E-4    3.824034539746020E-3    9.572540402835854E-4    3.864013257826978E-3    4.164563879214923E-1   -1.747926293709534E-1
 8.117099287500000E9     5.060486309690831E-1   -2.322603939522108E-2    9.191948897680511E-4    3.799257829933928E-3    9.594076082870731E-4    3.860247269520370E-3    4.163207421283341E-1   -1.750894788754276E-1
 8.117102397000000E9     5.060179159846790E-1   -2.353654799973731E-2    9.420787906417425E-4    3.804090138635572E-3    9.899537070746523E-4    3.881263636405565E-3    4.162958058543663E-1   -1.752375684337896E-1
 8.117105506500000E9     5.060579476139569E-1   -2.376483435327942E-2    9.316966216336190E-4    3.825822348179905E-3    9.873259077011762E-4    3.893184982669438E-3    4.163018770486345E-1   -1.756124103156364E-1
 8.117108616000000E9     5.060107944101999E-1   -2.395240345125533E-2    9.656250382705787E-4    3.832664351909610E-3    9.868744939126467E-4    3.891889788996084E-3    4.162064998550034E-1   -1.756588825222901E-1
 8.117111725500000E9     5.059765827667212E-1   -2.418916787294916E-2    9.540242432843732E-4    3.813309357889877E-3    9.917817931882457E-4    3.897828846157897E-3    4.160184040631038E-1   -1.758448694676309E-1
 8.117114835000000E9     5.059390391733251E-1   -2.450525291576122E-2    9.532440434380598E-4    3.844315702646239E-3    9.632692416675020E-4    3.842000778087779E-3    4.158903390756509E-1   -1.761108328166668E-1
 8.117117944500000E9     5.060529105384428E-1   -2.475932337693573E-2    9.448616862319534E-4    3.833609183604079E-3    1.004748918882858E-3    3.865029861865246E-3    4.159181844217146E-1   -1.761351557747068E-1
 8.117121054000000E9     5.060667340274836E-1   -2.504826673197824E-2    9.411517790760141E-4    3.811214767863218E-3    1.026039685163555E-3    3.911224080386923E-3    4.157039096479500E-1   -1.764079159032727E-1
 8.117124163500000E9     5.058874639493398E-1   -2.530578235191028E-2    9.402051347216634E-4    3.827128897707331E-3    9.797737414883520E-4    3.877692183043545E-3    4.159870692843827E-1   -1.766335033017953E-1
 8.117127273000000E9     5.059048686864633E-1   -2.546009510381064E-2    9.523941689506812E-4    3.824045585959208E-3    1.051514892874270E-3    3.880355832484186E-3    4.155531243503156E-1   -1.769490645259101E-1
 8.117130382500000E9     5.059723589058962E-1   -2.575235367359512E-2    9.640021172163526E-4    3.845624464207323E-3    1.049068906385869E-3    3.931774391506343E-3    4.155216178870837E-1   -1.771030873807953E-1
 8.117133492000000E9     5.058330723406470E-1   -2.602530641947732E-2    9.454736323772395E-4    3.845714386808853E-3    1.023144308630356E-3    3.878097474716054E-3    4.155061414600508E-1   -1.772090031028629E-1
 8.117136601500000E9     5.058007720588762E-1   -2.618814579987250E-2    9.425872043657404E-4    3.832199711080900E-3    9.801713331383695E-4    3.892320970600013E-3    4.153576533148236E-1   -1.773844239689411E-1
 8.117139711000000E9     5.058281032150425E-1   -2.646966124042792E-2    9.505465550437414E-4    3.868170985187331E-3    1.043929636112626E-3    3.895176644936508E-3    4.154664856190586E-1   -1.776232997239845E-1
 8.117142820500000E9     5.059181285426850E-1   -2.674904849823652E-2    9.701907928345957E-4    3.869831677386605E-3    1.043612607744436E-3    3.911130063260981E-3    4.152815323998539E-1   -1.778765108695398E-1
 8.117145930000000E9     5.058139162929211E-1   -2.696128500092453E-2    9.702978232300609E-4    3.841949777856268E-3    1.056684992306022E-3    3.897557026319620E-3    4.151050484710655E-1   -1.779999700972928E-1
 8.117149039500000E9     5.057884160180633E-1   -2.721955515645400E-2    9.920851151954482E-4    3.846986976589091E-3    1.042584820576671E-3    3.920562809031729E-3    4.151506395585928E-1   -1.782376457823286E-1
 8.117152149000000E9     5.057640305345698E-1   -2.749439391037022E-2    9.771188644058376E-4    3.868670374204910E-3    1.036194087692710E-3    3.923812141455039E-3    4.149968385737152E-1   -1.784232951121306E-1
 8.117155258500000E9     5.057949370997125E-1   -2.772140838933719E-2    1.002091987444052E-3    3.871984094593837E-3    1.042723311011101E-3    3.890546921175195E-3    4.148850474036423E-1   -1.786458170285726E-1
 8.117158368000000E9     5.057700875391058E-1   -2.799478435355993E-2    1.005630786935815E-3    3.857398022419732E-3    1.052423302089471E-3    3.941909992397616E-3    4.147933448817106E-1   -1.789970516398109E-1
 8.117161477500000E9     5.057626494172277E-1   -2.824419312715284E-2    9.819496575998159E-4    3.848427976753770E-3    1.050604715779959E-3    3.937790496147045E-3    4.147750523868988E-1   -1.790783552798967E-1
 8.117164587000000E9     5.057402742664919E-1   -2.847640531273763E-2    1.002673888008982E-3    3.857685593122161E-3    1.057421507850767E-3    3.921619272439070E-3    4.146224155340794E-1   -1.793515546589782E-1
 8.117167696500000E9     5.055835178708029E-1   -2.872541508955370E-2    9.897095907619631E-4    3.881618937037754E-3    1.083251816402582E-3    3.933678258812514E-3    4.147290910655584E-1   -1.794839903151655E-1
 8.117170806000000E9     5.055209432839592E-1   -2.908322680089534E-2    1.031083973787142E-3    3.871448462976344E-3    1.060600404603401E-3    3.954055397257038E-3    4.146764448208999E-1   -1.797316017437867E-1
 8.117173915500000E9     5.055364480183328E-1   -2.919556484879735E-2    1.017703466382631E-3    3.881475297044336E-3    1.045452121056350E-3    3.959685266449859E-3    4.145039168805185E-1   -1.800979780057011E-1
 8.117177025000000E9     5.055455245963429E-1   -2.957935683296963E-2    1.031836600579297E-3    3.897366680767254E-3    1.075168185052461E-3    3.956503034427957E-3    4.143567899066330E-1   -1.801505801999660E-1
 8.117180134500000E9     5.055658976210261E-1   -2.984228868052829E-2    1.000879957671706E-3    3.913028686405727E-3    1.098288269439821E-3    3.953443694679877E-3    4.143758652407579E-1   -1.802819475055620E-1
 8.117183244000000E9     5.054985200369854E-1   -2.996769636898900E-2    9.969640953742969E-4    3.904247596980876E-3    1.069917566515950E-3    3.929978708694868E-3    4.142856173544036E-1   -1.804404846725617E-1
 8.117186353500000E9     5.054258219933786E-1   -3.025399005758177E-2    1.018190373187411E-3    3.905154430579525E-3    1.087435650282011E-3    3.956946158630980E-3    4.141851413852955E-1   -1.807477227255932E-1
 8.117189463000000E9     5.055210408710215E-1   -3.052603667093488E-2    1.026023625434653E-3    3.905081003109754E-3    1.050528508145358E-3    3.956195187168365E-3    4.140910093954526E-1   -1.808638481891282E-1
 8.117192572500000E9     5.055040020165114E-1   -3.069282396593527E-2    1.046862606581920E-3    3.873504651133514E-3    1.107793929221518E-3    3.970587894915476E-3    4.140099482015575E-1   -1.811656140319778E-1
 8.117195682000000E9     5.054150874240697E-1   -3.096473651072101E-2    1.049702523621046E-3    3.892975754673824E-3    1.078351943360460E-3    3.966306566316330E-3    4.141757077607789E-1   -1.812134042924309E-1
 8.117198791500000E9     5.053989765771084E-1   -3.128500209750715E-2    1.052477713865686E-3    3.897360992761619E-3    1.100072606889369E-3    3.983813404181698E-3    4.139132398216941E-1   -1.815816499520793E-1
 8.117201901000000E9     5.054115050061919E-1   -3.156700757542185E-2    1.047535088888166E-3    3.918737961572417E-3    1.066826156748692E-3    3.976723169255930E-3    4.139298670814630E-1   -1.816292223471468E-1
 8.117205010500000E9     5.054027459238529E-1   -3.174220293989870E-2    1.033936911595868E-3    3.911640031616876E-3    1.132273559141097E-3    3.997155604341862E-3    4.137795898816141E-1   -1.818878920568159E-1
 8.117208120000000E9     5.052740100530638E-1   -3.201798443388076E-2    1.035953289902068E-3    3.933910604505068E-3    1.121054596887186E-3    3.951317429064820E-3    4.136032285013798E-1   -1.821435689099943E-1
 8.117211229500000E9     5.053458711286113E-1   -3.225335389756993E-2    1.092437486914349E-3    3.937071401817345E-3    1.108489552707075E-3    3.977363643165137E-3    4.136492501083817E-1   -1.823206581923050E-1
 8.117214339000000E9     5.053528282921412E-1   -3.248236627220218E-2    1.041343312355919E-3    3.921671880791174E-3    1.114301785300826E-3    3.989023731781071E-3    4.133141856787746E-1   -1.824359673481223E-1
 8.117217448500000E9     5.052337876497194E-1   -3.272918062117530E-2    1.087554719035326E-3    3.954988563340959E-3    1.123059504370102E-3    4.002667265079155E-3    4.133516026099487E-1   -1.825871899326717E-1
 8.117220558000000E9     5.052976739982704E-1   -3.301249653178919E-2    1.074864241203189E-3    3.921375954619835E-3    1.121073053401510E-3    3.974081935766552E-3    4.132308743883576E-1   -1.828933686741813E-1
 8.117223667500000E9     5.051682360728161E-1   -3.325886316828922E-2    1.060839175613119E-3    3.941552916635829E-3    1.102179675643459E-3    3.989595819634471E-3    4.132728366363433E-1   -1.831075954352318E-1
 8.117226777000000E9     5.051576293596676E-1   -3.362982732223394E-2    1.095216466407465E-3    3.942417216051939E-3    1.157306214932027E-3    3.987209829552526E-3    4.130551171746217E-1   -1.833944073806741E-1
 8.117229886500000E9     5.051975715024484E-1   -3.380552822383177E-2    1.078992997417504E-3    3.948515857470096E-3    1.147112988966505E-3    4.019345017821275E-3    4.129632830911582E-1   -1.835795936653769E-1
 8.117232996000000E9     5.051591308652366E-1   -3.403083111120273E-2    1.085945111641378E-3    3.922824768768575E-3    1.158883393823239E-3    4.013434347553386E-3    4.129440957975520E-1   -1.838302764356345E-1
 8.117236105500000E9     5.051719752948981E-1   -3.425162032104566E-2    1.101164887498989E-3    3.985390166394805E-3    1.167652111134084E-3    4.048670275467557E-3    4.128943672241622E-1   -1.839593622313300E-1
 8.117239215000000E9     5.051193798507244E-1   -3.452369741348858E-2    1.114760503536361E-3    3.966689651200211E-3    1.137656100751622E-3    4.006947038235853E-3    4.128896724785827E-1   -1.842418458674968E-1
 8.117242324500000E9     5.050815792982876E-1   -3.482376170763886E-2    1.115403891909888E-3    3.980788806185644E-3    1.119780083970168E-3    4.046331133751514E-3    4.127406380293125E-1   -1.843638357499042E-1
 8.117245434000000E9     5.049434858031800E-1   -3.509691976275453E-2    1.091248034808850E-3    3.960928113820127E-3    1.175144272975690E-3    4.095013313720430E-3    4.127295788209401E-1   -1.846255244728573E-1
 8.117248543500000E9     5.050329398472007E-1   -3.525940650525308E-2    1.119042087156716E-3    3.975030799672051E-3    1.162671930609269E-3    4.065926204066529E-3    4.125836221064667E-1   -1.847518720869807E-1
 8.117251653000000E9     5.049199559627201E-1   -3.553345433591887E-2    1.105611941773529E-3    4.015619489549262E-3    1.185254492279842E-3    4.060724397074344E-3    4.124997554478725E-1   -1.850089006323851E-1
 8.117254762500000E9     5.048988953896613E-1   -3.584076667455034E-2    1.158510021699234E-3    3.977770218200130E-3    1.194628616018397E-3    4.036581150308004E-3    4.123161399313807E-1   -1.852756536206080E-1
 8.117257872000000E9     5.048188738615227E-1   -3.609346519096799E-2    1.119684810685202E-3    3.998825174906931E-3    1.182078220772764E-3    4.080333607146816E-3    4.122695033528365E-1   -1.852389466619795E-1
 8.117260981500000E9     5.048313129408708E-1   -3.634579918422737E-2    1.102293519081886E-3    3.989299638610879E-3    1.204602438781479E-3    4.066415062704603E-3    4.122561912962717E-1   -1.856200335133714E-1
 8.117264091000000E9     5.048843744735675E-1   -3.659025572971819E-2    1.126878034055895E-3    4.035751530162589E-3    1.168304839149981E-3    4.032245289544769E-3    4.122796724209162E-1   -1.856961269902286E-1
 8.117267200500000E9     5.048424417616592E-1   -3.685351428450935E-2    1.125854309637245E-3    4.038084826962280E-3    1.202914540108741E-3    4.089023206797976E-3    4.120584680772160E-1   -1.860356703143922E-1
 8.117270310000000E9     5.047200500697130E-1   -3.714342140699995E-2    1.156571411958000E-3    4.005077760038110E-3    1.220379180204351E-3    4.116988087947052E-3    4.120229483521975E-1   -1.861382466524808E-1
 8.117273419500000E9     5.048809288089469E-1   -3.740448244488206E-2    1.159069337865117E-3    4.014374254598926E-3    1.187120166561497E-3    4.101851685534140E-3    4.119687649672898E-1   -1.863645763682950E-1
 8.117276529000000E9     5.046792727830819E-1   -3.761838256705689E-2    1.174527652960342E-3    4.033596407216825E-3    1.216419577637239E-3    4.137184012756116E-3    4.118955853493011E-1   -1.864810709444445E-1
 8.117279638500000E9     5.047091119779605E-1   -3.777846843718306E-2    1.174610830044587E-3    4.008715018973952E-3    1.190655786480507E-3    4.104623912524149E-3    4.117252065704395E-1   -1.868446745661929E-1
 8.117282748000000E9     5.046236224432225E-1   -3.824138828806475E-2    1.174223739375594E-3    4.044678283977829E-3    1.179648127074322E-3    4.118651048467421E-3    4.116538992268035E-1   -1.868109502446805E-1
 8.117285857500000E9     5.047054505748708E-1   -3.842906388766676E-2    1.173458748574546E-3    4.059655259307227E-3    1.232375324673916E-3    4.152759822155182E-3    4.116553224934096E-1   -1.872069041974564E-1
 8.117288967000000E9     5.045201820555918E-1   -3.865242822603990E-2    1.192508775664754E-3    4.064964443076724E-3    1.222786865567773E-3    4.101897690761135E-3    4.114595529037185E-1   -1.874232767491791E-1
 8.117292076500000E9     5.046318805760590E-1   -3.897302322860246E-2    1.197573262744650E-3    4.068751939935094E-3    1.261265223547083E-3    4.089407656795890E-3    4.113949806521976E-1   -1.875628879057073E-1
 8.117295186000000E9     5.044903712671575E-1   -3.925566960214593E-2    1.176061364037965E-3    4.074948886126273E-3    1.256620091461564E-3    4.173719801088638E-3    4.114534927651888E-1   -1.877782223184215E-1
 8.117298295500000E9     5.045596039374443E-1   -3.949217973137607E-2    1.178269768488579E-3    4.083852098734725E-3    1.247683469225227E-3    4.122719510595298E-3    4.113146330335919E-1   -1.880038036557849E-1
 8.117301405000000E9     5.045109384710093E-1   -3.969555798789724E-2    1.195926402707326E-3    4.081724973791821E-3    1.243241700183024E-3    4.162009523342053E-3    4.111761699441047E-1   -1.881625825824987E-1
 8.117304514500000E9     5.044457946427725E-1   -3.980867860314030E-2    1.201504349127405E-3    4.078264176558603E-3    1.274457969666215E-3    4.180059516140722E-3    4.111230674421893E-1   -1.885014872711037E-1
 8.117307624000000E9     5.044511341413217E-1   -4.017354400808243E-2    1.180742843457790E-3    4.085241925213028E-3    1.275425983064415E-3    4.139746916460763E-3    4.110630926538466E-1   -1.886850981379501E-1
 8.117310733500000E9     5.043823633519702E-1   -4.056518516107079E-2    1.213449988395651E-3    4.071632808980477E-3    1.295262474634708E-3    4.203925435502443E-3    4.109049302577742E-1   -1.888815511240649E-1
 8.117313843000000E9     5.042736119448181E-1   -4.075518388649410E-2    1.226074835205488E-3    4.118037833881709E-3    1.228276507019440E-3    4.211690123827046E-3    4.109836773250953E-1   -1.889992413119793E-1
 8.117316952500000E9     5.043359655751212E-1   -4.107364687551743E-2    1.232703136626086E-3    4.111415212917732E-3    1.269732656810366E-3    4.226006656548566E-3    4.107508681316215E-1   -1.892822292264734E-1
 8.117320062000000E9     5.042389029667331E-1   -4.130007628238673E-2    1.227096590108831E-3    4.119448917710564E-3    1.238173348811846E-3    4.182627531536095E-3    4.107467716107768E-1   -1.893865907742468E-1
 8.117323171500000E9     5.043722153950672E-1   -4.156247719914065E-2    1.252171267546488E-3    4.106325808224836E-3    1.302524641836214E-3    4.173342211401410E-3    4.107406363619814E-1   -1.896075536047502E-1
 8.117326281000000E9     5.041878117314041E-1   -4.188817706149665E-2    1.292695087941841E-3    4.140477168476415E-3    1.310813503621710E-3    4.197898147097546E-3    4.105531814981634E-1   -1.898980052160092E-1
 8.117329390500000E9     5.041925615420981E-1   -4.218640498425206E-2    1.236250873211618E-3    4.149871222019473E-3    1.311855935678868E-3    4.234537962966418E-3    4.104037190963081E-1   -1.899829173919340E-1
 8.117332500000000E9     5.041898767224466E-1   -4.230102713646033E-2    1.253966227750663E-3    4.173195577490069E-3    1.288951138392641E-3    4.172714904536853E-3    4.102889503908715E-1   -1.902352476741100E-1
 8.117335609500000E9     5.042019630485591E-1   -4.260658123695567E-2    1.274558774220319E-3    4.170000166182534E-3    1.322482629870382E-3    4.235769074283370E-3    4.102161706983662E-1   -1.904948907875862E-1
 8.117338719000000E9     5.041356053951559E-1   -4.288507840567245E-2    1.267727748835599E-3    4.185340489840078E-3    1.340858891117298E-3    4.212423115954587E-3    4.101780252545393E-1   -1.905625845622607E-1
 8.117341828500000E9     5.041607377803938E-1   -4.309766912257307E-2    1.295405526707568E-3    4.188383978340163E-3    1.332810218811880E-3    4.231784963407947E-3    4.101391501802394E-1   -1.908969748517327E-1
 8.117344938000000E9     5.041354178860303E-1   -4.334742903376333E-2    1.286593656261396E-3    4.195613848447352E-3    1.328841766492178E-3    4.230198534515287E-3    4.101274259203758E-1   -1.910550367314549E-1
 8.117348047500000E9     5.039470304015536E-1   -4.376042810031948E-2    1.297659655033660E-3    4.177628931772051E-3    1.354442218549126E-3    4.233359781054402E-3    4.100096663068061E-1   -1.912150836375669E-1
 8.117351157000000E9     5.038191876358545E-1   -4.383877193524502E-2    1.279199830037639E-3    4.186564483525640E-3    1.351554286013311E-3    4.260210937731719E-3    4.097162486298892E-1   -1.914586390490192E-1
