#  HZ   S   RI   R     50.00 
! Rohde & Schwarz Vector Network Analyzer 
! Rohde-Schwarz,ZNB20-2Port,1311601062101988,3.16
! Created: UTC 3/20/2024, 12:01:04 PM
! freq[Hz]                re:S11                  im:S11                  re:S21                  im:S21                  re:S12                  im:S12                  re:S22                  im:S22
 8.117063823000000E9     5.063581515734317E-1   -2.035304720487986E-2    8.956636757052316E-4    3.778353235269902E-3    9.678355235724954E-4    3.841714527607951E-3    4.172626257269165E-1   -1.726991482584743E-1
 8.117066971150000E9     5.062149722313014E-1   -2.056380849838367E-2    8.962993426654214E-4    3.804601934266863E-3    9.388738911277151E-4    3.842263618185164E-3    4.171502998717277E-1   -1.728423939945980E-1
 8.117070119300000E9     5.062082419072798E-1   -2.096560847663804E-2    9.064691177865039E-4    3.758729250319723E-3    9.634243732272061E-4    3.860475615236199E-3    4.171485778356125E-1   -1.730796375619250E-1
 8.117073267450000E9     5.062637822512753E-1   -2.124351509171808E-2    8.985092044224280E-4    3.777508536585754E-3    9.447427626682071E-4    3.828867364796777E-3    4.169867861213622E-1   -1.733105191884539E-1
 8.117076415600000E9     5.062983379683604E-1   -2.148605834170185E-2    9.087383191696400E-4    3.780452889089488E-3    1.002387821295292E-3    3.831786740859604E-3    4.168144212826561E-1   -1.735026351477099E-1
 8.117079563750000E9     5.061490746281195E-1   -2.160952736717351E-2    9.044807987359280E-4    3.762181148012798E-3    9.790176809955794E-4    3.899218300131488E-3    4.168987311855319E-1   -1.738326383954647E-1
 8.117082711900000E9     5.062702531285871E-1   -2.186830351231804E-2    9.181956857328336E-4    3.790565496277189E-3    9.440234347292032E-4    3.862190544925323E-3    4.167904024418996E-1   -1.739104701412739E-1
 8.117085860050000E9     5.062345644072975E-1   -2.213093760947757E-2    9.251382051037073E-4    3.797155493087368E-3    9.698848236356445E-4    3.841824919398630E-3    4.166297518050101E-1   -1.741262001510457E-1
 8.117089008200000E9     5.061056836294641E-1   -2.241855549610434E-2    9.351834549315415E-4    3.784680157589282E-3    9.996975435522303E-4    3.837029206467228E-3    4.166603185978126E-1   -1.744713963712467E-1
 8.117092156350000E9     5.060999572373824E-1   -2.276834695965523E-2    9.209264854855238E-4    3.777004421824378E-3    9.704725459199551E-4    3.857617644218060E-3    4.164785721244245E-1   -1.744653532205472E-1
 8.117095304500000E9     5.061243819995883E-1   -2.304520913071814E-2    9.276558388455847E-4    3.813371790237793E-3    9.605088856484087E-4    3.833105239508214E-3    4.165306595399601E-1   -1.747082632728009E-1
 8.117098452650000E9     5.062377622416534E-1   -2.308413224242465E-2    9.216739984662805E-4    3.809758415567920E-3    9.890092929030856E-4    3.882788404817609E-3    4.163602515698139E-1   -1.750498010091320E-1
 8.117101600800000E9     5.060886548015988E-1   -2.331280476871072E-2    9.163790376764437E-4    3.792674010947661E-3    1.022488212110324E-3    3.858214330883725E-3    4.162431475118970E-1   -1.751815801451500E-1
 8.117104748950000E9     5.061491357698339E-1   -2.361384503311404E-2    9.489631259150918E-4    3.796536028330566E-3    1.008396781217588E-3    3.891906048247770E-3    4.163105375816902E-1   -1.755066865192291E-1
 8.117107897100000E9     5.059315217449287E-1   -2.385331149949290E-2    9.447458389663362E-4    3.809404237087516E-3    9.908451489736626E-4    3.860715223176063E-3    4.161735505228262E-1   -1.757365742114466E-1
 8.117111045250000E9     5.059516192229915E-1   -2.420374800822013E-2    9.584220501325556E-4    3.826987149994544E-3    1.006033084250741E-3    3.862532674326980E-3    4.160369104297542E-1   -1.758861659241538E-1
 8.117114193400000E9     5.059882945462242E-1   -2.433307321457001E-2    9.243576091237582E-4    3.820569041991962E-3    1.022292828545357E-3    3.853492389615843E-3    4.159539651827948E-1   -1.759671248547231E-1
 8.117117341550000E9     5.060977945132625E-1   -2.473347514785562E-2    9.692704932147412E-4    3.814332919058755E-3    1.003588762505245E-3    3.877309828615212E-3    4.159546566999512E-1   -1.762895272234764E-1
 8.117120489700000E9     5.059599367160635E-1   -2.483210191283877E-2    9.785659840610176E-4    3.835060741471392E-3    1.023531786048208E-3    3.862386032568208E-3    4.157895922773480E-1   -1.764349250227844E-1
 8.117123637850000E9     5.059949587671165E-1   -2.510605653772969E-2    9.641883591425532E-4    3.798496384233593E-3    1.009028363515847E-3    3.854750621320037E-3    4.157501179692175E-1   -1.765531830166338E-1
 8.117126786000000E9     5.059992690816985E-1   -2.541570103426767E-2    9.552779104560728E-4    3.819836972566885E-3    1.023086825359251E-3    3.893069133003577E-3    4.156554753359163E-1   -1.767836964231551E-1
 8.117129934150000E9     5.058974429937871E-1   -2.562929997080649E-2    9.501682834852165E-4    3.828320160114033E-3    1.037585686065628E-3    3.933720180824651E-3    4.156822243115100E-1   -1.769753868578706E-1
 8.117133082300000E9     5.059133277302897E-1   -2.598985144997857E-2    9.481738743188072E-4    3.832512214122993E-3    1.037370224253689E-3    3.895017958481179E-3    4.154998870265483E-1   -1.770984770535966E-1
 8.117136230450000E9     5.058750578948574E-1   -2.617476366788068E-2    9.700607841367921E-4    3.823753139558220E-3    1.015452774074801E-3    3.935773013909253E-3    4.154253328044704E-1   -1.774321068074110E-1
 8.117139378600000E9     5.056813708695538E-1   -2.653544489028627E-2    9.745048668872036E-4    3.831761201416169E-3    1.070596900731491E-3    3.952882723858285E-3    4.154133855083922E-1   -1.775901991628272E-1
 8.117142526750000E9     5.057822488684678E-1   -2.672137567280594E-2    9.667223260563629E-4    3.833032251300520E-3    1.001411057091191E-3    3.919094505287693E-3    4.152621018658655E-1   -1.778825119862013E-1
 8.117145674900000E9     5.057314520919808E-1   -2.707016859811655E-2    9.652027348401947E-4    3.837189168415422E-3    1.028295970577447E-3    3.907018219627748E-3    4.152916281331892E-1   -1.780269517029468E-1
 8.117148823050000E9     5.057554849608963E-1   -2.725243067426664E-2    9.755633405590371E-4    3.842986261004976E-3    1.027119583780796E-3    3.937144565435720E-3    4.150816221681813E-1   -1.782792742718984E-1
 8.117151971200000E9     5.057783898952225E-1   -2.747067685753676E-2    9.893062540405565E-4    3.855149629915782E-3    1.023239703472183E-3    3.943755126237392E-3    4.151080125488956E-1   -1.784114089163764E-1
 8.117155119350000E9     5.056714220540938E-1   -2.764541906533026E-2    1.003166150900589E-3    3.837972545673393E-3    1.040998053076760E-3    3.890076063385790E-3    4.150307597704976E-1   -1.786793197685607E-1
 8.117158267500000E9     5.057248987689821E-1   -2.803367458421397E-2    9.876646652759637E-4    3.843253810326956E-3    1.063550075728141E-3    3.952488746508098E-3    4.150066945800028E-1   -1.788170675848146E-1
 8.117161415650000E9     5.058430167925729E-1   -2.810628048755712E-2    1.024380891197359E-3    3.888461380672760E-3    1.057386957140768E-3    3.940745002190563E-3    4.148401992755711E-1   -1.791735221007553E-1
 8.117164563800000E9     5.056190867878335E-1   -2.846012488369424E-2    1.000364343908864E-3    3.874648818849331E-3    1.062570164272625E-3    3.961047119619645E-3    4.147657298130261E-1   -1.792939876949388E-1
 8.117167711950000E9     5.056250084620234E-1   -2.876989340993897E-2    9.949501073848734E-4    3.863412757397960E-3    1.091623246491090E-3    3.971541757569081E-3    4.146024793791150E-1   -1.796185391215522E-1
 8.117170860100000E9     5.056311825897433E-1   -2.903438379852737E-2    1.007436046669154E-3    3.890366792017346E-3    1.067497556965115E-3    3.942442137550982E-3    4.146530786263053E-1   -1.796007745437802E-1
 8.117174008250000E9     5.057062996772594E-1   -2.919442110350728E-2    1.018185387167921E-3    3.896947583736709E-3    1.063000506007854E-3    3.903393886435076E-3    4.143811657455423E-1   -1.798881125773800E-1
 8.117177156400000E9     5.056418489224752E-1   -2.958697384816348E-2    1.019032084194053E-3    3.874985845669289E-3    1.071363202377682E-3    3.952326916812853E-3    4.143994502110490E-1   -1.800431186702534E-1
 8.117180304550000E9     5.056454177828377E-1   -2.967738339016851E-2    9.996410773639229E-4    3.882274266065320E-3    1.088157668903199E-3    4.024667160610841E-3    4.143011692243522E-1   -1.802817576407688E-1
 8.117183452700000E9     5.055065640705843E-1   -3.001486838190475E-2    1.007504251961953E-3    3.902204426398588E-3    1.072524279538519E-3    3.916321337860013E-3    4.143147276979241E-1   -1.805450581446981E-1
 8.117186600850000E9     5.055702090437242E-1   -3.019405334446946E-2    1.006366497506398E-3    3.908693975869211E-3    1.065423033081993E-3    3.951374145113458E-3    4.141885352845570E-1   -1.806576020849076E-1
 8.117189749000000E9     5.056058967186259E-1   -3.052642801668995E-2    1.028511639030723E-3    3.908753135117198E-3    1.068519784622843E-3    3.919154884260129E-3    4.141151794594226E-1   -1.808181834945070E-1
 8.117192897150000E9     5.053857832719068E-1   -3.072065008452195E-2    1.057072355832822E-3    3.880382977901970E-3    1.072530107524986E-3    3.984686929023923E-3    4.139277752083242E-1   -1.811058618383574E-1
 8.117196045300000E9     5.055615013990840E-1   -3.098073628334505E-2    1.031581876450960E-3    3.903576936517259E-3    1.101746007843187E-3    3.955300133806417E-3    4.138622129769521E-1   -1.813695295945958E-1
 8.117199193450000E9     5.054086602361916E-1   -3.124216825134573E-2    1.042021300840744E-3    3.888964774788350E-3    1.099125734741133E-3    4.019131472054475E-3    4.138640834842929E-1   -1.815912004309865E-1
 8.117202341600000E9     5.053941557701580E-1   -3.149016639185475E-2    1.047894685799553E-3    3.909405644512115E-3    1.103585293027998E-3    3.975880976137601E-3    4.138458004717637E-1   -1.818559180692008E-1
 8.117205489750000E9     5.053481485241098E-1   -3.173992567659135E-2    1.049750231295548E-3    3.886385511283618E-3    1.107686514122777E-3    4.005364517014229E-3    4.136623927660358E-1   -1.820312987441389E-1
 8.117208637900000E9     5.054189889038619E-1   -3.203986581754988E-2    1.040259000075164E-3    3.908613905624205E-3    1.123065455999846E-3    4.021527240560032E-3    4.135746550117670E-1   -1.822459350718086E-1
 8.117211786050000E9     5.053593980898091E-1   -3.224825940047718E-2    1.047987750263119E-3    3.959829081900590E-3    1.113855661025849E-3    3.991972592142397E-3    4.137055945101429E-1   -1.824242238021885E-1
 8.117214934200000E9     5.053742085364102E-1   -3.257109045096788E-2    1.067341254954584E-3    3.929803508249174E-3    1.150717780724578E-3    3.973817563326175E-3    4.133663148220079E-1   -1.825484771084014E-1
 8.117218082350000E9     5.053682935870533E-1   -3.278861421219203E-2    1.072256885747766E-3    3.922131084597321E-3    1.103709397417944E-3    4.035875964638733E-3    4.132548154561982E-1   -1.828949540842010E-1
 8.117221230500000E9     5.052291674350889E-1   -3.299035385761287E-2    1.074192114390510E-3    3.941820175611972E-3    1.162269750593409E-3    4.012667555482644E-3    4.133405048516768E-1   -1.830344544258391E-1
 8.117224378650000E9     5.052728578659688E-1   -3.331059725778237E-2    1.069862562387365E-3    3.926725685695358E-3    1.103708265399264E-3    4.018629504269247E-3    4.131158722238810E-1   -1.832621345334138E-1
 8.117227526800000E9     5.052314673779686E-1   -3.353599595457659E-2    1.093934699660062E-3    3.952199298384887E-3    1.157876109121652E-3    4.010031804135186E-3    4.131515030978788E-1   -1.835364163446501E-1
 8.117230674950000E9     5.052892683508962E-1   -3.379320863881050E-2    1.110483940455096E-3    3.949660853115589E-3    1.136335921037957E-3    4.009143439234474E-3    4.131896174822343E-1   -1.836193663852958E-1
 8.117233823100000E9     5.050389581975674E-1   -3.408864476244339E-2    1.112165313593465E-3    3.962901054883071E-3    1.187796165685724E-3    4.033075819795311E-3    4.129414106197414E-1   -1.838080778211055E-1
 8.117236971250000E9     5.051489745364762E-1   -3.426892822827324E-2    1.079486089465420E-3    3.959780454742371E-3    1.163521487872227E-3    4.045294846220817E-3    4.128837299420691E-1   -1.840218412134543E-1
 8.117240119400000E9     5.051788052104127E-1   -3.457146304849369E-2    1.092591679133662E-3    3.969220288777672E-3    1.133172268281139E-3    4.053954463438742E-3    4.129632764566160E-1   -1.841064443612818E-1
 8.117243267550000E9     5.050809530250060E-1   -3.489620580416317E-2    1.082703567370550E-3    3.956593871592405E-3    1.200348070548822E-3    4.062242191929696E-3    4.126582904747569E-1   -1.843774411996052E-1
 8.117246415700000E9     5.050767606742549E-1   -3.521993009014943E-2    1.094580682033342E-3    3.959057634880087E-3    1.174561698745375E-3    4.033638773722501E-3    4.125834262317347E-1   -1.845564244187609E-1
 8.117249563850000E9     5.052256603168721E-1   -3.546889220128562E-2    1.121880371810847E-3    3.982671656115412E-3    1.195924570216145E-3    4.011341659659540E-3    4.126181855481661E-1   -1.846927151119937E-1
 8.117252712000000E9     5.048965300027778E-1   -3.563828056136742E-2    1.132294960568575E-3    3.973849278336182E-3    1.186013792419159E-3    4.075973531436408E-3    4.125437971028056E-1   -1.851151998688209E-1
 8.117255860150000E9     5.049451809367432E-1   -3.586426703507406E-2    1.123150272601656E-3    4.000903450182906E-3    1.153396804759478E-3    4.088682701133132E-3    4.122799720578068E-1   -1.852641023584872E-1
 8.117259008300000E9     5.050920024970476E-1   -3.625236991239347E-2    1.121899135441612E-3    4.003337753967544E-3    1.174671015628624E-3    4.036538584776219E-3    4.122735656563002E-1   -1.856087893278681E-1
 8.117262156450000E9     5.049172426856152E-1   -3.639176629613816E-2    1.119019977319658E-3    3.988913567517924E-3    1.174004693958739E-3    4.084104172084178E-3    4.123015482566568E-1   -1.856416936224844E-1
 8.117265304600000E9     5.049907812534487E-1   -3.659578069231957E-2    1.145468451864364E-3    3.997106024831774E-3    1.198627547850588E-3    4.068309292502594E-3    4.122244241820353E-1   -1.858923178954300E-1
 8.117268452750000E9     5.049011485203785E-1   -3.693726374964484E-2    1.133012103952259E-3    3.994015242724667E-3    1.192204582380373E-3    4.089216932458502E-3    4.120430160033183E-1   -1.860713303411248E-1
 8.117271600900000E9     5.048625167828208E-1   -3.723609169589671E-2    1.148384295532043E-3    3.997860280233270E-3    1.197767411081337E-3    4.082487777467851E-3    4.119544179098591E-1   -1.862803065539523E-1
 8.117274749050000E9     5.047699421047156E-1   -3.739841959115991E-2    1.171705857551101E-3    4.010965564323916E-3    1.183170499745268E-3    4.095187080749480E-3    4.118587794196335E-1   -1.863948028468907E-1
 8.117277897200000E9     5.048376339535162E-1   -3.770786747063878E-2    1.140479876511404E-3    4.029522919867370E-3    1.201847151536395E-3    4.113307152893788E-3    4.118090583528614E-1   -1.867208513711157E-1
 8.117281045350000E9     5.047255933095282E-1   -3.801185411268222E-2    1.149331480585168E-3    4.034490111819903E-3    1.186586411472197E-3    4.100730274827523E-3    4.116736844608967E-1   -1.868144861035828E-1
 8.117284193500000E9     5.047728792822118E-1   -3.830013128010212E-2    1.193745908718696E-3    4.054535258465432E-3    1.231447851818321E-3    4.107872186137721E-3    4.116424227086662E-1   -1.870720872354156E-1
 8.117287341650000E9     5.047203615298599E-1   -3.841461378255159E-2    1.163467187295715E-3    4.078849936343804E-3    1.221641612124162E-3    4.119888289441886E-3    4.116193737315061E-1   -1.872933257531396E-1
 8.117290489800000E9     5.046665886071341E-1   -3.876443916006631E-2    1.176459560865694E-3    4.057777917637478E-3    1.286528141595882E-3    4.120900177382240E-3    4.114878487556946E-1   -1.875154946853715E-1
 8.117293637950000E9     5.046488978711594E-1   -3.906795499895342E-2    1.179225042274639E-3    4.048809896577949E-3    1.230208666362563E-3    4.073283818863668E-3    4.113922571488511E-1   -1.876827442503824E-1
 8.117296786100000E9     5.046140216569203E-1   -3.941059162019041E-2    1.202108532669422E-3    4.073043792058518E-3    1.220216881938788E-3    4.157536846437908E-3    4.112337702676038E-1   -1.879504332365359E-1
 8.117299934250000E9     5.044691193135376E-1   -3.963727269266869E-2    1.218174834854371E-3    4.050182962874032E-3    1.203027057165171E-3    4.164552028126852E-3    4.112624866681647E-1   -1.881512398212423E-1
 8.117303082400000E9     5.043606074745778E-1   -3.985063350738131E-2    1.194176608783982E-3    4.086117690166303E-3    1.263751737736459E-3    4.140019012213485E-3    4.112396413937659E-1   -1.882399646330148E-1
 8.117306230550000E9     5.044949635078155E-1   -4.007314946030294E-2    1.205124769092772E-3    4.101586859510234E-3    1.292050065915652E-3    4.158359720840144E-3    4.111410706674086E-1   -1.884740383876238E-1
 8.117309378700000E9     5.044286075479876E-1   -4.038406377008787E-2    1.205194292793804E-3    4.072449994052316E-3    1.221163320816012E-3    4.128046116404812E-3    4.110462919094101E-1   -1.886704370027904E-1
 8.117312526850000E9     5.043968401925043E-1   -4.070291932987288E-2    1.208943249497697E-3    4.095090825259286E-3    1.302596037078100E-3    4.133569179953171E-3    4.110032414615153E-1   -1.888801327391533E-1
 8.117315675000000E9     5.043022237205873E-1   -4.088214382067134E-2    1.205813858899607E-3    4.122392297342700E-3    1.251987181370678E-3    4.188108242015862E-3    4.108895960084018E-1   -1.890510525113664E-1
 8.117318823150000E9     5.042402482346202E-1   -4.120357105796302E-2    1.219498532999849E-3    4.086392286095890E-3    1.296122310157939E-3    4.187436651625836E-3    4.107249158338067E-1   -1.892230948656847E-1
 8.117321971300000E9     5.043829218837138E-1   -4.140786628247144E-2    1.185282740306801E-3    4.113577142934598E-3    1.290129474177528E-3    4.203565221912248E-3    4.105794480866195E-1   -1.895620082871636E-1
 8.117325119450000E9     5.042668476989955E-1   -4.180265079137409E-2    1.238049418507980E-3    4.132576264648326E-3    1.282059116552916E-3    4.199686551339593E-3    4.105825620188538E-1   -1.896716035902789E-1
 8.117328267600000E9     5.042652898692507E-1   -4.199688994644499E-2    1.242363158059045E-3    4.120555573109255E-3    1.291784323680125E-3    4.162355368746271E-3    4.105646132093993E-1   -1.899288306243840E-1
 8.117331415750000E9     5.040930491031664E-1   -4.219912727883824E-2    1.267778794393292E-3    4.137010909496969E-3    1.292808361719454E-3    4.196248648411251E-3    4.104651705624541E-1   -1.901931795813473E-1
 8.117334563900000E9     5.041561061301418E-1   -4.257843388800892E-2    1.259636580973684E-3    4.143993522642360E-3    1.310869468497633E-3    4.185214141399365E-3    4.102506068832441E-1   -1.903180565062162E-1
 8.117337712050000E9     5.040811225470142E-1   -4.274647266269523E-2    1.254966846470281E-3    4.141013986940193E-3    1.336571274768044E-3    4.201283570874945E-3    4.102242278482104E-1   -1.905934976657196E-1
 8.117340860200000E9     5.040748668089260E-1   -4.307594017125276E-2    1.263624902962905E-3    4.162589277565532E-3    1.347200763396749E-3    4.238923914740220E-3    4.101878498249859E-1   -1.908386720018366E-1
 8.117344008350000E9     5.040253938635436E-1   -4.339206675673611E-2    1.276894842222608E-3    4.157356323806753E-3    1.356261718809057E-3    4.245161437597171E-3    4.099695698988967E-1   -1.909826837981060E-1
 8.117347156500000E9     5.039801710503885E-1   -4.358285933253671E-2    1.285910441431278E-3    4.158693680870457E-3    1.358694095184705E-3    4.224433182431026E-3    4.099124321264516E-1   -1.911294877815659E-1
