#  HZ   S   RI   R     50.00 
! Rohde & Schwarz Vector Network Analyzer 
! Rohde-Schwarz,ZNB20-2Port,1311601062101988,3.16
! Created: UTC 3/20/2024, 12:01:39 PM
! freq[Hz]                re:S11                  im:S11                  re:S21                  im:S21                  re:S12                  im:S12                  re:S22                  im:S22
 8.117132973000000E9     5.059827355692093E-1   -2.561161328436309E-2    9.350687048388558E-4    3.814820412434037E-3    9.758313409014833E-4    3.852585104968484E-3    4.154805165152607E-1   -1.773819895653850E-1
 8.117135865325000E9     5.060495664389334E-1   -2.581075360904216E-2    9.375121777952205E-4    3.835910949707306E-3    9.968136488083743E-4    3.892987049947672E-3    4.154401451876919E-1   -1.775424850577690E-1
 8.117138757650000E9     5.059385323939670E-1   -2.614358719207387E-2    9.843804907131060E-4    3.799390591363916E-3    1.017907675724170E-3    3.891307298672545E-3    4.152636419448870E-1   -1.778397763184853E-1
 8.117141649975000E9     5.058578495326969E-1   -2.640419055190112E-2    9.626870447530696E-4    3.837789597813969E-3    1.017000248069565E-3    3.906528111841390E-3    4.152556469585902E-1   -1.780398477450873E-1
 8.117144542300000E9     5.059096340088984E-1   -2.661357160396694E-2    9.742616923980506E-4    3.861633578443349E-3    1.040465151197577E-3    3.884180026864489E-3    4.153044080851431E-1   -1.780614765484115E-1
 8.117147434625000E9     5.059670460249345E-1   -2.688346127330821E-2    9.653914397015079E-4    3.823526053955791E-3    1.010706866687105E-3    3.903835334827353E-3    4.151519071461452E-1   -1.783079467230164E-1
 8.117150326950000E9     5.059403252463285E-1   -2.715441728915028E-2    9.657662703965119E-4    3.818459917168219E-3    9.945137993130769E-4    3.902253762704052E-3    4.151349831742160E-1   -1.785010916462978E-1
 8.117153219275000E9     5.058237964512882E-1   -2.735325918010137E-2    9.664553545165663E-4    3.837791828172570E-3    1.013966262142105E-3    3.900106052998334E-3    4.149621015478002E-1   -1.786741339981403E-1
 8.117156111600000E9     5.058812908229984E-1   -2.751175675520128E-2    9.872015811234582E-4    3.854410647461841E-3    9.966702036859232E-4    3.912923670290078E-3    4.150484819487388E-1   -1.787875862537110E-1
 8.117159003925000E9     5.058572636647811E-1   -2.785157579214123E-2    9.803705392185994E-4    3.829290111502017E-3    1.041763084033430E-3    3.912907317864848E-3    4.147789143449719E-1   -1.791655847274064E-1
 8.117161896250000E9     5.057550797614514E-1   -2.809242820160092E-2    9.801878670479339E-4    3.851299919428391E-3    1.060855376853271E-3    3.919936395194674E-3    4.147645870088341E-1   -1.792758306750903E-1
 8.117164788575000E9     5.057864407872363E-1   -2.824231750755381E-2    9.874524133956326E-4    3.854907830926989E-3    1.014682945302791E-3    3.914541464946420E-3    4.148084975792002E-1   -1.794011924101929E-1
 8.117167680900000E9     5.056975391683548E-1   -2.838895805391995E-2    9.906738655650518E-4    3.857610876394658E-3    1.071892305546158E-3    3.975194594632063E-3    4.145947229117533E-1   -1.796146734955647E-1
 8.117170573225000E9     5.058589383612309E-1   -2.867219874376197E-2    9.735496540965708E-4    3.858933760365647E-3    1.022451721553530E-3    3.881827312371971E-3    4.145587166127666E-1   -1.798277193745436E-1
 8.117173465550000E9     5.058233548669993E-1   -2.892302484497258E-2    9.863521734283416E-4    3.866622862728551E-3    1.053373233367692E-3    3.930699488586163E-3    4.145762022753333E-1   -1.800803176712836E-1
 8.117176357875000E9     5.057466292303701E-1   -2.924668691661584E-2    1.008879445113076E-3    3.871717365860808E-3    1.027478223490831E-3    3.923980568988638E-3    4.144086669290877E-1   -1.800382811218651E-1
 8.117179250200000E9     5.057916756450143E-1   -2.950659889193187E-2    9.941507383653804E-4    3.886060544660729E-3    1.055517795766765E-3    3.955764015216729E-3    4.144090021168997E-1   -1.802641383945753E-1
 8.117182142525000E9     5.056452779746357E-1   -2.963446668657644E-2    1.021651932754710E-3    3.872692156874270E-3    1.072899100876594E-3    3.892749234237684E-3    4.143114645350099E-1   -1.805264970366573E-1
 8.117185034850000E9     5.056279614640267E-1   -2.993194594953651E-2    1.035148109745268E-3    3.876152789789695E-3    1.044499691500702E-3    3.929970184258180E-3    4.141310991883357E-1   -1.807213473807531E-1
 8.117187927175000E9     5.057507417818415E-1   -3.014709449514415E-2    1.019070475613164E-3    3.887256911743462E-3    1.029037032308367E-3    3.943149794148588E-3    4.141480529694071E-1   -1.809131734697421E-1
 8.117190819500000E9     5.057305126370775E-1   -3.038029983849023E-2    1.008195691328762E-3    3.875546203451248E-3    1.073716372645641E-3    3.964842622050961E-3    4.141099070553818E-1   -1.811561310570336E-1
 8.117193711825000E9     5.056054482544279E-1   -3.065973674780529E-2    1.018940930002390E-3    3.863205447881164E-3    1.066743071821168E-3    3.947682268139970E-3    4.140480359832644E-1   -1.812768121434080E-1
 8.117196604150000E9     5.055375994734334E-1   -3.084912489387943E-2    1.032109154991791E-3    3.892004751510738E-3    1.064287296624632E-3    3.970854849843618E-3    4.139892542820501E-1   -1.814367653005546E-1
 8.117199496475000E9     5.056231746207329E-1   -3.100150509107973E-2    1.037357342677587E-3    3.895500084117211E-3    1.079387240833726E-3    3.934127710675962E-3    4.139654696160049E-1   -1.816774905754294E-1
 8.117202388800000E9     5.055330560312528E-1   -3.119347796167655E-2    1.043160058189587E-3    3.887789391038256E-3    1.096940565415605E-3    3.958343759214715E-3    4.138555166900707E-1   -1.817528040366943E-1
 8.117205281125000E9     5.055360553229648E-1   -3.153471835773568E-2    1.061703791191054E-3    3.878989276945115E-3    1.080610947263852E-3    3.975980019009458E-3    4.137537542034049E-1   -1.819749020815692E-1
 8.117208173450000E9     5.054169102309723E-1   -3.165819685418780E-2    1.043897805496912E-3    3.897721117627780E-3    1.075023291321951E-3    3.942283492875100E-3    4.137039755823148E-1   -1.822488370835540E-1
 8.117211065775000E9     5.055795551462773E-1   -3.193751270151528E-2    1.044274042492567E-3    3.901059251031893E-3    1.116482563998932E-3    4.001188752917568E-3    4.135596818210701E-1   -1.823549964324834E-1
 8.117213958100000E9     5.055381165761031E-1   -3.227051584991605E-2    1.033419450184516E-3    3.895681745637996E-3    1.080316271531341E-3    3.992708964264089E-3    4.133634462629407E-1   -1.826522504969455E-1
 8.117216850425000E9     5.055275255498219E-1   -3.247391059562057E-2    1.066064914623465E-3    3.903822019738097E-3    1.063065534997749E-3    3.956322094601722E-3    4.134383583075698E-1   -1.827028637067301E-1
 8.117219742750000E9     5.054273716387920E-1   -3.270020018451623E-2    1.052542732199185E-3    3.922530863105749E-3    1.097800531789385E-3    4.023897644140807E-3    4.132372576192055E-1   -1.830447344626193E-1
 8.117222635075000E9     5.053245239589256E-1   -3.298059101031955E-2    1.043253139286859E-3    3.926059623572490E-3    1.097919373372993E-3    4.020491936389469E-3    4.132349047215944E-1   -1.831322207890680E-1
 8.117225527400000E9     5.052902042670261E-1   -3.325914945792553E-2    1.053273793671593E-3    3.916363208133539E-3    1.087770128641525E-3    4.019412717666050E-3    4.132137798677036E-1   -1.833406311706435E-1
 8.117228419725000E9     5.053225368337049E-1   -3.347301724594613E-2    1.067197022591503E-3    3.925979592515449E-3    1.095441136329831E-3    3.978354310278030E-3    4.132535570129727E-1   -1.835350638446483E-1
 8.117231312050000E9     5.052112061591496E-1   -3.358971810634655E-2    1.073287583772512E-3    3.922787504182570E-3    1.119771111836502E-3    4.036692292653804E-3    4.130877538069878E-1   -1.836355208647736E-1
 8.117234204375000E9     5.052748499068642E-1   -3.385186737056387E-2    1.072258004298905E-3    3.927307871993136E-3    1.115133408092371E-3    4.013674512756078E-3    4.130401253409022E-1   -1.839826341619401E-1
 8.117237096700000E9     5.052244247962904E-1   -3.421457921517650E-2    1.077479300583596E-3    3.970462096404385E-3    1.141293836547912E-3    4.035462055689559E-3    4.129597272663760E-1   -1.840217770446914E-1
 8.117239989025000E9     5.053039688444159E-1   -3.426170170634633E-2    1.084206729798988E-3    3.950653384208632E-3    1.112400492674031E-3    4.076346754043352E-3    4.128648258336159E-1   -1.843423249216387E-1
 8.117242881350000E9     5.052396706802491E-1   -3.464491844098892E-2    1.062342432977156E-3    3.945118087437052E-3    1.121230480843181E-3    4.033651159540070E-3    4.128629384067561E-1   -1.845789818184376E-1
 8.117245773675000E9     5.051304493856406E-1   -3.490745004993011E-2    1.082915203227822E-3    3.926577891458522E-3    1.139090818668304E-3    4.019635750466695E-3    4.125878409808429E-1   -1.845466210550062E-1
 8.117248666000000E9     5.051718952867116E-1   -3.501665421589482E-2    1.107353853452414E-3    3.973764697475493E-3    1.172476573708780E-3    4.034388881956285E-3    4.126754892453853E-1   -1.848997611693625E-1
 8.117251558325000E9     5.052202921749676E-1   -3.534086300990193E-2    1.072797690555677E-3    3.962129232066686E-3    1.161300735294433E-3    3.994192366509357E-3    4.126388064805963E-1   -1.850810279685920E-1
 8.117254450650000E9     5.049865389434799E-1   -3.552164229539618E-2    1.085053363507588E-3    3.970375139519739E-3    1.139186555163323E-3    4.053961355605167E-3    4.124268977493619E-1   -1.852467865066829E-1
 8.117257342975000E9     5.050965578783558E-1   -3.587768016338770E-2    1.099342039145842E-3    3.966936388835379E-3    1.167029053574323E-3    4.057569793814868E-3    4.122443414629247E-1   -1.854735203605355E-1
 8.117260235300000E9     5.050158973185609E-1   -3.609003035011139E-2    1.128640000318035E-3    3.987682691969569E-3    1.159165446170054E-3    4.027188888064150E-3    4.122171969914303E-1   -1.855716236091583E-1
 8.117263127625000E9     5.051031224073090E-1   -3.644872782146254E-2    1.107941191685107E-3    3.973423163966999E-3    1.168604892334378E-3    4.039350565632513E-3    4.122733958228027E-1   -1.858191710633438E-1
 8.117266019950000E9     5.050326335122129E-1   -3.650963461636802E-2    1.120309891598637E-3    3.976747392748891E-3    1.202615621785052E-3    4.051040530153798E-3    4.120226309744658E-1   -1.861153541942260E-1
 8.117268912275000E9     5.049355737511008E-1   -3.677653895070118E-2    1.112494269407491E-3    3.959649129185863E-3    1.137854347870138E-3    4.052104271639552E-3    4.121639331755650E-1   -1.862201606796727E-1
 8.117271804600000E9     5.049179034706899E-1   -3.708731643977323E-2    1.140075443998429E-3    4.012654480761844E-3    1.162102690066339E-3    4.037039529624006E-3    4.120348509315588E-1   -1.862623083890058E-1
 8.117274696925000E9     5.049290972935453E-1   -3.730871982295661E-2    1.148503117091244E-3    3.996852179729014E-3    1.177592142299932E-3    4.077925510246029E-3    4.118859303163134E-1   -1.864077482860456E-1
 8.117277589250000E9     5.049488312478490E-1   -3.735508308738244E-2    1.138548058114548E-3    3.989990981386334E-3    1.208249175935688E-3    4.087747470942415E-3    4.118400417009450E-1   -1.866487580532350E-1
 8.117280481575000E9     5.049172940782757E-1   -3.777139841073383E-2    1.126848781513318E-3    4.008327029267527E-3    1.192976275224168E-3    4.101100385887296E-3    4.117946771885946E-1   -1.869118887502240E-1
 8.117283373900000E9     5.048681608123073E-1   -3.794490291801424E-2    1.149150709766235E-3    4.020601512128608E-3    1.198503822198050E-3    4.059862333426918E-3    4.116889483155844E-1   -1.871865239695592E-1
 8.117286266225000E9     5.047883781804875E-1   -3.825951493213440E-2    1.155796520718139E-3    4.009856885784804E-3    1.185137879009491E-3    4.071823350726068E-3    4.116117225717598E-1   -1.873398083604655E-1
 8.117289158550000E9     5.047602464132790E-1   -3.851288914582245E-2    1.152150719301627E-3    4.004936692497696E-3    1.217897396989080E-3    4.076046714835580E-3    4.115771584305311E-1   -1.874936841582964E-1
 8.117292050875000E9     5.047410817716793E-1   -3.863668692779317E-2    1.158107891832384E-3    4.030933872439781E-3    1.235841602272500E-3    4.068034607716098E-3    4.114241842694360E-1   -1.877066358105552E-1
 8.117294943200000E9     5.046664658511553E-1   -3.884169474551506E-2    1.177189509672651E-3    4.048101808156970E-3    1.214047577243477E-3    4.105492075910607E-3    4.113499052203740E-1   -1.878449025415648E-1
 8.117297835525000E9     5.048102293580755E-1   -3.922277188885408E-2    1.152168736848302E-3    4.045133552721326E-3    1.237985823863265E-3    4.108457186662395E-3    4.112559742589652E-1   -1.879471708238438E-1
 8.117300727850000E9     5.047478846051788E-1   -3.945592570038739E-2    1.188742913101281E-3    4.043019747287798E-3    1.190419143252433E-3    4.087055816985150E-3    4.112141439431468E-1   -1.882039323494271E-1
 8.117303620175000E9     5.046090179773500E-1   -3.964481859416741E-2    1.172665164687263E-3    4.051158955639319E-3    1.251902422168348E-3    4.107732874049855E-3    4.110105013306358E-1   -1.883526452592268E-1
 8.117306512500000E9     5.046603526814920E-1   -3.981480904113887E-2    1.191180479461523E-3    4.048281000269075E-3    1.237246251597561E-3    4.120380687761013E-3    4.110115069004298E-1   -1.886115886286734E-1
 8.117309404825000E9     5.044677392921659E-1   -4.012713815831234E-2    1.196847797498915E-3    4.033357958482494E-3    1.295821878821158E-3    4.140183858525566E-3    4.109075889187753E-1   -1.887959373420207E-1
 8.117312297150000E9     5.045185807941419E-1   -4.036471203870289E-2    1.189336307888854E-3    4.090296144742945E-3    1.257411027082115E-3    4.154878427002977E-3    4.107875434004051E-1   -1.889450378318251E-1
 8.117315189475000E9     5.046118107132315E-1   -4.057448610330608E-2    1.219291645312256E-3    4.056002415281659E-3    1.254371259500047E-3    4.148649758800577E-3    4.108742970251512E-1   -1.891661479067873E-1
 8.117318081800000E9     5.045437419650817E-1   -4.090704402868838E-2    1.210706410950202E-3    4.060658056837336E-3    1.240887471054517E-3    4.154333360517866E-3    4.106848168849622E-1   -1.892796256553252E-1
 8.117320974125000E9     5.044511902035842E-1   -4.105661108472199E-2    1.174345829823157E-3    4.079206580591278E-3    1.263321132508220E-3    4.158250166138749E-3    4.106009347223112E-1   -1.895074395277676E-1
 8.117323866450000E9     5.043167376427781E-1   -4.125866635895820E-2    1.208895225502524E-3    4.079075308964555E-3    1.267862514758382E-3    4.132066506927640E-3    4.105518837486790E-1   -1.898285243564289E-1
 8.117326758775000E9     5.043519558160913E-1   -4.159298129699911E-2    1.244150733379923E-3    4.108398662657082E-3    1.237502532275494E-3    4.195017412473090E-3    4.104784798395349E-1   -1.899827207724282E-1
 8.117329651100000E9     5.043678647782489E-1   -4.184999376730689E-2    1.226318011869232E-3    4.116263636001858E-3    1.317323392079968E-3    4.166771164193281E-3    4.103905011542611E-1   -1.901394647695959E-1
 8.117332543425000E9     5.044147200362360E-1   -4.200621982510893E-2    1.222684649117651E-3    4.087253325345369E-3    1.288857686031895E-3    4.181973147893194E-3    4.102476235799633E-1   -1.903590125814639E-1
 8.117335435750000E9     5.043247178306433E-1   -4.240448981241531E-2    1.252978069975405E-3    4.142971114475843E-3    1.267688410401509E-3    4.210614072683671E-3    4.101636305445067E-1   -1.904890831409253E-1
 8.117338328075000E9     5.042736896062961E-1   -4.263221421665132E-2    1.231575274788090E-3    4.098741806604035E-3    1.321511774079500E-3    4.174769445365308E-3    4.101194202599435E-1   -1.906837240264241E-1
 8.117341220400000E9     5.042093194526330E-1   -4.280239527437445E-2    1.214719608385946E-3    4.103994995964974E-3    1.327457689594303E-3    4.165106448790216E-3    4.100973521217200E-1   -1.909457680885647E-1
 8.117344112725000E9     5.042497879873185E-1   -4.317692352830203E-2    1.278826992818472E-3    4.120119314455169E-3    1.317017125113603E-3    4.220963674384167E-3    4.100237091749636E-1   -1.910000510584587E-1
 8.117347005050000E9     5.041216517042552E-1   -4.328026215317404E-2    1.254773237048255E-3    4.163929777753477E-3    1.316736803749456E-3    4.242778371100321E-3    4.099640908919081E-1   -1.912949748482701E-1
 8.117349897375000E9     5.041175166312684E-1   -4.353176155847955E-2    1.243430816867345E-3    4.149972357051022E-3    1.350871010299246E-3    4.201629801305431E-3    4.097847251386082E-1   -1.913955143369676E-1
 8.117352789700000E9     5.041308798139542E-1   -4.380061120798430E-2    1.254754139330770E-3    4.141933328339187E-3    1.311895231076537E-3    4.190491284934390E-3    4.098448984104719E-1   -1.916305296835597E-1
 8.117355682025000E9     5.040163895659878E-1   -4.405224229501282E-2    1.274068378831369E-3    4.153953759492746E-3    1.377094407465200E-3    4.233211472723766E-3    4.097216399473007E-1   -1.917657720888785E-1
 8.117358574350000E9     5.040320114917428E-1   -4.430376573748684E-2    1.290194567285396E-3    4.170277346070996E-3    1.337106111606538E-3    4.243888286680489E-3    4.097139085029030E-1   -1.918387582088655E-1
 8.117361466675000E9     5.038852285588852E-1   -4.457546752115529E-2    1.258238461649018E-3    4.172429698278161E-3    1.384232826117110E-3    4.280095968959400E-3    4.095588692150559E-1   -1.922278233161704E-1
 8.117364359000000E9     5.039860861407456E-1   -4.490336962194261E-2    1.302125353747323E-3    4.170283260995009E-3    1.351257489302008E-3    4.256220876858336E-3    4.093924199113382E-1   -1.923485102063534E-1
 8.117367251325000E9     5.039633695474056E-1   -4.509504512892375E-2    1.300787090620115E-3    4.218317632575156E-3    1.359663446606757E-3    4.281705605802672E-3    4.094307409281290E-1   -1.924970715179895E-1
 8.117370143650000E9     5.040271279491729E-1   -4.533942871042384E-2    1.306763528476226E-3    4.216165313991121E-3    1.351927462961449E-3    4.240502541000081E-3    4.091485064539018E-1   -1.927058917477522E-1
 8.117373035975000E9     5.037485550694726E-1   -4.553308176634718E-2    1.312188455427716E-3    4.231604799723360E-3    1.345203131335361E-3    4.302746533670517E-3    4.092607275896259E-1   -1.929878175181731E-1
 8.117375928300000E9     5.038516031034118E-1   -4.593594528093617E-2    1.306557172449330E-3    4.180225846191796E-3    1.382492903138536E-3    4.281527264688516E-3    4.091691742235076E-1   -1.932329524477908E-1
 8.117378820625000E9     5.037727726844229E-1   -4.618075806695482E-2    1.299208068403269E-3    4.216539943682196E-3    1.377969382240112E-3    4.298135894529637E-3    4.091334994482900E-1   -1.931542276611884E-1
 8.117381712950000E9     5.036779393137554E-1   -4.631319115464099E-2    1.310605981993604E-3    4.236520075816360E-3    1.388536236162978E-3    4.337400908688153E-3    4.089105549614408E-1   -1.934073651762050E-1
 8.117384605275000E9     5.035825069132266E-1   -4.653380086067790E-2    1.324327771624875E-3    4.229021369515329E-3    1.364041529952143E-3    4.310059152701661E-3    4.087931427618046E-1   -1.936611736573471E-1
 8.117387497600000E9     5.037220883423575E-1   -4.691036694531805E-2    1.364346270604904E-3    4.251270862031577E-3    1.390075249838041E-3    4.315692905565664E-3    4.088419182108977E-1   -1.936536265335476E-1
 8.117390389925000E9     5.035938351152224E-1   -4.711710077026154E-2    1.350112768373179E-3    4.234280251443911E-3    1.459079911369018E-3    4.324663436556644E-3    4.088192647781372E-1   -1.939982912116038E-1
 8.117393282250000E9     5.036299321539282E-1   -4.742195806913534E-2    1.347841638406012E-3    4.278936804972221E-3    1.413026392578160E-3    4.324545193673828E-3    4.086766611765330E-1   -1.941900061562839E-1
