#  HZ   S   RI   R     50.00 
! Rohde & Schwarz Vector Network Analyzer 
! Rohde-Schwarz,ZNB20-2Port,1311601062101988,3.16
! Created: UTC 3/20/2024, 12:02:41 PM
! freq[Hz]                re:S11                  im:S11                  re:S21                  im:S21                  re:S12                  im:S12                  re:S22                  im:S22
 8.117238541000000E9     5.054897277480411E-1   -3.377333519960440E-2    1.042595956980457E-3    3.906311023398757E-3    1.179427828066244E-3    3.978836008382143E-3    4.129652698550437E-1   -1.843175049178584E-1
 8.117241065250000E9     5.054270828660755E-1   -3.399490850685784E-2    1.060555612388916E-3    3.928172316657976E-3    1.136528772079714E-3    4.003090241474816E-3    4.128089832017022E-1   -1.843480240938292E-1
 8.117243589500000E9     5.054461118594978E-1   -3.419885217902418E-2    1.057073663014861E-3    3.909523756824573E-3    1.121009340003218E-3    4.004460149769314E-3    4.128138561760288E-1   -1.844556472663997E-1
 8.117246113750000E9     5.054564664166060E-1   -3.437496943618253E-2    1.053099524363834E-3    3.902557182232582E-3    1.064065897541285E-3    3.955376711753594E-3    4.126430263168698E-1   -1.849449326615639E-1
 8.117248638000000E9     5.054183588926962E-1   -3.465092587199942E-2    1.069883595960610E-3    3.918812486681046E-3    1.091674350995940E-3    3.984901497283656E-3    4.127266972839940E-1   -1.849217414751164E-1
 8.117251162250000E9     5.054853808131188E-1   -3.492791839155376E-2    1.074432536479426E-3    3.964761850494702E-3    1.146186354898618E-3    3.981514715519201E-3    4.126467263616175E-1   -1.851397754941677E-1
 8.117253686500000E9     5.054802507739369E-1   -3.504950268309553E-2    1.084677709527686E-3    3.942152883865398E-3    1.109033741195116E-3    4.061356360469793E-3    4.127179696278634E-1   -1.853419421450643E-1
 8.117256210750000E9     5.054729965131649E-1   -3.510956861339668E-2    1.102233728485963E-3    3.926128898160345E-3    1.097990950900213E-3    3.977489888343717E-3    4.124983490089277E-1   -1.853680222267084E-1
 8.117258735000000E9     5.052697346984176E-1   -3.558793749066536E-2    1.075208750856366E-3    3.968478773900813E-3    1.148373276267677E-3    3.968682779714920E-3    4.124661120747760E-1   -1.855550947777646E-1
 8.117261259250000E9     5.053163794791904E-1   -3.565013394184487E-2    1.093805158706453E-3    3.958457010980835E-3    1.141387077933663E-3    4.035634245007021E-3    4.123603193163749E-1   -1.856667105589847E-1
 8.117263783500000E9     5.052926296942190E-1   -3.591133290568704E-2    1.079483180704198E-3    3.941906205762330E-3    1.112210413626346E-3    4.042558967921346E-3    4.122683717414379E-1   -1.857446390118747E-1
 8.117266307750000E9     5.053522719430384E-1   -3.607398754895078E-2    1.077876329606945E-3    3.950594987571520E-3    1.148662313447940E-3    4.016856202698300E-3    4.121190393813635E-1   -1.859312222899143E-1
 8.117268832000000E9     5.053518162744097E-1   -3.633371665770664E-2    1.081339874048603E-3    3.965437421489178E-3    1.162629518794848E-3    3.969215823319123E-3    4.121673349572370E-1   -1.862824887406541E-1
 8.117271356250000E9     5.052113822463231E-1   -3.650403161649412E-2    1.101415357123409E-3    3.980006303672084E-3    1.095145080436523E-3    4.032939629205035E-3    4.119731937248798E-1   -1.863946716690719E-1
 8.117273880500000E9     5.052431468186649E-1   -3.667767174480598E-2    1.100091417103311E-3    3.974355196884872E-3    1.163522891393171E-3    4.011522941155487E-3    4.119738470150127E-1   -1.864427114286008E-1
 8.117276404750000E9     5.053033126071648E-1   -3.683968462743369E-2    1.111151064470748E-3    3.985759735901988E-3    1.175294235832329E-3    4.023535121563709E-3    4.119982750999158E-1   -1.866737422108157E-1
 8.117278929000000E9     5.051532766833488E-1   -3.716964259190535E-2    1.121945663334801E-3    3.961736443187803E-3    1.165816780984280E-3    4.106301025168292E-3    4.119721492340331E-1   -1.868766336995171E-1
 8.117281453250000E9     5.052418635113700E-1   -3.744604409437771E-2    1.108513509765385E-3    3.971689616910798E-3    1.179967475853669E-3    3.996825216025776E-3    4.118717299296780E-1   -1.869685257068937E-1
 8.117283977500000E9     5.051047871021757E-1   -3.755876869975555E-2    1.129549282143408E-3    3.986638637692484E-3    1.177301088365580E-3    4.011462265569549E-3    4.116255210185717E-1   -1.871635533500001E-1
 8.117286501750000E9     5.051666927470562E-1   -3.775563130354299E-2    1.150820732438422E-3    3.949808414702590E-3    1.162370421563736E-3    4.066378315642265E-3    4.118791524450606E-1   -1.872920149953977E-1
 8.117289026000000E9     5.052278741299409E-1   -3.806998392963840E-2    1.122375092548463E-3    4.001715964878955E-3    1.174367356682704E-3    4.112356463487035E-3    4.116374532600945E-1   -1.875711452195174E-1
 8.117291550250000E9     5.050059467675628E-1   -3.821216653034763E-2    1.141372880076009E-3    3.974980042970436E-3    1.183269787683897E-3    4.058227840540763E-3    4.115907167000551E-1   -1.876937454285526E-1
 8.117294074500000E9     5.050607277095912E-1   -3.841157304599540E-2    1.125302411265644E-3    3.982200009766569E-3    1.172316326265086E-3    4.039662076960663E-3    4.114349851127499E-1   -1.877441286905497E-1
 8.117296598750000E9     5.050102780929610E-1   -3.863985398276421E-2    1.132083067154550E-3    4.006124007605152E-3    1.188808902620346E-3    4.119962912130410E-3    4.113504149589848E-1   -1.879426446198542E-1
 8.117299123000000E9     5.049888453698805E-1   -3.885974767802561E-2    1.119287879225384E-3    4.021045541881596E-3    1.123766593372785E-3    4.097739693041005E-3    4.112685126932307E-1   -1.882058321874099E-1
 8.117301647250000E9     5.050415123697415E-1   -3.915055430241399E-2    1.133894665418339E-3    3.985551347421131E-3    1.221592039730139E-3    4.075688928038248E-3    4.111461425713548E-1   -1.884556582816242E-1
 8.117304171500000E9     5.048774078959644E-1   -3.926293260482257E-2    1.144679554673595E-3    3.973473174369999E-3    1.217499977391179E-3    4.055855897575288E-3    4.112631650576002E-1   -1.885594371508465E-1
 8.117306695750000E9     5.048846745105323E-1   -3.951708717466001E-2    1.120537209672305E-3    4.051349043630185E-3    1.208840433656075E-3    4.114781716121476E-3    4.111608660868832E-1   -1.886891223918195E-1
 8.117309220000000E9     5.049921638150263E-1   -3.966744866825486E-2    1.149195271989636E-3    4.007495769873155E-3    1.178921023269495E-3    4.099744229068605E-3    4.112601424727652E-1   -1.888778538689349E-1
 8.117311744250000E9     5.048914663558376E-1   -3.986118232212491E-2    1.159420432022224E-3    4.028412752940433E-3    1.256015587102612E-3    4.063153757603402E-3    4.109237285583630E-1   -1.891594225884169E-1
 8.117314268500000E9     5.049640590537957E-1   -4.006790562928959E-2    1.158826060200462E-3    3.998784192134066E-3    1.210706864400997E-3    4.114683588550243E-3    4.108926351342040E-1   -1.892670370703353E-1
 8.117316792750000E9     5.047253268725206E-1   -4.030401938931232E-2    1.167178795699542E-3    4.043794439212374E-3    1.209127181375279E-3    4.131424690706416E-3    4.108786512270791E-1   -1.893461484328710E-1
 8.117319317000000E9     5.048201570637266E-1   -4.043433739381255E-2    1.173763350599821E-3    4.050614918936350E-3    1.195224217915678E-3    4.105153534214596E-3    4.107347026591214E-1   -1.894792244078069E-1
 8.117321841250000E9     5.046944518605110E-1   -4.075543085810131E-2    1.169572120011085E-3    4.044360182345994E-3    1.210379764386769E-3    4.110238883179136E-3    4.106884933253171E-1   -1.897113495388831E-1
 8.117324365500000E9     5.047608872939147E-1   -4.092026824258987E-2    1.154329415977226E-3    4.046716126044277E-3    1.236035224366141E-3    4.150806597874116E-3    4.107141831142897E-1   -1.897321980182518E-1
 8.117326889750000E9     5.046900765128803E-1   -4.108213634010496E-2    1.167196676259662E-3    4.034472504924004E-3    1.245542227696952E-3    4.107467896960594E-3    4.105569644680706E-1   -1.900529137677610E-1
 8.117329414000000E9     5.047630249008184E-1   -4.139462656166066E-2    1.179947160014581E-3    4.038979323995171E-3    1.242639859166492E-3    4.154855021594682E-3    4.105142245417025E-1   -1.901893844859564E-1
 8.117331938250000E9     5.047349686900713E-1   -4.156766070121209E-2    1.194933971523898E-3    4.069159406612548E-3    1.178450097591330E-3    4.145078618551746E-3    4.104935035942479E-1   -1.903083380266501E-1
 8.117334462500000E9     5.047619854821738E-1   -4.177921096764155E-2    1.178083353545658E-3    4.070624578665591E-3    1.227336713110026E-3    4.164960489495943E-3    4.103544534440361E-1   -1.906112150952313E-1
 8.117336986750000E9     5.046865278537669E-1   -4.205926732535594E-2    1.176201845348871E-3    4.069618858275959E-3    1.263103245715852E-3    4.138997962288039E-3    4.102015330356694E-1   -1.905327208577764E-1
 8.117339511000000E9     5.046414435548596E-1   -4.220126362384302E-2    1.195785813534052E-3    4.070864895340856E-3    1.241197424150813E-3    4.143120301305954E-3    4.102759109158802E-1   -1.908577871404145E-1
 8.117342035250000E9     5.046663563866240E-1   -4.238071688046842E-2    1.231956714405384E-3    4.061357612495367E-3    1.263197125961680E-3    4.159481024326395E-3    4.103350027921474E-1   -1.908705411180604E-1
 8.117344559500000E9     5.044608502372898E-1   -4.274824483758880E-2    1.192418197614492E-3    4.078818915723191E-3    1.266111022738858E-3    4.170395853561342E-3    4.100743756852853E-1   -1.911575742557219E-1
 8.117347083750000E9     5.045212222015794E-1   -4.292412827505580E-2    1.220384561014897E-3    4.080065577005105E-3    1.235341076044485E-3    4.156642849654357E-3    4.100512591693607E-1   -1.913204140964809E-1
 8.117349608000000E9     5.045992725477114E-1   -4.307378341545569E-2    1.214425565215134E-3    4.094465745589558E-3    1.313880977370834E-3    4.209080196484154E-3    4.099873041872965E-1   -1.914170074949908E-1
 8.117352132250000E9     5.045061385288339E-1   -4.331627412602024E-2    1.242440618488041E-3    4.100775556301895E-3    1.295153925287634E-3    4.181175508845085E-3    4.098407465756524E-1   -1.917009856066375E-1
 8.117354656500000E9     5.045976204555868E-1   -4.354692505102704E-2    1.220969830506185E-3    4.108590264286702E-3    1.262597640354499E-3    4.149557757779941E-3    4.098071328652851E-1   -1.916696765844410E-1
 8.117357180750000E9     5.044053917809738E-1   -4.380427128836252E-2    1.227431913153415E-3    4.135098064194687E-3    1.279042775079897E-3    4.134179123525357E-3    4.098020781651692E-1   -1.919224996503108E-1
 8.117359705000000E9     5.044214081271227E-1   -4.392526329937762E-2    1.243264049065527E-3    4.096851978622776E-3    1.304692229155075E-3    4.244417510340786E-3    4.098514819203614E-1   -1.921676706614218E-1
 8.117362229250000E9     5.043888416597558E-1   -4.418164597027544E-2    1.253767768437214E-3    4.131017007990656E-3    1.248210358641578E-3    4.212027881396510E-3    4.095973468049723E-1   -1.922850221147129E-1
 8.117364753500000E9     5.044325871779719E-1   -4.436812071103307E-2    1.246864919662775E-3    4.114465416188604E-3    1.290950759766031E-3    4.220392073811073E-3    4.095322006988156E-1   -1.924048275398909E-1
 8.117367277750000E9     5.043060701394940E-1   -4.444736210956516E-2    1.250322356846521E-3    4.125476208562443E-3    1.320999191467990E-3    4.222424378480543E-3    4.094871149078115E-1   -1.924616859540677E-1
 8.117369802000000E9     5.043642774686276E-1   -4.483865192936732E-2    1.252916324628957E-3    4.132517648263207E-3    1.293932617388112E-3    4.208535697948049E-3    4.095200218437236E-1   -1.927536414703083E-1
 8.117372326250000E9     5.041418704019149E-1   -4.504357195920240E-2    1.260485860901385E-3    4.134564747034298E-3    1.288260052426195E-3    4.184274646817706E-3    4.094450285948342E-1   -1.929697256041041E-1
 8.117374850500000E9     5.042371200922067E-1   -4.522382542762789E-2    1.264371399611318E-3    4.136087193911906E-3    1.321452548283756E-3    4.219451255602011E-3    4.092974856253406E-1   -1.932029043971330E-1
 8.117377374750000E9     5.041445534567675E-1   -4.532316771044372E-2    1.285983070734754E-3    4.121155505006049E-3    1.341022933771226E-3    4.258790378757315E-3    4.091721771636921E-1   -1.931638371698655E-1
 8.117379899000000E9     5.042108650496875E-1   -4.577561409487885E-2    1.265238881391757E-3    4.150966126473644E-3    1.321114936611420E-3    4.262027970908210E-3    4.091018354824351E-1   -1.934055005042013E-1
 8.117382423250000E9     5.040982184683136E-1   -4.591792127607752E-2    1.250725847092491E-3    4.173768633717131E-3    1.313938774600159E-3    4.221274298450089E-3    4.092530236145753E-1   -1.935487918988848E-1
 8.117384947500000E9     5.041238035630923E-1   -4.610605017504327E-2    1.311166754806499E-3    4.152510404137850E-3    1.343201243846311E-3    4.241043440840115E-3    4.089998268393948E-1   -1.937883690727765E-1
 8.117387471750000E9     5.040905861955516E-1   -4.643280210911478E-2    1.320331714498084E-3    4.190763117055519E-3    1.351856281021636E-3    4.278990898921627E-3    4.090486396090792E-1   -1.937983604085811E-1
 8.117389996000000E9     5.040346047526234E-1   -4.664813853606563E-2    1.317500225116367E-3    4.188895895856326E-3    1.375548893217814E-3    4.286411743057796E-3    4.088879689276979E-1   -1.939378447601757E-1
 8.117392520250000E9     5.040544669053943E-1   -4.679613494714253E-2    1.301575907788959E-3    4.189172656235852E-3    1.329286291059540E-3    4.273582438875305E-3    4.089156267396376E-1   -1.943841365710773E-1
 8.117395044500000E9     5.039672214283443E-1   -4.702455605443885E-2    1.311911023515045E-3    4.176613639663055E-3    1.380017373586696E-3    4.280465358023377E-3    4.087038702307444E-1   -1.944347091828477E-1
 8.117397568750000E9     5.039668861019125E-1   -4.727136704693317E-2    1.323382056490377E-3    4.210850991140281E-3    1.333032452651537E-3    4.306445232951414E-3    4.087067316225933E-1   -1.943682454953219E-1
 8.117400093000000E9     5.039426222627975E-1   -4.740442599574143E-2    1.318272246218324E-3    4.222198391306305E-3    1.354930944299853E-3    4.278527576452576E-3    4.085324156012280E-1   -1.946072922551110E-1
 8.117402617250000E9     5.038704152209221E-1   -4.767123146577343E-2    1.302146566377938E-3    4.232063773402102E-3    1.411695851149762E-3    4.313232236274376E-3    4.085911361501250E-1   -1.947735475089420E-1
 8.117405141500000E9     5.038704978364649E-1   -4.795274663475931E-2    1.338031360473503E-3    4.199439671422302E-3    1.371152422320564E-3    4.278778974293913E-3    4.083765799477910E-1   -1.949845795832991E-1
 8.117407665750000E9     5.036974960158093E-1   -4.811762451672971E-2    1.338993125931822E-3    4.223237205619337E-3    1.431136640185078E-3    4.319804547323188E-3    4.083613962995878E-1   -1.952643791909210E-1
 8.117410190000000E9     5.037960946690969E-1   -4.828636719404166E-2    1.339966510897289E-3    4.252988205448964E-3    1.439312440865471E-3    4.323611369153522E-3    4.082321710722869E-1   -1.953527755975748E-1
 8.117412714250000E9     5.037265673489975E-1   -4.855607187981795E-2    1.346779185270561E-3    4.260339723074632E-3    1.407429091761286E-3    4.307500906850496E-3    4.082266391478924E-1   -1.954061861685878E-1
 8.117415238500000E9     5.036773047902300E-1   -4.876004712118846E-2    1.343729895074648E-3    4.242238822143139E-3    1.471737206121532E-3    4.291875221758751E-3    4.080338178480046E-1   -1.956798198111147E-1
 8.117417762750000E9     5.036056785646309E-1   -4.898926676394633E-2    1.348867609562185E-3    4.262954451297384E-3    1.423804481132872E-3    4.360911857553045E-3    4.080757870391199E-1   -1.958578629228502E-1
 8.117420287000000E9     5.035891267543647E-1   -4.919916182931625E-2    1.370500960762104E-3    4.262529470907877E-3    1.406452752928815E-3    4.345335913154686E-3    4.079646669831217E-1   -1.961052329550465E-1
 8.117422811250000E9     5.035656839468521E-1   -4.943453519842168E-2    1.367632546989975E-3    4.284591647370222E-3    1.440074263070626E-3    4.323260077507078E-3    4.078943524860776E-1   -1.961228279121622E-1
 8.117425335500000E9     5.035038317499101E-1   -4.964428792145423E-2    1.388181207707625E-3    4.285927338673264E-3    1.416460397984861E-3    4.405772118669497E-3    4.078027558631890E-1   -1.963394684424535E-1
 8.117427859750000E9     5.034877521713634E-1   -4.989884893258652E-2    1.372672250932090E-3    4.276091548961072E-3    1.445182094360329E-3    4.354521270269407E-3    4.079438241010578E-1   -1.965747284250729E-1
 8.117430384000000E9     5.035147077287265E-1   -5.020328578757641E-2    1.383426797293498E-3    4.311933388902739E-3    1.412580463163551E-3    4.453240436016434E-3    4.076991253702503E-1   -1.967153438429667E-1
 8.117432908250000E9     5.036073319715952E-1   -5.039985057224031E-2    1.371869115243562E-3    4.322479968803152E-3    1.442925467686757E-3    4.342473304165991E-3    4.075093023337419E-1   -1.968580688340685E-1
 8.117435432500000E9     5.033403332101147E-1   -5.059038418920980E-2    1.426540792201243E-3    4.317959179884607E-3    1.471939940127768E-3    4.358464824454766E-3    4.075655024334317E-1   -1.969870060595159E-1
 8.117437956750000E9     5.033753154645462E-1   -5.090649094669064E-2    1.394859547196734E-3    4.320368834280802E-3    1.458762327644292E-3    4.402454857122882E-3    4.075105012339592E-1   -1.971177266993891E-1
 8.117440481000000E9     5.033778523851415E-1   -5.102105897428880E-2    1.436208111323610E-3    4.341802631203697E-3    1.528181748616274E-3    4.407284932953480E-3    4.074785584396218E-1   -1.972290033747935E-1
 8.117443005250000E9     5.033476852419166E-1   -5.121086169332072E-2    1.434436974624166E-3    4.352804786344053E-3    1.481570266854804E-3    4.431745376416898E-3    4.074321970618707E-1   -1.975706442867741E-1
 8.117445529500000E9     5.032233946870909E-1   -5.157217796743837E-2    1.423864555102632E-3    4.356810629919137E-3    1.466697300361421E-3    4.441878741404743E-3    4.072925918920750E-1   -1.975721800239820E-1
 8.117448053750000E9     5.032695280562999E-1   -5.169972922038304E-2    1.441018886897721E-3    4.354396571857221E-3    1.578595627115761E-3    4.424345616292504E-3    4.073030296207292E-1   -1.978446640018515E-1
 8.117450578000000E9     5.030827361206338E-1   -5.204068463255078E-2    1.432081366233494E-3    4.377855302166779E-3    1.505068305827470E-3    4.491131872582178E-3    4.071041551364387E-1   -1.980215661718739E-1
 8.117453102250000E9     5.031733067550680E-1   -5.223383141925884E-2    1.446000478427701E-3    4.365491356814711E-3    1.523546314355761E-3    4.453366399253965E-3    4.071325508788618E-1   -1.982944393254465E-1
 8.117455626500000E9     5.031834600087547E-1   -5.262849774486771E-2    1.446330083748635E-3    4.393750426758614E-3    1.542223920521912E-3    4.481954193181553E-3    4.070073846794042E-1   -1.983047862936424E-1
 8.117458150750000E9     5.029850632920855E-1   -5.277831984012855E-2    1.488472492857575E-3    4.422551293114464E-3    1.529384674081091E-3    4.482792003652120E-3    4.069525443434560E-1   -1.984520644635898E-1
 8.117460675000000E9     5.030122171405909E-1   -5.294094853380696E-2    1.466275899370624E-3    4.411555861246430E-3    1.537279254348180E-3    4.522932473850359E-3    4.069149137639158E-1   -1.985237730861860E-1
 8.117463199250000E9     5.030016834615004E-1   -5.320278305444501E-2    1.481891765791682E-3    4.412175044486732E-3    1.529342426399966E-3    4.505123232783350E-3    4.067517277581649E-1   -1.988275464236000E-1
 8.117465723500000E9     5.028300213028185E-1   -5.338168558553160E-2    1.466584286952356E-3    4.422514817895938E-3    1.492218469119921E-3    4.498865485968027E-3    4.065990213075362E-1   -1.990097968367298E-1
