#  HZ   S   RI   R     50.00 
! Rohde & Schwarz Vector Network Analyzer 
! Rohde-Schwarz,ZNB20-2Port,1311601062101988,3.16
! Created: UTC 12/23/2023, 3:40:34 AM
! freq[Hz]                re:S11                  im:S11                  re:S21                  im:S21                  re:S12                  im:S12                  re:S22                  im:S22
 7.837307885000000E9     5.662653711078878E-1    1.449720104837053E-2    1.338729835939877E-3    3.732694396351969E-3    1.394032033413199E-3    3.649449445167938E-3    4.559657991982355E-1   -2.888681879121666E-1
 7.837340265650000E9     5.663513280437170E-1    1.249630144829209E-2    1.396857518366176E-3    3.705997865488852E-3    1.396404412070395E-3    3.686420147720724E-3    4.548676768765891E-1   -2.908515485385580E-1
 7.837372646300000E9     5.664646722114192E-1    1.027757428961908E-2    1.373399122827295E-3    3.749079373416615E-3    1.395342812626008E-3    3.632593408692852E-3    4.536274345181946E-1   -2.927926047531194E-1
 7.837405026950000E9     5.664718492061485E-1    8.065078177451456E-3    1.414634234857488E-3    3.750183740112393E-3    1.449269024712796E-3    3.661313231861892E-3    4.522070401404927E-1   -2.946085331744949E-1
 7.837437407600000E9     5.665415700301503E-1    6.046604913735085E-3    1.425870904610759E-3    3.714290411471199E-3    1.457447938683159E-3    3.648617218754661E-3    4.512430107826909E-1   -2.965077951231986E-1
 7.837469788250000E9     5.666008071494275E-1    3.834674765147403E-3    1.494796971911617E-3    3.734853229183601E-3    1.479781084272579E-3    3.680827067960563E-3    4.498289407508650E-1   -2.983535960171364E-1
 7.837502168900000E9     5.666057117026890E-1    1.669202602093734E-3    1.497362728273953E-3    3.737615372944010E-3    1.496336128747299E-3    3.658973946718296E-3    4.486310083619993E-1   -3.002896043584435E-1
 7.837534549550000E9     5.665865646768390E-1   -5.358777289603901E-4    1.495648773831492E-3    3.756539484327037E-3    1.511865917247976E-3    3.709387882484226E-3    4.473869659511907E-1   -3.021942010402350E-1
 7.837566930200000E9     5.666593837847637E-1   -2.694035670523967E-3    1.511890622196356E-3    3.737825574903359E-3    1.534208960139646E-3    3.645594173245348E-3    4.462299015656706E-1   -3.040337463165446E-1
 7.837599310850000E9     5.665610553251856E-1   -4.728951435916285E-3    1.513468220798605E-3    3.704209615832399E-3    1.541933149594837E-3    3.643489601028474E-3    4.448415403139948E-1   -3.059197624499915E-1
 7.837631691500000E9     5.666854796356787E-1   -7.021085102196364E-3    1.571599377163658E-3    3.712140589755709E-3    1.535992704890991E-3    3.642836797012214E-3    4.436129214765411E-1   -3.077444980753105E-1
 7.837664072150000E9     5.666010463248760E-1   -9.020482509841520E-3    1.551146102231154E-3    3.734710516671311E-3    1.571222526592859E-3    3.668019287097927E-3    4.422916540210571E-1   -3.095513388403163E-1
 7.837696452800000E9     5.665707535570911E-1   -1.128991717683035E-2    1.575524327958367E-3    3.727697484347975E-3    1.595795294140443E-3    3.694237474812045E-3    4.409846706774984E-1   -3.115416520835024E-1
 7.837728833450000E9     5.666283694753577E-1   -1.328593612240317E-2    1.606250884254708E-3    3.701927689989497E-3    1.591153337121677E-3    3.648630135916079E-3    4.397052980279541E-1   -3.134277291828873E-1
 7.837761214100000E9     5.664387939090660E-1   -1.541872610004446E-2    1.615405544782864E-3    3.740400258187818E-3    1.623439950999347E-3    3.666708494003633E-3    4.383505414443513E-1   -3.153000421632240E-1
 7.837793594750000E9     5.664141932726066E-1   -1.778688654899892E-2    1.655066505621449E-3    3.713839266013758E-3    1.693264480150189E-3    3.653194199019629E-3    4.370470478449220E-1   -3.171304075408157E-1
 7.837825975400000E9     5.664905001982343E-1   -1.993506176416531E-2    1.655199310182978E-3    3.723401513495284E-3    1.682607569548959E-3    3.663547508935740E-3    4.357614911827211E-1   -3.190339405625546E-1
 7.837858356050000E9     5.662387720419584E-1   -2.195285841031781E-2    1.704034531313344E-3    3.708038252602398E-3    1.663772227652337E-3    3.654952010908342E-3    4.344451381023535E-1   -3.209146855230828E-1
 7.837890736700000E9     5.662321003868200E-1   -2.422735622322958E-2    1.702033495388990E-3    3.705354847158300E-3    1.675226167271436E-3    3.689040674417245E-3    4.330628345380548E-1   -3.227266948271196E-1
 7.837923117350000E9     5.661281061352010E-1   -2.626097589524690E-2    1.718221721774301E-3    3.691647168600841E-3    1.719042145151294E-3    3.652156344062689E-3    4.316074561507360E-1   -3.244846194822269E-1
 7.837955498000000E9     5.661914066624835E-1   -2.843218995107215E-2    1.741016357102700E-3    3.716117924971591E-3    1.782331179692020E-3    3.631241361359992E-3    4.302011435835988E-1   -3.262054112509885E-1
 7.837987878650000E9     5.660040778473312E-1   -3.052054481947189E-2    1.755992107351596E-3    3.696749538565935E-3    1.761522698490462E-3    3.642999509752166E-3    4.291008802765465E-1   -3.280276894418913E-1
 7.838020259300000E9     5.658051093366162E-1   -3.270022667107939E-2    1.782983905161995E-3    3.721100771729729E-3    1.794950258624009E-3    3.645477080577756E-3    4.276665143392420E-1   -3.297743576098111E-1
 7.838052639950000E9     5.657788202572795E-1   -3.486866620771367E-2    1.792357846622034E-3    3.720110734170845E-3    1.778208086937517E-3    3.628295782231252E-3    4.262081114350718E-1   -3.318660288972546E-1
 7.838085020600000E9     5.655888896503591E-1   -3.702391843723025E-2    1.809439881117175E-3    3.730461821902288E-3    1.833431048582677E-3    3.644543623013708E-3    4.248392276390895E-1   -3.335086756364297E-1
 7.838117401250000E9     5.655307784862933E-1   -3.919721796709249E-2    1.861045680038124E-3    3.722888638598380E-3    1.847386879779247E-3    3.631909801559796E-3    4.233926330700587E-1   -3.351885500020866E-1
 7.838149781900000E9     5.653257670200458E-1   -4.135846306365817E-2    1.855694719051567E-3    3.694291321301402E-3    1.843650945275402E-3    3.621260975219289E-3    4.219645455403973E-1   -3.369394683128275E-1
 7.838182162550000E9     5.652010816478792E-1   -4.348599882978192E-2    1.877763511370125E-3    3.691759240621912E-3    1.894603053723856E-3    3.617044678317202E-3    4.205165754315583E-1   -3.388691005806969E-1
 7.838214543200000E9     5.650673025753864E-1   -4.563632524591953E-2    1.903095042007455E-3    3.703813564953979E-3    1.853527391601061E-3    3.657183651878680E-3    4.192484841962739E-1   -3.405629035807011E-1
 7.838246923850000E9     5.649203276246644E-1   -4.779122984881725E-2    1.891549886524799E-3    3.671562135526945E-3    1.914434315016420E-3    3.647710754370804E-3    4.177063891634455E-1   -3.423793911988884E-1
 7.838279304500000E9     5.647400885122652E-1   -4.989288505333521E-2    1.954243535864362E-3    3.699107729819791E-3    1.926554708702387E-3    3.647401513561941E-3    4.162555671283116E-1   -3.440014618726941E-1
 7.838311685150000E9     5.645616317650007E-1   -5.206821861523488E-2    1.956098959094528E-3    3.684988411622916E-3    1.956653384781327E-3    3.626712023880954E-3    4.149067298640459E-1   -3.457915603029008E-1
 7.838344065800000E9     5.642853928532248E-1   -5.419659616427635E-2    1.975527880203076E-3    3.687440527452291E-3    1.986332459160459E-3    3.639508402440417E-3    4.133917554764076E-1   -3.476475191835482E-1
 7.838376446450000E9     5.641554447124134E-1   -5.649024013049391E-2    1.999205041773765E-3    3.705291694593258E-3    1.994842542522523E-3    3.652676186441235E-3    4.119318647525555E-1   -3.494379899821330E-1
 7.838408827100000E9     5.638439840772721E-1   -5.855843850031090E-2    2.029628606010212E-3    3.683048191637546E-3    2.003043372375571E-3    3.622585430487294E-3    4.104511419904843E-1   -3.512490518079681E-1
 7.838441207750000E9     5.637229880025943E-1   -6.064849094779867E-2    2.021321878597324E-3    3.697409884091926E-3    2.057297258189031E-3    3.649953366865901E-3    4.090084165962904E-1   -3.527624285023968E-1
 7.838473588400000E9     5.634500686786668E-1   -6.295592501355721E-2    2.023780964545355E-3    3.690703926539730E-3    2.024657830381621E-3    3.638351489218000E-3    4.077234539290744E-1   -3.544466954350843E-1
 7.838505969050000E9     5.631650003730576E-1   -6.504752104614479E-2    2.080201584963678E-3    3.690602633212976E-3    2.052520699205751E-3    3.623830784269485E-3    4.060572730710875E-1   -3.561469310103949E-1
 7.838538349700000E9     5.629564974203053E-1   -6.710613498683431E-2    2.103553360535420E-3    3.700066933614876E-3    2.122963721850266E-3    3.642595540752671E-3    4.045794397616165E-1   -3.578803330487571E-1
 7.838570730350000E9     5.626536325022335E-1   -6.922506165798763E-2    2.131493587385873E-3    3.679407476916263E-3    2.106035242309210E-3    3.612592046235439E-3    4.030578716763125E-1   -3.597928419194253E-1
 7.838603111000000E9     5.624027604165346E-1   -7.150868049647220E-2    2.144055389135453E-3    3.676735163326885E-3    2.124020883103620E-3    3.646808935883364E-3    4.016184853891732E-1   -3.614276583237379E-1
 7.838635491650000E9     5.622069400930034E-1   -7.359489893117757E-2    2.179213985644451E-3    3.665442522154064E-3    2.158716306875010E-3    3.609453562716470E-3    4.001072698774941E-1   -3.629711255888765E-1
 7.838667872300000E9     5.618989481706126E-1   -7.573947541794623E-2    2.179747946988432E-3    3.682829819093263E-3    2.183276062267101E-3    3.640259485443193E-3    3.984585672903245E-1   -3.648137939336415E-1
 7.838700252950000E9     5.615693073283652E-1   -7.785196108983143E-2    2.191930482163624E-3    3.651885447326508E-3    2.203439538556344E-3    3.627679784121154E-3    3.971103503786849E-1   -3.664597057019049E-1
 7.838732633600000E9     5.613240426670399E-1   -8.004858947504626E-2    2.221847098003530E-3    3.692785637644795E-3    2.216148256094961E-3    3.607366958576627E-3    3.954929737818027E-1   -3.682457722631212E-1
 7.838765014250000E9     5.609426655487452E-1   -8.216406745555632E-2    2.244614566771014E-3    3.666235137652226E-3    2.209482521463121E-3    3.620517680065584E-3    3.939750025249986E-1   -3.699248099415616E-1
 7.838797394900000E9     5.606386325137412E-1   -8.440098231306108E-2    2.249886977815726E-3    3.664393002476129E-3    2.231651747524235E-3    3.625482647016523E-3    3.924138546881629E-1   -3.714094555164835E-1
 7.838829775550000E9     5.603900150707174E-1   -8.649323034860708E-2    2.291930205446538E-3    3.666626578990953E-3    2.296177088039305E-3    3.625693892200034E-3    3.908183444729972E-1   -3.730315367738834E-1
 7.838862156200000E9     5.600398214090793E-1   -8.862366444923196E-2    2.309662324416823E-3    3.661412103161388E-3    2.308975628032499E-3    3.594931218111805E-3    3.891750866124160E-1   -3.747101396089160E-1
 7.838894536850000E9     5.597367753610721E-1   -9.073700711556794E-2    2.311344103922028E-3    3.650454823239533E-3    2.337948112334924E-3    3.608444404318527E-3    3.876174691309938E-1   -3.763307890239576E-1
 7.838926917500000E9     5.594057506109847E-1   -9.285647439847533E-2    2.358395747681583E-3    3.668074999246156E-3    2.332515220437557E-3    3.613791930341942E-3    3.861480139411589E-1   -3.780670875658716E-1
 7.838959298150000E9     5.589562254390913E-1   -9.497763026465499E-2    2.379612686957786E-3    3.681390243753904E-3    2.364413599077422E-3    3.610206596344546E-3    3.845024196190011E-1   -3.796314673329847E-1
 7.838991678800000E9     5.585453753077627E-1   -9.727263694486261E-2    2.409174062312367E-3    3.642912633655160E-3    2.381236472675059E-3    3.593636619572679E-3    3.830147994899757E-1   -3.813724078990610E-1
 7.839024059450000E9     5.583739146384211E-1   -9.936815833888832E-2    2.409392468836861E-3    3.667913568072230E-3    2.379209896461296E-3    3.563023271367131E-3    3.813533491941022E-1   -3.828907739882922E-1
 7.839056440100000E9     5.578352203716958E-1   -1.014391362308029E-1    2.467356822915252E-3    3.636235713329095E-3    2.393932023960260E-3    3.606667010405606E-3    3.797713384822323E-1   -3.845938690673322E-1
 7.839088820750000E9     5.574720220855792E-1   -1.035220859219497E-1    2.476190950099685E-3    3.649631194609573E-3    2.428334819783576E-3    3.569272067330770E-3    3.781550365711189E-1   -3.862089023657798E-1
 7.839121201400000E9     5.572015594234692E-1   -1.056346485157122E-1    2.476073432437527E-3    3.660344057535735E-3    2.475780747500881E-3    3.606566184789815E-3    3.765191881579614E-1   -3.877286023554656E-1
 7.839153582050000E9     5.567207617094398E-1   -1.078945858885261E-1    2.502037571521358E-3    3.629306947446700E-3    2.486630856065950E-3    3.590271752687183E-3    3.749695027671270E-1   -3.893765192094614E-1
 7.839185962700000E9     5.562932619426333E-1   -1.100742592642170E-1    2.565361024321020E-3    3.634838555731506E-3    2.512602162334764E-3    3.626918381620152E-3    3.731715975511711E-1   -3.907695665369927E-1
 7.839218343350000E9     5.558853629889495E-1   -1.120843024137047E-1    2.546017555718475E-3    3.635424135876787E-3    2.540021035882654E-3    3.610450439315764E-3    3.717080157908403E-1   -3.924360203148370E-1
 7.839250724000000E9     5.554538858343399E-1   -1.141859596815354E-1    2.570025299704807E-3    3.627649068362538E-3    2.558896625232634E-3    3.574975052397384E-3    3.700710253277130E-1   -3.940012242051680E-1
 7.839283104650000E9     5.550093316759550E-1   -1.163471459000709E-1    2.603649630307348E-3    3.623862465632241E-3    2.575057157092255E-3    3.586998948613653E-3    3.684545206165051E-1   -3.955429016538627E-1
 7.839315485300000E9     5.544911864221467E-1   -1.184848910096777E-1    2.673898449478644E-3    3.633395984760840E-3    2.587661439406735E-3    3.589732130492838E-3    3.667206293413171E-1   -3.969870674773433E-1
 7.839347865950000E9     5.541187522372349E-1   -1.206405830829150E-1    2.670209191433044E-3    3.646633894422278E-3    2.609208962589991E-3    3.595869034031788E-3    3.652150351219289E-1   -3.987416241219232E-1
 7.839380246600000E9     5.535496281111086E-1   -1.228188449447284E-1    2.676703808877510E-3    3.635827099968225E-3    2.645157984651007E-3    3.578479522665910E-3    3.632077329748449E-1   -4.001597383728382E-1
 7.839412627250000E9     5.531955333437344E-1   -1.247049661909865E-1    2.689707036593243E-3    3.633832476449704E-3    2.680982061195066E-3    3.557947901030783E-3    3.616674630538683E-1   -4.017114835502369E-1
 7.839445007900000E9     5.526780229208833E-1   -1.269385366886922E-1    2.711124949549274E-3    3.643937524176954E-3    2.702206994913170E-3    3.569616762089376E-3    3.600721635562749E-1   -4.032862791837802E-1
 7.839477388550000E9     5.522553985251719E-1   -1.290726902979796E-1    2.724027833596655E-3    3.612146085083695E-3    2.730523834005058E-3    3.560270661258155E-3    3.583016474071120E-1   -4.048055618178983E-1
 7.839509769200000E9     5.518403867193612E-1   -1.311201082336627E-1    2.758347229945809E-3    3.625378062851963E-3    2.709232312842167E-3    3.578842262646348E-3    3.565171463521110E-1   -4.063905625895834E-1
 7.839542149850000E9     5.512719524413886E-1   -1.333728986346873E-1    2.793257755970580E-3    3.611228203796309E-3    2.755340216843794E-3    3.575355941320310E-3    3.548781369427010E-1   -4.076814740981000E-1
 7.839574530500000E9     5.506894170887855E-1   -1.353806786004760E-1    2.835073307178492E-3    3.573379000480115E-3    2.822164392993024E-3    3.559208190375217E-3    3.531696592111125E-1   -4.093602190631029E-1
 7.839606911150000E9     5.501773545808011E-1   -1.375427705136296E-1    2.860166831707475E-3    3.588921176610596E-3    2.816324023287340E-3    3.560951351682284E-3    3.515303148434439E-1   -4.105778841280312E-1
 7.839639291800000E9     5.495854357621051E-1   -1.396547001154700E-1    2.876217322006581E-3    3.610741438416810E-3    2.824485644932046E-3    3.569008693428216E-3    3.497022551317222E-1   -4.124096325066091E-1
 7.839671672450000E9     5.490842350337876E-1   -1.418237701549271E-1    2.896847744817998E-3    3.611158783735408E-3    2.840851429439626E-3    3.577333228000210E-3    3.478047893318927E-1   -4.135940441168407E-1
 7.839704053100000E9     5.485800227317601E-1   -1.437634571570645E-1    2.916148050485257E-3    3.597270423991514E-3    2.891063311556522E-3    3.559482456318017E-3    3.462445852660641E-1   -4.152523359074725E-1
 7.839736433750000E9     5.479921717371498E-1   -1.458924517476869E-1    2.965312234800525E-3    3.597613369644445E-3    2.904880097793229E-3    3.515615668076871E-3    3.445456218278097E-1   -4.166976997215746E-1
 7.839768814400000E9     5.474383273143675E-1   -1.479846452739138E-1    2.966165413656588E-3    3.601112830817524E-3    2.931011934006380E-3    3.544424213914083E-3    3.427094805635906E-1   -4.182451482613194E-1
 7.839801195050000E9     5.467812218823105E-1   -1.501778295128985E-1    3.022955722849051E-3    3.577288855465890E-3    2.969447904054904E-3    3.578576336293795E-3    3.410145247645791E-1   -4.195721419576734E-1
 7.839833575700000E9     5.462621246003492E-1   -1.522598755962709E-1    3.054417348380357E-3    3.615370002175701E-3    2.985256482282468E-3    3.561753786604887E-3    3.391929002724616E-1   -4.210436152392575E-1
 7.839865956350000E9     5.455249484561037E-1   -1.542213063219043E-1    3.098145191368363E-3    3.578382276770253E-3    3.001577020838499E-3    3.529215436054578E-3    3.375172091813490E-1   -4.224385525337911E-1
 7.839898337000000E9     5.450157303918967E-1   -1.565090242963323E-1    3.106552046728575E-3    3.591298114626281E-3    3.029552065030108E-3    3.529046652462399E-3    3.357608795445423E-1   -4.238848116846748E-1
 7.839930717650000E9     5.444594903613080E-1   -1.586180947454785E-1    3.123214776442385E-3    3.569787937197639E-3    3.072742014726454E-3    3.563470190170282E-3    3.339069157857294E-1   -4.252302378870290E-1
 7.839963098300000E9     5.437954788023980E-1   -1.606794938588331E-1    3.144930107384288E-3    3.585953567281131E-3    3.126412520030279E-3    3.577567270111688E-3    3.320765329540292E-1   -4.266016302321335E-1
 7.839995478950000E9     5.431369153045574E-1   -1.626526573454732E-1    3.181372213527019E-3    3.576045650290593E-3    3.138182171248366E-3    3.565162867694108E-3    3.304995390013443E-1   -4.280581236385967E-1
 7.840027859600000E9     5.425988869183070E-1   -1.647972760858854E-1    3.193861685068945E-3    3.554353751834042E-3    3.158035597907488E-3    3.524591863920589E-3    3.286615315434684E-1   -4.294717352206269E-1
 7.840060240250000E9     5.418879631393608E-1   -1.668156675197184E-1    3.232679107898220E-3    3.539127701679872E-3    3.186465895370704E-3    3.526372617128669E-3    3.267257734912498E-1   -4.309704587332160E-1
 7.840092620900000E9     5.411821709616335E-1   -1.690588556092986E-1    3.266155937499150E-3    3.565170327323398E-3    3.215037031271212E-3    3.547693947823419E-3    3.250207213085291E-1   -4.323697907025110E-1
 7.840125001550000E9     5.405896535042377E-1   -1.710763527027767E-1    3.268164963676361E-3    3.557872391394127E-3    3.215579586570435E-3    3.520130234622168E-3    3.232892826059254E-1   -4.337347028579627E-1
 7.840157382200000E9     5.400007815449538E-1   -1.731566999441700E-1    3.329180869033578E-3    3.539655786198548E-3    3.256676163911080E-3    3.540506590538446E-3    3.212563550935794E-1   -4.349012454547446E-1
 7.840189762850000E9     5.392812841040383E-1   -1.752108649440128E-1    3.363424602476326E-3    3.552671816136536E-3    3.329175577076650E-3    3.503646980990665E-3    3.195177073236060E-1   -4.362711173300637E-1
 7.840222143500000E9     5.385869829821907E-1   -1.773247552069034E-1    3.379141650409674E-3    3.520682917803046E-3    3.302806640356749E-3    3.524331274659112E-3    3.177836237468044E-1   -4.377094815570612E-1
