#  HZ   S   RI   R     50.00 
! Rohde & Schwarz Vector Network Analyzer 
! Rohde-Schwarz,ZNB20-2Port,1311601062101988,3.16
! Created: UTC 12/23/2023, 3:40:51 AM
! freq[Hz]                re:S11                  im:S11                  re:S21                  im:S21                  re:S12                  im:S12                  re:S22                  im:S22
 7.837361163000000E9     5.662876844617547E-1    1.103101392175625E-2    1.393346038697812E-3    3.719877954031931E-3    1.422512976329623E-3    3.684309613770275E-3    4.540566854609285E-1   -2.918591123129753E-1
 7.837393233075000E9     5.665131977710650E-1    8.956028405447949E-3    1.396199119106338E-3    3.759263847815085E-3    1.449800994994940E-3    3.664790193795935E-3    4.529459056986347E-1   -2.937374876718659E-1
 7.837425303150000E9     5.665271474080229E-1    6.853041254398554E-3    1.411102214371687E-3    3.753258561921420E-3    1.435836230654149E-3    3.667403214254676E-3    4.515226096842055E-1   -2.958816482615875E-1
 7.837457373225000E9     5.665331025335962E-1    4.670376095246747E-3    1.428548577296650E-3    3.748834251617980E-3    1.446542502160400E-3    3.661538836436667E-3    4.503911894393280E-1   -2.975854880151304E-1
 7.837489443300000E9     5.665041413670335E-1    2.715709656149349E-3    1.473822076073332E-3    3.735091690628193E-3    1.454176200767313E-3    3.678016462297093E-3    4.491667271490198E-1   -2.995619074755600E-1
 7.837521513375000E9     5.665721724500911E-1    5.354948600080828E-4    1.476513096022678E-3    3.725240672573928E-3    1.507724964632704E-3    3.647870535576900E-3    4.478337970844325E-1   -3.013372954136226E-1
 7.837553583450000E9     5.665827800171384E-1   -1.774314155682598E-3    1.511669134953580E-3    3.714620378122043E-3    1.538620609090009E-3    3.649949429587846E-3    4.468136755022789E-1   -3.031639718902323E-1
 7.837585653525000E9     5.665552022933945E-1   -3.764774766460165E-3    1.542271675053158E-3    3.748662436247099E-3    1.546248504925540E-3    3.668678685847331E-3    4.454712321444119E-1   -3.051865741246845E-1
 7.837617723600000E9     5.665305869528265E-1   -5.889644305045676E-3    1.546192195008618E-3    3.731129382694948E-3    1.553208030618470E-3    3.646056979502666E-3    4.441941888219181E-1   -3.070641819183416E-1
 7.837649793675000E9     5.664948343589434E-1   -8.060075804651123E-3    1.558665972369757E-3    3.720978850273673E-3    1.571650056368663E-3    3.651506728287138E-3    4.427826954230412E-1   -3.089011270802857E-1
 7.837681863750000E9     5.666098176392786E-1   -1.024707618413827E-2    1.586703343999373E-3    3.734237337880491E-3    1.582604596895501E-3    3.671643883151883E-3    4.416190196538859E-1   -3.107111486310847E-1
 7.837713933825000E9     5.664773053547041E-1   -1.239518177543464E-2    1.592253523458969E-3    3.719499037062871E-3    1.592850198476345E-3    3.641737607139015E-3    4.402748068300153E-1   -3.124014078438327E-1
 7.837746003900000E9     5.665088223750477E-1   -1.450760841923038E-2    1.613362322958641E-3    3.738236293477288E-3    1.628153223988038E-3    3.662143505433432E-3    4.389953552971477E-1   -3.143474463695055E-1
 7.837778073975000E9     5.665685505738599E-1   -1.669308421244661E-2    1.631308417357674E-3    3.736975968578958E-3    1.635846026633565E-3    3.672739145278425E-3    4.377037548483531E-1   -3.161766036910095E-1
 7.837810144050000E9     5.663692832967488E-1   -1.875494803759247E-2    1.650276713583959E-3    3.729376635791000E-3    1.661758857589319E-3    3.648778646927692E-3    4.364793210613729E-1   -3.179624566976581E-1
 7.837842214125000E9     5.662402925633557E-1   -2.088445699376126E-2    1.668935395618152E-3    3.722682055251915E-3    1.681137338239508E-3    3.709940432206410E-3    4.349891132400507E-1   -3.198346161186555E-1
 7.837874284200000E9     5.661688553189453E-1   -2.297060563229629E-2    1.689342913939565E-3    3.721503747892265E-3    1.705635345014170E-3    3.638165932593606E-3    4.336919680207453E-1   -3.216410271212113E-1
 7.837906354275000E9     5.661277860702830E-1   -2.511273889780578E-2    1.720940291015547E-3    3.713197444029358E-3    1.747347684854832E-3    3.626907700850414E-3    4.325737199429539E-1   -3.234537844773259E-1
 7.837938424350000E9     5.661041543074247E-1   -2.734511507575018E-2    1.722096698948625E-3    3.727872672082279E-3    1.749178710424811E-3    3.677119947876519E-3    4.310530548273224E-1   -3.252696531984710E-1
 7.837970494425000E9     5.660897640629275E-1   -2.950822035363421E-2    1.743023495655816E-3    3.729690028363181E-3    1.767393427953606E-3    3.657761261755107E-3    4.297171263439507E-1   -3.269050066323525E-1
 7.838002564500000E9     5.658748663219599E-1   -3.156553506708797E-2    1.761336739649578E-3    3.693972667258506E-3    1.779869125692369E-3    3.640533663085887E-3    4.283315868683586E-1   -3.287175520130222E-1
 7.838034634575000E9     5.657811902919170E-1   -3.369743265954062E-2    1.789485435185553E-3    3.699118889401656E-3    1.811239649246655E-3    3.626371260667084E-3    4.269124101914867E-1   -3.306693861797249E-1
 7.838066704650000E9     5.655993310421501E-1   -3.576218900320265E-2    1.813321167666681E-3    3.691456601659049E-3    1.786725629645749E-3    3.667702257774385E-3    4.256859923897277E-1   -3.324264150103476E-1
 7.838098774725000E9     5.656036983273789E-1   -3.803384768738415E-2    1.834652659128670E-3    3.691941278146995E-3    1.834647175137781E-3    3.661110475766357E-3    4.241780942056627E-1   -3.340166626112701E-1
 7.838130844800000E9     5.654081809293379E-1   -4.007063960727716E-2    1.821680929142045E-3    3.693001317525211E-3    1.846057481794493E-3    3.621086466733488E-3    4.228026070825328E-1   -3.359955705412631E-1
 7.838162914875000E9     5.653664281513260E-1   -4.221843347152902E-2    1.841827818489490E-3    3.711295420597061E-3    1.845031493936944E-3    3.629902662598908E-3    4.214970676374676E-1   -3.377494876408594E-1
 7.838194984950000E9     5.649848712529718E-1   -4.433086760467936E-2    1.867961254353102E-3    3.706015457454321E-3    1.881094201600572E-3    3.633409816696176E-3    4.198894566959444E-1   -3.393492456972519E-1
 7.838227055025000E9     5.649536991911027E-1   -4.645619876386915E-2    1.896431920616399E-3    3.685961202395281E-3    1.896220081543237E-3    3.604561550870465E-3    4.186290534004147E-1   -3.412338260519248E-1
 7.838259125100000E9     5.647207184915836E-1   -4.856946067774123E-2    1.922065330229710E-3    3.697735048257752E-3    1.945166761375347E-3    3.648505729073533E-3    4.172626283135563E-1   -3.430037002074550E-1
 7.838291195175000E9     5.645449405378243E-1   -5.076879264430105E-2    1.955700446702243E-3    3.684575697267973E-3    1.944724102537830E-3    3.646956787001779E-3    4.158584470490405E-1   -3.447635615458893E-1
 7.838323265250000E9     5.644283706089077E-1   -5.291763938334011E-2    1.961911637407453E-3    3.688027113475387E-3    1.942977759444258E-3    3.659762999030701E-3    4.143742854358907E-1   -3.463206807443170E-1
 7.838355335325000E9     5.641839994130079E-1   -5.497929645198500E-2    1.980989690299236E-3    3.689099026908555E-3    1.974361793683354E-3    3.620006986220176E-3    4.130111633044344E-1   -3.481977261347952E-1
 7.838387405400000E9     5.640572877406193E-1   -5.712068243978559E-2    1.980598047403049E-3    3.694426692991571E-3    2.003691934174241E-3    3.624298773949187E-3    4.115893078216700E-1   -3.499520205719150E-1
 7.838419475475000E9     5.636676664485353E-1   -5.927355787230409E-2    2.023277435722601E-3    3.696668768075990E-3    2.023123827959793E-3    3.608510047217179E-3    4.102110169686816E-1   -3.516718804195016E-1
 7.838451545550000E9     5.635597673277136E-1   -6.148886031671871E-2    2.036266997751173E-3    3.649824943553136E-3    2.013752691502719E-3    3.644279723638055E-3    4.085043780280208E-1   -3.534386706366900E-1
 7.838483615625000E9     5.633460570957045E-1   -6.346328917982089E-2    2.054959674551324E-3    3.683173819096257E-3    2.067666161666039E-3    3.626474763060428E-3    4.072755093553245E-1   -3.550766226923843E-1
 7.838515685700000E9     5.632624496450727E-1   -6.569512839684870E-2    2.090311301902180E-3    3.673090961474877E-3    2.092837504799391E-3    3.639321678010018E-3    4.057844579902657E-1   -3.567449156888681E-1
 7.838547755775000E9     5.628092204875162E-1   -6.777838966659053E-2    2.100327253783337E-3    3.675805924953107E-3    2.098847173031282E-3    3.632695033194723E-3    4.042020446296561E-1   -3.584623144622299E-1
 7.838579825850000E9     5.625528962961077E-1   -6.991031279941150E-2    2.126791275075670E-3    3.679885655121710E-3    2.101616458855780E-3    3.603997908455400E-3    4.026406776559714E-1   -3.600867352010300E-1
 7.838611895925000E9     5.623389790773715E-1   -7.205178001178174E-2    2.139547757914628E-3    3.706285957260649E-3    2.141365229351775E-3    3.620767382932583E-3    4.011611550824817E-1   -3.618187404854665E-1
 7.838643966000000E9     5.620835300085840E-1   -7.420763055620447E-2    2.157623971235054E-3    3.705275136616339E-3    2.176089432303156E-3    3.632170711882032E-3    3.997347118567042E-1   -3.634453841002950E-1
 7.838676036075000E9     5.616721343976645E-1   -7.630757006679234E-2    2.201997274552187E-3    3.662282233219641E-3    2.182507111791135E-3    3.625535637151556E-3    3.981167279265930E-1   -3.650669567368690E-1
 7.838708106150000E9     5.615873548402941E-1   -7.837520601199524E-2    2.227656822434782E-3    3.690968409308358E-3    2.204592329810517E-3    3.608107496947762E-3    3.966795402819946E-1   -3.668184068393184E-1
 7.838740176225000E9     5.611770434293988E-1   -8.058533172666539E-2    2.227378682427097E-3    3.670578148600573E-3    2.188169299296738E-3    3.597759868971602E-3    3.952908518359746E-1   -3.684203180373515E-1
 7.838772246300000E9     5.608415351785057E-1   -8.259889106266796E-2    2.263140506063662E-3    3.633403757208678E-3    2.222800415896725E-3    3.612688174046578E-3    3.936167308354507E-1   -3.703436842913445E-1
 7.838804316375000E9     5.605125005516888E-1   -8.472108560791775E-2    2.261045847963725E-3    3.652138152843805E-3    2.234909823599340E-3    3.614815826087228E-3    3.921384667574199E-1   -3.717949402439896E-1
 7.838836386450000E9     5.602324191142695E-1   -8.679276205367337E-2    2.317256546201918E-3    3.677325086319218E-3    2.261263904372536E-3    3.605383090565099E-3    3.905406444623371E-1   -3.734668264899388E-1
 7.838868456525000E9     5.600999176851131E-1   -8.903078985038640E-2    2.322517477404543E-3    3.647137246799423E-3    2.287076010655571E-3    3.628652538896253E-3    3.890109533072161E-1   -3.751690582005017E-1
 7.838900526600000E9     5.595938806942090E-1   -9.118200239616542E-2    2.332663784655934E-3    3.667424295717788E-3    2.328357167779129E-3    3.600264806217428E-3    3.873962689091113E-1   -3.766557518032067E-1
 7.838932596675000E9     5.592308577275255E-1   -9.328296026551011E-2    2.369606024555628E-3    3.636182289079488E-3    2.350064475113989E-3    3.609364145201280E-3    3.857572204580536E-1   -3.782791004075206E-1
 7.838964666750000E9     5.590001269222035E-1   -9.528145117794802E-2    2.376996544877445E-3    3.655851298345301E-3    2.359768339766268E-3    3.617088053978412E-3    3.843577698113518E-1   -3.797888055821710E-1
 7.838996736825000E9     5.585903647903818E-1   -9.750542965046477E-2    2.382012072249600E-3    3.670773210743598E-3    2.361623104015679E-3    3.584040997361431E-3    3.826761431022922E-1   -3.816413835432451E-1
 7.839028806900000E9     5.581543620468083E-1   -9.957980456746167E-2    2.411661754796544E-3    3.654230633539510E-3    2.403290767543139E-3    3.591396122591034E-3    3.812401729513084E-1   -3.830457456687535E-1
 7.839060876975000E9     5.577907998167444E-1   -1.018478863445582E-1    2.447389035996977E-3    3.656697147401538E-3    2.443816539900521E-3    3.601657038733343E-3    3.796173806101907E-1   -3.846230332838442E-1
 7.839092947050000E9     5.573915630879430E-1   -1.038903101183801E-1    2.468426887123659E-3    3.653365303492753E-3    2.419375569639146E-3    3.623340537595448E-3    3.779244078312941E-1   -3.861576334639092E-1
 7.839125017125000E9     5.570190616372678E-1   -1.058521245072274E-1    2.512448532398313E-3    3.649108415930304E-3    2.477170396411754E-3    3.578945681381444E-3    3.763094337382517E-1   -3.877832418761458E-1
 7.839157087200000E9     5.566812360525841E-1   -1.080030146594785E-1    2.539706574955505E-3    3.634584237343742E-3    2.483638840513166E-3    3.579773789677996E-3    3.746855076487444E-1   -3.893175489676969E-1
 7.839189157275000E9     5.562706609796221E-1   -1.102466733702768E-1    2.551480617482650E-3    3.633983358128322E-3    2.520219085466005E-3    3.571998789637273E-3    3.731643700565546E-1   -3.910767536672734E-1
 7.839221227350000E9     5.557474955503416E-1   -1.122045176961348E-1    2.569686201456856E-3    3.631207351444216E-3    2.529239030533963E-3    3.589709931283536E-3    3.714324542847177E-1   -3.924663782456455E-1
 7.839253297425000E9     5.552638119828223E-1   -1.142919864388560E-1    2.594886965440390E-3    3.626764461711466E-3    2.552393362401543E-3    3.600025827671466E-3    3.699310884246182E-1   -3.938991656154979E-1
 7.839285367500000E9     5.548309273813580E-1   -1.163709370808483E-1    2.629811137794182E-3    3.660994454933971E-3    2.550577786472851E-3    3.599405650599572E-3    3.682500515703218E-1   -3.956837151944949E-1
 7.839317437575000E9     5.544042267045833E-1   -1.185118817362617E-1    2.621303237420806E-3    3.646836295645757E-3    2.607488808091845E-3    3.585004561326625E-3    3.665026540409938E-1   -3.972607053914623E-1
 7.839349507650000E9     5.541026506493032E-1   -1.207178127508881E-1    2.662778918176895E-3    3.631642386104846E-3    2.614123284040165E-3    3.612283221822503E-3    3.650055139268026E-1   -3.986322955645306E-1
 7.839381577725000E9     5.535412909940405E-1   -1.226969846865378E-1    2.675806821761785E-3    3.620928767087536E-3    2.664197105911180E-3    3.587938281381731E-3    3.632439084260012E-1   -4.002093941729115E-1
 7.839413647800000E9     5.532318098841023E-1   -1.247177996548763E-1    2.723509649150628E-3    3.611002428131415E-3    2.647980792716659E-3    3.570349160614778E-3    3.617458604700899E-1   -4.016918625880356E-1
 7.839445717875000E9     5.527004208784383E-1   -1.270418878549527E-1    2.744393115819132E-3    3.617538711974062E-3    2.708461939835145E-3    3.584562857200322E-3    3.598472694887970E-1   -4.034340811581700E-1
 7.839477787950000E9     5.520610424601251E-1   -1.291068928223996E-1    2.744382557780860E-3    3.619979891874144E-3    2.678156264165771E-3    3.576118677344660E-3    3.582990546935976E-1   -4.048245807913782E-1
 7.839509858025000E9     5.516927738594568E-1   -1.311233142367546E-1    2.795023976964136E-3    3.595558199644718E-3    2.723524755824291E-3    3.567079803025198E-3    3.566996378268761E-1   -4.062846638037412E-1
 7.839541928100000E9     5.511182808727506E-1   -1.332155018927313E-1    2.803175264668799E-3    3.579255572773405E-3    2.752049202902539E-3    3.565436502620755E-3    3.548009884559981E-1   -4.077131138101310E-1
 7.839573998175000E9     5.507026958571209E-1   -1.353300505946543E-1    2.820120715464617E-3    3.580729721824438E-3    2.794128623456013E-3    3.597113267505067E-3    3.533202786138938E-1   -4.092997305292984E-1
 7.839606068250000E9     5.500689722430679E-1   -1.375837569483892E-1    2.822852797910998E-3    3.604632672898196E-3    2.812807558941556E-3    3.565205040404005E-3    3.515972181605024E-1   -4.106951657011015E-1
 7.839638138325000E9     5.496330127159124E-1   -1.394932064897130E-1    2.872295853855321E-3    3.588162937052541E-3    2.861170831583740E-3    3.535077942882343E-3    3.498233676288456E-1   -4.122138346270703E-1
 7.839670208400000E9     5.491103114868506E-1   -1.415546160917807E-1    2.925096577625462E-3    3.603325621374221E-3    2.844662340037284E-3    3.558067025945204E-3    3.481264616849386E-1   -4.137638221458803E-1
 7.839702278475000E9     5.485769019478166E-1   -1.437005916947847E-1    2.943203555844789E-3    3.606612056381381E-3    2.876533633266539E-3    3.568927858616377E-3    3.462115908392960E-1   -4.151370118721369E-1
 7.839734348550000E9     5.479223441550457E-1   -1.458130664812611E-1    2.967699900355984E-3    3.571527094457036E-3    2.905642325682928E-3    3.560094352918244E-3    3.447223022226922E-1   -4.165579082953842E-1
 7.839766418625000E9     5.474148584150129E-1   -1.479669050876755E-1    2.978129769912185E-3    3.591493029577197E-3    2.939367315010818E-3    3.550520090866652E-3    3.429255574475008E-1   -4.180331532884010E-1
 7.839798488700000E9     5.467886628044110E-1   -1.499474139283689E-1    2.989158738751382E-3    3.602853027973814E-3    2.977632528619509E-3    3.537701148572748E-3    3.412104543003376E-1   -4.195238247542520E-1
 7.839830558775000E9     5.462219179857947E-1   -1.520050340789325E-1    3.031601446317748E-3    3.590933412308172E-3    3.003856259373975E-3    3.535560532537461E-3    3.392863701218541E-1   -4.208180480087717E-1
 7.839862628850000E9     5.456961907625005E-1   -1.541579629145672E-1    3.069999253597813E-3    3.590991158572020E-3    3.041533211413571E-3    3.531159806378774E-3    3.377692861442002E-1   -4.221626119373426E-1
 7.839894698925000E9     5.450446768431314E-1   -1.562704271732018E-1    3.072909726705295E-3    3.575725963777892E-3    3.023456507823787E-3    3.550952086342422E-3    3.359782215296794E-1   -4.236485959516524E-1
 7.839926769000000E9     5.444564988849387E-1   -1.582113617500659E-1    3.100183104712098E-3    3.573123942937855E-3    3.068712321285090E-3    3.553963120767934E-3    3.340557862948471E-1   -4.250185820338657E-1
 7.839958839075000E9     5.440022640011550E-1   -1.603702333360189E-1    3.138756405900947E-3    3.586625238402546E-3    3.105029477635313E-3    3.555569810119888E-3    3.326036611472439E-1   -4.265122512813445E-1
 7.839990909150000E9     5.432578275593140E-1   -1.624232996325350E-1    3.175186918358527E-3    3.578844427026209E-3    3.112866363858109E-3    3.546982588040496E-3    3.306688161093553E-1   -4.277842148924735E-1
 7.840022979225000E9     5.426306641799897E-1   -1.644750962226089E-1    3.207332667334235E-3    3.577841617334901E-3    3.142568629407326E-3    3.571645113005106E-3    3.289436713230303E-1   -4.292024920373077E-1
 7.840055049300000E9     5.418881553721080E-1   -1.666104928839335E-1    3.221928848835402E-3    3.540155457791446E-3    3.183073803943550E-3    3.566710423656865E-3    3.270515890502974E-1   -4.306065630751312E-1
 7.840087119375000E9     5.413656233039543E-1   -1.685218852887291E-1    3.249641940668873E-3    3.580282043010163E-3    3.212966982324727E-3    3.533319025215260E-3    3.252779092633466E-1   -4.319928287163100E-1
 7.840119189450000E9     5.406515205204778E-1   -1.706178737592600E-1    3.300435057888126E-3    3.574851000233083E-3    3.259675259485212E-3    3.547363472845735E-3    3.235172147378167E-1   -4.334405083009069E-1
 7.840151259525000E9     5.400887234321573E-1   -1.727149823437944E-1    3.344700264544744E-3    3.519858933062815E-3    3.272419025878894E-3    3.556149819114123E-3    3.217028521458552E-1   -4.346947384252909E-1
 7.840183329600000E9     5.392058068511064E-1   -1.748251228153386E-1    3.343431594966133E-3    3.552683310504724E-3    3.306129119572411E-3    3.525603190043591E-3    3.198234091746014E-1   -4.361789143951266E-1
 7.840215399675000E9     5.386317490898929E-1   -1.768253641106312E-1    3.371251246273697E-3    3.552131430417241E-3    3.330939349184096E-3    3.530869055913258E-3    3.182138851053849E-1   -4.373496192613670E-1
 7.840247469750000E9     5.379111088349195E-1   -1.790747217271755E-1    3.391141038833333E-3    3.558481648742945E-3    3.362499338909211E-3    3.528868808353219E-3    3.164511657015844E-1   -4.388546922243855E-1
