#  HZ   S   RI   R     50.00 
! Rohde & Schwarz Vector Network Analyzer 
! Rohde-Schwarz,ZNB20-2Port,1311601062101988,3.16
! Created: UTC 3/20/2024, 12:04:54 PM
! freq[Hz]                re:S11                  im:S11                  re:S21                  im:S21                  re:S12                  im:S12                  re:S22                  im:S22
 8.117490242000000E9     5.038360892765734E-1   -5.366553311130785E-2    1.376988364127304E-3    4.346071777969487E-3    1.428997263417374E-3    4.441320306841726E-3    4.057089485280143E-1   -2.007524324893001E-1
 8.117491826300000E9     5.040002235323936E-1   -5.390936788420828E-2    1.382997515769448E-3    4.364078461576023E-3    1.449597495245650E-3    4.442624332707886E-3    4.055420215172586E-1   -2.008067120111060E-1
 8.117493410600000E9     5.039451132331308E-1   -5.401828594652015E-2    1.394740038673530E-3    4.369062039954880E-3    1.466193876629369E-3    4.474857319627408E-3    4.057027123615026E-1   -2.010042496100976E-1
 8.117494994900000E9     5.040362227009297E-1   -5.420966005206976E-2    1.407715284812302E-3    4.359100976144523E-3    1.465639055825191E-3    4.483706130882974E-3    4.055474094491258E-1   -2.009447122230088E-1
 8.117496579200000E9     5.038062979046759E-1   -5.452545424784923E-2    1.395559556002205E-3    4.379195060360301E-3    1.467994037027551E-3    4.470448479616915E-3    4.055178788075957E-1   -2.010103398418265E-1
 8.117498163500000E9     5.039155971356987E-1   -5.462851079239008E-2    1.403021481448950E-3    4.380220830851786E-3    1.470556107344192E-3    4.438140623194268E-3    4.054973022437798E-1   -2.010210517785658E-1
 8.117499747800000E9     5.038631865536761E-1   -5.454267352485410E-2    1.402111358115612E-3    4.370544039696763E-3    1.494275613492782E-3    4.494120971823155E-3    4.054799930552783E-1   -2.012582662456136E-1
 8.117501332100000E9     5.038269362519778E-1   -5.479273982269717E-2    1.425530389018344E-3    4.380855359631236E-3    1.427598280820597E-3    4.453754039893485E-3    4.052648689729246E-1   -2.013836750060201E-1
 8.117502916400000E9     5.039065651923816E-1   -5.499808393073814E-2    1.417545099656393E-3    4.402792391452849E-3    1.445427718779852E-3    4.490907483566790E-3    4.053044662655874E-1   -2.013590401998532E-1
 8.117504500700000E9     5.038243614619770E-1   -5.508033556028624E-2    1.427703185820723E-3    4.412656081922091E-3    1.481016547163039E-3    4.446146634519057E-3    4.053025181031487E-1   -2.016611631166821E-1
 8.117506085000000E9     5.037541386668579E-1   -5.525917540192255E-2    1.429217141604608E-3    4.400386492001121E-3    1.501858215176398E-3    4.520137018693900E-3    4.052113733078647E-1   -2.015767128192934E-1
 8.117507669300000E9     5.037040608181627E-1   -5.552630143651589E-2    1.436545991622622E-3    4.403133894579032E-3    1.488211555644271E-3    4.520728089469751E-3    4.052239785323344E-1   -2.017708525373536E-1
 8.117509253600000E9     5.037456255423831E-1   -5.551195788023482E-2    1.452033104409146E-3    4.431675920845268E-3    1.501343445200403E-3    4.533534275379921E-3    4.052228867844839E-1   -2.019143168353170E-1
 8.117510837900000E9     5.036560436064684E-1   -5.574693098158514E-2    1.438949173967032E-3    4.409350594529568E-3    1.511273148953424E-3    4.522638210374910E-3    4.050769990852685E-1   -2.019392269508281E-1
 8.117512422200000E9     5.036488533656640E-1   -5.588740266527375E-2    1.459564159407869E-3    4.435597491268030E-3    1.505471868652178E-3    4.518003303561136E-3    4.050529646107385E-1   -2.021204194683363E-1
 8.117514006500000E9     5.036073839800977E-1   -5.606596359414245E-2    1.438905640265959E-3    4.427123017644568E-3    1.511278586035186E-3    4.549758283470076E-3    4.050423749300677E-1   -2.021945010655226E-1
 8.117515590800000E9     5.036355330536734E-1   -5.621095993938711E-2    1.427243572316054E-3    4.442963373878133E-3    1.529958109052666E-3    4.525673732020970E-3    4.051208817149062E-1   -2.022274127677676E-1
 8.117517175100000E9     5.035721049398869E-1   -5.635109262105696E-2    1.440210029225580E-3    4.464134698749181E-3    1.475974605354235E-3    4.536059144346837E-3    4.048455136692176E-1   -2.023887584404619E-1
 8.117518759400000E9     5.035393889969205E-1   -5.652094243493238E-2    1.467815167031282E-3    4.438675074546423E-3    1.557465492853650E-3    4.543450695951111E-3    4.048910066418699E-1   -2.024458709200650E-1
 8.117520343700000E9     5.035049995725516E-1   -5.668856073829478E-2    1.484113325400743E-3    4.473939564158784E-3    1.562638048139878E-3    4.536753969400797E-3    4.048125548810458E-1   -2.025683392017847E-1
 8.117521928000000E9     5.035351447505130E-1   -5.683593176336175E-2    1.471681822702690E-3    4.451591222355104E-3    1.549312691959778E-3    4.564253371826743E-3    4.048348464533317E-1   -2.026021284497415E-1
 8.117523512300000E9     5.034471676603941E-1   -5.703673335385608E-2    1.511570448449439E-3    4.446823035042811E-3    1.558760328595958E-3    4.552925660621795E-3    4.047479713662467E-1   -2.028893768058679E-1
 8.117525096600000E9     5.034289402422906E-1   -5.703736671385174E-2    1.484152598915104E-3    4.474341234122619E-3    1.564629576289217E-3    4.603911283709446E-3    4.046781339958059E-1   -2.029970815456825E-1
 8.117526680900000E9     5.034655515856786E-1   -5.725205266055042E-2    1.505077144531189E-3    4.496040679049425E-3    1.544985697649939E-3    4.566976007611684E-3    4.045708703776034E-1   -2.029455084005303E-1
 8.117528265200000E9     5.034148317606512E-1   -5.746520902349654E-2    1.492999283641847E-3    4.508057610610021E-3    1.539544749786246E-3    4.604408254198495E-3    4.044972763752785E-1   -2.029814045347519E-1
 8.117529849500000E9     5.034165235264854E-1   -5.762117131650746E-2    1.493693082301454E-3    4.509763505458840E-3    1.545959685359886E-3    4.605206638900150E-3    4.044772939740363E-1   -2.031930023604825E-1
 8.117531433800000E9     5.032662136589915E-1   -5.771360866994953E-2    1.517756731577474E-3    4.507257819574074E-3    1.562296822651478E-3    4.592481500647681E-3    4.045260927394519E-1   -2.033087486665152E-1
 8.117533018100000E9     5.033412741611770E-1   -5.800757688022487E-2    1.500211051799992E-3    4.527033063792131E-3    1.583210056454250E-3    4.587449952200056E-3    4.044726082450736E-1   -2.034925214929129E-1
 8.117534602400000E9     5.033062516090125E-1   -5.822544922371344E-2    1.521909935023733E-3    4.520612032536898E-3    1.581504148007988E-3    4.597141576176040E-3    4.044545129515838E-1   -2.035287085105572E-1
 8.117536186700000E9     5.032671974178042E-1   -5.821413051575920E-2    1.497464155743660E-3    4.516992939459295E-3    1.569984524315994E-3    4.580401517772979E-3    4.044993603315638E-1   -2.035155424798545E-1
 8.117537771000000E9     5.032676673204087E-1   -5.841709374673832E-2    1.528880798223570E-3    4.513159752166590E-3    1.620577999898433E-3    4.648925503521746E-3    4.042356569423156E-1   -2.038629397239546E-1
 8.117539355300000E9     5.031912414080495E-1   -5.852386955587245E-2    1.540309608396428E-3    4.547826938393409E-3    1.575772107884900E-3    4.636531096702014E-3    4.043281566384553E-1   -2.037200656322681E-1
 8.117540939600000E9     5.031016757074656E-1   -5.872090758215925E-2    1.557504094485875E-3    4.574386973227010E-3    1.611644154738755E-3    4.654327466689060E-3    4.040149448125331E-1   -2.039753788777778E-1
 8.117542523900000E9     5.031022947301367E-1   -5.887381370147816E-2    1.570074658798445E-3    4.554556807648886E-3    1.604410374465526E-3    4.685542562886062E-3    4.043261600599771E-1   -2.040071564779820E-1
 8.117544108200000E9     5.031525958204006E-1   -5.903357642343492E-2    1.522298583809661E-3    4.567357098369754E-3    1.628957921201844E-3    4.709914958325614E-3    4.040608280518864E-1   -2.041401004647711E-1
 8.117545692500000E9     5.031070085884626E-1   -5.917958645879913E-2    1.550342948576882E-3    4.588717696071184E-3    1.629537204858005E-3    4.648417330580229E-3    4.040051961986166E-1   -2.042983818979848E-1
 8.117547276800000E9     5.030568200521769E-1   -5.929754805683371E-2    1.550842136643833E-3    4.581739763010573E-3    1.627046793878835E-3    4.695788538858665E-3    4.039929872184888E-1   -2.044382813535809E-1
 8.117548861100000E9     5.029405127032779E-1   -5.949066766920785E-2    1.564461816324004E-3    4.610635922517493E-3    1.569552145350233E-3    4.722776896955396E-3    4.040043379641537E-1   -2.045356978303368E-1
 8.117550445400000E9     5.029681984950828E-1   -5.963931526362931E-2    1.597809422669349E-3    4.582970423522883E-3    1.629158138017693E-3    4.693433350726482E-3    4.039199812784946E-1   -2.045269312692216E-1
 8.117552029700000E9     5.030102852617834E-1   -5.976852647105411E-2    1.572623377791984E-3    4.568666287473895E-3    1.614364992493938E-3    4.687240515494359E-3    4.039139963236970E-1   -2.045542253327439E-1
 8.117553614000000E9     5.029779066025369E-1   -6.007003757781729E-2    1.573868656612973E-3    4.632992450513193E-3    1.639294796317342E-3    4.720438181515143E-3    4.038952108294512E-1   -2.046331079750363E-1
 8.117555198300000E9     5.029204709540358E-1   -6.024961235313529E-2    1.599791873604360E-3    4.633876864127529E-3    1.653229794524361E-3    4.762703563551131E-3    4.038061893900162E-1   -2.046358720541516E-1
 8.117556782600000E9     5.028163770360647E-1   -6.035467494390347E-2    1.591707044458400E-3    4.634675408941786E-3    1.683564589691260E-3    4.736535643583382E-3    4.039998044114839E-1   -2.050129447991672E-1
 8.117558366900000E9     5.028024215847249E-1   -6.048141797598430E-2    1.593736859788776E-3    4.639095257000730E-3    1.646783502734907E-3    4.773193933302632E-3    4.036836329731798E-1   -2.051358609302195E-1
 8.117559951200000E9     5.027666496978354E-1   -6.052009277851286E-2    1.600776524923684E-3    4.643042578753497E-3    1.692990603570970E-3    4.760974813812972E-3    4.037020301389226E-1   -2.050770325505190E-1
 8.117561535500000E9     5.028060298282609E-1   -6.085983975383560E-2    1.610207906146169E-3    4.678560231515681E-3    1.683717606485220E-3    4.782717671715823E-3    4.037084527420549E-1   -2.052674878359146E-1
 8.117563119800000E9     5.026913090836733E-1   -6.101456953156583E-2    1.630307365193736E-3    4.648902315145143E-3    1.687188262996306E-3    4.759676821031114E-3    4.036760271029280E-1   -2.054427586152230E-1
 8.117564704100000E9     5.026683780733692E-1   -6.113889499231218E-2    1.623689111918930E-3    4.665541168704538E-3    1.719665099374043E-3    4.785497074086630E-3    4.036289719544744E-1   -2.053802643980009E-1
 8.117566288400000E9     5.026411554705414E-1   -6.121018837095689E-2    1.624078592927390E-3    4.681034717082979E-3    1.691459054978468E-3    4.780857243812819E-3    4.034837340560383E-1   -2.055631466395263E-1
 8.117567872700000E9     5.026216826708608E-1   -6.137574118349599E-2    1.622976323359437E-3    4.713074904737763E-3    1.681187922721470E-3    4.772332178359345E-3    4.034235790958226E-1   -2.056955554286986E-1
 8.117569457000000E9     5.026005213006239E-1   -6.164018838126791E-2    1.661061947072920E-3    4.714354185963682E-3    1.708996481536134E-3    4.830924911931860E-3    4.032649758232665E-1   -2.057949613486860E-1
 8.117571041300000E9     5.025084008538121E-1   -6.183270241570232E-2    1.678145773428228E-3    4.712241457052192E-3    1.700669686883507E-3    4.826658252086927E-3    4.033671809980061E-1   -2.058916988364951E-1
 8.117572625600000E9     5.024957729157921E-1   -6.194064542130825E-2    1.679166256087545E-3    4.723726137505214E-3    1.746333364440703E-3    4.845509489168154E-3    4.033111753311913E-1   -2.060145685942522E-1
 8.117574209900000E9     5.024375299194699E-1   -6.219303174188669E-2    1.662958243863403E-3    4.737930194428283E-3    1.717578993960107E-3    4.836223137773961E-3    4.033363088038266E-1   -2.061328786221361E-1
 8.117575794200000E9     5.025623643301399E-1   -6.221726939097211E-2    1.667078005359688E-3    4.752944918921653E-3    1.732086979414982E-3    4.852909432115847E-3    4.031166252941275E-1   -2.062489015104659E-1
 8.117577378500000E9     5.023465592097255E-1   -6.252327395580064E-2    1.692567572943131E-3    4.754458290570303E-3    1.733130977875726E-3    4.847135327725773E-3    4.030825560463211E-1   -2.062320830908149E-1
 8.117578962800000E9     5.024127513436133E-1   -6.260701374943289E-2    1.681510483147646E-3    4.761133792344273E-3    1.774067429876463E-3    4.804426470494301E-3    4.031360771862707E-1   -2.063480226275597E-1
 8.117580547100000E9     5.023557270384486E-1   -6.287164607310015E-2    1.675631372004725E-3    4.789965141174929E-3    1.732677106520712E-3    4.846549646116366E-3    4.030135419069742E-1   -2.065235785044935E-1
 8.117582131400000E9     5.023096081522173E-1   -6.285602748353573E-2    1.722564535272636E-3    4.776362256194717E-3    1.745956219985129E-3    4.883030107086084E-3    4.031063627663152E-1   -2.066035248698490E-1
 8.117583715700000E9     5.022523303702821E-1   -6.321371449022847E-2    1.716902533545372E-3    4.793862463507980E-3    1.815981809495279E-3    4.892847627394639E-3    4.029633938731192E-1   -2.068470037057150E-1
 8.117585300000000E9     5.022530601812319E-1   -6.327093731078925E-2    1.731229422499655E-3    4.815256385403817E-3    1.790872071177279E-3    4.885819585116364E-3    4.028323706014370E-1   -2.067741420185642E-1
 8.117586884300000E9     5.021510926350957E-1   -6.344066232109145E-2    1.715134455223156E-3    4.819135249908098E-3    1.800868127362283E-3    4.918468609088345E-3    4.028885260961306E-1   -2.069027912712527E-1
 8.117588468600000E9     5.021559536205294E-1   -6.365415114652279E-2    1.742098754493316E-3    4.818430040619262E-3    1.804022598862985E-3    4.906692938599457E-3    4.028367115145717E-1   -2.068718933020569E-1
 8.117590052900000E9     5.020698154590301E-1   -6.388834830356999E-2    1.729526807994975E-3    4.839579996448926E-3    1.816549572301954E-3    4.949372504199313E-3    4.028806510484174E-1   -2.071452558198185E-1
 8.117591637200000E9     5.020161706510817E-1   -6.405657101335430E-2    1.749739729095935E-3    4.811745308529217E-3    1.827071986164515E-3    4.994814466207985E-3    4.026047067243426E-1   -2.071394241410109E-1
 8.117593221500000E9     5.020046576982967E-1   -6.425302223968657E-2    1.750540776716722E-3    4.863835447870410E-3    1.819653818462358E-3    4.930808833867983E-3    4.027030447792243E-1   -2.073114754610707E-1
 8.117594805800000E9     5.019936908124366E-1   -6.453272977935116E-2    1.771956760142532E-3    4.855440880494991E-3    1.831745848468542E-3    4.952817397615493E-3    4.026156611356214E-1   -2.074395235461585E-1
 8.117596390100000E9     5.019938509689925E-1   -6.462408106723877E-2    1.776090400217972E-3    4.890585486782284E-3    1.829468157941060E-3    4.959677582786442E-3    4.026473761429697E-1   -2.075804511713054E-1
 8.117597974400000E9     5.018801044856581E-1   -6.480734713565374E-2    1.769124008984831E-3    4.887917010174971E-3    1.838733750821170E-3    5.049711397282943E-3    4.024337377954623E-1   -2.076465436302969E-1
 8.117599558700000E9     5.019034723672900E-1   -6.478371581593813E-2    1.776939519138809E-3    4.906552340337477E-3    1.898859526278321E-3    5.006171640428931E-3    4.024461631593044E-1   -2.077325030511392E-1
 8.117601143000000E9     5.017545067902046E-1   -6.510004263819512E-2    1.822247883400795E-3    4.943428129328085E-3    1.872299049986037E-3    5.003567283260396E-3    4.023719726168564E-1   -2.078971134818620E-1
 8.117602727300000E9     5.017953272792087E-1   -6.517617686823288E-2    1.813889751659067E-3    4.919260685067332E-3    1.850480284469005E-3    5.032630442285153E-3    4.023781101996725E-1   -2.079203851311766E-1
 8.117604311600000E9     5.017063600211188E-1   -6.549783976267243E-2    1.823839309349081E-3    4.923587867307846E-3    1.899177266151491E-3    5.066431645371882E-3    4.022829086589730E-1   -2.081072475881001E-1
 8.117605895900000E9     5.016771714289724E-1   -6.566760353966859E-2    1.837870228305733E-3    4.956411870338471E-3    1.899976588691267E-3    5.081850389380404E-3    4.023715628543574E-1   -2.080778917576236E-1
 8.117607480200000E9     5.016388590385648E-1   -6.583954515078234E-2    1.831250149612247E-3    4.969167675196073E-3    1.909006594879783E-3    5.085242607677828E-3    4.022026168472885E-1   -2.083038597333678E-1
 8.117609064500000E9     5.015930761903868E-1   -6.601522665743678E-2    1.863226622586444E-3    4.955965349321355E-3    1.896432267707177E-3    5.061970417163142E-3    4.021955679398980E-1   -2.083346847222962E-1
 8.117610648800000E9     5.014183174489386E-1   -6.624048667090443E-2    1.865109930519523E-3    5.003583821340251E-3    1.942048450751261E-3    5.092020739671519E-3    4.020351468386786E-1   -2.084429683358877E-1
 8.117612233100000E9     5.014150763836580E-1   -6.636135697782385E-2    1.887515283640970E-3    5.005098839983571E-3    1.924499025021340E-3    5.063859646720799E-3    4.020371497698200E-1   -2.084827575950728E-1
 8.117613817400000E9     5.015106335920443E-1   -6.650239359059526E-2    1.885655841444024E-3    5.030988090578512E-3    1.936765251114419E-3    5.140400136839371E-3    4.019280349735669E-1   -2.087023602072806E-1
 8.117615401700000E9     5.014463065282756E-1   -6.671283986560554E-2    1.905135250227660E-3    5.045863930976065E-3    1.960314800781834E-3    5.136193179089518E-3    4.019469522388701E-1   -2.087871063570513E-1
 8.117616986000000E9     5.012752576234215E-1   -6.697620547821505E-2    1.916924481671379E-3    5.051698221178336E-3    1.967972904176746E-3    5.173506341828606E-3    4.019544638005977E-1   -2.088746440928664E-1
 8.117618570300000E9     5.012510529323466E-1   -6.707625837405896E-2    1.902542838491301E-3    5.045506642525658E-3    2.000694582704266E-3    5.189035198986773E-3    4.018111711036244E-1   -2.089936432130658E-1
 8.117620154600000E9     5.012980970466422E-1   -6.738012048030398E-2    1.929815775069898E-3    5.103924372363037E-3    1.983331268610723E-3    5.168612750990242E-3    4.017668629572489E-1   -2.090398509485870E-1
 8.117621738900000E9     5.011003857921835E-1   -6.757431243411131E-2    1.959631784597787E-3    5.094383293018434E-3    2.024139732351299E-3    5.204633361492206E-3    4.017903019540525E-1   -2.091737373166258E-1
 8.117623323200000E9     5.010889176715613E-1   -6.779446770976280E-2    1.946177986098953E-3    5.100008877946814E-3    2.023854600057784E-3    5.189347862024942E-3    4.017979825742344E-1   -2.092394930547396E-1
 8.117624907500000E9     5.009905268916650E-1   -6.792807557220076E-2    1.981343654075878E-3    5.119020527004417E-3    2.036756354792193E-3    5.223823067425972E-3    4.016674236094180E-1   -2.093698951224437E-1
 8.117626491800000E9     5.010048886403442E-1   -6.812492371506956E-2    1.965446917460712E-3    5.133543366727359E-3    2.032471989850241E-3    5.226459293440918E-3    4.015483899183192E-1   -2.094679714958796E-1
 8.117628076100000E9     5.009221047714605E-1   -6.829655640155508E-2    1.976418944299389E-3    5.148566078484052E-3    2.050001024074312E-3    5.252221717708652E-3    4.014231426711294E-1   -2.094462118103161E-1
 8.117629660400000E9     5.008879821570615E-1   -6.854581397492228E-2    1.995272466581038E-3    5.164353319415733E-3    2.026177866436238E-3    5.271356930409777E-3    4.014906174944259E-1   -2.096178092658397E-1
 8.117631244700000E9     5.007715461600317E-1   -6.874562151496945E-2    2.014272955915683E-3    5.186532926967031E-3    2.068450645335869E-3    5.302489924666889E-3    4.015565552693492E-1   -2.096690014486954E-1
 8.117632829000000E9     5.008364257937400E-1   -6.893834494050453E-2    2.016099344053435E-3    5.194594749781849E-3    2.098071844610881E-3    5.368977117013804E-3    4.015340880385871E-1   -2.097080190934997E-1
