#  HZ   S   RI   R     50.00 
! Rohde & Schwarz Vector Network Analyzer 
! Rohde-Schwarz,ZNB20-2Port,1311601062101988,3.16
! Created: UTC 3/20/2024, 12:05:08 PM
! freq[Hz]                re:S11                  im:S11                  re:S21                  im:S21                  re:S12                  im:S12                  re:S22                  im:S22
 8.117516050000000E9     5.037346118077153E-1   -5.601807386295939E-2    1.456935144918079E-3    4.424934447677013E-3    1.490365854966904E-3    4.509466517985354E-3    4.050369203014831E-1   -2.024144983420994E-1
 8.117517535450000E9     5.036231121546574E-1   -5.614794621625623E-2    1.448066708626622E-3    4.443093933980866E-3    1.512262296276928E-3    4.498688926671875E-3    4.048751718038968E-1   -2.024096746283772E-1
 8.117519020900000E9     5.036941410555567E-1   -5.633226547710411E-2    1.453611288047985E-3    4.437650966365579E-3    1.529388555763554E-3    4.496417154988598E-3    4.047195721532691E-1   -2.025921015368690E-1
 8.117520506350000E9     5.035664803355794E-1   -5.650708852107338E-2    1.455034236061940E-3    4.439432249934937E-3    1.497703919421594E-3    4.529835476283391E-3    4.048473908850396E-1   -2.026799893925555E-1
 8.117521991800000E9     5.035759091065209E-1   -5.653998598366587E-2    1.469542261718219E-3    4.437102680597724E-3    1.536690826247457E-3    4.566107985921579E-3    4.048059638299793E-1   -2.025698812019462E-1
 8.117523477250000E9     5.035647992998514E-1   -5.674871205948837E-2    1.469137544265465E-3    4.438215822522343E-3    1.517538530495211E-3    4.566551610991487E-3    4.045936016643949E-1   -2.028122368523952E-1
 8.117524962700000E9     5.036133159569118E-1   -5.685725692415221E-2    1.465200300819431E-3    4.461902024037215E-3    1.527391896201046E-3    4.573007831223444E-3    4.046381236302384E-1   -2.029629747647491E-1
 8.117526448150000E9     5.034391356375354E-1   -5.692505863670067E-2    1.457891491457302E-3    4.454795502892717E-3    1.541353919331135E-3    4.586102949169730E-3    4.045442177877329E-1   -2.030588067228437E-1
 8.117527933600000E9     5.034721336056674E-1   -5.726443334731159E-2    1.503490923633024E-3    4.478001468102556E-3    1.493604274295610E-3    4.578274814530956E-3    4.046872047943348E-1   -2.030483809945657E-1
 8.117529419050000E9     5.035252268899996E-1   -5.726533113195238E-2    1.438127756135487E-3    4.478976376490580E-3    1.559846903748478E-3    4.522321825231580E-3    4.045250799029154E-1   -2.030429137363869E-1
 8.117530904500000E9     5.034349291451201E-1   -5.754397569911755E-2    1.473184163155281E-3    4.468314606461085E-3    1.556733876873240E-3    4.579699343137538E-3    4.045513405831001E-1   -2.032996393960889E-1
 8.117532389950000E9     5.034871354547432E-1   -5.756528351094806E-2    1.484054001106140E-3    4.456564598165466E-3    1.559387512854991E-3    4.566966006220963E-3    4.044441727373596E-1   -2.033429483389302E-1
 8.117533875400000E9     5.034750528378562E-1   -5.771583863974955E-2    1.511757376218705E-3    4.481204260044390E-3    1.537383769156938E-3    4.590298672771131E-3    4.043790500241790E-1   -2.035752425532485E-1
 8.117535360850000E9     5.034234278713211E-1   -5.800243576989138E-2    1.507219752164942E-3    4.489474577874704E-3    1.588206183253306E-3    4.619126919358581E-3    4.044862390143107E-1   -2.036214066354934E-1
 8.117536846300000E9     5.032279823053797E-1   -5.796639818975983E-2    1.508267630762901E-3    4.524536255972957E-3    1.577402380147670E-3    4.643653920460375E-3    4.042861766361917E-1   -2.037185355306214E-1
 8.117538331750000E9     5.034517586033112E-1   -5.815195270872804E-2    1.513273720403621E-3    4.490643508811807E-3    1.523303785813960E-3    4.579939930466648E-3    4.041887731816983E-1   -2.037013932827715E-1
 8.117539817200000E9     5.032609328068529E-1   -5.836333044901126E-2    1.520884200334809E-3    4.524504078526535E-3    1.579468213900767E-3    4.597216064841350E-3    4.042487892054189E-1   -2.039175547117808E-1
 8.117541302650000E9     5.033258562014511E-1   -5.850942199562890E-2    1.506565791062975E-3    4.519499515432805E-3    1.571899290665866E-3    4.601304494833413E-3    4.041637254378462E-1   -2.039546125273340E-1
 8.117542788100000E9     5.033513540244638E-1   -5.861439057529613E-2    1.553629918491437E-3    4.548771022956221E-3    1.563889562975467E-3    4.625077844265694E-3    4.041637591231258E-1   -2.040467083459832E-1
 8.117544273550000E9     5.031881350748901E-1   -5.888464982642089E-2    1.553077537322824E-3    4.524507878009852E-3    1.586423410928984E-3    4.635074887037243E-3    4.041577569453951E-1   -2.041406327919306E-1
 8.117545759000000E9     5.032628011214906E-1   -5.904472638049684E-2    1.535204037679425E-3    4.540203445031197E-3    1.599993279465613E-3    4.590794995111813E-3    4.040450910937861E-1   -2.041687802017755E-1
 8.117547244450000E9     5.032744348880055E-1   -5.913561661565591E-2    1.540969660891056E-3    4.528490087700668E-3    1.622421784011865E-3    4.668749282107531E-3    4.039209688479118E-1   -2.042173972591715E-1
 8.117548729900000E9     5.031413318195438E-1   -5.913369187902361E-2    1.531985088152579E-3    4.549361930293216E-3    1.569755510580336E-3    4.626642512503210E-3    4.040231548441892E-1   -2.044680213722270E-1
 8.117550215350000E9     5.030607910236535E-1   -5.937968508513030E-2    1.533115459370079E-3    4.559589116370117E-3    1.614013592758870E-3    4.675544770325002E-3    4.039191718882003E-1   -2.045144198395532E-1
 8.117551700800000E9     5.031522611774624E-1   -5.958042821839650E-2    1.545027192591000E-3    4.590533014949385E-3    1.621095384507840E-3    4.699131708474256E-3    4.038314480749279E-1   -2.045268442064589E-1
 8.117553186250000E9     5.031406531412870E-1   -5.969380489011053E-2    1.567282343991134E-3    4.585135961879555E-3    1.633857590086577E-3    4.657026863408261E-3    4.038863976954940E-1   -2.048043953650031E-1
 8.117554671700000E9     5.030860102393322E-1   -5.984957068923576E-2    1.583792860999050E-3    4.569641657185100E-3    1.617254799168643E-3    4.690585679631454E-3    4.038820801271341E-1   -2.048098436029312E-1
 8.117556157150000E9     5.031334862560518E-1   -5.988659174654357E-2    1.564674481394690E-3    4.603105915966153E-3    1.609347133191741E-3    4.666798468804231E-3    4.036295827334589E-1   -2.048044434745569E-1
 8.117557642600000E9     5.028724723345001E-1   -6.018099604393363E-2    1.578049129498974E-3    4.603162078668979E-3    1.602532750957412E-3    4.696479361414251E-3    4.035478087122205E-1   -2.049011644381900E-1
 8.117559128050000E9     5.030152885991573E-1   -6.046474246076300E-2    1.588861095384385E-3    4.619274122001344E-3    1.651732829197923E-3    4.721747251632460E-3    4.036633880311805E-1   -2.051590932032591E-1
 8.117560613500000E9     5.028566085196556E-1   -6.044119602952472E-2    1.589957683037595E-3    4.648610332550839E-3    1.628241127612596E-3    4.731448346445600E-3    4.035566794072362E-1   -2.052204168897475E-1
 8.117562098950000E9     5.029916724195452E-1   -6.070739844097848E-2    1.603754170613688E-3    4.642957937324651E-3    1.616288201764078E-3    4.733881630774398E-3    4.034949779744666E-1   -2.052676766056414E-1
 8.117563584400000E9     5.028624692146805E-1   -6.069726179538047E-2    1.587314899951797E-3    4.652240249850052E-3    1.671095942519430E-3    4.740767887945033E-3    4.036096796184009E-1   -2.055003884167103E-1
 8.117565069850000E9     5.029097686422763E-1   -6.089435349998238E-2    1.613204288084561E-3    4.651186512075599E-3    1.680447782478213E-3    4.733481840607377E-3    4.035471507398605E-1   -2.054883486091642E-1
 8.117566555300000E9     5.028647308474772E-1   -6.106087814620171E-2    1.641486580502636E-3    4.643823301875248E-3    1.663369143607128E-3    4.749875626685334E-3    4.032424565785307E-1   -2.054942452570271E-1
 8.117568040750000E9     5.028642106098822E-1   -6.124114436150212E-2    1.611415913852281E-3    4.657418436570018E-3    1.710158331173473E-3    4.730054357252165E-3    4.035464809658615E-1   -2.057033386385624E-1
 8.117569526200000E9     5.027318061205278E-1   -6.138550583259502E-2    1.590765634058269E-3    4.692925615465558E-3    1.640294101486795E-3    4.780487977029814E-3    4.031980398399193E-1   -2.057277926342055E-1
 8.117571011650000E9     5.028279918904445E-1   -6.155689093729410E-2    1.647652255247878E-3    4.672928076934435E-3    1.673479238907825E-3    4.797809169570756E-3    4.033990980148146E-1   -2.059526925299000E-1
 8.117572497100000E9     5.027770252674653E-1   -6.179378147900894E-2    1.646159397855608E-3    4.702883031789984E-3    1.684687872643728E-3    4.769456523978382E-3    4.031741599086911E-1   -2.059678488102512E-1
 8.117573982550000E9     5.027123774174843E-1   -6.194383573639315E-2    1.623910129070172E-3    4.703935002276530E-3    1.710686218933063E-3    4.804682209636434E-3    4.031034376480110E-1   -2.060532891655808E-1
 8.117575468000000E9     5.026597334117288E-1   -6.196668189619551E-2    1.646685268808960E-3    4.695968799974017E-3    1.713278705557088E-3    4.810512354065941E-3    4.031240764362558E-1   -2.062241733631916E-1
 8.117576953450000E9     5.026013691860860E-1   -6.218659028429917E-2    1.625210839983765E-3    4.712498313306556E-3    1.713579486004988E-3    4.826750224553212E-3    4.030171853932444E-1   -2.062425921532555E-1
 8.117578438900000E9     5.024404567379714E-1   -6.230477336106666E-2    1.656284530208146E-3    4.719958619495797E-3    1.730557741189184E-3    4.787825337291670E-3    4.032075093092999E-1   -2.062520105892412E-1
 8.117579924350000E9     5.025446733645982E-1   -6.250554037021232E-2    1.642440820618787E-3    4.732547222828798E-3    1.727180002749376E-3    4.842545133666307E-3    4.028996677408505E-1   -2.063786838385095E-1
 8.117581409800000E9     5.025022642589313E-1   -6.263207008345477E-2    1.692285940440508E-3    4.740434975114925E-3    1.757590307933529E-3    4.876838003091360E-3    4.029238193671941E-1   -2.066608321314558E-1
 8.117582895250000E9     5.024369937355387E-1   -6.277585169408030E-2    1.655559129952527E-3    4.744238906310355E-3    1.711901668129390E-3    4.881427349224530E-3    4.030593718221755E-1   -2.067105445781674E-1
 8.117584380700000E9     5.024752922399808E-1   -6.302843776918102E-2    1.700276396934809E-3    4.766279001996162E-3    1.697615787421674E-3    4.859814449474495E-3    4.029414181202046E-1   -2.066818008628584E-1
 8.117585866150000E9     5.023734186856987E-1   -6.321766648929722E-2    1.667895466685849E-3    4.792628873076195E-3    1.755520990401823E-3    4.892218796748033E-3    4.028371877376641E-1   -2.068442120747059E-1
 8.117587351600000E9     5.023803098268870E-1   -6.321246725183852E-2    1.693664561604676E-3    4.795332364328933E-3    1.770981716335896E-3    4.870125829746397E-3    4.027135476646863E-1   -2.069942244706070E-1
 8.117588837050000E9     5.022655429228011E-1   -6.345099267712281E-2    1.700818875661123E-3    4.782146173400675E-3    1.782611147355183E-3    4.910407849846620E-3    4.028196083965820E-1   -2.068833971496753E-1
 8.117590322500000E9     5.023099627913676E-1   -6.355720266795793E-2    1.709693349160370E-3    4.813726510879820E-3    1.767558402745819E-3    4.881851939416950E-3    4.027966577162038E-1   -2.070111163204630E-1
 8.117591807950000E9     5.023940194540750E-1   -6.377602489111678E-2    1.710334441992519E-3    4.796944513387072E-3    1.793259318908874E-3    4.893994533144022E-3    4.026862418591554E-1   -2.072140398247506E-1
 8.117593293400000E9     5.023013914610911E-1   -6.394278994595058E-2    1.722296834460647E-3    4.812200616722720E-3    1.801679237717508E-3    4.950930795415882E-3    4.027147157998732E-1   -2.074426085437744E-1
 8.117594778850000E9     5.022026285096720E-1   -6.425513418613621E-2    1.728187510694266E-3    4.834433782700645E-3    1.808386042788703E-3    4.922369467117400E-3    4.024808575098042E-1   -2.074376603294295E-1
 8.117596264300000E9     5.022110462242252E-1   -6.422801902410523E-2    1.730338265693653E-3    4.844549447764827E-3    1.852470097724401E-3    4.924316762436689E-3    4.026176183101894E-1   -2.075282932402499E-1
 8.117597749750000E9     5.022091549752695E-1   -6.441703994024216E-2    1.751920680726812E-3    4.852122944319307E-3    1.814112640083192E-3    4.973506657579081E-3    4.023536640497244E-1   -2.076488655503456E-1
 8.117599235200000E9     5.021221463968719E-1   -6.458673606956318E-2    1.760526953206835E-3    4.832738929738675E-3    1.798447177470012E-3    4.992277373810406E-3    4.024214119810744E-1   -2.075403616978535E-1
 8.117600720650000E9     5.019740229276698E-1   -6.476630318207253E-2    1.753479251362154E-3    4.858521581251438E-3    1.826021118389133E-3    5.014767163531207E-3    4.023452062643890E-1   -2.078098567925512E-1
 8.117602206100000E9     5.021183812804826E-1   -6.497081882769054E-2    1.747870548659429E-3    4.877260010299552E-3    1.811135932501246E-3    4.931147866949582E-3    4.023437817239422E-1   -2.078961054218861E-1
 8.117603691550000E9     5.019730495582490E-1   -6.505555390436894E-2    1.759252181953119E-3    4.889793026639428E-3    1.840161676698738E-3    5.002277898446737E-3    4.022776461950803E-1   -2.081994309163284E-1
 8.117605177000000E9     5.019241085567162E-1   -6.521672513220209E-2    1.790005651392310E-3    4.912612422677719E-3    1.874602013404516E-3    5.023872671867874E-3    4.023065030698129E-1   -2.080971551029022E-1
 8.117606662450000E9     5.017875651554720E-1   -6.556002723476315E-2    1.785214779605803E-3    4.951726346727510E-3    1.865491320455344E-3    5.028621933471460E-3    4.021992519337894E-1   -2.080733183715860E-1
 8.117608147900000E9     5.017794364898704E-1   -6.564830865592113E-2    1.820216075227414E-3    4.924913964218777E-3    1.850057580303569E-3    5.031311629376149E-3    4.022729733644241E-1   -2.083792230795060E-1
 8.117609633350000E9     5.018160102223522E-1   -6.570160257218258E-2    1.832700090673177E-3    4.936730127701192E-3    1.923760979724647E-3    5.047406433625020E-3    4.021988783373340E-1   -2.084100447813247E-1
 8.117611118800000E9     5.016721907129356E-1   -6.618440880524443E-2    1.807375632668691E-3    4.979436487134073E-3    1.844946358872985E-3    5.045161141975366E-3    4.021114436133894E-1   -2.084130742502554E-1
 8.117612604250000E9     5.016259078467138E-1   -6.615872386859541E-2    1.831258862971685E-3    4.972011860841201E-3    1.899725011938285E-3    5.065041110537028E-3    4.020978696543629E-1   -2.084986405726952E-1
 8.117614089700000E9     5.016018419074419E-1   -6.625306763919392E-2    1.834483982252515E-3    4.991107079887610E-3    1.901489910392879E-3    5.049788901571543E-3    4.019629468115020E-1   -2.087503815811786E-1
 8.117615575150000E9     5.016130719451306E-1   -6.654779752980808E-2    1.862292214215329E-3    4.999889522412524E-3    1.885629990180481E-3    5.051940872198639E-3    4.019130373141993E-1   -2.089195152492031E-1
 8.117617060600000E9     5.015493329228374E-1   -6.674647408326626E-2    1.841337142929561E-3    4.995600463999992E-3    1.919711608883827E-3    5.135307626093586E-3    4.017714500217057E-1   -2.088800369049242E-1
 8.117618546050000E9     5.013704888426752E-1   -6.692427469679692E-2    1.869096379945782E-3    5.021041594669789E-3    1.925947401119369E-3    5.127884580537561E-3    4.018690278649248E-1   -2.089181977367724E-1
 8.117620031500000E9     5.015457454799802E-1   -6.696610195928110E-2    1.909034548930917E-3    5.046464269965638E-3    1.954221190642924E-3    5.119358303004012E-3    4.017205960532023E-1   -2.090245729776671E-1
 8.117621516950000E9     5.013813016123445E-1   -6.728854799862785E-2    1.884615065726686E-3    5.059646087843726E-3    1.974193058209627E-3    5.155266390268718E-3    4.017306917631311E-1   -2.090467104360988E-1
 8.117623002400000E9     5.013459464068757E-1   -6.749651460573304E-2    1.892186320082003E-3    5.069274547762578E-3    1.943202480410773E-3    5.157859129927510E-3    4.016093256817851E-1   -2.093215751482074E-1
 8.117624487850000E9     5.014400283179541E-1   -6.755153669533466E-2    1.909637106421004E-3    5.061415174750720E-3    1.953287110384463E-3    5.191791134551493E-3    4.016989595189975E-1   -2.093746686709060E-1
 8.117625973300000E9     5.012818644494846E-1   -6.784139433760993E-2    1.901200635633695E-3    5.057503828483270E-3    2.030489832518311E-3    5.185075144492711E-3    4.017231953459909E-1   -2.095210017494568E-1
 8.117627458750000E9     5.011552947665440E-1   -6.801471066718910E-2    1.926333192037504E-3    5.096128201484894E-3    1.988907572970100E-3    5.239751574148939E-3    4.014537797726744E-1   -2.094582628139200E-1
 8.117628944200000E9     5.012405788358455E-1   -6.823837897639538E-2    1.941084330031129E-3    5.122971080055013E-3    2.031985565168322E-3    5.258618490633416E-3    4.015926016382633E-1   -2.095981066148486E-1
 8.117630429650000E9     5.010463951414068E-1   -6.827483562984957E-2    1.940064011234607E-3    5.108468695797505E-3    2.044553227309264E-3    5.255635104365814E-3    4.014389546365674E-1   -2.097199952134662E-1
 8.117631915100000E9     5.010670952043740E-1   -6.848137108215505E-2    1.977641770745352E-3    5.135757869411661E-3    2.025576503144882E-3    5.273384605478076E-3    4.014578933216430E-1   -2.098537152560477E-1
 8.117633400550000E9     5.008886542458489E-1   -6.869821685144077E-2    1.954405724425830E-3    5.158684588640839E-3    2.038248642511341E-3    5.242681849839696E-3    4.014716798184798E-1   -2.098858014654710E-1
 8.117634886000000E9     5.009798881480925E-1   -6.884463834530373E-2    1.971500688071012E-3    5.211004119141644E-3    2.023661126983533E-3    5.284590111524789E-3    4.012810775449622E-1   -2.100393888277507E-1
 8.117636371450000E9     5.008785071548156E-1   -6.918824703525357E-2    2.000435937104855E-3    5.167648295090294E-3    2.071242342865188E-3    5.268235999268935E-3    4.013874106345109E-1   -2.099641500181595E-1
 8.117637856900000E9     5.007245066671017E-1   -6.919874152746938E-2    2.008994615408760E-3    5.215542937064225E-3    2.076104674694065E-3    5.312155117297409E-3    4.011897568676574E-1   -2.101931564694653E-1
 8.117639342350000E9     5.006877305681614E-1   -6.939475143606892E-2    2.035478903799722E-3    5.214603714076370E-3    2.086345134997462E-3    5.345352595299539E-3    4.012711594612978E-1   -2.103479944211312E-1
 8.117640827800000E9     5.007393726086157E-1   -6.973215888678326E-2    2.002295853514726E-3    5.231639981299946E-3    2.105094737678576E-3    5.383522598912986E-3    4.012818750059610E-1   -2.105603961534261E-1
 8.117642313250000E9     5.007271532347184E-1   -6.997146441055219E-2    2.020500641438430E-3    5.279048701683519E-3    2.086167575858431E-3    5.344931791605261E-3    4.011226364929771E-1   -2.104374178550743E-1
 8.117643798700000E9     5.006352899851881E-1   -7.007437345380761E-2    2.044390477137296E-3    5.267579725030813E-3    2.121144740904457E-3    5.367762618740382E-3    4.011229388131744E-1   -2.106239343929885E-1
 8.117645284150000E9     5.006647461252083E-1   -7.021551536907315E-2    2.081220901961543E-3    5.284472800982353E-3    2.137683325416869E-3    5.392974080984697E-3    4.011189224786256E-1   -2.107893912955512E-1
 8.117646769600000E9     5.005840261716549E-1   -7.037926333825639E-2    2.059071013911583E-3    5.319713196468821E-3    2.168307394971215E-3    5.423232098000684E-3    4.010615138926859E-1   -2.107720360461671E-1
 8.117648255050000E9     5.005425252645228E-1   -7.057071914848803E-2    2.107953088073958E-3    5.293309131857537E-3    2.170913947224355E-3    5.433546204767962E-3    4.008774935896324E-1   -2.109637846369867E-1
 8.117649740500000E9     5.003796839866352E-1   -7.069875713709357E-2    2.108854249771932E-3    5.324510607387426E-3    2.219638871029978E-3    5.447568756937583E-3    4.008371350499391E-1   -2.110282415648840E-1
