#  HZ   S   RI   R     50.00 
! Rohde & Schwarz Vector Network Analyzer 
! Rohde-Schwarz,ZNB20-2Port,1311601062101988,3.16
! Created: UTC 3/20/2024, 12:05:18 PM
! freq[Hz]                re:S11                  im:S11                  re:S21                  im:S21                  re:S12                  im:S12                  re:S22                  im:S22
 8.117533075000000E9     5.035906835058767E-1   -5.747875424782348E-2    1.470811494730241E-3    4.490830599170667E-3    1.527129988318685E-3    4.551698337458232E-3    4.044365481173569E-1   -2.034802858921368E-1
 8.117534496100000E9     5.035581723534907E-1   -5.757476351980754E-2    1.483943446177107E-3    4.487716112246113E-3    1.503974642685812E-3    4.574039376019582E-3    4.044291725018210E-1   -2.034784400593993E-1
 8.117535917200000E9     5.034999121876479E-1   -5.788257625792466E-2    1.492692067942098E-3    4.454789898453258E-3    1.527804218470364E-3    4.605789349463578E-3    4.042565605928293E-1   -2.034559207535100E-1
 8.117537338300000E9     5.034165448937210E-1   -5.789686047906270E-2    1.471207060518152E-3    4.477699553368986E-3    1.514443905780245E-3    4.544546096989205E-3    4.043227190460897E-1   -2.036899599190226E-1
 8.117538759400000E9     5.035084940914586E-1   -5.814174142381847E-2    1.490565631401006E-3    4.523470725202669E-3    1.492763170118777E-3    4.620721970633366E-3    4.042911466171250E-1   -2.038435320457707E-1
 8.117540180500000E9     5.033826365621764E-1   -5.818405838198026E-2    1.502248061196890E-3    4.509141068994397E-3    1.546500223648083E-3    4.572878626505824E-3    4.041931255286296E-1   -2.038498650781196E-1
 8.117541601600000E9     5.033674445077866E-1   -5.839054614107668E-2    1.520341719618531E-3    4.502361623555805E-3    1.566917729870079E-3    4.601125952623818E-3    4.042820989872609E-1   -2.038871740228713E-1
 8.117543022700000E9     5.033238220305241E-1   -5.849408977728376E-2    1.502938168825782E-3    4.532965586886384E-3    1.534254067799845E-3    4.617630619682261E-3    4.041461055412390E-1   -2.041160855438479E-1
 8.117544443800000E9     5.033330329135109E-1   -5.866654695214576E-2    1.500779119693780E-3    4.525803857442013E-3    1.544706992091621E-3    4.576859885148285E-3    4.039631040246360E-1   -2.041222275599330E-1
 8.117545864900000E9     5.033610602262573E-1   -5.884174450202782E-2    1.499097544085309E-3    4.534571586013009E-3    1.595552527010865E-3    4.661330686434749E-3    4.040136095712686E-1   -2.042933062376509E-1
 8.117547286000000E9     5.033044060045047E-1   -5.900143979725227E-2    1.510603469860094E-3    4.544545752674844E-3    1.562809593453885E-3    4.622998549341552E-3    4.040117670241546E-1   -2.043132844444262E-1
 8.117548707100000E9     5.032330673689390E-1   -5.909827781793147E-2    1.529425670804848E-3    4.562300650808117E-3    1.572175675409465E-3    4.619331530687505E-3    4.039709114890062E-1   -2.044347351222307E-1
 8.117550128200000E9     5.032669217085870E-1   -5.931350434956358E-2    1.534871734807602E-3    4.556908250615625E-3    1.616988852249666E-3    4.627983134122870E-3    4.040900131890114E-1   -2.046539777611349E-1
 8.117551549300000E9     5.031328500804092E-1   -5.934156333180844E-2    1.532276150012123E-3    4.546713981926389E-3    1.592875754843304E-3    4.628976475835966E-3    4.039221638713124E-1   -2.045001094154941E-1
 8.117552970400000E9     5.033644242095097E-1   -5.958319829525138E-2    1.552574152558702E-3    4.562596909766388E-3    1.547283346653719E-3    4.653900306089933E-3    4.039116918628632E-1   -2.047615175474270E-1
 8.117554391500000E9     5.031807309857774E-1   -5.971028612712999E-2    1.556946117006940E-3    4.568723691097691E-3    1.608970316657982E-3    4.647114404527314E-3    4.037379926681520E-1   -2.048896797261575E-1
 8.117555812600000E9     5.030183383053005E-1   -5.983362290661254E-2    1.535565421640500E-3    4.594138299290296E-3    1.593100145984195E-3    4.698682230805227E-3    4.037258125937257E-1   -2.049065644152107E-1
 8.117557233700000E9     5.030777350748679E-1   -5.990858082909242E-2    1.554437795061071E-3    4.577305313852159E-3    1.596818994996930E-3    4.689133262247044E-3    4.038242639432730E-1   -2.049783801955736E-1
 8.117558654800000E9     5.031130553241396E-1   -6.010326750433680E-2    1.550143555140995E-3    4.593812369691010E-3    1.575648837348683E-3    4.690844594374259E-3    4.036332790435683E-1   -2.051053872813499E-1
 8.117560075900000E9     5.031082927846234E-1   -6.027880842531578E-2    1.565956586720094E-3    4.622821891656754E-3    1.611984251155193E-3    4.710181384720007E-3    4.036120460056882E-1   -2.051721855762416E-1
 8.117561497000000E9     5.030243641066789E-1   -6.039591479798009E-2    1.588670713118625E-3    4.623947683916951E-3    1.638549827216321E-3    4.721100965115872E-3    4.037331752813121E-1   -2.052639666483756E-1
 8.117562918100000E9     5.030646354055551E-1   -6.054286105665313E-2    1.581838144883092E-3    4.599764155931349E-3    1.641925400164214E-3    4.690688900213398E-3    4.033968332744360E-1   -2.054224728715676E-1
 8.117564339200000E9     5.029455239783829E-1   -6.067690332791867E-2    1.596221002841241E-3    4.613703621503102E-3    1.667497095696262E-3    4.760032507141816E-3    4.035333133258250E-1   -2.056733792534857E-1
 8.117565760300000E9     5.029054987803646E-1   -6.092273561123079E-2    1.599355198935626E-3    4.645317573548442E-3    1.668707650306731E-3    4.742237119665362E-3    4.034983769901034E-1   -2.056441111627057E-1
 8.117567181400000E9     5.028299490908655E-1   -6.111575367775485E-2    1.561957862266599E-3    4.616799696010206E-3    1.666323392985843E-3    4.753419098684185E-3    4.033623831030647E-1   -2.055824061502365E-1
 8.117568602500000E9     5.029172922565894E-1   -6.120563820210604E-2    1.599439508970746E-3    4.656090896366202E-3    1.674370388297781E-3    4.739847619175450E-3    4.032470850857294E-1   -2.056985216451478E-1
 8.117570023600000E9     5.029684830201245E-1   -6.125220787252225E-2    1.585756154405381E-3    4.646799042935591E-3    1.644946866779915E-3    4.767504734456756E-3    4.032969822714290E-1   -2.057218027453502E-1
 8.117571444700000E9     5.029495240886289E-1   -6.148987175121372E-2    1.596918507991849E-3    4.659741481378732E-3    1.672274943765572E-3    4.770330175365339E-3    4.032680246396103E-1   -2.060036776794099E-1
 8.117572865800000E9     5.028005368576335E-1   -6.159706534755650E-2    1.613175133665351E-3    4.692974204902314E-3    1.606433861696498E-3    4.771646376029645E-3    4.031980389835915E-1   -2.059260587782334E-1
 8.117574286900000E9     5.027731175813807E-1   -6.174726325662827E-2    1.633427508510298E-3    4.705630797352680E-3    1.693110841010662E-3    4.773277300619103E-3    4.031411900531257E-1   -2.059929036807981E-1
 8.117575708000000E9     5.027819023003637E-1   -6.197964947448539E-2    1.620380037280511E-3    4.699544045474684E-3    1.670129044266520E-3    4.820587586844911E-3    4.031677909828251E-1   -2.061384448548660E-1
 8.117577129100000E9     5.027859731528802E-1   -6.200473467514447E-2    1.652474790281647E-3    4.689250968731931E-3    1.717853925005615E-3    4.808022170250094E-3    4.031492294465031E-1   -2.062286055275558E-1
 8.117578550200000E9     5.025673423426241E-1   -6.218866438265083E-2    1.645931734663255E-3    4.706974587093439E-3    1.722138507666516E-3    4.795682541538174E-3    4.030506035712055E-1   -2.065207905237606E-1
 8.117579971300000E9     5.027832159982666E-1   -6.238776934071229E-2    1.632701757456023E-3    4.715039535171055E-3    1.720932408495166E-3    4.784733227190519E-3    4.031982891403831E-1   -2.064438512227362E-1
 8.117581392400000E9     5.026177918824507E-1   -6.258803015280322E-2    1.637783109560440E-3    4.699480851945933E-3    1.712399082380310E-3    4.810235921463104E-3    4.028971848672765E-1   -2.066319316947547E-1
 8.117582813500000E9     5.025507527128852E-1   -6.266155756000763E-2    1.636916666086714E-3    4.721993235617380E-3    1.721725280380321E-3    4.823808605814307E-3    4.030563223190871E-1   -2.066962463600639E-1
 8.117584234600000E9     5.025719068611378E-1   -6.280134641525154E-2    1.655153880202298E-3    4.740250013650182E-3    1.723219495078925E-3    4.853559689808093E-3    4.028924626412174E-1   -2.066634611236103E-1
 8.117585655700000E9     5.025538943362237E-1   -6.306283674674401E-2    1.670919353466238E-3    4.769917428773154E-3    1.740816964054736E-3    4.851844112732264E-3    4.028554779263664E-1   -2.067591473700401E-1
 8.117587076800000E9     5.025359773515233E-1   -6.307737678056045E-2    1.681330737959551E-3    4.773522991621464E-3    1.771193386323832E-3    4.855421878080207E-3    4.028067990482315E-1   -2.069469227539728E-1
 8.117588497900000E9     5.024570358352317E-1   -6.334110810255619E-2    1.689612914707898E-3    4.777521007009372E-3    1.720824770067840E-3    4.848758013758773E-3    4.028565588238487E-1   -2.070869370237085E-1
 8.117589919000000E9     5.024889275435133E-1   -6.337789748988339E-2    1.683511639345560E-3    4.770609017323440E-3    1.761270904812453E-3    4.860512828073332E-3    4.025525430344878E-1   -2.071009115174629E-1
 8.117591340100000E9     5.023821958276022E-1   -6.359167427095994E-2    1.683753109700028E-3    4.793276338893869E-3    1.703024597883036E-3    4.922729433852076E-3    4.027017541261692E-1   -2.070567262502145E-1
 8.117592761200000E9     5.024252526543892E-1   -6.378370665752969E-2    1.698199543561412E-3    4.795523455530192E-3    1.769128837453601E-3    4.880178489483620E-3    4.026316030117530E-1   -2.073777359562550E-1
 8.117594182300000E9     5.023718381748409E-1   -6.392650263850698E-2    1.688957311660732E-3    4.797959940316229E-3    1.802242970875362E-3    4.897742311698829E-3    4.027271265910418E-1   -2.074018525779628E-1
 8.117595603400000E9     5.022924363128012E-1   -6.391952532522518E-2    1.711366479994259E-3    4.807491108369769E-3    1.758733230608949E-3    4.894082076886006E-3    4.024377600380706E-1   -2.073904221090789E-1
 8.117597024500000E9     5.022210018202565E-1   -6.411489448205614E-2    1.718757014707129E-3    4.824253205264106E-3    1.810524512031767E-3    4.947613594872304E-3    4.025794021298064E-1   -2.074645707957603E-1
 8.117598445600000E9     5.022495742840938E-1   -6.433997196057716E-2    1.735134276831272E-3    4.818936972482084E-3    1.802760604365936E-3    4.928777814206646E-3    4.025320815800256E-1   -2.075104228712294E-1
 8.117599866700000E9     5.022038732188363E-1   -6.449637842656775E-2    1.739506451752664E-3    4.834163624765420E-3    1.819776464664851E-3    4.964540180488403E-3    4.024753966388736E-1   -2.079244272740634E-1
 8.117601287800000E9     5.020172894974078E-1   -6.464416948445839E-2    1.742226659696795E-3    4.848625455541608E-3    1.834554385019221E-3    4.934149972554392E-3    4.024367703405258E-1   -2.077985697809691E-1
 8.117602708900000E9     5.021665666270532E-1   -6.480252101637105E-2    1.744977893069671E-3    4.855229963710702E-3    1.836047651839332E-3    4.950009633836291E-3    4.022486322406434E-1   -2.078556919309402E-1
 8.117604130000000E9     5.021849231942912E-1   -6.503747907558123E-2    1.757134933857914E-3    4.854960275988407E-3    1.758260738249289E-3    4.996956815393155E-3    4.024072291058929E-1   -2.080064338538701E-1
 8.117605551100000E9     5.020117006104629E-1   -6.509674556812309E-2    1.794390147147737E-3    4.877220208722941E-3    1.816102601609593E-3    4.974303785861288E-3    4.022238686873773E-1   -2.081460996981493E-1
 8.117606972200000E9     5.020288511987945E-1   -6.538087573119375E-2    1.795252024599485E-3    4.903086172775109E-3    1.832620204601382E-3    5.036590723272839E-3    4.020902231545943E-1   -2.082686566426932E-1
 8.117608393300000E9     5.017999903274701E-1   -6.549502929612377E-2    1.780446103830707E-3    4.914322416416200E-3    1.847613425469800E-3    4.987607160838166E-3    4.020347899033833E-1   -2.083006673915333E-1
 8.117609814400000E9     5.018892148145416E-1   -6.570505779643449E-2    1.777048327089281E-3    4.925302259564506E-3    1.852755080504243E-3    5.037634496427706E-3    4.021369448996482E-1   -2.082853125879046E-1
 8.117611235500000E9     5.018894193254847E-1   -6.587694053635687E-2    1.776522199001235E-3    4.910686414363223E-3    1.822131114013947E-3    5.012417910837412E-3    4.020341529222330E-1   -2.084594556395180E-1
 8.117612656600000E9     5.018402870722032E-1   -6.607281950922050E-2    1.811282892213348E-3    4.932590251980765E-3    1.899393192046548E-3    5.050858849036333E-3    4.020211474729756E-1   -2.086532993034638E-1
 8.117614077700000E9     5.016473471317023E-1   -6.624566007546899E-2    1.791423630021005E-3    4.945461153188182E-3    1.861798072049335E-3    5.025390292699732E-3    4.019399751743047E-1   -2.086998812709249E-1
 8.117615498800000E9     5.017473878240823E-1   -6.635116876693853E-2    1.816069664174653E-3    4.950273204317731E-3    1.860849378918270E-3    5.093383282038537E-3    4.018732104195185E-1   -2.086963426288475E-1
 8.117616919900000E9     5.017951229049282E-1   -6.657838497539612E-2    1.816240615687510E-3    4.969669751607181E-3    1.856243840966199E-3    5.076184328001357E-3    4.019151775478095E-1   -2.087805255596718E-1
 8.117618341000000E9     5.016027871457235E-1   -6.677286918113530E-2    1.834055091983625E-3    5.000553134940796E-3    1.919169958964411E-3    5.104766222448672E-3    4.019091068544550E-1   -2.088845658265655E-1
 8.117619762100000E9     5.016065231891231E-1   -6.682701423071828E-2    1.835186616791034E-3    5.008989198920562E-3    1.941518389167088E-3    5.088183598318762E-3    4.019559593809315E-1   -2.091242326979688E-1
 8.117621183200000E9     5.015222162802221E-1   -6.702381076333148E-2    1.870483057039958E-3    5.019412408720075E-3    1.923178046113594E-3    5.125603468544535E-3    4.018311911023165E-1   -2.090212891330497E-1
 8.117622604300000E9     5.013952090119422E-1   -6.712487809160383E-2    1.857527169381186E-3    5.033652080818477E-3    1.919038274929410E-3    5.156617315763039E-3    4.017724015295879E-1   -2.092989736842882E-1
 8.117624025400000E9     5.014895127121568E-1   -6.723457301525317E-2    1.874636644463658E-3    5.046489351272597E-3    1.943542328491597E-3    5.122789134032273E-3    4.016590725906852E-1   -2.093147353635700E-1
 8.117625446500000E9     5.015917615380322E-1   -6.759809519171342E-2    1.873638986770911E-3    5.064613702722248E-3    1.910005562572657E-3    5.152381074810235E-3    4.017744738317562E-1   -2.093406617519060E-1
 8.117626867600000E9     5.013709247923451E-1   -6.764044813557023E-2    1.881024359066366E-3    5.049494151053278E-3    1.958906609247341E-3    5.179044067357728E-3    4.016360934993088E-1   -2.095368816771938E-1
 8.117628288700000E9     5.013184984310128E-1   -6.779430701605720E-2    1.912261315174424E-3    5.076470774001971E-3    1.947488600998255E-3    5.201570360101487E-3    4.016404467881858E-1   -2.095461471455787E-1
 8.117629709800000E9     5.013850253115847E-1   -6.800234074564496E-2    1.919708944726066E-3    5.085912318357260E-3    1.974143654057988E-3    5.185068142377599E-3    4.014842961988274E-1   -2.096243087045673E-1
 8.117631130900000E9     5.013186184397183E-1   -6.812064520967202E-2    1.917713222205625E-3    5.138530661396969E-3    2.004915101221498E-3    5.190893806534288E-3    4.014536749877831E-1   -2.097374274797993E-1
 8.117632552000000E9     5.014600079988086E-1   -6.835234509025488E-2    1.927147019214307E-3    5.126761931376629E-3    2.007150184036763E-3    5.223045959944455E-3    4.015038632423540E-1   -2.098168787530940E-1
 8.117633973100000E9     5.012397889537700E-1   -6.870737644500617E-2    1.941528581590270E-3    5.103871063785675E-3    2.032295571290666E-3    5.241832096344921E-3    4.013581130131058E-1   -2.098903720248263E-1
 8.117635394200000E9     5.012378568689922E-1   -6.879788983065037E-2    1.965366274692583E-3    5.131741312611173E-3    2.033957679377133E-3    5.248350855362007E-3    4.012946561135114E-1   -2.100556318950096E-1
 8.117636815300000E9     5.011927103541762E-1   -6.895259180117297E-2    1.950685787675175E-3    5.134079355495451E-3    2.049885671181992E-3    5.284981065490370E-3    4.012428900575757E-1   -2.100340943403108E-1
 8.117638236400000E9     5.010088847590992E-1   -6.905608249306371E-2    1.960150070795133E-3    5.167317071372521E-3    2.019555278987077E-3    5.255546259768406E-3    4.012773430981731E-1   -2.102189599845682E-1
 8.117639657500000E9     5.009621035581825E-1   -6.934473098912503E-2    1.973585642085380E-3    5.184770542078091E-3    2.033773478808038E-3    5.291466793660780E-3    4.012257903253383E-1   -2.103241259726475E-1
 8.117641078600000E9     5.009542138638089E-1   -6.945966324915930E-2    2.009799564283701E-3    5.166279808538296E-3    2.051065899921942E-3    5.274287964112155E-3    4.010249107960486E-1   -2.104333467923710E-1
 8.117642499700000E9     5.008980747476940E-1   -6.964251444770367E-2    2.018439162964433E-3    5.194772977554890E-3    2.076982595634747E-3    5.312552345016625E-3    4.010919120476297E-1   -2.105161013504785E-1
 8.117643920800000E9     5.008348370487467E-1   -6.982279453796728E-2    1.993953713477022E-3    5.220002121438519E-3    2.080969766813576E-3    5.361081254540000E-3    4.010715014680967E-1   -2.106486181036479E-1
 8.117645341900000E9     5.007826604875788E-1   -7.001210729383485E-2    2.016745763282063E-3    5.238007602071369E-3    2.055803227963508E-3    5.328979499505486E-3    4.009821019704187E-1   -2.106509666445494E-1
 8.117646763000000E9     5.008179045352913E-1   -7.025654017448224E-2    2.018758909912302E-3    5.255609024477915E-3    2.141912204522862E-3    5.369919171545224E-3    4.009678383542324E-1   -2.108292159359994E-1
 8.117648184100000E9     5.006979368178434E-1   -7.036757335690061E-2    2.055743060070233E-3    5.276894158895365E-3    2.157280625179534E-3    5.369960919300893E-3    4.009848620230942E-1   -2.108957888517729E-1
 8.117649605200000E9     5.005504480288342E-1   -7.057837002698945E-2    2.067758591603421E-3    5.285819204663373E-3    2.170938932700046E-3    5.385703396352927E-3    4.009211504513771E-1   -2.109561691509818E-1
 8.117651026300000E9     5.005611289110835E-1   -7.079048482431065E-2    2.046290954650824E-3    5.315723104488483E-3    2.119265046850853E-3    5.396464100348679E-3    4.008557433736360E-1   -2.110493091798999E-1
 8.117652447400000E9     5.005327778915422E-1   -7.084273086126426E-2    2.085653262271910E-3    5.295135449861255E-3    2.144821768223320E-3    5.409859204624430E-3    4.007274619524382E-1   -2.112401222599722E-1
 8.117653868500000E9     5.004474062185617E-1   -7.117979140682033E-2    2.101671947024758E-3    5.332914584844968E-3    2.173511214737325E-3    5.441549904327183E-3    4.008442757164944E-1   -2.113051917448436E-1
 8.117655289600000E9     5.005215223792019E-1   -7.132344532542730E-2    2.098610066286028E-3    5.354009555726320E-3    2.199445873856248E-3    5.491875583496242E-3    4.007318820024585E-1   -2.113068479298103E-1
 8.117656710700000E9     5.004897468205799E-1   -7.151971651381432E-2    2.136026701529426E-3    5.390402264768304E-3    2.196259250860329E-3    5.490949869434626E-3    4.005901345541339E-1   -2.114516541882454E-1
 8.117658131800000E9     5.002804466758624E-1   -7.164062199494808E-2    2.134238408015436E-3    5.391353953937737E-3    2.218410613658912E-3    5.516732955263156E-3    4.005650578551472E-1   -2.115802637691561E-1
 8.117659552900000E9     5.002123210550370E-1   -7.187874876902156E-2    2.144101474264496E-3    5.418011701801403E-3    2.224316774890381E-3    5.516162023406401E-3    4.005685528711964E-1   -2.116257811034820E-1
 8.117660974000000E9     5.001907214808969E-1   -7.204762227347927E-2    2.163298241428301E-3    5.413723951798945E-3    2.225334055461833E-3    5.524358032694980E-3    4.004128992569708E-1   -2.116301085700260E-1
