#  HZ   S   RI   R     50.00 
! Rohde & Schwarz Vector Network Analyzer 
! Rohde-Schwarz,ZNB20-2Port,1311601062101988,3.16
! Created: UTC 3/20/2024, 12:05:32 PM
! freq[Hz]                re:S11                  im:S11                  re:S21                  im:S21                  re:S12                  im:S12                  re:S22                  im:S22
 8.117555315000000E9     5.033014576647450E-1   -5.952529052011132E-2    1.547163037297477E-3    4.520773162277353E-3    1.557345407649871E-3    4.664621632349081E-3    4.037296677406903E-1   -2.049028737872660E-1
 8.117556656575000E9     5.031889659742640E-1   -5.971348223307403E-2    1.510443014670529E-3    4.546415780429487E-3    1.603092625166406E-3    4.646773742870975E-3    4.036782142693043E-1   -2.051132295930509E-1
 8.117557998150000E9     5.032506436901455E-1   -5.969951544578072E-2    1.526923541352257E-3    4.540108333567388E-3    1.565814758735936E-3    4.618219369029289E-3    4.035944945106649E-1   -2.050751930981785E-1
 8.117559339725000E9     5.033193122839744E-1   -5.997910488712878E-2    1.533651989237634E-3    4.564899494621144E-3    1.588109085098041E-3    4.672000425251273E-3    4.036510057971655E-1   -2.050656578338315E-1
 8.117560681300000E9     5.031685063279999E-1   -5.995870026183907E-2    1.543551561252950E-3    4.550689066119156E-3    1.607869948709653E-3    4.641781244595421E-3    4.034932779538201E-1   -2.052125252250991E-1
 8.117562022875000E9     5.031573321859620E-1   -6.023209870506345E-2    1.538566667682135E-3    4.609655769067502E-3    1.573524889435057E-3    4.660750548697619E-3    4.035050333956532E-1   -2.053418985457862E-1
 8.117563364450000E9     5.031079542219585E-1   -6.034554303760074E-2    1.541016278109531E-3    4.594341992658466E-3    1.607984715311586E-3    4.637928755084499E-3    4.034756960588241E-1   -2.055256136045067E-1
 8.117564706025000E9     5.031067264970979E-1   -6.040428854089411E-2    1.564056328037066E-3    4.585563780409843E-3    1.558357207746038E-3    4.679532752902890E-3    4.035389275009629E-1   -2.055172877748600E-1
 8.117566047600000E9     5.030876771504240E-1   -6.063687323043279E-2    1.559940707434527E-3    4.605228054641181E-3    1.643141325972500E-3    4.704081338769451E-3    4.034988376551941E-1   -2.055004446111110E-1
 8.117567389175000E9     5.030441414719282E-1   -6.075992852179707E-2    1.565456099163663E-3    4.589972814021467E-3    1.689927267404000E-3    4.731765725647800E-3    4.034570361111468E-1   -2.057497983866476E-1
 8.117568730750000E9     5.030612503580780E-1   -6.103703585561706E-2    1.567564761524840E-3    4.614513998886291E-3    1.632464357539305E-3    4.713045287544122E-3    4.034398212555829E-1   -2.057475433594909E-1
 8.117570072325000E9     5.030867705449475E-1   -6.102193567866417E-2    1.580499827647251E-3    4.628109626976200E-3    1.611755767380326E-3    4.705090245667285E-3    4.033874001232509E-1   -2.059981332071741E-1
 8.117571413900000E9     5.027904483051192E-1   -6.107059362973481E-2    1.598408362574113E-3    4.642723385386629E-3    1.612289973330696E-3    4.731192777910282E-3    4.032719447292666E-1   -2.059783463537357E-1
 8.117572755475000E9     5.029452674530854E-1   -6.132185640659325E-2    1.605278593172330E-3    4.624039910951623E-3    1.614840684169409E-3    4.742933050284247E-3    4.031813375859979E-1   -2.060981138204617E-1
 8.117574097050000E9     5.029931483867144E-1   -6.143828148233439E-2    1.595336164710506E-3    4.637241183711218E-3    1.678139417141612E-3    4.772260393734140E-3    4.029838208432098E-1   -2.060271149584323E-1
 8.117575438625000E9     5.028673513529617E-1   -6.165066005222798E-2    1.608262557527149E-3    4.655690761219101E-3    1.656527517937997E-3    4.752482529993836E-3    4.030774456694374E-1   -2.061173103975844E-1
 8.117576780200000E9     5.028065556521238E-1   -6.173483565683604E-2    1.571068834405734E-3    4.655337969019838E-3    1.676799558218604E-3    4.773981564124381E-3    4.030919140143557E-1   -2.063035468277586E-1
 8.117578121775000E9     5.026358826957057E-1   -6.188128361158315E-2    1.582137960570691E-3    4.687302096544057E-3    1.693428836014448E-3    4.786941404964554E-3    4.028771101425417E-1   -2.064042201452717E-1
 8.117579463350000E9     5.028183880124371E-1   -6.206911958202916E-2    1.615202681982332E-3    4.684106362041167E-3    1.704311970093970E-3    4.814443586387943E-3    4.030052698348199E-1   -2.065018191725016E-1
 8.117580804925000E9     5.028245752298848E-1   -6.228737138675716E-2    1.607727871962251E-3    4.684341761645355E-3    1.700102896091087E-3    4.818958335309257E-3    4.029957196754327E-1   -2.066399056174244E-1
 8.117582146500000E9     5.026632363358158E-1   -6.225790500717653E-2    1.623002653259594E-3    4.691980306706979E-3    1.707347322902323E-3    4.767774155977558E-3    4.029889494369033E-1   -2.066932512702029E-1
 8.117583488075000E9     5.025514382564815E-1   -6.255597005805097E-2    1.625879006095105E-3    4.690650192355808E-3    1.677919126878119E-3    4.809296093647348E-3    4.028898582925939E-1   -2.066702663411120E-1
 8.117584829650000E9     5.025757383110021E-1   -6.272806007325409E-2    1.622881455712443E-3    4.723909218065196E-3    1.699809628407082E-3    4.808867914384114E-3    4.027678091734685E-1   -2.067565627766708E-1
 8.117586171225000E9     5.025559407665197E-1   -6.278440958237885E-2    1.645079037095071E-3    4.706651619109004E-3    1.700105414731223E-3    4.818217573964885E-3    4.028249367569925E-1   -2.069655618994540E-1
 8.117587512800000E9     5.025913993817795E-1   -6.307321565494495E-2    1.645883343176834E-3    4.716663161984924E-3    1.692150463184148E-3    4.789785192490241E-3    4.027427639360018E-1   -2.070670741412804E-1
 8.117588854375000E9     5.025672315867009E-1   -6.311838159803508E-2    1.639810085867557E-3    4.741622567364780E-3    1.700204927239690E-3    4.818037803957664E-3    4.028080823428097E-1   -2.070499634449950E-1
 8.117590195950000E9     5.025005068053032E-1   -6.317260778608517E-2    1.655186241475759E-3    4.765852247409790E-3    1.719592684259082E-3    4.799052561903733E-3    4.025413274307005E-1   -2.071468395281270E-1
 8.117591537525000E9     5.025780955384676E-1   -6.338835259014794E-2    1.642243798779788E-3    4.732827564412266E-3    1.684787579516151E-3    4.846952300655609E-3    4.027111543574175E-1   -2.072961298164110E-1
 8.117592879100000E9     5.025306455129614E-1   -6.357374274172055E-2    1.654216794673190E-3    4.756960134004918E-3    1.742420748401364E-3    4.835640026003691E-3    4.025644622544958E-1   -2.074090930867310E-1
 8.117594220675000E9     5.024457653296229E-1   -6.366692403507718E-2    1.679999774492828E-3    4.785625273580747E-3    1.688239544886733E-3    4.885187528932505E-3    4.024828672487573E-1   -2.073962251853005E-1
 8.117595562250000E9     5.025150462504435E-1   -6.374173304548447E-2    1.679111102436449E-3    4.783400044788172E-3    1.744122562949256E-3    4.849924237282412E-3    4.024020055131865E-1   -2.075941283360345E-1
 8.117596903825000E9     5.025474109366607E-1   -6.396895390442862E-2    1.665794688834862E-3    4.771888254353706E-3    1.762843837479215E-3    4.858765569492178E-3    4.024334023936383E-1   -2.076150623696211E-1
 8.117598245400000E9     5.024183753843318E-1   -6.414604198786684E-2    1.699755194221525E-3    4.762237473690266E-3    1.758179814011348E-3    4.842628500481129E-3    4.023967785200371E-1   -2.076502511351004E-1
 8.117599586975000E9     5.022781238571892E-1   -6.424068731877944E-2    1.695010854277692E-3    4.782033522378104E-3    1.813852080896416E-3    4.927486812331302E-3    4.025195498653242E-1   -2.077581177985985E-1
 8.117600928550000E9     5.023008727044859E-1   -6.446504146431661E-2    1.717362307004463E-3    4.811483745842036E-3    1.767070371247616E-3    4.905861467493844E-3    4.022358484913445E-1   -2.079632742738315E-1
 8.117602270125000E9     5.023479398749283E-1   -6.460945019265382E-2    1.706010285557313E-3    4.822131940012824E-3    1.754671173043860E-3    4.932243009831464E-3    4.023906715080765E-1   -2.079507474495617E-1
 8.117603611700000E9     5.023181634386404E-1   -6.473177634938503E-2    1.720050468183345E-3    4.819886730285607E-3    1.767406652328003E-3    4.896354020879678E-3    4.023007260855572E-1   -2.080631026293321E-1
 8.117604953275000E9     5.021556075916399E-1   -6.482404297541695E-2    1.730456970037590E-3    4.833055029925554E-3    1.725992403670029E-3    4.932748324485581E-3    4.021583789116933E-1   -2.081801561745160E-1
 8.117606294850000E9     5.022214346271546E-1   -6.492610449267563E-2    1.719091553207104E-3    4.840554532509296E-3    1.778087443381162E-3    4.951293940052165E-3    4.021506245738616E-1   -2.082259866474009E-1
 8.117607636425000E9     5.022419211658895E-1   -6.522106101093214E-2    1.737441131441070E-3    4.861052087164368E-3    1.814165909082047E-3    4.973017769541622E-3    4.021184822416964E-1   -2.083286101375165E-1
 8.117608978000000E9     5.020695651994257E-1   -6.531736820798902E-2    1.732274199336234E-3    4.879741111430505E-3    1.822148854243741E-3    4.984651218083253E-3    4.022281713117861E-1   -2.084525433569740E-1
 8.117610319575000E9     5.020710427824124E-1   -6.553524313198991E-2    1.753970536620738E-3    4.884231074179627E-3    1.825227746216267E-3    4.942618134043120E-3    4.019478815150745E-1   -2.085387908644977E-1
 8.117611661150000E9     5.020693360581273E-1   -6.568597992770173E-2    1.759408525760458E-3    4.883669942180539E-3    1.854918961560172E-3    4.989895549113529E-3    4.020058815199540E-1   -2.085613139021846E-1
 8.117613002725000E9     5.021360240681523E-1   -6.575426615956861E-2    1.760580477469359E-3    4.873574595598141E-3    1.766899211676352E-3    5.024398280096765E-3    4.020108516066854E-1   -2.086412105768519E-1
 8.117614344300000E9     5.019629895162572E-1   -6.594648004276611E-2    1.792574047335195E-3    4.921035330039092E-3    1.817783015821112E-3    4.984278870183712E-3    4.018935159145084E-1   -2.087466478505669E-1
 8.117615685875000E9     5.020193453160242E-1   -6.602217146188268E-2    1.784639118634711E-3    4.929951278094974E-3    1.831099864218422E-3    5.065421728441424E-3    4.018499250782268E-1   -2.087483460043241E-1
 8.117617027450000E9     5.020579985664075E-1   -6.619137154538418E-2    1.788645646545787E-3    4.897368911177859E-3    1.874876939490909E-3    5.024327794567848E-3    4.017284336410659E-1   -2.088498255194191E-1
 8.117618369025000E9     5.018257586894798E-1   -6.626648606969565E-2    1.796601434242172E-3    4.949025428996145E-3    1.868644927541223E-3    5.040922449053538E-3    4.017894745775444E-1   -2.089927185645655E-1
 8.117619710600000E9     5.018669525481758E-1   -6.660804546603800E-2    1.798781036115643E-3    4.935544411099244E-3    1.855591116274709E-3    5.079274801433372E-3    4.016284589980783E-1   -2.091748350891920E-1
 8.117621052175000E9     5.019146166033484E-1   -6.673047223282332E-2    1.813047976938909E-3    4.957151525221228E-3    1.848749362116492E-3    5.075576863901934E-3    4.016353954901413E-1   -2.092534672384121E-1
 8.117622393750000E9     5.017511244447102E-1   -6.683682158101999E-2    1.801850521756912E-3    4.987518046088558E-3    1.898420340485721E-3    5.099104932464078E-3    4.017705961218860E-1   -2.091838252866724E-1
 8.117623735325000E9     5.017231274843841E-1   -6.702353393737311E-2    1.830124357159106E-3    4.971214957001473E-3    1.879948629620667E-3    5.094956284360217E-3    4.015791756606368E-1   -2.093660953395224E-1
 8.117625076900000E9     5.017711135615586E-1   -6.732124748537788E-2    1.838974269950285E-3    4.990512178165112E-3    1.890634536274683E-3    5.108031641333301E-3    4.015901102135885E-1   -2.092873272976214E-1
 8.117626418475000E9     5.015834902423445E-1   -6.727853233749423E-2    1.838380995534387E-3    5.001520699375033E-3    1.946637373460015E-3    5.114950820898521E-3    4.016357937530673E-1   -2.094392203939692E-1
 8.117627760050000E9     5.016073884590485E-1   -6.739818717706095E-2    1.831088738374507E-3    5.016723794011150E-3    1.925962362770936E-3    5.143443171812247E-3    4.015019923767439E-1   -2.095538495877628E-1
 8.117629101625000E9     5.016030219966631E-1   -6.761950827077706E-2    1.861518159888583E-3    5.030108504973312E-3    1.912545272076081E-3    5.125443626977495E-3    4.014486768115688E-1   -2.097164203012544E-1
 8.117630443200000E9     5.015454548057767E-1   -6.782073072950723E-2    1.861613593237692E-3    5.047975673455366E-3    1.960975892414700E-3    5.123170343188771E-3    4.013148213654322E-1   -2.098913530285016E-1
 8.117631784775000E9     5.014727508895026E-1   -6.797604694860064E-2    1.850542986284029E-3    5.041715608728278E-3    1.934702175294431E-3    5.120084914730087E-3    4.015442684952634E-1   -2.098131567462071E-1
 8.117633126350000E9     5.014114214830542E-1   -6.817943578406561E-2    1.900750295743979E-3    5.067962663133889E-3    1.957105540312728E-3    5.162587669052103E-3    4.013170014157416E-1   -2.100037318437638E-1
 8.117634467925000E9     5.014129064538811E-1   -6.824942822738708E-2    1.884292058074223E-3    5.078497592133951E-3    1.966803423689740E-3    5.144473967823252E-3    4.011585883508335E-1   -2.100240495998889E-1
 8.117635809500000E9     5.014415816758255E-1   -6.849783614650219E-2    1.886670906868503E-3    5.076730336618309E-3    1.986589413616857E-3    5.214891528118586E-3    4.012873402001644E-1   -2.101114700262049E-1
 8.117637151075000E9     5.012666829715141E-1   -6.873417343677193E-2    1.928836074261488E-3    5.088451397927065E-3    1.928974274953830E-3    5.185191152459716E-3    4.012701171203182E-1   -2.103276599957157E-1
 8.117638492650000E9     5.012593548522338E-1   -6.882728486869591E-2    1.945602874163406E-3    5.125308572279595E-3    1.959396217090772E-3    5.210515757830199E-3    4.012016941021635E-1   -2.102840981463647E-1
 8.117639834225000E9     5.012547084014719E-1   -6.910577108168904E-2    1.918170067030325E-3    5.138912170927167E-3    2.006742238876218E-3    5.222307061463036E-3    4.012047347730030E-1   -2.104622979923535E-1
 8.117641175800000E9     5.011616821142554E-1   -6.918236026776109E-2    1.964616698417234E-3    5.133369174451811E-3    2.013881184822955E-3    5.252330070399299E-3    4.010808107601048E-1   -2.104622867278099E-1
 8.117642517375000E9     5.012531895955950E-1   -6.934677815664521E-2    1.962513738620105E-3    5.149041878608845E-3    2.006223732939070E-3    5.272198875003012E-3    4.010179642384772E-1   -2.105516777049730E-1
 8.117643858950000E9     5.010583909518538E-1   -6.951637660546413E-2    1.938702489049362E-3    5.189145638436442E-3    2.047862121356225E-3    5.308434573056144E-3    4.009604511103577E-1   -2.106206475112633E-1
 8.117645200525000E9     5.010943645663916E-1   -6.978203704761081E-2    1.953761737682599E-3    5.204284902542790E-3    2.044689505881032E-3    5.310463982255440E-3    4.009412706754585E-1   -2.107874429137017E-1
 8.117646542100000E9     5.009916259913438E-1   -6.985512587026525E-2    1.985633088548631E-3    5.195455620344667E-3    2.062593846430996E-3    5.308717348188837E-3    4.010321445129741E-1   -2.108328461326759E-1
 8.117647883675000E9     5.008431968628131E-1   -7.007448456020288E-2    1.997473250354607E-3    5.199319632551744E-3    2.042902570634065E-3    5.341258129248104E-3    4.007915424857161E-1   -2.108951536610941E-1
 8.117649225250000E9     5.008464510441637E-1   -7.015567934845227E-2    2.016543788562467E-3    5.202766705626477E-3    2.072153542332652E-3    5.326555734054636E-3    4.008089252392699E-1   -2.109575138149549E-1
 8.117650566825000E9     5.008964214783924E-1   -7.038189988007222E-2    1.989462841595527E-3    5.213036469933768E-3    2.110967124761444E-3    5.386281081363868E-3    4.009431329427713E-1   -2.110419486417518E-1
 8.117651908400000E9     5.008037515042454E-1   -7.047358971787340E-2    2.008255756519701E-3    5.241667709357658E-3    2.102577424135816E-3    5.393100888188341E-3    4.007778767108612E-1   -2.110744330909251E-1
 8.117653249975000E9     5.008329457421052E-1   -7.064670832595032E-2    2.045682883552668E-3    5.262144837537331E-3    2.087249415123705E-3    5.429625606026602E-3    4.008920149841195E-1   -2.113261806465810E-1
 8.117654591550000E9     5.007711289696707E-1   -7.084177252360986E-2    2.025742942820982E-3    5.291900947961578E-3    2.088877944811233E-3    5.431036726668764E-3    4.007193300752617E-1   -2.112330818365812E-1
 8.117655933125000E9     5.006629489936020E-1   -7.108973369096815E-2    2.055215492610351E-3    5.304582952565869E-3    2.113288691239492E-3    5.409381282054301E-3    4.004978338583987E-1   -2.114786902600411E-1
 8.117657274700000E9     5.005762356704858E-1   -7.113126031206830E-2    2.068823879014941E-3    5.308289341685636E-3    2.114495977505883E-3    5.469296148676459E-3    4.006550218780183E-1   -2.115669840774295E-1
 8.117658616275000E9     5.007156749268443E-1   -7.154431564533154E-2    2.071451625337700E-3    5.339815769765219E-3    2.182693286696335E-3    5.464889099902656E-3    4.005830208401733E-1   -2.115499383615100E-1
 8.117659957850000E9     5.004990361983157E-1   -7.170231917418143E-2    2.088286390668369E-3    5.358539291362757E-3    2.162567619865479E-3    5.453303082147493E-3    4.004986774352080E-1   -2.118267811546480E-1
 8.117661299425000E9     5.004033677224382E-1   -7.178231474769214E-2    2.104728818769700E-3    5.376071090285948E-3    2.160342723774465E-3    5.515502160536988E-3    4.004410361199927E-1   -2.117346233501035E-1
 8.117662641000000E9     5.002577136914896E-1   -7.198011903146045E-2    2.115162737459034E-3    5.387311732965468E-3    2.178358975678617E-3    5.480846816818044E-3    4.003125128685863E-1   -2.119142844948238E-1
 8.117663982575000E9     5.003693575707628E-1   -7.220830787248121E-2    2.133139321558473E-3    5.408844325954736E-3    2.224683544463485E-3    5.452901201276292E-3    4.003287018587385E-1   -2.118645672758085E-1
 8.117665324150000E9     5.003148521896451E-1   -7.227507413597876E-2    2.160293527885744E-3    5.451310541745033E-3    2.244557476605762E-3    5.512220946352639E-3    4.004494916793652E-1   -2.120235005606090E-1
 8.117666665725000E9     5.002421704865012E-1   -7.262281554206257E-2    2.154455062177687E-3    5.430431185090242E-3    2.249118652352936E-3    5.570889774751738E-3    4.002289365932192E-1   -2.120514487649088E-1
 8.117668007300000E9     5.002455108732222E-1   -7.268184861009067E-2    2.186422386196492E-3    5.442431389067834E-3    2.207330354197072E-3    5.525523661625562E-3    4.002286874580586E-1   -2.121700706603038E-1
 8.117669348875000E9     5.000810699253408E-1   -7.293914090111142E-2    2.165029280842913E-3    5.461030703382377E-3    2.262912095661655E-3    5.552925349245112E-3    4.001519201364860E-1   -2.121613275509902E-1
 8.117670690450000E9     4.999798451737709E-1   -7.298276074146202E-2    2.208093598822357E-3    5.515857893264157E-3    2.263673628293172E-3    5.623877312625375E-3    4.000479443559714E-1   -2.123828872049078E-1
 8.117672032025000E9     4.998703819134988E-1   -7.347919222323944E-2    2.236160908929620E-3    5.499912882743550E-3    2.284640216698030E-3    5.610018496614339E-3    4.000680151207142E-1   -2.123722966178878E-1
 8.117673373600000E9     4.999923678619276E-1   -7.360739803974664E-2    2.204204856250031E-3    5.514820665068859E-3    2.299420925931113E-3    5.634152375375410E-3    4.000345676328271E-1   -2.125160733788264E-1
 8.117674715175000E9     4.999867947859453E-1   -7.361683225414527E-2    2.237883090581700E-3    5.542503875360654E-3    2.317651207624888E-3    5.655288184291970E-3    3.998927055983416E-1   -2.127361038955835E-1
 8.117676056750000E9     4.997671788383372E-1   -7.381998208220880E-2    2.281209138139306E-3    5.543794574484499E-3    2.308856150967527E-3    5.689573997832386E-3    4.000276644534417E-1   -2.127206549899748E-1
