#  HZ   S   RI   R     50.00 
! Rohde & Schwarz Vector Network Analyzer 
! Rohde-Schwarz,ZNB20-2Port,1311601062101988,3.16
! Created: UTC 3/20/2024, 12:05:34 PM
! freq[Hz]                re:S11                  im:S11                  re:S21                  im:S21                  re:S12                  im:S12                  re:S22                  im:S22
 8.117557683000000E9     5.032189212870348E-1   -5.966218988911746E-2    1.519697445366547E-3    4.551794916359426E-3    1.635264195988306E-3    4.680634557400198E-3    4.037724205760093E-1   -2.051284125140018E-1
 8.117559016725000E9     5.031840996333659E-1   -5.979103049235161E-2    1.522764065522154E-3    4.568761564612625E-3    1.614119034647963E-3    4.695097363023780E-3    4.035631603411596E-1   -2.050525949143058E-1
 8.117560350450000E9     5.031914244634459E-1   -5.980590670103890E-2    1.532497892252568E-3    4.567013382906388E-3    1.610488872824377E-3    4.667080617471266E-3    4.035877397184073E-1   -2.052606849989488E-1
 8.117561684175000E9     5.031886075308325E-1   -6.018898576372551E-2    1.534323740397628E-3    4.559972940562638E-3    1.572130805575208E-3    4.685896471030362E-3    4.034670394995302E-1   -2.052136966623253E-1
 8.117563017900000E9     5.032556898829581E-1   -6.028078333453784E-2    1.556548369811083E-3    4.576680926502755E-3    1.590711906729547E-3    4.684116779573979E-3    4.034858863697756E-1   -2.053686671516577E-1
 8.117564351625000E9     5.031357314630077E-1   -6.031036500237116E-2    1.532548578693043E-3    4.573511382086512E-3    1.548888968626761E-3    4.684110214125552E-3    4.034566904604803E-1   -2.053815691639890E-1
 8.117565685350000E9     5.030917891258700E-1   -6.059562204912550E-2    1.540280906794075E-3    4.617933428809995E-3    1.615542161166849E-3    4.702180687944927E-3    4.034161829460574E-1   -2.056137917523597E-1
 8.117567019075000E9     5.029822149979354E-1   -6.061909093412301E-2    1.558876581786781E-3    4.611093455333089E-3    1.627729621072027E-3    4.714828843431724E-3    4.033680837764175E-1   -2.057054637976884E-1
 8.117568352800000E9     5.031743205992342E-1   -6.086070521470006E-2    1.578611605135226E-3    4.612951546214362E-3    1.632165875287387E-3    4.684411622880672E-3    4.032560218696589E-1   -2.057849270446927E-1
 8.117569686525000E9     5.029122663947690E-1   -6.109406283242669E-2    1.572973094658139E-3    4.606785436498389E-3    1.621613615263017E-3    4.717462319281354E-3    4.034618690658299E-1   -2.058832412697883E-1
 8.117571020250000E9     5.029794315630175E-1   -6.104573448178600E-2    1.588540503499337E-3    4.634352653017526E-3    1.638203457000361E-3    4.739246729068651E-3    4.033221417568233E-1   -2.059106324120339E-1
 8.117572353975000E9     5.029287270233695E-1   -6.125488366348125E-2    1.567642538330293E-3    4.629315776482441E-3    1.609551698327562E-3    4.712165268475997E-3    4.033274874377563E-1   -2.060528928257070E-1
 8.117573687700000E9     5.029033360804647E-1   -6.139208327343580E-2    1.565340189047880E-3    4.610356121951547E-3    1.676891749444516E-3    4.735729025219114E-3    4.031912832712282E-1   -2.061232868664534E-1
 8.117575021425000E9     5.029533807234380E-1   -6.168175897534950E-2    1.574923638575309E-3    4.627599441855789E-3    1.579765449922593E-3    4.725359943779667E-3    4.031615738487564E-1   -2.062215030497051E-1
 8.117576355150000E9     5.029358316295963E-1   -6.165166014440007E-2    1.583648495322696E-3    4.649827802663061E-3    1.628663016621793E-3    4.790129902228165E-3    4.031788599470121E-1   -2.063110516278316E-1
 8.117577688875000E9     5.028649894171267E-1   -6.176515290080076E-2    1.605917851703591E-3    4.671459373955448E-3    1.611571550402035E-3    4.760793058800906E-3    4.029762259329799E-1   -2.062716618375444E-1
 8.117579022600000E9     5.028798850445854E-1   -6.196321702862981E-2    1.633439863954967E-3    4.663153154339877E-3    1.638906952312474E-3    4.768398672211602E-3    4.031098675405777E-1   -2.063978674667698E-1
 8.117580356325000E9     5.027625709965983E-1   -6.215815218883350E-2    1.596731117210332E-3    4.678104814331912E-3    1.601653439495012E-3    4.749020522533734E-3    4.029265586894854E-1   -2.066002492754651E-1
 8.117581690050000E9     5.027080130444197E-1   -6.220683975649806E-2    1.599385613071411E-3    4.676537986109620E-3    1.688199932369373E-3    4.766287041850264E-3    4.030670638465577E-1   -2.066181431784605E-1
 8.117583023775000E9     5.027426383499217E-1   -6.231036776817418E-2    1.639151764264392E-3    4.667664147312788E-3    1.731247390065614E-3    4.782648068499283E-3    4.028092759482476E-1   -2.066410989905031E-1
 8.117584357500000E9     5.027643501787759E-1   -6.258754691464834E-2    1.616638236407286E-3    4.710614281714191E-3    1.657230102927428E-3    4.757420932677975E-3    4.027981853366314E-1   -2.067045472610288E-1
 8.117585691225000E9     5.027686241405332E-1   -6.263880059504086E-2    1.630657868422212E-3    4.707338908643253E-3    1.715058883598212E-3    4.789591209061603E-3    4.027339150419514E-1   -2.067941872094494E-1
 8.117587024950000E9     5.026788635700995E-1   -6.276950593720659E-2    1.643060273171930E-3    4.734158005642549E-3    1.695137510262086E-3    4.813660748905401E-3    4.027924302237083E-1   -2.069936670142424E-1
 8.117588358675000E9     5.027339560265325E-1   -6.301826326804967E-2    1.642379452863978E-3    4.724705655666452E-3    1.711906576707135E-3    4.847150638843623E-3    4.028631986926205E-1   -2.071391084520387E-1
 8.117589692400000E9     5.026203800262974E-1   -6.314414174759404E-2    1.643033369405013E-3    4.740641644974096E-3    1.679922336720326E-3    4.847499553805603E-3    4.028309223758793E-1   -2.071085338024685E-1
 8.117591026125000E9     5.025411690678672E-1   -6.330050662662498E-2    1.664443513404282E-3    4.712689421139738E-3    1.760859362473069E-3    4.856825282347200E-3    4.024520062281965E-1   -2.071159488304175E-1
 8.117592359850000E9     5.025068567209715E-1   -6.338880164527058E-2    1.658134407265805E-3    4.740677926619022E-3    1.709315914416884E-3    4.854989372695595E-3    4.027024701448946E-1   -2.073436517103193E-1
 8.117593693575000E9     5.024486603914211E-1   -6.348999734990592E-2    1.683818771889929E-3    4.767695754632406E-3    1.759925114980989E-3    4.877847628964412E-3    4.025865370614417E-1   -2.073183516752180E-1
 8.117595027300000E9     5.025550211641510E-1   -6.374904596419027E-2    1.694776647151734E-3    4.783038496835265E-3    1.722794409347431E-3    4.833786118223494E-3    4.025186028351254E-1   -2.074706931166208E-1
 8.117596361025000E9     5.025542172809356E-1   -6.392207330118303E-2    1.674806325637487E-3    4.772398453764192E-3    1.730197880195177E-3    4.847798463318126E-3    4.024907365218142E-1   -2.075112032310798E-1
 8.117597694750000E9     5.024404580365377E-1   -6.403026672950206E-2    1.672258848703841E-3    4.777686002112912E-3    1.777938804162116E-3    4.854313038511750E-3    4.023442922013378E-1   -2.076846208428473E-1
 8.117599028475000E9     5.024560078162322E-1   -6.417409988147163E-2    1.715368702729784E-3    4.781916046705893E-3    1.747496747336975E-3    4.915315322367404E-3    4.024275684418082E-1   -2.078076024211540E-1
 8.117600362200000E9     5.023974887441678E-1   -6.427406623120531E-2    1.704932060972186E-3    4.802959709507971E-3    1.714901396548070E-3    4.914652932170614E-3    4.024909160202222E-1   -2.077452402301442E-1
 8.117601695925000E9     5.023205679454275E-1   -6.443426446564128E-2    1.702347798128106E-3    4.821416391673812E-3    1.732830096128103E-3    4.908556053128171E-3    4.021793595214681E-1   -2.078903578416523E-1
 8.117603029650000E9     5.023531684633578E-1   -6.457376965571733E-2    1.720242274756431E-3    4.813777630676076E-3    1.784784069424715E-3    4.928220658709427E-3    4.023485289471259E-1   -2.079584141857704E-1
 8.117604363375000E9     5.022958962715112E-1   -6.472824737144697E-2    1.702176714354382E-3    4.853720391363581E-3    1.801538742075064E-3    4.942257250318157E-3    4.022488016791372E-1   -2.080776098237323E-1
 8.117605697100000E9     5.021263482001571E-1   -6.488434240557001E-2    1.721232535484665E-3    4.835128461785511E-3    1.810628616212690E-3    4.952583723077704E-3    4.021356783635713E-1   -2.081512972524972E-1
 8.117607030825000E9     5.021637934307215E-1   -6.506743151346214E-2    1.694381766566897E-3    4.839051724331730E-3    1.791196682941623E-3    4.986275214883408E-3    4.022030865901041E-1   -2.083734031160540E-1
 8.117608364550000E9     5.022701054910174E-1   -6.521213587046029E-2    1.743691324102328E-3    4.859267059704060E-3    1.779406757154840E-3    4.978319861191224E-3    4.019641991643045E-1   -2.083545451063462E-1
 8.117609698275000E9     5.022064467310724E-1   -6.537494979194035E-2    1.740459768730431E-3    4.880165974320039E-3    1.798067846460320E-3    4.939446915113015E-3    4.019611508102628E-1   -2.085075302406059E-1
 8.117611032000000E9     5.021368806285642E-1   -6.541201452227666E-2    1.757789121081485E-3    4.876244986099291E-3    1.777110735105017E-3    4.975396818081318E-3    4.019506169820392E-1   -2.084957003406945E-1
 8.117612365725000E9     5.020312096738281E-1   -6.555679414778857E-2    1.751194905669928E-3    4.894287719869652E-3    1.808733505339326E-3    5.017578702539679E-3    4.021269771087286E-1   -2.085685053817685E-1
 8.117613699450000E9     5.020631413752656E-1   -6.586176528129010E-2    1.769207827862926E-3    4.906284334125837E-3    1.794593257195962E-3    4.995102792093871E-3    4.019255523118945E-1   -2.086195847112426E-1
 8.117615033175000E9     5.020414923122929E-1   -6.591011875174486E-2    1.768612810037910E-3    4.933301061801970E-3    1.838212524751700E-3    5.008027130126702E-3    4.019729796811002E-1   -2.086872429774872E-1
 8.117616366900000E9     5.019831739513915E-1   -6.610258946521914E-2    1.792134339053193E-3    4.939147306905938E-3    1.861321903275983E-3    5.009696720784012E-3    4.018664167813976E-1   -2.089429568233049E-1
 8.117617700625000E9     5.020011774498202E-1   -6.630460194353495E-2    1.786654934046831E-3    4.932806498293385E-3    1.844015457586224E-3    5.015541957173868E-3    4.017549129050600E-1   -2.088690489125923E-1
 8.117619034350000E9     5.017525519114903E-1   -6.639459058780266E-2    1.811178231973580E-3    4.929517189404963E-3    1.874388989473038E-3    5.034630030322966E-3    4.017093040159857E-1   -2.091949362387397E-1
 8.117620368075000E9     5.019008221010394E-1   -6.656589611169210E-2    1.804174829974759E-3    4.962921494524745E-3    1.866740314765455E-3    5.072043171504340E-3    4.017335201590794E-1   -2.090153977494289E-1
 8.117621701800000E9     5.018895538954363E-1   -6.673102602131578E-2    1.819252183020591E-3    4.966965147094273E-3    1.920618453446407E-3    5.081195821675341E-3    4.016923186269819E-1   -2.092671540645394E-1
 8.117623035525000E9     5.017896278316765E-1   -6.685582634603673E-2    1.798120359853560E-3    4.964370037842475E-3    1.887549719021035E-3    5.102131054853125E-3    4.015537281249574E-1   -2.093114935832320E-1
 8.117624369250000E9     5.017513933729317E-1   -6.694167821421769E-2    1.805017681484327E-3    5.000322215127292E-3    1.883002689719785E-3    5.054280705172982E-3    4.016788240165129E-1   -2.092726709089444E-1
 8.117625702975000E9     5.016653754760994E-1   -6.723055173434865E-2    1.823637912786338E-3    5.021456992767893E-3    1.906175061884435E-3    5.104340482851058E-3    4.014963359273327E-1   -2.093457805277920E-1
 8.117627036700000E9     5.017296201772629E-1   -6.733257385556367E-2    1.820927838020389E-3    5.013774190438963E-3    1.897771028992397E-3    5.134209459168228E-3    4.014774063160303E-1   -2.094918104838359E-1
 8.117628370425000E9     5.016217332948616E-1   -6.754821723572567E-2    1.841295920763615E-3    5.051649877717679E-3    1.918276123579683E-3    5.183205285146019E-3    4.015549372318670E-1   -2.095420640815780E-1
 8.117629704150000E9     5.016519593693566E-1   -6.763060335591378E-2    1.847288351134354E-3    5.027591944264937E-3    1.904997154376129E-3    5.147889314247494E-3    4.013972122957549E-1   -2.097125922244097E-1
 8.117631037875000E9     5.015989071284574E-1   -6.780856771561058E-2    1.863531874932224E-3    5.035907717454447E-3    1.960111004609561E-3    5.143943168670649E-3    4.012375197075688E-1   -2.100074809201810E-1
 8.117632371600000E9     5.014071355684808E-1   -6.799573527592888E-2    1.881668947778632E-3    5.057436137311596E-3    1.946476111717858E-3    5.118511118901036E-3    4.013861858615038E-1   -2.098474271086654E-1
 8.117633705325000E9     5.015323516484026E-1   -6.827449919655249E-2    1.869637688967924E-3    5.096201885378003E-3    1.947862812265933E-3    5.156709306303913E-3    4.014278282686328E-1   -2.099648873768109E-1
 8.117635039050000E9     5.014238774805575E-1   -6.828480416626943E-2    1.894431682719974E-3    5.084133010718380E-3    1.927595571081100E-3    5.200619574572165E-3    4.014328338908374E-1   -2.100455394232133E-1
 8.117636372775000E9     5.014228759744337E-1   -6.851631229323291E-2    1.882368360338582E-3    5.096495126392367E-3    1.969181641679666E-3    5.165473769907275E-3    4.012210647853081E-1   -2.102052506019870E-1
 8.117637706500000E9     5.014487417010575E-1   -6.864804703668247E-2    1.907782373562760E-3    5.111036129796282E-3    1.954031397561214E-3    5.226583835358420E-3    4.012947881009515E-1   -2.103779000235179E-1
 8.117639040225000E9     5.012890075148001E-1   -6.881262985074255E-2    1.925597066244056E-3    5.130138136410059E-3    1.982677012666239E-3    5.244864750679654E-3    4.011511576350146E-1   -2.102618881619384E-1
 8.117640373950000E9     5.012837779152181E-1   -6.893886256125634E-2    1.919310344708254E-3    5.125491846696358E-3    1.948591656950910E-3    5.221444338861711E-3    4.011078975404636E-1   -2.104391422421315E-1
 8.117641707675000E9     5.011317152680781E-1   -6.915753986995841E-2    1.927942299894585E-3    5.164754513800664E-3    1.992936461390189E-3    5.314078652570988E-3    4.011349364580140E-1   -2.104052761186075E-1
 8.117643041400000E9     5.012118105954491E-1   -6.938334683304555E-2    1.952634027988368E-3    5.179287470330042E-3    1.997107297287956E-3    5.275806090450497E-3    4.010603140921530E-1   -2.106282696464957E-1
 8.117644375125000E9     5.011860587304249E-1   -6.950558243125868E-2    1.947752381205196E-3    5.151641730166837E-3    1.975125144193818E-3    5.263596567388069E-3    4.009844827429120E-1   -2.108585810959874E-1
 8.117645708850000E9     5.010145733056828E-1   -6.963286396450920E-2    1.961077446863504E-3    5.182276862807089E-3    2.035234602552827E-3    5.295911936360280E-3    4.008940009984222E-1   -2.108201059303582E-1
 8.117647042575000E9     5.009524277389661E-1   -6.975453680940130E-2    1.987859235067971E-3    5.209666451829970E-3    2.065299015803008E-3    5.314077330507813E-3    4.008522509353664E-1   -2.107961730683562E-1
 8.117648376300000E9     5.009442102105263E-1   -7.001839984388421E-2    1.977390608579317E-3    5.204371112686207E-3    2.069889532072098E-3    5.353903369272759E-3    4.008715147840119E-1   -2.109260785759304E-1
 8.117649710025000E9     5.009259583444831E-1   -7.023385518726981E-2    2.000575833309709E-3    5.199742962401261E-3    2.057855750308527E-3    5.364809217188161E-3    4.008443144371517E-1   -2.110740121580369E-1
 8.117651043750000E9     5.009259794483506E-1   -7.026445407179642E-2    1.997604144889956E-3    5.215826604243873E-3    2.073754564995308E-3    5.347243245738271E-3    4.006591272564592E-1   -2.111775669698001E-1
 8.117652377475000E9     5.008648671104867E-1   -7.062741422782551E-2    2.011846384553640E-3    5.256497349275019E-3    2.110161883392013E-3    5.365130034238011E-3    4.008759552402185E-1   -2.113591822021106E-1
 8.117653711200000E9     5.008072594095655E-1   -7.068456243317392E-2    2.047584879840295E-3    5.264732099878352E-3    2.098517110752703E-3    5.388426390450273E-3    4.006603421033745E-1   -2.111423018714984E-1
 8.117655044925000E9     5.006333969421742E-1   -7.092535191592657E-2    2.042013843661457E-3    5.311529868999534E-3    2.113364990619313E-3    5.425206336508595E-3    4.007334826579166E-1   -2.113805101778015E-1
 8.117656378650000E9     5.006970710694639E-1   -7.112790005849028E-2    2.014053601057566E-3    5.298023237118875E-3    2.111038419443702E-3    5.411166105066301E-3    4.006199286377712E-1   -2.114787896201390E-1
 8.117657712375000E9     5.006250302955745E-1   -7.131503385100460E-2    2.074763314350300E-3    5.340878734526133E-3    2.142236053843184E-3    5.408152393450959E-3    4.007064541587180E-1   -2.116076295265761E-1
 8.117659046100000E9     5.006821694552431E-1   -7.147081771596783E-2    2.056707040748405E-3    5.308045626704376E-3    2.139664550324504E-3    5.469740845427491E-3    4.004855305723506E-1   -2.116509942367950E-1
 8.117660379825000E9     5.005003830003899E-1   -7.159762047659014E-2    2.066954085406747E-3    5.317519660608771E-3    2.145461405026050E-3    5.473614739981562E-3    4.004612650660405E-1   -2.118178418802266E-1
 8.117661713550000E9     5.004502986523206E-1   -7.170421865906923E-2    2.131311512683056E-3    5.368654346885967E-3    2.174077486340233E-3    5.496463599547208E-3    4.005112861521598E-1   -2.117086002902822E-1
 8.117663047275000E9     5.003850803200635E-1   -7.200218535496267E-2    2.120925850709012E-3    5.375472716628943E-3    2.200127191094185E-3    5.504668591968546E-3    4.002918462889600E-1   -2.119253006800847E-1
 8.117664381000000E9     5.003511794257692E-1   -7.218305169143052E-2    2.095459684676644E-3    5.399863154628035E-3    2.191533999545746E-3    5.507075316051865E-3    4.003770898796835E-1   -2.119457349724220E-1
 8.117665714725000E9     5.003379773861488E-1   -7.247652360096601E-2    2.108084842813478E-3    5.402860244301980E-3    2.219799854818623E-3    5.518237332409233E-3    4.001823073601575E-1   -2.121147007680065E-1
 8.117667048450000E9     5.002386762976079E-1   -7.258951016683853E-2    2.158552003656079E-3    5.425088086060736E-3    2.235154365423809E-3    5.513463860395375E-3    4.002283256396309E-1   -2.121277588810324E-1
 8.117668382175000E9     5.001852957810469E-1   -7.272816345134013E-2    2.158507126654467E-3    5.420093703680624E-3    2.184570373998481E-3    5.572504860320707E-3    4.002399658215076E-1   -2.121875116325568E-1
 8.117669715900000E9     5.002328267170199E-1   -7.294224203552961E-2    2.197238517678661E-3    5.440050141955104E-3    2.223114537225256E-3    5.584339643091961E-3    4.002780279332542E-1   -2.123902119612357E-1
 8.117671049625000E9     5.000791631492891E-1   -7.299235772906647E-2    2.182581117176634E-3    5.477253914428073E-3    2.254055599177844E-3    5.607546954338935E-3    4.001234857327077E-1   -2.124388822449713E-1
 8.117672383350000E9     5.000575756959167E-1   -7.327009902912625E-2    2.203172994403408E-3    5.497943223814587E-3    2.238970968442069E-3    5.597617601781719E-3    4.001477607465829E-1   -2.124974222813031E-1
 8.117673717075000E9     4.999188880729001E-1   -7.341206062417011E-2    2.214953215252188E-3    5.497875847957900E-3    2.262707160432818E-3    5.652818113536228E-3    4.000613996132256E-1   -2.125980905801116E-1
 8.117675050800000E9     4.998991628457615E-1   -7.367720683560543E-2    2.247106537450490E-3    5.531158561208890E-3    2.269099472560916E-3    5.640605267095215E-3    3.999028987101291E-1   -2.127422898892190E-1
 8.117676384525000E9     4.999255955367409E-1   -7.390373964219465E-2    2.240096044504594E-3    5.547472797068393E-3    2.335976591793232E-3    5.681126056565689E-3    3.999239414615640E-1   -2.126010655973745E-1
 8.117677718250000E9     4.998057066448145E-1   -7.397156274198631E-2    2.268942066300377E-3    5.556406592691095E-3    2.347283754735710E-3    5.712712732298997E-3    4.000154178862050E-1   -2.129623913069859E-1
