#  HZ   S   RI   R     50.00 
! Rohde & Schwarz Vector Network Analyzer 
! Rohde-Schwarz,ZNB20-2Port,1311601062101988,3.16
! Created: UTC 3/20/2024, 12:05:39 PM
! freq[Hz]                re:S11                  im:S11                  re:S21                  im:S21                  re:S12                  im:S12                  re:S22                  im:S22
 8.117560261000000E9     5.032358714743136E-1   -5.984219559862640E-2    1.531939931884944E-3    4.562064694266998E-3    1.572828055344706E-3    4.640241620934781E-3    4.036769625657822E-1   -2.053459554301931E-1
 8.117561593175000E9     5.032314881272582E-1   -6.015410255822026E-2    1.538742635626150E-3    4.547987630177832E-3    1.594613350795302E-3    4.687176432604235E-3    4.035523678656104E-1   -2.053212472606198E-1
 8.117562925350000E9     5.032395206171949E-1   -6.026367450069003E-2    1.531650655853226E-3    4.573878447134563E-3    1.620209433837369E-3    4.630870369734907E-3    4.034447727045649E-1   -2.054522359980522E-1
 8.117564257525000E9     5.032295956823140E-1   -6.026852499305533E-2    1.539015009925023E-3    4.573886846402061E-3    1.632403197347276E-3    4.687635142703358E-3    4.034247112402717E-1   -2.055393851442369E-1
 8.117565589700000E9     5.031295333591542E-1   -6.041376908841804E-2    1.547252574200826E-3    4.585928699746006E-3    1.582662103924913E-3    4.737215169348362E-3    4.034292786462395E-1   -2.056101643690454E-1
 8.117566921875000E9     5.030180401173373E-1   -6.061491886202285E-2    1.557889858744821E-3    4.627708778952739E-3    1.586660683220589E-3    4.675654827123366E-3    4.034265381401140E-1   -2.057334819054495E-1
 8.117568254050000E9     5.029681848206845E-1   -6.086690213393270E-2    1.566684382028925E-3    4.594350692584336E-3    1.604800860035323E-3    4.697127820237459E-3    4.032550772427304E-1   -2.058229777729381E-1
 8.117569586225000E9     5.032061397395275E-1   -6.081177520509255E-2    1.549597365596046E-3    4.603204418008469E-3    1.591453396043678E-3    4.693940853978444E-3    4.033469175631219E-1   -2.058780251151446E-1
 8.117570918400000E9     5.030158941381667E-1   -6.103523270756223E-2    1.593343363682345E-3    4.599816810327023E-3    1.619556453133908E-3    4.708460338861008E-3    4.033874549485679E-1   -2.058949403166319E-1
 8.117572250575000E9     5.029404821786616E-1   -6.119789183444697E-2    1.576982429291170E-3    4.607873689587654E-3    1.633763108075283E-3    4.726773489203077E-3    4.032922958513256E-1   -2.061119278706353E-1
 8.117573582750000E9     5.028772301950024E-1   -6.137241397954110E-2    1.593621039749933E-3    4.609225400178765E-3    1.636356773518519E-3    4.752595705208476E-3    4.032922604053802E-1   -2.061213702210834E-1
 8.117574914925000E9     5.029397607635806E-1   -6.157464977894470E-2    1.608462346824399E-3    4.619216653247216E-3    1.659499226009514E-3    4.690260032108943E-3    4.031137718699329E-1   -2.062411874957578E-1
 8.117576247100000E9     5.029251895016730E-1   -6.166630411363741E-2    1.610017541032484E-3    4.633610685987250E-3    1.635191771123704E-3    4.747010982767723E-3    4.031555698059155E-1   -2.062502764569514E-1
 8.117577579275000E9     5.029620935436750E-1   -6.185851321677333E-2    1.610191211260477E-3    4.663461047065807E-3    1.655903288022462E-3    4.732010648998240E-3    4.030779178839037E-1   -2.064151932184267E-1
 8.117578911450000E9     5.030091135354984E-1   -6.176967305023399E-2    1.601087599754689E-3    4.639449508162640E-3    1.660134709043558E-3    4.772478804155707E-3    4.031047321848760E-1   -2.064201980280427E-1
 8.117580243625000E9     5.028824869195576E-1   -6.198439700285185E-2    1.612713834574078E-3    4.685959102185764E-3    1.627748210677135E-3    4.774912693758536E-3    4.028867598579440E-1   -2.065252203978341E-1
 8.117581575800000E9     5.029064633533857E-1   -6.217022154604463E-2    1.596353856127338E-3    4.673611316993058E-3    1.656806061560585E-3    4.805109266531202E-3    4.030625190272592E-1   -2.065865848310640E-1
 8.117582907975000E9     5.027511507894346E-1   -6.241718637846214E-2    1.621287477082452E-3    4.673465269940172E-3    1.680142913140379E-3    4.773255029797484E-3    4.029210258667567E-1   -2.067990674915581E-1
 8.117584240150000E9     5.027120121083909E-1   -6.253002388310962E-2    1.621550285897771E-3    4.689908084134292E-3    1.663226236657358E-3    4.761208338127937E-3    4.028388255950631E-1   -2.068126838904533E-1
 8.117585572325000E9     5.027126247440963E-1   -6.267327126439731E-2    1.624388409738882E-3    4.690356729952976E-3    1.687022342675034E-3    4.826956889412392E-3    4.026859184185417E-1   -2.069575902771630E-1
 8.117586904500000E9     5.026654263370388E-1   -6.274449237750127E-2    1.611248390681228E-3    4.704456451941669E-3    1.668723663839002E-3    4.842412888756168E-3    4.027930792860197E-1   -2.070509694130543E-1
 8.117588236675000E9     5.026666893540779E-1   -6.294196357335477E-2    1.626142123889508E-3    4.742236360317161E-3    1.723324614862447E-3    4.807011715200487E-3    4.026397560680980E-1   -2.071289905031616E-1
 8.117589568850000E9     5.026585729920429E-1   -6.300289977550648E-2    1.640216991203338E-3    4.733471844705730E-3    1.692418729247304E-3    4.839701932511231E-3    4.025870115676864E-1   -2.072257237553122E-1
 8.117590901025000E9     5.026473810519740E-1   -6.314823306678660E-2    1.649389813150748E-3    4.746361258060516E-3    1.733237407429603E-3    4.832090322568550E-3    4.025148481093809E-1   -2.071346785126414E-1
 8.117592233200000E9     5.025943258276301E-1   -6.330177273898535E-2    1.647015561695762E-3    4.739411433529413E-3    1.727366836377604E-3    4.809917566321281E-3    4.025753030361588E-1   -2.072527523213074E-1
 8.117593565375000E9     5.024905140575183E-1   -6.343968691124703E-2    1.670768988949844E-3    4.727792175676686E-3    1.770218250126533E-3    4.804447290350920E-3    4.024405334480561E-1   -2.074945608211485E-1
 8.117594897550000E9     5.025834845431041E-1   -6.366405134043020E-2    1.655015131632750E-3    4.757209723616551E-3    1.738547743023061E-3    4.870411851420557E-3    4.025810198079931E-1   -2.075746144926666E-1
 8.117596229725000E9     5.026104138728585E-1   -6.376508620825257E-2    1.683766934303629E-3    4.779305267267723E-3    1.718542589708057E-3    4.868317167530823E-3    4.023323077526294E-1   -2.075208994147673E-1
 8.117597561900000E9     5.024934478798955E-1   -6.386256531119006E-2    1.675195739369581E-3    4.779676607901461E-3    1.731940833915559E-3    4.846127175366071E-3    4.022969920672044E-1   -2.075713513719202E-1
 8.117598894075000E9     5.025007161730195E-1   -6.417561803670267E-2    1.668882703775209E-3    4.772814664522148E-3    1.776649814751997E-3    4.859960318775058E-3    4.023232588754086E-1   -2.077047479591180E-1
 8.117600226250000E9     5.023079438718864E-1   -6.411344142988999E-2    1.690861372910989E-3    4.796803050794018E-3    1.749895637871385E-3    4.909029980901342E-3    4.023509710634183E-1   -2.077037754727268E-1
 8.117601558425000E9     5.024105064614154E-1   -6.432626879916939E-2    1.703717300867873E-3    4.805153292978300E-3    1.762733621411376E-3    4.866985764463171E-3    4.023520292542451E-1   -2.077332283239098E-1
 8.117602890600000E9     5.022683155478536E-1   -6.447324581487522E-2    1.690184371119586E-3    4.800496313156401E-3    1.759524223711791E-3    4.915945715326699E-3    4.022985573631050E-1   -2.079703337749826E-1
 8.117604222775000E9     5.023508137494838E-1   -6.471316679741111E-2    1.719300432912292E-3    4.813418646266617E-3    1.752617811877718E-3    4.915260397274395E-3    4.022084628867426E-1   -2.080841417450524E-1
 8.117605554950000E9     5.022555322062829E-1   -6.481875093143524E-2    1.721255255283947E-3    4.824168434762744E-3    1.750628311114136E-3    4.910709374408914E-3    4.021936880421929E-1   -2.081587946960376E-1
 8.117606887125000E9     5.022349300091805E-1   -6.495946177744986E-2    1.733408752967955E-3    4.823842769934828E-3    1.762232810291387E-3    4.936132692510795E-3    4.021206121314795E-1   -2.082240718852916E-1
 8.117608219300000E9     5.022685264562393E-1   -6.503266602124867E-2    1.732152353031582E-3    4.844270975855826E-3    1.780945059146123E-3    4.943608123781705E-3    4.021789069522129E-1   -2.083246060785486E-1
 8.117609551475000E9     5.022781570037386E-1   -6.526205509650004E-2    1.731476214667644E-3    4.864819763427588E-3    1.790753444788389E-3    4.918400861556396E-3    4.020965141224038E-1   -2.084365023336370E-1
 8.117610883650000E9     5.021727907018656E-1   -6.546076216322891E-2    1.705272959850168E-3    4.883112763593237E-3    1.784448036457052E-3    4.984131235141681E-3    4.019531206935780E-1   -2.085140675491303E-1
 8.117612215825000E9     5.021382300428393E-1   -6.549974185749774E-2    1.719654416626864E-3    4.856788965156513E-3    1.808875445098280E-3    4.982139648436446E-3    4.019773259805556E-1   -2.086691092053832E-1
 8.117613548000000E9     5.020738224071655E-1   -6.567642404238595E-2    1.746733472006260E-3    4.875773799341499E-3    1.804573995408261E-3    4.990671367716127E-3    4.020308456307472E-1   -2.086676183360284E-1
 8.117614880175000E9     5.021818615950591E-1   -6.591593330858979E-2    1.766696925980422E-3    4.901807293276037E-3    1.820473057347929E-3    4.997768252789186E-3    4.019020468593776E-1   -2.088617761207419E-1
 8.117616212350000E9     5.019964516718323E-1   -6.601061784555247E-2    1.729480560698959E-3    4.893553174510104E-3    1.851305409875111E-3    5.014619719407457E-3    4.019676501430038E-1   -2.087866240056818E-1
 8.117617544525000E9     5.018726660664704E-1   -6.615416887125029E-2    1.790301295421482E-3    4.929168144133036E-3    1.835371680704315E-3    5.051845223698150E-3    4.019061373609527E-1   -2.090964413261244E-1
 8.117618876700000E9     5.020554733176199E-1   -6.627473358586848E-2    1.780642324480310E-3    4.926719522634310E-3    1.819241238883440E-3    5.095924649393025E-3    4.018129200142311E-1   -2.091276115482277E-1
 8.117620208875000E9     5.018768493238349E-1   -6.653953679511765E-2    1.772340185539048E-3    4.938523852153641E-3    1.827207629270171E-3    5.050720502681929E-3    4.015663402505428E-1   -2.092238979939376E-1
 8.117621541050000E9     5.019156541736745E-1   -6.661619446544310E-2    1.774436136692309E-3    4.934496296496398E-3    1.850706006831737E-3    5.069631928167757E-3    4.017643827420621E-1   -2.092183134552810E-1
 8.117622873225000E9     5.018068620220850E-1   -6.682646886879230E-2    1.783456573288074E-3    4.938924987317222E-3    1.846885344009837E-3    5.082165167228056E-3    4.016550213208488E-1   -2.091938546345941E-1
 8.117624205400000E9     5.018141730654503E-1   -6.703727438355701E-2    1.794911282209730E-3    4.968995467012882E-3    1.869450621980645E-3    5.095026130551847E-3    4.016768301514433E-1   -2.093992731315047E-1
 8.117625537575000E9     5.017633849663650E-1   -6.700031423218554E-2    1.816631069185411E-3    4.981231769355702E-3    1.834881457949871E-3    5.060683771159111E-3    4.015467175142140E-1   -2.094253538169502E-1
 8.117626869750000E9     5.016934301905082E-1   -6.716994317740664E-2    1.830714412992361E-3    4.998333652642557E-3    1.875186178140418E-3    5.098873736841683E-3    4.015376936570917E-1   -2.096137415740180E-1
 8.117628201925000E9     5.017452113952735E-1   -6.745300423099580E-2    1.813278794517001E-3    5.007330046574530E-3    1.898012381148406E-3    5.050727318831838E-3    4.014217702983451E-1   -2.096973894586945E-1
 8.117629534100000E9     5.016739794215499E-1   -6.759321462248440E-2    1.832120321118785E-3    5.003596206434604E-3    1.885450764595901E-3    5.146243559001170E-3    4.014581880559739E-1   -2.096334701171123E-1
 8.117630866275000E9     5.017196986438941E-1   -6.778808285904175E-2    1.844002604599103E-3    5.021605042767261E-3    1.941201661963404E-3    5.109500430631628E-3    4.013779742071260E-1   -2.096932433209520E-1
 8.117632198450000E9     5.015931607543643E-1   -6.796245696785776E-2    1.829769778654558E-3    5.041941775183302E-3    1.926819306279585E-3    5.204851035057708E-3    4.013637299635671E-1   -2.099027633577431E-1
 8.117633530625000E9     5.015125896139822E-1   -6.810169771673051E-2    1.861942820605010E-3    5.043322437304341E-3    1.904335061477793E-3    5.183439888652383E-3    4.013796390499758E-1   -2.098993068647193E-1
 8.117634862800000E9     5.014209165295023E-1   -6.825744273946850E-2    1.886668291577116E-3    5.067091472082847E-3    1.908220800909036E-3    5.174428123381202E-3    4.013605900102444E-1   -2.100795314674382E-1
 8.117636194975000E9     5.014095088700018E-1   -6.832011007033001E-2    1.887703310005518E-3    5.062915055291681E-3    1.997901035716594E-3    5.178225814682910E-3    4.011025593481578E-1   -2.101345013151197E-1
 8.117637527150000E9     5.014821509299916E-1   -6.854897483988845E-2    1.873162599746215E-3    5.081850341833451E-3    1.955064967492079E-3    5.177024061328542E-3    4.013064601563242E-1   -2.102783211577327E-1
 8.117638859325000E9     5.013235319280264E-1   -6.871699923616378E-2    1.911438056273858E-3    5.100320242271525E-3    1.941564013310780E-3    5.248912548953949E-3    4.011906015787457E-1   -2.104503903750233E-1
 8.117640191500000E9     5.013495539188277E-1   -6.875012189228254E-2    1.908038099855605E-3    5.113723794356212E-3    1.979273684911060E-3    5.261723450956250E-3    4.011391523237465E-1   -2.103234372427474E-1
 8.117641523675000E9     5.012827641890913E-1   -6.914290787789922E-2    1.904365025876483E-3    5.157026550107672E-3    1.967362777614509E-3    5.241363632398604E-3    4.011151192136801E-1   -2.104583233180838E-1
 8.117642855850000E9     5.013067673616841E-1   -6.924076661192918E-2    1.924279701176933E-3    5.139750201997175E-3    2.003550267709889E-3    5.308805968007447E-3    4.010979066895826E-1   -2.105439186912702E-1
 8.117644188025000E9     5.011536848449375E-1   -6.942436426294828E-2    1.906411685873730E-3    5.159123095508217E-3    2.037454339980662E-3    5.262868897320162E-3    4.009268449382128E-1   -2.106702793282036E-1
 8.117645520200000E9     5.010228591410789E-1   -6.944928323681611E-2    1.947454562969389E-3    5.157028195678851E-3    1.996459718545749E-3    5.276133506923736E-3    4.009582730602734E-1   -2.106837601004008E-1
 8.117646852375000E9     5.011070709038230E-1   -6.971048975464289E-2    1.954910939828848E-3    5.151631600065673E-3    2.004033553923098E-3    5.288124063123222E-3    4.009364348860983E-1   -2.108589693184820E-1
 8.117648184550000E9     5.010814281613241E-1   -7.005726029293098E-2    1.956838766693688E-3    5.190629556211656E-3    2.040083155336181E-3    5.287182615582651E-3    4.009150535497642E-1   -2.110109401362960E-1
 8.117649516725000E9     5.009449785743727E-1   -7.016831030855905E-2    1.969707001395260E-3    5.178233133267510E-3    2.053645393823815E-3    5.355908192843430E-3    4.008449298011876E-1   -2.111640932970748E-1
 8.117650848900000E9     5.009851306123252E-1   -7.020754900977413E-2    1.989524009128316E-3    5.220356818801919E-3    2.093734420518975E-3    5.308464898779235E-3    4.007922268809553E-1   -2.111118682876461E-1
 8.117652181075000E9     5.009726933595141E-1   -7.053136662214554E-2    1.982245803343395E-3    5.244610948543903E-3    2.035398500785020E-3    5.333390779848722E-3    4.008126327864714E-1   -2.111062110899200E-1
 8.117653513250000E9     5.008876785164402E-1   -7.053789602090363E-2    2.010060708534536E-3    5.247138247891915E-3    2.075148428835868E-3    5.324132270550982E-3    4.007139068474108E-1   -2.111558180825002E-1
 8.117654845425000E9     5.008522064843349E-1   -7.082607472043498E-2    1.998057473852777E-3    5.260275399785757E-3    2.083622712578272E-3    5.386547928692822E-3    4.007854247681435E-1   -2.112676284393376E-1
 8.117656177600000E9     5.007706219177984E-1   -7.104068348065129E-2    2.019533540772771E-3    5.281755692333350E-3    2.078426741314075E-3    5.354908935028275E-3    4.006410798394214E-1   -2.114042948849294E-1
 8.117657509775000E9     5.007540863605813E-1   -7.116311644888565E-2    2.038313386521827E-3    5.287123096158652E-3    2.114029643442630E-3    5.363338528576379E-3    4.006106269288632E-1   -2.116196224426831E-1
 8.117658841950000E9     5.007453701231060E-1   -7.127495007972054E-2    2.046481880789282E-3    5.291030182956949E-3    2.099015033143920E-3    5.445678442764936E-3    4.005680762106990E-1   -2.117036498769810E-1
 8.117660174125000E9     5.005791680312210E-1   -7.150230562590365E-2    2.055520090794838E-3    5.332135059630060E-3    2.135613084516152E-3    5.431243288842789E-3    4.004898788314534E-1   -2.116167704768180E-1
 8.117661506300000E9     5.005567659115882E-1   -7.169119144040666E-2    2.062709974939583E-3    5.345753991676436E-3    2.145363796276199E-3    5.485672611124926E-3    4.004914578314880E-1   -2.117166740300432E-1
 8.117662838475000E9     5.005029411331073E-1   -7.178078259658087E-2    2.093534730785467E-3    5.358732767183681E-3    2.179324020543037E-3    5.489293823826018E-3    4.003874879787203E-1   -2.118914814550626E-1
 8.117664170650000E9     5.004312070855516E-1   -7.207408927728680E-2    2.082486534443611E-3    5.356940784603408E-3    2.110783574928024E-3    5.463957565270049E-3    4.003213780395172E-1   -2.119356772651088E-1
 8.117665502825000E9     5.003674169775454E-1   -7.223410662860551E-2    2.105680847116785E-3    5.392972018904684E-3    2.150987972736555E-3    5.518391606794944E-3    4.004698507552601E-1   -2.121524429031904E-1
 8.117666835000000E9     5.003372325407903E-1   -7.234607846015118E-2    2.095806613242438E-3    5.396859535236282E-3    2.178982873201686E-3    5.554080967755375E-3    4.003097713853883E-1   -2.120704044248854E-1
 8.117668167175000E9     5.002209811133692E-1   -7.261357956867177E-2    2.125105412573148E-3    5.412874585687216E-3    2.163195813804295E-3    5.532091390152786E-3    4.002868260779768E-1   -2.122520958014720E-1
 8.117669499350000E9     5.002229640696341E-1   -7.278014933280336E-2    2.134752239384675E-3    5.461489273327630E-3    2.248444658888668E-3    5.562978204274263E-3    4.002568871471285E-1   -2.121858892072269E-1
 8.117670831525000E9     5.001644765651934E-1   -7.296342549757090E-2    2.178530839753726E-3    5.432856831346854E-3    2.204902754448733E-3    5.569782381930504E-3    4.000951004260505E-1   -2.124346596615186E-1
 8.117672163700000E9     5.001871642351169E-1   -7.319029402776535E-2    2.153163181325782E-3    5.507702540306249E-3    2.272183814896482E-3    5.564164630787486E-3    4.000422016995716E-1   -2.124301015676271E-1
 8.117673495875000E9     5.000404193985311E-1   -7.334048411015621E-2    2.208448689543617E-3    5.517180403736440E-3    2.265161672849736E-3    5.642570193445963E-3    4.002024127682678E-1   -2.125456642858373E-1
 8.117674828050000E9     5.000312604869511E-1   -7.350441341060715E-2    2.194368730419062E-3    5.512558898263180E-3    2.254363468966702E-3    5.631207351438198E-3    3.999727218812100E-1   -2.126560084328037E-1
 8.117676160225000E9     4.998555349836310E-1   -7.378868733768884E-2    2.207344495886956E-3    5.537784662578931E-3    2.250734121234444E-3    5.680888094743327E-3    4.000919961401642E-1   -2.127261545786399E-1
 8.117677492400000E9     4.999075138533339E-1   -7.388597917858174E-2    2.216452516872339E-3    5.554913895724166E-3    2.338647659659722E-3    5.697479560079493E-3    3.999326151946339E-1   -2.128501632769130E-1
 8.117678824575000E9     4.998628302873253E-1   -7.416101586209231E-2    2.240638979845642E-3    5.529189565558802E-3    2.288231546702941E-3    5.662364912855838E-3    3.998988045152425E-1   -2.128944717674651E-1
 8.117680156750000E9     4.996476025616113E-1   -7.421648331094267E-2    2.262448067329767E-3    5.557915087869261E-3    2.340867474035083E-3    5.722529986740402E-3    3.997342827308396E-1   -2.130619957753898E-1
