#  HZ   S   RI   R     50.00 
! Rohde & Schwarz Vector Network Analyzer 
! Rohde-Schwarz,ZNB20-2Port,1311601062101988,3.16
! Created: UTC 3/20/2024, 12:06:13 PM
! freq[Hz]                re:S11                  im:S11                  re:S21                  im:S21                  re:S12                  im:S12                  re:S22                  im:S22
 8.117599561000000E9     5.027026449696385E-1   -6.309177380011043E-2    1.610653453429613E-3    4.673293294591582E-3    1.672174390952523E-3    4.793789100992679E-3    4.023304067688309E-1   -2.079177666593720E-1
 8.117600787650000E9     5.027393010661384E-1   -6.325886982913172E-2    1.601340434059745E-3    4.685527435129057E-3    1.694483350044409E-3    4.784764540490887E-3    4.022808975594386E-1   -2.079493816838259E-1
 8.117602014300000E9     5.027868702958278E-1   -6.347649483320804E-2    1.616968890812525E-3    4.686588015079163E-3    1.685649537947443E-3    4.799092564266048E-3    4.023324195905764E-1   -2.079351831956248E-1
 8.117603240950000E9     5.027531949933940E-1   -6.350441611175195E-2    1.634012842653864E-3    4.683258710598238E-3    1.733547449675547E-3    4.798838697992828E-3    4.021535566361443E-1   -2.081580541388442E-1
 8.117604467600000E9     5.028830301610500E-1   -6.357783759505059E-2    1.636475192209261E-3    4.737287111739059E-3    1.653180200463682E-3    4.810327742389798E-3    4.021609255279034E-1   -2.081518927209619E-1
 8.117605694250000E9     5.026288599084816E-1   -6.375840766603670E-2    1.657424726844905E-3    4.736351777280569E-3    1.686867802689484E-3    4.806150824046288E-3    4.022315092634191E-1   -2.083289264251431E-1
 8.117606920900000E9     5.026757033803992E-1   -6.409501546744685E-2    1.624913233922117E-3    4.722309636379057E-3    1.652643691358738E-3    4.876914009301785E-3    4.019557208258197E-1   -2.083068998190643E-1
 8.117608147550000E9     5.026014058062780E-1   -6.407490085527984E-2    1.646647317752020E-3    4.752068035020604E-3    1.733094044035397E-3    4.825234022385774E-3    4.020361910177306E-1   -2.083848541338695E-1
 8.117609374200000E9     5.025700864943270E-1   -6.427249455702679E-2    1.629802585000209E-3    4.738298541494334E-3    1.680415068046796E-3    4.871949768084081E-3    4.019180577365524E-1   -2.083685965420347E-1
 8.117610600850000E9     5.027108184512683E-1   -6.434826047224676E-2    1.682267970299758E-3    4.747038643699154E-3    1.726714377125547E-3    4.882267080496017E-3    4.019984447754125E-1   -2.084675008294898E-1
 8.117611827500000E9     5.025795387161943E-1   -6.455399166354174E-2    1.653314112342498E-3    4.757779498410510E-3    1.724064522628112E-3    4.865050091947377E-3    4.019156008427026E-1   -2.086084750549126E-1
 8.117613054150000E9     5.026292608123736E-1   -6.461603147443278E-2    1.660178341501346E-3    4.748204856875282E-3    1.752030716738962E-3    4.875266484236796E-3    4.020267818675376E-1   -2.086678732218516E-1
 8.117614280800000E9     5.024101865421321E-1   -6.483400009768890E-2    1.656458144320987E-3    4.792916784205290E-3    1.737929613864607E-3    4.892107094393893E-3    4.018547499006899E-1   -2.088559155523451E-1
 8.117615507450000E9     5.025387519207777E-1   -6.492047238232691E-2    1.668983787084299E-3    4.779912853952594E-3    1.811333854643331E-3    4.895922183455077E-3    4.018625351910752E-1   -2.088227593952359E-1
 8.117616734100000E9     5.024051675537832E-1   -6.512262076105882E-2    1.672441414082684E-3    4.805264808644546E-3    1.768478329271875E-3    4.896140573642133E-3    4.017479327299354E-1   -2.089819407797419E-1
 8.117617960750000E9     5.024768764419002E-1   -6.524059440497143E-2    1.688521635808663E-3    4.815829902832272E-3    1.744557585120332E-3    4.968460905350611E-3    4.017823637813085E-1   -2.090602768510857E-1
 8.117619187400000E9     5.023210562315410E-1   -6.535041080802396E-2    1.709526379353748E-3    4.824146789031350E-3    1.745631369381724E-3    4.928389561903852E-3    4.017310800146248E-1   -2.091909280478743E-1
 8.117620414050000E9     5.023651068543706E-1   -6.550617956114853E-2    1.693575026662215E-3    4.836536905525335E-3    1.764690586920736E-3    4.917588260988607E-3    4.017661942161479E-1   -2.091781755552093E-1
 8.117621640700000E9     5.023003305170642E-1   -6.565562673984675E-2    1.727737316375097E-3    4.831820310094396E-3    1.739692518622006E-3    4.986579663951950E-3    4.016115557591267E-1   -2.092975860134329E-1
 8.117622867350000E9     5.023061075354188E-1   -6.596601502117239E-2    1.713139229465543E-3    4.814177495782511E-3    1.778159035314561E-3    4.954484300444740E-3    4.016212979077662E-1   -2.092843023715728E-1
 8.117624094000000E9     5.022508533079675E-1   -6.592165181094481E-2    1.743094056820949E-3    4.872958471340789E-3    1.776954909574257E-3    4.919225757258697E-3    4.014285457903669E-1   -2.093616035367182E-1
 8.117625320650000E9     5.022429663312228E-1   -6.607486765159373E-2    1.734974463353896E-3    4.864394117794449E-3    1.767632591149195E-3    4.988171405957483E-3    4.014897887003075E-1   -2.094210383597972E-1
 8.117626547300000E9     5.021716174797072E-1   -6.621685467528533E-2    1.737740910684564E-3    4.863568374198296E-3    1.837603152342656E-3    4.983134332403860E-3    4.014383238322925E-1   -2.096187194592524E-1
 8.117627773950000E9     5.021755634564032E-1   -6.637101064192789E-2    1.746554118243332E-3    4.881731826371351E-3    1.811156381163925E-3    4.958065597634021E-3    4.014105755874838E-1   -2.099113104029364E-1
 8.117629000600000E9     5.021443011503151E-1   -6.647855826363763E-2    1.741706524761762E-3    4.864538846720325E-3    1.834761816977391E-3    4.987277673579387E-3    4.014018682554478E-1   -2.097686265800119E-1
 8.117630227250000E9     5.020230270009751E-1   -6.662733988432287E-2    1.732745298971165E-3    4.884035391038916E-3    1.777746159875315E-3    5.037167115554112E-3    4.012169569273345E-1   -2.098217545835728E-1
 8.117631453900000E9     5.020749027865947E-1   -6.679959508694949E-2    1.752847985531858E-3    4.898981968765882E-3    1.819754402631124E-3    5.003486444189170E-3    4.013976947559800E-1   -2.098808127153579E-1
 8.117632680550000E9     5.019634266438562E-1   -6.687239606826342E-2    1.766779200349687E-3    4.904079119198163E-3    1.825703770297109E-3    5.041820994355145E-3    4.012605561272540E-1   -2.100429606745113E-1
 8.117633907200000E9     5.019652373116454E-1   -6.709301814369668E-2    1.772433569614623E-3    4.936110825876201E-3    1.845188259450645E-3    5.041263293519505E-3    4.012991894640140E-1   -2.101411257641200E-1
 8.117635133850000E9     5.019955776962395E-1   -6.728338018170368E-2    1.791546889531973E-3    4.909822129010925E-3    1.836017666291642E-3    5.034780504418209E-3    4.012796734906715E-1   -2.102453956609700E-1
 8.117636360500000E9     5.018904246725151E-1   -6.733855898657687E-2    1.796185461595321E-3    4.930085644085606E-3    1.850487642105590E-3    5.047285120036517E-3    4.012398346734782E-1   -2.102298241421754E-1
 8.117637587150000E9     5.018777224038651E-1   -6.754782019015672E-2    1.804203412499786E-3    4.942525707943153E-3    1.875693905828565E-3    5.063458938517720E-3    4.011842795394595E-1   -2.103617490383856E-1
 8.117638813800000E9     5.020083709274027E-1   -6.768625912276581E-2    1.783780655887499E-3    4.974990786203354E-3    1.881535494663161E-3    5.057074753815845E-3    4.009726976782751E-1   -2.104056788271378E-1
 8.117640040450000E9     5.018236179788920E-1   -6.775402690849662E-2    1.775841484634620E-3    4.957665161095391E-3    1.900064620092167E-3    5.036992244878621E-3    4.010719885317974E-1   -2.104133592658171E-1
 8.117641267100000E9     5.017498776038983E-1   -6.786280929930411E-2    1.835572741493598E-3    4.978344539471795E-3    1.882223739679363E-3    5.045027325207812E-3    4.009421098681710E-1   -2.104823491378398E-1
 8.117642493750000E9     5.017101587528058E-1   -6.800509073841436E-2    1.831748544732798E-3    5.015806989302807E-3    1.844859697577671E-3    5.080087211160298E-3    4.009304425513766E-1   -2.105244837491735E-1
 8.117643720400000E9     5.017374596349333E-1   -6.815251421601921E-2    1.817848309167769E-3    5.012106484446235E-3    1.893317072115736E-3    5.120590130984329E-3    4.009769726675492E-1   -2.106787848043702E-1
 8.117644947050000E9     5.017021979227159E-1   -6.836387123990140E-2    1.828434792289679E-3    5.017494172229702E-3    1.875102390494314E-3    5.117514282661911E-3    4.009541551803998E-1   -2.107604795271127E-1
 8.117646173700000E9     5.016131340389341E-1   -6.845207164128067E-2    1.826809617568894E-3    4.994248767294736E-3    1.890879158296453E-3    5.154339747345285E-3    4.007614382157962E-1   -2.108387787489869E-1
 8.117647400350000E9     5.016307617299504E-1   -6.860612461647830E-2    1.842545699173672E-3    5.041550436743609E-3    1.867520901084528E-3    5.135742601909572E-3    4.009164437475324E-1   -2.109546644714365E-1
 8.117648627000000E9     5.016142422670575E-1   -6.872147947047980E-2    1.848807889058636E-3    5.055562566235287E-3    1.883216289386625E-3    5.152024018693565E-3    4.007699342875677E-1   -2.109529533211237E-1
 8.117649853650000E9     5.015824840953172E-1   -6.891640702674486E-2    1.862711882021149E-3    5.045869041454979E-3    1.945140841424434E-3    5.178096688214042E-3    4.006668461505931E-1   -2.109953933726777E-1
 8.117651080300000E9     5.016096855742376E-1   -6.906971073237539E-2    1.858494037131992E-3    5.068201244871596E-3    1.917351153401435E-3    5.164262804522650E-3    4.008350287285393E-1   -2.110777595908029E-1
 8.117652306950000E9     5.013967287510351E-1   -6.935279675862754E-2    1.878255082587403E-3    5.074085892761251E-3    1.958917169635350E-3    5.208954304146520E-3    4.006681268834274E-1   -2.111394515600332E-1
 8.117653533600000E9     5.015184731413295E-1   -6.932918044317440E-2    1.880338342382840E-3    5.063460733861848E-3    1.981122966950566E-3    5.252517255069614E-3    4.007321671246857E-1   -2.114411099091271E-1
 8.117654760250000E9     5.013500073908850E-1   -6.942881355633841E-2    1.892851822580212E-3    5.108639710244369E-3    1.974178723012521E-3    5.194119254310148E-3    4.005737833327496E-1   -2.115656011826577E-1
 8.117655986900000E9     5.014535397663170E-1   -6.967727699648832E-2    1.916360931980587E-3    5.112615823755053E-3    1.974470741004005E-3    5.235279718534418E-3    4.005709084454663E-1   -2.114018210626306E-1
 8.117657213550000E9     5.013102952005805E-1   -6.987632840047996E-2    1.898497704967204E-3    5.131864553349571E-3    1.979386732897719E-3    5.283205706398558E-3    4.003592720256055E-1   -2.115343444784240E-1
 8.117658440200000E9     5.014211843723990E-1   -7.006802447287432E-2    1.923786218573362E-3    5.151929390855382E-3    2.003507716269498E-3    5.218185099810927E-3    4.004301607690663E-1   -2.116805596297440E-1
 8.117659666850000E9     5.012025579221906E-1   -7.017121111612221E-2    1.920117730862874E-3    5.131193173153249E-3    1.969493440441966E-3    5.226703595821747E-3    4.004499842954259E-1   -2.117657072224487E-1
 8.117660893500000E9     5.012307945685527E-1   -7.027115234507057E-2    1.955031677209071E-3    5.153089073837540E-3    1.996170605092824E-3    5.284169407607731E-3    4.003564879010832E-1   -2.118486979494105E-1
 8.117662120150000E9     5.011390690474515E-1   -7.055755117867805E-2    1.952678192168160E-3    5.178215552865903E-3    2.008230078646929E-3    5.309756163239285E-3    4.003798351799628E-1   -2.118649084826076E-1
 8.117663346800000E9     5.011378491980264E-1   -7.059961940842595E-2    1.891534312183392E-3    5.183137038195218E-3    2.033870342088877E-3    5.295580863078637E-3    4.002658217743574E-1   -2.119324487959877E-1
 8.117664573450000E9     5.011218317695499E-1   -7.073835310813309E-2    1.934350558586626E-3    5.215690535609534E-3    2.005502280669809E-3    5.282153953207236E-3    4.002888367944994E-1   -2.119494870202454E-1
 8.117665800100000E9     5.011254875118336E-1   -7.093450286095096E-2    1.972460344822733E-3    5.196945672208053E-3    2.032562293281828E-3    5.291770496426343E-3    4.001773861286467E-1   -2.120737023641577E-1
 8.117667026750000E9     5.010152272371439E-1   -7.106119509199203E-2    1.981877625365834E-3    5.225522256936185E-3    2.072006627331406E-3    5.315025841419666E-3    4.001998268151632E-1   -2.122649175762550E-1
 8.117668253400000E9     5.010603346912678E-1   -7.123778619511827E-2    2.001931854662143E-3    5.262022255639986E-3    2.018647076633984E-3    5.312686291560479E-3    4.001374259110901E-1   -2.123983948568418E-1
 8.117669480050000E9     5.009105019933606E-1   -7.144869405537797E-2    2.002260357290143E-3    5.233063547236778E-3    2.060192484121464E-3    5.372047479507682E-3    4.001416193829868E-1   -2.123481828656801E-1
 8.117670706700000E9     5.010123115665303E-1   -7.153452409765144E-2    2.028521535603119E-3    5.247960622859722E-3    2.072737117991426E-3    5.371267388295532E-3    4.000300708934219E-1   -2.125278109339291E-1
 8.117671933350000E9     5.008412925221757E-1   -7.176064169159306E-2    2.010629093564284E-3    5.267648864164891E-3    2.084924112540339E-3    5.404739416475376E-3    3.999950775151668E-1   -2.125917732893907E-1
 8.117673160000000E9     5.007545685786389E-1   -7.194182159864063E-2    2.046664809227313E-3    5.278220944594105E-3    2.075217456746490E-3    5.375275713674127E-3    4.000102097589282E-1   -2.125431836508329E-1
 8.117674386650000E9     5.007248379246760E-1   -7.200449049583856E-2    2.048502880277778E-3    5.301807419027400E-3    2.103073227571799E-3    5.435497151286006E-3    3.999852868198615E-1   -2.127799010495663E-1
 8.117675613300000E9     5.006376691209220E-1   -7.220212716692537E-2    2.041681575454254E-3    5.307321064788079E-3    2.141744435971413E-3    5.398531598420980E-3    3.999175064196253E-1   -2.127925678764566E-1
 8.117676839950000E9     5.007370613495685E-1   -7.233063453475470E-2    2.037575084075851E-3    5.320470545944148E-3    2.097380648638686E-3    5.487048334564471E-3    3.999185742949357E-1   -2.127688220102112E-1
 8.117678066600000E9     5.006827228720195E-1   -7.264298895969810E-2    2.050337834046843E-3    5.354091853940925E-3    2.119002171075560E-3    5.450319291399464E-3    3.997875876778809E-1   -2.130448798329577E-1
 8.117679293250000E9     5.004747355737464E-1   -7.271712687211522E-2    2.072696942600361E-3    5.372377749232437E-3    2.153480208509031E-3    5.470447871930945E-3    3.997307800787285E-1   -2.129336101929940E-1
 8.117680519900000E9     5.005754700186837E-1   -7.298981087812696E-2    2.088793482891457E-3    5.385749975509676E-3    2.150916930732687E-3    5.525168870357258E-3    3.997440924016658E-1   -2.129982592783927E-1
 8.117681746550000E9     5.004356974310704E-1   -7.306796509426748E-2    2.097955994073958E-3    5.387068269426164E-3    2.154781859981177E-3    5.503878423638623E-3    3.997086344015026E-1   -2.132234977327352E-1
 8.117682973200000E9     5.004277558368389E-1   -7.321609665101009E-2    2.099374923923245E-3    5.388410702892074E-3    2.185096917507434E-3    5.515751884807362E-3    3.996693343557660E-1   -2.132829768331326E-1
 8.117684199850000E9     5.003295162624780E-1   -7.346734695323343E-2    2.104971251541327E-3    5.407439452557119E-3    2.261184267856845E-3    5.552517206661191E-3    3.998723925649918E-1   -2.133552540150006E-1
 8.117685426500000E9     5.003002021053314E-1   -7.358119732872669E-2    2.144547427084420E-3    5.423343799905422E-3    2.213065169368032E-3    5.550683223428794E-3    3.996589881756671E-1   -2.134401894576740E-1
 8.117686653150000E9     5.003070445005395E-1   -7.369881362341317E-2    2.136499226187318E-3    5.432914372463309E-3    2.272414460111357E-3    5.606855342631743E-3    3.996761753243191E-1   -2.135636260533126E-1
 8.117687879800000E9     5.001820291919961E-1   -7.382604531482972E-2    2.154160963709551E-3    5.480772741149470E-3    2.249342186666197E-3    5.566287403490746E-3    3.994899556933916E-1   -2.135812955681881E-1
 8.117689106450000E9     5.001366341929930E-1   -7.406967157957084E-2    2.147673460399019E-3    5.448892620190388E-3    2.207607772585293E-3    5.595698894633082E-3    3.994589597292658E-1   -2.137959598612806E-1
 8.117690333100000E9     5.000765610311863E-1   -7.431536400299114E-2    2.163889048046748E-3    5.501601525124413E-3    2.286366167295609E-3    5.589584767362846E-3    3.994662917506198E-1   -2.136553156727266E-1
 8.117691559750000E9     5.000835811763309E-1   -7.437257488877366E-2    2.182342416272984E-3    5.516928497045354E-3    2.262031791500704E-3    5.678148594189318E-3    3.993588895815593E-1   -2.138598060156530E-1
 8.117692786400000E9     5.000111355544797E-1   -7.465921468837729E-2    2.204848409833066E-3    5.554506900797551E-3    2.293269851092597E-3    5.633535997211302E-3    3.994571103989539E-1   -2.138844071905806E-1
 8.117694013050000E9     4.999165100236931E-1   -7.483007536569043E-2    2.211721864708551E-3    5.542660328026811E-3    2.304060635232106E-3    5.660270217404157E-3    3.993398230339956E-1   -2.139552546162428E-1
 8.117695239700000E9     4.998739767942108E-1   -7.497432880607732E-2    2.228555436974264E-3    5.572875607104876E-3    2.318480907210875E-3    5.678029444723575E-3    3.992056961386163E-1   -2.142392570384665E-1
 8.117696466350000E9     4.997886707621653E-1   -7.516489326387750E-2    2.236791025356458E-3    5.588300388241073E-3    2.301931709592255E-3    5.724135537673935E-3    3.993374983780603E-1   -2.142268841185392E-1
 8.117697693000000E9     4.997922966016298E-1   -7.542398082934942E-2    2.266025441073161E-3    5.618936827053851E-3    2.313359669959639E-3    5.748302268604971E-3    3.992121755180637E-1   -2.140924878806917E-1
 8.117698919650000E9     4.998497923299470E-1   -7.557388931757963E-2    2.288161168700336E-3    5.623471401171852E-3    2.333651143076057E-3    5.728571499497684E-3    3.991944530917895E-1   -2.143210048905069E-1
 8.117700146300000E9     4.996534088697385E-1   -7.569253761217318E-2    2.268275136639688E-3    5.656503532586413E-3    2.352915334196362E-3    5.793117031220475E-3    3.991265736384070E-1   -2.143323974943136E-1
 8.117701372950000E9     4.996784607871020E-1   -7.585358695999293E-2    2.278241083732473E-3    5.653050558893108E-3    2.381751957218111E-3    5.789415686545487E-3    3.992448169873927E-1   -2.144399586902628E-1
 8.117702599600000E9     4.994963955178630E-1   -7.607814577848748E-2    2.339032970541698E-3    5.667396712397976E-3    2.434072014257729E-3    5.763568076995764E-3    3.989937879780308E-1   -2.146901128693439E-1
 8.117703826250000E9     4.995036020985152E-1   -7.630527820859702E-2    2.322733263802498E-3    5.698368588293216E-3    2.431343929884568E-3    5.800186685367181E-3    3.990361499179388E-1   -2.147090366063155E-1
 8.117705052900000E9     4.995001813575781E-1   -7.644861616962212E-2    2.347721554919675E-3    5.714402999457035E-3    2.416074120516624E-3    5.815716977261037E-3    3.990006464234951E-1   -2.146631134895156E-1
 8.117706279550000E9     4.993047622899188E-1   -7.665955993162533E-2    2.356738274646364E-3    5.726416906355797E-3    2.393492599340423E-3    5.861644075160612E-3    3.990015492460999E-1   -2.147661229176383E-1
 8.117707506200000E9     4.992757966880259E-1   -7.686220053914054E-2    2.385022915523951E-3    5.750747935843161E-3    2.488532439674332E-3    5.898342645573207E-3    3.988711332024814E-1   -2.149110434989792E-1
 8.117708732850000E9     4.990308010397214E-1   -7.703584914014992E-2    2.360697312650230E-3    5.770298031893693E-3    2.441902470460517E-3    5.946667134672381E-3    3.988327917608327E-1   -2.149974068862874E-1
 8.117709959500000E9     4.990975979361210E-1   -7.734210659130072E-2    2.403117265390550E-3    5.788371445424272E-3    2.451742837831972E-3    5.915018017062051E-3    3.989269891806792E-1   -2.150194819992040E-1
