#  HZ   S   RI   R     50.00 
! Rohde & Schwarz Vector Network Analyzer 
! Rohde-Schwarz,ZNB20-2Port,1311601062101988,3.16
! Created: UTC 3/20/2024, 12:06:31 PM
! freq[Hz]                re:S11                  im:S11                  re:S21                  im:S21                  re:S12                  im:S12                  re:S22                  im:S22
 8.117617786000000E9     5.025418958425157E-1   -6.465396651734261E-2    1.643836511505805E-3    4.721156888280060E-3    1.700793595135285E-3    4.808891365020437E-3    4.015501618436179E-1   -2.091180706461168E-1
 8.117618968475000E9     5.025993564964166E-1   -6.477074955425431E-2    1.656002139615696E-3    4.732867286528820E-3    1.703104222820832E-3    4.860342702452894E-3    4.017002258261330E-1   -2.091499039246086E-1
 8.117620150950000E9     5.026354604262575E-1   -6.495692155987573E-2    1.655559858450342E-3    4.728744812772477E-3    1.704820880207513E-3    4.837584047262398E-3    4.016665256706600E-1   -2.091554139533445E-1
 8.117621333425000E9     5.025030556001832E-1   -6.509166356838408E-2    1.659092271394845E-3    4.731542540494276E-3    1.715042571645783E-3    4.828236796486816E-3    4.014751841509655E-1   -2.093873251158919E-1
 8.117622515900000E9     5.025441694496914E-1   -6.517445270179174E-2    1.635752567115368E-3    4.760784817596838E-3    1.702912079530907E-3    4.842956835748211E-3    4.015364469621474E-1   -2.093326497798944E-1
 8.117623698375000E9     5.025017243934992E-1   -6.522886271668160E-2    1.661097423306888E-3    4.761129649900837E-3    1.760158285744731E-3    4.822788519588566E-3    4.015579516958947E-1   -2.094151193010472E-1
 8.117624880850000E9     5.025000463461723E-1   -6.543118400249820E-2    1.658910824289586E-3    4.762866753695514E-3    1.729218515127356E-3    4.885417734169441E-3    4.014682043879839E-1   -2.094952782595253E-1
 8.117626063325000E9     5.025114114222864E-1   -6.559260301830502E-2    1.686706764102661E-3    4.785260325346628E-3    1.701582192114509E-3    4.896103335054941E-3    4.014202922537050E-1   -2.096402481582893E-1
 8.117627245800000E9     5.024115440510081E-1   -6.574820873737595E-2    1.665321596027859E-3    4.776454007837889E-3    1.775504291719570E-3    4.902297419441152E-3    4.013466568274561E-1   -2.097118635916827E-1
 8.117628428275000E9     5.024148252968965E-1   -6.577359013010008E-2    1.688897286800974E-3    4.775534171485322E-3    1.756625199784727E-3    4.855083150068528E-3    4.014292537062000E-1   -2.097303208258013E-1
 8.117629610750000E9     5.024426377516554E-1   -6.601944675873855E-2    1.699093205314190E-3    4.845223930406588E-3    1.750608305070788E-3    4.930140281880242E-3    4.014843850178294E-1   -2.099726339666912E-1
 8.117630793225000E9     5.024577375309346E-1   -6.613874115342705E-2    1.700594506037974E-3    4.781606264805733E-3    1.748475311541015E-3    4.924648370787616E-3    4.013587885660994E-1   -2.099470753303785E-1
 8.117631975700000E9     5.024449604298361E-1   -6.628444345444029E-2    1.702117798191235E-3    4.822536033788230E-3    1.768741629003091E-3    4.951835447426428E-3    4.012730242663871E-1   -2.099583921839798E-1
 8.117633158175000E9     5.023411352612887E-1   -6.640033018265906E-2    1.693489495099246E-3    4.830850612501243E-3    1.756805123690400E-3    4.944747665812050E-3    4.011528378598709E-1   -2.100111212374281E-1
 8.117634340650000E9     5.021907982965820E-1   -6.652484167505568E-2    1.713281752163960E-3    4.822458536860805E-3    1.779227506074609E-3    4.939466132911343E-3    4.012101887910844E-1   -2.101575919581898E-1
 8.117635523125000E9     5.021961367910013E-1   -6.656107468011317E-2    1.695066854283217E-3    4.837085411412265E-3    1.779199223962629E-3    4.898663770418847E-3    4.011272557424577E-1   -2.101574802740503E-1
 8.117636705600000E9     5.022429783009135E-1   -6.684970956538529E-2    1.718258813886428E-3    4.854647890877423E-3    1.757562994131566E-3    4.920608934510832E-3    4.010399137105993E-1   -2.103141486148111E-1
 8.117637888075000E9     5.021030729786943E-1   -6.690999013401093E-2    1.726472853187944E-3    4.854072060453267E-3    1.785132492890391E-3    5.026742480963791E-3    4.010063339887338E-1   -2.104058916431879E-1
 8.117639070550000E9     5.021996554826830E-1   -6.702348489708160E-2    1.745653231570810E-3    4.874186478523238E-3    1.784935778478231E-3    4.997797752206826E-3    4.010181547717405E-1   -2.103988466461776E-1
 8.117640253025000E9     5.020890928653144E-1   -6.721551707925874E-2    1.734959309882992E-3    4.881753738078230E-3    1.826408059667843E-3    5.000085661368618E-3    4.010274433596291E-1   -2.104837206102156E-1
 8.117641435500000E9     5.021137229690936E-1   -6.730839440981468E-2    1.751973285499592E-3    4.902724126527294E-3    1.788759471018905E-3    5.017494952459543E-3    4.009134477803720E-1   -2.106414231929213E-1
 8.117642617975000E9     5.020605600039025E-1   -6.743924351704601E-2    1.762671344041658E-3    4.921307688182662E-3    1.829605903581641E-3    5.029168485796279E-3    4.009941207582324E-1   -2.107340740912967E-1
 8.117643800450000E9     5.020790471195934E-1   -6.755558611681495E-2    1.774760268193292E-3    4.914616854053114E-3    1.829352748853064E-3    5.013098396692652E-3    4.008784996597828E-1   -2.108051424694240E-1
 8.117644982925000E9     5.021717788489848E-1   -6.774916187201223E-2    1.769062699821311E-3    4.914941463481239E-3    1.855163476932071E-3    5.020078769936734E-3    4.008071114495140E-1   -2.108385945292517E-1
 8.117646165400000E9     5.019058139781205E-1   -6.789381551132628E-2    1.761318930492049E-3    4.898132458531711E-3    1.870853621233175E-3    4.997634768157499E-3    4.007416654011200E-1   -2.109659038052603E-1
 8.117647347875000E9     5.019921739322528E-1   -6.796645553499338E-2    1.741888860159352E-3    4.931747436321115E-3    1.839948362556500E-3    5.075806271236129E-3    4.008157046922806E-1   -2.109316422334999E-1
 8.117648530350000E9     5.019066504198387E-1   -6.808663854102326E-2    1.769943675756881E-3    4.934026538934380E-3    1.876180367250458E-3    5.030321203476542E-3    4.007236555076882E-1   -2.110179668233974E-1
 8.117649712825000E9     5.018968705694143E-1   -6.845139870541192E-2    1.778984634387951E-3    4.955592620723990E-3    1.866915562013322E-3    5.031228294360645E-3    4.007280911520738E-1   -2.110601984288214E-1
 8.117650895300000E9     5.019520989354800E-1   -6.848298364894025E-2    1.802626065365432E-3    4.937923885776445E-3    1.862084300276791E-3    5.066591858855373E-3    4.006251290699822E-1   -2.111985010228038E-1
 8.117652077775000E9     5.019271481589428E-1   -6.850108608501386E-2    1.800965080137755E-3    4.979791343552476E-3    1.852740194352181E-3    5.069774471135467E-3    4.006534461325767E-1   -2.112976853450372E-1
 8.117653260250000E9     5.018818446918215E-1   -6.871490277810453E-2    1.794714342100471E-3    4.967516954448602E-3    1.888524293927070E-3    5.122794304694375E-3    4.005910614934890E-1   -2.113627109329210E-1
 8.117654442725000E9     5.018096113069782E-1   -6.880252521911479E-2    1.812539034339116E-3    4.977082693368291E-3    1.871004425033847E-3    5.103721268798838E-3    4.005071369681871E-1   -2.114470725798919E-1
 8.117655625200000E9     5.017120125350393E-1   -6.894439693947969E-2    1.803766942376667E-3    4.993472251132443E-3    1.876662745952226E-3    5.131743962561833E-3    4.005393727513767E-1   -2.115736089302250E-1
 8.117656807675000E9     5.016736090708949E-1   -6.913989449586311E-2    1.830225719424041E-3    5.016753009439883E-3    1.935109659657973E-3    5.091523668864323E-3    4.006363986992521E-1   -2.117084534655835E-1
 8.117657990150000E9     5.015863509409902E-1   -6.924592216468589E-2    1.818518370216851E-3    5.013185826618054E-3    1.915561354032628E-3    5.129387962484929E-3    4.003887716769491E-1   -2.116376122328610E-1
 8.117659172625000E9     5.016411161382162E-1   -6.938341105654466E-2    1.841989627263716E-3    5.059715077795216E-3    1.866777898244830E-3    5.099300610008737E-3    4.003654801985954E-1   -2.117705598042143E-1
 8.117660355100000E9     5.016344261934217E-1   -6.949368510634171E-2    1.831722861914645E-3    5.037270473311274E-3    1.903403121960092E-3    5.129070044402681E-3    4.002829860049389E-1   -2.117948054586130E-1
 8.117661537575000E9     5.015282468885365E-1   -6.966687912386869E-2    1.875180410026359E-3    5.032100180291841E-3    1.909245100039656E-3    5.159576652768882E-3    4.002918473166368E-1   -2.117310742487412E-1
 8.117662720050000E9     5.014588947037991E-1   -6.972766750479703E-2    1.867127928690532E-3    5.047450610506508E-3    1.887446432018193E-3    5.155920987794704E-3    4.002033664506665E-1   -2.119555977758248E-1
 8.117663902525000E9     5.014531022734925E-1   -6.997035630636211E-2    1.867206587284492E-3    5.064986905976098E-3    1.923096456049999E-3    5.232803940712387E-3    4.002773136417976E-1   -2.118757978530724E-1
 8.117665085000000E9     5.014917108879504E-1   -7.006740510544443E-2    1.886225952024184E-3    5.098381305091999E-3    1.923490961092314E-3    5.218671820375756E-3    4.001960418198663E-1   -2.119813484632719E-1
 8.117666267475000E9     5.014589086973678E-1   -7.022951367304800E-2    1.888709506759076E-3    5.061338267980491E-3    1.975006923204695E-3    5.219253849056804E-3    4.001371597317412E-1   -2.121827749621742E-1
 8.117667449950000E9     5.013490070392312E-1   -7.034745724654533E-2    1.879991836435546E-3    5.112463865691367E-3    1.932914132766710E-3    5.228635948940683E-3    4.000330399671803E-1   -2.122872496281484E-1
 8.117668632425000E9     5.014583041321367E-1   -7.056046171221460E-2    1.901733061627201E-3    5.125815956517169E-3    2.032548293962302E-3    5.195176075789469E-3    4.001262341214034E-1   -2.122005150421756E-1
 8.117669814900000E9     5.014560018431756E-1   -7.057595485831269E-2    1.914714241713892E-3    5.125234644975571E-3    1.958449685228360E-3    5.250971879288940E-3    4.000769455908884E-1   -2.123806559255482E-1
 8.117670997375000E9     5.012472577299584E-1   -7.080465060591754E-2    1.904720882844793E-3    5.145973771924051E-3    1.953577573590313E-3    5.290415217733911E-3    4.000053891624269E-1   -2.125184621554786E-1
 8.117672179850000E9     5.010687772399622E-1   -7.100932631720365E-2    1.943974231209387E-3    5.135154361133292E-3    1.993113128816682E-3    5.261742031145943E-3    3.999482846936238E-1   -2.125862021444237E-1
 8.117673362325000E9     5.012370037804583E-1   -7.104916956508579E-2    1.932837750058033E-3    5.165557869684386E-3    2.031643246386868E-3    5.279448516307995E-3    3.998819281435146E-1   -2.126670618056860E-1
 8.117674544800000E9     5.012277022824446E-1   -7.136349613298901E-2    1.947102713182822E-3    5.166355003030572E-3    2.039074228764484E-3    5.302789172788046E-3    3.998461762477694E-1   -2.128883943696297E-1
 8.117675727275000E9     5.011592446493454E-1   -7.138440165564706E-2    1.950552285258904E-3    5.198285849061193E-3    2.014521065838255E-3    5.321038951609788E-3    3.998833663728155E-1   -2.128909128324763E-1
 8.117676909750000E9     5.010224408146119E-1   -7.157995770318885E-2    1.934525392504523E-3    5.207449730987620E-3    2.048012675511692E-3    5.290669535586464E-3    3.998540472013045E-1   -2.127663985855713E-1
 8.117678092225000E9     5.009217882480445E-1   -7.162858167164864E-2    1.992039210461645E-3    5.201169952333753E-3    2.046886559932184E-3    5.305804649042121E-3    3.998775713607832E-1   -2.130408564810361E-1
 8.117679274700000E9     5.009873862638998E-1   -7.199015517195144E-2    1.960438242688727E-3    5.219401291884289E-3    1.999855413068378E-3    5.327498667404654E-3    3.998961316404214E-1   -2.129880545724659E-1
 8.117680457175000E9     5.009846512004128E-1   -7.201312124766918E-2    1.978426387349144E-3    5.241433536653193E-3    2.047758035094018E-3    5.375031165930400E-3    3.997894179947150E-1   -2.130571007209806E-1
 8.117681639650000E9     5.009497499467402E-1   -7.220328205908952E-2    1.995344119456265E-3    5.248232631114706E-3    2.077396888792279E-3    5.345304272605362E-3    3.995672976610086E-1   -2.131857351032573E-1
 8.117682822125000E9     5.008236517564184E-1   -7.235401088733329E-2    2.027338884863779E-3    5.275040463143022E-3    2.064264223829725E-3    5.360971974300030E-3    3.997056447817445E-1   -2.132697083286100E-1
 8.117684004600000E9     5.008417956732013E-1   -7.239665038497048E-2    2.000352707398493E-3    5.273332292999829E-3    2.077880351993456E-3    5.371741254657210E-3    3.996003186389405E-1   -2.132710509308396E-1
 8.117685187075000E9     5.008705843297522E-1   -7.257307370819231E-2    2.020361559085196E-3    5.277245284369639E-3    2.115147950845871E-3    5.410359802011431E-3    3.995247577116575E-1   -2.134952017813573E-1
 8.117686369550000E9     5.007921582621540E-1   -7.292889953765298E-2    2.023510157384696E-3    5.293802383549564E-3    2.096608770237986E-3    5.376304746122051E-3    3.993765580016443E-1   -2.134304428276028E-1
 8.117687552025000E9     5.009065548883391E-1   -7.290181781157637E-2    2.063049397572171E-3    5.312841326533139E-3    2.140157241423943E-3    5.461379960873002E-3    3.994856351615155E-1   -2.136438105129654E-1
 8.117688734500000E9     5.007102986887956E-1   -7.306614765753795E-2    2.050699048589678E-3    5.319726468697258E-3    2.058553819089363E-3    5.473268009351277E-3    3.994490303106024E-1   -2.137025415765786E-1
 8.117689916975000E9     5.006899150737318E-1   -7.319153996615320E-2    2.077195589060116E-3    5.342056322985648E-3    2.166344084436904E-3    5.451751429202945E-3    3.994468807247079E-1   -2.137266649971127E-1
 8.117691099450000E9     5.006330828691802E-1   -7.334562787280606E-2    2.059724285200439E-3    5.369090274751206E-3    2.081593750999371E-3    5.451864987853041E-3    3.991840973530984E-1   -2.138505767723955E-1
 8.117692281925000E9     5.005743263321482E-1   -7.358013522071422E-2    2.078999962506074E-3    5.382438214163902E-3    2.162978808876191E-3    5.464769024738417E-3    3.992989572369193E-1   -2.138803212959738E-1
 8.117693464400000E9     5.004807694161526E-1   -7.380354627395341E-2    2.085072904125875E-3    5.380461146293146E-3    2.212298877535380E-3    5.462945423735112E-3    3.993201846621235E-1   -2.139846638198569E-1
 8.117694646875000E9     5.004339909274210E-1   -7.379756430397873E-2    2.115474063221949E-3    5.397126274068350E-3    2.153110858491738E-3    5.519820376687973E-3    3.993125485591893E-1   -2.140591851866816E-1
 8.117695829350000E9     5.005713506881497E-1   -7.406382675905970E-2    2.107593863211730E-3    5.418512130656490E-3    2.125116147904821E-3    5.562134619694858E-3    3.993739884752632E-1   -2.139653404786201E-1
 8.117697011825000E9     5.003369080713684E-1   -7.419938179210261E-2    2.129477895185122E-3    5.439274111090626E-3    2.173638994650421E-3    5.550601864689623E-3    3.990523965367154E-1   -2.142566711916612E-1
 8.117698194300000E9     5.005175975101909E-1   -7.433894708537382E-2    2.121978813966476E-3    5.448470299025015E-3    2.186821999334692E-3    5.561700925195648E-3    3.992922962698303E-1   -2.143131660014121E-1
 8.117699376775000E9     5.002019645663904E-1   -7.458877406332989E-2    2.128561249362684E-3    5.457409758379323E-3    2.216539332408546E-3    5.577368445014100E-3    3.990954854552869E-1   -2.142613043766572E-1
 8.117700559250000E9     5.002370482939947E-1   -7.471664331447489E-2    2.152033150299818E-3    5.463871627028691E-3    2.244952525916789E-3    5.561075053974312E-3    3.990346760758639E-1   -2.143204210132699E-1
 8.117701741725000E9     5.002283313836954E-1   -7.489925651359480E-2    2.174241853843781E-3    5.473312331150133E-3    2.268508063302266E-3    5.587636715809637E-3    3.990682302602629E-1   -2.144932668145526E-1
 8.117702924200000E9     5.001492615394079E-1   -7.509580929691699E-2    2.168641327750744E-3    5.512190395312933E-3    2.242244593612019E-3    5.612226912126708E-3    3.990731253493229E-1   -2.145396426121718E-1
 8.117704106675000E9     5.000372229886477E-1   -7.531045903692174E-2    2.177875627248067E-3    5.504193308790011E-3    2.285608987804048E-3    5.660430570595847E-3    3.990134312327063E-1   -2.146599567905100E-1
 8.117705289150000E9     5.000876302177866E-1   -7.540926998967583E-2    2.189905173556587E-3    5.534154099943505E-3    2.262365140108702E-3    5.687319624819908E-3    3.988772485111319E-1   -2.147601890993738E-1
 8.117706471625000E9     4.999823232757537E-1   -7.557139309450495E-2    2.210942732275240E-3    5.557810814188237E-3    2.283259183800887E-3    5.700036850830074E-3    3.989272654202101E-1   -2.149129894960125E-1
 8.117707654100000E9     4.999437964057303E-1   -7.590552975149856E-2    2.204445618343394E-3    5.563801176613184E-3    2.291671748365612E-3    5.682298758976741E-3    3.988820037703253E-1   -2.149355936172490E-1
 8.117708836575000E9     4.998307775376159E-1   -7.593830863652969E-2    2.224876277523504E-3    5.569002634853553E-3    2.305165200815541E-3    5.696896813433850E-3    3.986339957711378E-1   -2.149132277880800E-1
 8.117710019050000E9     4.998131801108828E-1   -7.609004674697577E-2    2.264561778909634E-3    5.613426541704664E-3    2.276252795612913E-3    5.715023945626337E-3    3.988399582392562E-1   -2.151019101227475E-1
 8.117711201525000E9     4.996590360978993E-1   -7.623341542298782E-2    2.292876861240017E-3    5.627781657629626E-3    2.321502151512533E-3    5.806277065500670E-3    3.986393477416781E-1   -2.152233738177676E-1
 8.117712384000000E9     4.997388483447111E-1   -7.644654179129898E-2    2.228139001647508E-3    5.640224111074837E-3    2.354170080477110E-3    5.755011827117175E-3    3.985863905553504E-1   -2.151709350164158E-1
 8.117713566475000E9     4.996475078946386E-1   -7.665629440416595E-2    2.274009924500485E-3    5.645143267148440E-3    2.382590053561218E-3    5.809894218152136E-3    3.986538572952560E-1   -2.152706478763010E-1
 8.117714748950000E9     4.995813770770664E-1   -7.686199924603045E-2    2.297407873823946E-3    5.671526681836619E-3    2.354680103761372E-3    5.777102638939918E-3    3.985887714439706E-1   -2.154221406157323E-1
 8.117715931425000E9     4.994975324425580E-1   -7.692853141373675E-2    2.298296148113512E-3    5.699788652235777E-3    2.386885239122232E-3    5.839538809789789E-3    3.985578403058760E-1   -2.153754039580404E-1
 8.117717113900000E9     4.995008367971460E-1   -7.716960001128456E-2    2.323433837421453E-3    5.732039091386624E-3    2.431429805514734E-3    5.833781959201968E-3    3.984580734975986E-1   -2.153246108424390E-1
 8.117718296375000E9     4.994614493013622E-1   -7.734721849820496E-2    2.349907287644864E-3    5.729178677674913E-3    2.409969061932078E-3    5.829354718086047E-3    3.985527064815468E-1   -2.156967507194006E-1
 8.117719478850000E9     4.993892494164963E-1   -7.747899623750489E-2    2.335128890536856E-3    5.733876450151905E-3    2.419792181881328E-3    5.873534417049248E-3    3.983998048795901E-1   -2.156322396876688E-1
 8.117720661325000E9     4.992659389767795E-1   -7.776675127253541E-2    2.345177370959871E-3    5.755036806708024E-3    2.421933832605987E-3    5.887911039303508E-3    3.982341402067680E-1   -2.157287915742448E-1
 8.117721843800000E9     4.992201488467194E-1   -7.791878951696876E-2    2.366181967104814E-3    5.796334851651066E-3    2.517415214156075E-3    5.903798511629542E-3    3.984088453787555E-1   -2.159192055181689E-1
 8.117723026275000E9     4.991017669761394E-1   -7.806791391670131E-2    2.401043618426670E-3    5.811029289858495E-3    2.467746256786723E-3    6.009965057750375E-3    3.984054222568577E-1   -2.158838375521893E-1
 8.117724208750000E9     4.989030759204370E-1   -7.833368697725350E-2    2.393305884917238E-3    5.843771808616595E-3    2.483420053807369E-3    5.976523876172370E-3    3.984504150030105E-1   -2.160972775891990E-1
