#  HZ   S   RI   R     50.00 
! Rohde & Schwarz Vector Network Analyzer 
! Rohde-Schwarz,ZNB20-2Port,1311601062101988,3.16
! Created: UTC 3/20/2024, 11:39:13 AM
! freq[Hz]                re:S11                  im:S11                  re:S21                  im:S21                  re:S12                  im:S12                  re:S22                  im:S22
 8.117373769000000E9     5.033887371296292E-1   -4.681355404169685E-2    1.245753651948022E-3    4.135111603012933E-3    1.313232554146233E-3    4.256085637860008E-3    4.080508294564862E-1   -1.939444968267595E-1
 8.117375639725000E9     5.032500083224882E-1   -4.700097142846334E-2    1.245695622173269E-3    4.180994215291041E-3    1.322464512922849E-3    4.241847781150158E-3    4.079536488430404E-1   -1.940797997132297E-1
 8.117377510450000E9     5.032843180720032E-1   -4.727317837951834E-2    1.226831815251246E-3    4.195708474278166E-3    1.335931341460844E-3    4.231440163571921E-3    4.079565817994469E-1   -1.943383742775915E-1
 8.117379381175000E9     5.032743226720926E-1   -4.729031893918920E-2    1.261443694621269E-3    4.162221998571798E-3    1.313606582273439E-3    4.246492220627165E-3    4.078413101696414E-1   -1.942728678569893E-1
 8.117381251900000E9     5.032721228835900E-1   -4.755699961849705E-2    1.286903429223638E-3    4.191897384836894E-3    1.318069981806798E-3    4.268373269552653E-3    4.077411585740962E-1   -1.943976081678165E-1
 8.117383122625000E9     5.032407721634049E-1   -4.776512755060596E-2    1.268216603001097E-3    4.203738397948937E-3    1.325891205188555E-3    4.257293455514166E-3    4.077668909305298E-1   -1.945153767768851E-1
 8.117384993350000E9     5.032633222673356E-1   -4.791097459725292E-2    1.272321388879221E-3    4.179095837374073E-3    1.339807151361944E-3    4.255172488232642E-3    4.077656317105799E-1   -1.946680313511443E-1
 8.117386864075000E9     5.031494287339843E-1   -4.807911747492812E-2    1.276971494067539E-3    4.217738299274291E-3    1.353887217940899E-3    4.244407046158164E-3    4.076666850345770E-1   -1.947545843732072E-1
 8.117388734800000E9     5.031067719487242E-1   -4.826537192266157E-2    1.287137600616687E-3    4.218313330672415E-3    1.315649558573098E-3    4.267676115393170E-3    4.075277196164626E-1   -1.947584194662876E-1
 8.117390605525000E9     5.031417980439795E-1   -4.840784884542585E-2    1.284981003663499E-3    4.217148116946929E-3    1.352040547664177E-3    4.297473737961618E-3    4.075827290743505E-1   -1.951495677331525E-1
 8.117392476250000E9     5.030864085161768E-1   -4.853124926886199E-2    1.280566740660115E-3    4.236750611951095E-3    1.322750024394604E-3    4.293125974300657E-3    4.075007969538173E-1   -1.950433812257299E-1
 8.117394346975000E9     5.031437432781610E-1   -4.879713777229527E-2    1.280590343519039E-3    4.232489605217522E-3    1.389924038987740E-3    4.272133054799249E-3    4.073352845160105E-1   -1.953557994536318E-1
 8.117396217700000E9     5.029697903875985E-1   -4.889308501043859E-2    1.303860499643756E-3    4.257117352465600E-3    1.370468283630440E-3    4.278099232504659E-3    4.072890887811628E-1   -1.954937063555234E-1
 8.117398088425000E9     5.029632024111310E-1   -4.902298818507217E-2    1.305065159823827E-3    4.247955587222845E-3    1.363425597839822E-3    4.303941487396730E-3    4.074220321877225E-1   -1.954970263559470E-1
 8.117399959150000E9     5.030830610219862E-1   -4.921324931266809E-2    1.299560635778171E-3    4.238603048576406E-3    1.393220026830847E-3    4.277150018443135E-3    4.071885413346275E-1   -1.955713745030524E-1
 8.117401829875000E9     5.029692670552972E-1   -4.948964003162563E-2    1.301560485537326E-3    4.241364399024410E-3    1.384046153231470E-3    4.316953912973828E-3    4.071890655626727E-1   -1.957574072182161E-1
 8.117403700600000E9     5.028432577984699E-1   -4.955311389678904E-2    1.290069515345060E-3    4.255644897546245E-3    1.375023991188747E-3    4.275541384623371E-3    4.073315277227665E-1   -1.959005836068905E-1
 8.117405571325000E9     5.029280626805730E-1   -4.970731661843481E-2    1.300507188463935E-3    4.241535703524114E-3    1.388942869377513E-3    4.332833105138717E-3    4.072137588520693E-1   -1.960169485007036E-1
 8.117407442050000E9     5.029200274389292E-1   -4.989066026077304E-2    1.310338903437982E-3    4.288436689075375E-3    1.359435505604121E-3    4.297810166704284E-3    4.070929923349522E-1   -1.960160161329784E-1
 8.117409312775000E9     5.029321754266115E-1   -5.003888784970432E-2    1.336881175647706E-3    4.278057903859773E-3    1.396235619698196E-3    4.315619073809358E-3    4.069752832843517E-1   -1.962156739070657E-1
 8.117411183500000E9     5.028894732408578E-1   -5.022127861985779E-2    1.337063144946450E-3    4.259239577377576E-3    1.393751691504318E-3    4.356639640866243E-3    4.070191002234526E-1   -1.963504311057952E-1
 8.117413054225000E9     5.027915505894888E-1   -5.040889664772112E-2    1.331200328399359E-3    4.297931172471044E-3    1.398814940621974E-3    4.354812474894721E-3    4.068023697415166E-1   -1.964485589647929E-1
 8.117414924950000E9     5.028442205445229E-1   -5.044914956022461E-2    1.334191922166686E-3    4.305407911153574E-3    1.384964220413412E-3    4.342254448941271E-3    4.068103464256457E-1   -1.966339371177107E-1
 8.117416795675000E9     5.028473093025380E-1   -5.072905274289139E-2    1.343035096753392E-3    4.299376847411043E-3    1.386023454986105E-3    4.364412751627355E-3    4.069047660989860E-1   -1.966284853565959E-1
 8.117418666400000E9     5.028680508733345E-1   -5.089139092217036E-2    1.361898428980143E-3    4.296716556982239E-3    1.415957271140520E-3    4.371374991827686E-3    4.066743128296348E-1   -1.968021978289258E-1
 8.117420537125000E9     5.026981197802662E-1   -5.117781639801406E-2    1.331346614712050E-3    4.287003466626976E-3    1.411999639909488E-3    4.369978928993204E-3    4.067469459225440E-1   -1.969861613979008E-1
 8.117422407850000E9     5.027061864872564E-1   -5.116727167493187E-2    1.343321807134016E-3    4.307210155149611E-3    1.433595105038422E-3    4.369198253943448E-3    4.065874687699207E-1   -1.971336783302588E-1
 8.117424278575000E9     5.026894459651007E-1   -5.138442779385578E-2    1.364049521177969E-3    4.296948222126685E-3    1.438155059839293E-3    4.413833572270612E-3    4.065846496679515E-1   -1.972516225508658E-1
 8.117426149300000E9     5.026985318903473E-1   -5.165415858511355E-2    1.352909258860068E-3    4.305718035781586E-3    1.392014250986576E-3    4.402977846259189E-3    4.064451452473020E-1   -1.974058034762621E-1
 8.117428020025000E9     5.025860730362056E-1   -5.178279739597069E-2    1.365174769594526E-3    4.335861811395063E-3    1.438927554843935E-3    4.404979497076016E-3    4.064659108929226E-1   -1.973580751108953E-1
 8.117429890750000E9     5.025682170037860E-1   -5.199451620930499E-2    1.376614539643418E-3    4.334925546984890E-3    1.411880190964729E-3    4.413558972531408E-3    4.064914067467776E-1   -1.974818467831254E-1
 8.117431761475000E9     5.026185431014044E-1   -5.210533600253208E-2    1.370942666394447E-3    4.343173625127018E-3    1.441089054221215E-3    4.435660797657549E-3    4.063184055340576E-1   -1.976896287313232E-1
 8.117433632200000E9     5.026134687195489E-1   -5.227940652754630E-2    1.372608399636427E-3    4.329680968488161E-3    1.483596017061724E-3    4.433970761467506E-3    4.063367042252052E-1   -1.978377420026907E-1
 8.117435502925000E9     5.025240028818764E-1   -5.248022804817896E-2    1.376964816173556E-3    4.364907084592013E-3    1.468061755381467E-3    4.418178742135710E-3    4.062225347732534E-1   -1.978734851440092E-1
 8.117437373650000E9     5.024372091269698E-1   -5.262828639759253E-2    1.386333850760610E-3    4.344407350464540E-3    1.465025822960004E-3    4.407143446772393E-3    4.060849260368299E-1   -1.981883036133481E-1
 8.117439244375000E9     5.023373651247828E-1   -5.283853977115859E-2    1.392756382109064E-3    4.369397431540586E-3    1.458409135705265E-3    4.450429211479418E-3    4.062296890941866E-1   -1.983206894438088E-1
 8.117441115100000E9     5.024796405254575E-1   -5.295589434614128E-2    1.391666977422806E-3    4.389170212531704E-3    1.479339395230765E-3    4.464636106469027E-3    4.062086033351064E-1   -1.982559666728086E-1
 8.117442985825000E9     5.023429378267338E-1   -5.322788581222547E-2    1.380813524123753E-3    4.367880258031888E-3    1.506383383417878E-3    4.450115255721789E-3    4.060704658420892E-1   -1.984205652500359E-1
 8.117444856550000E9     5.025074641304023E-1   -5.332906034499776E-2    1.420787959065221E-3    4.390222657335113E-3    1.488219944384417E-3    4.426568301431125E-3    4.060650601079464E-1   -1.986291875266827E-1
 8.117446727275000E9     5.022961449199561E-1   -5.358947645299082E-2    1.415394317532874E-3    4.407115984997266E-3    1.479275701323795E-3    4.473270939805633E-3    4.058849676742030E-1   -1.986284005868671E-1
 8.117448598000000E9     5.022396784136477E-1   -5.374645051599259E-2    1.412902986967455E-3    4.391261838446049E-3    1.508515194603848E-3    4.479712338147360E-3    4.058556525492491E-1   -1.987534396823875E-1
 8.117450468725000E9     5.021809516955861E-1   -5.386600792907998E-2    1.421300823902950E-3    4.407458138314079E-3    1.497196953326241E-3    4.485448706887512E-3    4.058393118076418E-1   -1.988936189057010E-1
 8.117452339450000E9     5.022238106615486E-1   -5.396976418438747E-2    1.427412812188769E-3    4.428702246079502E-3    1.508801651344086E-3    4.472084755119770E-3    4.057700832327788E-1   -1.990559716168743E-1
 8.117454210175000E9     5.021913002782168E-1   -5.420320543959795E-2    1.426967403031864E-3    4.440898375690204E-3    1.517130258711845E-3    4.487094448391801E-3    4.058473705938075E-1   -1.991299618796995E-1
 8.117456080900000E9     5.021253647676397E-1   -5.444746043804819E-2    1.447494824827193E-3    4.420407170373505E-3    1.506916763029856E-3    4.503259285261554E-3    4.057361910645608E-1   -1.992911159013391E-1
 8.117457951625000E9     5.021693538181634E-1   -5.469745695840796E-2    1.445551602906800E-3    4.461496755153476E-3    1.508252946329746E-3    4.492279610131602E-3    4.057528576471751E-1   -1.994372876952656E-1
 8.117459822350000E9     5.021416311279894E-1   -5.469929868784116E-2    1.451617421216905E-3    4.453756258809219E-3    1.504187273299649E-3    4.516016999989621E-3    4.056817917993118E-1   -1.993681070970502E-1
 8.117461693075000E9     5.020519259135994E-1   -5.499232245883825E-2    1.454658530687791E-3    4.464059215125443E-3    1.521289858725816E-3    4.527325839228438E-3    4.057066430040406E-1   -1.995498835290538E-1
 8.117463563800000E9     5.020448012818057E-1   -5.516259063869131E-2    1.480707837136860E-3    4.482958365691530E-3    1.529215964446293E-3    4.534262685481392E-3    4.054390277585927E-1   -1.998344573531601E-1
 8.117465434525000E9     5.019429649036349E-1   -5.533595412411188E-2    1.453299800589786E-3    4.471099913569661E-3    1.526823642055473E-3    4.558732502303656E-3    4.054263230905240E-1   -1.998647952551829E-1
 8.117467305250000E9     5.019529990793086E-1   -5.540203547377626E-2    1.475003354611986E-3    4.468934754939382E-3    1.550283500955190E-3    4.539565997491398E-3    4.053862148121965E-1   -1.999629985580722E-1
 8.117469175975000E9     5.019238218705382E-1   -5.570303642088375E-2    1.493318751071902E-3    4.493399324940907E-3    1.554919629214462E-3    4.550878194356530E-3    4.052974076751332E-1   -2.000715685394563E-1
 8.117471046700000E9     5.019742907061058E-1   -5.590048669432175E-2    1.492581938614861E-3    4.465710855333568E-3    1.574607956844961E-3    4.570315213838941E-3    4.052701548592467E-1   -2.001839264868160E-1
 8.117472917425000E9     5.018749161899829E-1   -5.599191850967431E-2    1.461702668539278E-3    4.511594055470410E-3    1.548930468611803E-3    4.556459783371371E-3    4.050826921402782E-1   -2.004203646981006E-1
 8.117474788150000E9     5.017986100514445E-1   -5.612735275083238E-2    1.500830810737341E-3    4.508141860090656E-3    1.597620599115707E-3    4.586546444536358E-3    4.051299652011873E-1   -2.004282953481466E-1
 8.117476658875000E9     5.017966225821567E-1   -5.637839166437043E-2    1.505223425072653E-3    4.530252771088071E-3    1.570386732835531E-3    4.600424949568933E-3    4.050283026526462E-1   -2.005971697342755E-1
 8.117478529600000E9     5.018462476344340E-1   -5.657679177597600E-2    1.503974022269252E-3    4.522343793540514E-3    1.610616367178797E-3    4.574210391998468E-3    4.050541275846666E-1   -2.007060743957085E-1
 8.117480400325000E9     5.017866018517424E-1   -5.670946698939694E-2    1.526468359554622E-3    4.549598770364373E-3    1.617932782096329E-3    4.626765376119706E-3    4.049745853093937E-1   -2.007766239271346E-1
 8.117482271050000E9     5.016731735096307E-1   -5.685892543784267E-2    1.515313997492284E-3    4.535872862748676E-3    1.624836233673899E-3    4.603767729965920E-3    4.049737870001926E-1   -2.009541613342601E-1
 8.117484141775000E9     5.016826784233124E-1   -5.702885241634689E-2    1.531275760332871E-3    4.530992307306793E-3    1.618274193037026E-3    4.612300632974447E-3    4.049229136719315E-1   -2.011602468560163E-1
 8.117486012500000E9     5.015969230852924E-1   -5.716104139264496E-2    1.527270765464765E-3    4.582908769217929E-3    1.633876314133610E-3    4.636152649430567E-3    4.047397627895093E-1   -2.012670497877464E-1
 8.117487883225000E9     5.015618489612801E-1   -5.753028771491331E-2    1.537791253713037E-3    4.571008691486557E-3    1.620994281538465E-3    4.653140342842422E-3    4.047510689421761E-1   -2.012320776725603E-1
 8.117489753950000E9     5.015612359107268E-1   -5.766403190215324E-2    1.540522600288168E-3    4.572878546034611E-3    1.642027819530026E-3    4.639756704033545E-3    4.047818604812138E-1   -2.013496604547561E-1
 8.117491624675000E9     5.014278496873821E-1   -5.786342368982642E-2    1.542312373448017E-3    4.586290493479857E-3    1.633607126124234E-3    4.669848564332216E-3    4.046722418561097E-1   -2.014689019022381E-1
 8.117493495400000E9     5.014800564240151E-1   -5.799346126074890E-2    1.565217024468711E-3    4.592484775003002E-3    1.646380884783897E-3    4.678312078805600E-3    4.045909404837231E-1   -2.017426796411847E-1
 8.117495366125000E9     5.014612136223192E-1   -5.824204961132253E-2    1.550125285161086E-3    4.619824134288680E-3    1.655324222272094E-3    4.676017564677577E-3    4.046051595450770E-1   -2.017937988558273E-1
 8.117497236850000E9     5.013105357482524E-1   -5.850890061038310E-2    1.587193858856032E-3    4.622556998992501E-3    1.702044940895252E-3    4.706397261173637E-3    4.044491056576739E-1   -2.019295758834374E-1
 8.117499107575000E9     5.014456953810963E-1   -5.847010021949759E-2    1.622935425954886E-3    4.638402781301031E-3    1.655126763700615E-3    4.719791198258898E-3    4.046340794602285E-1   -2.020777021021987E-1
 8.117500978300000E9     5.012418377483873E-1   -5.874527709965382E-2    1.593920049677496E-3    4.626668019520811E-3    1.641156677500087E-3    4.704908558570184E-3    4.044122378110008E-1   -2.021635641098491E-1
 8.117502849025000E9     5.012028292043873E-1   -5.895963011214005E-2    1.608286758091182E-3    4.620052601768060E-3    1.673460441895529E-3    4.728562777618728E-3    4.043197545105857E-1   -2.024333696850918E-1
 8.117504719750000E9     5.011549863574374E-1   -5.915475379070960E-2    1.625238994018076E-3    4.667378927802595E-3    1.659324441436266E-3    4.774869217262155E-3    4.043477998337979E-1   -2.024757181904695E-1
 8.117506590475000E9     5.012638963691020E-1   -5.946707186676704E-2    1.602193639085177E-3    4.662413063379765E-3    1.680674529597095E-3    4.702820201315374E-3    4.040972573583666E-1   -2.025307657301925E-1
 8.117508461200000E9     5.011869446396395E-1   -5.956789614855389E-2    1.628280481903214E-3    4.673466690268416E-3    1.702489806215120E-3    4.729602280703514E-3    4.041570843838027E-1   -2.025678642831755E-1
 8.117510331925000E9     5.011931174872768E-1   -5.972569284976663E-2    1.628744193250413E-3    4.680560205124987E-3    1.722474890866926E-3    4.750133101035793E-3    4.040738092838911E-1   -2.028599487117040E-1
 8.117512202650000E9     5.010416253697445E-1   -6.001703910949995E-2    1.644910394357770E-3    4.711621791894566E-3    1.718943980858532E-3    4.758330336285443E-3    4.041121587344005E-1   -2.028708335855448E-1
 8.117514073375000E9     5.010025474405120E-1   -6.008153040101644E-2    1.674206550101730E-3    4.727338522994568E-3    1.728593792154997E-3    4.765097938519765E-3    4.039478932998149E-1   -2.029806617399193E-1
 8.117515944100000E9     5.009850903488707E-1   -6.030589977361462E-2    1.666873409264038E-3    4.738958431682343E-3    1.723211411651948E-3    4.785820323702100E-3    4.039145483195802E-1   -2.031292151801446E-1
 8.117517814825000E9     5.008917288269294E-1   -6.047857615921064E-2    1.680552282448345E-3    4.718445384666625E-3    1.778153691358887E-3    4.792362831553786E-3    4.039037215276500E-1   -2.033733579648726E-1
 8.117519685550000E9     5.008162370948269E-1   -6.074789026944685E-2    1.673060929859653E-3    4.727567668992909E-3    1.774469672460602E-3    4.834604051294110E-3    4.037918639566713E-1   -2.034264503486949E-1
 8.117521556275000E9     5.008211734919972E-1   -6.091398378105521E-2    1.656697621277465E-3    4.759756805531977E-3    1.778181255882437E-3    4.785122378465364E-3    4.037897834916717E-1   -2.034329461572082E-1
 8.117523427000000E9     5.007584329850830E-1   -6.109128018353287E-2    1.713674937873888E-3    4.762841333618617E-3    1.781190312898479E-3    4.827910634856640E-3    4.037457129626631E-1   -2.037197794768060E-1
 8.117525297725000E9     5.008236534423028E-1   -6.134600813539537E-2    1.688827869252192E-3    4.782577769835386E-3    1.779502683974279E-3    4.849686036754357E-3    4.037234129335802E-1   -2.037569509640657E-1
 8.117527168450000E9     5.007999054494822E-1   -6.155308989746426E-2    1.722954176295290E-3    4.795284479199914E-3    1.802260338912600E-3    4.863144932098342E-3    4.035543211834419E-1   -2.039148081953239E-1
 8.117529039175000E9     5.006711292496018E-1   -6.168644108906324E-2    1.727391534479067E-3    4.774271885306661E-3    1.819352928886468E-3    4.881602368095194E-3    4.034758580011040E-1   -2.039934667316706E-1
 8.117530909900000E9     5.004507004416502E-1   -6.207998391905826E-2    1.728596138102170E-3    4.832405244718310E-3    1.829433653166822E-3    4.889692846560345E-3    4.034697092732035E-1   -2.042458491364902E-1
 8.117532780625000E9     5.006470743759819E-1   -6.214250629384850E-2    1.743396052161334E-3    4.842225883796561E-3    1.822208215150282E-3    4.924419309555695E-3    4.034197060776910E-1   -2.042337391860633E-1
 8.117534651350000E9     5.005931358285005E-1   -6.231089378725290E-2    1.761485517496589E-3    4.849723715076324E-3    1.823415235593386E-3    4.919766958987636E-3    4.033839096080984E-1   -2.044001634531916E-1
 8.117536522075000E9     5.004275175634770E-1   -6.255041484116680E-2    1.750106575673522E-3    4.850160438515599E-3    1.855217892798927E-3    4.953207639062113E-3    4.034034461743685E-1   -2.045928323431571E-1
 8.117538392800000E9     5.004194762397790E-1   -6.275064273025138E-2    1.758131533537175E-3    4.891643532086008E-3    1.831982418818628E-3    4.926527234919567E-3    4.033407067885964E-1   -2.045885195814111E-1
 8.117540263525000E9     5.003718188186966E-1   -6.288255592105116E-2    1.778477879807988E-3    4.880618050300023E-3    1.869451906196788E-3    4.955596961019920E-3    4.030961320613101E-1   -2.046753361761906E-1
 8.117542134250000E9     5.002990905362913E-1   -6.318972416965990E-2    1.790522417710564E-3    4.895318409004616E-3    1.872906856466125E-3    4.929180846205901E-3    4.031794260385828E-1   -2.048630829857329E-1
