#  HZ   S   RI   R     50.00 
! Rohde & Schwarz Vector Network Analyzer 
! Rohde-Schwarz,ZNB20-2Port,1311601062101988,3.16
! Created: UTC 3/20/2024, 11:39:15 AM
! freq[Hz]                re:S11                  im:S11                  re:S21                  im:S21                  re:S12                  im:S12                  re:S22                  im:S22
 8.117370415000000E9     5.033253420546248E-1   -4.661817748089935E-2    1.249440838036614E-3    4.193437206051330E-3    1.277613972504408E-3    4.241762814708647E-3    4.081413248171571E-1   -1.936875836205112E-1
 8.117372296850000E9     5.033855934039495E-1   -4.661742324047628E-2    1.259953556765708E-3    4.200741570244975E-3    1.292037744781857E-3    4.264909434814522E-3    4.080096794493103E-1   -1.938885832747948E-1
 8.117374178700000E9     5.033588096447920E-1   -4.695911118454822E-2    1.244769974168936E-3    4.209703162140807E-3    1.312811070047648E-3    4.275210269603947E-3    4.077879527075531E-1   -1.939942112667127E-1
 8.117376060550000E9     5.034189910549447E-1   -4.706354763465600E-2    1.268928487713356E-3    4.179988026960945E-3    1.314733798462687E-3    4.275278066396659E-3    4.077798584377466E-1   -1.939751816839757E-1
 8.117377942400000E9     5.033426199214242E-1   -4.729169248313211E-2    1.248509804345937E-3    4.203940285890085E-3    1.330288533162620E-3    4.219059922257447E-3    4.080182965008564E-1   -1.942076169071416E-1
 8.117379824250000E9     5.032563985022843E-1   -4.744055839830490E-2    1.245945537767875E-3    4.208754544730321E-3    1.310866166779234E-3    4.262159058744283E-3    4.078901472045625E-1   -1.941624174800811E-1
 8.117381706100000E9     5.032684362623390E-1   -4.759045786635749E-2    1.286046392186368E-3    4.199917411876708E-3    1.344200926896710E-3    4.262326850887435E-3    4.078043383269414E-1   -1.945815850619699E-1
 8.117383587950000E9     5.031614984409178E-1   -4.778075369875111E-2    1.268440981140227E-3    4.214978543193088E-3    1.301092618743273E-3    4.223958389533117E-3    4.076700040815320E-1   -1.945436413493948E-1
 8.117385469800000E9     5.031853560510696E-1   -4.786704419292694E-2    1.261889565152966E-3    4.204505338734377E-3    1.318724061509156E-3    4.264688152591957E-3    4.076725401598127E-1   -1.945973479995561E-1
 8.117387351650000E9     5.032367118762656E-1   -4.806238191889285E-2    1.269046904074655E-3    4.212432742866269E-3    1.336928540342367E-3    4.268235751195255E-3    4.075660916533430E-1   -1.948201667386982E-1
 8.117389233500000E9     5.030524929796487E-1   -4.824482030018668E-2    1.251869530864852E-3    4.203099579345133E-3    1.301931979549638E-3    4.286097894383938E-3    4.076528123904279E-1   -1.949974889392546E-1
 8.117391115350000E9     5.030243442401738E-1   -4.852413260783203E-2    1.295759712043968E-3    4.216964887282840E-3    1.342361404722270E-3    4.300967339021490E-3    4.074568183634554E-1   -1.951223395121115E-1
 8.117392997200000E9     5.030700699235832E-1   -4.869441779263043E-2    1.294350599219831E-3    4.226196098750200E-3    1.349126196855857E-3    4.292106447498806E-3    4.075877848879614E-1   -1.950561952559719E-1
 8.117394879050000E9     5.030290759198794E-1   -4.877325796156604E-2    1.312183430658062E-3    4.236078160060577E-3    1.349974080793359E-3    4.301640743946926E-3    4.074918822609788E-1   -1.953290421426320E-1
 8.117396760900000E9     5.030575933402860E-1   -4.898132008191305E-2    1.294239360063659E-3    4.256406669850450E-3    1.363837083784158E-3    4.285454227398668E-3    4.074215202505589E-1   -1.953320264037230E-1
 8.117398642750000E9     5.030618524831292E-1   -4.916770737158153E-2    1.288698982598030E-3    4.248786272752839E-3    1.330313883728475E-3    4.306245261947105E-3    4.072841512176816E-1   -1.954820391935601E-1
 8.117400524600000E9     5.030131694368173E-1   -4.926366804162495E-2    1.332394703489211E-3    4.246558157174906E-3    1.373306697199583E-3    4.311857564627829E-3    4.073532651576497E-1   -1.955427812673305E-1
 8.117402406450000E9     5.029357291776920E-1   -4.946273001893716E-2    1.319491590476540E-3    4.255201137356691E-3    1.366894203323826E-3    4.365346623093454E-3    4.072468059954930E-1   -1.957858755024857E-1
 8.117404288300000E9     5.029773443726558E-1   -4.959969142840544E-2    1.339595812489041E-3    4.250097934118345E-3    1.380395606229576E-3    4.306967947521718E-3    4.071681879468925E-1   -1.957692487700233E-1
 8.117406170150000E9     5.030535415999899E-1   -4.988239371394006E-2    1.320072865625479E-3    4.268806292492136E-3    1.360860937150947E-3    4.313944810304554E-3    4.070479818960077E-1   -1.959271567061990E-1
 8.117408052000000E9     5.028904543186048E-1   -4.998888792412849E-2    1.299127560959302E-3    4.245227245945535E-3    1.398729274871045E-3    4.331541558627995E-3    4.069058088067130E-1   -1.962114412029653E-1
 8.117409933850000E9     5.028782581163361E-1   -5.018585155929044E-2    1.317701835245410E-3    4.303954577786567E-3    1.364151219707412E-3    4.340513244883789E-3    4.071793265922475E-1   -1.963079365986971E-1
 8.117411815700000E9     5.028883085622661E-1   -5.026777874725653E-2    1.309611317766345E-3    4.302375392452362E-3    1.419665915281656E-3    4.336544091926849E-3    4.069595294349720E-1   -1.964815361777083E-1
 8.117413697550000E9     5.028302725940841E-1   -5.067707420226110E-2    1.330921590471001E-3    4.296950432975039E-3    1.415681993987201E-3    4.311784231950229E-3    4.068641601630015E-1   -1.965881460245329E-1
 8.117415579400000E9     5.027741061908979E-1   -5.062024018052130E-2    1.333990698005813E-3    4.288138992637440E-3    1.402163523440636E-3    4.351376583182237E-3    4.069438212038646E-1   -1.965514077933235E-1
 8.117417461250000E9     5.028737503750175E-1   -5.090968656358756E-2    1.328802196611253E-3    4.289514811090581E-3    1.419826431462006E-3    4.346268761385196E-3    4.067989618390504E-1   -1.967033648627255E-1
 8.117419343100000E9     5.027299160955891E-1   -5.102765040727492E-2    1.345235837547941E-3    4.299905209004294E-3    1.438861328034585E-3    4.359695973101088E-3    4.068003487489226E-1   -1.968110862442565E-1
 8.117421224950000E9     5.026842176385971E-1   -5.113398578536409E-2    1.334429753702733E-3    4.312576957612664E-3    1.442946592826892E-3    4.387908963912367E-3    4.066107337533829E-1   -1.969861435815190E-1
 8.117423106800000E9     5.026751679149821E-1   -5.128943389220155E-2    1.353894353663525E-3    4.303501219171071E-3    1.416937489590522E-3    4.399825172819286E-3    4.065553234483950E-1   -1.971797264822590E-1
 8.117424988650000E9     5.025628448372543E-1   -5.155417409808612E-2    1.350171039557457E-3    4.318335791308043E-3    1.387630770599457E-3    4.382146370974000E-3    4.065264065101177E-1   -1.972264080961546E-1
 8.117426870500000E9     5.027114381311638E-1   -5.164616899800524E-2    1.379056802414827E-3    4.283952622392500E-3    1.417275818627174E-3    4.422493716805689E-3    4.064880340970898E-1   -1.972748882502894E-1
 8.117428752350000E9     5.027450519875915E-1   -5.195997554773520E-2    1.363803675475279E-3    4.329789328676554E-3    1.435973941014697E-3    4.401439207952281E-3    4.064846199307832E-1   -1.974655011574027E-1
 8.117430634200000E9     5.025707461043460E-1   -5.194070645088218E-2    1.387307446189583E-3    4.317448738700990E-3    1.463572591804453E-3    4.430182448423389E-3    4.064839095612807E-1   -1.975419596535393E-1
 8.117432516050000E9     5.026214645477641E-1   -5.210729067995603E-2    1.364644561603549E-3    4.358519580463488E-3    1.439438360706997E-3    4.412646616488086E-3    4.064439158471445E-1   -1.976790357998775E-1
 8.117434397900000E9     5.025557838095246E-1   -5.235840677476888E-2    1.376365081864704E-3    4.369090551947442E-3    1.440329377354429E-3    4.447832881103439E-3    4.063290447228480E-1   -1.979715841807961E-1
 8.117436279750000E9     5.024960192351966E-1   -5.249914003946135E-2    1.390527490980117E-3    4.367718602874478E-3    1.454414968181278E-3    4.423488078370746E-3    4.062421073245932E-1   -1.979222913148287E-1
 8.117438161600000E9     5.023275770054892E-1   -5.278183399353571E-2    1.359237031961711E-3    4.362351977912788E-3    1.433756372521269E-3    4.429515002021592E-3    4.062842668446555E-1   -1.981810893603667E-1
 8.117440043450000E9     5.024608352872696E-1   -5.282529982595963E-2    1.387198676125576E-3    4.362661074320013E-3    1.494742332566484E-3    4.473051775597038E-3    4.061389886135776E-1   -1.984029324656138E-1
 8.117441925300000E9     5.024298493925744E-1   -5.308574046824698E-2    1.399045993437647E-3    4.395206633207794E-3    1.495022316634379E-3    4.441375864885708E-3    4.060462245913781E-1   -1.983632496631651E-1
 8.117443807150000E9     5.022901096371449E-1   -5.326946014928143E-2    1.394932700582731E-3    4.376619936416240E-3    1.480200569769513E-3    4.466947005741830E-3    4.059652763386793E-1   -1.984549541212108E-1
 8.117445689000000E9     5.023155514559197E-1   -5.339754035342618E-2    1.409902547280218E-3    4.400971085500162E-3    1.485695246430141E-3    4.479329131681894E-3    4.060012565522751E-1   -1.986355750450592E-1
 8.117447570850000E9     5.023478559829129E-1   -5.357936589940783E-2    1.435133177326895E-3    4.394766053420786E-3    1.464035048186456E-3    4.458449815720756E-3    4.058346535379683E-1   -1.986623932588658E-1
 8.117449452700000E9     5.023344555847288E-1   -5.384858572687258E-2    1.448195314964945E-3    4.380685783498996E-3    1.502488274317042E-3    4.479963255543834E-3    4.059130920537874E-1   -1.987954748011248E-1
 8.117451334550000E9     5.022504926280186E-1   -5.399413595199577E-2    1.412674991770323E-3    4.439767154544558E-3    1.509867375993710E-3    4.480053101116505E-3    4.057538108238044E-1   -1.990724005912290E-1
 8.117453216400000E9     5.023713716183514E-1   -5.413786582316225E-2    1.453627076450013E-3    4.438649781469824E-3    1.535091046053328E-3    4.473010268476467E-3    4.057326104007282E-1   -1.991003471757559E-1
 8.117455098250000E9     5.021463291717718E-1   -5.436293842157609E-2    1.451430155982701E-3    4.419706518676987E-3    1.515524311950384E-3    4.481136079493109E-3    4.057280135089096E-1   -1.991521797469681E-1
 8.117456980100000E9     5.022295867898811E-1   -5.447290653036672E-2    1.447844457709407E-3    4.434582085694637E-3    1.539702034449727E-3    4.454573421306573E-3    4.056587704838384E-1   -1.993934482266314E-1
 8.117458861950000E9     5.021910749333562E-1   -5.468611018983809E-2    1.447169752579083E-3    4.439183960682862E-3    1.532119322406831E-3    4.487896145342794E-3    4.057024626450053E-1   -1.993907328909074E-1
 8.117460743800000E9     5.020338594914473E-1   -5.487315032476283E-2    1.473032403977638E-3    4.453968484326095E-3    1.509700314563670E-3    4.491949804887086E-3    4.056554173600991E-1   -1.995917480171113E-1
 8.117462625650000E9     5.020969078936829E-1   -5.495791855015784E-2    1.465420446270188E-3    4.454901095508535E-3    1.548746126576894E-3    4.538053015249863E-3    4.054760639618797E-1   -1.997523097463334E-1
 8.117464507500000E9     5.020249150184820E-1   -5.515803049598350E-2    1.454563185906521E-3    4.467171925005262E-3    1.522135549029419E-3    4.567142573563295E-3    4.052643031312210E-1   -1.998231728556621E-1
 8.117466389350000E9     5.019809727745277E-1   -5.543699957160016E-2    1.471219660535493E-3    4.476658859437541E-3    1.555433824678318E-3    4.546826158510550E-3    4.052991649418241E-1   -1.999649075988532E-1
 8.117468271200000E9     5.019431161432798E-1   -5.559759134707760E-2    1.498692922612998E-3    4.495137745409612E-3    1.598838315760731E-3    4.551804664118308E-3    4.055036556316995E-1   -2.000114787307964E-1
 8.117470153050000E9     5.019016896099381E-1   -5.571159772422624E-2    1.479559673186192E-3    4.487782770449758E-3    1.540882893136824E-3    4.573525220461058E-3    4.050904885090652E-1   -2.001920618629479E-1
 8.117472034900000E9     5.017983897129327E-1   -5.590770550150672E-2    1.508850169026929E-3    4.487804755245947E-3    1.571003578945966E-3    4.541085511119849E-3    4.050393941147103E-1   -2.002997932970310E-1
 8.117473916750000E9     5.018734586676526E-1   -5.607298354018646E-2    1.494213715006861E-3    4.508817702063084E-3    1.609550218984567E-3    4.574335982209491E-3    4.052181390726204E-1   -2.004904923193817E-1
 8.117475798600000E9     5.019782488460212E-1   -5.637809077821695E-2    1.494360015215729E-3    4.537832794630488E-3    1.599919522178955E-3    4.598020737681516E-3    4.050149928765790E-1   -2.003940486483891E-1
 8.117477680450000E9     5.017678609012689E-1   -5.635883256724160E-2    1.535983258082028E-3    4.537342373343625E-3    1.595481555385956E-3    4.636822428124761E-3    4.050894224426440E-1   -2.007208522888753E-1
 8.117479562300000E9     5.017689727751106E-1   -5.673247219481101E-2    1.518788972998799E-3    4.517670970294986E-3    1.601691148624492E-3    4.599265513598738E-3    4.050040483612635E-1   -2.007869870849732E-1
 8.117481444150000E9     5.016349724655504E-1   -5.688228301753756E-2    1.534310458969590E-3    4.551423910111816E-3    1.599455496780852E-3    4.614050543147972E-3    4.048650510400837E-1   -2.009075372159143E-1
 8.117483326000000E9     5.017386178244618E-1   -5.699769033895218E-2    1.542129123845213E-3    4.584377196720395E-3    1.602450441165952E-3    4.641836634439828E-3    4.050218698288758E-1   -2.010595347874632E-1
 8.117485207850000E9     5.016298866168279E-1   -5.722085836522645E-2    1.536808993529211E-3    4.551328786574617E-3    1.615846946314157E-3    4.620591173915578E-3    4.047358423191002E-1   -2.011575222793133E-1
 8.117487089700000E9     5.015972826597119E-1   -5.739582036349259E-2    1.544949212954309E-3    4.572246922465807E-3    1.625883136027019E-3    4.629026450048904E-3    4.047778642004293E-1   -2.013114496094794E-1
 8.117488971550000E9     5.015474385653503E-1   -5.763293396219565E-2    1.559662178921244E-3    4.560974407042470E-3    1.620703819967332E-3    4.667472479004259E-3    4.046366372803070E-1   -2.013581983648477E-1
 8.117490853400000E9     5.016296448814214E-1   -5.788986892077252E-2    1.569112927113927E-3    4.577792436212431E-3    1.651074317559618E-3    4.686621925360412E-3    4.046433656687083E-1   -2.014229391940636E-1
 8.117492735250000E9     5.014944773791112E-1   -5.792250384898430E-2    1.570479174492011E-3    4.562674901483983E-3    1.646604524596209E-3    4.645542856163301E-3    4.045396120869568E-1   -2.015089959787928E-1
 8.117494617100000E9     5.014272436479904E-1   -5.812767196103888E-2    1.560855990634076E-3    4.610141580054101E-3    1.639958698495599E-3    4.640745857626987E-3    4.045100487270527E-1   -2.018271807082491E-1
 8.117496498950000E9     5.014428876916358E-1   -5.828136294484840E-2    1.601854618733725E-3    4.622239194695764E-3    1.657383037102330E-3    4.705824906958265E-3    4.045725607266707E-1   -2.018432013295760E-1
 8.117498380800000E9     5.013726821414622E-1   -5.860977816673277E-2    1.596693944048102E-3    4.640513117720228E-3    1.702213893531046E-3    4.671331826188118E-3    4.044081244183576E-1   -2.021441700418467E-1
 8.117500262650000E9     5.013131376842991E-1   -5.876418681534858E-2    1.591757879015410E-3    4.644951247111646E-3    1.683025154773368E-3    4.718771239123327E-3    4.043008425449183E-1   -2.020775402433039E-1
 8.117502144500000E9     5.013528059121152E-1   -5.886453325927236E-2    1.597450801003138E-3    4.656351586793344E-3    1.664114879273031E-3    4.716291358002119E-3    4.043383899107045E-1   -2.023576434928490E-1
 8.117504026350000E9     5.013250262540049E-1   -5.905192991092260E-2    1.593759411352376E-3    4.672603145301054E-3    1.691488750207499E-3    4.733058887491174E-3    4.042411026482765E-1   -2.023645552495883E-1
 8.117505908200000E9     5.012498925116571E-1   -5.931873806722043E-2    1.612504419359979E-3    4.669895913886644E-3    1.716810644603661E-3    4.743849879376937E-3    4.041052020316740E-1   -2.023772801652713E-1
 8.117507790050000E9     5.010910268104323E-1   -5.948506065671182E-2    1.606889948768449E-3    4.670509182822942E-3    1.676061671258159E-3    4.733865026012166E-3    4.041424283581628E-1   -2.026481551294960E-1
 8.117509671900000E9     5.010260378368714E-1   -5.966551618056104E-2    1.658227567453149E-3    4.686335335730489E-3    1.739405032431003E-3    4.783515675668462E-3    4.041097992174707E-1   -2.027056084107362E-1
 8.117511553750000E9     5.010880810173555E-1   -5.988709160808867E-2    1.628786785601264E-3    4.716531591777962E-3    1.692451670573389E-3    4.767863274087713E-3    4.041100688304620E-1   -2.028482712496165E-1
 8.117513435600000E9     5.009536286909374E-1   -6.013935425514170E-2    1.667473125036298E-3    4.707178298071114E-3    1.747506694397629E-3    4.773184140254956E-3    4.041901303386595E-1   -2.029423010802724E-1
 8.117515317450000E9     5.010508003092663E-1   -6.042823136427182E-2    1.641637214794675E-3    4.727699694592022E-3    1.739277252439760E-3    4.804663045155334E-3    4.039938234183605E-1   -2.031004713837916E-1
 8.117517199300000E9     5.009923386495848E-1   -6.044150575844186E-2    1.694308200816604E-3    4.720939453245069E-3    1.770625691613945E-3    4.804947824059436E-3    4.039354595932934E-1   -2.032640727743897E-1
 8.117519081150000E9     5.008386363819120E-1   -6.062157549498150E-2    1.683316988086783E-3    4.734183506429017E-3    1.761619103988778E-3    4.806455719349181E-3    4.039379116963792E-1   -2.034086878822924E-1
 8.117520963000000E9     5.008094757204000E-1   -6.094390080826086E-2    1.665105476532409E-3    4.742740690031783E-3    1.765678073436165E-3    4.811701475977011E-3    4.038209445713931E-1   -2.035569587291697E-1
 8.117522844850000E9     5.007861368616492E-1   -6.103722744900932E-2    1.710296046024767E-3    4.768872552018233E-3    1.769636140505788E-3    4.804230440774314E-3    4.037036889384025E-1   -2.036294266091948E-1
 8.117524726700000E9     5.007310099723763E-1   -6.131179202183717E-2    1.691672803078025E-3    4.775694792655817E-3    1.770436855832141E-3    4.854843370876755E-3    4.035104108038913E-1   -2.036475629498758E-1
 8.117526608550000E9     5.008069033750743E-1   -6.149740387247193E-2    1.729014662112044E-3    4.797818575842936E-3    1.820169479644104E-3    4.845295115809910E-3    4.035773836729838E-1   -2.038572409675065E-1
 8.117528490400000E9     5.007297406370158E-1   -6.158924195426531E-2    1.745168508166771E-3    4.782437173671404E-3    1.842887740486106E-3    4.873034337222187E-3    4.035996631535702E-1   -2.038633835485559E-1
 8.117530372250000E9     5.005559527129043E-1   -6.188944073226015E-2    1.729577786262547E-3    4.801989102689724E-3    1.816277453568121E-3    4.893268183146201E-3    4.034460717894208E-1   -2.040095532434330E-1
 8.117532254100000E9     5.004986508845426E-1   -6.224043721613701E-2    1.719988239063808E-3    4.846072380320181E-3    1.813439304948241E-3    4.924620559557322E-3    4.035137433524062E-1   -2.042060972610657E-1
 8.117534135950000E9     5.005247284505084E-1   -6.229517285163955E-2    1.788161155294573E-3    4.844825924348047E-3    1.836654548738958E-3    4.895186616920903E-3    4.035414954288730E-1   -2.043317862525710E-1
 8.117536017800000E9     5.005019956861196E-1   -6.251747043726857E-2    1.778748212295239E-3    4.838581143657692E-3    1.835647474764041E-3    4.922531987610648E-3    4.032457003157354E-1   -2.043927671238419E-1
 8.117537899650000E9     5.004758951367276E-1   -6.269248850734040E-2    1.785986507564530E-3    4.880351340614845E-3    1.862326027512561E-3    4.920520698458866E-3    4.031558725195667E-1   -2.046070496120831E-1
 8.117539781500000E9     5.004098006047835E-1   -6.291337563631609E-2    1.779993890317883E-3    4.876452802825833E-3    1.890357980031734E-3    4.974712334220076E-3    4.031753414378564E-1   -2.047116619115356E-1
