#  HZ   S   RI   R     50.00 
! Rohde & Schwarz Vector Network Analyzer 
! Rohde-Schwarz,ZNB20-2Port,1311601062101988,3.16
! Created: UTC 12/23/2023, 3:42:05 AM
! freq[Hz]                re:S11                  im:S11                  re:S21                  im:S21                  re:S12                  im:S12                  re:S22                  im:S22
 7.837251243000000E9     5.660575977287459E-1    1.853150302162052E-2    1.330026462186533E-3    3.743822498191182E-3    1.336280717895010E-3    3.678550803930535E-3    4.581066332290312E-1   -2.853172460141685E-1
 7.837283770100000E9     5.662577914507702E-1    1.640294145539931E-2    1.360138398450181E-3    3.728652183979207E-3    1.384950345657926E-3    3.691830825450221E-3    4.568354526668673E-1   -2.873773138379037E-1
 7.837316297200000E9     5.663071783330562E-1    1.421976665418137E-2    1.356892615530209E-3    3.764454953139811E-3    1.408093810659508E-3    3.706244454761096E-3    4.556867085310351E-1   -2.892310564823150E-1
 7.837348824300000E9     5.664024487021291E-1    1.196614917551102E-2    1.391716835522107E-3    3.733636892272128E-3    1.416307456106803E-3    3.654416544910258E-3    4.544828990438712E-1   -2.911974405087931E-1
 7.837381351400000E9     5.663888961893916E-1    9.943282138807311E-3    1.410863568135323E-3    3.730170697155293E-3    1.438319513139284E-3    3.686362698112761E-3    4.532999325901704E-1   -2.930508873176194E-1
 7.837413878500000E9     5.663317939129811E-1    7.750514209883114E-3    1.419471125641167E-3    3.745685147011223E-3    1.471032469425238E-3    3.673859146675160E-3    4.520948370444548E-1   -2.950241297452053E-1
 7.837446405600000E9     5.665352277301028E-1    5.481070437529936E-3    1.444525389072019E-3    3.728048643474983E-3    1.481968519216790E-3    3.652118252169771E-3    4.508254517983720E-1   -2.969227092628990E-1
 7.837478932700000E9     5.666425701568218E-1    3.398816312347611E-3    1.465630656494556E-3    3.736948436672122E-3    1.468878437377876E-3    3.685402867330518E-3    4.495269584567295E-1   -2.988846034917121E-1
 7.837511459800000E9     5.666699768785204E-1    1.241195554469115E-3    1.471690097475072E-3    3.736012471676378E-3    1.494020954141786E-3    3.633299906614716E-3    4.481301783510642E-1   -3.008230997328689E-1
 7.837543986900000E9     5.665164864444958E-1   -9.297962079042831E-4    1.498224725562573E-3    3.754579845388399E-3    1.486884247980805E-3    3.686151462978634E-3    4.470037571813535E-1   -3.025713100637232E-1
 7.837576514000000E9     5.665951779941824E-1   -2.974290770786960E-3    1.512792626303718E-3    3.715380248151996E-3    1.542706107404621E-3    3.667889896927348E-3    4.457640634494227E-1   -3.046103735905251E-1
 7.837609041100000E9     5.665583340826794E-1   -5.202744076205365E-3    1.537114074301411E-3    3.737750238287063E-3    1.513655751488710E-3    3.665749162820476E-3    4.444171528792384E-1   -3.063900388687589E-1
 7.837641568200000E9     5.664965247121578E-1   -7.398540448182542E-3    1.580979737758426E-3    3.753051525772269E-3    1.596215362995286E-3    3.638752457589773E-3    4.431730138178773E-1   -3.082693035658975E-1
 7.837674095300000E9     5.665427343700377E-1   -9.551073821110640E-3    1.581730987314144E-3    3.723496264781601E-3    1.549191278811534E-3    3.649585747808207E-3    4.419343603603487E-1   -3.100997339127247E-1
 7.837706622400000E9     5.664384106419469E-1   -1.170604945873149E-2    1.554578450673219E-3    3.730761435858596E-3    1.591764938286200E-3    3.679979530941211E-3    4.405816907315787E-1   -3.120832831289255E-1
 7.837739149500000E9     5.664992434408674E-1   -1.384162673221058E-2    1.611392943912576E-3    3.728309719960267E-3    1.614826364628231E-3    3.664720374641286E-3    4.392870596442284E-1   -3.139233304496116E-1
 7.837771676600000E9     5.664931228814518E-1   -1.593620084439153E-2    1.645392033520023E-3    3.729934998864705E-3    1.651061919240123E-3    3.647670880818360E-3    4.380346791970562E-1   -3.158370786754133E-1
 7.837804203700000E9     5.663994484963948E-1   -1.828620142807518E-2    1.647867518655216E-3    3.750439134813725E-3    1.659173095423093E-3    3.669115250441834E-3    4.368242210901071E-1   -3.177444191661654E-1
 7.837836730800000E9     5.663195859682407E-1   -2.020876483580139E-2    1.705187282943905E-3    3.748173849955730E-3    1.673153966017801E-3    3.645021866798203E-3    4.353798919771704E-1   -3.193997228583613E-1
 7.837869257900000E9     5.661555156951256E-1   -2.251373002676443E-2    1.685220466338097E-3    3.709739374540616E-3    1.711133177834461E-3    3.682488717906987E-3    4.339287654696082E-1   -3.213350378084081E-1
 7.837901785000000E9     5.661061505950989E-1   -2.465705629219242E-2    1.722859191610463E-3    3.733326626086567E-3    1.707232969539944E-3    3.663750162567222E-3    4.324927305061972E-1   -3.230583267192889E-1
 7.837934312100000E9     5.661168326226291E-1   -2.690766228712922E-2    1.729173983589171E-3    3.720415549730459E-3    1.743171691590656E-3    3.657634766727209E-3    4.312789809414020E-1   -3.251153782240869E-1
 7.837966839200000E9     5.660024577987032E-1   -2.905963823653551E-2    1.747012858872654E-3    3.707006089460742E-3    1.772122611245684E-3    3.660171480490400E-3    4.300191816196725E-1   -3.267363546209389E-1
 7.837999366300000E9     5.659011117682039E-1   -3.120186968507018E-2    1.776700492695387E-3    3.737418145594037E-3    1.764530916541252E-3    3.630470808953670E-3    4.285558902698033E-1   -3.286542306351216E-1
 7.838031893400000E9     5.657765708600566E-1   -3.326890454892106E-2    1.789259606782600E-3    3.703918110851550E-3    1.797005209503488E-3    3.695644689226232E-3    4.271297523644396E-1   -3.305721673876467E-1
 7.838064420500000E9     5.656237331872556E-1   -3.547469482412097E-2    1.803025400519065E-3    3.716591991029257E-3    1.822422815977702E-3    3.667226859882067E-3    4.257274663880244E-1   -3.322682256093680E-1
 7.838096947600000E9     5.655950748490928E-1   -3.768136102583997E-2    1.837499656816986E-3    3.717447896350562E-3    1.829022816380024E-3    3.664126099915987E-3    4.243927470266622E-1   -3.340514721870252E-1
 7.838129474700000E9     5.654722228946198E-1   -3.987549046456212E-2    1.845489505800605E-3    3.715190499327589E-3    1.829886120041026E-3    3.645734877862413E-3    4.228803650063114E-1   -3.358028925695296E-1
 7.838162001800000E9     5.653384191403278E-1   -4.206079534338566E-2    1.866051635877339E-3    3.697580084180272E-3    1.855541822125827E-3    3.596627600032852E-3    4.215435435219716E-1   -3.377652948975060E-1
 7.838194528900000E9     5.650686976407916E-1   -4.411885420792235E-2    1.894681563823717E-3    3.729799825375153E-3    1.886666733324084E-3    3.629095528773839E-3    4.201262290722949E-1   -3.393828472765267E-1
 7.838227056000000E9     5.649200604641075E-1   -4.644296309669473E-2    1.920491927758350E-3    3.688999703637941E-3    1.915004567987578E-3    3.646645049812585E-3    4.186551413199024E-1   -3.412360758827548E-1
 7.838259583100000E9     5.647572576205444E-1   -4.846960358937966E-2    1.935286962186151E-3    3.691708637957286E-3    1.927426598629750E-3    3.656051363578608E-3    4.170668539856642E-1   -3.429768862151729E-1
 7.838292110200000E9     5.644905618886907E-1   -5.063701233177956E-2    1.943405798613236E-3    3.698813487260300E-3    1.975515163667581E-3    3.641689599916924E-3    4.159174057634906E-1   -3.447862716263400E-1
 7.838324637300000E9     5.642957116568194E-1   -5.288819309502907E-2    1.972498715649103E-3    3.684890818277942E-3    1.931955198102314E-3    3.637549517560174E-3    4.143496036616181E-1   -3.464348381710561E-1
 7.838357164400000E9     5.641672842733171E-1   -5.498927534570515E-2    2.004426910914998E-3    3.710144899502962E-3    1.980400243203363E-3    3.664878150978454E-3    4.129343704796714E-1   -3.482734980342861E-1
 7.838389691500000E9     5.640135472478929E-1   -5.718255517020297E-2    2.016013645549977E-3    3.693112104880168E-3    2.021035364872942E-3    3.625861909533206E-3    4.113405969962906E-1   -3.500769834170912E-1
 7.838422218600000E9     5.638234168072999E-1   -5.917916732914542E-2    2.031177384962978E-3    3.709870781186518E-3    2.005376964269868E-3    3.641205923638638E-3    4.100208056446769E-1   -3.518922564229775E-1
 7.838454745700000E9     5.635034687973433E-1   -6.158469536082006E-2    2.049464010792757E-3    3.690052577764942E-3    2.021001031168488E-3    3.616469863575380E-3    4.084550547117505E-1   -3.534178191941205E-1
 7.838487272800000E9     5.633015092078038E-1   -6.358295073386844E-2    2.077798427901996E-3    3.688009290047610E-3    2.032058363433823E-3    3.649691066900998E-3    4.070018896762812E-1   -3.552711802363915E-1
 7.838519799900000E9     5.630365566831695E-1   -6.555823409168685E-2    2.109015535357721E-3    3.686097974361231E-3    2.064661802837450E-3    3.609544811823983E-3    4.055958675480384E-1   -3.568566765158938E-1
 7.838552327000000E9     5.627846999578918E-1   -6.800122743732617E-2    2.103219624584763E-3    3.676594089952947E-3    2.107578174672319E-3    3.616473608485019E-3    4.039264689951544E-1   -3.586674475163222E-1
 7.838584854100000E9     5.624738798267340E-1   -7.004812329211257E-2    2.140299224720778E-3    3.667899413905424E-3    2.145672176086297E-3    3.628562261794315E-3    4.024553637226052E-1   -3.603750146442383E-1
 7.838617381200000E9     5.622050772731326E-1   -7.215904826168712E-2    2.156127044422245E-3    3.678096663109618E-3    2.118503122793329E-3    3.607493079465241E-3    4.009285334868196E-1   -3.621132121381024E-1
 7.838649908300000E9     5.620987481728179E-1   -7.442480966710784E-2    2.171965973317482E-3    3.689115437410722E-3    2.154823187398998E-3    3.626025641619764E-3    3.995244977458716E-1   -3.638102029544526E-1
 7.838682435400000E9     5.616388933690493E-1   -7.658927033630986E-2    2.219715486770318E-3    3.700861813284395E-3    2.178830067166587E-3    3.596362273412430E-3    3.979495653993586E-1   -3.655514216783206E-1
 7.838714962500000E9     5.615253047786490E-1   -7.878797994149303E-2    2.239218750761605E-3    3.661349714094823E-3    2.188240537400935E-3    3.628802085412782E-3    3.963895114773430E-1   -3.672603672363275E-1
 7.838747489600000E9     5.611140100088906E-1   -8.086023755169996E-2    2.238481925666326E-3    3.684996275208848E-3    2.205979240468811E-3    3.618506176582743E-3    3.948960222567101E-1   -3.689296922961386E-1
 7.838780016700000E9     5.608549129298555E-1   -8.293567025159160E-2    2.268903088904533E-3    3.675036957174672E-3    2.231692590858282E-3    3.645143553382221E-3    3.933261258414922E-1   -3.704141174016569E-1
 7.838812543800000E9     5.606026217074586E-1   -8.518555926339176E-2    2.275615751731643E-3    3.675836510143770E-3    2.287116447511519E-3    3.620220969024095E-3    3.916903777093346E-1   -3.721141862372463E-1
 7.838845070900000E9     5.603395380973688E-1   -8.737342846710980E-2    2.309981307829167E-3    3.672715308374493E-3    2.281992348971317E-3    3.622155046205961E-3    3.902051422230107E-1   -3.737264153155029E-1
 7.838877598000000E9     5.599317344187111E-1   -8.939441638495868E-2    2.344969111657861E-3    3.693366561046610E-3    2.303090690615196E-3    3.650975091280305E-3    3.885542738495061E-1   -3.755456010243693E-1
 7.838910125100000E9     5.596483511730734E-1   -9.149834946775329E-2    2.356996649039649E-3    3.650883465289354E-3    2.297148191593784E-3    3.619057702991367E-3    3.870289394331072E-1   -3.770352340743279E-1
 7.838942652200000E9     5.591874152346977E-1   -9.365769049479448E-2    2.393324031820671E-3    3.653159823620050E-3    2.327150203058548E-3    3.621905742166497E-3    3.853143921512458E-1   -3.787681267896892E-1
 7.838975179300000E9     5.588572194653233E-1   -9.585247524000891E-2    2.386192318428364E-3    3.695940450766502E-3    2.358243520613488E-3    3.603612478504093E-3    3.838658461805632E-1   -3.803533659674198E-1
 7.839007706400000E9     5.584002701688534E-1   -9.796741629298270E-2    2.434781267399549E-3    3.676311955690974E-3    2.419724417625949E-3    3.622531316972637E-3    3.822471380314241E-1   -3.819250417394385E-1
 7.839040233500000E9     5.582440836423933E-1   -1.001442689993836E-1    2.442216215734489E-3    3.667839931955220E-3    2.445628271461776E-3    3.600657480312593E-3    3.805474445148813E-1   -3.835810523471856E-1
 7.839072760600000E9     5.577788536178452E-1   -1.023341777583024E-1    2.446198910104056E-3    3.658102158106933E-3    2.428399113363676E-3    3.579745345355237E-3    3.789102529373793E-1   -3.851527640280039E-1
 7.839105287700000E9     5.572563098544298E-1   -1.045486736073914E-1    2.484176925146835E-3    3.658718693840860E-3    2.436021739103035E-3    3.628404118355214E-3    3.774416413013115E-1   -3.868504299809209E-1
 7.839137814800000E9     5.569243338525922E-1   -1.065533244028236E-1    2.512659578588048E-3    3.625583715199662E-3    2.473823537584190E-3    3.598721510261088E-3    3.757269359841044E-1   -3.884133031177833E-1
 7.839170341900000E9     5.564977845868962E-1   -1.086420536164208E-1    2.557804112703411E-3    3.645775982537592E-3    2.484460841305642E-3    3.570430092828094E-3    3.739873240731368E-1   -3.899330515061178E-1
 7.839202869000000E9     5.560502418565352E-1   -1.109190884055549E-1    2.544992508270355E-3    3.640630852656318E-3    2.526815196377408E-3    3.614130883909594E-3    3.723082037350336E-1   -3.915406487235263E-1
 7.839235396100000E9     5.556319015046229E-1   -1.131175363315469E-1    2.590508371419459E-3    3.642403207390266E-3    2.535033035945012E-3    3.612896019681738E-3    3.708607993312564E-1   -3.931895203764296E-1
 7.839267923200000E9     5.551460061834835E-1   -1.151921005816858E-1    2.595592817079517E-3    3.640765785194093E-3    2.563547076498123E-3    3.603051475084623E-3    3.691857976705194E-1   -3.949163265019639E-1
 7.839300450300000E9     5.548123099761826E-1   -1.172737928219307E-1    2.637676724445207E-3    3.622301035392914E-3    2.565467795710289E-3    3.589428130142659E-3    3.676076730683833E-1   -3.963083326783663E-1
 7.839332977400000E9     5.543036733141148E-1   -1.194741486317638E-1    2.660336847792102E-3    3.639547417203468E-3    2.619513046251439E-3    3.584453996217731E-3    3.659797436008900E-1   -3.978408614288988E-1
 7.839365504500000E9     5.539135653049911E-1   -1.215652941711628E-1    2.660519314836783E-3    3.639916624508495E-3    2.630010647592221E-3    3.593448279351110E-3    3.641456612102179E-1   -3.994322474483952E-1
 7.839398031600000E9     5.535170947125700E-1   -1.236421391121271E-1    2.709947628882636E-3    3.635293788517128E-3    2.636012418216891E-3    3.614040482866621E-3    3.624402406325811E-1   -4.010700911916632E-1
 7.839430558700000E9     5.529592998755486E-1   -1.257872616711077E-1    2.719394045919885E-3    3.626484901449005E-3    2.681176953447595E-3    3.578404690645457E-3    3.606571895096320E-1   -4.024585026363787E-1
 7.839463085800000E9     5.522563328883401E-1   -1.279028090605137E-1    2.731032486918167E-3    3.624599278317179E-3    2.721456830159876E-3    3.569326083194406E-3    3.591568869312597E-1   -4.040331991026538E-1
 7.839495612900000E9     5.519922903439328E-1   -1.301308954329746E-1    2.760532716850670E-3    3.595197491865658E-3    2.745094781602447E-3    3.599956597343109E-3    3.573940752745264E-1   -4.055546721485258E-1
 7.839528140000000E9     5.514025535874919E-1   -1.322140198796900E-1    2.796196744095878E-3    3.629130576374076E-3    2.740822640700164E-3    3.588291778639298E-3    3.556683209526260E-1   -4.071407094419779E-1
 7.839560667100000E9     5.508760622376899E-1   -1.342864793192852E-1    2.842365633326542E-3    3.631670766147856E-3    2.800959501065363E-3    3.564641263629645E-3    3.539535227319847E-1   -4.086058468933416E-1
 7.839593194200000E9     5.504090991503436E-1   -1.364413275978283E-1    2.836410414676748E-3    3.599184998048495E-3    2.787862804774412E-3    3.566012929880080E-3    3.521673945700983E-1   -4.101704370103629E-1
 7.839625721300000E9     5.497585537518218E-1   -1.387180383580682E-1    2.890541635063270E-3    3.614813829556212E-3    2.836730434569128E-3    3.541138491243132E-3    3.505052487864531E-1   -4.115154452687808E-1
 7.839658248400000E9     5.493246936209730E-1   -1.406624816010656E-1    2.892039450791667E-3    3.610667905358019E-3    2.854043409396733E-3    3.536925847998431E-3    3.487167387808744E-1   -4.130310613580939E-1
 7.839690775500000E9     5.487162488848980E-1   -1.427144996214983E-1    2.931252303438643E-3    3.603041416703823E-3    2.895186148905385E-3    3.591140276896878E-3    3.469827319532377E-1   -4.145158314893176E-1
 7.839723302600000E9     5.481562358930797E-1   -1.449254959899375E-1    2.931888154789386E-3    3.598482990309359E-3    2.943575551653029E-3    3.569621420687556E-3    3.451910714940892E-1   -4.159556642405636E-1
 7.839755829700000E9     5.476225010820148E-1   -1.470170094777702E-1    2.965964003710107E-3    3.579397205449497E-3    2.942353427238354E-3    3.570550896536530E-3    3.436200146247464E-1   -4.175822669815418E-1
 7.839788356800000E9     5.471003350385887E-1   -1.491228127196447E-1    3.012345449108961E-3    3.587964108567508E-3    2.946096817343213E-3    3.547702711180203E-3    3.417974475449502E-1   -4.188625753079847E-1
 7.839820883900000E9     5.464233705074997E-1   -1.512165520532243E-1    3.041059316714050E-3    3.588569521026292E-3    2.963113209317338E-3    3.569954015102073E-3    3.400211608661992E-1   -4.203067222680190E-1
 7.839853411000000E9     5.458847859601288E-1   -1.533604918865290E-1    3.075375311551413E-3    3.596604070434739E-3    2.998632259383972E-3    3.546418546840523E-3    3.383296182716199E-1   -4.217792765499971E-1
 7.839885938100000E9     5.452120214444252E-1   -1.553802309726634E-1    3.094841548781102E-3    3.581240679364186E-3    3.027827376017687E-3    3.536901096633380E-3    3.365711831633308E-1   -4.232374254867475E-1
 7.839918465200000E9     5.446938436118445E-1   -1.575891298809688E-1    3.104655341721958E-3    3.574724377696305E-3    3.066199442877608E-3    3.510996457070711E-3    3.345555031752808E-1   -4.246443010295594E-1
 7.839950992300000E9     5.440334767922400E-1   -1.597172059095598E-1    3.157475431002755E-3    3.592477980302937E-3    3.104150046149520E-3    3.539694069836432E-3    3.329157474439851E-1   -4.260993638390461E-1
 7.839983519400000E9     5.434090423935419E-1   -1.618482516200385E-1    3.194836934551625E-3    3.578558804181246E-3    3.148583376109633E-3    3.545375576143189E-3    3.311507288481946E-1   -4.274824319076816E-1
 7.840016046500000E9     5.427948951412955E-1   -1.638204226374761E-1    3.209557852202595E-3    3.559387621257429E-3    3.183311276207552E-3    3.540826755689091E-3    3.292293594927446E-1   -4.289310545658885E-1
 7.840048573600000E9     5.420298519891817E-1   -1.660354399128012E-1    3.260691953902230E-3    3.550278335210402E-3    3.191395919106063E-3    3.533689758731211E-3    3.274974377761546E-1   -4.303046390161594E-1
 7.840081100700000E9     5.414578766082441E-1   -1.680556632979583E-1    3.268061187471049E-3    3.544702583028185E-3    3.220008210540232E-3    3.553366676573114E-3    3.257067726794348E-1   -4.317099614880629E-1
 7.840113627800000E9     5.407391353587350E-1   -1.702766884888755E-1    3.284375682921624E-3    3.569809118933401E-3    3.270822450323406E-3    3.545705571474117E-3    3.238304200984555E-1   -4.331059005539473E-1
 7.840146154900000E9     5.401820451838658E-1   -1.722749916389876E-1    3.346616425644519E-3    3.582391577885041E-3    3.308893000199953E-3    3.580291924600861E-3    3.221010135020462E-1   -4.345050646387343E-1
 7.840178682000000E9     5.394459206605855E-1   -1.743416674919930E-1    3.316860838153206E-3    3.604373337383783E-3    3.311465651502562E-3    3.560164890026010E-3    3.202551682398229E-1   -4.357937571300229E-1
