#  HZ   S   RI   R     50.00 
! Rohde & Schwarz Vector Network Analyzer 
! Rohde-Schwarz,ZNB20-2Port,1311601062101988,3.16
! Created: UTC 12/23/2023, 3:42:06 AM
! freq[Hz]                re:S11                  im:S11                  re:S21                  im:S21                  re:S12                  im:S12                  re:S22                  im:S22
 1.000999906800000E+10  -3.649017090245287E-1    3.652410497865214E-1   -2.004655743817559E-2   -1.308431164428631E-2   -1.850580764463735E-2   -1.358050266323177E-2   -1.813971145418677E-1    4.860471692574611E-1
 1.001001031225000E+10  -3.642861643139337E-1    3.659643635984532E-1   -1.999504820356256E-2   -1.305141432042517E-2   -1.855119134587202E-2   -1.363947207187005E-2   -1.806497213986444E-1    4.862707153752104E-1
 1.001002155650000E+10  -3.635919532442036E-1    3.664437500527921E-1   -2.015728657575119E-2   -1.303506295389522E-2   -1.868751265343441E-2   -1.359268376273849E-2   -1.800919209654984E-1    4.866324404175041E-1
 1.001003280075000E+10  -3.629146757755333E-1    3.672598570593201E-1   -2.023416391766179E-2   -1.309165600361718E-2   -1.872988613267608E-2   -1.349723393311979E-2   -1.794791945138506E-1    4.868316344133832E-1
 1.001004404500000E+10  -3.620917523309336E-1    3.680037883845664E-1   -2.026950917561930E-2   -1.295214943089829E-2   -1.888433564560582E-2   -1.356428314834268E-2   -1.787617357324462E-1    4.871163158841726E-1
 1.001005528925000E+10  -3.615109736056850E-1    3.686162771322746E-1   -2.031333302356852E-2   -1.311572230438154E-2   -1.903517686608023E-2   -1.357841484844122E-2   -1.780661308473750E-1    4.874206149912929E-1
 1.001006653350000E+10  -3.608497966522989E-1    3.694665890469845E-1   -2.056837499683303E-2   -1.307462643805111E-2   -1.905439803771163E-2   -1.369584553519367E-2   -1.773785700757117E-1    4.875836615982195E-1
 1.001007777775000E+10  -3.601380862003400E-1    3.701049357056719E-1   -2.065853316161416E-2   -1.311071573359919E-2   -1.923152067768983E-2   -1.364508212426819E-2   -1.765024477763734E-1    4.879946825330381E-1
 1.001008902200000E+10  -3.593738755634979E-1    3.707461730626933E-1   -2.077351224218105E-2   -1.314888188693502E-2   -1.931371524565317E-2   -1.375104943465039E-2   -1.758490930051192E-1    4.882720440339128E-1
 1.001010026625000E+10  -3.587084278775614E-1    3.714558828382118E-1   -2.079230456071892E-2   -1.320585710195932E-2   -1.940344769116063E-2   -1.371964003957972E-2   -1.752385684328978E-1    4.884713983743820E-1
 1.001011151050000E+10  -3.579209527985204E-1    3.721885652686291E-1   -2.085799772034703E-2   -1.311380953237123E-2   -1.957024612141653E-2   -1.380874904477021E-2   -1.745514461388957E-1    4.886212562605641E-1
 1.001012275475000E+10  -3.572856396352811E-1    3.728547783945483E-1   -2.108267156648916E-2   -1.331468814029008E-2   -1.961661469486035E-2   -1.377251769502672E-2   -1.738301603725993E-1    4.889068697896899E-1
 1.001013399900000E+10  -3.564934557334354E-1    3.736052199537959E-1   -2.105731976961530E-2   -1.320506979707645E-2   -1.982554835771636E-2   -1.375754067175915E-2   -1.729964584291674E-1    4.892300019129540E-1
 1.001014524325000E+10  -3.557510270036731E-1    3.745161439323721E-1   -2.132878564888378E-2   -1.331908357937312E-2   -1.991415102178938E-2   -1.370365119938125E-2   -1.722182090854618E-1    4.896078900797387E-1
 1.001015648750000E+10  -3.550541814502376E-1    3.750104663427883E-1   -2.133560368407690E-2   -1.317242464810251E-2   -1.991062647694247E-2   -1.375102497210667E-2   -1.716101699998193E-1    4.898180049883422E-1
 1.001016773175000E+10  -3.543168695120417E-1    3.757480570559883E-1   -2.153904035368906E-2   -1.335519871953578E-2   -2.014109546140985E-2   -1.378927899737263E-2   -1.708011758376203E-1    4.899891935688745E-1
 1.001017897600000E+10  -3.535282000209166E-1    3.764130320036764E-1   -2.160248404759810E-2   -1.340521857421322E-2   -2.004509911247691E-2   -1.387469433083092E-2   -1.700906859684999E-1    4.903504287663055E-1
 1.001019022025000E+10  -3.527952032842717E-1    3.771563663237475E-1   -2.173548528449083E-2   -1.340566620432081E-2   -2.031221714971630E-2   -1.389881969177632E-2   -1.695066665078996E-1    4.905132637568273E-1
 1.001020146450000E+10  -3.521056612400201E-1    3.777835785838467E-1   -2.178149650891135E-2   -1.332831688787705E-2   -2.043373276237882E-2   -1.390371369714006E-2   -1.689731585184249E-1    4.907606443145667E-1
 1.001021270875000E+10  -3.511862368393131E-1    3.785234296483251E-1   -2.198245114266642E-2   -1.345938656981256E-2   -2.055237595471519E-2   -1.394444005398784E-2   -1.681204270115132E-1    4.910478675907929E-1
 1.001022395300000E+10  -3.506732527376255E-1    3.792634240773823E-1   -2.212352185475763E-2   -1.339793241373087E-2   -2.061028254107598E-2   -1.381441051223164E-2   -1.672860225297374E-1    4.912897827558770E-1
 1.001023519725000E+10  -3.497269698597873E-1    3.798418237032117E-1   -2.226316499626289E-2   -1.347674364967730E-2   -2.065344454382829E-2   -1.400123230051959E-2   -1.666086210357782E-1    4.916167684993035E-1
 1.001024644150000E+10  -3.489803260062778E-1    3.805276363354209E-1   -2.229548224239018E-2   -1.347875654750793E-2   -2.093083704496486E-2   -1.389368185368166E-2   -1.659143691471517E-1    4.918777446440663E-1
 1.001025768575000E+10  -3.482147951425550E-1    3.813762061739739E-1   -2.253677888806640E-2   -1.332351977781000E-2   -2.098945365794620E-2   -1.385379630915510E-2   -1.651260428114857E-1    4.922736877724255E-1
 1.001026893000000E+10  -3.474750992922508E-1    3.820697313410217E-1   -2.263133596205251E-2   -1.351663053914865E-2   -2.110533328921723E-2   -1.403763764551497E-2   -1.646409454241045E-1    4.922332624479654E-1
 1.001028017425000E+10  -3.466952122545386E-1    3.827361538787589E-1   -2.271509105712616E-2   -1.332497776867330E-2   -2.129088345364918E-2   -1.401931475040073E-2   -1.638215733116548E-1    4.924516341555401E-1
 1.001029141850000E+10  -3.460033814561359E-1    3.833308563611614E-1   -2.287550823163009E-2   -1.334250724385011E-2   -2.127976311452818E-2   -1.396787595328285E-2   -1.630540691966563E-1    4.927251510030978E-1
 1.001030266275000E+10  -3.450864632051958E-1    3.842066587756632E-1   -2.297554988756959E-2   -1.342008163904477E-2   -2.148983812874199E-2   -1.400655621869665E-2   -1.623277215053128E-1    4.931692740425341E-1
 1.001031390700000E+10  -3.444351942756039E-1    3.848379593640164E-1   -2.308838908499122E-2   -1.363591774159900E-2   -2.155888108900182E-2   -1.409392980374606E-2   -1.616952483865182E-1    4.932031088272739E-1
 1.001032515125000E+10  -3.435755600764378E-1    3.855907304204026E-1   -2.330626069595300E-2   -1.358766622114597E-2   -2.165130856461274E-2   -1.411977397556339E-2   -1.610040933646806E-1    4.936517884129674E-1
 1.001033639550000E+10  -3.426864647132358E-1    3.862739833331740E-1   -2.332996108539291E-2   -1.348163836810321E-2   -2.179278129912065E-2   -1.423006187373133E-2   -1.601603838606892E-1    4.938850540052849E-1
 1.001034763975000E+10  -3.419851758552012E-1    3.868879114683435E-1   -2.346458169554785E-2   -1.364192707123793E-2   -2.200322162054629E-2   -1.410343518553221E-2   -1.595635502929529E-1    4.940178507635103E-1
 1.001035888400000E+10  -3.411535303116822E-1    3.876425400714332E-1   -2.373835742391460E-2   -1.347447960554617E-2   -2.220544190329507E-2   -1.417788155918779E-2   -1.587504178446303E-1    4.941359772700286E-1
 1.001037012825000E+10  -3.404278037287085E-1    3.882418138591167E-1   -2.381620642957661E-2   -1.364938405550359E-2   -2.234728591991410E-2   -1.413030961932531E-2   -1.578948410227877E-1    4.945125157826080E-1
 1.001038137250000E+10  -3.395516010592253E-1    3.889159575272597E-1   -2.399414819689499E-2   -1.370685900977932E-2   -2.254812032702933E-2   -1.415825569691720E-2   -1.572401618347631E-1    4.947227318550535E-1
 1.001039261675000E+10  -3.388265597316015E-1    3.897869699464723E-1   -2.405255680091670E-2   -1.376197990072687E-2   -2.254246730958050E-2   -1.417647531064409E-2   -1.566144333287320E-1    4.949186683859644E-1
 1.001040386100000E+10  -3.377705147570658E-1    3.904510984728912E-1   -2.426642322453720E-2   -1.374224035675988E-2   -2.268725566653352E-2   -1.424741700958579E-2   -1.559195491413148E-1    4.952267710102233E-1
 1.001041510525000E+10  -3.371474688889255E-1    3.911973256726495E-1   -2.438312080803671E-2   -1.355149326806980E-2   -2.282213719008547E-2   -1.432394971680728E-2   -1.550653017697212E-1    4.955252673562546E-1
 1.001042634950000E+10  -3.362040565428959E-1    3.917775152055001E-1   -2.453013338657597E-2   -1.362646354836828E-2   -2.299085768149511E-2   -1.431923846938751E-2   -1.543561664882695E-1    4.957073154069114E-1
 1.001043759375000E+10  -3.353360391599967E-1    3.925464718605063E-1   -2.471436686140607E-2   -1.367451746695258E-2   -2.312918882205665E-2   -1.431857479476371E-2   -1.536319339519311E-1    4.958802002550885E-1
 1.001044883800000E+10  -3.345198006847932E-1    3.932859427789052E-1   -2.492408421038380E-2   -1.358992556720991E-2   -2.321636867608930E-2   -1.449218565065050E-2   -1.529655001942528E-1    4.961622924895401E-1
 1.001046008225000E+10  -3.336891649663609E-1    3.940917477472436E-1   -2.493858547352953E-2   -1.372410321514139E-2   -2.350266642159434E-2   -1.435563772838535E-2   -1.521642377227406E-1    4.963684632452171E-1
 1.001047132650000E+10  -3.329542162493242E-1    3.947344832641010E-1   -2.516640489518449E-2   -1.365134832736741E-2   -2.353698985911970E-2   -1.443529848670962E-2   -1.514887874526607E-1    4.967212495211392E-1
 1.001048257075000E+10  -3.318605898980879E-1    3.953504324509751E-1   -2.533518699918181E-2   -1.378147592235943E-2   -2.389604834377616E-2   -1.444281801704067E-2   -1.507620108913210E-1    4.968893091584649E-1
 1.001049381500000E+10  -3.312311343939010E-1    3.960473202985650E-1   -2.546875537550678E-2   -1.383360358665385E-2   -2.405955512169947E-2   -1.441252392058785E-2   -1.500328227826460E-1    4.971029607965575E-1
 1.001050505925000E+10  -3.301966699901782E-1    3.968902686207353E-1   -2.565347457098886E-2   -1.389560322355596E-2   -2.399381887309825E-2   -1.451398064465347E-2   -1.492443788187223E-1    4.974035382844947E-1
 1.001051630350000E+10  -3.294559881808220E-1    3.976433154215966E-1   -2.570305407312313E-2   -1.379576934625080E-2   -2.423061145537459E-2   -1.438368050480288E-2   -1.483381685974553E-1    4.974444308107315E-1
 1.001052754775000E+10  -3.283707964207528E-1    3.981709626937333E-1   -2.595641745115092E-2   -1.392375098693644E-2   -2.438008802649749E-2   -1.448067695598098E-2   -1.476959978857631E-1    4.978521438852713E-1
 1.001053879200000E+10  -3.275701281533159E-1    3.990324791421116E-1   -2.625345880880246E-2   -1.388708647606360E-2   -2.446587466860291E-2   -1.461746380932199E-2   -1.470499996858908E-1    4.978991308633418E-1
 1.001055003625000E+10  -3.266719778483255E-1    3.996488080733992E-1   -2.633026304444636E-2   -1.388236350943413E-2   -2.455701619731453E-2   -1.453889215984078E-2   -1.462959660427308E-1    4.981256125879066E-1
 1.001056128050000E+10  -3.256790212602060E-1    4.004374316732190E-1   -2.663763325678386E-2   -1.385710377517507E-2   -2.469566287932087E-2   -1.455754080369446E-2   -1.455608843172055E-1    4.984662319518586E-1
 1.001057252475000E+10  -3.247331765254978E-1    4.010807420115720E-1   -2.670739976890944E-2   -1.393697106460007E-2   -2.503170611332034E-2   -1.449202135102542E-2   -1.447130933710319E-1    4.985748613968214E-1
 1.001058376900000E+10  -3.238418335848386E-1    4.017741983789263E-1   -2.686947103487896E-2   -1.388442531717657E-2   -2.510945753885604E-2   -1.455181487049829E-2   -1.438898172161719E-1    4.989268149187231E-1
 1.001059501325000E+10  -3.230868598247573E-1    4.025425340205679E-1   -2.714112617227346E-2   -1.382959160723250E-2   -2.540100279154138E-2   -1.461265513447775E-2   -1.433792989071564E-1    4.990351510574687E-1
 1.001060625750000E+10  -3.219984286819667E-1    4.032862790945756E-1   -2.725477560873380E-2   -1.391933041039600E-2   -2.550475693144179E-2   -1.463736214837165E-2   -1.425165071035793E-1    4.992997406397844E-1
 1.001061750175000E+10  -3.211482753550441E-1    4.039747749071144E-1   -2.757751270641082E-2   -1.400479083482821E-2   -2.567750608852245E-2   -1.467647046788547E-2   -1.418995247394994E-1    4.995901106130098E-1
 1.001062874600000E+10  -3.201277191152239E-1    4.047176629172106E-1   -2.760781034568661E-2   -1.391811873107706E-2   -2.587687166565368E-2   -1.471321551086986E-2   -1.410532612731195E-1    4.997239151887921E-1
 1.001063999025000E+10  -3.191687042086721E-1    4.054521021847522E-1   -2.765424613407012E-2   -1.401694079038276E-2   -2.602310026189069E-2   -1.473783815551360E-2   -1.403480357701043E-1    4.999798842393517E-1
 1.001065123450000E+10  -3.181529829227341E-1    4.061301899339745E-1   -2.801421730712243E-2   -1.401443739902020E-2   -2.622008176499739E-2   -1.500624080265010E-2   -1.397231568413941E-1    5.001125610886263E-1
 1.001066247875000E+10  -3.173695781533810E-1    4.069181934191132E-1   -2.810260760924055E-2   -1.410753355683210E-2   -2.649154946602830E-2   -1.483470653022336E-2   -1.388696874433238E-1    5.003817951281534E-1
 1.001067372300000E+10  -3.163772139482857E-1    4.076728011869448E-1   -2.828443793400077E-2   -1.406258190044307E-2   -2.656505075605076E-2   -1.490055907750174E-2   -1.379019681818510E-1    5.006190454239267E-1
 1.001068496725000E+10  -3.154027846674053E-1    4.083181602457831E-1   -2.865068262070446E-2   -1.414329804334555E-2   -2.686121461115546E-2   -1.482745445661614E-2   -1.372737098229548E-1    5.007628038182278E-1
 1.001069621150000E+10  -3.143113148483998E-1    4.090742118104878E-1   -2.871126678132523E-2   -1.418555585155434E-2   -2.706032944769270E-2   -1.478781169738067E-2   -1.366294564642307E-1    5.008096280831260E-1
 1.001070745575000E+10  -3.133046139245517E-1    4.097704923763459E-1   -2.910136313064354E-2   -1.395299665060020E-2   -2.723070481628191E-2   -1.481845634196005E-2   -1.357892293137133E-1    5.011795196406447E-1
 1.001071870000000E+10  -3.124000118208323E-1    4.105259398108493E-1   -2.908553934290595E-2   -1.394198193537496E-2   -2.738809277576745E-2   -1.488326648937813E-2   -1.350839090432482E-1    5.014012330613128E-1
 1.001072994425000E+10  -3.111870666393653E-1    4.112563495197278E-1   -2.946720702165006E-2   -1.392908849271219E-2   -2.762337833996238E-2   -1.496212788858110E-2   -1.342754063902556E-1    5.016761316789174E-1
 1.001074118850000E+10  -3.100938522148881E-1    4.120032195108604E-1   -2.966889212401933E-2   -1.403947029432340E-2   -2.779390022419011E-2   -1.477843107659610E-2   -1.334921520971687E-1    5.017048213785423E-1
 1.001075243275000E+10  -3.092038277842516E-1    4.129275961170044E-1   -2.997556373125555E-2   -1.402319701246189E-2   -2.805509030122232E-2   -1.495654216231721E-2   -1.328896057133659E-1    5.020044874173920E-1
 1.001076367700000E+10  -3.081513341964244E-1    4.134894853690393E-1   -3.026922562595727E-2   -1.408996275772118E-2   -2.832602187910777E-2   -1.506432527063841E-2   -1.320191398681516E-1    5.021096003221407E-1
 1.001077492125000E+10  -3.072358687373714E-1    4.141160810051452E-1   -3.041670643894156E-2   -1.408049702028013E-2   -2.851772423856465E-2   -1.511077297831352E-2   -1.311562646584259E-1    5.024184272730489E-1
 1.001078616550000E+10  -3.061273671138124E-1    4.149488760341801E-1   -3.055806096586222E-2   -1.405801784960885E-2   -2.869199252559077E-2   -1.504665161880966E-2   -1.305743543184354E-1    5.026186059365466E-1
 1.001079740975000E+10  -3.049586791251551E-1    4.156644248068189E-1   -3.073822745816735E-2   -1.411510049021279E-2   -2.894217561204219E-2   -1.506279992632767E-2   -1.295762343109422E-1    5.028068198874388E-1
 1.001080865400000E+10  -3.038227031101937E-1    4.165456068319323E-1   -3.099906770867306E-2   -1.425102655710453E-2   -2.928193787389597E-2   -1.512039980418730E-2   -1.288997428058611E-1    5.029306810990988E-1
 1.001081989825000E+10  -3.029354821715384E-1    4.170856343570238E-1   -3.115770662772375E-2   -1.414469067111486E-2   -2.935196972985770E-2   -1.500058989335034E-2   -1.282009196191914E-1    5.030870118855032E-1
 1.001083114250000E+10  -3.017742773029098E-1    4.180679745498617E-1   -3.145942037912495E-2   -1.432292088188653E-2   -2.963644735883373E-2   -1.503091926579924E-2   -1.273980208043947E-1    5.032970333437711E-1
 1.001084238675000E+10  -3.006847477499572E-1    4.187599845569739E-1   -3.158658831288795E-2   -1.443999322953805E-2   -2.994705980994570E-2   -1.503742129251407E-2   -1.265478814564350E-1    5.035720320108495E-1
 1.001085363100000E+10  -2.994589716004093E-1    4.192655217578597E-1   -3.201425074782035E-2   -1.421179911355548E-2   -2.996420177209636E-2   -1.524357050450220E-2   -1.260044446595237E-1    5.036444792536602E-1
 1.001086487525000E+10  -2.982614167901029E-1    4.201298604579953E-1   -3.233406470282322E-2   -1.423948432323227E-2   -3.032348341698271E-2   -1.514531404965378E-2   -1.250512085574766E-1    5.038639179133229E-1
 1.001087611950000E+10  -2.972710570170166E-1    4.208892746198687E-1   -3.261301122093602E-2   -1.415781725190613E-2   -3.059216447503062E-2   -1.518790827245739E-2   -1.243120349470038E-1    5.040493149648813E-1
 1.001088736375000E+10  -2.959939872215877E-1    4.215712275587415E-1   -3.274817234621885E-2   -1.421893522434700E-2   -3.079293825945375E-2   -1.527498514810782E-2   -1.236263425104553E-1    5.042271819017662E-1
 1.001089860800000E+10  -2.950665853602118E-1    4.223452341952801E-1   -3.309306646619021E-2   -1.416838609269152E-2   -3.117899054237642E-2   -1.516614999151562E-2   -1.227545789549506E-1    5.044465052538472E-1
 1.001090985225000E+10  -2.937687540785631E-1    4.229544477791548E-1   -3.333433750718712E-2   -1.424559824105347E-2   -3.132427600271922E-2   -1.526516579250052E-2   -1.220164608384717E-1    5.044984098008406E-1
 1.001092109650000E+10  -2.926289102693947E-1    4.238211780587500E-1   -3.355617562947825E-2   -1.404921915233390E-2   -3.154267321822176E-2   -1.512090570332796E-2   -1.212248639789936E-1    5.048699702352292E-1
 1.001093234075000E+10  -2.912745968574287E-1    4.244935213075299E-1   -3.386453905378771E-2   -1.427553547752784E-2   -3.180511596291727E-2   -1.526367298540008E-2   -1.203075099709914E-1    5.048634351659980E-1
 1.001094358500000E+10  -2.901292643211508E-1    4.252454362862337E-1   -3.421990692713892E-2   -1.427745498856576E-2   -3.218350776866022E-2   -1.531092727668012E-2   -1.195938810621362E-1    5.051642217681912E-1
 1.001095482925000E+10  -2.887908138993656E-1    4.259429341559917E-1   -3.444916756814763E-2   -1.436850619871274E-2   -3.251155355252119E-2   -1.533785811988293E-2   -1.187411070270075E-1    5.054084081151409E-1
 1.001096607350000E+10  -2.877250965986974E-1    4.267087382954013E-1   -3.466246743511259E-2   -1.443751316061029E-2   -3.280110730132228E-2   -1.538486308274202E-2   -1.180571751677208E-1    5.054548900169828E-1
 1.001097731775000E+10  -2.863773060585531E-1    4.274362497257088E-1   -3.481219123045802E-2   -1.445039133752107E-2   -3.291864633345126E-2   -1.536552780826908E-2   -1.171919714782055E-1    5.056144591842369E-1
 1.001098856200000E+10  -2.850672318759080E-1    4.282759640085086E-1   -3.531877783352005E-2   -1.443459449374327E-2   -3.340486902944622E-2   -1.547387539662840E-2   -1.164706975801507E-1    5.056622183657695E-1
 1.001099980625000E+10  -2.837656421817014E-1    4.290817331208238E-1   -3.557796305335559E-2   -1.427598734962837E-2   -3.360194953390404E-2   -1.548977675160955E-2   -1.157635299973614E-1    5.060329967194854E-1
 1.001101105050000E+10  -2.826323141694261E-1    4.297489519245266E-1   -3.583642671952481E-2   -1.453623449546643E-2   -3.391477417100947E-2   -1.538320659770939E-2   -1.149079318331601E-1    5.061684555679423E-1
