#  HZ   S   RI   R     50.00 
! Rohde & Schwarz Vector Network Analyzer 
! Rohde-Schwarz,ZNB20-2Port,1311601062101988,3.16
! Created: UTC 3/20/2024, 11:39:39 AM
! freq[Hz]                re:S11                  im:S11                  re:S21                  im:S21                  re:S12                  im:S12                  re:S22                  im:S22
 8.117318710000000E9     5.037689102934299E-1   -4.223315179240992E-2    1.175659364589892E-3    4.067291090423155E-3    1.229924514575164E-3    4.140797944945518E-3    4.095021758313198E-1   -1.903653179624626E-1
 8.117320793400000E9     5.037507523602968E-1   -4.246352041181655E-2    1.173839625745603E-3    4.065426241683392E-3    1.252158220568120E-3    4.128600125482813E-3    4.093343914357525E-1   -1.904699005007999E-1
 8.117322876800000E9     5.037281605203641E-1   -4.254149762406906E-2    1.198020501424803E-3    4.077751721709809E-3    1.235285764071592E-3    4.163891609557984E-3    4.093435696478527E-1   -1.905549047402271E-1
 8.117324960200000E9     5.037739755700119E-1   -4.284381013031405E-2    1.160809993581532E-3    4.071530753513859E-3    1.213926295900008E-3    4.150607593065797E-3    4.092873207811538E-1   -1.907129050458420E-1
 8.117327043600000E9     5.037110029182550E-1   -4.301204098662490E-2    1.185871681776415E-3    4.086511398056731E-3    1.219717654574611E-3    4.124923246693811E-3    4.093212484440900E-1   -1.909109857447454E-1
 8.117329127000000E9     5.036750423623099E-1   -4.314267448702219E-2    1.176188065727626E-3    4.072386793757862E-3    1.214312649476298E-3    4.148310810629982E-3    4.090494745733954E-1   -1.911245948893397E-1
 8.117331210400000E9     5.037038772885312E-1   -4.340100973750234E-2    1.188912976103738E-3    4.091608379440377E-3    1.254748472199130E-3    4.121354863861746E-3    4.091360177207102E-1   -1.913341352271403E-1
 8.117333293800000E9     5.036893985521624E-1   -4.352325834027558E-2    1.210496790015258E-3    4.075706730471305E-3    1.229919527026590E-3    4.173308224411475E-3    4.089403161744087E-1   -1.911878758225728E-1
 8.117335377200000E9     5.036011767794121E-1   -4.390469862565477E-2    1.205052318307449E-3    4.105493723878791E-3    1.278836477416957E-3    4.147095279325780E-3    4.088691964903672E-1   -1.915707921538084E-1
 8.117337460600000E9     5.035760337717425E-1   -4.389327685148046E-2    1.188548697005432E-3    4.106505889331488E-3    1.252311905425295E-3    4.144482636629641E-3    4.088978738495103E-1   -1.916942902975423E-1
 8.117339544000000E9     5.035564972573426E-1   -4.410257949576815E-2    1.187541421641559E-3    4.097124405501650E-3    1.275172293324132E-3    4.205672322554562E-3    4.088392179831595E-1   -1.917517640511737E-1
 8.117341627400000E9     5.035694497340262E-1   -4.420702354741098E-2    1.188904445717096E-3    4.111211462650244E-3    1.272955166103223E-3    4.180287484633934E-3    4.088042379839670E-1   -1.919707688023736E-1
 8.117343710800000E9     5.034754027131454E-1   -4.445723777747119E-2    1.229438829590542E-3    4.110413578073087E-3    1.266982830790616E-3    4.181965673818894E-3    4.087685249671531E-1   -1.921012503861599E-1
 8.117345794200000E9     5.035719951791385E-1   -4.466688528672966E-2    1.218868413605831E-3    4.129710345980451E-3    1.302393177782837E-3    4.209156747902257E-3    4.087667973200739E-1   -1.920862872957785E-1
 8.117347877600000E9     5.034179997988613E-1   -4.479245720113213E-2    1.245552249116174E-3    4.140195428469114E-3    1.278198751155280E-3    4.186370130412320E-3    4.086700609338059E-1   -1.922573816784162E-1
 8.117349961000000E9     5.035317889267181E-1   -4.517948353462971E-2    1.195461183109937E-3    4.148170315334629E-3    1.278625161920002E-3    4.175663612101516E-3    4.085957448492058E-1   -1.924424189955165E-1
 8.117352044400000E9     5.032979814276931E-1   -4.535819555437870E-2    1.227527200953908E-3    4.132055694798128E-3    1.304956286936166E-3    4.192222350043427E-3    4.085638468153559E-1   -1.926099335933361E-1
 8.117354127800000E9     5.034128179665668E-1   -4.535200777094617E-2    1.234357942961658E-3    4.119961411562365E-3    1.290355421000618E-3    4.206020909027389E-3    4.085251812296922E-1   -1.927865155933708E-1
 8.117356211200000E9     5.034060302690903E-1   -4.557207956284893E-2    1.233945477098513E-3    4.161221050796004E-3    1.309817329559122E-3    4.227589059382076E-3    4.083702747286320E-1   -1.928154155310892E-1
 8.117358294600000E9     5.034239550925745E-1   -4.580911429063184E-2    1.228018573493305E-3    4.171987192144209E-3    1.315598376419693E-3    4.213804264437070E-3    4.084243819045048E-1   -1.929818080110982E-1
 8.117360378000000E9     5.032755065054227E-1   -4.589671553808067E-2    1.234885920574090E-3    4.159293989419445E-3    1.284509868747759E-3    4.222773551056226E-3    4.083820481945040E-1   -1.931097265735272E-1
 8.117362461400000E9     5.033344616042880E-1   -4.609974934871896E-2    1.225572968494787E-3    4.163800663353893E-3    1.336834556267100E-3    4.193190880841722E-3    4.082257608872109E-1   -1.932799609789695E-1
 8.117364544800000E9     5.032883407318723E-1   -4.624036999088873E-2    1.262261218800931E-3    4.150628719983068E-3    1.328357684380814E-3    4.231676763698427E-3    4.082239786152034E-1   -1.933438749672174E-1
 8.117366628200000E9     5.032324828552210E-1   -4.649897892596513E-2    1.233536266891014E-3    4.175375925534760E-3    1.328026681299405E-3    4.229087912897236E-3    4.081146673307223E-1   -1.935360299089619E-1
 8.117368711600000E9     5.032169776165837E-1   -4.672910956360370E-2    1.274157877989925E-3    4.186593155633024E-3    1.326865250105440E-3    4.256283974920650E-3    4.081027295966950E-1   -1.935648240169014E-1
 8.117370795000000E9     5.032232972958415E-1   -4.688026602801799E-2    1.276537293146987E-3    4.180838310605224E-3    1.354554189536338E-3    4.280021587200721E-3    4.079129103204714E-1   -1.937411692615450E-1
 8.117372878400000E9     5.032064966759933E-1   -4.698485128428976E-2    1.265402608072450E-3    4.181438053104039E-3    1.320294945216987E-3    4.238420694282965E-3    4.079375223582959E-1   -1.938372697300791E-1
 8.117374961800000E9     5.031764931107312E-1   -4.730051201002561E-2    1.255982023763594E-3    4.205454418792665E-3    1.349927567260907E-3    4.273282360291091E-3    4.080062037968428E-1   -1.939501837330667E-1
 8.117377045200000E9     5.031234301022451E-1   -4.738929219127221E-2    1.254295260681923E-3    4.211738587015397E-3    1.367463694396947E-3    4.224523128121408E-3    4.080122334506274E-1   -1.941771237759378E-1
 8.117379128600000E9     5.032284607928019E-1   -4.757527958592472E-2    1.288681990295727E-3    4.218243938931539E-3    1.357684275686385E-3    4.281047595097480E-3    4.076472372120312E-1   -1.943098695323506E-1
 8.117381212000000E9     5.030744427648627E-1   -4.770970782229154E-2    1.289922407890211E-3    4.215636548482886E-3    1.359641276634200E-3    4.273786132248119E-3    4.077521640706044E-1   -1.943968380384272E-1
 8.117383295400000E9     5.029306571826911E-1   -4.796378852209742E-2    1.290572859780050E-3    4.217530791476785E-3    1.340386599692763E-3    4.237004756747488E-3    4.075685699993100E-1   -1.945267026720234E-1
 8.117385378800000E9     5.030426204831330E-1   -4.818132945953971E-2    1.290917966783144E-3    4.219484875662432E-3    1.328116608032363E-3    4.282390690360197E-3    4.076751547885361E-1   -1.946902239898149E-1
 8.117387462200000E9     5.029150958601899E-1   -4.829404434937602E-2    1.329593547596078E-3    4.236325920393057E-3    1.350680304758947E-3    4.292832157932653E-3    4.075456554694750E-1   -1.948496330682670E-1
 8.117389545600000E9     5.029008053168538E-1   -4.863678610527417E-2    1.294931358014690E-3    4.234469066140864E-3    1.364440792828313E-3    4.285807108277796E-3    4.074570664830946E-1   -1.949335588086417E-1
 8.117391629000000E9     5.029931648086436E-1   -4.873325365949986E-2    1.328990021221747E-3    4.226388274436443E-3    1.352438534493221E-3    4.305992447465471E-3    4.075382568446141E-1   -1.951083120693437E-1
 8.117393712400000E9     5.030050912676125E-1   -4.884302223024819E-2    1.305704986397500E-3    4.228942893493330E-3    1.392552543407609E-3    4.329474941770824E-3    4.074571090699071E-1   -1.953393817126952E-1
 8.117395795800000E9     5.028472552635631E-1   -4.893006353917300E-2    1.306078377862529E-3    4.252760893126627E-3    1.430746477497678E-3    4.334872782974179E-3    4.072905678030726E-1   -1.953935256065438E-1
 8.117397879200000E9     5.029354365802028E-1   -4.934043986613578E-2    1.316346002354119E-3    4.258244774327598E-3    1.377194983120239E-3    4.342044602220396E-3    4.072502044496846E-1   -1.954502513927635E-1
 8.117399962600000E9     5.028009213098166E-1   -4.944383151016316E-2    1.313682382599619E-3    4.260639132819027E-3    1.423188203424669E-3    4.302359797550007E-3    4.072302231334193E-1   -1.956848639346811E-1
 8.117402046000000E9     5.028050038403004E-1   -4.954719276550405E-2    1.328678536821487E-3    4.263699998239087E-3    1.407680359474095E-3    4.352952846832256E-3    4.072149086960232E-1   -1.957251177218799E-1
 8.117404129400000E9     5.028107060980378E-1   -4.986166383720803E-2    1.343546285794631E-3    4.269259307621533E-3    1.392895635287899E-3    4.354582848364352E-3    4.070587681930378E-1   -1.959727556632265E-1
 8.117406212800000E9     5.026756266566275E-1   -5.003375490597269E-2    1.348894838880211E-3    4.302853432143351E-3    1.402195645669797E-3    4.345958080716101E-3    4.070907988364911E-1   -1.960696766219428E-1
 8.117408296200000E9     5.026796136489825E-1   -5.018955882229150E-2    1.361722990273534E-3    4.280712167606517E-3    1.402412866054853E-3    4.345809410331875E-3    4.069383656802449E-1   -1.962063185438805E-1
 8.117410379600000E9     5.027540011434719E-1   -5.040265458133374E-2    1.339661477539574E-3    4.314149665626260E-3    1.394893588929223E-3    4.344686468102738E-3    4.069260738542090E-1   -1.963699516073364E-1
 8.117412463000000E9     5.027358182488438E-1   -5.063555267563406E-2    1.318015053261787E-3    4.309280058768125E-3    1.378591701596754E-3    4.387008862941194E-3    4.067755162801704E-1   -1.963929286083378E-1
 8.117414546400000E9     5.026361937053174E-1   -5.078038381785170E-2    1.388704766553080E-3    4.329916390118758E-3    1.434721003156280E-3    4.335920843942596E-3    4.068779117300081E-1   -1.965406802894173E-1
 8.117416629800000E9     5.026512035153232E-1   -5.089782188996982E-2    1.335611715632584E-3    4.333172371130851E-3    1.440268520994790E-3    4.405210179588060E-3    4.068031229386878E-1   -1.967152644097159E-1
 8.117418713200000E9     5.024980463311497E-1   -5.114062819110873E-2    1.360912914726040E-3    4.318006887009919E-3    1.436451117425936E-3    4.433848730930981E-3    4.067938013926974E-1   -1.968853975873627E-1
 8.117420796600000E9     5.025537312192643E-1   -5.138099907332637E-2    1.374926255019514E-3    4.347447045825124E-3    1.460187101240322E-3    4.390275208710487E-3    4.066409909704919E-1   -1.968690014540177E-1
 8.117422880000000E9     5.025167895811607E-1   -5.149453572795069E-2    1.393261153309481E-3    4.334251334973224E-3    1.442999951483911E-3    4.429581770680762E-3    4.064838038415881E-1   -1.970446757020003E-1
 8.117424963400000E9     5.024815449842895E-1   -5.176668578993957E-2    1.383364789422984E-3    4.360227853564724E-3    1.436633484149615E-3    4.417147537356235E-3    4.064727999982348E-1   -1.974638682955382E-1
 8.117427046800000E9     5.025317465238086E-1   -5.196006557097369E-2    1.374200072703828E-3    4.368149738708134E-3    1.482959159157899E-3    4.380796066201557E-3    4.065686602871052E-1   -1.975005049157392E-1
 8.117429130200000E9     5.024680541786759E-1   -5.215270139525952E-2    1.433387332362566E-3    4.357976340855186E-3    1.442506854282024E-3    4.425170467064646E-3    4.064524783522630E-1   -1.975251480550170E-1
 8.117431213600000E9     5.022734769460314E-1   -5.225162165827718E-2    1.414490891900135E-3    4.375794684220129E-3    1.491433975826654E-3    4.426674965344823E-3    4.063364725331775E-1   -1.977656221663854E-1
 8.117433297000000E9     5.022787632813321E-1   -5.248554659290679E-2    1.405210788137287E-3    4.398039113173563E-3    1.464808375700349E-3    4.432737081132944E-3    4.063179780415133E-1   -1.977668051964409E-1
 8.117435380400000E9     5.023679745929209E-1   -5.271234472329622E-2    1.383669737766633E-3    4.353757506692327E-3    1.497264817783050E-3    4.433277206882288E-3    4.060752858264582E-1   -1.978914138580934E-1
 8.117437463800000E9     5.022644862540051E-1   -5.291524061155970E-2    1.394936978165915E-3    4.400475170091229E-3    1.469645474350798E-3    4.469395423750466E-3    4.062119655908165E-1   -1.981104336297823E-1
 8.117439547200000E9     5.023091257059989E-1   -5.298396750596632E-2    1.423394440120072E-3    4.416211817174521E-3    1.467471304175706E-3    4.458616079044478E-3    4.061019362054318E-1   -1.983908568439318E-1
 8.117441630600000E9     5.022462325826614E-1   -5.322997081097418E-2    1.418207626425968E-3    4.434085462080323E-3    1.526437726368802E-3    4.468642204427228E-3    4.058147835322174E-1   -1.984091599030536E-1
 8.117443714000000E9     5.021391494311614E-1   -5.343390460139538E-2    1.439102611890846E-3    4.436850304042227E-3    1.526804453685666E-3    4.449878026457584E-3    4.060501675368876E-1   -1.985075013254019E-1
 8.117445797400000E9     5.021579530198316E-1   -5.362450638253957E-2    1.428014893491945E-3    4.399721293316662E-3    1.532244102849969E-3    4.471839711267506E-3    4.059398375395333E-1   -1.986528047041575E-1
 8.117447880800000E9     5.021362101773263E-1   -5.376404626472193E-2    1.461939016619736E-3    4.463698320451414E-3    1.558981866992198E-3    4.521617939922371E-3    4.059284783775430E-1   -1.985617666270390E-1
 8.117449964200000E9     5.021207778446208E-1   -5.407347098187647E-2    1.456556416544781E-3    4.453645725257400E-3    1.518047097310973E-3    4.478712921435971E-3    4.057493580619178E-1   -1.990222669604786E-1
 8.117452047600000E9     5.020894581688073E-1   -5.421765172586425E-2    1.451364043439503E-3    4.437809302552015E-3    1.530599206461808E-3    4.462450924100228E-3    4.058436735452262E-1   -1.991572598708101E-1
 8.117454131000000E9     5.020050213526408E-1   -5.444676254324345E-2    1.461991417933768E-3    4.457801269702944E-3    1.526165947640026E-3    4.516054125296088E-3    4.057284504451530E-1   -1.991653632392724E-1
 8.117456214400000E9     5.018347822015756E-1   -5.461392521224909E-2    1.506262391276576E-3    4.463843522500336E-3    1.560307444084646E-3    4.537579036124724E-3    4.055949544509503E-1   -1.992433302729036E-1
 8.117458297800000E9     5.020146050925002E-1   -5.478987945717709E-2    1.475442743749511E-3    4.477909780426083E-3    1.565751472894755E-3    4.535079449511368E-3    4.056448137371174E-1   -1.995212332390177E-1
 8.117460381200000E9     5.019224690726816E-1   -5.510107931458949E-2    1.487701392172299E-3    4.479708255640527E-3    1.533893506653730E-3    4.546270968903835E-3    4.055775986282196E-1   -1.995768763542521E-1
 8.117462464600000E9     5.018555856104541E-1   -5.520449501606455E-2    1.495286205572108E-3    4.528024865952216E-3    1.570376028290740E-3    4.554510210560296E-3    4.053540323553025E-1   -1.996095388700876E-1
 8.117464548000000E9     5.018164549947517E-1   -5.552263611161596E-2    1.504364323985476E-3    4.503766040513999E-3    1.550832183018869E-3    4.571317011378617E-3    4.054399932154357E-1   -1.998254292294922E-1
 8.117466631400000E9     5.018193626865739E-1   -5.556654496913468E-2    1.518952607986325E-3    4.510203216870534E-3    1.586223794043490E-3    4.590265250416643E-3    4.052646469540592E-1   -2.000290933816024E-1
 8.117468714800000E9     5.017502633692279E-1   -5.583973699764185E-2    1.516728481124716E-3    4.513299079952023E-3    1.588560205831445E-3    4.557048648259516E-3    4.052705340152880E-1   -2.000072555824178E-1
 8.117470798200000E9     5.016913765657779E-1   -5.588777516446065E-2    1.536532374332856E-3    4.526524157397014E-3    1.598775893095457E-3    4.580429706564367E-3    4.050965311426064E-1   -2.002547513461825E-1
 8.117472881600000E9     5.016524274907979E-1   -5.620930910458884E-2    1.538151724197532E-3    4.536383693834370E-3    1.640626948553256E-3    4.583787719300761E-3    4.052348829766547E-1   -2.003398872410504E-1
 8.117474965000000E9     5.016730580880713E-1   -5.646347555916542E-2    1.558431287565778E-3    4.587326884344402E-3    1.612960174733313E-3    4.625491014873720E-3    4.050228089446998E-1   -2.004789703483235E-1
 8.117477048400000E9     5.015868413950959E-1   -5.663903333851784E-2    1.562953629552814E-3    4.550044417251066E-3    1.626319602689037E-3    4.662235578974484E-3    4.050314931594247E-1   -2.007341757544768E-1
 8.117479131800000E9     5.016009494083326E-1   -5.683901523493438E-2    1.554825954793232E-3    4.577887105323275E-3    1.621309819727404E-3    4.657898307694975E-3    4.049764935352730E-1   -2.007694261641388E-1
 8.117481215200000E9     5.015129895688829E-1   -5.703847612664158E-2    1.562635726225873E-3    4.555426208044705E-3    1.643862611672877E-3    4.634178925939545E-3    4.049818877587305E-1   -2.007575852775950E-1
 8.117483298600000E9     5.015210147790015E-1   -5.719623166324944E-2    1.553704526004394E-3    4.579506508335759E-3    1.640510793500793E-3    4.684545458406437E-3    4.047312291823634E-1   -2.010685422836620E-1
 8.117485382000000E9     5.014020775850722E-1   -5.752700027903613E-2    1.588355983010427E-3    4.620188209937081E-3    1.672126059289256E-3    4.669167200531940E-3    4.048198392282541E-1   -2.011135435048847E-1
 8.117487465400000E9     5.013683226119381E-1   -5.776026674373926E-2    1.581199796297949E-3    4.613984170345711E-3    1.694333916323911E-3    4.695739191088360E-3    4.047826921634806E-1   -2.013681123645074E-1
 8.117489548800000E9     5.012359337026899E-1   -5.786650444740538E-2    1.613131045502393E-3    4.621161043416328E-3    1.687521748342323E-3    4.706754177874002E-3    4.046886516354933E-1   -2.016039459891530E-1
 8.117491632200000E9     5.011849240446971E-1   -5.808316703510156E-2    1.623415718253548E-3    4.649469770701247E-3    1.662317626914668E-3    4.707105162633036E-3    4.046749345122918E-1   -2.015076162556794E-1
 8.117493715600000E9     5.013433747744317E-1   -5.831048616757260E-2    1.613453233804452E-3    4.646608798232791E-3    1.692542241059741E-3    4.753291947119063E-3    4.045316364328022E-1   -2.016131511578816E-1
 8.117495799000000E9     5.011405550059506E-1   -5.850486149151470E-2    1.619949566609293E-3    4.676378105693111E-3    1.705626073334466E-3    4.708540154929850E-3    4.045290315467365E-1   -2.020068945861360E-1
 8.117497882400000E9     5.010854666075255E-1   -5.874156628391932E-2    1.627776316735952E-3    4.674629208859651E-3    1.707707258519142E-3    4.760702449022225E-3    4.043546012752106E-1   -2.019080706485587E-1
 8.117499965800000E9     5.010625135163905E-1   -5.895389493502710E-2    1.647609399252012E-3    4.686224567812276E-3    1.702489715013494E-3    4.729636478893672E-3    4.043256698051302E-1   -2.021974598043298E-1
 8.117502049200000E9     5.010144144240045E-1   -5.925233229193193E-2    1.647655287414446E-3    4.670570848511281E-3    1.733405610358305E-3    4.755378464986824E-3    4.042302846593739E-1   -2.021262954660802E-1
 8.117504132600000E9     5.010401547508103E-1   -5.936532079674768E-2    1.656801801710020E-3    4.697814828989975E-3    1.721586916576125E-3    4.817267813170378E-3    4.043022282681274E-1   -2.023937535081044E-1
 8.117506216000000E9     5.009392952855680E-1   -5.974042495628581E-2    1.666507859310109E-3    4.704357858446405E-3    1.775947738024201E-3    4.796049593218101E-3    4.042796214303221E-1   -2.025498058892312E-1
