#  HZ   S   RI   R     50.00 
! Rohde & Schwarz Vector Network Analyzer 
! Rohde-Schwarz,ZNB20-2Port,1311601062101988,3.16
! Created: UTC 12/23/2023, 3:43:11 AM
! freq[Hz]                re:S11                  im:S11                  re:S21                  im:S21                  re:S12                  im:S12                  re:S22                  im:S22
 7.837231973000000E9     5.661213566731668E-1    1.987216601534894E-2    1.349963014013446E-3    3.737684533203574E-3    1.346909464527363E-3    3.693015381570046E-3    4.586104928530750E-1   -2.841997747980690E-1
 7.837264480650000E9     5.660973302221882E-1    1.793804686563554E-2    1.344792052535354E-3    3.746905213142590E-3    1.339975655176989E-3    3.647708843649912E-3    4.575827864033158E-1   -2.862077615738440E-1
 7.837296988300000E9     5.661849049527258E-1    1.571900048008005E-2    1.388753699319163E-3    3.749928541492541E-3    1.400173531910822E-3    3.680232246762164E-3    4.563298574025816E-1   -2.880152297680384E-1
 7.837329495950000E9     5.663736666250730E-1    1.351217261506055E-2    1.383896479184030E-3    3.734270095822873E-3    1.401957794084784E-3    3.699265946362269E-3    4.551719614481267E-1   -2.899275123644290E-1
 7.837362003600000E9     5.664885271823593E-1    1.130135112398179E-2    1.432688086673119E-3    3.730019355359760E-3    1.400461819830211E-3    3.653726205146434E-3    4.539002671634970E-1   -2.918564148613614E-1
 7.837394511250000E9     5.664549501221459E-1    9.281969591361555E-3    1.455934820216085E-3    3.751259340548404E-3    1.458941976946533E-3    3.703421085189186E-3    4.528063561070457E-1   -2.938461097645297E-1
 7.837427018900000E9     5.665940330922306E-1    7.120004025908579E-3    1.433293791474414E-3    3.759239792452224E-3    1.445899746809062E-3    3.664131347986637E-3    4.515703355795042E-1   -2.956603911675617E-1
 7.837459526550000E9     5.665396190164111E-1    4.944165861441485E-3    1.438151828632257E-3    3.731914378299547E-3    1.447342867641319E-3    3.695305387971412E-3    4.501832871268009E-1   -2.976041916154432E-1
 7.837492034200000E9     5.665506023221218E-1    2.735296229833507E-3    1.477073068578052E-3    3.749156240513014E-3    1.483443339078340E-3    3.616759678148841E-3    4.489968219634988E-1   -2.996225065797237E-1
 7.837524541850000E9     5.664974475742119E-1    5.769240320230022E-4    1.499295027674676E-3    3.733588355892407E-3    1.487788248434967E-3    3.660189498397960E-3    4.476720259274179E-1   -3.015236861037860E-1
 7.837557049500000E9     5.667159433224802E-1   -1.632796423308719E-3    1.515125207740373E-3    3.731167479221630E-3    1.514358699410058E-3    3.701445327484609E-3    4.465540726342109E-1   -3.034121676738145E-1
 7.837589557150000E9     5.665800063062065E-1   -3.701881905620327E-3    1.527842705901849E-3    3.742382973630963E-3    1.509966926336440E-3    3.671636169913895E-3    4.452505509424636E-1   -3.051949609147828E-1
 7.837622064800000E9     5.666620435588389E-1   -5.875316019647269E-3    1.549566126450410E-3    3.742327978688173E-3    1.591842179654385E-3    3.641239771262943E-3    4.439450279657118E-1   -3.070058497670645E-1
 7.837654572450000E9     5.665831571654193E-1   -7.944652351554849E-3    1.567676652337526E-3    3.741978862319135E-3    1.577783283886768E-3    3.695976868692127E-3    4.425518107126567E-1   -3.089827188292831E-1
 7.837687080100000E9     5.665404844791394E-1   -1.017633733102897E-2    1.608655186807521E-3    3.709831277529180E-3    1.605825000502903E-3    3.692561676058252E-3    4.413476538762832E-1   -3.108138320118179E-1
 7.837719587750000E9     5.663871255248016E-1   -1.233590090445440E-2    1.582002432850333E-3    3.715171300160424E-3    1.592556066229441E-3    3.691415197811409E-3    4.399911948310768E-1   -3.128599608009229E-1
 7.837752095400000E9     5.665500329925459E-1   -1.445989178971920E-2    1.619175925405539E-3    3.724291108912474E-3    1.630226109359849E-3    3.658809297728302E-3    4.387131143331305E-1   -3.147071489480890E-1
 7.837784603050000E9     5.664410076221352E-1   -1.675172772586454E-2    1.619971425139962E-3    3.712538133465235E-3    1.647519650639819E-3    3.651123855177235E-3    4.374255691618433E-1   -3.165010311738981E-1
 7.837817110700000E9     5.663971721632800E-1   -1.879915883404670E-2    1.662068637974553E-3    3.728032240186939E-3    1.641574590086450E-3    3.635443364831917E-3    4.361731827783394E-1   -3.181749685226887E-1
 7.837849618350000E9     5.662679077248118E-1   -2.105133209474823E-2    1.699032425820948E-3    3.717971017952692E-3    1.684249708286939E-3    3.640377253545800E-3    4.348315376032825E-1   -3.202247363965373E-1
 7.837882126000000E9     5.663569936300256E-1   -2.323663091601351E-2    1.710673083820316E-3    3.709817066034652E-3    1.721086435001841E-3    3.661687136025113E-3    4.333901551309076E-1   -3.220371644808446E-1
 7.837914633650000E9     5.660991697782483E-1   -2.542542516930068E-2    1.708649812898731E-3    3.725231000662471E-3    1.706038358947975E-3    3.687091916736964E-3    4.321003792305256E-1   -3.238452306036304E-1
 7.837947141300000E9     5.659061867968714E-1   -2.767707023596698E-2    1.753089139422925E-3    3.716225270068512E-3    1.737118241595801E-3    3.639804262068643E-3    4.307976058682621E-1   -3.256494627001690E-1
 7.837979648950000E9     5.660249669318560E-1   -2.962938342759803E-2    1.778168106547584E-3    3.743897247133382E-3    1.736169045796510E-3    3.662032140902566E-3    4.293078178517429E-1   -3.274569327907848E-1
 7.838012156600000E9     5.658433738585651E-1   -3.196475687334813E-2    1.783297573147803E-3    3.705313586348838E-3    1.767062999044153E-3    3.668626155238370E-3    4.279885063658070E-1   -3.293139412674566E-1
 7.838044664250000E9     5.658088537473112E-1   -3.399450179682203E-2    1.791188299085083E-3    3.710042305221185E-3    1.786923508174906E-3    3.632056222463932E-3    4.265890837553398E-1   -3.310778996963586E-1
 7.838077171900000E9     5.657011161683563E-1   -3.621937660854339E-2    1.823911667562241E-3    3.693399085585821E-3    1.820840594517323E-3    3.633561630927800E-3    4.251930911975630E-1   -3.330195910569018E-1
 7.838109679550000E9     5.655203550564663E-1   -3.830719232623425E-2    1.834921591531014E-3    3.699914650782813E-3    1.835884683540196E-3    3.670217426792390E-3    4.237827391506402E-1   -3.345579549324829E-1
 7.838142187200000E9     5.653577994319471E-1   -4.046619267233578E-2    1.859580360552734E-3    3.691010540744287E-3    1.846911391222565E-3    3.643727858533425E-3    4.223860887489769E-1   -3.365420208530753E-1
 7.838174694850000E9     5.653001847232954E-1   -4.270221739367133E-2    1.871924751020210E-3    3.719887290338639E-3    1.873374819745470E-3    3.654510180985429E-3    4.209151772301277E-1   -3.382492198651300E-1
 7.838207202500000E9     5.650782156109162E-1   -4.481185374925889E-2    1.893328611269684E-3    3.710520585743655E-3    1.884419286650457E-3    3.661410101918265E-3    4.193458366809176E-1   -3.401111373942179E-1
 7.838239710150000E9     5.649317833369871E-1   -4.694964703465023E-2    1.903124634873320E-3    3.708637166824462E-3    1.888664403791184E-3    3.677735696947360E-3    4.182443287266699E-1   -3.416657535655694E-1
 7.838272217800000E9     5.648275792756652E-1   -4.903562838099067E-2    1.924936923875601E-3    3.707305171983855E-3    1.944854887834014E-3    3.658714330024422E-3    4.166744264052985E-1   -3.435660688029391E-1
 7.838304725450000E9     5.645252222380102E-1   -5.129540992226165E-2    1.964523344217044E-3    3.684944085774698E-3    1.971710478629606E-3    3.654280984635679E-3    4.152743850046414E-1   -3.453472381123111E-1
 7.838337233100000E9     5.642847384105952E-1   -5.343101583212551E-2    1.975803719067847E-3    3.695041942844006E-3    1.959053962441655E-3    3.638480191861745E-3    4.138313055662979E-1   -3.470275020580100E-1
 7.838369740750000E9     5.641124711537616E-1   -5.563440921024970E-2    2.014229847183270E-3    3.700973404921521E-3    1.959097812579513E-3    3.645840115677575E-3    4.123514285657754E-1   -3.488979644997524E-1
 7.838402248400000E9     5.638427987386930E-1   -5.768912901524619E-2    2.013455455263013E-3    3.692042694515579E-3    2.036463291919451E-3    3.623115767834062E-3    4.107833944791469E-1   -3.505667104101827E-1
 7.838434756050000E9     5.637480612907901E-1   -5.980926324677770E-2    2.053492230708672E-3    3.694340072397714E-3    2.031881477661509E-3    3.627201127362420E-3    4.094291290950021E-1   -3.523432698579447E-1
 7.838467263700000E9     5.635074998222939E-1   -6.219472569440820E-2    2.063548852935633E-3    3.688344024217842E-3    2.076367656206279E-3    3.639472076588786E-3    4.078264204964732E-1   -3.540638479160936E-1
 7.838499771350000E9     5.630741038205899E-1   -6.424562334092682E-2    2.075845149154260E-3    3.685033925766469E-3    2.065938994804521E-3    3.662692967012122E-3    4.064133482189656E-1   -3.558450959797521E-1
 7.838532279000000E9     5.630558576746614E-1   -6.652043933960114E-2    2.084175363133108E-3    3.723885229422570E-3    2.103901734310674E-3    3.646897681843415E-3    4.049786509487815E-1   -3.574514931664506E-1
 7.838564786650000E9     5.627144004310646E-1   -6.859832791806167E-2    2.121269327068445E-3    3.699539689470091E-3    2.122420025903886E-3    3.650209146810907E-3    4.033975581966705E-1   -3.592420811717131E-1
 7.838597294300000E9     5.624522938676538E-1   -7.064003253276847E-2    2.162161399062389E-3    3.702590909060110E-3    2.173835119726812E-3    3.614305075224555E-3    4.020258150960241E-1   -3.609231583610987E-1
 7.838629801950000E9     5.622156884306246E-1   -7.289771304958693E-2    2.180407154500351E-3    3.692746562975130E-3    2.164560558253060E-3    3.630872931850861E-3    4.004120920885901E-1   -3.626381540855203E-1
 7.838662309600000E9     5.620186494790704E-1   -7.518676867008493E-2    2.176839709527812E-3    3.681551084940022E-3    2.208646452517261E-3    3.629732608448561E-3    3.988623928814222E-1   -3.643837850730782E-1
 7.838694817250000E9     5.616279292252203E-1   -7.730743105904470E-2    2.213655344458398E-3    3.673707985464907E-3    2.186465202100000E-3    3.574826814947444E-3    3.973325284771746E-1   -3.660905066907901E-1
 7.838727324900000E9     5.613271521653644E-1   -7.941630199825446E-2    2.219114963923689E-3    3.677394044189318E-3    2.227386323889651E-3    3.620153439115063E-3    3.957145101658295E-1   -3.677872462224487E-1
 7.838759832550000E9     5.611350418764810E-1   -8.145740683356401E-2    2.248470625893902E-3    3.693366687000526E-3    2.224865866595913E-3    3.621422770206504E-3    3.941591587948003E-1   -3.695651527147333E-1
 7.838792340200000E9     5.606535875841109E-1   -8.358259299245820E-2    2.284674734735835E-3    3.664428344100100E-3    2.277113202584608E-3    3.594959869975339E-3    3.927432170081933E-1   -3.710451900191178E-1
 7.838824847850000E9     5.604698703522896E-1   -8.569830328511002E-2    2.285244653208847E-3    3.667477697938441E-3    2.274693827095618E-3    3.587926114522886E-3    3.911154763363607E-1   -3.728529510253931E-1
 7.838857355500000E9     5.601077746467217E-1   -8.806300128161848E-2    2.323364999746622E-3    3.691427071902168E-3    2.309192453353058E-3    3.617809926050836E-3    3.896625867019293E-1   -3.743661957146037E-1
 7.838889863150000E9     5.597806394715859E-1   -9.015727607277765E-2    2.328804922123288E-3    3.681313397397915E-3    2.333226421263674E-3    3.627925338343740E-3    3.878653687946207E-1   -3.759253396085032E-1
 7.838922370800000E9     5.594807179058103E-1   -9.236413708060187E-2    2.388244023970799E-3    3.653554733053939E-3    2.314420204264201E-3    3.612568641540595E-3    3.863773736991934E-1   -3.777573703286842E-1
 7.838954878450000E9     5.591093484377750E-1   -9.441315266062597E-2    2.373499111266875E-3    3.663031670606144E-3    2.366499766972985E-3    3.616730238072619E-3    3.847489140230863E-1   -3.793388692114955E-1
 7.838987386100000E9     5.587092645833144E-1   -9.652353082284722E-2    2.392596385952970E-3    3.690781399424384E-3    2.413413161053037E-3    3.622974851581966E-3    3.832069556019490E-1   -3.808889360217811E-1
 7.839019893750000E9     5.584002903316170E-1   -9.868112147432213E-2    2.431668069283124E-3    3.645080049752758E-3    2.433429436950601E-3    3.609428026433263E-3    3.816404791476780E-1   -3.825402284682485E-1
 7.839052401400000E9     5.581119448103548E-1   -1.007925036080910E-1    2.460883248058589E-3    3.650001057359785E-3    2.450290745213962E-3    3.592334718479957E-3    3.800480700573590E-1   -3.842799727761083E-1
 7.839084909050000E9     5.576302530029537E-1   -1.029204023391087E-1    2.480347220438867E-3    3.631431269977048E-3    2.431456902603497E-3    3.616125634884569E-3    3.782978983279877E-1   -3.858344064143195E-1
 7.839117416700000E9     5.570523021509061E-1   -1.051682711004720E-1    2.530641078226360E-3    3.639445475383876E-3    2.519514388127935E-3    3.624411290423157E-3    3.769160214349425E-1   -3.873462973625956E-1
 7.839149924350000E9     5.565619113947378E-1   -1.073780616824654E-1    2.525615523503463E-3    3.641012895050602E-3    2.486426064562510E-3    3.615428150063744E-3    3.750683189719743E-1   -3.888829164154013E-1
 7.839182432000000E9     5.562667820740648E-1   -1.094572585250941E-1    2.545880639537842E-3    3.676169655841783E-3    2.504097204952593E-3    3.594896545412484E-3    3.736234654662248E-1   -3.906390875394821E-1
 7.839214939650000E9     5.559716023599325E-1   -1.113676340469956E-1    2.539098231637333E-3    3.674819686339115E-3    2.548665674732478E-3    3.596637867902886E-3    3.717911148948114E-1   -3.921523333101261E-1
 7.839247447300000E9     5.554357994102052E-1   -1.136365635242182E-1    2.597718272736918E-3    3.620233927681518E-3    2.558861680296603E-3    3.605379188229516E-3    3.701745633233602E-1   -3.937531256531912E-1
 7.839279954950000E9     5.551528248537364E-1   -1.156853421367996E-1    2.600275542792108E-3    3.649557335343770E-3    2.560036339828050E-3    3.597246860787250E-3    3.684911138307654E-1   -3.953257008855640E-1
 7.839312462600000E9     5.545678700189050E-1   -1.179502148574056E-1    2.633178976261077E-3    3.660534617689222E-3    2.608782686631092E-3    3.577365856991591E-3    3.667773602244366E-1   -3.970182489734522E-1
 7.839344970250000E9     5.542649587488855E-1   -1.200550505523561E-1    2.668185162791002E-3    3.615036413816451E-3    2.635950203099815E-3    3.618133079298962E-3    3.652725720103551E-1   -3.984447807838211E-1
 7.839377477900000E9     5.537267237987239E-1   -1.221354479877888E-1    2.705928535759887E-3    3.605323560710574E-3    2.647565511622350E-3    3.588934294969112E-3    3.633039399569124E-1   -3.999376319848212E-1
 7.839409985550000E9     5.531728012011785E-1   -1.242596281005614E-1    2.729676208276129E-3    3.636259077755387E-3    2.684881572467199E-3    3.582894541528018E-3    3.617984525733463E-1   -4.015167766035788E-1
 7.839442493200000E9     5.528038975964287E-1   -1.265580094875467E-1    2.756620443337106E-3    3.611077447695880E-3    2.710109973112459E-3    3.597119817685798E-3    3.601674518071047E-1   -4.029261478687825E-1
 7.839475000850000E9     5.521814819826725E-1   -1.284711443551816E-1    2.783185097997879E-3    3.616851160918942E-3    2.766378779936852E-3    3.572144046560414E-3    3.584445390433320E-1   -4.046773558927803E-1
 7.839507508500000E9     5.517196593894664E-1   -1.305980033124174E-1    2.801435516028410E-3    3.618502357916665E-3    2.757220852654193E-3    3.593936641061978E-3    3.567505847888568E-1   -4.060660419045296E-1
 7.839540016150000E9     5.512814745198196E-1   -1.327642197532440E-1    2.782512747641250E-3    3.610612012210404E-3    2.779619499641140E-3    3.551072196721921E-3    3.551661099552144E-1   -4.075581931838143E-1
 7.839572523800000E9     5.506591326585039E-1   -1.349914532657556E-1    2.814295734979435E-3    3.617567290620927E-3    2.802728209662384E-3    3.557204382144667E-3    3.534165210226721E-1   -4.090935418361032E-1
 7.839605031450000E9     5.501715656442902E-1   -1.370370034256296E-1    2.889045762137771E-3    3.614455850619607E-3    2.821705887417446E-3    3.591559344412437E-3    3.514581969841384E-1   -4.105008709435645E-1
 7.839637539100000E9     5.496488076632940E-1   -1.391463384035453E-1    2.906032874398280E-3    3.610248140266108E-3    2.856431598645951E-3    3.569752350647601E-3    3.498801546010303E-1   -4.122085226419036E-1
 7.839670046750000E9     5.490254996511098E-1   -1.413592486997892E-1    2.912481325886244E-3    3.589437350983859E-3    2.868274346632977E-3    3.559429334108396E-3    3.480875166412261E-1   -4.135489731042510E-1
 7.839702554400000E9     5.485257784557842E-1   -1.433634550046699E-1    2.933033973299031E-3    3.612552274705211E-3    2.907715225375907E-3    3.583689901131188E-3    3.463522996662140E-1   -4.148445833405447E-1
 7.839735062050000E9     5.479762302324347E-1   -1.456643832186612E-1    2.977253962109974E-3    3.595261735303572E-3    2.919562624231082E-3    3.545879978958138E-3    3.445450161098111E-1   -4.165094403638879E-1
 7.839767569700000E9     5.474547398554938E-1   -1.474857354354900E-1    2.986923803379022E-3    3.582907785438027E-3    2.948220210209626E-3    3.582913167531534E-3    3.431019278922962E-1   -4.179405819211069E-1
 7.839800077350000E9     5.468091089562420E-1   -1.497456623075963E-1    3.048725051510322E-3    3.599614260922567E-3    2.980967893121905E-3    3.572387459880252E-3    3.411219281588288E-1   -4.193612699435276E-1
 7.839832585000000E9     5.461780001479922E-1   -1.519221656833922E-1    3.067589123192829E-3    3.597228830630344E-3    2.989927848071717E-3    3.582073933439183E-3    3.392802033123148E-1   -4.207657350306681E-1
 7.839865092650000E9     5.455958422332055E-1   -1.539512602028885E-1    3.057822125734092E-3    3.582668422524133E-3    3.059758681009021E-3    3.577123752935403E-3    3.375710630802188E-1   -4.223308322569632E-1
 7.839897600300000E9     5.450368769049869E-1   -1.560965727313353E-1    3.101486899704893E-3    3.589530163841686E-3    3.083025660094363E-3    3.549985515288089E-3    3.357814015536202E-1   -4.237459959901241E-1
 7.839930107950000E9     5.444619644057193E-1   -1.581990116826605E-1    3.155761160909708E-3    3.577549255294759E-3    3.108067181726894E-3    3.542512087768387E-3    3.339603601485960E-1   -4.250440981185524E-1
 7.839962615600000E9     5.437705505020447E-1   -1.603025916070611E-1    3.152705985486912E-3    3.597658880998499E-3    3.104052719557141E-3    3.539777730429077E-3    3.323455728618843E-1   -4.265031676165562E-1
 7.839995123250000E9     5.431937119302692E-1   -1.624561545752304E-1    3.174980983111057E-3    3.584393775717902E-3    3.138688605544350E-3    3.599987336627301E-3    3.304742674694109E-1   -4.279380535096772E-1
 7.840027630900000E9     5.425775049725731E-1   -1.645936030835736E-1    3.228347245118421E-3    3.587974129813276E-3    3.157649339786406E-3    3.554506968474368E-3    3.286134911358276E-1   -4.293248347325072E-1
 7.840060138550000E9     5.419231463803952E-1   -1.665799617581434E-1    3.266319372333325E-3    3.571464496041080E-3    3.215356168532091E-3    3.543213704037207E-3    3.267861394861614E-1   -4.308272756520620E-1
 7.840092646200000E9     5.412459654489179E-1   -1.687031492018834E-1    3.276310689079911E-3    3.572955107683304E-3    3.238507684111072E-3    3.559675704638307E-3    3.250483232307178E-1   -4.320711320468180E-1
 7.840125153850000E9     5.406641248887732E-1   -1.708628256494112E-1    3.283182488932250E-3    3.541255256238880E-3    3.271111236333673E-3    3.528251851733614E-3    3.233264620915514E-1   -4.335916031377548E-1
 7.840157661500000E9     5.398497924503394E-1   -1.729835578613295E-1    3.337864807566582E-3    3.565124042250082E-3    3.289221791629495E-3    3.531726699142068E-3    3.215016008443106E-1   -4.348712748698453E-1
