#  HZ   S   RI   R     50.00 
! Rohde & Schwarz Vector Network Analyzer 
! Rohde-Schwarz,ZNB20-2Port,1311601062101988,3.16
! Created: UTC 12/23/2023, 3:43:11 AM
! freq[Hz]                re:S11                  im:S11                  re:S21                  im:S21                  re:S12                  im:S12                  re:S22                  im:S22
 1.000988881900000E+10  -3.712888982363920E-1    3.583974522470947E-1   -1.922390981475280E-2   -1.302451878752606E-2   -1.775148120787497E-2   -1.344064018108860E-2   -1.882920626791218E-1    4.832325031134030E-1
 1.000990048527500E+10  -3.705537661157636E-1    3.591607151746141E-1   -1.918856528462347E-2   -1.294457459306750E-2   -1.781083404113692E-2   -1.340601971790532E-2   -1.874930977824594E-1    4.834594214456259E-1
 1.000991215155000E+10  -3.697654352676366E-1    3.598605399628214E-1   -1.931265967276231E-2   -1.294007864066081E-2   -1.799577620925836E-2   -1.333419316224570E-2   -1.868627139458731E-1    4.837396725090709E-1
 1.000992381782500E+10  -3.690477767439616E-1    3.605759643374020E-1   -1.940466302983822E-2   -1.293238521422104E-2   -1.804164424702566E-2   -1.337137049782943E-2   -1.860724393410704E-1    4.840592062955229E-1
 1.000993548410000E+10  -3.684340652392781E-1    3.613411572288006E-1   -1.931967074165112E-2   -1.294535606247797E-2   -1.821477431800719E-2   -1.338619162243222E-2   -1.853884288508961E-1    4.845147169636401E-1
 1.000994715037500E+10  -3.675475629218626E-1    3.620217004651468E-1   -1.959625004873107E-2   -1.302861349789371E-2   -1.822690285833913E-2   -1.357785977463806E-2   -1.847065653652867E-1    4.849479852102547E-1
 1.000995881665000E+10  -3.670178418934548E-1    3.626512832936185E-1   -1.970600559173183E-2   -1.293147838370123E-2   -1.838285218387824E-2   -1.353698173439962E-2   -1.838448075800776E-1    4.849697718261789E-1
 1.000997048292500E+10  -3.662846310524578E-1    3.634287242924470E-1   -1.983236159046475E-2   -1.308915880893142E-2   -1.855301191441126E-2   -1.359405390553038E-2   -1.831793979604526E-1    4.852767000337497E-1
 1.000998214920000E+10  -3.656898285488735E-1    3.642288082341597E-1   -1.993548554322990E-2   -1.309271699272193E-2   -1.848974471763036E-2   -1.360941441814525E-2   -1.825334023504519E-1    4.856254208311361E-1
 1.000999381547500E+10  -3.649335562216675E-1    3.649546224227135E-1   -2.005034512122859E-2   -1.306768033853357E-2   -1.874466792725723E-2   -1.358586051925203E-2   -1.817207907414350E-1    4.856958203994280E-1
 1.001000548175000E+10  -3.642275655179174E-1    3.656438385415370E-1   -2.019577781691481E-2   -1.311339860954120E-2   -1.866192170219593E-2   -1.361596804166766E-2   -1.810766541321538E-1    4.861417789264355E-1
 1.001001714802500E+10  -3.634861768890713E-1    3.663695552373636E-1   -2.036883127202598E-2   -1.302084069026993E-2   -1.882768004109304E-2   -1.350230591376867E-2   -1.803482729524859E-1    4.864469262098145E-1
 1.001002881430000E+10  -3.627634134120937E-1    3.670962485614426E-1   -2.040163041674464E-2   -1.315087535153642E-2   -1.899037752482016E-2   -1.368552201053296E-2   -1.795973961883010E-1    4.867564419575460E-1
 1.001004048057500E+10  -3.620019299926220E-1    3.678432637656699E-1   -2.035766799914347E-2   -1.304485642090942E-2   -1.905068823308194E-2   -1.361094111501042E-2   -1.787907182934265E-1    4.869841487219894E-1
 1.001005214685000E+10  -3.612952554301140E-1    3.685049611359386E-1   -2.053342570444695E-2   -1.318036953913505E-2   -1.926833842310445E-2   -1.365020371982622E-2   -1.782380810425459E-1    4.872200397640764E-1
 1.001006381312500E+10  -3.605932726665672E-1    3.692578865374224E-1   -2.064611738251580E-2   -1.327098213010472E-2   -1.921398901275262E-2   -1.370350752320149E-2   -1.774881213528125E-1    4.875446961457417E-1
 1.001007547940000E+10  -3.597712970960646E-1    3.700494296731071E-1   -2.067387881891341E-2   -1.330675799049005E-2   -1.935979268764033E-2   -1.373646658594015E-2   -1.765986129219657E-1    4.879212197274390E-1
 1.001008714567500E+10  -3.591574092729577E-1    3.707177320069897E-1   -2.098851593213991E-2   -1.330086587461536E-2   -1.950069634360992E-2   -1.369070776758548E-2   -1.760664825252146E-1    4.880085476168591E-1
 1.001009881195000E+10  -3.582616890764944E-1    3.714015875285571E-1   -2.101558225963205E-2   -1.325118588562519E-2   -1.954451331211990E-2   -1.376102143151170E-2   -1.753101194474228E-1    4.883611424489851E-1
 1.001011047822500E+10  -3.574985801511550E-1    3.721783063568728E-1   -2.109747652634726E-2   -1.329545824283236E-2   -1.984356925692640E-2   -1.375592480341787E-2   -1.744613193141593E-1    4.887295219326928E-1
 1.001012214450000E+10  -3.568587043865201E-1    3.730266381524663E-1   -2.124098874823668E-2   -1.334361263957986E-2   -1.977244946800714E-2   -1.378033169417502E-2   -1.738419734111353E-1    4.889366504397530E-1
 1.001013381077500E+10  -3.560212048423524E-1    3.736337925586140E-1   -2.135497856891974E-2   -1.338065671849069E-2   -1.999135396722331E-2   -1.382331556901602E-2   -1.729741567076319E-1    4.891637648069990E-1
 1.001014547705000E+10  -3.553071918659078E-1    3.744686196224837E-1   -2.141705443395436E-2   -1.330758703039767E-2   -2.007017625105136E-2   -1.376454315852056E-2   -1.723000795089537E-1    4.894652880601720E-1
 1.001015714332500E+10  -3.544920033734615E-1    3.750413060126973E-1   -2.168934895174528E-2   -1.327978951521886E-2   -2.028080778165267E-2   -1.368116067111497E-2   -1.714481421516528E-1    4.897065834519567E-1
 1.001016880960000E+10  -3.537227508079689E-1    3.758605161339456E-1   -2.166326959610857E-2   -1.332106500897544E-2   -2.039879867232402E-2   -1.381509410381807E-2   -1.706984326946125E-1    4.899291276969771E-1
 1.001018047587500E+10  -3.529709865203871E-1    3.764836659073317E-1   -2.195637704512429E-2   -1.338472035495489E-2   -2.047040832182219E-2   -1.386657832660263E-2   -1.700113909255944E-1    4.902744067865260E-1
 1.001019214215000E+10  -3.521026105235964E-1    3.772014340183134E-1   -2.191341131352870E-2   -1.337273460423826E-2   -2.053302888614334E-2   -1.387651628828007E-2   -1.693287475280582E-1    4.905194587145208E-1
 1.001020380842500E+10  -3.514689444766700E-1    3.781064671068720E-1   -2.223100055476362E-2   -1.345158377361299E-2   -2.076982318421008E-2   -1.390682564685156E-2   -1.685059145063365E-1    4.907571292643201E-1
 1.001021547470000E+10  -3.506983313842217E-1    3.786320263106225E-1   -2.219011962805309E-2   -1.347094676482472E-2   -2.081945687346754E-2   -1.404383087951046E-2   -1.678487025419329E-1    4.909715609624072E-1
 1.001022714097500E+10  -3.497311092319483E-1    3.793883044523115E-1   -2.228844763314552E-2   -1.330033414987509E-2   -2.087095028999080E-2   -1.400109378536734E-2   -1.670260356011047E-1    4.912490124060044E-1
 1.001023880725000E+10  -3.488775614276750E-1    3.802880130679887E-1   -2.242738456463954E-2   -1.345484079895910E-2   -2.093687942833458E-2   -1.401626492724993E-2   -1.663230224625429E-1    4.916083362858376E-1
 1.001025047352500E+10  -3.482160279476266E-1    3.809996462796627E-1   -2.259329597146285E-2   -1.353317674271888E-2   -2.117390808811364E-2   -1.399434165340742E-2   -1.656314740207525E-1    4.918786362970862E-1
 1.001026213980000E+10  -3.473311801182854E-1    3.817908219697376E-1   -2.287979962115935E-2   -1.358745651965565E-2   -2.127692807175265E-2   -1.400296717717660E-2   -1.649442671203293E-1    4.919481458879718E-1
 1.001027380607500E+10  -3.466277722255637E-1    3.823975225335583E-1   -2.286116410824530E-2   -1.355561731169214E-2   -2.139321080145168E-2   -1.409829353317261E-2   -1.641769753869936E-1    4.921719705949236E-1
 1.001028547235000E+10  -3.457877027023015E-1    3.831510555394008E-1   -2.301439824169663E-2   -1.354800065227356E-2   -2.161877026734094E-2   -1.414722088654528E-2   -1.634455583976224E-1    4.926169692286151E-1
 1.001029713862500E+10  -3.449443981470022E-1    3.838361742444604E-1   -2.315735952208112E-2   -1.356326305080070E-2   -2.173447221783819E-2   -1.414389089265260E-2   -1.627768429063330E-1    4.928043671830424E-1
 1.001030880490000E+10  -3.441895162012745E-1    3.845587451151558E-1   -2.337259357802655E-2   -1.345639313541427E-2   -2.180970641580058E-2   -1.416929270195903E-2   -1.621255994915487E-1    4.932046700173420E-1
 1.001032047117500E+10  -3.432822149878150E-1    3.853460089574581E-1   -2.339618760856928E-2   -1.356124350795533E-2   -2.189987547554085E-2   -1.406368477555776E-2   -1.610008178212803E-1    4.933584307235295E-1
 1.001033213745000E+10  -3.424836790525203E-1    3.860252786266797E-1   -2.368229370332794E-2   -1.363754124817562E-2   -2.213966512305172E-2   -1.407530762423461E-2   -1.602879358965959E-1    4.935405296311433E-1
 1.001034380372500E+10  -3.415740797258832E-1    3.868006093036607E-1   -2.383639547300150E-2   -1.359052536802998E-2   -2.241248676669110E-2   -1.422218215191118E-2   -1.596828145913104E-1    4.938896044294661E-1
 1.001035547000000E+10  -3.408481497345907E-1    3.875319966291726E-1   -2.402913070496693E-2   -1.370940355410350E-2   -2.239977745057440E-2   -1.418761327505953E-2   -1.589650485093141E-1    4.940801635220593E-1
 1.001036713627500E+10  -3.399911805090701E-1    3.882633362989246E-1   -2.413553120365913E-2   -1.359102524322443E-2   -2.270251411161222E-2   -1.437373070239958E-2   -1.581494750237730E-1    4.943613343462294E-1
 1.001037880255000E+10  -3.391712085176939E-1    3.890693395352586E-1   -2.417975844370753E-2   -1.365858338973540E-2   -2.262587416700667E-2   -1.418427853821645E-2   -1.574026072473065E-1    4.946580265086670E-1
 1.001039046882500E+10  -3.382342704443502E-1    3.896786052478260E-1   -2.438425374473037E-2   -1.363881997060475E-2   -2.282940433050774E-2   -1.439834029851650E-2   -1.565975408108268E-1    4.948190278551984E-1
 1.001040213510000E+10  -3.373881011467955E-1    3.905286419546921E-1   -2.441536157029797E-2   -1.375368849267970E-2   -2.301590461049109E-2   -1.440938083984485E-2   -1.557887475075586E-1    4.951399356140130E-1
 1.001041380137500E+10  -3.364896032823649E-1    3.911460294993186E-1   -2.469327839527434E-2   -1.389876058377402E-2   -2.308473845101984E-2   -1.460341665450376E-2   -1.551455652820225E-1    4.953342475132591E-1
 1.001042546765000E+10  -3.356815544469394E-1    3.918831279491772E-1   -2.484224833148204E-2   -1.386491732133899E-2   -2.319902604383858E-2   -1.429065667980690E-2   -1.543949050351447E-1    4.957195531862393E-1
 1.001043713392500E+10  -3.346942314395550E-1    3.926679606939067E-1   -2.502065678213979E-2   -1.370967153851481E-2   -2.354306733764388E-2   -1.433817929250119E-2   -1.536012885959244E-1    4.957799418402063E-1
 1.001044880020000E+10  -3.337788257162512E-1    3.934216000840920E-1   -2.519654049987351E-2   -1.374439272185637E-2   -2.363385893486580E-2   -1.448674079084819E-2   -1.528469052052284E-1    4.960432294562225E-1
 1.001046046647500E+10  -3.329525666444435E-1    3.941596217741282E-1   -2.533743785583866E-2   -1.374660086332506E-2   -2.386788290270332E-2   -1.437082199945705E-2   -1.520381190108353E-1    4.964112200917641E-1
 1.001047213275000E+10  -3.320813801501962E-1    3.948639017685361E-1   -2.554806776937255E-2   -1.374362083903983E-2   -2.402014012130639E-2   -1.441991092628855E-2   -1.512068385374130E-1    4.964959852654501E-1
 1.001048379902500E+10  -3.310943319936941E-1    3.956696964391137E-1   -2.576517803959106E-2   -1.379784918417824E-2   -2.413893646579812E-2   -1.442565453377502E-2   -1.506307819672168E-1    4.967940649002389E-1
 1.001049546530000E+10  -3.302214435796189E-1    3.964782911642771E-1   -2.600050335651010E-2   -1.361136394107658E-2   -2.424994233420651E-2   -1.445706044771896E-2   -1.496748504633682E-1    4.970238055349286E-1
 1.001050713157500E+10  -3.293170242031164E-1    3.969411362246589E-1   -2.609927801972107E-2   -1.361479410073221E-2   -2.443487166537732E-2   -1.464126770227091E-2   -1.489813225494855E-1    4.973752458162027E-1
 1.001051879785000E+10  -3.282851047509548E-1    3.979050085718181E-1   -2.614388961530651E-2   -1.372984029520960E-2   -2.466705278659681E-2   -1.455388952531859E-2   -1.482620562181209E-1    4.975432699269428E-1
 1.001053046412500E+10  -3.274019360352136E-1    3.985591109906043E-1   -2.644825044628449E-2   -1.374695713766208E-2   -2.469351887142632E-2   -1.461090611587106E-2   -1.474889970105179E-1    4.976067303045180E-1
 1.001054213040000E+10  -3.264328151467974E-1    3.993809912642922E-1   -2.660110965632291E-2   -1.379591298432396E-2   -2.483316855963113E-2   -1.466968529584940E-2   -1.466903762041288E-1    4.980430437140602E-1
 1.001055379667500E+10  -3.254444585312046E-1    4.002664993485668E-1   -2.681294385097419E-2   -1.376829761783493E-2   -2.507800453070645E-2   -1.461082547235314E-2   -1.459769968572264E-1    4.982463625235415E-1
 1.001056546295000E+10  -3.245316753477300E-1    4.008167714186119E-1   -2.702714505381345E-2   -1.391203565963192E-2   -2.528115091358428E-2   -1.469152526571455E-2   -1.452263757711201E-1    4.985325587360669E-1
 1.001057712922500E+10  -3.235475846324399E-1    4.015368492188306E-1   -2.712103109819888E-2   -1.404519684456492E-2   -2.549464840491612E-2   -1.462444265262265E-2   -1.445457370298298E-1    4.986988817386027E-1
 1.001058879550000E+10  -3.225985434912769E-1    4.023084902469038E-1   -2.733113251952149E-2   -1.395583402720751E-2   -2.554198188927408E-2   -1.456735305817321E-2   -1.435363876258760E-1    4.988265100833766E-1
 1.001060046177500E+10  -3.216880410948000E-1    4.030593420206894E-1   -2.759657789363340E-2   -1.390534761356311E-2   -2.584712473542892E-2   -1.451006276891741E-2   -1.431062134742828E-1    4.990669872256709E-1
 1.001061212805000E+10  -3.206533612630128E-1    4.038866046032979E-1   -2.771063844607449E-2   -1.396528703500207E-2   -2.596469463327339E-2   -1.466171150734923E-2   -1.420114133898839E-1    4.991084038261856E-1
 1.001062379432500E+10  -3.196816460394556E-1    4.046427969888746E-1   -2.802772896550040E-2   -1.388666006521238E-2   -2.622506019785635E-2   -1.474168867347724E-2   -1.414181658632962E-1    4.995367905319442E-1
 1.001063546060000E+10  -3.185655748470570E-1    4.053121953631669E-1   -2.812742495850426E-2   -1.390831353559991E-2   -2.635192327337412E-2   -1.479156338800883E-2   -1.404737165100587E-1    4.999328358689422E-1
 1.001064712687500E+10  -3.178399712210220E-1    4.059244124879036E-1   -2.838795774639923E-2   -1.402729281621867E-2   -2.658275082164456E-2   -1.471997538931972E-2   -1.397339164123046E-1    5.000886713577395E-1
 1.001065879315000E+10  -3.166281274774944E-1    4.067737509836057E-1   -2.853441579044588E-2   -1.403367336755149E-2   -2.680035173104587E-2   -1.472702488444464E-2   -1.389207431980284E-1    5.001341023359589E-1
 1.001067045942500E+10  -3.156863933861206E-1    4.074159909930261E-1   -2.883225722831779E-2   -1.398209360483031E-2   -2.704527181068443E-2   -1.490744979289502E-2   -1.383050990219468E-1    5.004904145329148E-1
 1.001068212570000E+10  -3.144792414638551E-1    4.083255241261949E-1   -2.918942638359924E-2   -1.397894028916130E-2   -2.723831886022924E-2   -1.482144043335091E-2   -1.373525980939393E-1    5.007457630219745E-1
 1.001069379197500E+10  -3.134624864927769E-1    4.090745444586459E-1   -2.933601838567505E-2   -1.397863507724598E-2   -2.733048499817121E-2   -1.482116057912404E-2   -1.367378077379948E-1    5.007656211379159E-1
 1.001070545825000E+10  -3.124482634922824E-1    4.097684229580779E-1   -2.958656956106012E-2   -1.407853084862738E-2   -2.777396733635091E-2   -1.491867649312079E-2   -1.359385304042091E-1    5.011009766087229E-1
 1.001071712452500E+10  -3.114270907663982E-1    4.105458769614851E-1   -2.968241131267402E-2   -1.416272441488782E-2   -2.781108596800636E-2   -1.491599075994797E-2   -1.350622167485059E-1    5.013273865391557E-1
 1.001072879080000E+10  -3.103108806163714E-1    4.113070651024331E-1   -2.996018828495349E-2   -1.421488609755585E-2   -2.794684072367474E-2   -1.491389331562324E-2   -1.342681626062691E-1    5.015839692442806E-1
 1.001074045707500E+10  -3.091449990142578E-1    4.120529047788076E-1   -3.011685093840367E-2   -1.424172603905885E-2   -2.824299381894927E-2   -1.506535785760291E-2   -1.334112986449021E-1    5.017399853197885E-1
 1.001075212335000E+10  -3.080921987506856E-1    4.128014063401900E-1   -3.038601056253905E-2   -1.413354954229528E-2   -2.846480539616701E-2   -1.496810598524695E-2   -1.327269478963815E-1    5.018176089168237E-1
 1.001076378962500E+10  -3.070444583582145E-1    4.135398115075765E-1   -3.050137803346272E-2   -1.410174470540117E-2   -2.871570418696432E-2   -1.500547870517801E-2   -1.319027598712658E-1    5.021184965426845E-1
 1.001077545590000E+10  -3.059450533426733E-1    4.143666436450982E-1   -3.072014140516344E-2   -1.425447262567292E-2   -2.896987665162962E-2   -1.496852750472501E-2   -1.310854734472387E-1    5.022971405378541E-1
 1.001078712217500E+10  -3.047669023343166E-1    4.151449513348776E-1   -3.111224630505068E-2   -1.415228898797680E-2   -2.929139678397251E-2   -1.501612108104378E-2   -1.303102144569514E-1    5.025710251292995E-1
 1.001079878845000E+10  -3.035595261833252E-1    4.158407520910963E-1   -3.135126896041309E-2   -1.404981270589570E-2   -2.939290776425132E-2   -1.506953243075032E-2   -1.294207011358421E-1    5.026373041053114E-1
 1.001081045472500E+10  -3.026444215304838E-1    4.166371858023514E-1   -3.171595887075006E-2   -1.421178069682814E-2   -2.981865973370519E-2   -1.504062265086990E-2   -1.286657397661058E-1    5.028759128138555E-1
 1.001082212100000E+10  -3.013122535090081E-1    4.175096577924029E-1   -3.183057756690345E-2   -1.411055850213123E-2   -3.001153029173152E-2   -1.503842732106641E-2   -1.278289701962905E-1    5.031789519414928E-1
 1.001083378727500E+10  -3.001408813071779E-1    4.181323210674733E-1   -3.220721587728712E-2   -1.399573432784708E-2   -3.018103399672658E-2   -1.501349676524782E-2   -1.269673266206262E-1    5.032697598841557E-1
 1.001084545355000E+10  -2.991715947511643E-1    4.188374744653441E-1   -3.242895383250987E-2   -1.402761729711343E-2   -3.043758882231712E-2   -1.508986846850400E-2   -1.263119091299662E-1    5.034407682182660E-1
 1.001085711982500E+10  -2.977725714496765E-1    4.197988984726296E-1   -3.262190008481805E-2   -1.402471009366099E-2   -3.061015926837461E-2   -1.517086328076263E-2   -1.255578818401432E-1    5.036225992420975E-1
 1.001086878610000E+10  -2.966415165578106E-1    4.205206099034990E-1   -3.303093461579545E-2   -1.411914564601542E-2   -3.092988909038925E-2   -1.523523920451039E-2   -1.247826167677857E-1    5.037747997538735E-1
 1.001088045237500E+10  -2.955259846954496E-1    4.212826313177506E-1   -3.322616890309803E-2   -1.416579293821311E-2   -3.123955915577800E-2   -1.518979486400622E-2   -1.237356973005933E-1    5.040555212775233E-1
 1.001089211865000E+10  -2.941485371888504E-1    4.220189346548099E-1   -3.336056368808158E-2   -1.426832933554108E-2   -3.149946780216818E-2   -1.534273491473683E-2   -1.230679639830120E-1    5.041640423505743E-1
 1.001090378492500E+10  -2.929554484798941E-1    4.227583351315502E-1   -3.365224764147016E-2   -1.416388344732570E-2   -3.175474368078326E-2   -1.525846723888655E-2   -1.222111686517428E-1    5.044083288436582E-1
 1.001091545120000E+10  -2.914754864475207E-1    4.235312338834582E-1   -3.409336580889612E-2   -1.443778545401328E-2   -3.214191934932603E-2   -1.535073170420463E-2   -1.214608166538428E-1    5.046012150409914E-1
 1.001092711747500E+10  -2.904377916424856E-1    4.243628215895518E-1   -3.427803171338717E-2   -1.432023539676938E-2   -3.243643627386984E-2   -1.522674816159136E-2   -1.206167328596641E-1    5.047618631600561E-1
 1.001093878375000E+10  -2.890790646328842E-1    4.251297206873086E-1   -3.470206334405263E-2   -1.429023428540642E-2   -3.258973533797938E-2   -1.516369218674806E-2   -1.197029701853849E-1    5.048266113013585E-1
