#  HZ   S   RI   R     50.00 
! Rohde & Schwarz Vector Network Analyzer 
! Rohde-Schwarz,ZNB20-2Port,1311601062101988,3.16
! Created: UTC 3/20/2024, 11:39:56 AM
! freq[Hz]                re:S11                  im:S11                  re:S21                  im:S21                  re:S12                  im:S12                  re:S22                  im:S22
 8.117294343000000E9     5.040021016754787E-1   -4.032016293853673E-2    1.143394011239637E-3    4.025553281435230E-3    1.215148486170665E-3    4.104199569955791E-3    4.099653306399824E-1   -1.889102919339887E-1
 8.117296511325000E9     5.038873284234312E-1   -4.054967822303526E-2    1.145044410028162E-3    4.049172062617646E-3    1.214122192534561E-3    4.139493972146359E-3    4.099921070851801E-1   -1.891780298986733E-1
 8.117298679650000E9     5.039956412236677E-1   -4.067925693146033E-2    1.138801663809807E-3    4.052621704219743E-3    1.210873597357679E-3    4.088606674853889E-3    4.098985887204601E-1   -1.891969549895888E-1
 8.117300847975000E9     5.038741023776112E-1   -4.099013614008187E-2    1.146811477894062E-3    4.047887123586809E-3    1.208438048321478E-3    4.097656537965278E-3    4.098408307984799E-1   -1.892206416324048E-1
 8.117303016300000E9     5.038503853405301E-1   -4.118802752592345E-2    1.160737753961927E-3    4.061359025483901E-3    1.232633582057721E-3    4.109114279317990E-3    4.099288559927115E-1   -1.893815241711007E-1
 8.117305184625000E9     5.038943629449324E-1   -4.128164935340957E-2    1.141734265733447E-3    4.039556710950878E-3    1.190211527158254E-3    4.113150917659410E-3    4.098573445608428E-1   -1.894623913466818E-1
 8.117307352950000E9     5.039006828060476E-1   -4.140965616441779E-2    1.147781094544611E-3    4.061893364856328E-3    1.229206329950330E-3    4.129571537894876E-3    4.096391440063241E-1   -1.897615430323273E-1
 8.117309521275000E9     5.038572679473523E-1   -4.164646739158855E-2    1.153886045566396E-3    4.058886980851249E-3    1.240701680087108E-3    4.163201708755618E-3    4.097275193445861E-1   -1.897118850604079E-1
 8.117311689600000E9     5.038430672882720E-1   -4.177154931584096E-2    1.188365712016294E-3    4.085440266424863E-3    1.246871895771477E-3    4.108564593788388E-3    4.096428619938797E-1   -1.899907231779882E-1
 8.117313857925000E9     5.037853824480566E-1   -4.205681345924638E-2    1.172014839249014E-3    4.066117192149737E-3    1.234042631614725E-3    4.122896471209085E-3    4.095396610608429E-1   -1.900341199217059E-1
 8.117316026250000E9     5.037325125969448E-1   -4.228472624902173E-2    1.150876724175962E-3    4.084764882942305E-3    1.222018308793134E-3    4.173800658556766E-3    4.095051454307168E-1   -1.900751405206706E-1
 8.117318194575000E9     5.038142212339070E-1   -4.235320416636527E-2    1.184216521302570E-3    4.055528115427440E-3    1.254631928199152E-3    4.098880804000929E-3    4.094588178757023E-1   -1.903766083326349E-1
 8.117320362900000E9     5.036890850473109E-1   -4.257665115699008E-2    1.176146810837556E-3    4.073787654633903E-3    1.242409301822023E-3    4.118515408830184E-3    4.094038016675925E-1   -1.905869221288621E-1
 8.117322531225000E9     5.036962207232055E-1   -4.272436410669021E-2    1.200345560606305E-3    4.094430257246813E-3    1.250907821688409E-3    4.123801295795290E-3    4.093467470439379E-1   -1.907604856767309E-1
 8.117324699550000E9     5.037543815388817E-1   -4.303319836826568E-2    1.164304963577272E-3    4.075677326154489E-3    1.247624172372785E-3    4.177740342985808E-3    4.092942783278599E-1   -1.907792636799918E-1
 8.117326867875000E9     5.037446006402327E-1   -4.320155440986439E-2    1.194956758979093E-3    4.082618793652455E-3    1.276023327147965E-3    4.154755868293416E-3    4.092041516208505E-1   -1.911348640019585E-1
 8.117329036200000E9     5.036779730265215E-1   -4.334007720561467E-2    1.170517773407933E-3    4.097175359542238E-3    1.291361273987464E-3    4.166740581729553E-3    4.092102951575499E-1   -1.911470930662659E-1
 8.117331204525000E9     5.036186268779871E-1   -4.357396864596784E-2    1.228194407544109E-3    4.096706225955218E-3    1.234535152787538E-3    4.158197911000174E-3    4.091962276736668E-1   -1.911978583379801E-1
 8.117333372850000E9     5.037202161817061E-1   -4.376839920476662E-2    1.197435577055226E-3    4.121496672544457E-3    1.251700398753644E-3    4.192462403193004E-3    4.090702939956398E-1   -1.912783885335069E-1
 8.117335541175000E9     5.035700555595516E-1   -4.387053519946067E-2    1.225384516563335E-3    4.123192361759963E-3    1.286932294421102E-3    4.179620142986285E-3    4.089594594825002E-1   -1.915867664349330E-1
 8.117337709500000E9     5.034304476384979E-1   -4.406524190745424E-2    1.203413709209833E-3    4.121463380982720E-3    1.273501089445573E-3    4.168703259992481E-3    4.089927297399616E-1   -1.918327594403668E-1
 8.117339877825000E9     5.036086064150415E-1   -4.431397683531595E-2    1.215497454374482E-3    4.116632790434127E-3    1.265079309514397E-3    4.167431539881590E-3    4.087687647025842E-1   -1.918314165206172E-1
 8.117342046150000E9     5.035653927592186E-1   -4.446266871341079E-2    1.214377341261268E-3    4.125067969924625E-3    1.296964980369364E-3    4.200616102885603E-3    4.088006487724639E-1   -1.918813699391963E-1
 8.117344214475000E9     5.035236782947764E-1   -4.469837902067648E-2    1.207951177026417E-3    4.129790741457123E-3    1.298045471009580E-3    4.206534930159158E-3    4.086546537666712E-1   -1.919933504145813E-1
 8.117346382800000E9     5.034676734096263E-1   -4.477993263538375E-2    1.221120590982249E-3    4.120888394224285E-3    1.276873342952743E-3    4.186798992872309E-3    4.086806001969175E-1   -1.922943016618770E-1
 8.117348551125000E9     5.034400115746103E-1   -4.501235051016098E-2    1.240001514908388E-3    4.131004125518609E-3    1.286937985971841E-3    4.192603618472839E-3    4.086426120384307E-1   -1.924871834693224E-1
 8.117350719450000E9     5.034120180256391E-1   -4.518152685672482E-2    1.214913266148549E-3    4.146740705338992E-3    1.326186786683541E-3    4.185134107361521E-3    4.085642384842004E-1   -1.924324522105486E-1
 8.117352887775000E9     5.034093321309476E-1   -4.529218140082925E-2    1.226306210637142E-3    4.147408047158229E-3    1.333681183298077E-3    4.221290492194647E-3    4.084169044883530E-1   -1.925277967199141E-1
 8.117355056100000E9     5.034139795657646E-1   -4.563783294322837E-2    1.251569240470856E-3    4.152741967239642E-3    1.280787385367856E-3    4.231783777804065E-3    4.083443520222504E-1   -1.928511504816182E-1
 8.117357224425000E9     5.033669452681289E-1   -4.568708698103485E-2    1.225395789614233E-3    4.150914242365238E-3    1.331010518665377E-3    4.232823858536530E-3    4.083344594562253E-1   -1.930566634180469E-1
 8.117359392750000E9     5.032449394843482E-1   -4.599146186782088E-2    1.246336863929879E-3    4.167408494805964E-3    1.303907706153465E-3    4.239280381082345E-3    4.083881035004484E-1   -1.931390570321004E-1
 8.117361561075000E9     5.032565140810855E-1   -4.616805114749582E-2    1.253601721761586E-3    4.180687180717913E-3    1.313796910974569E-3    4.251283432552808E-3    4.082304363724930E-1   -1.931906506580174E-1
 8.117363729400000E9     5.032885755794688E-1   -4.638123154723282E-2    1.258734753735965E-3    4.176490795335662E-3    1.332307318665336E-3    4.241848595362899E-3    4.082140938440021E-1   -1.934195466402602E-1
 8.117365897725000E9     5.032962410038734E-1   -4.662206347853459E-2    1.249964874829104E-3    4.181339626597468E-3    1.316943503803558E-3    4.231313091490470E-3    4.081422444388751E-1   -1.935408031817526E-1
 8.117368066050000E9     5.032895429211275E-1   -4.667691669800082E-2    1.270552715446039E-3    4.177023350754113E-3    1.340360765996491E-3    4.238687653291559E-3    4.079771196800062E-1   -1.937017666529919E-1
 8.117370234375000E9     5.033138248896559E-1   -4.683888689214077E-2    1.265931895172305E-3    4.178252036492067E-3    1.330332490661882E-3    4.231920934219926E-3    4.080365923535306E-1   -1.937215757077658E-1
 8.117372402700000E9     5.031474430634850E-1   -4.718459372271173E-2    1.281558999230163E-3    4.220082782722378E-3    1.359826099923381E-3    4.240604153988423E-3    4.080318204517910E-1   -1.937782480073083E-1
 8.117374571025000E9     5.030855386493683E-1   -4.728269084836888E-2    1.273846691885960E-3    4.213131364299886E-3    1.381315561512608E-3    4.260697798848905E-3    4.078328274261227E-1   -1.939542239350453E-1
 8.117376739350000E9     5.031209667641853E-1   -4.748252972009446E-2    1.293884283028261E-3    4.217311156403024E-3    1.355551176486423E-3    4.292703018743855E-3    4.078481643883132E-1   -1.940813684426702E-1
 8.117378907675000E9     5.030001570616330E-1   -4.764477640862513E-2    1.297280755758931E-3    4.223827192625744E-3    1.365210587760291E-3    4.260620833214125E-3    4.078076100687881E-1   -1.943225622795008E-1
 8.117381076000000E9     5.030018717629300E-1   -4.782745932068821E-2    1.307347130897329E-3    4.228028785154633E-3    1.365894269150437E-3    4.297895449155629E-3    4.076789415977243E-1   -1.944916722185371E-1
 8.117383244325000E9     5.030403892918229E-1   -4.814199438322545E-2    1.295045209938622E-3    4.211280003301898E-3    1.386034578447999E-3    4.274043363556259E-3    4.075929745883489E-1   -1.946054317014162E-1
 8.117385412650000E9     5.029885624029267E-1   -4.827993983976061E-2    1.324125026863274E-3    4.245159285926935E-3    1.370734897360063E-3    4.277942600026516E-3    4.075458727037148E-1   -1.947295867313232E-1
 8.117387580975000E9     5.029517811241206E-1   -4.853213135830553E-2    1.302533544475445E-3    4.246368449729605E-3    1.387481889223572E-3    4.294730709794951E-3    4.074866814091901E-1   -1.948913130643118E-1
 8.117389749300000E9     5.029005923773480E-1   -4.864711764227987E-2    1.283351100942767E-3    4.249952490429519E-3    1.389439654696762E-3    4.329709653895151E-3    4.075149401856299E-1   -1.950307703979124E-1
 8.117391917625000E9     5.029223613452773E-1   -4.886799547821957E-2    1.305507037718858E-3    4.255573817442934E-3    1.381780274175135E-3    4.330038398302306E-3    4.074226028955277E-1   -1.951923586544051E-1
 8.117394085950000E9     5.028692256677570E-1   -4.897945073340037E-2    1.338331552539485E-3    4.255466186836141E-3    1.431486325437954E-3    4.325052640446672E-3    4.073844737723080E-1   -1.953653757864345E-1
 8.117396254275000E9     5.028531087437499E-1   -4.927208525122748E-2    1.342446672307101E-3    4.269247996922580E-3    1.401588729248809E-3    4.301188922211120E-3    4.073015270874116E-1   -1.954443692618109E-1
 8.117398422600000E9     5.028087706519154E-1   -4.951416557187620E-2    1.320859817499366E-3    4.271383367719139E-3    1.422589767587402E-3    4.346445617641056E-3    4.071943279528273E-1   -1.955357955563718E-1
 8.117400590925000E9     5.027708047669023E-1   -4.960877466548243E-2    1.356811584797891E-3    4.306982763651958E-3    1.429932746870057E-3    4.341295093599546E-3    4.070359701211815E-1   -1.956240547765902E-1
 8.117402759250000E9     5.026508785626612E-1   -4.975278770614907E-2    1.359780726228202E-3    4.287616020236835E-3    1.422900956549610E-3    4.319931913585153E-3    4.070327856491663E-1   -1.957568744119114E-1
 8.117404927575000E9     5.027277510405972E-1   -5.005997496548638E-2    1.353231876293626E-3    4.306217050318145E-3    1.413978185448494E-3    4.354921622879634E-3    4.071359637262680E-1   -1.959566120956641E-1
 8.117407095900000E9     5.026599980668920E-1   -5.023458560648800E-2    1.355480752583474E-3    4.303150835959311E-3    1.433863148163209E-3    4.399631639482841E-3    4.069077894598523E-1   -1.961074055004479E-1
 8.117409264225000E9     5.026562045156531E-1   -5.037433226435509E-2    1.364881988384024E-3    4.291168456887836E-3    1.408198508362432E-3    4.409520856020001E-3    4.069547151410901E-1   -1.962826714789246E-1
 8.117411432550000E9     5.026249706063326E-1   -5.064726663943239E-2    1.371434263148493E-3    4.285117136325681E-3    1.406313434507262E-3    4.402030570403680E-3    4.068494537110946E-1   -1.964612135450948E-1
 8.117413600875000E9     5.025390471682691E-1   -5.075592621440031E-2    1.366971285542759E-3    4.316371473232735E-3    1.487373419768959E-3    4.376016195416475E-3    4.068005970272474E-1   -1.966986300548274E-1
 8.117415769200000E9     5.026145157092666E-1   -5.103603868642216E-2    1.384973790143532E-3    4.332765566532972E-3    1.438983743885706E-3    4.412581453680691E-3    4.067351996175196E-1   -1.967010419382653E-1
 8.117417937525000E9     5.025727301165073E-1   -5.117176406638188E-2    1.372319784928644E-3    4.351781117290079E-3    1.455672125516852E-3    4.391969788366763E-3    4.066167051911594E-1   -1.968566616879968E-1
 8.117420105850000E9     5.025713484282464E-1   -5.145830925216320E-2    1.381614744447983E-3    4.345281991162193E-3    1.453922177962945E-3    4.442818848868180E-3    4.066952950086166E-1   -1.969430111061226E-1
 8.117422274175000E9     5.025382469126595E-1   -5.146862295732551E-2    1.416444501298350E-3    4.343077149289928E-3    1.471268911987646E-3    4.429675785481420E-3    4.065196909218182E-1   -1.971668738890300E-1
 8.117424442500000E9     5.024022898749489E-1   -5.173989581517913E-2    1.396637089310903E-3    4.360833682954616E-3    1.477448433216372E-3    4.445680434608413E-3    4.065271984528965E-1   -1.973374171092264E-1
 8.117426610825000E9     5.023294054994405E-1   -5.190724518654605E-2    1.387465351281463E-3    4.392471713353226E-3    1.463380913720637E-3    4.452708176559509E-3    4.064992730225160E-1   -1.972929497534511E-1
 8.117428779150000E9     5.022773575112958E-1   -5.222553962990819E-2    1.401148987359054E-3    4.360586625670783E-3    1.507776705089433E-3    4.439470885406056E-3    4.063627402387428E-1   -1.975864148673145E-1
 8.117430947475000E9     5.022644828452317E-1   -5.241737698563979E-2    1.404147781955810E-3    4.391715407441763E-3    1.478664964704371E-3    4.432030782487901E-3    4.062315798321455E-1   -1.977667664496267E-1
 8.117433115800000E9     5.022511591744837E-1   -5.267186714710143E-2    1.399980927904992E-3    4.391537743018680E-3    1.478317560801680E-3    4.466482913299425E-3    4.062446298777952E-1   -1.978900207423593E-1
 8.117435284125000E9     5.022370539155655E-1   -5.287909920208753E-2    1.437241757240361E-3    4.407035383370451E-3    1.507533659143819E-3    4.469642278468903E-3    4.061171946848008E-1   -1.980168639499511E-1
 8.117437452450000E9     5.022455817667475E-1   -5.296792636708353E-2    1.438042517980855E-3    4.405884981549861E-3    1.534812871541583E-3    4.463445778121515E-3    4.061173623489532E-1   -1.981061528738682E-1
 8.117439620775000E9     5.021172056472653E-1   -5.326079920760889E-2    1.457917534110398E-3    4.427843683308810E-3    1.489743859340729E-3    4.497334247463685E-3    4.059230799631430E-1   -1.981656334121496E-1
 8.117441789100000E9     5.021168406806349E-1   -5.338837842607549E-2    1.465324761359636E-3    4.409644871023449E-3    1.504065026576279E-3    4.493874475480331E-3    4.058953327999207E-1   -1.983684475079207E-1
 8.117443957425000E9     5.020160386924205E-1   -5.368626929907533E-2    1.450162563795790E-3    4.422300023382327E-3    1.531760641250164E-3    4.510515526947197E-3    4.059057919927980E-1   -1.984980328110454E-1
 8.117446125750000E9     5.020243626391663E-1   -5.390231029303108E-2    1.455518804755322E-3    4.471139665356129E-3    1.568819182179985E-3    4.547019081572792E-3    4.058811325714062E-1   -1.986649862204734E-1
 8.117448294075000E9     5.019467305163476E-1   -5.397764871205425E-2    1.487409316338917E-3    4.467077410316736E-3    1.514219386965472E-3    4.512667955701283E-3    4.057550215754763E-1   -1.988695257100469E-1
 8.117450462400000E9     5.019731334063733E-1   -5.418164584869900E-2    1.481405218379445E-3    4.475117380907469E-3    1.558869065829343E-3    4.542238393616085E-3    4.057357067759617E-1   -1.989685874151967E-1
 8.117452630725000E9     5.018429075256651E-1   -5.438676509157138E-2    1.483439746516271E-3    4.478094730422648E-3    1.528969629833435E-3    4.530101840205266E-3    4.056977620421165E-1   -1.989864773212609E-1
 8.117454799050000E9     5.019598403214707E-1   -5.461192923576304E-2    1.504026988804432E-3    4.480472208325804E-3    1.606294065910536E-3    4.548320728071027E-3    4.056105391608757E-1   -1.992495371375561E-1
 8.117456967375000E9     5.018012100642681E-1   -5.486619865689444E-2    1.491466681393649E-3    4.491640464417709E-3    1.560299408725234E-3    4.572726090287773E-3    4.054813805912786E-1   -1.994161377784502E-1
 8.117459135700000E9     5.017862358751183E-1   -5.494732641317840E-2    1.517903377451263E-3    4.498945190385619E-3    1.607822168826512E-3    4.558419902058474E-3    4.055705283789383E-1   -1.993458351233079E-1
 8.117461304025000E9     5.018024514233372E-1   -5.524976824941811E-2    1.521765521801289E-3    4.507244412962469E-3    1.600544216120046E-3    4.579964822740348E-3    4.054310130678345E-1   -1.996961023233755E-1
 8.117463472350000E9     5.018284548699457E-1   -5.541312557737866E-2    1.517440683845786E-3    4.528551719987702E-3    1.628085248366727E-3    4.605986000467598E-3    4.054565623420575E-1   -1.998904232442134E-1
 8.117465640675000E9     5.017333625418661E-1   -5.569010427287886E-2    1.539432679309163E-3    4.534320124271853E-3    1.598967129803205E-3    4.589666012032391E-3    4.052362229457087E-1   -1.999004239605684E-1
 8.117467809000000E9     5.016656594375496E-1   -5.595648743780558E-2    1.530246777595521E-3    4.552445236407604E-3    1.608949199593474E-3    4.611333176091890E-3    4.052215709579344E-1   -2.000139184019886E-1
 8.117469977325000E9     5.015274325719363E-1   -5.621390259052454E-2    1.520803596918370E-3    4.534849081961239E-3    1.641422874457252E-3    4.615844894808719E-3    4.052908076731448E-1   -2.001245698083088E-1
 8.117472145650000E9     5.016029855850925E-1   -5.640040955557201E-2    1.568886855473650E-3    4.536220487279139E-3    1.615935583974646E-3    4.642806631427858E-3    4.051208685723873E-1   -2.004060588760004E-1
 8.117474313975000E9     5.015123175604368E-1   -5.643996105220087E-2    1.571910912630718E-3    4.563274293511187E-3    1.625242256211974E-3    4.656120179453055E-3    4.051338015923019E-1   -2.003969440695922E-1
 8.117476482300000E9     5.014974158611730E-1   -5.674035695932437E-2    1.584778362168404E-3    4.602051758279593E-3    1.638019471965764E-3    4.634634154568096E-3    4.049126454742878E-1   -2.005353597260491E-1
 8.117478650625000E9     5.013399794388663E-1   -5.692925111630526E-2    1.564292057374646E-3    4.561160417689030E-3    1.655681683935002E-3    4.672855604757081E-3    4.048544046183163E-1   -2.007934772765557E-1
 8.117480818950000E9     5.014214575226718E-1   -5.719230714496105E-2    1.568742452826812E-3    4.626451549087236E-3    1.668647111905582E-3    4.656579447823743E-3    4.048793676193632E-1   -2.008946682525748E-1
 8.117482987275000E9     5.014000686692694E-1   -5.752553517012014E-2    1.600815417471073E-3    4.623960298518597E-3    1.680309182128558E-3    4.676979833410026E-3    4.047953143691901E-1   -2.010245546440477E-1
 8.117485155600000E9     5.012727179991420E-1   -5.763037471025559E-2    1.603664208976358E-3    4.652432590218974E-3    1.679878857181419E-3    4.698495481082827E-3    4.047221467176124E-1   -2.011471424134465E-1
 8.117487323925000E9     5.012548027241271E-1   -5.779714371854573E-2    1.604199057801346E-3    4.621002063179554E-3    1.694853131538776E-3    4.701848447046942E-3    4.046350093824748E-1   -2.014265083735108E-1
 8.117489492250000E9     5.012245197049630E-1   -5.817386320523404E-2    1.645052139517982E-3    4.649893535161653E-3    1.707894414130447E-3    4.697064688581515E-3    4.047154954839486E-1   -2.015477612888162E-1
