#  HZ   S   RI   R     50.00 
! Rohde & Schwarz Vector Network Analyzer 
! Rohde-Schwarz,ZNB20-2Port,1311601062101988,3.16
! Created: UTC 12/23/2023, 3:43:28 AM
! freq[Hz]                re:S11                  im:S11                  re:S21                  im:S21                  re:S12                  im:S12                  re:S22                  im:S22
 6.516973060000000E9    -2.306591589981948E-1   -1.777208343803239E-2    1.326278989987865E-2   -5.213060020119249E-3    1.308558663145969E-2   -4.820597073278632E-3    2.015947724287455E-1    5.099290588812502E-1
 6.516984979875000E9    -2.306660850373193E-1   -1.760257726466494E-2    1.319374837517148E-2   -5.249110826252333E-3    1.323248510942414E-2   -4.843898109130864E-3    2.026523401736878E-1    5.096000388276369E-1
 6.516996899750000E9    -2.304471819655087E-1   -1.750738765389451E-2    1.326934999512880E-2   -5.484485626649233E-3    1.334538612496829E-2   -4.899885882403646E-3    2.032625856951256E-1    5.093994148779801E-1
 6.517008819625000E9    -2.304008895401121E-1   -1.725089237751708E-2    1.326939484151996E-2   -5.429679473260814E-3    1.339695632160181E-2   -4.945591042629646E-3    2.042714749981850E-1    5.088755407490753E-1
 6.517020739500000E9    -2.302653245747101E-1   -1.701923202676860E-2    1.330054924302239E-2   -5.557527423794577E-3    1.348324699039075E-2   -5.016815713467767E-3    2.051126724233996E-1    5.085778450528172E-1
 6.517032659375000E9    -2.301512111456142E-1   -1.684584831472546E-2    1.339800591195715E-2   -5.545322078835989E-3    1.354615263401534E-2   -5.030715376071095E-3    2.059360389713671E-1    5.083232801347262E-1
 6.517044579250000E9    -2.300102513937800E-1   -1.670336032053409E-2    1.349898300199185E-2   -5.610481865727685E-3    1.351909037492837E-2   -5.047197647642070E-3    2.070180653545534E-1    5.080061290378302E-1
 6.517056499125000E9    -2.298669657565646E-1   -1.644702764034250E-2    1.349680805420371E-2   -5.520135268304232E-3    1.365249232094122E-2   -5.159104138246494E-3    2.077674746816998E-1    5.073970862838056E-1
 6.517068419000000E9    -2.297211193850354E-1   -1.630817175247501E-2    1.356787578576498E-2   -5.701418108858051E-3    1.368667948927808E-2   -5.168212654017771E-3    2.085675001953527E-1    5.071297857823976E-1
 6.517080338875000E9    -2.295965636432852E-1   -1.604779654537590E-2    1.374591503943356E-2   -5.723961402666108E-3    1.387560309503001E-2   -5.313013902437867E-3    2.094351260218497E-1    5.069287172859319E-1
 6.517092258750000E9    -2.295188915009216E-1   -1.602525797077338E-2    1.370296802362360E-2   -5.810804592762959E-3    1.377242971752255E-2   -5.316146656561861E-3    2.104360484458691E-1    5.065457514657927E-1
 6.517104178625000E9    -2.294011604961795E-1   -1.572215335150940E-2    1.379635666753049E-2   -5.840975673845524E-3    1.390760580790844E-2   -5.334844206285272E-3    2.112872942969003E-1    5.062066822689436E-1
 6.517116098500000E9    -2.291553989759619E-1   -1.558485706305041E-2    1.384809819661750E-2   -5.845115647073965E-3    1.390360978934026E-2   -5.370778930470881E-3    2.120713928696813E-1    5.057380797916151E-1
 6.517128018375000E9    -2.291147736329817E-1   -1.542719720784404E-2    1.386584139944474E-2   -5.953932987729034E-3    1.397793662685261E-2   -5.512977291353472E-3    2.129970095985347E-1    5.054232491486516E-1
 6.517139938250000E9    -2.289643228759197E-1   -1.526237231025162E-2    1.388714093773974E-2   -6.047026544411651E-3    1.399586143223830E-2   -5.514468051763127E-3    2.139515118268373E-1    5.050713990717882E-1
 6.517151858125000E9    -2.289784252399009E-1   -1.500964626246780E-2    1.401771783652395E-2   -6.092599035589922E-3    1.405913482640323E-2   -5.571728555602036E-3    2.148937218239716E-1    5.047956487219419E-1
 6.517163778000000E9    -2.287202650495343E-1   -1.493265623902572E-2    1.401709879749117E-2   -6.106603451626223E-3    1.417184560400721E-2   -5.552273533729888E-3    2.157341120228094E-1    5.042959015285398E-1
 6.517175697875000E9    -2.285766888086019E-1   -1.481969865831177E-2    1.403586652547260E-2   -6.086337647558116E-3    1.428342792513187E-2   -5.671394898576852E-3    2.166010297879690E-1    5.039481372033221E-1
 6.517187617750000E9    -2.284787079640702E-1   -1.456727839231356E-2    1.416615719886988E-2   -6.252710533441901E-3    1.425869873884205E-2   -5.768583504825275E-3    2.174425534097698E-1    5.036728596372777E-1
 6.517199537625000E9    -2.282998090609268E-1   -1.424859348248785E-2    1.417800437734714E-2   -6.348093487066071E-3    1.435326300175042E-2   -5.728009848728827E-3    2.183780993065464E-1    5.032177375373080E-1
 6.517211457500000E9    -2.281527058373526E-1   -1.419385965530928E-2    1.437272429418145E-2   -6.346541670809766E-3    1.435930981715196E-2   -5.812239855527626E-3    2.192430036965281E-1    5.028365432224684E-1
 6.517223377375000E9    -2.281167834025353E-1   -1.399693723596328E-2    1.442577457852715E-2   -6.510622668681448E-3    1.447333713728105E-2   -6.043709050530720E-3    2.201114005067719E-1    5.024220871906877E-1
 6.517235297250000E9    -2.279620185196942E-1   -1.384682836096357E-2    1.450059969458733E-2   -6.513841017671968E-3    1.457382616804511E-2   -5.972604617841932E-3    2.210028932288947E-1    5.020413698649544E-1
 6.517247217125000E9    -2.278177020226588E-1   -1.369309280845982E-2    1.440492532916618E-2   -6.595536924697267E-3    1.470077668193309E-2   -6.087755034448380E-3    2.219012719980334E-1    5.016437083903958E-1
 6.517259137000000E9    -2.275866126173503E-1   -1.346070454002454E-2    1.461950114364611E-2   -6.615635516313224E-3    1.476558877161593E-2   -6.088306347463453E-3    2.226584083095458E-1    5.014324964620376E-1
 6.517271056875000E9    -2.275356383117716E-1   -1.318745475555641E-2    1.447453025892182E-2   -6.754188070967177E-3    1.481044809112984E-2   -6.304068238635871E-3    2.236092673478384E-1    5.012064488229035E-1
 6.517282976750000E9    -2.274627355013703E-1   -1.308768261603573E-2    1.459119495210360E-2   -6.781434391710637E-3    1.476218223076640E-2   -6.275251671306612E-3    2.245741205579307E-1    5.007671003612414E-1
 6.517294896625000E9    -2.271797080285826E-1   -1.300030527657135E-2    1.473544663355094E-2   -6.817083368644418E-3    1.484019601589276E-2   -6.271911155530491E-3    2.253926021847452E-1    5.002586401702116E-1
 6.517306816500000E9    -2.270643155308478E-1   -1.288670114393060E-2    1.484619136168368E-2   -6.984414394056717E-3    1.502533821285061E-2   -6.285806605516669E-3    2.261920318598373E-1    4.998474245479016E-1
 6.517318736375000E9    -2.270222868178505E-1   -1.265294948529978E-2    1.489991185731493E-2   -6.946864338207058E-3    1.493097426119956E-2   -6.409440740782870E-3    2.269738577648889E-1    4.994061701909027E-1
 6.517330656250000E9    -2.269166874163782E-1   -1.245073705473657E-2    1.495343854533401E-2   -7.010470719812849E-3    1.503532681661014E-2   -6.466428424132705E-3    2.280122146022801E-1    4.989809760335754E-1
 6.517342576125000E9    -2.267197422208901E-1   -1.237607587373587E-2    1.505935426362356E-2   -7.071170127642756E-3    1.514962530212487E-2   -6.663262327828816E-3    2.287549718242437E-1    4.986114635274868E-1
 6.517354496000000E9    -2.266251668272113E-1   -1.220914040517848E-2    1.511375743334790E-2   -7.228448525887103E-3    1.519449028255104E-2   -6.651693394017453E-3    2.296703234591831E-1    4.984103752865969E-1
 6.517366415875000E9    -2.264318144808616E-1   -1.196178559464160E-2    1.510703047857097E-2   -7.237685965572497E-3    1.547364080964320E-2   -6.659309494130599E-3    2.305474492520360E-1    4.978664785878146E-1
 6.517378335750000E9    -2.262799033714407E-1   -1.183815810964791E-2    1.526959374783525E-2   -7.428275341983588E-3    1.545236934176839E-2   -6.764410166011471E-3    2.315456109492736E-1    4.974315645794069E-1
 6.517390255625000E9    -2.261759356708267E-1   -1.169323718095093E-2    1.517754540856903E-2   -7.472762372797806E-3    1.547433251397223E-2   -6.888821287219936E-3    2.324391666495737E-1    4.970154108950696E-1
 6.517402175500000E9    -2.259236135159932E-1   -1.153435103719102E-2    1.531489860684547E-2   -7.499810254262118E-3    1.557976098206513E-2   -6.875306385922371E-3    2.333286008751233E-1    4.965951265548449E-1
 6.517414095375000E9    -2.258105343667995E-1   -1.140484280480129E-2    1.544407015435426E-2   -7.599866151510815E-3    1.559357345012464E-2   -7.098291391254235E-3    2.342050742283336E-1    4.962138672977425E-1
 6.517426015250000E9    -2.256761901131747E-1   -1.121269469119766E-2    1.548588526053724E-2   -7.686980443079594E-3    1.568398284328982E-2   -7.151800171396689E-3    2.351096186716714E-1    4.956373563978960E-1
 6.517437935125000E9    -2.255001387245844E-1   -1.098517631110401E-2    1.550872158338809E-2   -7.760242472128078E-3    1.572518103465778E-2   -7.246412080016740E-3    2.360127378408835E-1    4.953728790172397E-1
 6.517449855000000E9    -2.254086405095009E-1   -1.095896821833380E-2    1.569607014728337E-2   -7.756029115743389E-3    1.573185303750920E-2   -7.319758830360928E-3    2.368929157585457E-1    4.952265820865334E-1
 6.517461774875000E9    -2.251802321863170E-1   -1.067850101634752E-2    1.586785600255175E-2   -7.976176164867942E-3    1.600397101980482E-2   -7.421134801443948E-3    2.377726361930687E-1    4.946269822077301E-1
 6.517473694750000E9    -2.250845679886615E-1   -1.055527037531034E-2    1.573021540941220E-2   -7.994422311613580E-3    1.598191702657198E-2   -7.377904024791045E-3    2.387419299151664E-1    4.941944377724949E-1
 6.517485614625000E9    -2.249028253599302E-1   -1.038352278388887E-2    1.585617465577493E-2   -8.052819326202195E-3    1.609574889352768E-2   -7.421099743446707E-3    2.393413127872590E-1    4.936505816985247E-1
 6.517497534500000E9    -2.247235896996217E-1   -1.031992915653383E-2    1.601692106956214E-2   -7.992727867160246E-3    1.618376902155458E-2   -7.674526062558117E-3    2.404520367581859E-1    4.933675367438758E-1
 6.517509454375000E9    -2.245930122561731E-1   -1.020411095524124E-2    1.610336538793444E-2   -8.124608767698478E-3    1.630561357329017E-2   -7.638492607255469E-3    2.411738705061572E-1    4.928594420594561E-1
 6.517521374250000E9    -2.244591293093887E-1   -1.002236556850879E-2    1.596202938636905E-2   -8.362499215210957E-3    1.632040213555327E-2   -7.779764897975913E-3    2.422066907165646E-1    4.925309899547395E-1
 6.517533294125000E9    -2.242115827556471E-1   -9.849453463536880E-3    1.623995246157535E-2   -8.573315744279393E-3    1.638546534643649E-2   -7.742705593190094E-3    2.429475395542224E-1    4.920130734785260E-1
 6.517545214000000E9    -2.239901696354483E-1   -9.645566777634104E-3    1.641313284161295E-2   -8.543765924399671E-3    1.643803843486839E-2   -7.880217649642321E-3    2.438556565704487E-1    4.915913779633193E-1
 6.517557133875000E9    -2.239319503439301E-1   -9.576615533106885E-3    1.634071053407117E-2   -8.556099231587139E-3    1.662821727824108E-2   -7.990496576482665E-3    2.447771468860178E-1    4.913311950169781E-1
 6.517569053750000E9    -2.237517903634763E-1   -9.455883932377725E-3    1.653197993747533E-2   -8.681063638975674E-3    1.673851460010097E-2   -8.086252247347854E-3    2.456463979528400E-1    4.905947114432727E-1
 6.517580973625000E9    -2.236317278227791E-1   -9.251183301443327E-3    1.649804294589800E-2   -8.726593214905884E-3    1.680657109127653E-2   -8.269461782760938E-3    2.467605122303322E-1    4.901843503459564E-1
 6.517592893500000E9    -2.233125547111262E-1   -9.171620511953509E-3    1.672108754119509E-2   -8.778169070783187E-3    1.685463115497617E-2   -8.201710421121373E-3    2.474406646451527E-1    4.898682079441786E-1
 6.517604813375000E9    -2.231721011693331E-1   -8.903416360347388E-3    1.672277789919077E-2   -8.985117672977246E-3    1.708211017781657E-2   -8.333668348932911E-3    2.481950379919984E-1    4.892671797661746E-1
 6.517616733250000E9    -2.230133021867151E-1   -8.806755729249487E-3    1.670697773456256E-2   -9.067439577582055E-3    1.709993572238477E-2   -8.448410036600832E-3    2.492345980291390E-1    4.889309692640408E-1
 6.517628653125000E9    -2.228754204265048E-1   -8.707071352986505E-3    1.689012382425313E-2   -9.163776340881757E-3    1.722678516138727E-2   -8.555044152414606E-3    2.500310560629219E-1    4.884673365569451E-1
 6.517640573000000E9    -2.227160954883965E-1   -8.521961941773758E-3    1.703982808144676E-2   -9.137662395073928E-3    1.733955321707516E-2   -8.610050482618176E-3    2.509508497516689E-1    4.878956328169188E-1
 6.517652492875000E9    -2.226483663417882E-1   -8.528422933986715E-3    1.718715820457124E-2   -9.267073995376898E-3    1.734628721600549E-2   -8.695599181622351E-3    2.519449807743846E-1    4.875065265960106E-1
 6.517664412750000E9    -2.222943767559382E-1   -8.345317160349017E-3    1.726089809961400E-2   -9.374175773183594E-3    1.752015779289550E-2   -8.974105140826420E-3    2.528169868446363E-1    4.871969481839425E-1
 6.517676332625000E9    -2.221816501371040E-1   -8.141835449250111E-3    1.733377867442750E-2   -9.553404426867425E-3    1.759464550196106E-2   -8.951209204497677E-3    2.536994136033542E-1    4.866696762197631E-1
 6.517688252500000E9    -2.220770744499688E-1   -8.096929403185658E-3    1.743686197711195E-2   -9.700269042948224E-3    1.763373146025769E-2   -9.167070550489955E-3    2.545249227135748E-1    4.862661645399821E-1
 6.517700172375000E9    -2.218651843916986E-1   -7.921691756531367E-3    1.738301151919957E-2   -9.794638349568181E-3    1.769744268343164E-2   -9.198320437359108E-3    2.553895928269095E-1    4.857227199441776E-1
 6.517712092250000E9    -2.216113306257012E-1   -7.871847245898745E-3    1.753667138296651E-2   -9.928480787847221E-3    1.786040803996378E-2   -9.341031986790102E-3    2.563619807380731E-1    4.852902427400654E-1
 6.517724012125000E9    -2.214797685104720E-1   -7.685579248171259E-3    1.770219803186210E-2   -9.990135931155560E-3    1.796524678559621E-2   -9.404340460339510E-3    2.570708385783482E-1    4.846079158154242E-1
 6.517735932000000E9    -2.213051676856427E-1   -7.686358647817839E-3    1.773252811579255E-2   -1.020117502099060E-2    1.800650563529636E-2   -9.454857849914493E-3    2.580551230506287E-1    4.843660824274519E-1
 6.517747851875000E9    -2.210012201742788E-1   -7.494686953273221E-3    1.782136414692622E-2   -1.017803972812979E-2    1.818674500961468E-2   -9.625041747460931E-3    2.589207417230677E-1    4.838950595537640E-1
 6.517759771750000E9    -2.209370247702093E-1   -7.334640564097271E-3    1.809410980741000E-2   -1.039867286765193E-2    1.827922870197098E-2   -9.720809651759754E-3    2.597812639335322E-1    4.834776735959174E-1
 6.517771691625000E9    -2.205793347422141E-1   -7.184822241651700E-3    1.800432768697771E-2   -1.038091460206623E-2    1.844080204152957E-2   -9.900293096121433E-3    2.606470888155591E-1    4.827892963815950E-1
 6.517783611500000E9    -2.205176682050800E-1   -7.182517105249354E-3    1.819206504321968E-2   -1.058748641817828E-2    1.844295656281517E-2   -9.975809740668442E-3    2.616286200831380E-1    4.824972295489971E-1
 6.517795531375000E9    -2.202621165648205E-1   -7.053608940316636E-3    1.821719277524119E-2   -1.079552782877613E-2    1.855730608397802E-2   -1.009819695429185E-2    2.625279735376740E-1    4.818524467128945E-1
 6.517807451250000E9    -2.199414269974905E-1   -6.809118260763850E-3    1.831912063775481E-2   -1.095666183020821E-2    1.877632508830268E-2   -1.025784125006525E-2    2.633201515764986E-1    4.812565486015114E-1
 6.517819371125000E9    -2.198603377591894E-1   -6.730119673165042E-3    1.840515980177179E-2   -1.102654098320055E-2    1.883679559939137E-2   -1.030591288462611E-2    2.642320384962850E-1    4.808274933272481E-1
 6.517831291000000E9    -2.197534257142753E-1   -6.679091627595842E-3    1.856341942601979E-2   -1.116414315076519E-2    1.898562124277024E-2   -1.051929668040779E-2    2.651928459791118E-1    4.803537210077103E-1
 6.517843210875000E9    -2.194861045755850E-1   -6.596418336276853E-3    1.873232984891943E-2   -1.112346569086166E-2    1.910741932282540E-2   -1.046800600046405E-2    2.659895724253395E-1    4.798245001944939E-1
 6.517855130750000E9    -2.192641496288063E-1   -6.518644867056003E-3    1.876964623665883E-2   -1.116508220573218E-2    1.907315260297200E-2   -1.075734260250350E-2    2.668787901497897E-1    4.793695564234952E-1
 6.517867050625000E9    -2.191176134006521E-1   -6.351639485473318E-3    1.885503387350567E-2   -1.154985813778901E-2    1.934584898157455E-2   -1.091024153069694E-2    2.677478442955135E-1    4.787733580403162E-1
 6.517878970500000E9    -2.188649742424053E-1   -6.203077441813806E-3    1.910258210353235E-2   -1.168909858393172E-2    1.936532501021913E-2   -1.099756035406953E-2    2.685463005760067E-1    4.783440521289980E-1
 6.517890890375000E9    -2.186347516225979E-1   -6.216524392825163E-3    1.914915129308408E-2   -1.174142120792917E-2    1.943916164274061E-2   -1.114966163507868E-2    2.695157799017037E-1    4.777113440585755E-1
 6.517902810250000E9    -2.183661966573158E-1   -6.140305216751041E-3    1.930973232770048E-2   -1.186509580533834E-2    1.964557451329882E-2   -1.128969209692589E-2    2.705066702258523E-1    4.771955478449746E-1
 6.517914730125000E9    -2.181415199250465E-1   -6.067842366766030E-3    1.936791024152500E-2   -1.207031822208226E-2    1.982312340864330E-2   -1.141904040517532E-2    2.713098279337308E-1    4.767915795192640E-1
 6.517926650000000E9    -2.180024837261205E-1   -5.921606062139149E-3    1.945126333246515E-2   -1.217701872784673E-2    2.002268335322768E-2   -1.151133758969024E-2    2.722213928137104E-1    4.762804704485515E-1
 6.517938569875000E9    -2.176777023191589E-1   -5.848863144322129E-3    1.983937240608218E-2   -1.222883292531340E-2    2.002983007026381E-2   -1.165209615405261E-2    2.730645170149841E-1    4.758922504020749E-1
 6.517950489750000E9    -2.175183316595032E-1   -5.709941113005907E-3    1.977176989823612E-2   -1.266787122510603E-2    2.017377014864628E-2   -1.195539285087706E-2    2.738928558479410E-1    4.751163703416414E-1
 6.517962409625000E9    -2.173489608966294E-1   -5.799645824730621E-3    1.997227584878334E-2   -1.274033047983919E-2    2.030508190461415E-2   -1.205449840015815E-2    2.747548622165635E-1    4.746160796722158E-1
 6.517974329500000E9    -2.172030226353302E-1   -5.629102713985625E-3    1.998513911494336E-2   -1.289749844997934E-2    2.044825612836081E-2   -1.217387401388972E-2    2.757958218000414E-1    4.741177990361929E-1
 6.517986249375000E9    -2.168357913579034E-1   -5.570599054352874E-3    2.017122497867502E-2   -1.297119488720638E-2    2.054488081047494E-2   -1.235817177045342E-2    2.767215580289960E-1    4.735200407861380E-1
 6.517998169250000E9    -2.166591105164115E-1   -5.673711766891533E-3    2.018369857786954E-2   -1.313576104950288E-2    2.081093713564030E-2   -1.250880020341133E-2    2.775000291134620E-1    4.728158673737328E-1
 6.518010089125000E9    -2.164820600763450E-1   -5.482982786444779E-3    2.038292935501602E-2   -1.343000402605899E-2    2.076906495696331E-2   -1.264498685649957E-2    2.783996806614101E-1    4.724656057952930E-1
 6.518022009000000E9    -2.160771016086517E-1   -5.443371283139334E-3    2.062391684534303E-2   -1.356066400866724E-2    2.104600007879941E-2   -1.286120865566300E-2    2.794659139476468E-1    4.718133726390527E-1
 6.518033928875000E9    -2.159273293423968E-1   -5.432148330425201E-3    2.064301353066609E-2   -1.375748811508426E-2    2.104198151818224E-2   -1.311517559479239E-2    2.801883885556501E-1    4.713180397138697E-1
 6.518045848750000E9    -2.156040578436848E-1   -5.436200113086889E-3    2.084932939856467E-2   -1.392321918346685E-2    2.119117852469956E-2   -1.323404552586017E-2    2.810873364356669E-1    4.706674348253977E-1
