#  HZ   S   RI   R     50.00 
! Rohde & Schwarz Vector Network Analyzer 
! Rohde-Schwarz,ZNB20-2Port,1311601062101988,3.16
! Created: UTC 12/23/2023, 3:43:33 AM
! freq[Hz]                re:S11                  im:S11                  re:S21                  im:S21                  re:S12                  im:S12                  re:S22                  im:S22
 6.516969551000000E9    -2.307178529907557E-1   -1.777633051461844E-2    1.318759917407622E-2   -5.147653823418521E-3    1.321651875934296E-2   -4.850114704653510E-3    2.013760815145179E-1    5.099765896355556E-1
 6.516981487350000E9    -2.305825908598030E-1   -1.766040800997274E-2    1.316511100112448E-2   -5.249084692057463E-3    1.327890684850001E-2   -4.788674578520407E-3    2.022555956269064E-1    5.097648459367885E-1
 6.516993423700000E9    -2.304121323188744E-1   -1.748451804556861E-2    1.330095278201040E-2   -5.261896661431731E-3    1.328752365246290E-2   -4.813422141116289E-3    2.030316969028817E-1    5.092706487459331E-1
 6.517005360050000E9    -2.303973770806112E-1   -1.739191074809643E-2    1.317901492701666E-2   -5.422810969959866E-3    1.343326021600032E-2   -5.112956195969403E-3    2.039345137736882E-1    5.091089562948876E-1
 6.517017296400000E9    -2.302066862741541E-1   -1.710349603439789E-2    1.330949919830301E-2   -5.428619334484110E-3    1.345565280487584E-2   -5.036098109778174E-3    2.048321552635191E-1    5.086365230466628E-1
 6.517029232750000E9    -2.302456130257008E-1   -1.694174457628514E-2    1.338210423712487E-2   -5.461759402071061E-3    1.357200415628727E-2   -4.991756472150344E-3    2.056564415970354E-1    5.082600356250941E-1
 6.517041169100000E9    -2.300765823010950E-1   -1.679030272007312E-2    1.345049593229051E-2   -5.636617889539511E-3    1.356066684139190E-2   -5.129158415230628E-3    2.067135010264868E-1    5.079546088562165E-1
 6.517053105450000E9    -2.299149696198693E-1   -1.662421527583906E-2    1.352947464300206E-2   -5.666541542874534E-3    1.362003597988757E-2   -5.151951383009935E-3    2.074376614583543E-1    5.075000265315996E-1
 6.517065041800000E9    -2.297203044293782E-1   -1.636274985228213E-2    1.352127001748590E-2   -5.704454292575076E-3    1.363987997061091E-2   -5.206475868336221E-3    2.083856032346057E-1    5.072914535293424E-1
 6.517076978150000E9    -2.296636244653370E-1   -1.617857856756599E-2    1.371517337277050E-2   -5.726513347951820E-3    1.380059853664115E-2   -5.293959535499060E-3    2.093169330640086E-1    5.068730811471858E-1
 6.517088914500000E9    -2.295414773735441E-1   -1.597333544041697E-2    1.363581434823133E-2   -5.716048812541143E-3    1.377626555015991E-2   -5.298884090434910E-3    2.100175083763098E-1    5.065444247725165E-1
 6.517100850850000E9    -2.294409474468028E-1   -1.587356762917427E-2    1.375586667840381E-2   -5.873423839481963E-3    1.384698800859377E-2   -5.320576195807809E-3    2.110649267978781E-1    5.062667895148180E-1
 6.517112787200000E9    -2.292447851079011E-1   -1.569132387885549E-2    1.378521894108443E-2   -5.889672576890522E-3    1.388849614076855E-2   -5.407297221354130E-3    2.119508605267246E-1    5.058022849906832E-1
 6.517124723550000E9    -2.291642977049927E-1   -1.548800816376607E-2    1.379225174412363E-2   -5.993130839692510E-3    1.408546935683394E-2   -5.459553457216087E-3    2.129358826839493E-1    5.054446922277787E-1
 6.517136659900000E9    -2.289676879897188E-1   -1.536506205463545E-2    1.389815516130063E-2   -6.037647160739564E-3    1.409219835016817E-2   -5.536491347465916E-3    2.137508360471642E-1    5.050451477644491E-1
 6.517148596250000E9    -2.288724506685191E-1   -1.511802386664396E-2    1.401184519620239E-2   -6.125714958410507E-3    1.400403843423446E-2   -5.552503233836993E-3    2.146298419776300E-1    5.049330173702515E-1
 6.517160532600000E9    -2.287491511074064E-1   -1.484156451202314E-2    1.399465633277491E-2   -6.145907718684436E-3    1.411096827167354E-2   -5.670893669280318E-3    2.154766993244521E-1    5.044228390093806E-1
 6.517172468950000E9    -2.287331008708959E-1   -1.472233632236721E-2    1.413401000370459E-2   -6.238531432131092E-3    1.419991475594354E-2   -5.711051753815526E-3    2.162932209555500E-1    5.040445349412028E-1
 6.517184405300000E9    -2.284658743270696E-1   -1.453188567609144E-2    1.419891326082767E-2   -6.185672223098501E-3    1.430872313820331E-2   -5.683511250892150E-3    2.172086651693937E-1    5.038418182007639E-1
 6.517196341650000E9    -2.283650724489525E-1   -1.434985797425937E-2    1.415858666825255E-2   -6.367697246888987E-3    1.423768797286128E-2   -5.751333003831451E-3    2.180826567305808E-1    5.034371136546818E-1
 6.517208278000000E9    -2.283226112631709E-1   -1.411313751016226E-2    1.423205038464527E-2   -6.392475422139098E-3    1.432787611654604E-2   -5.892833212461119E-3    2.188109379922007E-1    5.028375077208909E-1
 6.517220214350000E9    -2.281739274020317E-1   -1.407124104470025E-2    1.432875792063228E-2   -6.555507678535299E-3    1.450241444982618E-2   -5.872960155946773E-3    2.198363123915986E-1    5.026939100940587E-1
 6.517232150700000E9    -2.279596743828383E-1   -1.397515847907278E-2    1.447294506211055E-2   -6.500145371361523E-3    1.449599210186023E-2   -5.925025270110914E-3    2.207970536077204E-1    5.022612469979008E-1
 6.517244087050000E9    -2.278998785042012E-1   -1.369344742172027E-2    1.438284176939043E-2   -6.524508231516420E-3    1.463326292186448E-2   -6.040499035948926E-3    2.217046529537872E-1    5.018741962075903E-1
 6.517256023400000E9    -2.278054853177429E-1   -1.354421816223714E-2    1.462492851123945E-2   -6.597905442365158E-3    1.469441872193261E-2   -6.193955135643968E-3    2.224931090396824E-1    5.015265320954926E-1
 6.517267959750000E9    -2.276032334607302E-1   -1.337316193854155E-2    1.454557645278764E-2   -6.777890958774377E-3    1.475707387187656E-2   -6.228762794749759E-3    2.233906638169543E-1    5.010524188963810E-1
 6.517279896100000E9    -2.274331773969565E-1   -1.315912655464759E-2    1.465048172515119E-2   -6.775212757127974E-3    1.475156161085249E-2   -6.378049759472234E-3    2.242434104406811E-1    5.005892460252124E-1
 6.517291832450000E9    -2.272903054588726E-1   -1.300373086110523E-2    1.463875926370589E-2   -6.824463584904301E-3    1.487898952364602E-2   -6.407495692245225E-3    2.252034793609496E-1    5.003307451763297E-1
 6.517303768800000E9    -2.271262153053898E-1   -1.293959562793880E-2    1.478469977834305E-2   -6.962885642992935E-3    1.481265054121701E-2   -6.430932744847869E-3    2.260425356488421E-1    4.999940238335771E-1
 6.517315705150000E9    -2.271054817811655E-1   -1.274278618258154E-2    1.495591525070947E-2   -6.938975554896537E-3    1.499016690709265E-2   -6.395337025904622E-3    2.268944293950282E-1    4.996139822049905E-1
 6.517327641500000E9    -2.269358656565569E-1   -1.256750116149794E-2    1.499426567475804E-2   -7.061744618079762E-3    1.503851026589012E-2   -6.505375399107079E-3    2.278140899652413E-1    4.990987685478496E-1
 6.517339577850000E9    -2.267276660424956E-1   -1.239774627265147E-2    1.488711461176752E-2   -7.101478956122364E-3    1.515075985874197E-2   -6.616529355824388E-3    2.286949617188547E-1    4.987331302605632E-1
 6.517351514200000E9    -2.265902074567736E-1   -1.228698345112662E-2    1.509722058710795E-2   -7.211882825905236E-3    1.523926908654054E-2   -6.611096625607240E-3    2.294854404157613E-1    4.984645926634836E-1
 6.517363450550000E9    -2.264223414011711E-1   -1.211583840419786E-2    1.506877591243042E-2   -7.037877818953814E-3    1.537146528106423E-2   -6.702421778405296E-3    2.304574726291774E-1    4.979745773387114E-1
 6.517375386900000E9    -2.263905142094077E-1   -1.197519482505742E-2    1.523005885286308E-2   -7.371398694089706E-3    1.528942000429779E-2   -6.848120739348554E-3    2.312522232216989E-1    4.975599592750881E-1
 6.517387323250000E9    -2.261651998654861E-1   -1.172356517863904E-2    1.525031486208866E-2   -7.364775624531268E-3    1.554176183259851E-2   -6.812685577383088E-3    2.323175319725140E-1    4.971775728442912E-1
 6.517399259600000E9    -2.259681859036848E-1   -1.154342148209943E-2    1.531434923885173E-2   -7.392362359144762E-3    1.548846819391740E-2   -6.943582693258660E-3    2.331100848373499E-1    4.967083891227095E-1
 6.517411195950000E9    -2.258696902639775E-1   -1.139279781410086E-2    1.540355511245457E-2   -7.480815268635136E-3    1.564380239783823E-2   -7.035114962618162E-3    2.340386499948222E-1    4.962583009980929E-1
 6.517423132300000E9    -2.255989403814115E-1   -1.123570592697432E-2    1.546565160465630E-2   -7.525497776933609E-3    1.567654697620719E-2   -7.148005430245562E-3    2.347544434079322E-1    4.958904701067730E-1
 6.517435068650000E9    -2.255856391060365E-1   -1.110908815400272E-2    1.559961115323063E-2   -7.715132652507011E-3    1.591974879133665E-2   -7.160204612143933E-3    2.357579313926794E-1    4.954904331843948E-1
 6.517447005000000E9    -2.254069259273966E-1   -1.091512461168517E-2    1.572493550807405E-2   -7.787263352641541E-3    1.585779292248321E-2   -7.229591931929434E-3    2.364581426903694E-1    4.951690496737273E-1
 6.517458941350000E9    -2.253053004161160E-1   -1.078147832722092E-2    1.560132745648110E-2   -7.912921383547721E-3    1.594694728578432E-2   -7.350114969925478E-3    2.375099467909969E-1    4.947190990335003E-1
 6.517470877700000E9    -2.251041060508099E-1   -1.058925094139079E-2    1.585226613135080E-2   -7.887339117914061E-3    1.590071783744455E-2   -7.381206251763445E-3    2.382409078718971E-1    4.942455302337297E-1
 6.517482814050000E9    -2.249798780001447E-1   -1.046241624056669E-2    1.586154925020957E-2   -7.958513398204503E-3    1.600566538279129E-2   -7.481016019010143E-3    2.392751481710992E-1    4.937645474513878E-1
 6.517494750400000E9    -2.247496178215564E-1   -1.035771189960013E-2    1.592766027552781E-2   -8.089234945783745E-3    1.627416547708259E-2   -7.506048981327454E-3    2.402007182745005E-1    4.933973994938033E-1
 6.517506686750000E9    -2.246771331770384E-1   -1.010713576738699E-2    1.602702930920653E-2   -8.142398358201680E-3    1.632861284580751E-2   -7.604248108518974E-3    2.410449709044032E-1    4.929795927900719E-1
 6.517518623100000E9    -2.244469030216091E-1   -1.009136356958582E-2    1.617448322811459E-2   -8.355229280908975E-3    1.632820971137798E-2   -7.706349094458761E-3    2.418946227115731E-1    4.925907992523429E-1
 6.517530559450000E9    -2.242349164414499E-1   -9.877091655734704E-3    1.628053394942539E-2   -8.524265963376670E-3    1.642551414368749E-2   -7.814100469790440E-3    2.428349427091620E-1    4.921353496953599E-1
 6.517542495800000E9    -2.240985672329108E-1   -9.770148684449418E-3    1.626925423592587E-2   -8.576750745536797E-3    1.646358206621993E-2   -7.913400736327373E-3    2.438234537547899E-1    4.916747554786065E-1
 6.517554432150000E9    -2.239643352858331E-1   -9.586955724654704E-3    1.634433395947722E-2   -8.582498849098936E-3    1.675437804382311E-2   -7.933721474753908E-3    2.445242386087046E-1    4.912131333572224E-1
 6.517566368500000E9    -2.238079032753666E-1   -9.473640948955862E-3    1.640707805648455E-2   -8.722072127033615E-3    1.677405498111118E-2   -8.129871657023339E-3    2.454089003877782E-1    4.907523345562287E-1
 6.517578304850000E9    -2.236602789981473E-1   -9.306230661076708E-3    1.653851346233720E-2   -8.726128935675408E-3    1.680954894984560E-2   -8.194135745629341E-3    2.463190725408460E-1    4.904282110873004E-1
 6.517590241200000E9    -2.233919073063668E-1   -9.085381254733472E-3    1.668884240574229E-2   -8.788442630441410E-3    1.694156014541265E-2   -8.210286921938854E-3    2.471199717054246E-1    4.897584815018177E-1
 6.517602177550000E9    -2.233323260394815E-1   -8.944006182675900E-3    1.665739853439599E-2   -8.924258348905062E-3    1.703649127416427E-2   -8.287689991216349E-3    2.480227366111411E-1    4.894613915278646E-1
 6.517614113900000E9    -2.230907582453146E-1   -8.869521592347244E-3    1.691950446214942E-2   -9.132904156239139E-3    1.701090637720620E-2   -8.397816121288542E-3    2.490179707092898E-1    4.890074237760481E-1
 6.517626050250000E9    -2.229514844500667E-1   -8.704075228272348E-3    1.699499047438264E-2   -9.210947933480205E-3    1.714801067870670E-2   -8.575578781972567E-3    2.498762630829383E-1    4.886288606913171E-1
 6.517637986600000E9    -2.227329706858645E-1   -8.648004319032888E-3    1.692899768608891E-2   -9.300783852866701E-3    1.722929439497227E-2   -8.659648199442142E-3    2.506927605018068E-1    4.881827868489501E-1
 6.517649922950000E9    -2.226888371926127E-1   -8.508784890948758E-3    1.705186769620468E-2   -9.343089046722541E-3    1.741504166541721E-2   -8.780649455262137E-3    2.515129160524955E-1    4.877021347655520E-1
 6.517661859300000E9    -2.224520694369736E-1   -8.313945030426597E-3    1.722495979269498E-2   -9.492779851819531E-3    1.742439296502655E-2   -8.878344938018637E-3    2.524793844796611E-1    4.873554572227976E-1
 6.517673795650000E9    -2.223427797983840E-1   -8.224014833366818E-3    1.711931034467479E-2   -9.546338963255210E-3    1.751882009707408E-2   -9.015223349109799E-3    2.532681181322013E-1    4.868081489267710E-1
 6.517685732000000E9    -2.219674777108507E-1   -7.942542522128806E-3    1.739397871901444E-2   -9.658781194159499E-3    1.767911562741908E-2   -9.063647903710484E-3    2.542810955931004E-1    4.863547693814377E-1
 6.517697668350000E9    -2.220131381037487E-1   -7.911037486552351E-3    1.745814167324457E-2   -9.838041938588168E-3    1.761939673591071E-2   -9.177608656245870E-3    2.552035400722847E-1    4.858233955473525E-1
 6.517709604700000E9    -2.216664875107879E-1   -7.776428471726763E-3    1.760366101165850E-2   -9.827444260177537E-3    1.787940359024318E-2   -9.293627189760911E-3    2.560586859988107E-1    4.854001357853407E-1
 6.517721541050000E9    -2.214676755571771E-1   -7.803754178625013E-3    1.761191375613256E-2   -9.836560492283418E-3    1.796892068606534E-2   -9.504229194195642E-3    2.568848094034075E-1    4.849217651372991E-1
 6.517733477400000E9    -2.212158197355021E-1   -7.604030375838823E-3    1.765461401781124E-2   -1.013554893187060E-2    1.805520757526709E-2   -9.528291872546871E-3    2.579405891060254E-1    4.844064842091056E-1
 6.517745413750000E9    -2.210725899747452E-1   -7.425276235045276E-3    1.782395246121009E-2   -1.025728330779128E-2    1.815262774668696E-2   -9.609547214868787E-3    2.585653883124678E-1    4.839297936603789E-1
 6.517757350100000E9    -2.209706819450548E-1   -7.473606782304867E-3    1.793316837972540E-2   -1.030644307148472E-2    1.828967617841529E-2   -9.726967644346300E-3    2.595362527302034E-1    4.834332646044859E-1
 6.517769286450000E9    -2.208918131229148E-1   -7.281094048870704E-3    1.801997721065772E-2   -1.045239595547032E-2    1.835478514671272E-2   -9.968330568728413E-3    2.603598852887641E-1    4.829580582680764E-1
 6.517781222800000E9    -2.204862078476978E-1   -7.115933578941269E-3    1.819059080730129E-2   -1.058350975852991E-2    1.850581940055130E-2   -9.934937841189420E-3    2.613917311993018E-1    4.825876274370875E-1
 6.517793159150000E9    -2.203605439341144E-1   -7.082463897592917E-3    1.832153726949704E-2   -1.061120068318961E-2    1.849795420051172E-2   -1.014710783928202E-2    2.622577575026214E-1    4.819168634351241E-1
 6.517805095500000E9    -2.201046597515315E-1   -6.947117672435070E-3    1.837010452469016E-2   -1.067549124554475E-2    1.859174314683269E-2   -1.012519266830063E-2    2.631093444250594E-1    4.816154558543766E-1
 6.517817031850000E9    -2.198441942412717E-1   -6.794922580031759E-3    1.844274760378963E-2   -1.107279311989802E-2    1.886856667856105E-2   -1.033278115696598E-2    2.640444445190953E-1    4.808864500971558E-1
 6.517828968200000E9    -2.198289225165377E-1   -6.741277022697488E-3    1.863773986590071E-2   -1.102410799932042E-2    1.893679712858339E-2   -1.048383177987177E-2    2.649114439049108E-1    4.804022499038161E-1
 6.517840904550000E9    -2.194510733503849E-1   -6.626958300598070E-3    1.861762750832328E-2   -1.122516175824016E-2    1.898513688829379E-2   -1.061852302266244E-2    2.657968112678272E-1    4.799543672355425E-1
 6.517852840900000E9    -2.193597439553697E-1   -6.557374668627879E-3    1.886345371536205E-2   -1.135146635834587E-2    1.912036812510976E-2   -1.082135356219884E-2    2.667254442196035E-1    4.793711818093397E-1
 6.517864777250000E9    -2.191697046160282E-1   -6.413265045706954E-3    1.896388178410275E-2   -1.150544729291256E-2    1.926798506291289E-2   -1.092900954508642E-2    2.676290074990790E-1    4.789033765375480E-1
 6.517876713600000E9    -2.188538484409907E-1   -6.336712043744412E-3    1.900743837374154E-2   -1.174235963780139E-2    1.939786191434448E-2   -1.103733251295006E-2    2.684911683727316E-1    4.782825170760552E-1
 6.517888649950000E9    -2.186444348954177E-1   -6.245972210772915E-3    1.904554101726350E-2   -1.180385570524194E-2    1.938361298958832E-2   -1.110452044739838E-2    2.694998926007578E-1    4.779533502401912E-1
 6.517900586300000E9    -2.184468142425261E-1   -6.189776768680501E-3    1.914500552658142E-2   -1.193318827258512E-2    1.968055984568308E-2   -1.134333010558861E-2    2.701837540062115E-1    4.774775599682346E-1
 6.517912522650000E9    -2.181803104932543E-1   -6.181351775543635E-3    1.934719467710236E-2   -1.210284259038888E-2    1.981998219127467E-2   -1.133920054296068E-2    2.712261223198084E-1    4.767624911587025E-1
 6.517924459000000E9    -2.180404561590666E-1   -6.003709186219169E-3    1.950398934054338E-2   -1.216596804172950E-2    1.986444565852639E-2   -1.153212983931670E-2    2.721326950127009E-1    4.763022505870533E-1
 6.517936395350000E9    -2.177383311199980E-1   -5.846421232311550E-3    1.964885263043253E-2   -1.231449794439062E-2    2.002848638367666E-2   -1.175001434615137E-2    2.729396757405119E-1    4.758439928505037E-1
 6.517948331700000E9    -2.176483513208829E-1   -5.840167528879457E-3    1.974516579776620E-2   -1.241799675909169E-2    2.009161215381682E-2   -1.187382019645106E-2    2.738824340315517E-1    4.753055083345428E-1
 6.517960268050000E9    -2.173337640215069E-1   -5.772100308259183E-3    1.992740169571827E-2   -1.266476903523013E-2    2.023894578114921E-2   -1.200060862538910E-2    2.747068345107928E-1    4.747099810130685E-1
 6.517972204400000E9    -2.171332328451494E-1   -5.682322522613327E-3    1.992977723920252E-2   -1.277575297486420E-2    2.036063766173087E-2   -1.220673706121361E-2    2.756013847923693E-1    4.741633854015582E-1
 6.517984140750000E9    -2.168455711914883E-1   -5.510768735323442E-3    2.007926582207219E-2   -1.294004830766680E-2    2.052397445851531E-2   -1.230632985272167E-2    2.765053535131611E-1    4.735050300776956E-1
 6.517996077100000E9    -2.166616057890339E-1   -5.547609003585187E-3    2.023489524180591E-2   -1.319192153580478E-2    2.055190245755101E-2   -1.254246317764286E-2    2.775374593374652E-1    4.730184362967947E-1
 6.518008013450000E9    -2.164343295926331E-1   -5.625665700883154E-3    2.046312374271146E-2   -1.331787419023286E-2    2.068959986503606E-2   -1.263743746151422E-2    2.783275692589670E-1    4.724683351371035E-1
 6.518019949800000E9    -2.161999846449124E-1   -5.464259985153898E-3    2.051651087580359E-2   -1.342251304518432E-2    2.092970848108440E-2   -1.286774153776705E-2    2.792964252443210E-1    4.718904881350985E-1
 6.518031886150000E9    -2.158501651416551E-1   -5.477910011726797E-3    2.060250087600233E-2   -1.378451819344099E-2    2.112809012172980E-2   -1.299119286115614E-2    2.801630519878600E-1    4.713656584702352E-1
 6.518043822500000E9    -2.156664649582029E-1   -5.419968543632390E-3    2.061664481305154E-2   -1.386156285045969E-2    2.111409639723123E-2   -1.323692924012192E-2    2.810588601962226E-1    4.707470619257242E-1
