#  HZ   S   RI   R     50.00 
! Rohde & Schwarz Vector Network Analyzer 
! Rohde-Schwarz,ZNB20-2Port,1311601062101988,3.16
! Created: UTC 3/20/2024, 11:36:19 AM
! freq[Hz]                re:S11                  im:S11                  re:S21                  im:S21                  re:S12                  im:S12                  re:S22                  im:S22
 8.117594744000000E9     5.005022198959308E-1   -6.692487948802751E-2    1.764783285507895E-3    5.034369434572286E-3    1.874260190327908E-3    5.112459254594065E-3    4.017003196199790E-1   -2.083226668172332E-1
 8.117595792325000E9     5.002901622307570E-1   -6.724462668727496E-2    1.787486093605294E-3    5.036873037685347E-3    1.836784946144140E-3    5.129827595884098E-3    4.016074658951959E-1   -2.082511776246008E-1
 8.117596840650000E9     5.005071882183130E-1   -6.722555971639513E-2    1.763504143186011E-3    5.041789854398149E-3    1.861217788167669E-3    5.110838442251264E-3    4.015910806859190E-1   -2.084434339071170E-1
 8.117597888975000E9     5.003667230014471E-1   -6.738392149749892E-2    1.785077064298999E-3    5.051695814934651E-3    1.864538758434869E-3    5.138800507283034E-3    4.015382669886177E-1   -2.083705403653089E-1
 8.117598937300000E9     5.002648916383359E-1   -6.757811506614105E-2    1.780723317171689E-3    5.058577253709653E-3    1.883357538087964E-3    5.112365123839510E-3    4.015020616202488E-1   -2.086557215752714E-1
 8.117599985625000E9     5.004355464234512E-1   -6.776642120495212E-2    1.764345338576256E-3    5.085131666312879E-3    1.868723117184894E-3    5.151561529215269E-3    4.014659193737375E-1   -2.085238270900487E-1
 8.117601033950000E9     5.003525844894413E-1   -6.785704147928638E-2    1.825144380669363E-3    5.066482894905661E-3    1.871017354607365E-3    5.166594502643830E-3    4.015477230096797E-1   -2.086957857554458E-1
 8.117602082275000E9     5.001863795017710E-1   -6.800433131632856E-2    1.812663344032929E-3    5.088543943280449E-3    1.874623619145620E-3    5.185189738659752E-3    4.013336628722829E-1   -2.086803825532820E-1
 8.117603130600000E9     5.002314240409189E-1   -6.803398444951327E-2    1.791282298974436E-3    5.108839048438202E-3    1.888256452011282E-3    5.191426779200124E-3    4.013498885923457E-1   -2.088502233206659E-1
 8.117604178925000E9     5.000967717129183E-1   -6.822060770424551E-2    1.795039384468580E-3    5.116293284720496E-3    1.881075079556735E-3    5.174782193159340E-3    4.013055789075387E-1   -2.088705369168419E-1
 8.117605227250000E9     5.001946141406527E-1   -6.850200967299523E-2    1.821476603391363E-3    5.134657864616334E-3    1.913459612693634E-3    5.179848945262381E-3    4.012492439956837E-1   -2.088762351341209E-1
 8.117606275575000E9     5.001111869587894E-1   -6.852493391902054E-2    1.810351833121452E-3    5.125829536832233E-3    1.896123899034251E-3    5.200687101167163E-3    4.012336886668609E-1   -2.089979349129999E-1
 8.117607323900000E9     5.000357717366725E-1   -6.864001218254158E-2    1.824028238534198E-3    5.132626839878761E-3    1.955886911397535E-3    5.216477845586610E-3    4.012897511749410E-1   -2.090621793630498E-1
 8.117608372225000E9     5.000350991003919E-1   -6.872286073119518E-2    1.820823252238650E-3    5.119824852766312E-3    1.904687668810724E-3    5.263332465939727E-3    4.011394371527967E-1   -2.091913025169898E-1
 8.117609420550000E9     4.999770267942355E-1   -6.885817131494068E-2    1.847736580512025E-3    5.168044266783463E-3    1.897544497732487E-3    5.252445676510029E-3    4.012401576163438E-1   -2.090859856819705E-1
 8.117610468875000E9     5.000372146363617E-1   -6.907817308090228E-2    1.852394956755496E-3    5.212403328789363E-3    1.940202782192917E-3    5.226533534330321E-3    4.010133780702612E-1   -2.091965829602073E-1
 8.117611517200000E9     4.999486408420794E-1   -6.919592549875253E-2    1.843299652278610E-3    5.190122573913204E-3    1.934376107994548E-3    5.248638260286068E-3    4.010565283704044E-1   -2.093280392254745E-1
 8.117612565525000E9     5.000386884682591E-1   -6.924588578272714E-2    1.839292820955050E-3    5.197597972889281E-3    1.958101564883928E-3    5.284342743208398E-3    4.010016462051038E-1   -2.093527609809607E-1
 8.117613613850000E9     4.999343668238512E-1   -6.943087728205918E-2    1.863339579278538E-3    5.208842825063902E-3    1.952007370943198E-3    5.290603595507621E-3    4.010475595593412E-1   -2.093754110111392E-1
 8.117614662175000E9     4.999525557047071E-1   -6.957258440089312E-2    1.866430192287717E-3    5.207483522587683E-3    1.916707871143081E-3    5.309408383127570E-3    4.010622502911966E-1   -2.095907987171964E-1
 8.117615710500000E9     4.999096371299776E-1   -6.963534249074495E-2    1.861278825121623E-3    5.204487276654968E-3    1.979714368042680E-3    5.308750652778882E-3    4.009434690729217E-1   -2.096740878681372E-1
 8.117616758825000E9     4.998044093728486E-1   -6.978165658545329E-2    1.872455547102642E-3    5.212301201588549E-3    1.963787105154846E-3    5.316483544092954E-3    4.009531480481587E-1   -2.097340558054188E-1
 8.117617807150000E9     4.997600779459519E-1   -6.993077850570276E-2    1.893884977005138E-3    5.259282171830952E-3    1.989091072422750E-3    5.342927050859861E-3    4.009798661086272E-1   -2.097754603271957E-1
 8.117618855475000E9     4.997166530128267E-1   -7.004913719810096E-2    1.902886253793987E-3    5.256723773192025E-3    1.979528705404321E-3    5.336361238909657E-3    4.008819641114263E-1   -2.099199839286162E-1
 8.117619903800000E9     4.996936374268666E-1   -7.020022012784770E-2    1.910361712260995E-3    5.259976766203518E-3    2.010223183995712E-3    5.336522694826855E-3    4.007765916958546E-1   -2.099359061600944E-1
 8.117620952125000E9     4.996563002432757E-1   -7.022104017812252E-2    1.925925603471365E-3    5.260094921727992E-3    2.039564074214221E-3    5.357875194239915E-3    4.008505595598389E-1   -2.099738435342005E-1
 8.117622000450000E9     4.997323370892654E-1   -7.049567668889017E-2    1.927775023182968E-3    5.306662391385905E-3    2.005200221995373E-3    5.361867317028994E-3    4.007807341856232E-1   -2.101238588030040E-1
 8.117623048775000E9     4.996953972835706E-1   -7.066575781752804E-2    1.940029805233917E-3    5.307229716549717E-3    2.034641030889080E-3    5.369004576033460E-3    4.008714851338206E-1   -2.099546322606972E-1
 8.117624097100000E9     4.995774503386136E-1   -7.077132143610118E-2    1.936376178822484E-3    5.333523995669966E-3    2.042480585244076E-3    5.370538547491068E-3    4.007353518982556E-1   -2.102586086827619E-1
 8.117625145425000E9     4.995570443635513E-1   -7.087645391274765E-2    1.964478889291775E-3    5.317367979781143E-3    2.049912524538183E-3    5.386732755723656E-3    4.008093693133453E-1   -2.102456379330511E-1
 8.117626193750000E9     4.996307611562723E-1   -7.098353072997049E-2    1.943150418636612E-3    5.348603801121223E-3    2.082018043460256E-3    5.449138465625570E-3    4.006436360554397E-1   -2.102302351299701E-1
 8.117627242075000E9     4.995061966087445E-1   -7.117982585612097E-2    1.940174713102868E-3    5.344620173644000E-3    2.054219202462777E-3    5.453384328221083E-3    4.006619902055197E-1   -2.103301728471387E-1
 8.117628290400000E9     4.994319983476633E-1   -7.126555772581207E-2    1.964605101614727E-3    5.365675811975282E-3    2.076579796765918E-3    5.467137315996940E-3    4.004528813863170E-1   -2.105525720159439E-1
 8.117629338725000E9     4.993736715865955E-1   -7.155869047762545E-2    2.003130563011303E-3    5.369907685096845E-3    2.076414533713394E-3    5.493398166850828E-3    4.005993073452536E-1   -2.104842008353537E-1
 8.117630387050000E9     4.993718834402958E-1   -7.173356593187004E-2    2.006341564158172E-3    5.382397757671247E-3    2.082012824444300E-3    5.497201990231979E-3    4.004934496421292E-1   -2.103948954957905E-1
 8.117631435375000E9     4.993014095864868E-1   -7.167886079368298E-2    1.978093018157342E-3    5.377373544522178E-3    2.101909515241884E-3    5.504367090117024E-3    4.004934196363744E-1   -2.106179462724645E-1
 8.117632483700000E9     4.993350316920535E-1   -7.202096841659562E-2    2.010453907896917E-3    5.419247868422209E-3    2.105125794958926E-3    5.463837368410996E-3    4.004740317616467E-1   -2.106130043571382E-1
 8.117633532025000E9     4.994035670363554E-1   -7.199039573727774E-2    2.008929528137784E-3    5.410830080737496E-3    2.100941442651078E-3    5.519643870487205E-3    4.004220387867242E-1   -2.107479581137048E-1
 8.117634580350000E9     4.990723835819462E-1   -7.216653458368572E-2    2.025007742889046E-3    5.451721140645596E-3    2.116520006960915E-3    5.539434788936716E-3    4.003919696856361E-1   -2.107662494081645E-1
 8.117635628675000E9     4.991944285710304E-1   -7.231979927679495E-2    2.038841036705721E-3    5.454014072426017E-3    2.084197919236215E-3    5.533488045529144E-3    4.003866280614659E-1   -2.108566180977427E-1
 8.117636677000000E9     4.991557094544280E-1   -7.255759029220872E-2    2.041226016453584E-3    5.456825657857647E-3    2.150099533195448E-3    5.545538220977087E-3    4.004108385794488E-1   -2.108452297534323E-1
 8.117637725325000E9     4.990071228724225E-1   -7.254193446028065E-2    2.021749714812288E-3    5.480314386913749E-3    2.137328314042918E-3    5.578444761268468E-3    4.003211765175194E-1   -2.111016921639158E-1
 8.117638773650000E9     4.990705409508186E-1   -7.274586663179897E-2    2.057095391192001E-3    5.505576593888282E-3    2.157691141492855E-3    5.542202419303271E-3    4.002214118862956E-1   -2.112996751504468E-1
 8.117639821975000E9     4.991067167477158E-1   -7.287907512941773E-2    2.067522495378493E-3    5.489934724705594E-3    2.186124463199597E-3    5.612772388975778E-3    4.002631915412905E-1   -2.112285856071749E-1
 8.117640870300000E9     4.990528011962936E-1   -7.300850655732005E-2    2.063685982118968E-3    5.523428414549432E-3    2.165391505061162E-3    5.582069725603449E-3    4.000938693799964E-1   -2.112417679034651E-1
 8.117641918625000E9     4.989296138752843E-1   -7.320448501892937E-2    2.077270676874559E-3    5.510580209475216E-3    2.184842214553300E-3    5.581918863545458E-3    4.000890165588506E-1   -2.111521545525633E-1
 8.117642966950000E9     4.988837265858279E-1   -7.330604009284386E-2    2.120106691178201E-3    5.552629228700161E-3    2.196944887458818E-3    5.645391084645419E-3    4.002149914452647E-1   -2.114242007117688E-1
 8.117644015275000E9     4.988896381417643E-1   -7.350612557615417E-2    2.122513598190145E-3    5.576520133782471E-3    2.231875664121054E-3    5.675838645348788E-3    4.000693716041255E-1   -2.114960332218020E-1
 8.117645063600000E9     4.987645682164256E-1   -7.370361952955855E-2    2.075082019626013E-3    5.573221377732831E-3    2.211800714692460E-3    5.681281796070929E-3    3.999787078112129E-1   -2.115259022937511E-1
 8.117646111925000E9     4.988121163419313E-1   -7.378324026080385E-2    2.124803678924426E-3    5.584312185101978E-3    2.209849857124832E-3    5.698428333684571E-3    4.001672868304687E-1   -2.116181274050642E-1
 8.117647160250000E9     4.986957294085393E-1   -7.398759042038712E-2    2.136662970729276E-3    5.601549984693529E-3    2.239286096737841E-3    5.714253050218687E-3    3.999905884152163E-1   -2.116787239475014E-1
 8.117648208575000E9     4.986059520689107E-1   -7.395839635246036E-2    2.152465413952419E-3    5.634838446547040E-3    2.238573877207927E-3    5.723995058057838E-3    3.998391544289647E-1   -2.116572926486363E-1
 8.117649256900000E9     4.986037178706592E-1   -7.425036785898108E-2    2.165174099703688E-3    5.653755117932442E-3    2.237488822087740E-3    5.714215630640400E-3    3.999708834431607E-1   -2.117789948243668E-1
 8.117650305225000E9     4.986188186867921E-1   -7.436807971097083E-2    2.166678331821078E-3    5.630569633663857E-3    2.292783361975867E-3    5.742249705292532E-3    3.998585040956782E-1   -2.118541283110010E-1
 8.117651353550000E9     4.986526494398594E-1   -7.460022675745161E-2    2.179954108428753E-3    5.677424394982011E-3    2.301333417782515E-3    5.746081344576253E-3    3.997848017134905E-1   -2.119574562366782E-1
 8.117652401875000E9     4.985152801867979E-1   -7.466868359662826E-2    2.203784317142601E-3    5.679519100651915E-3    2.271731620132228E-3    5.752053352659922E-3    3.998401689548405E-1   -2.119618921649605E-1
 8.117653450200000E9     4.984532710978525E-1   -7.485544700859791E-2    2.205402162263640E-3    5.713748818440387E-3    2.300378954468898E-3    5.782444833052333E-3    3.997938508000443E-1   -2.121688646439077E-1
 8.117654498525000E9     4.985712122327550E-1   -7.503020687480881E-2    2.230322614080192E-3    5.728615096292425E-3    2.279951293662637E-3    5.819103212201661E-3    3.996456028349009E-1   -2.122071479637387E-1
 8.117655546850000E9     4.983769398129777E-1   -7.519646064535773E-2    2.214380272971495E-3    5.734069765074569E-3    2.315320761590803E-3    5.809874261726859E-3    3.996605344464582E-1   -2.122670220481488E-1
 8.117656595175000E9     4.982900119573865E-1   -7.536296403239046E-2    2.240360683105547E-3    5.768196702781236E-3    2.335708236534819E-3    5.865755275834825E-3    3.996896402205262E-1   -2.122896513901512E-1
 8.117657643500000E9     4.982790416007117E-1   -7.545807349554887E-2    2.261204189713093E-3    5.776250626781599E-3    2.317529528625328E-3    5.866009371527640E-3    3.995970279664169E-1   -2.123805183958342E-1
 8.117658691825000E9     4.981813494173291E-1   -7.575862583478503E-2    2.270863975981591E-3    5.789334402244460E-3    2.367925956632671E-3    5.865010700730265E-3    3.996422134919940E-1   -2.125058515851146E-1
 8.117659740150000E9     4.981352990922021E-1   -7.576700294802953E-2    2.280534760677073E-3    5.791641995551827E-3    2.388578521896174E-3    5.887347891987758E-3    3.997270040250375E-1   -2.124894885819087E-1
 8.117660788475000E9     4.981113719225999E-1   -7.594188574364098E-2    2.273065869214373E-3    5.825532039367138E-3    2.369782449659462E-3    5.920779104804355E-3    3.994866142017782E-1   -2.125622073633893E-1
 8.117661836800000E9     4.980115090132485E-1   -7.616671383533906E-2    2.296325304775821E-3    5.830676567082819E-3    2.413880985986410E-3    5.934687621001124E-3    3.993643552209006E-1   -2.126277258700076E-1
 8.117662885125000E9     4.979706698171905E-1   -7.637337628783170E-2    2.307462784609572E-3    5.848388403681543E-3    2.407154978932003E-3    5.945828158968568E-3    3.994540941720274E-1   -2.126905564885581E-1
 8.117663933450000E9     4.979438357000180E-1   -7.661160419418428E-2    2.326626721378154E-3    5.887188125429709E-3    2.455637261845706E-3    5.947147051779600E-3    3.994263797417101E-1   -2.129167853170178E-1
 8.117664981775000E9     4.978389883258937E-1   -7.668920424389601E-2    2.338192362509654E-3    5.911340445190047E-3    2.456119411969719E-3    5.985161454471827E-3    3.995309140221495E-1   -2.128776176957101E-1
 8.117666030100000E9     4.978288882446579E-1   -7.687688816524703E-2    2.355634644832248E-3    5.897627040471047E-3    2.434707767111283E-3    6.000157936361144E-3    3.994936616277079E-1   -2.128080703834515E-1
 8.117667078425000E9     4.977514746747903E-1   -7.698212234099470E-2    2.356521509916519E-3    5.907157762777853E-3    2.471696431771679E-3    6.026744151820143E-3    3.992692631859036E-1   -2.128708972343072E-1
 8.117668126750000E9     4.976722240870683E-1   -7.725282160997728E-2    2.397677134722773E-3    5.936021757608277E-3    2.496684584230161E-3    6.060106513766255E-3    3.992833341976877E-1   -2.130681325375304E-1
 8.117669175075000E9     4.975942509271923E-1   -7.741392191595163E-2    2.388771182530283E-3    5.965027700120766E-3    2.498400796049361E-3    6.034257929484481E-3    3.992429733280563E-1   -2.130384941115827E-1
 8.117670223400000E9     4.975776188646397E-1   -7.755666278608769E-2    2.397947873859015E-3    6.001425188642671E-3    2.505154934358815E-3    6.072205696374771E-3    3.991408852277938E-1   -2.133246696418721E-1
 8.117671271725000E9     4.974831161049484E-1   -7.778422522621239E-2    2.434599006046759E-3    6.011408897105674E-3    2.532191260999970E-3    6.101234553572294E-3    3.992046869247797E-1   -2.131313050255187E-1
 8.117672320050000E9     4.974943892486281E-1   -7.794577969168082E-2    2.446792147843913E-3    6.006922965987671E-3    2.506590170528412E-3    6.114755511680069E-3    3.993370885681338E-1   -2.132659251249873E-1
 8.117673368375000E9     4.972768626790993E-1   -7.815874973673868E-2    2.466063696438489E-3    6.045802152032855E-3    2.535515660943645E-3    6.115360294773101E-3    3.991313672584219E-1   -2.134525800157125E-1
 8.117674416700000E9     4.974456282216463E-1   -7.822013076277931E-2    2.445291911689465E-3    6.039713170405601E-3    2.574966559842501E-3    6.156725041357428E-3    3.990919268724673E-1   -2.133866830013438E-1
 8.117675465025000E9     4.972173922253037E-1   -7.846028507531227E-2    2.494460072539011E-3    6.092947750157439E-3    2.605511814145524E-3    6.192134800973917E-3    3.989878826914474E-1   -2.136281740145974E-1
 8.117676513350000E9     4.972006583745115E-1   -7.874475673883541E-2    2.504582774143852E-3    6.120395454835082E-3    2.623685184618818E-3    6.206921177180753E-3    3.990065330212127E-1   -2.134997167113322E-1
 8.117677561675000E9     4.970719840040472E-1   -7.884612658117533E-2    2.540153770923220E-3    6.107624223974231E-3    2.624316462905195E-3    6.247155973276922E-3    3.991148994811641E-1   -2.136713428342597E-1
 8.117678610000000E9     4.970181563871721E-1   -7.903592361481999E-2    2.537104361224386E-3    6.146501349836517E-3    2.644003960638340E-3    6.200992303347243E-3    3.988941778224154E-1   -2.137983628565639E-1
 8.117679658325000E9     4.969375717747181E-1   -7.922686375670361E-2    2.548013473902313E-3    6.193048765402951E-3    2.655350826554816E-3    6.282851227581543E-3    3.989630931577411E-1   -2.138279818196604E-1
 8.117680706650000E9     4.968532523994477E-1   -7.929692901255424E-2    2.566807533164011E-3    6.153939231787928E-3    2.662505155771921E-3    6.259485688455379E-3    3.987461783307580E-1   -2.137537938846697E-1
 8.117681754975000E9     4.969423078932105E-1   -7.960679885586400E-2    2.576620536471763E-3    6.220138261295281E-3    2.705463195367304E-3    6.302900834009906E-3    3.987856723403714E-1   -2.140441340294991E-1
 8.117682803300000E9     4.967074790604366E-1   -7.979501521579038E-2    2.591270979547763E-3    6.264466165284932E-3    2.697488971220022E-3    6.352751386797797E-3    3.989422495635291E-1   -2.140042422195385E-1
 8.117683851625000E9     4.966422796902848E-1   -7.993142535416266E-2    2.622265180495886E-3    6.269579139163217E-3    2.741765509449448E-3    6.382911437547950E-3    3.988137988570442E-1   -2.141496280492633E-1
 8.117684899950000E9     4.966172182407440E-1   -8.014128366389246E-2    2.665666318603080E-3    6.314569687446302E-3    2.761507091033163E-3    6.369618555296643E-3    3.988212201321019E-1   -2.142962855416466E-1
 8.117685948275000E9     4.964667225575103E-1   -8.036671413179898E-2    2.650302517734361E-3    6.309490858669718E-3    2.757856082265016E-3    6.424046582201360E-3    3.986382124439749E-1   -2.143820778510096E-1
 8.117686996600000E9     4.964828151102744E-1   -8.067070118150385E-2    2.650892370193106E-3    6.385891582903914E-3    2.803230192759402E-3    6.428249967819914E-3    3.986050194854239E-1   -2.143803953206226E-1
 8.117688044925000E9     4.963346099695462E-1   -8.081842797719010E-2    2.696004187631726E-3    6.348830497482530E-3    2.793638064107062E-3    6.440439184237931E-3    3.985094315443740E-1   -2.145023545510678E-1
 8.117689093250000E9     4.963611921952016E-1   -8.097958832097164E-2    2.713793053303065E-3    6.406410798042885E-3    2.823675341611055E-3    6.497731356440064E-3    3.985951830504921E-1   -2.144161058373335E-1
