#  HZ   S   RI   R     50.00 
! Rohde & Schwarz Vector Network Analyzer 
! Rohde-Schwarz,ZNB20-2Port,1311601062101988,3.16
! Created: UTC 12/23/2023, 3:43:40 AM
! freq[Hz]                re:S11                  im:S11                  re:S21                  im:S21                  re:S12                  im:S12                  re:S22                  im:S22
 1.000985178800000E+10  -3.731425021136017E-1    3.561907202791654E-1   -1.891144226196966E-2   -1.297185016322074E-2   -1.757965864568379E-2   -1.328262887435637E-2   -1.906351151250009E-1    4.823372717207898E-1
 1.000986358637500E+10  -3.725824047668322E-1    3.568716051322959E-1   -1.887280934095440E-2   -1.294368639007001E-2   -1.775006091961853E-2   -1.337980667199430E-2   -1.897159852655345E-1    4.824319180785731E-1
 1.000987538475000E+10  -3.718962697247187E-1    3.576173395233524E-1   -1.908001948708535E-2   -1.305538825724300E-2   -1.771022204150366E-2   -1.348740011018327E-2   -1.890860873228947E-1    4.829932320059946E-1
 1.000988718312500E+10  -3.710581391961795E-1    3.583140913289096E-1   -1.917470560789025E-2   -1.286940355285607E-2   -1.780719389099154E-2   -1.353926034451353E-2   -1.883169923110857E-1    4.832105112366779E-1
 1.000989898150000E+10  -3.704036531529530E-1    3.590385365844774E-1   -1.921544165063260E-2   -1.293987351749857E-2   -1.786365459056262E-2   -1.350092938630323E-2   -1.877791852669627E-1    4.834230055636344E-1
 1.000991077987500E+10  -3.697362143344730E-1    3.598730461361184E-1   -1.936001828136379E-2   -1.301692897703633E-2   -1.794685761465980E-2   -1.357326482228456E-2   -1.868095624686195E-1    4.838225559121244E-1
 1.000992257825000E+10  -3.689709502903769E-1    3.606090972964341E-1   -1.948677494040671E-2   -1.295821827720889E-2   -1.814180469551610E-2   -1.352469303778906E-2   -1.861627744244672E-1    4.840652700184738E-1
 1.000993437662500E+10  -3.683870099971000E-1    3.612584632184055E-1   -1.963778444539670E-2   -1.302314110134465E-2   -1.816887286560611E-2   -1.347008325638962E-2   -1.853977831541295E-1    4.843241224465853E-1
 1.000994617500000E+10  -3.675857793109059E-1    3.620383422446009E-1   -1.963239440807743E-2   -1.305401890201702E-2   -1.825946200073216E-2   -1.352186712566844E-2   -1.846343480215939E-1    4.847064566706458E-1
 1.000995797337500E+10  -3.669501710160041E-1    3.627780238703624E-1   -1.966442395572095E-2   -1.293259065380694E-2   -1.842329589017130E-2   -1.343129876741172E-2   -1.840945567013489E-1    4.849533420034665E-1
 1.000996977175000E+10  -3.662232248250302E-1    3.634331955796603E-1   -1.994282960342220E-2   -1.309078540285555E-2   -1.850116881352795E-2   -1.350745668914478E-2   -1.833373246059628E-1    4.852990211392614E-1
 1.000998157012500E+10  -3.655472049663804E-1    3.641810796402535E-1   -2.006335666392910E-2   -1.301455384696034E-2   -1.855228071242550E-2   -1.357984814635749E-2   -1.824852833230406E-1    4.854777251772496E-1
 1.000999336850000E+10  -3.647490798949335E-1    3.648844285644027E-1   -2.018620742436752E-2   -1.313660329513875E-2   -1.868628261123367E-2   -1.362648997360033E-2   -1.817827390128163E-1    4.857369617886397E-1
 1.001000516687500E+10  -3.640185634663390E-1    3.656627462388733E-1   -2.020476471467903E-2   -1.313207819180766E-2   -1.888633600195880E-2   -1.368746764295829E-2   -1.810199991891468E-1    4.859461319587715E-1
 1.001001696525000E+10  -3.632468941181726E-1    3.665032357953505E-1   -2.028655863936077E-2   -1.327336236704562E-2   -1.891927768236484E-2   -1.368280801476171E-2   -1.802582177911931E-1    4.864273034514744E-1
 1.001002876362500E+10  -3.625326109651351E-1    3.669421021437572E-1   -2.024950677692870E-2   -1.317700357977934E-2   -1.902859110226763E-2   -1.376931678194451E-2   -1.794441788915244E-1    4.866661791320547E-1
 1.001004056200000E+10  -3.618299665170190E-1    3.678586989278200E-1   -2.053255544773504E-2   -1.330611150522217E-2   -1.916581619862166E-2   -1.368584878063208E-2   -1.788766780311022E-1    4.869787070647394E-1
 1.001005236037500E+10  -3.610232912084440E-1    3.685153294699600E-1   -2.057787410605189E-2   -1.331641186461802E-2   -1.927831758425450E-2   -1.369467624317948E-2   -1.780648425366177E-1    4.873187884710819E-1
 1.001006415875000E+10  -3.604066330179681E-1    3.693396999465426E-1   -2.068627686838291E-2   -1.323686484188835E-2   -1.941253451194050E-2   -1.359633499174699E-2   -1.774721601263294E-1    4.875070733101450E-1
 1.001007595712500E+10  -3.596116001905573E-1    3.701002809797392E-1   -2.071713770945076E-2   -1.330787535419883E-2   -1.941379786981876E-2   -1.361842929270424E-2   -1.766816348904691E-1    4.876975702919485E-1
 1.001008775550000E+10  -3.588581019644118E-1    3.708211606883992E-1   -2.107360507143735E-2   -1.325447529651484E-2   -1.952219482799162E-2   -1.377323925541749E-2   -1.758674050033511E-1    4.880868483105545E-1
 1.001009955387500E+10  -3.581504943938388E-1    3.716412742447693E-1   -2.111257472993316E-2   -1.321612007463213E-2   -1.971510278271966E-2   -1.376075707569528E-2   -1.750974680262818E-1    4.885257984234829E-1
 1.001011135225000E+10  -3.573245926996648E-1    3.723691587699884E-1   -2.120308926327788E-2   -1.331362916582977E-2   -1.977092587864901E-2   -1.381176418984027E-2   -1.743169489937169E-1    4.886539168677843E-1
 1.001012315062500E+10  -3.566581620538669E-1    3.730089169241185E-1   -2.142861003564179E-2   -1.336220900227020E-2   -1.992475684822237E-2   -1.381451079593045E-2   -1.737152485206223E-1    4.890703889040575E-1
 1.001013494900000E+10  -3.557253147548136E-1    3.738074003931699E-1   -2.156110379159283E-2   -1.330618398034489E-2   -2.003449962192924E-2   -1.388821167384989E-2   -1.727777113774288E-1    4.891395592309650E-1
 1.001014674737500E+10  -3.550726825353810E-1    3.743948036440676E-1   -2.161911375894952E-2   -1.322171834038462E-2   -2.020288145075051E-2   -1.391460254909921E-2   -1.721005211533904E-1    4.895185303071617E-1
 1.001015854575000E+10  -3.542382480512267E-1    3.752093948727019E-1   -2.170095260190377E-2   -1.333182770297163E-2   -2.023319925914323E-2   -1.387776803081987E-2   -1.714374291628704E-1    4.898095718477342E-1
 1.001017034412500E+10  -3.534217508959961E-1    3.759370908156557E-1   -2.187806538089083E-2   -1.338191125888272E-2   -2.056923714619414E-2   -1.385958998671576E-2   -1.707520661794748E-1    4.901076527147238E-1
 1.001018214250000E+10  -3.525832984478073E-1    3.767082437542738E-1   -2.199948885482807E-2   -1.325981012177613E-2   -2.065501018741350E-2   -1.388103403409933E-2   -1.698972632306807E-1    4.903753436524144E-1
 1.001019394087500E+10  -3.518671554591773E-1    3.774427274410044E-1   -2.217022856588140E-2   -1.345986137282566E-2   -2.059903859021199E-2   -1.389978543026149E-2   -1.692221084312299E-1    4.906582468866434E-1
 1.001020573925000E+10  -3.510543035114219E-1    3.781113103890869E-1   -2.213332367997022E-2   -1.354102127713397E-2   -2.077452092709621E-2   -1.394623337347835E-2   -1.685146465942095E-1    4.908801115197443E-1
 1.001021753762500E+10  -3.502944974896976E-1    3.789202048862817E-1   -2.231681527429668E-2   -1.355677629851152E-2   -2.082858867181096E-2   -1.402542808771970E-2   -1.676765124931021E-1    4.911169550764016E-1
 1.001022933600000E+10  -3.493741217726277E-1    3.796006857670055E-1   -2.243747691617239E-2   -1.347288770556428E-2   -2.111145982023562E-2   -1.384017786301968E-2   -1.669256615962344E-1    4.913951092730890E-1
 1.001024113437500E+10  -3.486897786711993E-1    3.803249029345206E-1   -2.257872675806872E-2   -1.350813457915965E-2   -2.122784415072839E-2   -1.404882730023258E-2   -1.661041952671010E-1    4.915487367662398E-1
 1.001025293275000E+10  -3.477398773074551E-1    3.810912401800011E-1   -2.283438958158353E-2   -1.345922973219926E-2   -2.140075751546536E-2   -1.399177261571575E-2   -1.654483292381231E-1    4.919911698294374E-1
 1.001026473112500E+10  -3.471388664799238E-1    3.819382238016524E-1   -2.283341803951482E-2   -1.353604062412708E-2   -2.143766320181894E-2   -1.394173775619610E-2   -1.646347949079135E-1    4.922056754478697E-1
 1.001027652950000E+10  -3.461778530809552E-1    3.826735148464561E-1   -2.297132986050011E-2   -1.347820376817656E-2   -2.167467888965596E-2   -1.399010793611865E-2   -1.639587616726129E-1    4.924754282805725E-1
 1.001028832787500E+10  -3.454161168869354E-1    3.833529150261680E-1   -2.315318564278957E-2   -1.351584757099970E-2   -2.179058199460620E-2   -1.414531992356259E-2   -1.631322703320593E-1    4.926230587146866E-1
 1.001030012625000E+10  -3.444560699790453E-1    3.841490288533856E-1   -2.340459376205256E-2   -1.359987333430992E-2   -2.181248798648853E-2   -1.417425284731844E-2   -1.623997662820250E-1    4.928727884317934E-1
 1.001031192462500E+10  -3.437761270222607E-1    3.847702094532601E-1   -2.342202357333970E-2   -1.346698105885485E-2   -2.204403093979903E-2   -1.411274304232147E-2   -1.615754511703757E-1    4.930736354612597E-1
 1.001032372300000E+10  -3.428574940426228E-1    3.855966987766752E-1   -2.373084130047304E-2   -1.367766944855417E-2   -2.219589431441836E-2   -1.424160416501918E-2   -1.608649420691155E-1    4.934321721995092E-1
 1.001033552137500E+10  -3.419483275687965E-1    3.863142499987354E-1   -2.385435990635160E-2   -1.357169807103590E-2   -2.217193183120738E-2   -1.412609119685904E-2   -1.601595519082578E-1    4.938009300631597E-1
 1.001034731975000E+10  -3.412071234950618E-1    3.869578466985679E-1   -2.403504378707141E-2   -1.367340524701194E-2   -2.243091342751878E-2   -1.433042223805992E-2   -1.592629057013149E-1    4.939360269404805E-1
 1.001035911812500E+10  -3.401068310232433E-1    3.877136388225025E-1   -2.415241804042892E-2   -1.374715836220550E-2   -2.269246813816084E-2   -1.426760643172317E-2   -1.586701157818906E-1    4.943142656982140E-1
 1.001037091650000E+10  -3.392835094740952E-1    3.885352893882513E-1   -2.434229258507926E-2   -1.373531401388516E-2   -2.267752689125551E-2   -1.429717936598793E-2   -1.579623109170230E-1    4.944032056077738E-1
 1.001038271487500E+10  -3.385030998681640E-1    3.893368959106461E-1   -2.439786780113098E-2   -1.364275671442889E-2   -2.287479942639845E-2   -1.427372891785007E-2   -1.571431451704886E-1    4.946611579914076E-1
 1.001039451325000E+10  -3.376191516780087E-1    3.899912055710696E-1   -2.450731991400831E-2   -1.381276278259791E-2   -2.297810082960449E-2   -1.425308213930240E-2   -1.563543591313453E-1    4.948579381950787E-1
 1.001040631162500E+10  -3.368264896604589E-1    3.906722314136512E-1   -2.477314260516133E-2   -1.375748930017338E-2   -2.321111564992365E-2   -1.426088654536628E-2   -1.555380870523539E-1    4.951894989012787E-1
 1.001041811000000E+10  -3.358746138263885E-1    3.914373921984614E-1   -2.492373002497869E-2   -1.369392634010476E-2   -2.334862717958705E-2   -1.426642183041955E-2   -1.548024370429763E-1    4.955841154060275E-1
 1.001042990837500E+10  -3.348673670054668E-1    3.922820611738603E-1   -2.516444008612106E-2   -1.370074396928705E-2   -2.344753671831157E-2   -1.419784025275006E-2   -1.540325580165253E-1    4.956857668239549E-1
 1.001044170675000E+10  -3.341595900341968E-1    3.929559276876582E-1   -2.525723721952165E-2   -1.382167401531041E-2   -2.357157985956075E-2   -1.450544667227977E-2   -1.532652585073090E-1    4.959701812263954E-1
 1.001045350512500E+10  -3.330956622878282E-1    3.938323669462844E-1   -2.543446244732268E-2   -1.369863692189478E-2   -2.372772005974621E-2   -1.423858095986750E-2   -1.525092547050526E-1    4.961680981162798E-1
 1.001046530350000E+10  -3.322979778414243E-1    3.945638737973483E-1   -2.574007437315901E-2   -1.361433117797484E-2   -2.397629448761463E-2   -1.444952975402702E-2   -1.516568030267088E-1    4.964560297315999E-1
 1.001047710187500E+10  -3.313728464190179E-1    3.951834981561682E-1   -2.579617768364571E-2   -1.367097726716752E-2   -2.415844716951068E-2   -1.447164135341784E-2   -1.509423763050497E-1    4.966798127779030E-1
 1.001048890025000E+10  -3.304630988664466E-1    3.959956149515677E-1   -2.599435035756646E-2   -1.371196329020868E-2   -2.436397139485813E-2   -1.441350753514657E-2   -1.501142668764877E-1    4.969536422409505E-1
 1.001050069862500E+10  -3.294732221779597E-1    3.967545731486206E-1   -2.616892450032106E-2   -1.380826179425731E-2   -2.434292462095007E-2   -1.445307819516542E-2   -1.493914645808836E-1    4.972177353272039E-1
 1.001051249700000E+10  -3.285690548711018E-1    3.974259312151396E-1   -2.648177524750897E-2   -1.372816860162421E-2   -2.467063815306621E-2   -1.443464000646591E-2   -1.486133082768270E-1    4.974515299009136E-1
 1.001052429537500E+10  -3.277092410957502E-1    3.981174984577752E-1   -2.653137907649847E-2   -1.391678369908876E-2   -2.483907571957334E-2   -1.459006361790881E-2   -1.478172567876109E-1    4.976513213101475E-1
 1.001053609375000E+10  -3.265097501607543E-1    3.989735064240652E-1   -2.669338906152581E-2   -1.394665068759106E-2   -2.496443442245270E-2   -1.449860132905912E-2   -1.471864878701828E-1    4.978641642073620E-1
 1.001054789212500E+10  -3.256560128062094E-1    3.997716801357916E-1   -2.675222760356291E-2   -1.399583787498732E-2   -2.517549111311944E-2   -1.458059319581593E-2   -1.463823091575993E-1    4.979863268105931E-1
 1.001055969050000E+10  -3.246853699411069E-1    4.004467537899140E-1   -2.700521226286991E-2   -1.398140660727714E-2   -2.533511177725776E-2   -1.463049912682836E-2   -1.456018519514928E-1    4.982895371735030E-1
 1.001057148887500E+10  -3.237423810271889E-1    4.012326857660702E-1   -2.712998623983313E-2   -1.404333222009187E-2   -2.559467287741483E-2   -1.467770104694131E-2   -1.447048593611500E-1    4.985482964765425E-1
 1.001058328725000E+10  -3.227959425941865E-1    4.020034775030419E-1   -2.743642029285847E-2   -1.393738220010565E-2   -2.580898225895024E-2   -1.463371113151542E-2   -1.439409452452229E-1    4.987720146780511E-1
 1.001059508562500E+10  -3.217974911001627E-1    4.027485016678336E-1   -2.766420545950307E-2   -1.394285764564073E-2   -2.598728300836809E-2   -1.459540056448975E-2   -1.430717040491817E-1    4.989568402675676E-1
 1.001060688400000E+10  -3.208113579614721E-1    4.035084461881719E-1   -2.780090420005326E-2   -1.392661346982173E-2   -2.612412539241984E-2   -1.470123436962708E-2   -1.423512785183201E-1    4.993070014202942E-1
 1.001061868237500E+10  -3.198211242136018E-1    4.042911585038958E-1   -2.800936651705093E-2   -1.397234159320737E-2   -2.621928715482108E-2   -1.471978204283081E-2   -1.414884306061810E-1    4.994545946201682E-1
 1.001063048075000E+10  -3.187271485534955E-1    4.049382955911813E-1   -2.830402621467225E-2   -1.397217709606680E-2   -2.658355399324809E-2   -1.474429655183850E-2   -1.407647758203857E-1    4.997833251343817E-1
 1.001064227912500E+10  -3.175798376084914E-1    4.057795978172795E-1   -2.849823396956419E-2   -1.395969303463524E-2   -2.670373654358239E-2   -1.489658007178665E-2   -1.400748868914547E-1    4.998562840606779E-1
 1.001065407750000E+10  -3.166969686692516E-1    4.065705881279131E-1   -2.880140908944744E-2   -1.398499931031085E-2   -2.686193928831118E-2   -1.478239075588654E-2   -1.392894855216354E-1    5.000385551404094E-1
 1.001066587587500E+10  -3.156337317318683E-1    4.072860109650098E-1   -2.884974068359639E-2   -1.394792441221233E-2   -2.707270378151599E-2   -1.480519259541744E-2   -1.384311661486319E-1    5.002463694122889E-1
 1.001067767425000E+10  -3.146443729306562E-1    4.080860929123000E-1   -2.908986200838773E-2   -1.393400177547264E-2   -2.729261297278541E-2   -1.480087736861432E-2   -1.376367211149123E-1    5.004669925052264E-1
 1.001068947262500E+10  -3.135272667695901E-1    4.087342586094541E-1   -2.934363795438190E-2   -1.394325857318884E-2   -2.749626545718047E-2   -1.483443799462632E-2   -1.367663567913557E-1    5.008372088967414E-1
 1.001070127100000E+10  -3.125272973556347E-1    4.095733166883160E-1   -2.958305397212355E-2   -1.408844531927553E-2   -2.771803776874601E-2   -1.484905998289949E-2   -1.360391268838769E-1    5.008152709072839E-1
 1.001071306937500E+10  -3.114349287578089E-1    4.102738714713958E-1   -2.980031904491424E-2   -1.399899705176321E-2   -2.797977896065014E-2   -1.495544745765929E-2   -1.352825881787444E-1    5.010623402678365E-1
 1.001072486775000E+10  -3.103530876525338E-1    4.111111053961925E-1   -3.004685953754504E-2   -1.412478543113155E-2   -2.817914336848333E-2   -1.502611454245226E-2   -1.345201424700013E-1    5.011984540082947E-1
 1.001073666612500E+10  -3.091344007247802E-1    4.119168991364869E-1   -3.022806333711509E-2   -1.420097111044006E-2   -2.840718376832650E-2   -1.503061223796647E-2   -1.337684449857411E-1    5.015174218923537E-1
 1.001074846450000E+10  -3.081510733892482E-1    4.126486333365989E-1   -3.055722608685441E-2   -1.411163987822378E-2   -2.860611148422026E-2   -1.509990706450817E-2   -1.327890440208834E-1    5.017144256757564E-1
 1.001076026287500E+10  -3.069282857751958E-1    4.134686263815489E-1   -3.067282338384488E-2   -1.411020167141935E-2   -2.886735513931100E-2   -1.498267153616228E-2   -1.321452113232654E-1    5.019299982507761E-1
 1.001077206125000E+10  -3.057690425783586E-1    4.142426245305562E-1   -3.102736574071626E-2   -1.409433151570839E-2   -2.909848569364805E-2   -1.516446886044948E-2   -1.312478666240290E-1    5.022404892636463E-1
 1.001078385962500E+10  -3.045439074867916E-1    4.150148650144596E-1   -3.129286853530847E-2   -1.394709185937038E-2   -2.933260451292959E-2   -1.507042766556693E-2   -1.303441005638530E-1    5.024508035593666E-1
 1.001079565800000E+10  -3.034283196405420E-1    4.158088459764416E-1   -3.141689462351972E-2   -1.404553652934375E-2   -2.959089954421692E-2   -1.508163604475793E-2   -1.296643600049692E-1    5.025560957379513E-1
 1.001080745637500E+10  -3.024145653575507E-1    4.165107802109027E-1   -3.171203697263936E-2   -1.408054859812122E-2   -2.993737910719957E-2   -1.496354158248679E-2   -1.288371963873990E-1    5.026889071097211E-1
 1.001081925475000E+10  -3.011161046406749E-1    4.171527590624454E-1   -3.204999950075294E-2   -1.403174417281735E-2   -3.018646013926162E-2   -1.512457301411262E-2   -1.280875689003886E-1    5.028636064281219E-1
 1.001083105312500E+10  -2.998984956512172E-1    4.180592470196588E-1   -3.226191754359706E-2   -1.406969191726353E-2   -3.053418326173138E-2   -1.511065240956116E-2   -1.272406860138379E-1    5.030682385917564E-1
 1.001084285150000E+10  -2.986620420811967E-1    4.187439610424204E-1   -3.263336780078097E-2   -1.396644655255288E-2   -3.054916960018209E-2   -1.506992405393805E-2   -1.263071472773407E-1    5.034587630612448E-1
 1.001085464987500E+10  -2.974710779586606E-1    4.196283663479191E-1   -3.287404814772838E-2   -1.400432454911038E-2   -3.085113839813075E-2   -1.518524037411513E-2   -1.254491435298780E-1    5.036377376747155E-1
 1.001086644825000E+10  -2.962596135930842E-1    4.203926327211261E-1   -3.299397987392640E-2   -1.416730238661960E-2   -3.115856045160519E-2   -1.518356316489403E-2   -1.247916298868702E-1    5.037470421791546E-1
 1.001087824662500E+10  -2.950307646601323E-1    4.211276408612629E-1   -3.336522039739084E-2   -1.416926710213414E-2   -3.137585750112661E-2   -1.519929193812901E-2   -1.239207062223900E-1    5.040676609029454E-1
 1.001089004500000E+10  -2.939586670020043E-1    4.217920478310727E-1   -3.370823850416807E-2   -1.423188814841111E-2   -3.170365394616334E-2   -1.538847914561194E-2   -1.232192813633315E-1    5.041747232977012E-1
 1.001090184337500E+10  -2.926687875857779E-1    4.226811865373233E-1   -3.389230498998286E-2   -1.435946061442838E-2   -3.195107294994512E-2   -1.530038589926260E-2   -1.223916036064044E-1    5.044261637388180E-1
 1.001091364175000E+10  -2.913520099589270E-1    4.235067715499686E-1   -3.421174289723486E-2   -1.427370012393158E-2   -3.225860326760030E-2   -1.526293050672445E-2   -1.214699225575848E-1    5.044573130839898E-1
