#  HZ   S   RI   R     50.00 
! Rohde & Schwarz Vector Network Analyzer 
! Rohde-Schwarz,ZNB20-2Port,1311601062101988,3.16
! Created: UTC 12/23/2023, 3:44:11 AM
! freq[Hz]                re:S11                  im:S11                  re:S21                  im:S21                  re:S12                  im:S12                  re:S22                  im:S22
 7.837194204000000E9     5.657918286130987E-1    2.251590976681734E-2    1.264759996221715E-3    3.760360687787249E-3    1.337884372563619E-3    3.694940165522224E-3    4.601233630386620E-1   -2.818230871751602E-1
 7.837226801025000E9     5.659692110817386E-1    2.046324924647834E-2    1.322530922620107E-3    3.770391524877425E-3    1.343678672103531E-3    3.691572038279219E-3    4.591296736115012E-1   -2.839414214924420E-1
 7.837259398050000E9     5.660848272617959E-1    1.830543722938408E-2    1.341875086329828E-3    3.737507518310707E-3    1.354804657932912E-3    3.675075471053473E-3    4.577607818557493E-1   -2.858756496208115E-1
 7.837291995075000E9     5.661992160104733E-1    1.604302657274891E-2    1.343519761605587E-3    3.756033539530488E-3    1.391077736420485E-3    3.678080539413378E-3    4.565570381690607E-1   -2.876870045093644E-1
 7.837324592100000E9     5.662575689227339E-1    1.399685105522031E-2    1.383662650707052E-3    3.748735162086984E-3    1.409759115375263E-3    3.651162014057156E-3    4.553454409956394E-1   -2.898249116345177E-1
 7.837357189125000E9     5.662692542148523E-1    1.186989222437297E-2    1.384394108718981E-3    3.766763720145632E-3    1.424003689184624E-3    3.654717598253656E-3    4.543281006853082E-1   -2.916010758338838E-1
 7.837389786150000E9     5.663513816866559E-1    9.687593290306745E-3    1.431914413683341E-3    3.736019505357660E-3    1.435435239367964E-3    3.646939046984118E-3    4.529068792946443E-1   -2.935385861971588E-1
 7.837422383175000E9     5.664063523769065E-1    7.337751414193672E-3    1.452151715277831E-3    3.747364975720041E-3    1.443645641548171E-3    3.659096134816823E-3    4.517850381649116E-1   -2.954942480564980E-1
 7.837454980200000E9     5.664618913132758E-1    5.240518861049943E-3    1.440756576793786E-3    3.749731893564070E-3    1.469847582840719E-3    3.656419426779861E-3    4.504352737573368E-1   -2.973729208018493E-1
 7.837487577225000E9     5.663762691052706E-1    3.145884707288483E-3    1.470229986536705E-3    3.735815700346588E-3    1.474498139671005E-3    3.667379948367814E-3    4.493035982368997E-1   -2.993921391378543E-1
 7.837520174250000E9     5.664977388850596E-1    9.750908851908722E-4    1.492607683460930E-3    3.730382507705761E-3    1.488954641733676E-3    3.700135394070180E-3    4.478838886080980E-1   -3.011643384304617E-1
 7.837552771275000E9     5.666051993143270E-1   -1.258112042579026E-3    1.503882709678580E-3    3.734672072793214E-3    1.536560098894074E-3    3.651352396604548E-3    4.466055169152367E-1   -3.031108960174931E-1
 7.837585368300000E9     5.665647730115448E-1   -3.412934994973697E-3    1.536892631553301E-3    3.747298538698249E-3    1.571825872226778E-3    3.668196897933724E-3    4.455635286661001E-1   -3.049457822564028E-1
 7.837617965325000E9     5.664996276223495E-1   -5.483647797564795E-3    1.579609008672266E-3    3.740439061957662E-3    1.542992331853611E-3    3.673485352897791E-3    4.442523879413081E-1   -3.068941906178893E-1
 7.837650562350000E9     5.664657649834419E-1   -7.721301650294926E-3    1.544093992638471E-3    3.731323828044430E-3    1.582803109330414E-3    3.686835379842750E-3    4.429692872668122E-1   -3.088071104064661E-1
 7.837683159375000E9     5.666581567884437E-1   -9.888913203193619E-3    1.582938174417702E-3    3.740796480209672E-3    1.569136098404755E-3    3.636971028965793E-3    4.415328964930113E-1   -3.106443660666958E-1
 7.837715756400000E9     5.665891249959376E-1   -1.200229760585938E-2    1.628702127488918E-3    3.740121753915811E-3    1.576883275305675E-3    3.678372720219814E-3    4.401817767592208E-1   -3.124972245622450E-1
 7.837748353425000E9     5.664694584275233E-1   -1.428252533548528E-2    1.637595938918525E-3    3.737584306820050E-3    1.597080950032636E-3    3.690251804206542E-3    4.389868954693755E-1   -3.143218748646734E-1
 7.837780950450000E9     5.664948741230257E-1   -1.646440095746482E-2    1.642485313030142E-3    3.763914349212494E-3    1.639336203238229E-3    3.680873432248325E-3    4.374907190118592E-1   -3.163002536737974E-1
 7.837813547475000E9     5.664168613256352E-1   -1.853982249089139E-2    1.671199175440442E-3    3.750582388633085E-3    1.659121460382190E-3    3.686190237835128E-3    4.362461972425343E-1   -3.180225505835066E-1
 7.837846144500000E9     5.661557996701099E-1   -2.080165307272314E-2    1.684705818479999E-3    3.722634438165211E-3    1.685193400761334E-3    3.671508817502101E-3    4.350355590036985E-1   -3.198236133799872E-1
 7.837878741525000E9     5.660475965734514E-1   -2.284896697680823E-2    1.715980338822807E-3    3.733084746898006E-3    1.707250432046820E-3    3.656832255293353E-3    4.335499498743497E-1   -3.218020823750937E-1
 7.837911338550000E9     5.661119351212357E-1   -2.509516081037196E-2    1.714621061768536E-3    3.761705781202889E-3    1.724692250724860E-3    3.613032842575934E-3    4.321963890118988E-1   -3.236049055144526E-1
 7.837943935575000E9     5.661221744142788E-1   -2.717964404214971E-2    1.763130746074202E-3    3.740632899796738E-3    1.731924031740168E-3    3.658724754075320E-3    4.307312820210598E-1   -3.255223462526405E-1
 7.837976532600000E9     5.659971595037591E-1   -2.935683409327693E-2    1.757760837539459E-3    3.734471375809458E-3    1.759419334896329E-3    3.660668876454168E-3    4.294665164048403E-1   -3.273778839659259E-1
 7.838009129625000E9     5.658431857875157E-1   -3.158910252113709E-2    1.790679825551891E-3    3.739631420373939E-3    1.800913622011248E-3    3.648586617885373E-3    4.280696082832324E-1   -3.292828863758276E-1
 7.838041726650000E9     5.657604154350000E-1   -3.379224600387019E-2    1.798509875985542E-3    3.733971258476782E-3    1.797687183822525E-3    3.626835836456325E-3    4.266647172682484E-1   -3.310165137976808E-1
 7.838074323675000E9     5.657272943782469E-1   -3.597381798289443E-2    1.844724141778104E-3    3.709868463222095E-3    1.826410776628401E-3    3.642529519060913E-3    4.253192215509642E-1   -3.326606022054888E-1
 7.838106920700000E9     5.655108785898370E-1   -3.806854608846490E-2    1.861716478735562E-3    3.707198075781183E-3    1.859434450975349E-3    3.651841281255738E-3    4.239063456526961E-1   -3.345078011114636E-1
 7.838139517725000E9     5.652149653618341E-1   -4.020661898911696E-2    1.873343127673809E-3    3.705467125745843E-3    1.833653020863302E-3    3.643669671872001E-3    4.225138255707726E-1   -3.363729171936760E-1
 7.838172114750000E9     5.651244778123766E-1   -4.247446952292950E-2    1.913664506097701E-3    3.722679159238099E-3    1.862525160263405E-3    3.640223157506514E-3    4.211606672117625E-1   -3.380085421793924E-1
 7.838204711775000E9     5.650301497716271E-1   -4.452493454168088E-2    1.914984141772499E-3    3.703305780061587E-3    1.889949598005525E-3    3.656954240861854E-3    4.196900615053663E-1   -3.398155966652759E-1
 7.838237308800000E9     5.648843588040455E-1   -4.665445697604434E-2    1.909705155686063E-3    3.709550426398972E-3    1.891440690642607E-3    3.610526254545544E-3    4.182483431567072E-1   -3.417979342098425E-1
 7.838269905825000E9     5.645660602493185E-1   -4.900172586017851E-2    1.951902389428917E-3    3.715427481889434E-3    1.946910167323997E-3    3.663696607917839E-3    4.168058943987010E-1   -3.434241272529399E-1
 7.838302502850000E9     5.645426481037837E-1   -5.111874125571596E-2    1.972967806926033E-3    3.696931811140325E-3    1.962153647828896E-3    3.660595433552134E-3    4.152533219429824E-1   -3.452716269784417E-1
 7.838335099875000E9     5.642477326452472E-1   -5.315641449048877E-2    1.955043354466764E-3    3.713860725931467E-3    1.968152395398269E-3    3.648672883568980E-3    4.138818847110425E-1   -3.469314643755223E-1
 7.838367696900000E9     5.640922729617981E-1   -5.534832597302318E-2    2.010471901856970E-3    3.686450568394953E-3    1.991929578648089E-3    3.636430256708113E-3    4.123138432251153E-1   -3.487716425886457E-1
 7.838400293925000E9     5.639752455106535E-1   -5.769740765324851E-2    2.033644490481189E-3    3.725795489133214E-3    2.005552615252263E-3    3.641996089203254E-3    4.109965027583630E-1   -3.506179132754225E-1
 7.838432890950000E9     5.637590144313612E-1   -5.971301973659331E-2    2.013161607516124E-3    3.709565017725895E-3    2.046682621035239E-3    3.634862756909804E-3    4.093181386546053E-1   -3.522991201552731E-1
 7.838465487975000E9     5.634641440118576E-1   -6.196991925465450E-2    2.075169886186850E-3    3.695094053365976E-3    2.039543421637145E-3    3.622567034729182E-3    4.080045875345362E-1   -3.539730657175781E-1
 7.838498085000000E9     5.631859626993138E-1   -6.403816637408757E-2    2.051448891813987E-3    3.671847820310435E-3    2.076702076596057E-3    3.656044488540287E-3    4.064176259849746E-1   -3.556852627831683E-1
 7.838530682025000E9     5.629555610675478E-1   -6.628738218361717E-2    2.099471695084940E-3    3.696974481856954E-3    2.077052138365702E-3    3.619005250501037E-3    4.049324306286418E-1   -3.573959370932500E-1
 7.838563279050000E9     5.626775690462396E-1   -6.858272660475172E-2    2.133501558321839E-3    3.698525634384527E-3    2.082634536636027E-3    3.646237626034800E-3    4.034752766877379E-1   -3.591900304114605E-1
 7.838595876075000E9     5.625502663989188E-1   -7.057788879884148E-2    2.126920475888542E-3    3.694768007508329E-3    2.116391870771449E-3    3.598080899461202E-3    4.019308856112910E-1   -3.608007236180510E-1
 7.838628473100000E9     5.623000357131975E-1   -7.280701278325630E-2    2.174277219759496E-3    3.662836781120919E-3    2.138167082047229E-3    3.637218498078564E-3    4.005046763890198E-1   -3.626295779865361E-1
 7.838661070125000E9     5.619257199082608E-1   -7.483221435524130E-2    2.191831947238467E-3    3.685871344688547E-3    2.162807489683070E-3    3.648635334194352E-3    3.989138265332507E-1   -3.642897606331592E-1
 7.838693667150000E9     5.616504927857985E-1   -7.705750500605867E-2    2.202347340454019E-3    3.685495168674759E-3    2.174971052731766E-3    3.638277176691316E-3    3.973756797098879E-1   -3.659545080430141E-1
 7.838726264175000E9     5.613124793515053E-1   -7.929600874073425E-2    2.223707591513216E-3    3.674658393270303E-3    2.246721414518912E-3    3.624098102493788E-3    3.959368439780181E-1   -3.677022577309454E-1
 7.838758861200000E9     5.610355666894465E-1   -8.136992938344649E-2    2.251652907206203E-3    3.691172026485767E-3    2.226920784402064E-3    3.640970345693392E-3    3.941157756827383E-1   -3.693969097429874E-1
 7.838791458225000E9     5.608777199732763E-1   -8.352455310664983E-2    2.268265564535792E-3    3.686863041334274E-3    2.225148648304967E-3    3.636204525483286E-3    3.927707718950638E-1   -3.710622026377342E-1
 7.838824055250000E9     5.604104655733452E-1   -8.568850318293632E-2    2.311628668963911E-3    3.679642496712856E-3    2.273537903889469E-3    3.634823844257693E-3    3.912165691874777E-1   -3.726470775469780E-1
 7.838856652275000E9     5.600533480110409E-1   -8.777939396805542E-2    2.306587455728237E-3    3.675934158662402E-3    2.299031105546989E-3    3.647297294551913E-3    3.896101465576894E-1   -3.743910078188127E-1
 7.838889249300000E9     5.597613603774111E-1   -8.993784890356858E-2    2.330676309338101E-3    3.685541926818482E-3    2.326966359111334E-3    3.620410283021101E-3    3.879106196337577E-1   -3.760567639760931E-1
 7.838921846325000E9     5.594145528203878E-1   -9.219217601098591E-2    2.359346701080052E-3    3.675479815896733E-3    2.353266943926118E-3    3.635407979634001E-3    3.864629605035794E-1   -3.776984424461300E-1
 7.838954443350000E9     5.590232789252945E-1   -9.429354502102520E-2    2.419918095169308E-3    3.661220910814961E-3    2.371656637125539E-3    3.623102712423732E-3    3.848645931681810E-1   -3.792633587254511E-1
 7.838987040375000E9     5.587701796299153E-1   -9.650476650780397E-2    2.415311155007944E-3    3.655162888124769E-3    2.358887602597541E-3    3.620737659503578E-3    3.832982557330019E-1   -3.809860268872704E-1
 7.839019637400000E9     5.583194137761108E-1   -9.855857098853529E-2    2.440477180427815E-3    3.674640970521172E-3    2.409506660478118E-3    3.579954481670263E-3    3.816129602785732E-1   -3.825727794942825E-1
 7.839052234425000E9     5.579790703647879E-1   -1.007248934837498E-1    2.447660284354248E-3    3.647201052550375E-3    2.427293981061742E-3    3.603538462221133E-3    3.799129941106208E-1   -3.841034194913375E-1
 7.839084831450000E9     5.575693460958354E-1   -1.028394889426712E-1    2.463868825551417E-3    3.654448896184208E-3    2.439676568509639E-3    3.574891674073276E-3    3.784814587460675E-1   -3.858520307026918E-1
 7.839117428475000E9     5.571606061336353E-1   -1.049726076850800E-1    2.530452186727828E-3    3.663338467344057E-3    2.492267985350478E-3    3.629471288117600E-3    3.767930719193351E-1   -3.873780698846522E-1
 7.839150025500000E9     5.568633044504127E-1   -1.072465658717207E-1    2.529621767084263E-3    3.667450357055185E-3    2.516006504420833E-3    3.607181712977274E-3    3.751460852499545E-1   -3.889727869242167E-1
 7.839182622525000E9     5.563841345062175E-1   -1.092536904206912E-1    2.540883509484194E-3    3.650934242373889E-3    2.540089217497960E-3    3.597298857276814E-3    3.735049718987410E-1   -3.906168430026635E-1
 7.839215219550000E9     5.558713185796866E-1   -1.115900415534004E-1    2.562706376996644E-3    3.637458802644828E-3    2.537070439974128E-3    3.616728855632090E-3    3.716986470450274E-1   -3.923135193476502E-1
 7.839247816575000E9     5.555932867338117E-1   -1.136438816773787E-1    2.602505016517459E-3    3.618078428428988E-3    2.560871824210967E-3    3.597881958600701E-3    3.703158470805071E-1   -3.936986716743076E-1
 7.839280413600000E9     5.551056502740693E-1   -1.157844527281931E-1    2.638761976003362E-3    3.655015565755820E-3    2.578574466015106E-3    3.587762007533438E-3    3.685361156470228E-1   -3.953398964693876E-1
 7.839313010625000E9     5.545076749075809E-1   -1.178851912336753E-1    2.642710118856958E-3    3.631375713392207E-3    2.602280101872829E-3    3.606032891874169E-3    3.669754863993936E-1   -3.968863572269050E-1
 7.839345607650000E9     5.542508078523695E-1   -1.199890116763363E-1    2.653535243435599E-3    3.617656063573004E-3    2.633896088834091E-3    3.580633215348644E-3    3.652087696248640E-1   -3.983056431726635E-1
 7.839378204675000E9     5.536678977738348E-1   -1.222228572047197E-1    2.697611434618428E-3    3.651595114315766E-3    2.667293918479742E-3    3.593275719005592E-3    3.635256765591752E-1   -3.999333849610650E-1
 7.839410801700000E9     5.531792235778944E-1   -1.242428739972161E-1    2.704040015124248E-3    3.590461954008691E-3    2.698541319092388E-3    3.566111199314126E-3    3.618224491539633E-1   -4.014782021158060E-1
 7.839443398725000E9     5.527686582655771E-1   -1.263772830919832E-1    2.746583228666365E-3    3.599756531874873E-3    2.731641019030010E-3    3.576920589225401E-3    3.601265434107798E-1   -4.030002990182714E-1
 7.839475995750000E9     5.522441827536075E-1   -1.284750812470747E-1    2.766290779142296E-3    3.630357260121738E-3    2.742672536085723E-3    3.579343373897330E-3    3.584099810400120E-1   -4.045916546558541E-1
 7.839508592775000E9     5.516713938259145E-1   -1.306421738164875E-1    2.809826344390232E-3    3.605683280507569E-3    2.775272561554841E-3    3.604534338813014E-3    3.566865575299135E-1   -4.061221740664119E-1
 7.839541189800000E9     5.512268506980578E-1   -1.329379373754643E-1    2.815944142102455E-3    3.602317179369680E-3    2.786989141325204E-3    3.566499609796875E-3    3.550179434616923E-1   -4.075912279202744E-1
 7.839573786825000E9     5.507729605585132E-1   -1.350084134910750E-1    2.824100814756550E-3    3.599452828690941E-3    2.840133397443444E-3    3.535631072275603E-3    3.534640830781552E-1   -4.091032964416412E-1
 7.839606383850000E9     5.502041477771766E-1   -1.370235569482693E-1    2.872819247859379E-3    3.611466558703827E-3    2.855665493094961E-3    3.519548321662405E-3    3.515683719159634E-1   -4.106082347894041E-1
 7.839638980875000E9     5.496983959273922E-1   -1.392932465847284E-1    2.912170112703136E-3    3.621064122087412E-3    2.867851677228729E-3    3.530688380648671E-3    3.498105336101704E-1   -4.121566292356776E-1
 7.839671577900000E9     5.490438136256921E-1   -1.412305948490570E-1    2.934803548570363E-3    3.601391938518061E-3    2.860393351778682E-3    3.568663328876814E-3    3.479535830680989E-1   -4.135654545239887E-1
 7.839704174925000E9     5.485482700068293E-1   -1.434920531073546E-1    2.965014388069086E-3    3.604609586764158E-3    2.947739770917339E-3    3.554929635169271E-3    3.463096690917919E-1   -4.150322983895283E-1
 7.839736771950000E9     5.479994353735330E-1   -1.456586447808378E-1    2.999762582997726E-3    3.587390695393776E-3    2.931297811001626E-3    3.569697947045681E-3    3.446753187799539E-1   -4.165359874887460E-1
 7.839769368975000E9     5.473859397408760E-1   -1.476767894455355E-1    3.001183994184626E-3    3.605677796184111E-3    2.978896848456387E-3    3.554115855034132E-3    3.428380669046482E-1   -4.180173528495699E-1
 7.839801966000000E9     5.468386762765635E-1   -1.498624952140704E-1    3.022092469245344E-3    3.603316666315942E-3    3.014149381374943E-3    3.589027996174074E-3    3.409964512910140E-1   -4.194998368700609E-1
 7.839834563025000E9     5.462706366269333E-1   -1.519135326251584E-1    3.094853341204395E-3    3.600507200655477E-3    3.005910372353807E-3    3.586801954674992E-3    3.392958124955825E-1   -4.208602572796581E-1
 7.839867160050000E9     5.456198004258044E-1   -1.540706476421055E-1    3.110176680260868E-3    3.593507282440528E-3    3.043204597807748E-3    3.590896289693339E-3    3.374508315953263E-1   -4.222620945000489E-1
 7.839899757075000E9     5.450542858123870E-1   -1.561607906894428E-1    3.131874462960942E-3    3.603479205546777E-3    3.051294503318608E-3    3.579799762712169E-3    3.356447564293814E-1   -4.237295130364856E-1
 7.839932354100000E9     5.442577407813994E-1   -1.582328208762785E-1    3.154372080742111E-3    3.593322970170034E-3    3.103574275119260E-3    3.590220444268763E-3    3.339071816081330E-1   -4.252689647155797E-1
 7.839964951125000E9     5.436807232144886E-1   -1.603988022200502E-1    3.155365328567689E-3    3.588589472399265E-3    3.151709405905986E-3    3.547789070451258E-3    3.321063345778391E-1   -4.265043443575330E-1
 7.839997548150000E9     5.431606420381683E-1   -1.624093805393122E-1    3.204653908450532E-3    3.584304040081386E-3    3.186783514396815E-3    3.554926949018802E-3    3.303371305430413E-1   -4.281279387540636E-1
 7.840030145175000E9     5.425883877429438E-1   -1.646875577226180E-1    3.232989208554225E-3    3.592733185720412E-3    3.160897684613585E-3    3.563952063624857E-3    3.285427457026841E-1   -4.294435225265146E-1
 7.840062742200000E9     5.419187173706638E-1   -1.666448843701749E-1    3.271611302511085E-3    3.585092136620393E-3    3.213119431112098E-3    3.556795557178034E-3    3.266742515389962E-1   -4.308591535442676E-1
 7.840095339225000E9     5.412225915740339E-1   -1.687757254704044E-1    3.293668662137045E-3    3.554307714215272E-3    3.234983328847391E-3    3.544376089111350E-3    3.248433894660092E-1   -4.322026305294103E-1
 7.840127936250000E9     5.405161648887135E-1   -1.708949550844728E-1    3.317389145203525E-3    3.556908622959425E-3    3.286254854330089E-3    3.529739280811874E-3    3.229889987663562E-1   -4.336976979394812E-1
