#  HZ   S   RI   R     50.00 
! Rohde & Schwarz Vector Network Analyzer 
! Rohde-Schwarz,ZNB20-2Port,1311601062101988,3.16
! Created: UTC 3/20/2024, 11:40:15 AM
! freq[Hz]                re:S11                  im:S11                  re:S21                  im:S21                  re:S12                  im:S12                  re:S22                  im:S22
 8.117250041000000E9     5.043483731101132E-1   -3.666487814895927E-2    1.095678842855045E-3    3.965430244417828E-3    1.157417523260779E-3    4.028746282332001E-3    4.112571848723558E-1   -1.860051649915324E-1
 8.117252384300000E9     5.042686445713762E-1   -3.694076909250893E-2    1.053132148474802E-3    3.979622879446713E-3    1.157271576662083E-3    4.012711534064054E-3    4.111920877933196E-1   -1.861446096601221E-1
 8.117254727600000E9     5.042405731664288E-1   -3.705029119076971E-2    1.108286172390300E-3    3.993634145258957E-3    1.147162499710125E-3    4.046691307487533E-3    4.110938268377915E-1   -1.862964664758111E-1
 8.117257070900000E9     5.043321629259846E-1   -3.736509501943847E-2    1.093948178960419E-3    3.992459757989226E-3    1.158762048533852E-3    4.025565028992735E-3    4.111631661206837E-1   -1.864533116416944E-1
 8.117259414200000E9     5.042749501424922E-1   -3.754122956558412E-2    1.113880968144685E-3    3.991176742366139E-3    1.155645133776473E-3    4.052978239242601E-3    4.111182502233678E-1   -1.864838342013081E-1
 8.117261757500000E9     5.042808199129922E-1   -3.773429858477673E-2    1.094553980211314E-3    3.965171198795143E-3    1.200518612292211E-3    4.035734491060093E-3    4.109889602527059E-1   -1.867637027865457E-1
 8.117264100800000E9     5.042382759239489E-1   -3.791163099997086E-2    1.110297058135240E-3    3.997403371694288E-3    1.159568173981639E-3    4.044886019475847E-3    4.108524231959527E-1   -1.869250074245526E-1
 8.117266444100000E9     5.041563688731049E-1   -3.821102674551378E-2    1.119887826642643E-3    3.983014898361169E-3    1.191876533517100E-3    4.066347950159184E-3    4.108058584087653E-1   -1.869694344808308E-1
 8.117268787400000E9     5.041677774042429E-1   -3.841976280118503E-2    1.099975377373703E-3    3.991438617500592E-3    1.162032885545293E-3    4.084224192621096E-3    4.106869463091061E-1   -1.872908914313065E-1
 8.117271130700000E9     5.041302958051547E-1   -3.854776100605721E-2    1.125172649703098E-3    4.022004544952700E-3    1.186724707289179E-3    4.060829141749137E-3    4.106849089215318E-1   -1.873866650452550E-1
 8.117273474000000E9     5.041183748000635E-1   -3.874472797770712E-2    1.105740581408704E-3    3.993042604361455E-3    1.206780768297777E-3    4.083891086529619E-3    4.105177126798003E-1   -1.874554047713638E-1
 8.117275817300000E9     5.041279860835719E-1   -3.894806471728622E-2    1.115934775244965E-3    4.014975164595910E-3    1.160032549521467E-3    4.088937006665774E-3    4.105500621820095E-1   -1.874995759362834E-1
 8.117278160600000E9     5.039762403910754E-1   -3.914611178347543E-2    1.120186591285072E-3    4.024832888682583E-3    1.158064654065788E-3    4.073416187990347E-3    4.105849797389051E-1   -1.878339281216887E-1
 8.117280503900000E9     5.040287729026968E-1   -3.935262835848963E-2    1.117045144958520E-3    4.010011398761613E-3    1.175143375104562E-3    4.067043685791345E-3    4.104458357580499E-1   -1.880007231357989E-1
 8.117282847200000E9     5.041006986401337E-1   -3.953112123702634E-2    1.135026397389941E-3    4.031314327638611E-3    1.201439311318666E-3    4.090504843498075E-3    4.103430211659417E-1   -1.881387680478799E-1
 8.117285190500000E9     5.040421232918781E-1   -3.970627665580794E-2    1.135651625035351E-3    4.009779492911642E-3    1.208834838909521E-3    4.079012680790696E-3    4.101802238594257E-1   -1.880806886385609E-1
 8.117287533800000E9     5.039922121124519E-1   -3.998212349936406E-2    1.125994666194517E-3    4.036305727747177E-3    1.224058514527733E-3    4.078712897685038E-3    4.101796691318957E-1   -1.884045589149759E-1
 8.117289877100000E9     5.040550538907423E-1   -4.011014533733005E-2    1.129019006613360E-3    4.038709722161801E-3    1.237711871087637E-3    4.074654796281744E-3    4.102598471525122E-1   -1.885717743736090E-1
 8.117292220400000E9     5.039638943041748E-1   -4.030455517563356E-2    1.139780176785382E-3    4.029638644566486E-3    1.214944945344092E-3    4.118147698960188E-3    4.100156298481033E-1   -1.887635877164447E-1
 8.117294563700000E9     5.038923687224967E-1   -4.048140525619062E-2    1.129156107371742E-3    4.043875023030516E-3    1.207474186855489E-3    4.104080592735366E-3    4.100757963050849E-1   -1.887819424744030E-1
 8.117296907000000E9     5.039969163686165E-1   -4.081308387329480E-2    1.139027131965483E-3    4.063386748086695E-3    1.219112755233181E-3    4.099197246967332E-3    4.098476501000000E-1   -1.889884101507835E-1
 8.117299250300000E9     5.038618491774370E-1   -4.087706221290427E-2    1.150638098434647E-3    4.020924235282788E-3    1.245222591624652E-3    4.090868073626473E-3    4.098817487448929E-1   -1.892464533930567E-1
 8.117301593600000E9     5.039609459631014E-1   -4.116948608716232E-2    1.138010135075837E-3    4.050359137402786E-3    1.217961080501752E-3    4.137881680793262E-3    4.099383373436079E-1   -1.893704934158371E-1
 8.117303936900000E9     5.037486058007405E-1   -4.131945871280002E-2    1.181362670747257E-3    4.065903543662227E-3    1.273862680587459E-3    4.112693850046003E-3    4.098352664759250E-1   -1.894478139415478E-1
 8.117306280200000E9     5.039010671666835E-1   -4.161429617662385E-2    1.148114505018418E-3    4.074780897604558E-3    1.239076080067547E-3    4.133793971703166E-3    4.096806863101611E-1   -1.895721881085410E-1
 8.117308623500000E9     5.038641541237365E-1   -4.180167089466574E-2    1.187287481233621E-3    4.077788946686570E-3    1.233834437578881E-3    4.128161093457461E-3    4.095710790532798E-1   -1.898539175413535E-1
 8.117310966800000E9     5.036834477479311E-1   -4.192143241229580E-2    1.198064170193490E-3    4.102081794004778E-3    1.254530852965108E-3    4.152825915776700E-3    4.095780470527022E-1   -1.899697070309456E-1
 8.117313310100000E9     5.037133906964136E-1   -4.217836492165480E-2    1.184625938985461E-3    4.059145367661145E-3    1.261434403661595E-3    4.142997758312627E-3    4.095630706396990E-1   -1.901369973509785E-1
 8.117315653400000E9     5.036400010395061E-1   -4.228204902364109E-2    1.202989689645442E-3    4.073127719591598E-3    1.282222618034825E-3    4.165240440376242E-3    4.094389203455954E-1   -1.902255917066082E-1
 8.117317996700000E9     5.036350145462781E-1   -4.251232083013294E-2    1.203000336378211E-3    4.117027292132051E-3    1.258168345170164E-3    4.147380207052508E-3    4.094676083930383E-1   -1.903494295172578E-1
 8.117320340000000E9     5.036066384083108E-1   -4.277251901103406E-2    1.216606201315312E-3    4.109219752828733E-3    1.283730409173549E-3    4.167196455165354E-3    4.093134701952176E-1   -1.905519961507753E-1
 8.117322683300000E9     5.036452463532738E-1   -4.290610748972602E-2    1.182451191985383E-3    4.105603858298708E-3    1.229967656185072E-3    4.154979292614666E-3    4.092241863741055E-1   -1.907291036764263E-1
 8.117325026600000E9     5.036562284667846E-1   -4.304237459718857E-2    1.204665708052306E-3    4.112144254932837E-3    1.247742354795315E-3    4.191282733791009E-3    4.092954476176932E-1   -1.909032111542834E-1
 8.117327369900000E9     5.035331771761526E-1   -4.323191117267770E-2    1.198212051602555E-3    4.112456434043494E-3    1.267598515897410E-3    4.152595091550090E-3    4.091538823025851E-1   -1.908997757958213E-1
 8.117329713200000E9     5.036039341596551E-1   -4.360657496337506E-2    1.204900311533694E-3    4.105113053613254E-3    1.240497331446618E-3    4.153581497139661E-3    4.091763035676115E-1   -1.912266379220464E-1
 8.117332056500000E9     5.036000846355236E-1   -4.370728390471949E-2    1.207117083774311E-3    4.144746028157703E-3    1.257688137236196E-3    4.182321177667072E-3    4.091861272036445E-1   -1.912762445013975E-1
 8.117334399800000E9     5.035067075857158E-1   -4.396508853366450E-2    1.227061970967617E-3    4.107661605421808E-3    1.283612689360096E-3    4.177095012601953E-3    4.089464082754254E-1   -1.915275742218663E-1
 8.117336743100000E9     5.034911830271840E-1   -4.404332697296341E-2    1.241384045708068E-3    4.137028561954663E-3    1.272947928283170E-3    4.221088084452190E-3    4.088485691374635E-1   -1.915760840195717E-1
 8.117339086400000E9     5.035103528842446E-1   -4.428527839155243E-2    1.230899467020375E-3    4.133861879798380E-3    1.313563977157758E-3    4.181617947872248E-3    4.088681644257068E-1   -1.917915584912769E-1
 8.117341429700000E9     5.034347414197795E-1   -4.444735789932688E-2    1.225246805827387E-3    4.139057558577321E-3    1.279774361741744E-3    4.190394660329049E-3    4.087884159225150E-1   -1.919736125505221E-1
 8.117343773000000E9     5.033191030058193E-1   -4.475509274319611E-2    1.231674400998312E-3    4.160679300098293E-3    1.324327056590765E-3    4.214979293635826E-3    4.085865968382840E-1   -1.920010139715019E-1
 8.117346116300000E9     5.034776659126272E-1   -4.499295455530107E-2    1.221094948898567E-3    4.148502815950196E-3    1.306633436396158E-3    4.185453477086656E-3    4.088027591623455E-1   -1.921295780079273E-1
 8.117348459600000E9     5.033527634062926E-1   -4.507895342049404E-2    1.248119294662591E-3    4.162656402652801E-3    1.338873738618857E-3    4.229059394122063E-3    4.085112764733305E-1   -1.923638141697855E-1
 8.117350802900000E9     5.033637267997336E-1   -4.535054538095425E-2    1.248847693813007E-3    4.170964654737331E-3    1.316045691952846E-3    4.240742029910297E-3    4.086624170866169E-1   -1.925605008787485E-1
 8.117353146200000E9     5.033034634367930E-1   -4.548399330843799E-2    1.276575771960821E-3    4.172918986406572E-3    1.339384563026482E-3    4.189511841785120E-3    4.083791611990901E-1   -1.925771603981695E-1
 8.117355489500000E9     5.031476835203219E-1   -4.577095816812938E-2    1.257527391457931E-3    4.193129108388830E-3    1.295882538930684E-3    4.218002842953357E-3    4.083124330195210E-1   -1.929081459166392E-1
 8.117357832800000E9     5.032028103658817E-1   -4.598656117525638E-2    1.247366549645890E-3    4.153603109401438E-3    1.341061281468622E-3    4.263835414375280E-3    4.083203316533202E-1   -1.929479778031064E-1
 8.117360176100000E9     5.031096399834953E-1   -4.606706488378749E-2    1.277125746714493E-3    4.187441933260433E-3    1.346046865973892E-3    4.256516428531499E-3    4.082021881530092E-1   -1.931887828566494E-1
 8.117362519400000E9     5.032114446859971E-1   -4.631545290694977E-2    1.287583870342162E-3    4.202901467101020E-3    1.355579639239874E-3    4.286954435817667E-3    4.081729080333923E-1   -1.932924551107567E-1
 8.117364862700000E9     5.030779538663079E-1   -4.657522254727819E-2    1.264157651445339E-3    4.197167800639069E-3    1.332340395168776E-3    4.267667562805319E-3    4.080697401254327E-1   -1.933546735533239E-1
 8.117367206000000E9     5.030279382811226E-1   -4.674225728357408E-2    1.260890982630191E-3    4.206784398579251E-3    1.351191261862149E-3    4.280157889163605E-3    4.080379753480674E-1   -1.935433623847558E-1
 8.117369549300000E9     5.031429185487341E-1   -4.702888788531703E-2    1.265129102213369E-3    4.208944345810468E-3    1.358365189625850E-3    4.294205041616633E-3    4.080814121580971E-1   -1.936873544165418E-1
 8.117371892600000E9     5.030707820967575E-1   -4.719020680574953E-2    1.291386320444000E-3    4.227031233259706E-3    1.377838424568431E-3    4.284302485621642E-3    4.077730783165298E-1   -1.938368570286582E-1
 8.117374235900000E9     5.029882127887764E-1   -4.742632318412501E-2    1.311756135046463E-3    4.234887031404524E-3    1.347699374101469E-3    4.267941619995100E-3    4.077741582210384E-1   -1.940263379668985E-1
 8.117376579200000E9     5.030309778529926E-1   -4.770161784055064E-2    1.320402810070782E-3    4.265748250956485E-3    1.364705386697316E-3    4.305972068062778E-3    4.077880552897848E-1   -1.941351615975645E-1
 8.117378922500000E9     5.029765311316875E-1   -4.772996643391768E-2    1.297462359065765E-3    4.242347781106485E-3    1.367836014605142E-3    4.317301223668349E-3    4.078396813387115E-1   -1.943858079058713E-1
 8.117381265800000E9     5.028991288375947E-1   -4.794743196413333E-2    1.327693530620363E-3    4.256234086091762E-3    1.446772129797021E-3    4.296477521974823E-3    4.076354160978091E-1   -1.944988074272778E-1
 8.117383609100000E9     5.028288372707858E-1   -4.821691202265840E-2    1.298154365579271E-3    4.244407813335472E-3    1.396823628284038E-3    4.325621186543501E-3    4.075909974243030E-1   -1.946043837868143E-1
 8.117385952400000E9     5.028780608182464E-1   -4.833490807996373E-2    1.317245458473967E-3    4.274315062122578E-3    1.355380491825116E-3    4.325471599078939E-3    4.076687589242715E-1   -1.947182964722399E-1
 8.117388295700000E9     5.027985998798813E-1   -4.864516522614666E-2    1.330621860339918E-3    4.260573807813662E-3    1.388315976617210E-3    4.342841718001410E-3    4.077467206073160E-1   -1.950523980610643E-1
 8.117390639000000E9     5.027775690485267E-1   -4.887756111624285E-2    1.338546815808872E-3    4.275173734145573E-3    1.376052601698019E-3    4.394490232652605E-3    4.073735494056152E-1   -1.950052587235490E-1
 8.117392982300000E9     5.027896453186197E-1   -4.903085538813016E-2    1.331287852166757E-3    4.265236671878808E-3    1.409471258494945E-3    4.327972919904137E-3    4.073050952581936E-1   -1.951569926245909E-1
 8.117395325600000E9     5.027215403001507E-1   -4.927343647919375E-2    1.349181808660081E-3    4.240811009635071E-3    1.408292896975076E-3    4.336077244793234E-3    4.072492268046419E-1   -1.954044298601990E-1
 8.117397668900000E9     5.027481201397842E-1   -4.930245973695429E-2    1.344776345680078E-3    4.310348299764102E-3    1.401462896558500E-3    4.371634635078242E-3    4.072157711654043E-1   -1.955182477323980E-1
 8.117400012200000E9     5.026912214169510E-1   -4.967586805401870E-2    1.354204964147048E-3    4.313076931484364E-3    1.390976334017530E-3    4.371192888426204E-3    4.070964413431417E-1   -1.957204696470675E-1
 8.117402355500000E9     5.025104433850037E-1   -4.991363427476968E-2    1.353163410519340E-3    4.310639981122596E-3    1.459112325717883E-3    4.412878123285368E-3    4.070699232215649E-1   -1.958115570705680E-1
 8.117404698800000E9     5.026810463243270E-1   -5.011041991325065E-2    1.388873416466908E-3    4.331068890975494E-3    1.455770356186448E-3    4.392126732619028E-3    4.070383996955733E-1   -1.959441996249517E-1
 8.117407042100000E9     5.025162375498882E-1   -5.040370783561850E-2    1.380179266869136E-3    4.327827594541436E-3    1.461627227876181E-3    4.384255385873113E-3    4.070532455900799E-1   -1.959935169153294E-1
 8.117409385400000E9     5.025332814332746E-1   -5.053972390403141E-2    1.359415676957727E-3    4.342323421113643E-3    1.471208386193249E-3    4.408575221871194E-3    4.069152166317013E-1   -1.962588283583453E-1
 8.117411728700000E9     5.026150330949315E-1   -5.065336157174168E-2    1.405914351451358E-3    4.337381943731282E-3    1.465494213784848E-3    4.395302839578916E-3    4.069058496457834E-1   -1.964263419787926E-1
 8.117414072000000E9     5.024434833227619E-1   -5.090867790460628E-2    1.386889948493515E-3    4.348497329366282E-3    1.487678840382564E-3    4.427208744853651E-3    4.068815225573554E-1   -1.964697237309641E-1
 8.117416415300000E9     5.023712474157808E-1   -5.110042302383795E-2    1.434768941009747E-3    4.356045506546285E-3    1.485350982717027E-3    4.410759462300265E-3    4.066979064076524E-1   -1.966726907549778E-1
 8.117418758600000E9     5.023420955834049E-1   -5.139850587323793E-2    1.398480578873281E-3    4.376024616027439E-3    1.470281825004611E-3    4.389626642496459E-3    4.066056231017273E-1   -1.968914573174833E-1
 8.117421101900000E9     5.022849596507778E-1   -5.150960630858026E-2    1.412530982001364E-3    4.377944507094139E-3    1.457948511418179E-3    4.448816303945412E-3    4.065001194315442E-1   -1.970030259829543E-1
 8.117423445200000E9     5.022707008330234E-1   -5.181189181261107E-2    1.406786702881805E-3    4.380741850382409E-3    1.490666290130979E-3    4.443796061241500E-3    4.066583922062096E-1   -1.971869567133114E-1
 8.117425788500000E9     5.022467531138513E-1   -5.211593253188784E-2    1.441928121916496E-3    4.388105006808582E-3    1.526006676556699E-3    4.451205679154615E-3    4.065060917328041E-1   -1.975422179904764E-1
 8.117428131800000E9     5.022493603413192E-1   -5.234860057603121E-2    1.414966623155596E-3    4.407474657919865E-3    1.493050332393691E-3    4.463980468520264E-3    4.064662715807812E-1   -1.974730794297500E-1
 8.117430475100000E9     5.021471929355312E-1   -5.247256462666598E-2    1.428607472934999E-3    4.385860578172401E-3    1.508500622637606E-3    4.458170490434597E-3    4.062080470927509E-1   -1.977727443790882E-1
 8.117432818400000E9     5.021445104063037E-1   -5.266197487038955E-2    1.464249524442101E-3    4.394553729768651E-3    1.509116659366993E-3    4.469876521661078E-3    4.062151184302162E-1   -1.979208543006512E-1
 8.117435161700000E9     5.022171470510466E-1   -5.289122635935997E-2    1.458933831043398E-3    4.441044349069986E-3    1.514115932011486E-3    4.499378975723243E-3    4.062146033905052E-1   -1.978338009034054E-1
 8.117437505000000E9     5.020021027787285E-1   -5.322602191124733E-2    1.467241761804449E-3    4.443287256960849E-3    1.536606530387298E-3    4.520129995735665E-3    4.061189505294818E-1   -1.982598612860839E-1
 8.117439848300000E9     5.020756721929552E-1   -5.327125732891677E-2    1.469063239249274E-3    4.448012649221968E-3    1.571570468179235E-3    4.498151915927736E-3    4.060254129555295E-1   -1.981766161702506E-1
 8.117442191600000E9     5.021989438634683E-1   -5.357829526896840E-2    1.498224780212932E-3    4.486471364615881E-3    1.542168107998703E-3    4.526980368205178E-3    4.060319820815061E-1   -1.983507142009061E-1
 8.117444534900000E9     5.019506997327505E-1   -5.380417982032502E-2    1.466933407554715E-3    4.463663847472603E-3    1.554083572910679E-3    4.496230083585953E-3    4.058542402514199E-1   -1.985403733369489E-1
 8.117446878200000E9     5.019181356261310E-1   -5.406732381208394E-2    1.482560428592497E-3    4.449467386237711E-3    1.547710387017401E-3    4.551308373670317E-3    4.058482697241519E-1   -1.988178473289255E-1
 8.117449221500000E9     5.019235017344095E-1   -5.426722876769603E-2    1.496544858791931E-3    4.463641677780641E-3    1.578345038686661E-3    4.548750552689463E-3    4.058467017399687E-1   -1.988949490416101E-1
 8.117451564800000E9     5.018497355795918E-1   -5.452881605215876E-2    1.501001961411042E-3    4.484298282721936E-3    1.588828716914953E-3    4.539633189901226E-3    4.056786358585358E-1   -1.990313793020227E-1
 8.117453908100000E9     5.017430890684477E-1   -5.472135741105716E-2    1.510938838944511E-3    4.530783343246686E-3    1.603777411881412E-3    4.573652801231454E-3    4.056478375185661E-1   -1.992040080224806E-1
 8.117456251400000E9     5.017584404366239E-1   -5.490304046472778E-2    1.515154640834380E-3    4.517843379942211E-3    1.598186289429047E-3    4.586199853364908E-3    4.056041583419380E-1   -1.991974433309315E-1
 8.117458594700000E9     5.016862576988108E-1   -5.518028465552653E-2    1.551836919712693E-3    4.505705673066807E-3    1.635221031091308E-3    4.597266122977165E-3    4.055730161173413E-1   -1.995739934651255E-1
 8.117460938000000E9     5.015395535069439E-1   -5.528688263040107E-2    1.549989296430301E-3    4.547363422872485E-3    1.601840744082945E-3    4.596641733651662E-3    4.054194285253852E-1   -1.995241488402520E-1
