#  HZ   S   RI   R     50.00 
! Rohde & Schwarz Vector Network Analyzer 
! Rohde-Schwarz,ZNB20-2Port,1311601062101988,3.16
! Created: UTC 3/20/2024, 11:40:31 AM
! freq[Hz]                re:S11                  im:S11                  re:S21                  im:S21                  re:S12                  im:S12                  re:S22                  im:S22
 8.117240066000000E9     5.043016174965773E-1   -3.598101698052174E-2    1.063024480336461E-3    3.959639555924719E-3    1.148728276963048E-3    4.042520378250792E-3    4.114925641611769E-1   -1.852341679530665E-1
 8.117242439400000E9     5.044346815567612E-1   -3.619135541758364E-2    1.079801632745321E-3    3.958440670917965E-3    1.182211286743150E-3    4.005102335448110E-3    4.113824331017428E-1   -1.855721589201615E-1
 8.117244812800000E9     5.044011354998381E-1   -3.634064259389617E-2    1.058924109161334E-3    3.965059632674192E-3    1.146780977077780E-3    4.044533469459829E-3    4.113611161490260E-1   -1.856333912344884E-1
 8.117247186200000E9     5.043544211326429E-1   -3.657546386661412E-2    1.094905193979029E-3    3.962740385515346E-3    1.131360821771085E-3    4.038666975759850E-3    4.113609960096056E-1   -1.856539448957643E-1
 8.117249559600000E9     5.042704162640733E-1   -3.667515279289887E-2    1.092612367514194E-3    3.973360641159058E-3    1.147950631928356E-3    4.057405915835336E-3    4.112539549323566E-1   -1.859189295408516E-1
 8.117251933000000E9     5.043207737828551E-1   -3.698381259462195E-2    1.098414015533643E-3    3.968213104270753E-3    1.143916176177739E-3    4.038355965187498E-3    4.111550365820854E-1   -1.860545517424787E-1
 8.117254306400000E9     5.043759068563869E-1   -3.720232710586413E-2    1.112394286502284E-3    3.985072423403762E-3    1.162372637099493E-3    4.018730561234004E-3    4.111000425243244E-1   -1.863589374536786E-1
 8.117256679800000E9     5.043190064406320E-1   -3.741917223325374E-2    1.097029457271233E-3    3.999366248031342E-3    1.154095396945684E-3    4.063956354925924E-3    4.110776491050274E-1   -1.863466261772041E-1
 8.117259053200000E9     5.042557687423946E-1   -3.764563975083070E-2    1.080082885367037E-3    3.977934400534465E-3    1.200761607228182E-3    4.051864168056477E-3    4.110066509422147E-1   -1.865524527842777E-1
 8.117261426600000E9     5.041797114659993E-1   -3.777698018522552E-2    1.115978228335971E-3    3.983363997564091E-3    1.146024281657480E-3    4.048792710907368E-3    4.109090119321409E-1   -1.866502825867744E-1
 8.117263800000000E9     5.042765071415181E-1   -3.795963007761564E-2    1.104747463703420E-3    4.001527709162703E-3    1.171071553060641E-3    4.051978429761126E-3    4.107847690075145E-1   -1.869058604047392E-1
 8.117266173400000E9     5.042687174314993E-1   -3.819939520975687E-2    1.108445934054187E-3    4.007323015055871E-3    1.169624363435158E-3    4.041590739973431E-3    4.107051653680170E-1   -1.870245086672923E-1
 8.117268546800000E9     5.040909697876013E-1   -3.835823552760140E-2    1.121631368409722E-3    3.991831425512943E-3    1.155639681229131E-3    4.057671515712067E-3    4.107330802845003E-1   -1.873027682691342E-1
 8.117270920200000E9     5.041094855101361E-1   -3.866574113526415E-2    1.103680348177418E-3    4.011742294317888E-3    1.220224000510479E-3    4.055554508687621E-3    4.108068747273348E-1   -1.873219451477053E-1
 8.117273293600000E9     5.042649143611170E-1   -3.883283252244067E-2    1.111745783050644E-3    4.024228888183632E-3    1.212711636820941E-3    4.082374347064736E-3    4.105738512062910E-1   -1.873508645776343E-1
 8.117275667000000E9     5.040653032678367E-1   -3.906417604383547E-2    1.132016109400028E-3    4.014307968721352E-3    1.203361603764160E-3    4.080566524431446E-3    4.105642883342394E-1   -1.875941936209122E-1
 8.117278040400000E9     5.040848296543766E-1   -3.916235355826646E-2    1.146245238303826E-3    4.038274345604388E-3    1.222263819634066E-3    4.105161407038083E-3    4.104795236903149E-1   -1.877669415112235E-1
 8.117280413800000E9     5.039911291089715E-1   -3.944105308877804E-2    1.153483812441219E-3    4.018915662575487E-3    1.214229597348309E-3    4.101201563314138E-3    4.104703478674881E-1   -1.879277467314564E-1
 8.117282787200000E9     5.040259322350246E-1   -3.964652491954058E-2    1.168365251714310E-3    4.029488117360995E-3    1.235365197256485E-3    4.079988055041586E-3    4.102759106095213E-1   -1.881692047918704E-1
 8.117285160600000E9     5.039138942403488E-1   -3.983690541430299E-2    1.156912499316030E-3    4.018024609985777E-3    1.193993676235750E-3    4.102813904788285E-3    4.103294735289049E-1   -1.882090216934429E-1
 8.117287534000000E9     5.039687791510852E-1   -4.005406243892990E-2    1.147825884270837E-3    4.014896393179291E-3    1.234139070505937E-3    4.096277680589652E-3    4.101677738117445E-1   -1.884273276787125E-1
 8.117289907400000E9     5.039086568845658E-1   -4.021205636807144E-2    1.153291685202609E-3    4.053748726537905E-3    1.218587277433615E-3    4.110103541856210E-3    4.100746882954650E-1   -1.886898470776977E-1
 8.117292280800000E9     5.039632061871638E-1   -4.040912937233625E-2    1.142285253987996E-3    4.082115685144909E-3    1.229625585324830E-3    4.093371790777344E-3    4.101105488609716E-1   -1.886834439127290E-1
 8.117294654200000E9     5.040152991374506E-1   -4.059284375108198E-2    1.164940659918940E-3    4.036436523334234E-3    1.233028358446831E-3    4.095373308100014E-3    4.100086237043377E-1   -1.888389261484332E-1
 8.117297027600000E9     5.039527886705830E-1   -4.079422057162529E-2    1.147559019270839E-3    4.053429680388421E-3    1.225721434234667E-3    4.124161613014570E-3    4.100618769997489E-1   -1.890451330794384E-1
 8.117299401000000E9     5.038572170444374E-1   -4.101387289402688E-2    1.167326242816585E-3    4.079921739790604E-3    1.223830231198248E-3    4.139150962465217E-3    4.098177977534691E-1   -1.892755700229209E-1
 8.117301774400000E9     5.037665223334714E-1   -4.126548408527422E-2    1.187728797965085E-3    4.069848107798242E-3    1.261937937993006E-3    4.118855352064756E-3    4.097547434392519E-1   -1.893524560498719E-1
 8.117304147800000E9     5.038764702459216E-1   -4.136242810129004E-2    1.187195289944977E-3    4.089583678883156E-3    1.250818586600124E-3    4.110899228903704E-3    4.098160858353686E-1   -1.894509443120031E-1
 8.117306521200000E9     5.038823574100699E-1   -4.165083539156292E-2    1.157177867923993E-3    4.093011476573412E-3    1.275274046809062E-3    4.127699413084168E-3    4.097540154408140E-1   -1.897641472163935E-1
 8.117308894600000E9     5.038590265722462E-1   -4.183599238918424E-2    1.183416116943468E-3    4.106311771701503E-3    1.246116132783410E-3    4.152397042446014E-3    4.097526813732634E-1   -1.897851953835384E-1
 8.117311268000000E9     5.037934118094283E-1   -4.209601615976585E-2    1.197015728329935E-3    4.086773641528805E-3    1.248745482471716E-3    4.118432298481562E-3    4.096517931862652E-1   -1.899216458128951E-1
 8.117313641400000E9     5.037044171174833E-1   -4.230262317316390E-2    1.189768988650389E-3    4.073534310706872E-3    1.236859126677769E-3    4.150147606394108E-3    4.095118952853619E-1   -1.901119951596163E-1
 8.117316014800000E9     5.037262734290877E-1   -4.237334768904851E-2    1.172763215232659E-3    4.082677305045152E-3    1.241093338403642E-3    4.153816153719542E-3    4.095027455972196E-1   -1.902830288339053E-1
 8.117318388200000E9     5.036126054026654E-1   -4.268499997682199E-2    1.221223184788043E-3    4.094078000548918E-3    1.235623345015984E-3    4.191946936705074E-3    4.093674689944322E-1   -1.902929178708924E-1
 8.117320761600000E9     5.035980361224078E-1   -4.282636888861711E-2    1.210173493105339E-3    4.115206023773184E-3    1.260455495409868E-3    4.205637157384143E-3    4.092292831078606E-1   -1.905331434172201E-1
 8.117323135000000E9     5.037168283752005E-1   -4.304607256027013E-2    1.205291095907787E-3    4.109195032611114E-3    1.278834659415086E-3    4.184536672368249E-3    4.092655357368595E-1   -1.907078072401363E-1
 8.117325508400000E9     5.035250050805523E-1   -4.319504082228837E-2    1.193200882874090E-3    4.117306836323426E-3    1.298078793162266E-3    4.195169340239753E-3    4.092490935742989E-1   -1.908191669897228E-1
 8.117327881800000E9     5.035409487567207E-1   -4.348675174059537E-2    1.217786740095750E-3    4.127931030363284E-3    1.272410086928241E-3    4.162320540905026E-3    4.091704647848188E-1   -1.911760072950545E-1
 8.117330255200000E9     5.035197663644527E-1   -4.370247473043620E-2    1.213168039739624E-3    4.109028711930599E-3    1.281149565166748E-3    4.165324200191014E-3    4.090210130650525E-1   -1.911673267658394E-1
 8.117332628600000E9     5.034533332864654E-1   -4.388494624925186E-2    1.234690646884862E-3    4.116290267096395E-3    1.316629839565132E-3    4.184284239843831E-3    4.089763269085381E-1   -1.913403928697015E-1
 8.117335002000000E9     5.033910348607775E-1   -4.405502275004611E-2    1.245073990170526E-3    4.158199922637762E-3    1.304086782224338E-3    4.204607478626515E-3    4.088748945033858E-1   -1.913722762724823E-1
 8.117337375400000E9     5.033645880449203E-1   -4.421548905826281E-2    1.213150343450049E-3    4.144409879205688E-3    1.326354598615003E-3    4.205104254114366E-3    4.088054599842457E-1   -1.917228008344192E-1
 8.117339748800000E9     5.033471306555738E-1   -4.440431802375461E-2    1.257945618102137E-3    4.153617150960871E-3    1.342171945864730E-3    4.216638231500210E-3    4.087662063546326E-1   -1.918838234375010E-1
 8.117342122200000E9     5.033593962942658E-1   -4.466977556855366E-2    1.222165428603692E-3    4.152916783552207E-3    1.290156302723817E-3    4.222406833771862E-3    4.087232498925259E-1   -1.919369522464022E-1
 8.117344495600000E9     5.033772781847388E-1   -4.495355715532288E-2    1.213232964167408E-3    4.155823971734350E-3    1.330312657356548E-3    4.190848754041014E-3    4.085920428615220E-1   -1.919768469177156E-1
 8.117346869000000E9     5.034543147305491E-1   -4.510961677849157E-2    1.253142085239388E-3    4.173262172480571E-3    1.297555147386667E-3    4.237416923010038E-3    4.085926524938538E-1   -1.922448442013817E-1
 8.117349242400000E9     5.033934122247136E-1   -4.520185995597546E-2    1.259351126111613E-3    4.152184849789194E-3    1.293569204066353E-3    4.232671438084228E-3    4.085752959567692E-1   -1.923430279961557E-1
 8.117351615800000E9     5.033413107100948E-1   -4.551855196791267E-2    1.273344428688715E-3    4.205991286418946E-3    1.329893127076250E-3    4.264772446666379E-3    4.084511679705960E-1   -1.926037652861646E-1
 8.117353989200000E9     5.031827734858962E-1   -4.573898456260701E-2    1.260077126423925E-3    4.181980718649357E-3    1.316277980540677E-3    4.257495010702776E-3    4.084646711796109E-1   -1.927357007482092E-1
 8.117356362600000E9     5.031928211999971E-1   -4.584584908547977E-2    1.269756372232032E-3    4.197786481039002E-3    1.322588834010125E-3    4.266264642483643E-3    4.083517328170878E-1   -1.929121965068553E-1
 8.117358736000000E9     5.030840751088056E-1   -4.606254979177321E-2    1.266742813718027E-3    4.179655469767547E-3    1.342701846688654E-3    4.248127672123674E-3    4.082616684533532E-1   -1.928844068649210E-1
 8.117361109400000E9     5.032674408308393E-1   -4.637436283481053E-2    1.288019496972296E-3    4.209029273540462E-3    1.354981368342377E-3    4.266783934567879E-3    4.081858096253815E-1   -1.930221114003735E-1
 8.117363482800000E9     5.031789968304033E-1   -4.652656227075869E-2    1.297908074639540E-3    4.223249599271045E-3    1.366373292762397E-3    4.285305780314530E-3    4.081309931907814E-1   -1.932606732244539E-1
 8.117365856200000E9     5.031274770202689E-1   -4.671451930090910E-2    1.286955061197904E-3    4.224153966276069E-3    1.343453926913762E-3    4.286488101422207E-3    4.081054892335649E-1   -1.935787010252759E-1
 8.117368229600000E9     5.029847897175884E-1   -4.688164445573550E-2    1.299566345564335E-3    4.201316792533481E-3    1.354946125957711E-3    4.297633520521167E-3    4.079476976285910E-1   -1.936523668501384E-1
 8.117370603000000E9     5.030250762914071E-1   -4.712955496351599E-2    1.304318575715496E-3    4.222068271468767E-3    1.397588264928474E-3    4.315753793631009E-3    4.079414168517480E-1   -1.938601381529241E-1
 8.117372976400000E9     5.030175274055351E-1   -4.741517725005723E-2    1.318666018995476E-3    4.235610391088201E-3    1.394271417962124E-3    4.286223679671399E-3    4.078178976836568E-1   -1.938851995934641E-1
 8.117375349800000E9     5.030032442891468E-1   -4.760184182086486E-2    1.308025418211068E-3    4.253700209822181E-3    1.388149005391491E-3    4.297487598485252E-3    4.078634047857110E-1   -1.940987310293842E-1
 8.117377723200000E9     5.028684666282048E-1   -4.771863455364349E-2    1.315651512702000E-3    4.247860621097716E-3    1.386065555986667E-3    4.304304456363420E-3    4.077590334304956E-1   -1.942734450846828E-1
 8.117380096600000E9     5.029443406364248E-1   -4.794966236894222E-2    1.344715095658013E-3    4.250022727367160E-3    1.365421642891420E-3    4.333078247125354E-3    4.077452759400446E-1   -1.943935133533633E-1
 8.117382470000000E9     5.028984369776435E-1   -4.825119961538379E-2    1.349411935977668E-3    4.246918820654474E-3    1.392599025675229E-3    4.329862343296200E-3    4.077550886402663E-1   -1.946088102457643E-1
 8.117384843400000E9     5.028128211929026E-1   -4.842372019583097E-2    1.330689547446132E-3    4.290630443753724E-3    1.443162322449701E-3    4.353602648438885E-3    4.076479292592200E-1   -1.945996884151897E-1
 8.117387216800000E9     5.028502429251560E-1   -4.854534374601745E-2    1.335037268941598E-3    4.300519849438539E-3    1.414583988931871E-3    4.305225488955072E-3    4.073918325480422E-1   -1.948749670530320E-1
 8.117389590200000E9     5.028356783846745E-1   -4.883209337374788E-2    1.352121645435658E-3    4.275378408921641E-3    1.447091844066984E-3    4.330603728547824E-3    4.074844623284201E-1   -1.950201872000428E-1
 8.117391963600000E9     5.028135003593123E-1   -4.897943779292706E-2    1.341204698345446E-3    4.313072740549038E-3    1.434203525195318E-3    4.342469524698143E-3    4.073594655788548E-1   -1.952295678795750E-1
 8.117394337000000E9     5.026842580099441E-1   -4.931504655472931E-2    1.352971025862230E-3    4.297637613167511E-3    1.435631954572344E-3    4.350468596325260E-3    4.072727979891798E-1   -1.952946300127537E-1
 8.117396710400000E9     5.026410246020835E-1   -4.957279949446720E-2    1.380467793512494E-3    4.281960866427037E-3    1.427918481811550E-3    4.392117175818750E-3    4.073349560216703E-1   -1.954804063846069E-1
 8.117399083800000E9     5.026407700538728E-1   -4.978290316100293E-2    1.358447280523967E-3    4.298956209200840E-3    1.429524430343297E-3    4.390560994711392E-3    4.073020067252174E-1   -1.957650205260271E-1
 8.117401457200000E9     5.026654306233063E-1   -4.991358884049543E-2    1.364793765400718E-3    4.317762177582946E-3    1.475605690257713E-3    4.372729647553073E-3    4.072358347805314E-1   -1.958445274796837E-1
 8.117403830600000E9     5.025553659863893E-1   -5.009935673357777E-2    1.394231517254641E-3    4.349633586548695E-3    1.483029640592008E-3    4.394832227740633E-3    4.071015609955285E-1   -1.959840391304990E-1
 8.117406204000000E9     5.026157412448868E-1   -5.035980645881287E-2    1.378031994159139E-3    4.308343444606965E-3    1.469687213946665E-3    4.450103107410003E-3    4.070235018100757E-1   -1.961832803953870E-1
 8.117408577400000E9     5.024474789511314E-1   -5.055184809841270E-2    1.395920253972408E-3    4.351434929823077E-3    1.470277847660339E-3    4.419528134760192E-3    4.070592118659470E-1   -1.963620740088810E-1
 8.117410950800000E9     5.023337827466436E-1   -5.073392001734527E-2    1.396743125322252E-3    4.376266342373835E-3    1.470781148442732E-3    4.406586183144931E-3    4.068029677327072E-1   -1.963993557392816E-1
 8.117413324200000E9     5.024303654807617E-1   -5.104972712432865E-2    1.408749728532073E-3    4.350753985841306E-3    1.474813615575154E-3    4.426865811635289E-3    4.068025254517186E-1   -1.965346273555576E-1
 8.117415697600000E9     5.023667931699630E-1   -5.120540430707386E-2    1.431734929900923E-3    4.380368560759797E-3    1.466634319875489E-3    4.419467161862404E-3    4.066664677375555E-1   -1.966607813853301E-1
 8.117418071000000E9     5.024211904010562E-1   -5.139490164655822E-2    1.435980251188004E-3    4.389953076005901E-3    1.470750350451407E-3    4.431247653926752E-3    4.066181965297478E-1   -1.967944117032071E-1
 8.117420444400000E9     5.023368624338167E-1   -5.169319123270644E-2    1.408032952106725E-3    4.381955460955052E-3    1.500544834381784E-3    4.460936258854106E-3    4.064356938340616E-1   -1.969660574695501E-1
 8.117422817800000E9     5.022952639937807E-1   -5.178887983889873E-2    1.437171842770516E-3    4.379571955751216E-3    1.513329388830116E-3    4.481895403301240E-3    4.065661799595826E-1   -1.971591137692168E-1
 8.117425191200000E9     5.022765369976004E-1   -5.211741281878998E-2    1.434148835001076E-3    4.409207794112202E-3    1.533555097294579E-3    4.430081242155625E-3    4.063684962691681E-1   -1.974533739759742E-1
 8.117427564600000E9     5.021643831848993E-1   -5.225320733866914E-2    1.423517384332828E-3    4.420018573412295E-3    1.505164137848180E-3    4.482624331021532E-3    4.064044626847736E-1   -1.974733050014723E-1
 8.117429938000000E9     5.020333552699625E-1   -5.256041954392368E-2    1.460647279335451E-3    4.421097598404643E-3    1.542813316174820E-3    4.478055010211518E-3    4.062626800868291E-1   -1.974455221491610E-1
 8.117432311400000E9     5.021690398626091E-1   -5.282948693868334E-2    1.499817348066979E-3    4.440044304818739E-3    1.542062613318476E-3    4.522548220302615E-3    4.062666976330884E-1   -1.978008186459486E-1
 8.117434684800000E9     5.021180242753153E-1   -5.303835676328392E-2    1.501426998835278E-3    4.435722589355232E-3    1.572035199126791E-3    4.518518128941236E-3    4.060839588964025E-1   -1.979674815091121E-1
 8.117437058200000E9     5.020490506067773E-1   -5.325111024286037E-2    1.486779059413469E-3    4.423881699223599E-3    1.548004038202480E-3    4.531799639093280E-3    4.060781150461975E-1   -1.981005270387058E-1
 8.117439431600000E9     5.021011502898036E-1   -5.349198821159036E-2    1.486055967481725E-3    4.454632256577634E-3    1.531333282055149E-3    4.550475656071391E-3    4.059251357037909E-1   -1.982610611346752E-1
 8.117441805000000E9     5.017870880658074E-1   -5.370156529735645E-2    1.481667497245481E-3    4.471818646811803E-3    1.560859915711065E-3    4.544212300933592E-3    4.059398175260099E-1   -1.984458806212372E-1
 8.117444178400000E9     5.019065965966838E-1   -5.395743215335047E-2    1.482354768009487E-3    4.484867580065210E-3    1.582860390285332E-3    4.559130858343285E-3    4.059810846306250E-1   -1.985135742176058E-1
 8.117446551800000E9     5.017861442220116E-1   -5.426948754285542E-2    1.515216682178008E-3    4.516253190405153E-3    1.577341364556131E-3    4.548917632002224E-3    4.058464803542110E-1   -1.986760415322761E-1
 8.117448925200000E9     5.017904089236421E-1   -5.434311041249495E-2    1.519624161824152E-3    4.516745443778814E-3    1.593979376096444E-3    4.571539741457574E-3    4.057939104377873E-1   -1.989322573353868E-1
 8.117451298600000E9     5.018198448453293E-1   -5.456310027697741E-2    1.534767597582675E-3    4.496986250794545E-3    1.606681947093830E-3    4.596328235256147E-3    4.057279396160742E-1   -1.989083086258757E-1
 8.117453672000000E9     5.017495239984328E-1   -5.488619479711679E-2    1.526754991725212E-3    4.523186398184251E-3    1.622843472686609E-3    4.620712109979767E-3    4.055870708843445E-1   -1.991068606539085E-1
