#  HZ   S   RI   R     50.00 
! Rohde & Schwarz Vector Network Analyzer 
! Rohde-Schwarz,ZNB20-2Port,1311601062101988,3.16
! Created: UTC 3/20/2024, 11:40:53 AM
! freq[Hz]                re:S11                  im:S11                  re:S21                  im:S21                  re:S12                  im:S12                  re:S22                  im:S22
 1.000579518400000E+10  -4.987804226995740E-1    4.934438522787140E-2   -2.065483233031964E-5   -1.857049971248676E-4    1.282338867658968E-5   -2.051053782534222E-4   -3.767227674054758E-1    3.253046193122889E-1
 1.000579892675000E+10  -4.987576372184596E-1    4.956315622629737E-2   -1.458713491542458E-5   -1.669763511363961E-4    7.746910514249504E-6   -1.991251547459517E-4   -3.765851067052549E-1    3.253640116775595E-1
 1.000580266950000E+10  -4.988518515086243E-1    4.971499767480017E-2   -2.909453113860971E-5   -1.527446022784406E-4    1.717734342391039E-5   -1.684233655670092E-4   -3.764018989391389E-1    3.256225491617222E-1
 1.000580641225000E+10  -4.987704358899804E-1    4.990617274172544E-2    4.802491452699339E-6   -1.869729379953212E-4    3.293701475112189E-5   -1.562195640037057E-4   -3.761850921444005E-1    3.258795813434475E-1
 1.000581015500000E+10  -4.986581255363923E-1    5.027233567635230E-2    4.298861655011448E-6   -1.752387416780480E-4    4.868266838916292E-6   -1.454374728997294E-4   -3.759658795996025E-1    3.262511980421552E-1
 1.000581389775000E+10  -4.986990850792915E-1    5.044796289104116E-2    2.355204088291611E-5   -1.464483619134223E-4    3.282616219028775E-5   -1.593428147685417E-4   -3.757791730848665E-1    3.263282524558141E-1
 1.000581764050000E+10  -4.986093013379788E-1    5.066187608894801E-2    2.003848091037054E-7   -1.443564463013754E-4    3.401843241433075E-5   -1.766433848323545E-4   -3.756720069165764E-1    3.266044406912075E-1
 1.000582138325000E+10  -4.987215052022391E-1    5.101532413268890E-2    2.082397095697523E-5   -1.403224847309050E-4    5.690703686067866E-6   -1.770850250359858E-4   -3.753952276297275E-1    3.268763583351501E-1
 1.000582512600000E+10  -4.986516597833852E-1    5.133553281288546E-2    3.875026610188863E-5   -1.390584573871127E-4    2.902831362175015E-5   -1.345456874001902E-4   -3.752729012689925E-1    3.272504021952443E-1
 1.000582886875000E+10  -4.986271648170589E-1    5.154532534940625E-2    1.545977131710387E-5   -1.555623866665956E-4    5.620475040862534E-5   -1.033826167721127E-4   -3.751590761406976E-1    3.273055732016348E-1
 1.000583261150000E+10  -4.985312642832937E-1    5.177771179957939E-2    2.633150969369815E-5   -1.146278254561917E-4    5.541852091826573E-5   -1.294766885144467E-4   -3.748223568555697E-1    3.276392437911566E-1
 1.000583635425000E+10  -4.984755202978427E-1    5.199696579839883E-2    2.383276438055201E-5   -1.500286587615957E-4    5.654008944970141E-5   -1.428128152678713E-4   -3.746835363927438E-1    3.277589324378185E-1
 1.000584009700000E+10  -4.986614563141785E-1    5.217875393732001E-2    4.066525541848196E-5   -1.181658965992421E-4    3.158866249348028E-5   -1.193824963847157E-4   -3.744336776825726E-1    3.279585169378944E-1
 1.000584383975000E+10  -4.985660217113905E-1    5.248570916720455E-2    6.531169294845832E-5   -1.103369050140660E-4    5.085441715968362E-5   -1.224325020282934E-4   -3.742799158147716E-1    3.282145405783250E-1
 1.000584758250000E+10  -4.984965737020564E-1    5.278707033260315E-2    5.131103634908837E-5   -1.051258181275430E-4    3.975049295745426E-5   -7.531901324288060E-5   -3.740644999192282E-1    3.284796112503724E-1
 1.000585132525000E+10  -4.984705778240142E-1    5.279661019579127E-2    5.990525501610658E-5   -6.708559973662596E-5    8.548676975449700E-5   -1.143565367978837E-4   -3.738951370844680E-1    3.287978874099934E-1
 1.000585506800000E+10  -4.984621865367396E-1    5.321170480157796E-2    7.548459677233764E-5   -8.858539647876664E-5    6.867278374342383E-5   -6.750170735599038E-5   -3.737357416965650E-1    3.289772079540456E-1
 1.000585881075000E+10  -4.984885791270938E-1    5.338362496597648E-2    2.036999768333567E-5   -8.830403598233800E-5    5.920709488325746E-5   -6.767193362657692E-5   -3.736011953554322E-1    3.292971662836144E-1
 1.000586255350000E+10  -4.984659448729084E-1    5.373796279266815E-2    7.734850024617546E-5   -8.493370222054229E-5    6.421804650000112E-5   -7.592055095791939E-5   -3.732340279277872E-1    3.295187072610948E-1
 1.000586629625000E+10  -4.984468351498931E-1    5.392703905073813E-2    7.252620271908904E-5   -6.989781604070587E-5    7.225284028341820E-5   -9.359292223555226E-5   -3.730052582534626E-1    3.297246397529525E-1
 1.000587003900000E+10  -4.983872421049365E-1    5.422212687332500E-2    7.096368213918958E-5   -7.126982061220628E-5    9.464103670950702E-5   -7.435778679982433E-5   -3.729458660065308E-1    3.298337159878788E-1
 1.000587378175000E+10  -4.983284548519399E-1    5.453948270184761E-2    5.391221842968213E-5   -5.628896565305190E-5    7.171102642068208E-5   -4.617338724870407E-5   -3.725331201441087E-1    3.300246953500390E-1
 1.000587752450000E+10  -4.982938920545857E-1    5.464295893965966E-2    7.386989857081263E-5   -4.598632411777701E-5    9.446174847390196E-5   -2.389276686435554E-5   -3.724017802643143E-1    3.303396242196846E-1
 1.000588126725000E+10  -4.983767939770911E-1    5.484164486857766E-2    9.419935014736268E-5   -3.292839425743674E-5    9.034614286693693E-5   -2.345447509600092E-5   -3.721540015598637E-1    3.306435294030031E-1
 1.000588501000000E+10  -4.983049672814549E-1    5.516808957108559E-2    8.535408972199634E-5   -3.508384541979826E-5    9.462231772909316E-5   -3.836304908730389E-5   -3.719871048389721E-1    3.309538460107149E-1
 1.000588875275000E+10  -4.983490114476279E-1    5.538336985302541E-2    9.450194578202059E-5   -2.315505965136815E-5    9.856538026526180E-5   -5.532374215312687E-5   -3.717450696210535E-1    3.310556018080341E-1
 1.000589249550000E+10  -4.983436311222364E-1    5.554376861931735E-2    8.434242495227577E-5   -9.651828886411093E-6    9.116950869853122E-5    1.434616322261687E-5   -3.714983279690465E-1    3.313961588724886E-1
 1.000589623825000E+10  -4.982109769119214E-1    5.582078397709991E-2    9.631116345476584E-5   -1.110384674795128E-5    5.622495974447289E-5   -4.860244550244365E-6   -3.713924127215629E-1    3.314644225735161E-1
 1.000589998100000E+10  -4.982551164562268E-1    5.614876213065163E-2    1.094515623066307E-4    7.903820091446373E-6    1.093365136386476E-4   -6.823170649200273E-7   -3.711205163931151E-1    3.318753016816930E-1
 1.000590372375000E+10  -4.982395867988121E-1    5.635089117952875E-2    1.018020977198081E-4   -1.905636053507927E-5    1.109260457625373E-4   -2.062973925086580E-5   -3.710180841908309E-1    3.322408495765585E-1
 1.000590746650000E+10  -4.982608174537280E-1    5.672106998240140E-2    9.609302999121816E-5   -2.123911888510400E-5    1.359939513894570E-4    1.632586885335814E-5   -3.707851279615280E-1    3.323020153291422E-1
 1.000591120925000E+10  -4.981874087044530E-1    5.690135897803270E-2    9.822937832625463E-5    2.544048193505707E-6    1.250477658386052E-4    7.315015785604267E-6   -3.705104013289328E-1    3.326654651364944E-1
 1.000591495200000E+10  -4.981027518871312E-1    5.721921819267200E-2    1.126267149420831E-4    4.372652500611885E-5    1.158459048898187E-4    9.886464264428393E-6   -3.702843748217032E-1    3.328174286224127E-1
 1.000591869475000E+10  -4.980881125279960E-1    5.731376915902635E-2    1.428581420863340E-4    9.029191131126162E-6    1.086999569209956E-4   -3.226005184459479E-6   -3.701301209515200E-1    3.331869999529606E-1
 1.000592243750000E+10  -4.981898226249663E-1    5.756728612936927E-2    1.302977425104984E-4    2.936333085253709E-5    1.145625946384021E-4    5.408375525317186E-5   -3.699313011311069E-1    3.334190358021901E-1
 1.000592618025000E+10  -4.981069155070113E-1    5.792018420592531E-2    1.581182063720438E-4    3.193109941191250E-5    1.646153417958542E-4    4.636808049300811E-5   -3.696560571049567E-1    3.336530241376034E-1
 1.000592992300000E+10  -4.980829556656512E-1    5.806217285823039E-2    1.480997592248093E-4    5.618364195582231E-5    1.167503227299818E-4    5.561633682376153E-5   -3.694299904909708E-1    3.338895520805367E-1
 1.000593366575000E+10  -4.980343517419553E-1    5.840578315033059E-2    1.514611652228084E-4    6.361503510058858E-5    1.203451947851722E-4    4.637761795724573E-5   -3.692674717040745E-1    3.340932760015366E-1
 1.000593740850000E+10  -4.979573298199113E-1    5.860727388198693E-2    1.605562392487007E-4    8.945281774960245E-5    1.429919689756208E-4    8.169726172040782E-5   -3.689303349097540E-1    3.341753497632647E-1
 1.000594115125000E+10  -4.979308374325745E-1    5.887786934585522E-2    1.508580868373710E-4    8.298725003228270E-5    1.324334504736593E-4    6.901424708952541E-5   -3.687786939747936E-1    3.345609390618509E-1
 1.000594489400000E+10  -4.980527650879072E-1    5.908509575210851E-2    1.705760050124227E-4    7.072603240545801E-5    1.565726035204413E-4    9.098000695024528E-5   -3.685836971434160E-1    3.348487705552363E-1
 1.000594863675000E+10  -4.979049922327246E-1    5.931501551961916E-2    1.589470137494754E-4    8.098622772342912E-5    1.874404037941942E-4    1.109284264491225E-4   -3.682910797532654E-1    3.350459019184777E-1
 1.000595237950000E+10  -4.979314438089177E-1    5.961538813184021E-2    1.678486479087951E-4    9.153406206910171E-5    1.700914902996200E-4    9.036917691565194E-5   -3.680803460576563E-1    3.352819313965290E-1
 1.000595612225000E+10  -4.979957422184441E-1    5.979644737757879E-2    1.941861356745308E-4    1.342538933768059E-4    1.814790543342499E-4    1.350308583399836E-4   -3.678904380034636E-1    3.355389032407483E-1
 1.000595986500000E+10  -4.977548100518992E-1    6.000858492631143E-2    2.021997036781270E-4    1.248626042232801E-4    2.213427879007654E-4    1.323741585959995E-4   -3.676794355312088E-1    3.357194793569345E-1
 1.000596360775000E+10  -4.978624705984113E-1    6.023960015041827E-2    2.112519062987688E-4    1.109844180881194E-4    1.912944739802548E-4    1.012725588384906E-4   -3.674551787644478E-1    3.360792848639785E-1
 1.000596735050000E+10  -4.977753709564617E-1    6.051692663780742E-2    1.990954984694050E-4    9.975832153051713E-5    1.990119527558331E-4    1.246347791246450E-4   -3.671362149759071E-1    3.363381439616727E-1
 1.000597109325000E+10  -4.978561693670829E-1    6.071675380426075E-2    2.290486223236420E-4    1.332360862721602E-4    1.956105146133433E-4    1.377455810458739E-4   -3.670341524182605E-1    3.364451050965478E-1
 1.000597483600000E+10  -4.979403006197203E-1    6.100550907288318E-2    2.446445960830773E-4    1.437648024251891E-4    2.096224406423644E-4    1.503203391400580E-4   -3.668516026073151E-1    3.368394372251354E-1
 1.000597857875000E+10  -4.977316255945619E-1    6.115851224223742E-2    2.302613686055279E-4    1.551288584136961E-4    2.017068453073133E-4    1.624395035146186E-4   -3.665927838054109E-1    3.371299119513764E-1
 1.000598232150000E+10  -4.977578561367909E-1    6.141759668924474E-2    2.106960212925868E-4    1.573823877399037E-4    2.216288129484871E-4    1.734947671420248E-4   -3.662868870765401E-1    3.373679891165969E-1
 1.000598606425000E+10  -4.977987229465160E-1    6.175543577701438E-2    2.672138203028506E-4    1.806937617668784E-4    2.452381766799978E-4    1.896437841429814E-4   -3.659599521789203E-1    3.376317247126362E-1
 1.000598980700000E+10  -4.977685970721631E-1    6.194764257271283E-2    2.653385999590937E-4    1.912732725995173E-4    2.560369217941851E-4    1.889655413051978E-4   -3.657965920611661E-1    3.379058844629395E-1
 1.000599354975000E+10  -4.977745518680218E-1    6.221661650980356E-2    2.570143957393563E-4    1.796879034382992E-4    2.240394479381603E-4    1.838490122652876E-4   -3.656670832716319E-1    3.379510643523327E-1
 1.000599729250000E+10  -4.976931220906156E-1    6.249811122920128E-2    2.513372091324940E-4    2.145695263451641E-4    2.515485887008822E-4    2.073403288574086E-4   -3.652781505147457E-1    3.383229406198313E-1
 1.000600103525000E+10  -4.976067962224973E-1    6.276189767942938E-2    2.492865631476925E-4    1.941954779565042E-4    2.607521283406274E-4    2.114625242838031E-4   -3.650961484875783E-1    3.386954722912565E-1
 1.000600477800000E+10  -4.976088247499942E-1    6.293089327510240E-2    2.702243027778598E-4    2.078839363880957E-4    2.443425725052423E-4    2.290253178813720E-4   -3.649180467477026E-1    3.390232574967445E-1
 1.000600852075000E+10  -4.976284723137278E-1    6.316215118437200E-2    2.737439222318261E-4    2.212674249990950E-4    2.426164977149005E-4    2.390326278076019E-4   -3.646722281997854E-1    3.389980436981228E-1
 1.000601226350000E+10  -4.975986164476800E-1    6.350493751359503E-2    2.791065492977579E-4    2.439395072575060E-4    2.667099575550384E-4    2.541966707871159E-4   -3.643625362453822E-1    3.391778135954511E-1
 1.000601600625000E+10  -4.976211367998488E-1    6.364378745693219E-2    3.225871005980032E-4    2.619283064791781E-4    2.783542927038595E-4    2.489649500406993E-4   -3.640396685789638E-1    3.396429453596541E-1
 1.000601974900000E+10  -4.974366929035723E-1    6.392049834772412E-2    2.871764340833655E-4    2.313872417973408E-4    2.848753519804946E-4    2.484521064434871E-4   -3.639145276509270E-1    3.399020886218992E-1
 1.000602349175000E+10  -4.974830623258777E-1    6.421984537137031E-2    2.907695953680370E-4    2.698581752315170E-4    3.093131052953718E-4    2.690982918757494E-4   -3.635967228460633E-1    3.401196633700598E-1
 1.000602723450000E+10  -4.974850891118965E-1    6.447666844779089E-2    3.196411622225937E-4    2.843427501608987E-4    3.068498298103288E-4    2.843940043467197E-4   -3.633445527426956E-1    3.404707713990908E-1
 1.000603097725000E+10  -4.973945172809878E-1    6.464892758985570E-2    3.169737331538780E-4    3.084686722770096E-4    3.136702263066680E-4    2.858689361942928E-4   -3.630693515621471E-1    3.407764717486260E-1
 1.000603472000000E+10  -4.974548087879699E-1    6.501657855805806E-2    3.249728321286846E-4    2.953394105953679E-4    3.175939144811229E-4    2.747586963327436E-4   -3.628117114682769E-1    3.410061753563462E-1
 1.000603846275000E+10  -4.973857474258821E-1    6.501651285723188E-2    3.408542591878292E-4    3.057709844990709E-4    3.434911987384473E-4    3.159844026387570E-4   -3.626144893882146E-1    3.412844974043423E-1
 1.000604220550000E+10  -4.974251002735588E-1    6.527633501387617E-2    3.613500425316899E-4    3.168752414260244E-4    3.278479963967547E-4    2.904522093503186E-4   -3.622506576929745E-1    3.413866985455667E-1
 1.000604594825000E+10  -4.974011587786379E-1    6.562803186125137E-2    3.573346631482175E-4    3.267175626719090E-4    3.524178380988589E-4    3.336575231974803E-4   -3.619905696935186E-1    3.418172025927874E-1
 1.000604969100000E+10  -4.972224887439466E-1    6.589807164475350E-2    4.000738678707725E-4    2.993588460157857E-4    3.428910951684505E-4    3.339758951117289E-4   -3.616037258182132E-1    3.420782230185698E-1
 1.000605343375000E+10  -4.972011742709896E-1    6.612593523806370E-2    4.273354917556000E-4    3.653260539909446E-4    3.762832028953188E-4    3.522601766183733E-4   -3.615370745252763E-1    3.421833697386980E-1
 1.000605717650000E+10  -4.972166161779956E-1    6.631781236526109E-2    4.059747142813917E-4    3.480580075297101E-4    3.741145249947949E-4    3.717801756086304E-4   -3.612606009238559E-1    3.426338114158292E-1
 1.000606091925000E+10  -4.971931761276364E-1    6.649680998208364E-2    3.925946322391705E-4    3.515216971977280E-4    3.811326662276560E-4    4.133131631898755E-4   -3.610147510972642E-1    3.427799219793132E-1
 1.000606466200000E+10  -4.971884059348335E-1    6.682790845439465E-2    4.272592427601464E-4    4.056787778078726E-4    3.641124234488137E-4    3.836364195556674E-4   -3.606799656064023E-1    3.430327834857468E-1
 1.000606840475000E+10  -4.971764123289775E-1    6.712263806203665E-2    4.387240966978851E-4    3.911987621800644E-4    4.019328719465088E-4    4.071179642303696E-4   -3.603602996147032E-1    3.434648556065605E-1
 1.000607214750000E+10  -4.972523628299401E-1    6.724617208041354E-2    4.324280546340207E-4    3.916997811558448E-4    3.988910743277128E-4    4.204038225678920E-4   -3.601624376713883E-1    3.436690658519168E-1
 1.000607589025000E+10  -4.970605613625408E-1    6.761577468726955E-2    4.404159844418986E-4    4.255523580321684E-4    4.190555771663166E-4    4.295361216598056E-4   -3.597641054845382E-1    3.439071833381854E-1
 1.000607963300000E+10  -4.971514864596552E-1    6.782844571975172E-2    4.725705270497166E-4    4.036652231773836E-4    4.485364422254399E-4    4.286184598776729E-4   -3.594945378911649E-1    3.442042898788742E-1
 1.000608337575000E+10  -4.970428251680681E-1    6.798587068078682E-2    4.745535033378932E-4    4.409691077696948E-4    4.557273430849332E-4    4.690305436576409E-4   -3.592485814892332E-1    3.444635946820062E-1
 1.000608711850000E+10  -4.971121635413777E-1    6.827260175571570E-2    4.692166944538253E-4    4.514051533329963E-4    4.618761317054497E-4    4.478009659327781E-4   -3.589954636450829E-1    3.446682210453962E-1
 1.000609086125000E+10  -4.970984275600017E-1    6.851700877325742E-2    4.924377195901341E-4    4.824354479578171E-4    4.670013339230199E-4    4.852442894385717E-4   -3.585730480241827E-1    3.450426659537706E-1
 1.000609460400000E+10  -4.969801946822524E-1    6.883994923088385E-2    5.420406638529495E-4    4.907092044282705E-4    4.823976058486958E-4    4.906700966766817E-4   -3.583952169660951E-1    3.453487800975257E-1
 1.000609834675000E+10  -4.970380737028561E-1    6.898844200167950E-2    4.961430092473022E-4    4.982929100362575E-4    4.859159806635826E-4    5.089989641970657E-4   -3.581509598027321E-1    3.454373289985109E-1
 1.000610208950000E+10  -4.968197042876186E-1    6.917745607381305E-2    5.332492510818253E-4    5.549140992819517E-4    4.935961908330794E-4    5.187559554176474E-4   -3.577378865034136E-1    3.458864661911912E-1
 1.000610583225000E+10  -4.970212957367490E-1    6.941452179661375E-2    5.574092285176624E-4    5.268576581010611E-4    5.145503450984148E-4    5.425055716844740E-4   -3.573318704786207E-1    3.461930071786956E-1
 1.000610957500000E+10  -4.969060404655152E-1    6.977830098296309E-2    5.376695356522686E-4    5.096187642624668E-4    5.203802163541097E-4    5.686247188067852E-4   -3.571946519676086E-1    3.464824784850404E-1
 1.000611331775000E+10  -4.968280641597196E-1    7.003901661639715E-2    5.667231854255642E-4    5.556665161066250E-4    5.393036641903194E-4    5.717883311585974E-4   -3.569194009156977E-1    3.466591533137467E-1
 1.000611706050000E+10  -4.969387079099972E-1    7.020315905813115E-2    5.918620931950639E-4    5.845860265428138E-4    5.378412566161060E-4    5.761390744388811E-4   -3.565822296259397E-1    3.469320253520606E-1
 1.000612080325000E+10  -4.967950181666725E-1    7.037511190124361E-2    6.226943683798025E-4    5.826390467962936E-4    5.411687109633315E-4    6.234834396092391E-4   -3.561638878249404E-1    3.475137525235955E-1
 1.000612454600000E+10  -4.969070194165270E-1    7.071493961061931E-2    6.095269361805090E-4    5.935799575474449E-4    5.654749905950726E-4    6.238739133652477E-4   -3.560296215432799E-1    3.475446858055407E-1
 1.000612828875000E+10  -4.967255809209757E-1    7.097477203171770E-2    6.217237672012455E-4    6.265593129212046E-4    5.829746397951319E-4    6.029930558715188E-4   -3.554763223722934E-1    3.478899356066105E-1
 1.000613203150000E+10  -4.968991670343152E-1    7.110135803012398E-2    6.406616777814546E-4    6.456777707742430E-4    5.898451811534468E-4    6.509423544092416E-4   -3.550976551314144E-1    3.481938153982539E-1
