#  HZ   S   RI   R     50.00 
! Rohde & Schwarz Vector Network Analyzer 
! Rohde-Schwarz,ZNB20-2Port,1311601062101988,3.16
! Created: UTC 3/20/2024, 11:40:58 AM
! freq[Hz]                re:S11                  im:S11                  re:S21                  im:S21                  re:S12                  im:S12                  re:S22                  im:S22
 1.000578372100000E+10  -4.988329957330523E-1    4.854513950569646E-2   -1.011419699470974E-5   -1.817041114924208E-4    7.395505982301223E-6   -2.037319803466887E-4   -3.773245343270255E-1    3.245323569475369E-1
 1.000578750957500E+10  -4.988704320860300E-1    4.868968971954095E-2   -1.099392406054802E-5   -1.887381614545680E-4   -1.248778825964974E-5   -1.778933632073407E-4   -3.771093574074471E-1    3.247810314726277E-1
 1.000579129815000E+10  -4.987363669758672E-1    4.899638552827403E-2   -6.354080690560300E-6   -1.725328119585737E-4    4.023128589664944E-7   -1.730203015045858E-4   -3.770218519363334E-1    3.249245104004475E-1
 1.000579508672500E+10  -4.987360114253033E-1    4.926303687301153E-2   -1.732608496060196E-6   -2.011416944125471E-4    7.830584608101453E-6   -1.530568685890840E-4   -3.768156056106098E-1    3.251829873129723E-1
 1.000579887530000E+10  -4.988247996299395E-1    4.950834855885417E-2   -7.359432990875397E-6   -1.666538461005224E-4    5.321336841840814E-6   -1.812042692603711E-4   -3.766495084129311E-1    3.254770015424489E-1
 1.000580266387500E+10  -4.987817998542940E-1    4.973522847779883E-2   -4.862054250854372E-6   -1.826417369087024E-4   -1.220722880822205E-6   -1.803510267922162E-4   -3.763246997800573E-1    3.256943400728913E-1
 1.000580645245000E+10  -4.986718197805927E-1    5.009202650699451E-2    2.078224282779690E-5   -1.895535830943457E-4   -2.022774481809365E-5   -1.539339814628160E-4   -3.760854423705228E-1    3.259248891861090E-1
 1.000581024102500E+10  -4.986567472619015E-1    5.032565150176894E-2    9.538908248332545E-6   -1.856477831109232E-4    5.420332562928291E-5   -1.457246567324488E-4   -3.759906430008507E-1    3.261927580161466E-1
 1.000581402960000E+10  -4.987144053334294E-1    5.049520216423185E-2    1.982781879385296E-5   -1.340839207822946E-4    2.280816259560924E-5   -1.607491871419560E-4   -3.756663149738604E-1    3.264566371210199E-1
 1.000581781817500E+10  -4.987155486862218E-1    5.080914212717116E-2    2.053796502568721E-5   -1.537441329269969E-4    3.785317987070532E-5   -1.373361902265573E-4   -3.756318929640273E-1    3.266835520498528E-1
 1.000582160675000E+10  -4.986344301423263E-1    5.101512665128431E-2    9.715807422053160E-6   -1.299256727545083E-4    4.508371561772913E-5   -1.541906942287202E-4   -3.753061847384448E-1    3.268361632556110E-1
 1.000582539532500E+10  -4.985999346923715E-1    5.126706481193455E-2    2.487534632219097E-5   -1.524736892646524E-4    3.070981174301432E-5   -1.435897579572571E-4   -3.752167824264553E-1    3.270805712949191E-1
 1.000582918390000E+10  -4.985314240224316E-1    5.149513727057487E-2    4.400980644526062E-5   -1.600446785974348E-4    2.778298014775369E-5   -1.454093226813393E-4   -3.749652847013081E-1    3.272839796732605E-1
 1.000583297247500E+10  -4.985947909776237E-1    5.183605531704819E-2    2.239764247267579E-5   -1.400687280341665E-4    3.458225679227398E-5   -1.417995356792335E-4   -3.748025463008590E-1    3.276565183507086E-1
 1.000583676105000E+10  -4.986096117684805E-1    5.196705728944777E-2    7.019757131186799E-5   -1.172417327045016E-4    5.580562812254683E-5   -1.134948951509975E-4   -3.746647948970985E-1    3.278725332851891E-1
 1.000584054962500E+10  -4.984674703400874E-1    5.227802325181388E-2    5.761311922706814E-5   -1.212087139644347E-4    3.263630994454433E-5   -1.382189929390326E-4   -3.743502890819425E-1    3.282302961331821E-1
 1.000584433820000E+10  -4.985179119236494E-1    5.240167826464142E-2    3.910486757929527E-5   -1.069586734301447E-4    3.842912415367068E-5   -7.508636319109035E-5   -3.742146175645630E-1    3.283534555419722E-1
 1.000584812677500E+10  -4.983988980464320E-1    5.283046556209334E-2    5.691258771606380E-5   -9.697464784177438E-5    5.362474020969967E-5   -1.172006154659543E-4   -3.741197386454533E-1    3.286146161980513E-1
 1.000585191535000E+10  -4.984432781382654E-1    5.304550964105902E-2    7.584707045320445E-5   -8.945606313108973E-5    5.397928652242142E-5   -1.088744458800421E-4   -3.737180691093445E-1    3.287765166599258E-1
 1.000585570392500E+10  -4.982978290925475E-1    5.327358633538919E-2    3.471302950674739E-5   -9.404677566698571E-5    4.534654685203375E-5   -9.893542852708364E-5   -3.735697614038738E-1    3.291005609824621E-1
 1.000585949250000E+10  -4.985353580267928E-1    5.357888638084175E-2    6.338619864881802E-5   -1.088927622212037E-4    7.663086544710493E-5   -7.839737276430018E-5   -3.734127083393844E-1    3.292112469415607E-1
 1.000586328107500E+10  -4.984837322415025E-1    5.381858283745571E-2    7.201166090281317E-5   -6.972726564389689E-5    5.856479700435990E-5   -4.781409681987263E-5   -3.731490747311866E-1    3.295363127050160E-1
 1.000586706965000E+10  -4.983154331518940E-1    5.406776555478486E-2    6.861861471827467E-5   -6.279330451612374E-5    7.375257512231378E-5   -7.985920745070877E-5   -3.730709238720371E-1    3.296938488300338E-1
 1.000587085822500E+10  -4.984221216228931E-1    5.412707598777831E-2    8.121415347924467E-5   -4.543009931341869E-5    8.073240347304065E-5   -6.142591682075438E-5   -3.727251869543836E-1    3.300124550423508E-1
 1.000587464680000E+10  -4.984122413983528E-1    5.449040165549471E-2    8.273717453060644E-5   -5.268310695453390E-5    7.783594836838601E-5   -6.318291624557819E-5   -3.725602881694295E-1    3.302656484716957E-1
 1.000587843537500E+10  -4.983268917543645E-1    5.478714341681827E-2    6.808032052122645E-5   -5.034834219436743E-5    8.543698089663246E-5   -5.397023926677687E-5   -3.724067658465791E-1    3.304007269014875E-1
 1.000588222395000E+10  -4.982659406523844E-1    5.506372297817234E-2    9.020699325970086E-5   -3.575326393641472E-5    8.447897929045344E-5   -1.642940165710704E-5   -3.720495927026242E-1    3.306626929639707E-1
 1.000588601252500E+10  -4.982942759835586E-1    5.526393974376218E-2    8.604592012514945E-5   -3.660572075720890E-5    1.108272812618627E-4   -1.903151320866744E-5   -3.719436084461207E-1    3.310113134413968E-1
 1.000588980110000E+10  -4.981413455852694E-1    5.545290320854467E-2    1.254830587731743E-4   -5.501516441172639E-5    6.964198440688277E-5   -2.295762877540318E-5   -3.717293784806419E-1    3.312460107430318E-1
 1.000589358967500E+10  -4.981598147483774E-1    5.563866935309898E-2    6.342415705914353E-5   -4.448411641647597E-5    1.075196872384520E-4   -1.673798254101874E-5   -3.716319477380340E-1    3.313715706169594E-1
 1.000589737825000E+10  -4.982025218970676E-1    5.606506630883472E-2    1.166004822310249E-4    1.315988131609017E-5    9.827031316854826E-5   -4.111189302864424E-5   -3.712135674854342E-1    3.317523484762328E-1
 1.000590116682500E+10  -4.982050169228077E-1    5.628491105865115E-2    1.202723152885684E-4    6.788772298749200E-6    9.362322430742351E-5   -2.511441156750596E-6   -3.710267270300734E-1    3.320699373402665E-1
 1.000590495540000E+10  -4.981518148860298E-1    5.647758282961138E-2    7.971254736198457E-5    2.634768149524099E-5    1.112114010460384E-4    3.180575020709309E-5   -3.707334782564914E-1    3.322264566945975E-1
 1.000590874397500E+10  -4.981120720069862E-1    5.678539046962806E-2    1.164300178120939E-4   -8.620578802246494E-7    1.355940862538018E-4   -9.630216340295006E-6   -3.705903952794631E-1    3.323855192802982E-1
 1.000591253255000E+10  -4.981109034149855E-1    5.707554647889711E-2    1.393933650340898E-4    1.697603708784059E-5    1.309403379829126E-4   -1.015809268175049E-5   -3.704936839369016E-1    3.327797401505355E-1
 1.000591632112500E+10  -4.980787814447254E-1    5.724795027361718E-2    1.361001429589193E-4    2.959346319734496E-6    1.223260230760886E-4    2.774234349033661E-5   -3.702595633448266E-1    3.329696949898716E-1
 1.000592010970000E+10  -4.980840478125348E-1    5.739885292677076E-2    1.738156006752151E-4    1.732743897077419E-5    1.546209890412215E-4    1.739722971246255E-5   -3.700278124551596E-1    3.331493311959569E-1
 1.000592389827500E+10  -4.980466621943911E-1    5.777295645130988E-2    1.442226266906873E-4    8.054395623712257E-6    1.213274207214772E-4    5.002463470067116E-5   -3.696952551106679E-1    3.334704113217465E-1
 1.000592768685000E+10  -4.981192264086527E-1    5.798274765965474E-2    1.447531288106914E-4    1.669238475728904E-7    1.284354252417920E-4    5.506923306504414E-5   -3.694748443354015E-1    3.336614611123926E-1
 1.000593147542500E+10  -4.980040386835761E-1    5.821019207653175E-2    1.548075916819053E-4    6.508087749953852E-5    1.357492768657883E-4    5.655102127774485E-5   -3.692858031001877E-1    3.338681106964789E-1
 1.000593526400000E+10  -4.979527538002568E-1    5.845623043066059E-2    1.743962801322713E-4    7.648133551880861E-5    1.452126616111726E-4    1.049382306156069E-4   -3.691056462863874E-1    3.343518567645986E-1
 1.000593905257500E+10  -4.979356603177686E-1    5.871366780372558E-2    1.438816211881361E-4    6.710507633509283E-5    1.707382349704712E-4    6.088770778463252E-5   -3.687419689342823E-1    3.344123339076259E-1
 1.000594284115000E+10  -4.979043519285347E-1    5.889665494741581E-2    1.535568504045653E-4    5.988810720478088E-5    1.984062815205543E-4    8.176466574268036E-5   -3.686026956675530E-1    3.346099714625483E-1
 1.000594662972500E+10  -4.979038509768907E-1    5.920898871985553E-2    1.738978032281471E-4    6.859900298593226E-5    1.680626371514773E-4    7.620709429284759E-5   -3.683833131460565E-1    3.348359662172807E-1
 1.000595041830000E+10  -4.980114497252268E-1    5.944995281022512E-2    2.027937295942525E-4    1.048494922746215E-4    1.817183147339005E-4    8.714621924419228E-5   -3.681149114361375E-1    3.351682594227953E-1
 1.000595420687500E+10  -4.978617187484854E-1    5.958145490579982E-2    1.549426167287621E-4    1.216303002114780E-4    1.746291033099593E-4    1.183353256723594E-4   -3.679439991582296E-1    3.353018026861329E-1
 1.000595799545000E+10  -4.978457392673046E-1    5.994098287684115E-2    1.873199899335174E-4    9.473953176908107E-5    1.898961311893474E-4    1.347148236208679E-4   -3.676876537077506E-1    3.357953641591859E-1
 1.000596178402500E+10  -4.978776988887049E-1    6.020698997355708E-2    1.909342992915294E-4    1.228786373059118E-4    2.107180768828279E-4    1.375688469409316E-4   -3.674624882406000E-1    3.359160303955623E-1
 1.000596557260000E+10  -4.977726689461924E-1    6.039145533912996E-2    1.889155542014195E-4    1.130594226747799E-4    2.096308369217139E-4    1.520484999069889E-4   -3.673105425920337E-1    3.363286021508889E-1
 1.000596936117500E+10  -4.978549406512175E-1    6.069740550188561E-2    2.228242544612094E-4    1.145639643564486E-4    2.358304351406745E-4    1.560566230592333E-4   -3.670329293114628E-1    3.365225885648315E-1
 1.000597314975000E+10  -4.977436121148240E-1    6.106706318509068E-2    1.931873891343646E-4    1.510582764629593E-4    2.210824025022865E-4    1.401031696649700E-4   -3.669743915932428E-1    3.365789957526288E-1
 1.000597693832500E+10  -4.976544251496771E-1    6.104983900354261E-2    2.164664860456499E-4    1.645336042777100E-4    2.353861733912442E-4    1.575657130669109E-4   -3.663976923344794E-1    3.370771172899958E-1
 1.000598072690000E+10  -4.978061606132593E-1    6.142502729679233E-2    2.081568307530341E-4    1.682916194531317E-4    2.047278136304636E-4    1.698635829026647E-4   -3.663323811954785E-1    3.372062406686591E-1
 1.000598451547500E+10  -4.977456683237854E-1    6.164653080644772E-2    2.295474910516782E-4    1.538092012170790E-4    2.275671434325934E-4    1.896251957930339E-4   -3.662462515403377E-1    3.375217996967544E-1
 1.000598830405000E+10  -4.976877781323144E-1    6.182014018428230E-2    2.524532327696186E-4    1.742960437214015E-4    2.528292331118886E-4    1.845206772218149E-4   -3.658623503505046E-1    3.377944145983268E-1
 1.000599209262500E+10  -4.976257428263476E-1    6.212264759671125E-2    2.660707146454271E-4    1.911680045169162E-4    2.627238252463374E-4    1.600398947944212E-4   -3.655257830687293E-1    3.379529921046965E-1
 1.000599588120000E+10  -4.975583487880322E-1    6.232868760269845E-2    2.582436812548888E-4    2.118777728426932E-4    2.581132876494795E-4    2.200708105581857E-4   -3.654165697560590E-1    3.383092766556489E-1
 1.000599966977500E+10  -4.976044328616326E-1    6.266263305195927E-2    2.628003525952736E-4    2.226733269181667E-4    2.751372577093590E-4    2.518074844561181E-4   -3.651704426715561E-1    3.384763042120937E-1
 1.000600345835000E+10  -4.974784912577787E-1    6.293628373609721E-2    2.876919564570931E-4    2.251419944849229E-4    2.532235482896171E-4    2.220455796481288E-4   -3.648294152888245E-1    3.387890953198761E-1
 1.000600724692500E+10  -4.975261634007759E-1    6.310183093291659E-2    3.007070959528326E-4    2.329860727301544E-4    2.805758882345167E-4    2.203006224271432E-4   -3.646210419661310E-1    3.392280408119871E-1
 1.000601103550000E+10  -4.974790804449811E-1    6.344598158245159E-2    2.959107797185539E-4    2.672221583240080E-4    2.760405669013355E-4    2.447676497778623E-4   -3.644131468188065E-1    3.392985978028128E-1
 1.000601482407500E+10  -4.975036096352938E-1    6.369449115627590E-2    3.124169922662452E-4    2.448790945892897E-4    2.654812952492605E-4    2.517350496550813E-4   -3.641322558429823E-1    3.396279317840157E-1
 1.000601861265000E+10  -4.975502663066037E-1    6.382857592129716E-2    3.072644335988032E-4    2.598768993389484E-4    2.993716236202190E-4    2.702221673666286E-4   -3.638386828282081E-1    3.399570366449979E-1
 1.000602240122500E+10  -4.975105508844427E-1    6.410894932357872E-2    3.028723614479044E-4    2.783983927174810E-4    3.009437236978858E-4    2.721551679232061E-4   -3.635281673859979E-1    3.401330613897646E-1
 1.000602618980000E+10  -4.973293527589668E-1    6.437991910951453E-2    3.281994567282995E-4    2.681692684338893E-4    3.090594355404423E-4    2.723220899826551E-4   -3.633018328896231E-1    3.403772004760938E-1
 1.000602997837500E+10  -4.976015399613528E-1    6.458583391792687E-2    3.392843913109524E-4    2.738648169608829E-4    3.243466118043313E-4    3.021552325658686E-4   -3.629407727890226E-1    3.407208461090633E-1
 1.000603376695000E+10  -4.973792978907851E-1    6.491804741575517E-2    3.272543969058559E-4    3.188752252638416E-4    2.970110580423176E-4    3.273167700175338E-4   -3.627036870375285E-1    3.408673417730169E-1
 1.000603755552500E+10  -4.973408795505566E-1    6.510904554123935E-2    3.452382961525078E-4    3.160936377338237E-4    3.376751999885862E-4    3.515002178943414E-4   -3.625184624593287E-1    3.411139149873817E-1
 1.000604134410000E+10  -4.973439001051015E-1    6.528722788314220E-2    3.861451089579506E-4    3.224949739195033E-4    3.121319409469326E-4    3.545869327745993E-4   -3.622273146336094E-1    3.413982114860107E-1
 1.000604513267500E+10  -4.973200933126017E-1    6.567649730406869E-2    3.812621325064547E-4    3.358666528272156E-4    3.622562550754608E-4    3.590973652294976E-4   -3.620458990792983E-1    3.417224416253963E-1
 1.000604892125000E+10  -4.973439869562907E-1    6.590783619639587E-2    3.818437773681698E-4    3.416410904539484E-4    3.632752687475523E-4    3.533743346806321E-4   -3.617668250275784E-1    3.420828687184950E-1
 1.000605270982500E+10  -4.973350149534797E-1    6.609454787801730E-2    3.998039847855923E-4    3.569736410474226E-4    3.651863390895747E-4    3.902590858446572E-4   -3.613557989560342E-1    3.423249599897297E-1
 1.000605649840000E+10  -4.970953776970009E-1    6.634859303405329E-2    4.018056603510794E-4    3.733931090374411E-4    3.775329886783764E-4    3.663838395086553E-4   -3.611585022216781E-1    3.425211873311151E-1
 1.000606028697500E+10  -4.971624260586786E-1    6.667899590851363E-2    4.317140844061197E-4    3.684906303957014E-4    3.878790614588267E-4    4.109637425704569E-4   -3.608778382917874E-1    3.427790292761168E-1
 1.000606407555000E+10  -4.971994775744134E-1    6.688120911294659E-2    4.305589954606281E-4    4.084416705246713E-4    3.832830148386651E-4    4.113925774232349E-4   -3.606037302495808E-1    3.430354312020503E-1
 1.000606786412500E+10  -4.971741553517507E-1    6.713839028777077E-2    4.540378594665001E-4    4.030247659931179E-4    3.962842471817227E-4    4.186822170495088E-4   -3.602163849007468E-1    3.433426616098291E-1
 1.000607165270000E+10  -4.972032300773103E-1    6.726640783096602E-2    4.472318784976746E-4    4.111126917562081E-4    4.179268019559031E-4    4.121530673330610E-4   -3.600265486847475E-1    3.436015953690870E-1
 1.000607544127500E+10  -4.970790382540315E-1    6.750539815808963E-2    4.454945194608247E-4    4.222799579054351E-4    4.299806792252306E-4    4.213628198576012E-4   -3.597399405618169E-1    3.438723895035735E-1
 1.000607922985000E+10  -4.972822539749256E-1    6.777085102099731E-2    4.621251607958176E-4    4.105938102298367E-4    4.443695504197315E-4    4.237554548336854E-4   -3.594812189076958E-1    3.442071755342346E-1
 1.000608301842500E+10  -4.970479709286206E-1    6.803622987523317E-2    4.777115004432567E-4    4.551560484265142E-4    4.500037594304047E-4    4.564869074433939E-4   -3.591954040454896E-1    3.445974652160094E-1
 1.000608680700000E+10  -4.969985605730436E-1    6.820132013024993E-2    5.065175579371873E-4    4.671355285280258E-4    4.788407520776284E-4    4.759007540257828E-4   -3.589245222979098E-1    3.447644318416390E-1
 1.000609059557500E+10  -4.970621301888664E-1    6.843467505598472E-2    4.989456485912797E-4    4.578210096905906E-4    4.824224505844840E-4    4.952586031752804E-4   -3.585418082866964E-1    3.450419431865515E-1
 1.000609438415000E+10  -4.971236161049567E-1    6.882654983982296E-2    5.293118936140650E-4    4.632636305254168E-4    4.600565294431251E-4    5.100695454939239E-4   -3.581526400016706E-1    3.452127967370809E-1
 1.000609817272500E+10  -4.969692635589478E-1    6.901406917562833E-2    5.211237035708712E-4    4.918047004776400E-4    4.887486709635477E-4    5.171500071146223E-4   -3.578997256395501E-1    3.456266059506604E-1
 1.000610196130000E+10  -4.969911485179142E-1    6.929538461112726E-2    5.299505949211992E-4    5.148722153323616E-4    5.109391658391323E-4    5.397208129026179E-4   -3.576137245883206E-1    3.459194246184809E-1
 1.000610574987500E+10  -4.968755369631235E-1    6.955792811602157E-2    5.588105456280992E-4    5.310646227558057E-4    5.067591882061973E-4    5.409458383161231E-4   -3.573431438237735E-1    3.462129839358666E-1
 1.000610953845000E+10  -4.969311827295796E-1    6.978605884772111E-2    5.636652895286606E-4    5.367673730745259E-4    5.469220834784360E-4    5.855761128226225E-4   -3.571217979672712E-1    3.464512468952277E-1
 1.000611332702500E+10  -4.967316430472916E-1    6.998957528614520E-2    5.582602964650023E-4    5.397906589347435E-4    5.398467408008063E-4    5.786320312171395E-4   -3.567611514278353E-1    3.468199677273305E-1
 1.000611711560000E+10  -4.966947502474309E-1    7.036875215162182E-2    5.910859340476000E-4    5.754560370370880E-4    5.435350118015335E-4    5.870174518692804E-4   -3.562538155911198E-1    3.471245928756960E-1
 1.000612090417500E+10  -4.967813583797063E-1    7.060139119685588E-2    6.077145719991553E-4    5.940243947333099E-4    5.748726863292958E-4    6.100141029949575E-4   -3.559779153043841E-1    3.471764165786466E-1
 1.000612469275000E+10  -4.966835116845666E-1    7.076958240598330E-2    6.113746673136203E-4    6.026321091510258E-4    5.785628927274094E-4    6.141334571743984E-4   -3.558822780241938E-1    3.476808547567211E-1
