#  HZ   S   RI   R     50.00 
! Rohde & Schwarz Vector Network Analyzer 
! Rohde-Schwarz,ZNB20-2Port,1311601062101988,3.16
! Created: UTC 3/20/2024, 11:41:15 AM
! freq[Hz]                re:S11                  im:S11                  re:S21                  im:S21                  re:S12                  im:S12                  re:S22                  im:S22
 1.000576405600000E+10  -4.990487589695072E-1    4.716289936462556E-2   -1.736939526989602E-5   -2.247985403861685E-4    6.376143546708661E-6   -1.848018235243621E-4   -3.782250136782878E-1    3.233485287113977E-1
 1.000576790530000E+10  -4.989935035169744E-1    4.745955170950607E-2   -9.668407671056240E-6   -1.776733925152020E-4   -2.158124180935396E-5   -2.224556881122645E-4   -3.780587771025585E-1    3.235865980813762E-1
 1.000577175460000E+10  -4.990022277811627E-1    4.769265949152447E-2   -3.451491277620273E-5   -1.977161313710105E-4   -2.872270698278369E-6   -2.102978848239857E-4   -3.778353802247701E-1    3.237589141032984E-1
 1.000577560390000E+10  -4.989146848763505E-1    4.791991890244686E-2    1.478576261818441E-5   -1.945091472581091E-4    1.263387554201425E-5   -1.841859274621912E-4   -3.776208361748571E-1    3.239996340306986E-1
 1.000577945320000E+10  -4.987230514838888E-1    4.811326496475826E-2   -2.351213997943690E-5   -1.641120177628510E-4    2.717346174556484E-5   -1.634203172242509E-4   -3.774890277509704E-1    3.241460568039665E-1
 1.000578330250000E+10  -4.988585711093682E-1    4.841532456389887E-2   -3.192689079487451E-8   -1.965924931243063E-4    1.233200984704992E-5   -1.931820303338405E-4   -3.772662094875613E-1    3.245147129445594E-1
 1.000578715180000E+10  -4.988787394549001E-1    4.865153790656990E-2   -9.274672729753829E-6   -1.701729544172444E-4    2.653164748012619E-5   -1.960602633442977E-4   -3.770462326878120E-1    3.246339812309122E-1
 1.000579100110000E+10  -4.988090109309776E-1    4.903520397391126E-2    3.978427484253775E-5   -1.732042402287010E-4    6.838438619068807E-6   -1.605681085535283E-4   -3.768804884185192E-1    3.249444805868735E-1
 1.000579485040000E+10  -4.987385104258124E-1    4.924403118907269E-2    3.122083252502957E-7   -1.745155079791993E-4    3.434551243193904E-5   -1.901395795012348E-4   -3.765537106620017E-1    3.251193198806546E-1
 1.000579869970000E+10  -4.987916359693562E-1    4.944221891597832E-2    1.823093085333061E-5   -1.385042820003338E-4    4.025022355298277E-5   -1.622501546168497E-4   -3.764451217663199E-1    3.254274908989910E-1
 1.000580254900000E+10  -4.988198515791490E-1    4.976757962011591E-2    6.193198652888694E-5   -1.506781438678762E-4    1.559115820217246E-5   -1.448976324231223E-4   -3.763158463297806E-1    3.255612851658523E-1
 1.000580639830000E+10  -4.988233773676472E-1    4.996735445994690E-2    3.246370989846607E-5   -1.575623910205452E-4    2.571511586912982E-5   -1.453974103327482E-4   -3.760037134901054E-1    3.258540820548111E-1
 1.000581024760000E+10  -4.987271198940213E-1    5.009110437665976E-2   -6.839586982884816E-7   -1.363052013007064E-4    1.573462201928270E-5   -1.440167423442334E-4   -3.758104691383046E-1    3.261389076404071E-1
 1.000581409690000E+10  -4.986955296588245E-1    5.042774945004138E-2    1.057607985894830E-5   -1.628237668489365E-4    6.841939999420732E-5   -1.325705170246494E-4   -3.756409149639949E-1    3.264096652520328E-1
 1.000581794620000E+10  -4.986303228955378E-1    5.070558884027313E-2    2.956181595095220E-5   -1.523356219804939E-4    3.020124979391774E-5   -1.343040245020655E-4   -3.755331137107037E-1    3.267902972891910E-1
 1.000582179550000E+10  -4.987753676056386E-1    5.108330470850357E-2    2.053359528528577E-5   -1.061083564539849E-4    2.551885205360316E-5   -1.047883869602119E-4   -3.753165551375259E-1    3.269317560645701E-1
 1.000582564480000E+10  -4.986048222757506E-1    5.121178884169045E-2    2.626993894345721E-5   -1.297204389331993E-4    2.425885759872822E-5   -1.056877958072979E-4   -3.752197366178771E-1    3.270796415763226E-1
 1.000582949410000E+10  -4.987534143634426E-1    5.150941502392110E-2    3.696098065935617E-5   -1.015117935292364E-4    7.831805666870469E-5   -1.245724647350090E-4   -3.748260762502804E-1    3.272915055569756E-1
 1.000583334340000E+10  -4.986987067436133E-1    5.161013824768066E-2    1.661983454940412E-5   -1.222241371936868E-4    8.654411491201559E-5   -1.269084878023194E-4   -3.746672089484123E-1    3.276016691676530E-1
 1.000583719270000E+10  -4.985446176830205E-1    5.195561766519135E-2    3.703693020093558E-5   -1.130888928662178E-4    3.940033889355856E-5   -1.121171180545250E-4   -3.744504881457896E-1    3.278425042317913E-1
 1.000584104200000E+10  -4.986867199254217E-1    5.212743311931861E-2    7.543463115421786E-5   -9.879506918221306E-5    6.935507871233559E-5   -9.415564256891840E-5   -3.742945057696460E-1    3.280462415936808E-1
 1.000584489130000E+10  -4.985320047957445E-1    5.251695460300261E-2    4.976246489360187E-5   -9.886041269050777E-5    6.366927661769300E-5   -6.681020859994514E-5   -3.740476810166695E-1    3.282757657396462E-1
 1.000584874060000E+10  -4.985240746869908E-1    5.272347018435439E-2    6.655248533365773E-5   -7.215583724642177E-5    7.337842019992959E-5   -7.596258548305206E-5   -3.737907935294842E-1    3.286625496885349E-1
 1.000585258990000E+10  -4.985443989714576E-1    5.300402641725390E-2    6.978518397320617E-5   -8.330508394648612E-5    7.981421739337891E-5   -7.007433717630193E-5   -3.735935386479041E-1    3.290180684080543E-1
 1.000585643920000E+10  -4.984868074629060E-1    5.313432178142578E-2    7.182743643664200E-5   -3.822712350171736E-5    6.738454445784525E-5   -7.581362589202092E-5   -3.735647137716092E-1    3.291084570382246E-1
 1.000586028850000E+10  -4.983967595412391E-1    5.343418310160627E-2    5.420804558727431E-5   -7.002826615631637E-5    5.077280511997331E-5   -6.689235962827434E-5   -3.731521245124840E-1    3.291847103269995E-1
 1.000586413780000E+10  -4.983721190109701E-1    5.383861471976416E-2    6.270608642663266E-5   -7.781779635553851E-5    1.042914151662413E-4   -7.800666050422866E-5   -3.730945063923928E-1    3.294628626357600E-1
 1.000586798710000E+10  -4.984318075479333E-1    5.394773958545894E-2    9.094959480580110E-5   -7.491844685628002E-5    8.888913018723711E-5   -6.102934095549389E-5   -3.728045504355306E-1    3.300064415355269E-1
 1.000587183640000E+10  -4.983274164747326E-1    5.418610695345880E-2    8.251492351553746E-5   -5.533620168656461E-5    1.030228549802997E-4   -6.020356791981603E-5   -3.726570290927358E-1    3.300825192793060E-1
 1.000587568570000E+10  -4.983318243165846E-1    5.454121154915827E-2    9.479364416048834E-5   -1.636562469553378E-5    9.957459769378213E-5   -4.552043156981532E-5   -3.724471395488926E-1    3.303302424954829E-1
 1.000587953500000E+10  -4.983491029274902E-1    5.460455836766123E-2    1.080119956421000E-4   -3.887522721820705E-5    1.002341283956938E-4   -3.211721786756373E-5   -3.722183647304435E-1    3.304465874613529E-1
 1.000588338430000E+10  -4.982929002726005E-1    5.484201807468836E-2    9.465509987125915E-5   -2.453174798126123E-5    1.017946932572489E-4   -3.068403837207163E-5   -3.719133673642453E-1    3.307982005418774E-1
 1.000588723360000E+10  -4.981988751504618E-1    5.514287994547467E-2    1.130381161740750E-4   -6.109430716203406E-6    1.372125496728189E-4   -2.036856530937670E-6   -3.717664666067053E-1    3.310739393135860E-1
 1.000589108290000E+10  -4.982656742989818E-1    5.548916834716421E-2    1.146737383016568E-4   -2.760503134574515E-7    1.122606954797238E-4    1.076365792118062E-6   -3.715127584067665E-1    3.312855047377637E-1
 1.000589493220000E+10  -4.982515685040519E-1    5.554282266322248E-2    1.072420943132024E-4    8.349707508079029E-6    1.041424218971779E-4   -1.021913937702336E-5   -3.712084391424470E-1    3.316069301072915E-1
 1.000589878150000E+10  -4.982636137499868E-1    5.594989061414501E-2    1.373619983297953E-4   -4.780080815418034E-6    9.667608187233703E-5    2.350574501820824E-5   -3.711772620406778E-1    3.317980947294656E-1
 1.000590263080000E+10  -4.982514037874328E-1    5.625837015638743E-2    1.730644411218461E-4    1.139367659108653E-5    1.392238171387347E-4    4.412934356780362E-5   -3.708681019691873E-1    3.322299688425418E-1
 1.000590648010000E+10  -4.981801574022328E-1    5.644744233033537E-2    1.379842575377027E-4   -2.416389832976377E-6    1.369117894720786E-4    1.619574891861075E-5   -3.707541690368596E-1    3.322669404672640E-1
 1.000591032940000E+10  -4.980969711986967E-1    5.672418285310552E-2    1.754361987718987E-4    4.492015324076012E-5    1.684271452767966E-4    3.187755287752259E-5   -3.704752473978909E-1    3.325520762332471E-1
 1.000591417870000E+10  -4.981740955302743E-1    5.705602923147877E-2    1.346484815253764E-4    1.354746132988036E-5    1.639473975961935E-4    5.462493890043710E-5   -3.701508499772618E-1    3.327418281526674E-1
 1.000591802800000E+10  -4.981491827910035E-1    5.713646744392763E-2    1.627865213136676E-4    6.110877315514859E-5    1.447891879457699E-4    4.573501935987234E-5   -3.699457533603913E-1    3.330736772502444E-1
 1.000592187730000E+10  -4.981219892985182E-1    5.742848346920706E-2    1.589972408773059E-4    5.803508176528730E-5    1.878938347074650E-4    5.568810634989805E-5   -3.697005527001234E-1    3.333738804349087E-1
 1.000592572660000E+10  -4.981464423230930E-1    5.787563020580808E-2    1.394975577397202E-4    4.483153690680670E-5    1.665099285987843E-4    3.899500990965646E-5   -3.696062137799510E-1    3.335568215929017E-1
 1.000592957590000E+10  -4.980981064790314E-1    5.809281956226798E-2    1.657527353062991E-4    5.044764279620132E-5    1.514390307264835E-4    9.781107942875387E-5   -3.693442044040549E-1    3.338080111296396E-1
 1.000593342520000E+10  -4.980807845679602E-1    5.817153428241047E-2    1.971623453887423E-4    5.772444581835439E-5    1.752890154979631E-4    7.270157443047088E-5   -3.689771886939545E-1    3.339708107128230E-1
 1.000593727450000E+10  -4.982282163962884E-1    5.839094903427288E-2    1.955961208377213E-4    8.998621800337095E-5    1.700341928054119E-4    8.757575083396080E-5   -3.687529277235238E-1    3.343303653410547E-1
 1.000594112380000E+10  -4.980125011713761E-1    5.867287247284354E-2    1.650307514928240E-4    8.469626726151158E-5    1.879436892200847E-4    1.116061070691942E-4   -3.685131381798276E-1    3.345968183433555E-1
 1.000594497310000E+10  -4.980018574925982E-1    5.894559174054054E-2    1.837453598233826E-4    8.955586648962498E-5    1.935394749484081E-4    8.562748756530241E-5   -3.683809214307638E-1    3.348250988429392E-1
 1.000594882240000E+10  -4.979508162570794E-1    5.922587216283304E-2    1.903619653299022E-4    1.148452123977130E-4    1.942914468538859E-4    1.251345470598173E-4   -3.681652429907683E-1    3.351606609379843E-1
 1.000595267170000E+10  -4.978913572350930E-1    5.952400403826693E-2    2.020703761114954E-4    1.198956996212834E-4    2.276836111478200E-4    1.219470543290398E-4   -3.678339508903717E-1    3.353879786578796E-1
 1.000595652100000E+10  -4.978533444695870E-1    5.975780237639364E-2    2.113996920666962E-4    1.558309620567534E-4    1.894128193408379E-4    1.017741170558205E-4   -3.675956835811315E-1    3.355855688831380E-1
 1.000596037030000E+10  -4.978639917146309E-1    5.990484653533330E-2    2.060538384617015E-4    1.289580976477984E-4    2.057911388450869E-4    1.470281325611777E-4   -3.674096359793519E-1    3.359811526731618E-1
 1.000596421960000E+10  -4.977109496272381E-1    6.031317560043196E-2    2.374592844423380E-4    1.356761923977292E-4    2.215931993571069E-4    1.316862234201770E-4   -3.671598758517661E-1    3.362431502575283E-1
 1.000596806890000E+10  -4.978540653424238E-1    6.060729156523843E-2    2.570679789694132E-4    1.484342815676119E-4    1.683689255768538E-4    1.690595878650574E-4   -3.668937129064696E-1    3.364175996860276E-1
 1.000597191820000E+10  -4.978656577222162E-1    6.068863143506083E-2    2.124630583419133E-4    1.599789642675044E-4    2.375998079295877E-4    1.509992542443292E-4   -3.667518640114675E-1    3.366895273794686E-1
 1.000597576750000E+10  -4.979745432262679E-1    6.096791685700144E-2    2.417538037714130E-4    1.761350629714821E-4    2.121390286451716E-4    1.811842564806567E-4   -3.663056659479246E-1    3.368639870884541E-1
 1.000597961680000E+10  -4.977284159261217E-1    6.126561666671401E-2    2.676715509266747E-4    1.870691127107125E-4    2.508818458027997E-4    2.058499576960306E-4   -3.662226651409357E-1    3.372557178701737E-1
 1.000598346610000E+10  -4.977022617107906E-1    6.158917781241834E-2    2.406091611153630E-4    2.146675742629247E-4    2.376991505241559E-4    2.038492576531692E-4   -3.660106614241594E-1    3.375714671765391E-1
 1.000598731540000E+10  -4.976714524204113E-1    6.167674156251746E-2    2.732269680607773E-4    1.974521966389681E-4    2.624444025255506E-4    2.142140449114858E-4   -3.655623558184975E-1    3.378067212163525E-1
 1.000599116470000E+10  -4.976727375579781E-1    6.194469355634322E-2    2.870808175845055E-4    2.264754010702962E-4    2.554391841798103E-4    2.036049692739898E-4   -3.654400052017863E-1    3.378775465986880E-1
 1.000599501400000E+10  -4.978191025792693E-1    6.228366697224538E-2    2.434770427755009E-4    2.263789546401376E-4    2.702198437436806E-4    2.423368914828507E-4   -3.650716814475867E-1    3.380916095663864E-1
 1.000599886330000E+10  -4.976410016327085E-1    6.256099221384068E-2    3.059871774994807E-4    2.275371051593248E-4    2.344920457615359E-4    2.067670993790186E-4   -3.649068730667872E-1    3.385808252541001E-1
 1.000600271260000E+10  -4.976355018859257E-1    6.266976269511559E-2    2.963750850074516E-4    2.498406469121019E-4    2.822872684152396E-4    2.535431524915100E-4   -3.646554315497631E-1    3.387312122853320E-1
 1.000600656190000E+10  -4.977524539041634E-1    6.291330703608901E-2    3.563016593441683E-4    2.577811493338287E-4    2.912640180299638E-4    2.454557358327922E-4   -3.644439972375246E-1    3.391266094072584E-1
 1.000601041120000E+10  -4.975512545303558E-1    6.333029533436485E-2    3.428997271835205E-4    2.631467980475304E-4    2.943262120862758E-4    2.484391625256584E-4   -3.641809792835101E-1    3.393166964745339E-1
 1.000601426050000E+10  -4.976115521390098E-1    6.345819314966555E-2    3.428418886007112E-4    2.714305276134900E-4    3.119080025386801E-4    2.746070237627418E-4   -3.639613645754270E-1    3.396122280012517E-1
 1.000601810980000E+10  -4.974892932491515E-1    6.387200654120688E-2    3.517025483069185E-4    2.698161629165209E-4    3.205854657833798E-4    2.471082446666761E-4   -3.636685628130918E-1    3.398852136615044E-1
 1.000602195910000E+10  -4.975244341828894E-1    6.398859612762260E-2    3.625851582026995E-4    2.823781907155946E-4    3.080122110660001E-4    2.725443455738715E-4   -3.633141999899330E-1    3.401596531677064E-1
 1.000602580840000E+10  -4.975364092691245E-1    6.427113347615855E-2    3.697449156459019E-4    3.048760360762925E-4    3.379124333321625E-4    2.846591956928448E-4   -3.631087976847610E-1    3.403665360172258E-1
 1.000602965770000E+10  -4.974101425977789E-1    6.443974308876517E-2    3.564775627915481E-4    3.172586973469484E-4    3.320354665427596E-4    3.191003106718788E-4   -3.628550531317269E-1    3.407617214261153E-1
 1.000603350700000E+10  -4.973719122765990E-1    6.476355966659762E-2    3.984333166606212E-4    3.221944961387908E-4    3.769421194193159E-4    3.289813232115678E-4   -3.625018286313723E-1    3.408300703991063E-1
 1.000603735630000E+10  -4.974359981771333E-1    6.502484867267426E-2    3.813828295931358E-4    3.476136666003478E-4    3.512294615088768E-4    3.407990625047715E-4   -3.623642454130228E-1    3.411822766518494E-1
 1.000604120560000E+10  -4.974594641973176E-1    6.530860933890729E-2    3.942713809360988E-4    3.476645091076235E-4    3.557347068073158E-4    3.463357669215056E-4   -3.620294392532165E-1    3.414033013082184E-1
 1.000604505490000E+10  -4.974370520538235E-1    6.549537980777320E-2    3.992578198821432E-4    3.541915943295979E-4    3.632104965860126E-4    3.625790084907294E-4   -3.618060698050108E-1    3.417089522416677E-1
 1.000604890420000E+10  -4.973982098517092E-1    6.575488718081551E-2    4.188346811238181E-4    3.347119505715154E-4    3.956405856680627E-4    3.536489308778789E-4   -3.615796240433502E-1    3.419643785935786E-1
 1.000605275350000E+10  -4.973568713521583E-1    6.600715788572678E-2    3.971488248564459E-4    3.868711245385690E-4    4.010211358918822E-4    3.643924925089625E-4   -3.611273433043345E-1    3.422839809924079E-1
 1.000605660280000E+10  -4.972816347016988E-1    6.626599365151518E-2    4.472186173156082E-4    3.831442359441863E-4    4.154418676010294E-4    4.127727743895548E-4   -3.608636358800865E-1    3.426357856840773E-1
 1.000606045210000E+10  -4.971021384430011E-1    6.654524986627749E-2    4.552286039500005E-4    4.087120165061845E-4    4.124742088440460E-4    4.023936580301515E-4   -3.605173955444548E-1    3.427642732225265E-1
 1.000606430140000E+10  -4.972922722705045E-1    6.681942105573167E-2    4.750694506659896E-4    4.270488341748752E-4    4.386897607131669E-4    3.979381933763895E-4   -3.602890789969234E-1    3.431750161538057E-1
 1.000606815070000E+10  -4.972427347071787E-1    6.698980499786759E-2    5.074854893971765E-4    4.077810404810169E-4    4.145085043266722E-4    4.683931256070690E-4   -3.600835396210789E-1    3.433454930119597E-1
 1.000607200000000E+10  -4.971188659723967E-1    6.722191341008571E-2    4.601782116521775E-4    4.500078987268021E-4    4.786032360076089E-4    4.539588540555728E-4   -3.597276099673449E-1    3.436960644595617E-1
 1.000607584930000E+10  -4.970880676460526E-1    6.749864156345715E-2    5.243501948256212E-4    4.328816416108925E-4    4.782282869197980E-4    4.798144159031944E-4   -3.594393412265581E-1    3.439811288542451E-1
 1.000607969860000E+10  -4.971008868541108E-1    6.772388183272844E-2    5.043806478120372E-4    4.729212935585510E-4    4.728114783762494E-4    4.955157241583650E-4   -3.590654012220094E-1    3.442132011518315E-1
 1.000608354790000E+10  -4.971339066869984E-1    6.806854895058011E-2    5.413801474114076E-4    4.980667571964251E-4    5.057241105547550E-4    4.962986835141946E-4   -3.586626162554475E-1    3.446755197061557E-1
 1.000608739720000E+10  -4.970361524572671E-1    6.823793095296150E-2    5.034376142313988E-4    5.002659118172670E-4    5.272731760661508E-4    5.146170144786122E-4   -3.585040488458823E-1    3.448752405352637E-1
 1.000609124650000E+10  -4.970468326424093E-1    6.844616505443027E-2    5.710152464191720E-4    5.153883826799961E-4    4.876303235529583E-4    5.311226855364128E-4   -3.582225038008093E-1    3.452605647344421E-1
 1.000609509580000E+10  -4.969543946865415E-1    6.885596244141294E-2    5.764354574780637E-4    5.338583528703819E-4    5.208603772950921E-4    5.322558522091780E-4   -3.578901321272734E-1    3.455534607959309E-1
 1.000609894510000E+10  -4.969460392122327E-1    6.901914704375856E-2    5.689677340475314E-4    5.240545102811062E-4    5.426033268735670E-4    5.552446333302105E-4   -3.576050713433028E-1    3.456749400384909E-1
 1.000610279440000E+10  -4.969316752270256E-1    6.934013722462738E-2    5.869213225959136E-4    5.558770733989013E-4    5.378260122069142E-4    5.508006380652861E-4   -3.572471191721561E-1    3.460507984703846E-1
 1.000610664370000E+10  -4.969814668593812E-1    6.945833030506791E-2    6.192212419919769E-4    5.540575058036474E-4    5.807800540316683E-4    6.021052340063600E-4   -3.568878623407614E-1    3.462817325975687E-1
 1.000611049300000E+10  -4.969798060486958E-1    6.980525371317972E-2    6.046128333516309E-4    5.664220999580222E-4    5.857383541915715E-4    5.881778240314053E-4   -3.566054760937152E-1    3.466182478083147E-1
