#  HZ   S   RI   R     50.00 
! Rohde & Schwarz Vector Network Analyzer 
! Rohde-Schwarz,ZNB20-2Port,1311601062101988,3.16
! Created: UTC 3/20/2024, 11:41:17 AM
! freq[Hz]                re:S11                  im:S11                  re:S21                  im:S21                  re:S12                  im:S12                  re:S22                  im:S22
 1.000574495300000E+10  -4.990141339194087E-1    4.599874971044338E-2   -3.842039640999700E-6   -2.393783845366633E-4   -3.603476343885075E-5   -1.944590533958487E-4   -3.791607335776165E-1    3.220744301682503E-1
 1.000574889672500E+10  -4.990156032337636E-1    4.619402995731927E-2   -4.964301177126564E-7   -2.227474071516494E-4    9.248001705434678E-6   -2.374105800537071E-4   -3.791361816683945E-1    3.223511810717797E-1
 1.000575284045000E+10  -4.990063471749021E-1    4.640024075097862E-2   -2.352135690301004E-5   -2.235747467903091E-4   -3.582604552734014E-5   -2.198049543860340E-4   -3.788348799626485E-1    3.226003289410130E-1
 1.000575678417500E+10  -4.989484087204356E-1    4.663412200169121E-2   -1.120215895175905E-5   -2.424743266072858E-4   -1.649230150664247E-5   -2.137903276775699E-4   -3.786781734953564E-1    3.228201428163232E-1
 1.000576072790000E+10  -4.988661042061842E-1    4.698564200905689E-2   -2.731113748866902E-5   -2.373666077185106E-4    1.142988736656642E-5   -2.098679955773816E-4   -3.785253029250351E-1    3.229479141130417E-1
 1.000576467162500E+10  -4.989707088485948E-1    4.724499167051854E-2   -8.403099236738487E-6   -2.026272784706923E-4   -3.793152655250675E-6   -2.129848602246023E-4   -3.782073694613550E-1    3.232331397534944E-1
 1.000576861535000E+10  -4.988759468944304E-1    4.746922426237266E-2   -2.496189045088898E-5   -1.923611563048912E-4    3.840080208390281E-5   -2.003402576014574E-4   -3.780345466476675E-1    3.236526449260845E-1
 1.000577255907500E+10  -4.989845106060694E-1    4.782929641580100E-2   -1.211698906064357E-6   -1.814819980848655E-4   -2.717160829794700E-5   -2.054507922309491E-4   -3.778360087584373E-1    3.237612982154690E-1
 1.000577650280000E+10  -4.988076999666373E-1    4.796077754297871E-2    5.527138476548052E-7   -1.917379427498556E-4    1.914637023872959E-5   -1.950309564828004E-4   -3.775836314914750E-1    3.240099057089577E-1
 1.000578044652500E+10  -4.989380226670154E-1    4.823581459160921E-2   -2.551252336264832E-6   -1.940545637423836E-4    2.198696045566311E-5   -1.886054087137384E-4   -3.773034120263605E-1    3.245049006408574E-1
 1.000578439025000E+10  -4.988281072757612E-1    4.855601764427860E-2    1.560692274383283E-5   -1.628296669901334E-4    3.088087300154098E-5   -1.837439435598134E-4   -3.772590339212718E-1    3.245401799285448E-1
 1.000578833397500E+10  -4.989216560226838E-1    4.872463174895084E-2   -9.825550983077588E-6   -1.716244994962768E-4    2.216912067242193E-5   -1.658214245821637E-4   -3.770613421050243E-1    3.248358013708947E-1
 1.000579227770000E+10  -4.987615223843669E-1    4.912190829953753E-2    2.029646334819048E-6   -1.578171428486770E-4    1.092407990458997E-5   -1.760808980416636E-4   -3.767611333462402E-1    3.250727062238974E-1
 1.000579622142500E+10  -4.986867416562383E-1    4.924303150643931E-2    1.582727395178567E-5   -1.951469025081637E-4    3.074851412963359E-6   -1.941175320713643E-4   -3.766029409109908E-1    3.253830060492320E-1
 1.000580016515000E+10  -4.987352381780085E-1    4.952937830875551E-2    2.139436209624324E-6   -1.522816531064880E-4    6.504753169900514E-6   -1.525719895390858E-4   -3.763671688480734E-1    3.255137384303300E-1
 1.000580410887500E+10  -4.986198381972795E-1    4.991749830528025E-2    2.065823187164015E-5   -1.358811416366821E-4    5.264964417800714E-5   -1.720052789212280E-4   -3.763030373893202E-1    3.257954245277663E-1
 1.000580805260000E+10  -4.987260942780234E-1    4.999624874636036E-2   -1.467527126947332E-6   -1.428812835093278E-4    6.437547697376304E-5   -1.391508054258164E-4   -3.759914123495066E-1    3.259278025745994E-1
 1.000581199632500E+10  -4.986802130725289E-1    5.037526870478768E-2    4.406049215001820E-5   -1.558698370440404E-4    3.621713253852051E-5   -1.343318373197988E-4   -3.759046260949030E-1    3.264018680315891E-1
 1.000581594005000E+10  -4.987490907089031E-1    5.064207020270452E-2    4.135437550738832E-5   -1.278406896904276E-4    2.837845553780834E-5   -1.318168783856008E-4   -3.756552010388325E-1    3.264638914007222E-1
 1.000581988377500E+10  -4.986885184788617E-1    5.084191961255052E-2    3.234666473649731E-5   -9.314943009933521E-5    3.515349706409921E-5   -1.122976105426200E-4   -3.754527969636077E-1    3.267458391000631E-1
 1.000582382750000E+10  -4.985854406463495E-1    5.104158816090643E-2    3.808576079865706E-5   -1.415788473757804E-4    6.019889826723794E-5   -1.220066798152335E-4   -3.751529043883262E-1    3.270934481539313E-1
 1.000582777122500E+10  -4.985104865098918E-1    5.133109636714112E-2    7.120022977805415E-5   -1.049201357610833E-4    4.391969084500673E-5   -1.182294799001018E-4   -3.749948909992771E-1    3.273034438831159E-1
 1.000583171495000E+10  -4.986673193657111E-1    5.160689648207463E-2    1.660476517318581E-5   -1.085082868810523E-4    7.582819383113051E-5   -6.901463754062793E-5   -3.747101899136074E-1    3.274150496196287E-1
 1.000583565867500E+10  -4.987346295774887E-1    5.190318517739325E-2    6.299718502956064E-5   -9.321810089915248E-5    5.962877445817928E-5   -8.241569272101906E-5   -3.746215298387883E-1    3.277718998026903E-1
 1.000583960240000E+10  -4.986058227365552E-1    5.213276676308719E-2    4.390505228563584E-5   -9.106158220346510E-5    5.859905918842146E-5   -9.734972749831138E-5   -3.742826005260039E-1    3.279593217825073E-1
 1.000584354612500E+10  -4.986098307922008E-1    5.241260888515465E-2    8.872898822938521E-5   -9.593429079357159E-5    6.027431031615291E-5   -1.039110910964240E-4   -3.740907412387253E-1    3.282417812852771E-1
 1.000584748985000E+10  -4.985472129011299E-1    5.266285285208463E-2    8.242801496395022E-5   -9.804693789791511E-5    6.263685103453653E-5   -1.090462617522282E-4   -3.739287466034130E-1    3.284496647612109E-1
 1.000585143357500E+10  -4.985323061642339E-1    5.281486438214333E-2    6.470501936766523E-5   -9.115892299605841E-5    8.607724111088031E-5   -8.605678413445701E-5   -3.736982727511914E-1    3.288697583811933E-1
 1.000585537730000E+10  -4.984538874690266E-1    5.325513235528632E-2    6.308250279058844E-5   -8.137135229740082E-5    5.339322726735199E-5   -5.051390814203113E-5   -3.735080509645996E-1    3.289114319263211E-1
 1.000585932102500E+10  -4.984250311333255E-1    5.340224207013999E-2    9.081273575158430E-5   -6.595175038322838E-5    7.793806691496872E-5   -5.170962368281801E-5   -3.733576325625705E-1    3.292635503334522E-1
 1.000586326475000E+10  -4.984595163248577E-1    5.359237404086291E-2    1.006422882209379E-4   -4.658224795217973E-5    7.949465073978729E-5   -4.067836647284821E-5   -3.729771668787556E-1    3.294939675188546E-1
 1.000586720847500E+10  -4.982944259697715E-1    5.386109816497607E-2    6.163961829001852E-5   -2.134195206675320E-5    6.309406500988158E-5   -4.386441041249367E-5   -3.729356563513285E-1    3.296526653828011E-1
 1.000587115220000E+10  -4.984428643572131E-1    5.421255100590681E-2    8.523397523483805E-5   -4.794026145436366E-5    9.618401173905242E-5   -3.587707550865018E-5   -3.726391225551590E-1    3.300581449436434E-1
 1.000587509592500E+10  -4.983733484943136E-1    5.453136842713594E-2    9.409660303032378E-5   -3.737189103208335E-5    8.870649959255072E-5   -4.685262905668114E-5   -3.724364167601329E-1    3.303385665001900E-1
 1.000587903965000E+10  -4.985221936190525E-1    5.482874554671278E-2    9.811432950287419E-5   -3.219816096049476E-5    9.303582222881290E-5   -7.784017591166830E-6   -3.722662576139134E-1    3.305632853306329E-1
 1.000588298337500E+10  -4.982947707729367E-1    5.504701129637771E-2    1.146451906758530E-4   -2.954002002354980E-5    1.419693046941114E-4   -1.433265994655504E-5   -3.720381934837585E-1    3.309063759393094E-1
 1.000588692710000E+10  -4.983831457626934E-1    5.524411507629268E-2    9.762983332744172E-5   -4.085324783966604E-5    6.456736844969726E-5   -1.800151612762815E-5   -3.717764146441940E-1    3.311508059616331E-1
 1.000589087082500E+10  -4.984616495299605E-1    5.556660124257514E-2    1.564815889986438E-4   -9.159960488878816E-6    1.247801703253911E-4   -6.679444139370023E-6   -3.715214616246635E-1    3.312866563793298E-1
 1.000589481455000E+10  -4.982547437916650E-1    5.574971935198290E-2    1.113460482190054E-4    1.349032875732764E-5    1.011350400364516E-4   -3.502775516826400E-6   -3.714392058055389E-1    3.315712407594174E-1
 1.000589875827500E+10  -4.982676826975903E-1    5.602574618569377E-2    1.236499919659181E-4    1.050244934958410E-5    1.473995555052096E-4    1.668442442936840E-5   -3.711069557763881E-1    3.318372262944882E-1
 1.000590270200000E+10  -4.982431069506403E-1    5.621640891568085E-2    1.667844691663789E-4    7.487405009358973E-6    1.412131432433218E-4    4.683882605278768E-5   -3.707967511970257E-1    3.319918487139607E-1
 1.000590664572500E+10  -4.981782380890879E-1    5.647841841680969E-2    1.343136395950019E-4    2.185959310567434E-5    1.208466127531218E-4    6.078512955244051E-6   -3.706711311874094E-1    3.323215467907644E-1
 1.000591058945000E+10  -4.982687759377246E-1    5.676676666902718E-2    1.458668333641180E-4    1.060840874722121E-5    1.498789572221313E-4    4.888738306548634E-5   -3.704416148386069E-1    3.326168317083584E-1
 1.000591453317500E+10  -4.981321659906449E-1    5.692745806695967E-2    1.402766320824631E-4    3.425886950620818E-5    1.319534729674986E-4    5.392579935486291E-5   -3.700364914933760E-1    3.327917013672083E-1
 1.000591847690000E+10  -4.980631254565806E-1    5.726443556540246E-2    1.755393325643723E-4    4.901134474049953E-5    1.560072498700239E-4    3.278250778654969E-5   -3.699556871021624E-1    3.330458460791492E-1
 1.000592242062500E+10  -4.981202061587359E-1    5.764658666634702E-2    1.626528287877435E-4    4.419780414041102E-5    1.458121074219008E-4    8.066628247463659E-5   -3.697013720781506E-1    3.333894242398899E-1
 1.000592636435000E+10  -4.980843322921827E-1    5.784075784920986E-2    1.362194839060358E-4    7.283399113531306E-5    1.642380392708876E-4    6.480107940877623E-5   -3.694802178734715E-1    3.336495646899647E-1
 1.000593030807500E+10  -4.981292138404844E-1    5.792537275741497E-2    1.858866902859439E-4    7.448818516921473E-5    1.413076850422179E-4    8.649847325905518E-5   -3.692514781982484E-1    3.338851930103861E-1
 1.000593425180000E+10  -4.980711945877616E-1    5.834133571602447E-2    1.708333283350811E-4    7.209119190413361E-5    1.523906680792800E-4    9.196168343245259E-5   -3.689964293589396E-1    3.341651283959345E-1
 1.000593819552500E+10  -4.978586258184433E-1    5.860493726172092E-2    1.847479370144311E-4    1.024490739531897E-4    1.823274171191362E-4    4.696684428587338E-5   -3.687141929368926E-1    3.343867422273555E-1
 1.000594213925000E+10  -4.980621246846533E-1    5.864933782265329E-2    1.814658886372073E-4    7.436786236874610E-5    2.165128087896257E-4    7.015123529256412E-5   -3.684106899611909E-1    3.346793800100128E-1
 1.000594608297500E+10  -4.980834365906948E-1    5.911025560800543E-2    2.234268541839046E-4    9.336295504820102E-5    1.980220296228458E-4    1.146505156398640E-4   -3.681431849994345E-1    3.349125260358008E-1
 1.000595002670000E+10  -4.979572133205131E-1    5.929309126259401E-2    2.117414315332780E-4    9.024276442320211E-5    2.042053947470764E-4    1.020681027830850E-4   -3.680123556112841E-1    3.351491835251613E-1
 1.000595397042500E+10  -4.979799491721749E-1    5.956744956480681E-2    2.176665005798919E-4    1.400543830078451E-4    2.211245599302998E-4    1.328865447740614E-4   -3.677916242812623E-1    3.356288693097605E-1
 1.000595791415000E+10  -4.979235295795308E-1    5.992596368569841E-2    2.033645289743141E-4    9.448078440084529E-5    2.255609099780542E-4    1.316193468511530E-4   -3.676416965037574E-1    3.357210278864185E-1
 1.000596185787500E+10  -4.979444294141598E-1    6.013933737413262E-2    2.234360593528544E-4    1.244722553630361E-4    2.157743308079045E-4    1.632209521497847E-4   -3.673614999676761E-1    3.360618949412330E-1
 1.000596580160000E+10  -4.978709199548503E-1    6.034275425721303E-2    2.324356181297266E-4    1.446619485093233E-4    2.285292445801371E-4    1.591576321847585E-4   -3.669979867563027E-1    3.363046148378160E-1
 1.000596974532500E+10  -4.977774119306192E-1    6.068723552027130E-2    2.208785782065078E-4    1.450142109793918E-4    2.151169058312522E-4    1.804487167319189E-4   -3.666649385347682E-1    3.365323018868571E-1
 1.000597368905000E+10  -4.978026216284012E-1    6.086420893810091E-2    2.430221475103406E-4    1.765481084742611E-4    2.203823720155972E-4    1.680896474868687E-4   -3.665159145878645E-1    3.367880971522845E-1
 1.000597763277500E+10  -4.977996571694657E-1    6.109145338060888E-2    2.609473174724647E-4    1.699384900637126E-4    2.439452949956596E-4    1.758873713961319E-4   -3.664069355294652E-1    3.371088175136275E-1
 1.000598157650000E+10  -4.977807779655883E-1    6.119429877283598E-2    2.534274525481480E-4    1.680959518684707E-4    2.502609704276703E-4    1.669380306153413E-4   -3.660811173195562E-1    3.372665185855004E-1
 1.000598552022500E+10  -4.978668957681804E-1    6.164551952555061E-2    2.731922760357026E-4    1.952031053852930E-4    2.824081116336112E-4    2.094207524357227E-4   -3.657512575061785E-1    3.376284283039204E-1
 1.000598946395000E+10  -4.977399412172462E-1    6.183686355400604E-2    2.632378737037796E-4    2.370427988105757E-4    2.641506948749765E-4    2.045383409690759E-4   -3.654475159495616E-1    3.379110382520214E-1
 1.000599340767500E+10  -4.977618570500958E-1    6.198605740687798E-2    2.728558602421532E-4    2.147107633214818E-4    2.883159524832952E-4    2.386779856744784E-4   -3.652328029241753E-1    3.381808829282310E-1
 1.000599735140000E+10  -4.977673322558404E-1    6.242551385872683E-2    2.796772334958894E-4    2.299580491617480E-4    2.975290984860685E-4    2.173255982984151E-4   -3.649427359898858E-1    3.384801054596662E-1
 1.000600129512500E+10  -4.976837435725336E-1    6.263482523262091E-2    3.185903319196832E-4    2.229788411815413E-4    2.730042191632298E-4    2.309844340121979E-4   -3.647607064563012E-1    3.386823230035319E-1
 1.000600523885000E+10  -4.977209775911627E-1    6.284809617164544E-2    3.239468856645921E-4    2.173534579188649E-4    3.011596073302953E-4    2.518495434644069E-4   -3.643771651188783E-1    3.389724104874590E-1
 1.000600918257500E+10  -4.976485488258991E-1    6.322289391654708E-2    3.329589942808772E-4    2.321760384923869E-4    2.988610776000632E-4    2.535171090783672E-4   -3.643218737818614E-1    3.392876139004394E-1
 1.000601312630000E+10  -4.975511815333591E-1    6.344705851751702E-2    3.308306095338110E-4    2.538279012792823E-4    3.039937616056248E-4    2.838434622401369E-4   -3.638414598279635E-1    3.396169142210597E-1
 1.000601707002500E+10  -4.974886405469570E-1    6.357067198187775E-2    3.378425617039499E-4    2.735176472825886E-4    3.233544965874371E-4    2.637079345276092E-4   -3.636480219106555E-1    3.398528933561348E-1
 1.000602101375000E+10  -4.974247099316185E-1    6.398774178827635E-2    3.545386226825323E-4    2.686199168452097E-4    3.327140840546557E-4    2.871775704948867E-4   -3.633969545270690E-1    3.400349887540757E-1
 1.000602495747500E+10  -4.975220879044530E-1    6.431153759978411E-2    3.520339189507472E-4    3.131370730810007E-4    3.242899952793404E-4    3.186137177376240E-4   -3.630447743848303E-1    3.403849454534911E-1
 1.000602890120000E+10  -4.973989988195722E-1    6.447656450742914E-2    3.760276467612142E-4    3.104786384440889E-4    3.377069455384542E-4    3.016558622412096E-4   -3.628295462060097E-1    3.406417950266146E-1
 1.000603284492500E+10  -4.975417157754634E-1    6.470743163527883E-2    3.930502381762437E-4    3.166109509805985E-4    3.743707876776818E-4    3.397545976486960E-4   -3.625081888468953E-1    3.408636488602939E-1
 1.000603678865000E+10  -4.972956752059952E-1    6.498011571133382E-2    3.886333466598580E-4    3.408169523211604E-4    3.516517457374715E-4    3.470837639741192E-4   -3.623609474211572E-1    3.411893139367272E-1
 1.000604073237500E+10  -4.973814784935672E-1    6.519769267690084E-2    3.799221148409232E-4    3.441576278789951E-4    3.695682359592227E-4    3.582252223768916E-4   -3.618895976603936E-1    3.415156505405821E-1
 1.000604467610000E+10  -4.973088837008738E-1    6.544329989287243E-2    4.167773899074390E-4    3.491328827634292E-4    3.628334520025547E-4    3.779909700662920E-4   -3.616351641777015E-1    3.417160292832884E-1
 1.000604861982500E+10  -4.974097443706433E-1    6.571301494064646E-2    4.302935566022031E-4    3.531693464013200E-4    3.759982263712944E-4    3.715567918017788E-4   -3.614319015594836E-1    3.419493201107037E-1
 1.000605256355000E+10  -4.972483590580092E-1    6.591922925644418E-2    4.378948976615274E-4    3.900811719765215E-4    4.166776481413073E-4    3.646123854088417E-4   -3.611726987081223E-1    3.422928793645542E-1
 1.000605650727500E+10  -4.971990959551220E-1    6.625597206169470E-2    4.394791294486440E-4    3.784635675568693E-4    4.165273505818268E-4    3.917610991672442E-4   -3.608589900078726E-1    3.425167217430229E-1
 1.000606045100000E+10  -4.972389156931377E-1    6.646101394338803E-2    4.581021584652657E-4    3.936627652692991E-4    4.342627813668555E-4    3.972721288272542E-4   -3.605259383362391E-1    3.428172498049449E-1
 1.000606439472500E+10  -4.972813719925795E-1    6.676239560878272E-2    4.608929759963237E-4    4.016695471753051E-4    3.958133323513316E-4    4.342610366460873E-4   -3.602531302321870E-1    3.432024290650393E-1
 1.000606833845000E+10  -4.971374230801572E-1    6.693125840558918E-2    4.849489321227117E-4    4.310531823364671E-4    4.656995076693250E-4    4.043446041306355E-4   -3.599306538071548E-1    3.435025686881432E-1
 1.000607228217500E+10  -4.971220838302441E-1    6.727044174569966E-2    5.023147818627276E-4    4.729899752462872E-4    4.877069538166905E-4    4.649650097359624E-4   -3.595727566271534E-1    3.438334625652210E-1
 1.000607622590000E+10  -4.971559325105598E-1    6.753603752625152E-2    4.683999631000113E-4    4.341462006136008E-4    4.549916654401845E-4    4.977436754696555E-4   -3.593619870804498E-1    3.440220919403024E-1
 1.000608016962500E+10  -4.971168503225072E-1    6.763756190801781E-2    4.987789671764784E-4    4.705099972884915E-4    4.768464526738772E-4    4.750614631590884E-4   -3.591127736785528E-1    3.444854126823417E-1
 1.000608411335000E+10  -4.971195076920066E-1    6.806296077713582E-2    5.270459610974136E-4    4.855473136019705E-4    4.869940565596874E-4    5.115667197553637E-4   -3.587437222603037E-1    3.446800783287723E-1
 1.000608805707500E+10  -4.971026280270198E-1    6.828055589187425E-2    5.433035638040681E-4    4.950425121154055E-4    5.057807660751273E-4    5.193166418768821E-4   -3.583871193902827E-1    3.448558666214636E-1
 1.000609200080000E+10  -4.970607676899038E-1    6.847875202286588E-2    5.379635674450665E-4    5.075158264016390E-4    5.168558280186922E-4    5.506826648755682E-4   -3.578950441096026E-1    3.452764381288822E-1
 1.000609594452500E+10  -4.969631036944726E-1    6.879539552004539E-2    5.646418734798228E-4    5.455068677915130E-4    5.260586190825797E-4    5.410243317526552E-4   -3.577184238292330E-1    3.454443989583043E-1
 1.000609988825000E+10  -4.969798175420214E-1    6.921280454216319E-2    5.676142996757821E-4    5.389865118823235E-4    5.374939891197473E-4    5.385418660652875E-4   -3.572571602194763E-1    3.458485916575295E-1
