#  HZ   S   RI   R     50.00 
! Rohde & Schwarz Vector Network Analyzer 
! Rohde-Schwarz,ZNB20-2Port,1311601062101988,3.16
! Created: UTC 3/20/2024, 11:42:07 AM
! freq[Hz]                re:S11                  im:S11                  re:S21                  im:S21                  re:S12                  im:S12                  re:S22                  im:S22
 1.000563765700000E+10  -4.993654830636388E-1    3.910686959858056E-2   -4.471427986637380E-5   -3.136745930713472E-4   -4.002398109558604E-5   -3.372325031518353E-4   -3.841233057617526E-1    3.156505529347021E-1
 1.000564203642500E+10  -4.994128052490505E-1    3.924317908964425E-2   -4.862978358189462E-5   -3.536304385518408E-4   -4.356124121298582E-5   -3.333322492742647E-4   -3.838428350610181E-1    3.159040549998087E-1
 1.000564641585000E+10  -4.994725248498231E-1    3.952892236052949E-2   -7.598405762541016E-5   -3.010197079392087E-4   -4.896448022753939E-5   -3.365592332171193E-4   -3.836700547887856E-1    3.161772090954685E-1
 1.000565079527500E+10  -4.993609141233225E-1    3.992118554785706E-2   -5.433353766728288E-5   -3.111003551405643E-4   -3.151028622456669E-5   -3.250045862872399E-4   -3.835056494596934E-1    3.163489369531090E-1
 1.000565517470000E+10  -4.994579018286041E-1    4.019499887726286E-2   -7.473000796459720E-5   -3.078350595403664E-4   -6.063049728107115E-5   -3.176764618933648E-4   -3.832604955748628E-1    3.167355543802691E-1
 1.000565955412500E+10  -4.993280296782178E-1    4.062836187820718E-2   -3.976800432825552E-5   -3.032809027772306E-4   -3.564146626185092E-5   -3.163729981420007E-4   -3.830366603888308E-1    3.169853626033057E-1
 1.000566393355000E+10  -4.992645060760775E-1    4.081023554933697E-2   -6.118282988470334E-5   -3.342102283028312E-4   -5.503808967968655E-5   -3.174311499984907E-4   -3.827489660649521E-1    3.172725166430702E-1
 1.000566831297500E+10  -4.992726525092077E-1    4.091048760208292E-2   -6.567606394829948E-5   -3.143064891530071E-4   -5.597736608973059E-5   -2.969158376357993E-4   -3.826122548266857E-1    3.175400635757010E-1
 1.000567269240000E+10  -4.993910551264322E-1    4.138986947383883E-2   -7.326262953543954E-5   -2.991904244536651E-4   -7.712744355101182E-5   -3.017494742311288E-4   -3.824221289060349E-1    3.177282714795624E-1
 1.000567707182500E+10  -4.992850090650219E-1    4.151482392374538E-2   -6.236069120701855E-5   -2.744196928547504E-4   -6.533473597369252E-5   -3.022650476432038E-4   -3.821376432987104E-1    3.179470379389331E-1
 1.000568145125000E+10  -4.991522385071885E-1    4.185971056816619E-2   -3.041675708872424E-5   -3.195774220629749E-4   -3.732163945691891E-5   -2.802894035609433E-4   -3.818386853229032E-1    3.184462433641919E-1
 1.000568583067500E+10  -4.991628033974597E-1    4.219743498170522E-2   -4.650222151179598E-5   -2.932734674564975E-4   -3.616778649380987E-5   -2.655565228524957E-4   -3.817449062526305E-1    3.184955188242083E-1
 1.000569021010000E+10  -4.992094809012879E-1    4.245786086282081E-2   -5.252884201650313E-5   -2.948345591374112E-4   -3.654592100034282E-5   -2.938905798953090E-4   -3.816083293740850E-1    3.188760461159129E-1
 1.000569458952500E+10  -4.991963404822870E-1    4.270552011160104E-2   -5.057875152319934E-5   -2.446576225700685E-4   -2.917120655416328E-5   -2.871197763997851E-4   -3.813612020443828E-1    3.191279341560286E-1
 1.000569896895000E+10  -4.991672565043818E-1    4.309641314947027E-2   -3.848286255412193E-5   -2.667904131272781E-4   -1.795264325434504E-6   -2.355506417356398E-4   -3.811281625646287E-1    3.194775581351408E-1
 1.000570334837500E+10  -4.990929008844798E-1    4.321993693212989E-2   -3.073175195289467E-5   -2.633932814332376E-4   -2.165259154948655E-5   -2.609496318693183E-4   -3.808649510773304E-1    3.196664791234937E-1
 1.000570772780000E+10  -4.992167941006299E-1    4.373402200331539E-2   -3.756314190692343E-5   -2.632369845920790E-4   -1.413728701123132E-5   -2.478056770766873E-4   -3.806885170995411E-1    3.198965293592731E-1
 1.000571210722500E+10  -4.990361711079802E-1    4.395624891777501E-2   -7.295000700660798E-5   -2.603711927765600E-4   -2.153986179821426E-6   -2.265100246507550E-4   -3.803513901811404E-1    3.202232080288363E-1
 1.000571648665000E+10  -4.991084795039957E-1    4.416388207997868E-2   -6.264972701180192E-6   -2.250009983441276E-4   -5.479226955041937E-5   -2.531191916923394E-4   -3.802380060499855E-1    3.204391665025336E-1
 1.000572086607500E+10  -4.990780592164537E-1    4.447716501164374E-2   -1.587713573306184E-5   -2.524873626973893E-4    2.911151322238768E-6   -2.289142178168701E-4   -3.800344478285993E-1    3.206428980550454E-1
 1.000572524550000E+10  -4.989450934002789E-1    4.482974404907726E-2   -8.717701635420655E-6   -2.057588900499439E-4   -9.353543399541503E-6   -2.318431506326771E-4   -3.798766023991285E-1    3.209681827079951E-1
 1.000572962492500E+10  -4.991258828460118E-1    4.509896293430300E-2   -3.889987030595738E-5   -2.522333798535392E-4   -1.864946853539637E-5   -2.488769643458556E-4   -3.796773015113586E-1    3.212913271319288E-1
 1.000573400435000E+10  -4.989476059106074E-1    4.535322657444982E-2   -3.084605944271083E-5   -2.178970691230262E-4   -3.179648084878213E-5   -2.449244983128833E-4   -3.794978662690631E-1    3.215553456477301E-1
 1.000573838377500E+10  -4.990846769831144E-1    4.557162829833093E-2   -2.801917764894498E-5   -2.091291180940771E-4    1.057866270551219E-5   -2.254980138649993E-4   -3.793372755519692E-1    3.219197870814997E-1
 1.000574276320000E+10  -4.989798202033884E-1    4.596291731521015E-2    1.302656656080344E-5   -2.338059622013582E-4   -6.705075721186245E-6   -1.945752059869412E-4   -3.788987050431519E-1    3.221189549418934E-1
 1.000574714262500E+10  -4.988758846201772E-1    4.620070500213656E-2    3.876382088382074E-5   -2.279117572780784E-4    1.450652794866686E-6   -2.015739567853529E-4   -3.786832799153861E-1    3.223111259069728E-1
 1.000575152205000E+10  -4.988647073398369E-1    4.648785300117020E-2   -1.375666808098586E-5   -2.107440102034808E-4    9.978584482068567E-6   -2.078885845972643E-4   -3.785151678519681E-1    3.226326441409239E-1
 1.000575590147500E+10  -4.988602081610133E-1    4.674234833868950E-2    1.076327351051064E-5   -1.992619938218502E-4   -1.095878127077136E-6   -1.586826340431145E-4   -3.782967295836867E-1    3.228346915265635E-1
 1.000576028090000E+10  -4.989858961970955E-1    4.707380491214562E-2    3.349220981600408E-5   -1.751847022913427E-4    1.340061933996004E-5   -2.054179779314958E-4   -3.780985427242136E-1    3.232426811923917E-1
 1.000576466032500E+10  -4.989501519083902E-1    4.734936388830900E-2    1.917752920542625E-5   -1.718407309570359E-4    3.597638580874690E-5   -1.643526611175170E-4   -3.779237240248186E-1    3.235798003641066E-1
 1.000576903975000E+10  -4.988264779488627E-1    4.756391820367323E-2    2.976720108338926E-5   -1.600787132733796E-4    2.650712709447445E-5   -1.796275502779251E-4   -3.778296832675735E-1    3.237455175837955E-1
 1.000577341917500E+10  -4.988456296372651E-1    4.785123763527191E-2    2.343770203214055E-5   -1.922378964084813E-4    3.891981467759122E-5   -1.764372989909232E-4   -3.774313610887001E-1    3.241009566315279E-1
 1.000577779860000E+10  -4.989134851890419E-1    4.812495803630687E-2    2.568253027043207E-6   -1.556287818251520E-4    4.490688932876843E-5   -1.798067122849955E-4   -3.772710366594046E-1    3.242612947926360E-1
 1.000578217802500E+10  -4.986310603413427E-1    4.840468202527377E-2   -1.189545768938540E-6   -1.444871950541804E-4    5.846174305593619E-5   -1.428473763483096E-4   -3.770951291120526E-1    3.244626637038725E-1
 1.000578655745000E+10  -4.988556481833686E-1    4.876600185397264E-2    4.851183880044999E-5   -1.450302502342290E-4    2.362755392714479E-5   -1.492228426116869E-4   -3.768049629158294E-1    3.249056069325973E-1
 1.000579093687500E+10  -4.988441634773500E-1    4.899601970278374E-2    5.541895373765300E-5   -1.384859863820953E-4    4.030803215787885E-5   -1.445507655367534E-4   -3.764999420850445E-1    3.250473728335765E-1
 1.000579531630000E+10  -4.988476463629002E-1    4.932828129217366E-2    6.204707772827436E-5   -1.033242496934582E-4    2.801376242820333E-5   -1.471124033608606E-4   -3.763732237412614E-1    3.253227446568602E-1
 1.000579969572500E+10  -4.987579431670560E-1    4.966625603382883E-2    5.046313462390109E-5   -1.103026950805302E-4    5.240598149205247E-5   -1.427375897718147E-4   -3.760397974552447E-1    3.257829415795024E-1
 1.000580407515000E+10  -4.986732246726339E-1    4.994815477401848E-2    5.230672154321782E-5   -1.065768714941078E-4    6.591050684151610E-5   -1.117167956574295E-4   -3.758770701397953E-1    3.259642495818330E-1
 1.000580845457500E+10  -4.985946794742586E-1    5.018568029007357E-2    5.836752761563244E-5   -1.167502379243563E-4    6.375262698801192E-5   -9.911471983313600E-5   -3.755705898547783E-1    3.262251948748726E-1
 1.000581283400000E+10  -4.986814809781191E-1    5.048945432843504E-2    4.567928030840158E-5   -1.324259775630720E-4    6.448976590802878E-5   -1.130474700929760E-4   -3.754444446124920E-1    3.263472731117369E-1
 1.000581721342500E+10  -4.986150533639694E-1    5.074423829010483E-2    8.346219397403362E-5   -9.754499899921319E-5    7.361125341828872E-5   -1.136087898800913E-4   -3.751723319159675E-1    3.268059785626921E-1
 1.000582159285000E+10  -4.987234773108977E-1    5.110121229829914E-2    7.638312512487268E-5   -9.452940696897861E-5    7.578920039764837E-5   -9.705559803255312E-5   -3.748309041541028E-1    3.270471960052691E-1
 1.000582597227500E+10  -4.986848883642709E-1    5.120999967653698E-2    6.036964757046459E-5   -7.892233654450114E-5    9.793316948019999E-5   -6.770240027079578E-5   -3.746868059205388E-1    3.273404465983453E-1
 1.000583035170000E+10  -4.985653345284039E-1    5.173687235131909E-2    9.651552570854083E-5   -9.238198751245464E-5    9.388682046049295E-5   -6.211802620548882E-5   -3.744254460188049E-1    3.274609887536078E-1
 1.000583473112500E+10  -4.985065625498749E-1    5.190233372433849E-2    1.160249894816171E-4   -7.743012938990510E-5    7.991891573567978E-5   -7.640697273678160E-5   -3.740229885108290E-1    3.278877495014890E-1
 1.000583911055000E+10  -4.984369370340758E-1    5.215020073625360E-2    6.660050174577216E-5   -4.364495119514994E-5    9.884806799821321E-5   -9.160609432229060E-5   -3.739637322095781E-1    3.281535749612511E-1
 1.000584348997500E+10  -4.985572569648053E-1    5.249211508337989E-2    7.646665410457603E-5   -5.189675276611952E-5    7.449987888258922E-5   -7.280339360294019E-5   -3.736567620360833E-1    3.286056499270412E-1
 1.000584786940000E+10  -4.985197194502323E-1    5.287089865932557E-2    1.051395046576322E-4   -4.268563570857609E-5    9.467626700428760E-5   -4.804907782241507E-5   -3.735470252195847E-1    3.287264045469927E-1
 1.000585224882500E+10  -4.983927181434085E-1    5.311364182135524E-2    1.325556464322179E-4   -4.119619973942190E-5    1.118254925582632E-4   -6.422421869856471E-5   -3.733057227017351E-1    3.290128630299890E-1
 1.000585662825000E+10  -4.984356295784406E-1    5.326643344805911E-2    1.167357881957839E-4   -3.679784557878704E-5    1.143352766439735E-4   -5.115711143489515E-5   -3.730039947490495E-1    3.292433313517757E-1
 1.000586100767500E+10  -4.984154817216717E-1    5.362813822761447E-2    1.283338590019118E-4   -3.553728967067798E-5    1.148141346730288E-4   -2.978446220462885E-5   -3.728988101944548E-1    3.293898186843996E-1
 1.000586538710000E+10  -4.984930372837413E-1    5.390354786481213E-2    1.223270248986232E-4    2.500552192209877E-6    1.297822661769113E-4   -1.574224518000003E-5   -3.724898053907035E-1    3.298621006573538E-1
 1.000586976652500E+10  -4.984732919631353E-1    5.422323640908046E-2    1.387522645092028E-4   -9.718613251740165E-6    1.549539011129711E-4   -1.642053297525571E-5   -3.723821274698273E-1    3.301484717856737E-1
 1.000587414595000E+10  -4.984128669253047E-1    5.444256888253986E-2    1.383833021317183E-4    5.566697584374134E-7    1.423793944337912E-4    1.131036489980172E-6   -3.720344714252932E-1    3.304663450326731E-1
 1.000587852537500E+10  -4.984274771390039E-1    5.481812255910725E-2    1.296623828280305E-4   -1.346082312665702E-5    1.511913313167499E-4   -2.236356382920678E-6   -3.716215286616715E-1    3.306532132446334E-1
 1.000588290480000E+10  -4.983594816561596E-1    5.494913453419894E-2    1.741364350524754E-4    1.958733981767845E-5    1.861782127635354E-4   -9.544944947736776E-7   -3.714278920306069E-1    3.308808283691765E-1
 1.000588728422500E+10  -4.981875443102842E-1    5.526855050766177E-2    1.459693661096471E-4    3.384682485981538E-5    1.728483291281322E-4    3.932213582761326E-5   -3.711975817598235E-1    3.312631442117908E-1
 1.000589166365000E+10  -4.983189529500477E-1    5.562343827214260E-2    1.903031602099787E-4    3.591111377145608E-5    1.856695626196221E-4    4.137033203319428E-5   -3.708755139525294E-1    3.315084615325817E-1
 1.000589604307500E+10  -4.982048157877874E-1    5.582284205702960E-2    1.569240746373018E-4    6.557725789661736E-5    1.581957924927016E-4    4.166871661185478E-5   -3.707400694402831E-1    3.318559538690177E-1
 1.000590042250000E+10  -4.982002336180554E-1    5.612036711851821E-2    2.058306095202473E-4    2.329080833761953E-5    1.759730053361336E-4    7.362635050283698E-5   -3.704716741740343E-1    3.320465965407024E-1
 1.000590480192500E+10  -4.982240625784634E-1    5.641915310191757E-2    1.886658778360838E-4    7.113520769047739E-5    1.825103546202814E-4    5.781644508285195E-5   -3.702876432155582E-1    3.324513244644365E-1
 1.000590918135000E+10  -4.982064741662891E-1    5.664545399850560E-2    1.988294070725505E-4    6.442454679347295E-5    2.206183359177983E-4    6.904867123219349E-5   -3.699391101423690E-1    3.326945090076677E-1
 1.000591356077500E+10  -4.981428549628318E-1    5.712618599005143E-2    2.113460483046398E-4    6.150993713769177E-5    2.081001244423806E-4    7.086983069459197E-5   -3.695698160684429E-1    3.329220380643093E-1
 1.000591794020000E+10  -4.982145680064445E-1    5.730609017408044E-2    2.062913665439454E-4    5.253601255527937E-5    2.080014127223170E-4    7.903577614502607E-5   -3.693018862777165E-1    3.332152946645248E-1
 1.000592231962500E+10  -4.980340458965453E-1    5.753358794329791E-2    2.455928222653575E-4    8.696268286689348E-5    2.455399170210139E-4    9.298255913578848E-5   -3.690886459668895E-1    3.335245362541582E-1
 1.000592669905000E+10  -4.981217727579437E-1    5.784915248322993E-2    2.204689047664440E-4    9.568298019294143E-5    2.121767533184850E-4    1.026139492778032E-4   -3.690003412503368E-1    3.339000780973539E-1
 1.000593107847500E+10  -4.980338746506948E-1    5.803061230286426E-2    2.189446478519792E-4    8.824136240732156E-5    2.535363470502282E-4    1.209348727820061E-4   -3.687648903265292E-1    3.342054061904027E-1
 1.000593545790000E+10  -4.981084435975383E-1    5.840777603796918E-2    2.678915739150884E-4    1.512619802960587E-4    2.419543002096518E-4    1.365773692117575E-4   -3.682135830463388E-1    3.344920342009134E-1
 1.000593983732500E+10  -4.980058368822336E-1    5.875345158676122E-2    2.561271362888841E-4    1.342294876355131E-4    2.490884322100446E-4    1.318995998035979E-4   -3.680308552656097E-1    3.347016106865948E-1
 1.000594421675000E+10  -4.980353186560674E-1    5.908528133907094E-2    2.535085774564469E-4    1.328695782041506E-4    2.364111639704465E-4    1.532237081749113E-4   -3.678123027075030E-1    3.350140480539769E-1
 1.000594859617500E+10  -4.979311716629105E-1    5.925274136672683E-2    2.626999522354139E-4    1.783775746959785E-4    2.208802002384637E-4    1.545445790743036E-4   -3.674860288955487E-1    3.353361093491185E-1
 1.000595297560000E+10  -4.980349536619758E-1    5.960253214309603E-2    2.623775298187849E-4    1.395697308441871E-4    2.523152879451921E-4    1.650245396174034E-4   -3.671966143931142E-1    3.356243927494418E-1
 1.000595735502500E+10  -4.980036008094731E-1    5.977265080922551E-2    2.915312340716135E-4    1.739503386610552E-4    2.953495650445894E-4    2.083309506752410E-4   -3.669296677583871E-1    3.359115003876523E-1
 1.000596173445000E+10  -4.979125556592703E-1    6.018817260817024E-2    2.967750976090215E-4    1.702160065397016E-4    2.934364195213436E-4    1.592692357816197E-4   -3.666090301882823E-1    3.362122521213672E-1
 1.000596611387500E+10  -4.979915173576379E-1    6.039367272879703E-2    3.262714083638141E-4    1.798448083496714E-4    2.830330628770155E-4    2.055104706974917E-4   -3.664241766450524E-1    3.365932859992495E-1
 1.000597049330000E+10  -4.978547649488887E-1    6.073415147635064E-2    3.093921258984034E-4    2.011849345670285E-4    2.838207126281746E-4    1.973516025152737E-4   -3.659464044284147E-1    3.367310458209854E-1
 1.000597487272500E+10  -4.978595241637524E-1    6.093336841139179E-2    2.982265885267419E-4    2.141957160767531E-4    3.251178080848713E-4    2.308829466304144E-4   -3.657656765586583E-1    3.371125251874402E-1
 1.000597925215000E+10  -4.976486176692352E-1    6.125508302540866E-2    3.295270269070791E-4    2.417743345327447E-4    3.116032935815432E-4    2.410036115890426E-4   -3.654643458575991E-1    3.374363856083864E-1
 1.000598363157500E+10  -4.977235560149554E-1    6.168401211845136E-2    3.370704929557261E-4    2.405594151239322E-4    3.000756936167588E-4    2.292464898531750E-4   -3.653400266884483E-1    3.377348473782392E-1
 1.000598801100000E+10  -4.977564332944068E-1    6.182742991509350E-2    3.310327851060759E-4    2.332582139272854E-4    3.360772486675531E-4    2.754353585867210E-4   -3.648934787341764E-1    3.380889276815145E-1
 1.000599239042500E+10  -4.976691483234447E-1    6.220673178716665E-2    3.625317503170247E-4    2.707185786513275E-4    3.019736706407983E-4    2.757563469695942E-4   -3.647776596625845E-1    3.382517138505893E-1
 1.000599676985000E+10  -4.977148475477376E-1    6.240697104455048E-2    3.975066830008596E-4    3.028188467578137E-4    3.610789412118597E-4    2.867929038730921E-4   -3.643996366373394E-1    3.385154464078443E-1
 1.000600114927500E+10  -4.975610352213931E-1    6.272273137315669E-2    3.640532117818287E-4    3.055090823604134E-4    3.533746956875352E-4    2.931602865927833E-4   -3.640425659615600E-1    3.388928189918455E-1
 1.000600552870000E+10  -4.976152676000632E-1    6.311116707494360E-2    3.861361943527199E-4    2.974195288388728E-4    3.588123949283685E-4    2.847226373303452E-4   -3.637235995962518E-1    3.393915397781561E-1
 1.000600990812500E+10  -4.975469277764105E-1    6.329084858174655E-2    4.042131193395218E-4    2.999769251404389E-4    3.677174896893544E-4    3.004810784364520E-4   -3.634139303258637E-1    3.394767590659705E-1
 1.000601428755000E+10  -4.976587868955206E-1    6.355077824998119E-2    4.257633305093086E-4    3.010848593899699E-4    3.823957439913360E-4    3.235251658356924E-4   -3.630526638567138E-1    3.399040785853853E-1
 1.000601866697500E+10  -4.975938711908419E-1    6.386250142413159E-2    4.172246713376701E-4    3.316860373639037E-4    3.851592448054064E-4    3.472175736695279E-4   -3.627169653100424E-1    3.401478308108407E-1
 1.000602304640000E+10  -4.974985389489092E-1    6.411811583812256E-2    4.147984408357049E-4    3.566516767691351E-4    4.326857190393538E-4    3.519195290330104E-4   -3.625233195322924E-1    3.406160307366170E-1
 1.000602742582500E+10  -4.974257899641770E-1    6.443905481118620E-2    4.389363830337526E-4    3.721945249889390E-4    3.959440963285449E-4    3.808743486935671E-4   -3.621321375323657E-1    3.408214821597795E-1
 1.000603180525000E+10  -4.974355335279346E-1    6.464020037543594E-2    4.585212438804967E-4    3.782399427389205E-4    4.291613166594532E-4    3.780857209627770E-4   -3.617616360814908E-1    3.410387436136056E-1
