#  HZ   S   RI   R     50.00 
! Rohde & Schwarz Vector Network Analyzer 
! Rohde-Schwarz,ZNB20-2Port,1311601062101988,3.16
! Created: UTC 3/20/2024, 11:42:47 AM
! freq[Hz]                re:S11                  im:S11                  re:S21                  im:S21                  re:S12                  im:S12                  re:S22                  im:S22
 1.000556251500000E+10  -4.995636400872552E-1    3.406631591516713E-2   -1.055820227021063E-4   -4.180634839509343E-4   -6.609987041417301E-5   -3.975511870495407E-4   -3.873410249966829E-1    3.112032208396437E-1
 1.000556718965000E+10  -4.995919165216027E-1    3.432046022330883E-2   -8.414209295894711E-5   -4.000156924606557E-4   -9.316508413090338E-5   -3.840028992511500E-4   -3.871136456486191E-1    3.115024113104000E-1
 1.000557186430000E+10  -4.997033359396370E-1    3.478572666387418E-2   -7.588415788989092E-5   -3.816811468686092E-4   -8.095372603113877E-5   -4.000447335469362E-4   -3.870131066219950E-1    3.115734177838748E-1
 1.000557653895000E+10  -4.995441012147510E-1    3.517728967624593E-2   -8.929769560137011E-5   -4.004595266211883E-4   -8.877840104564135E-5   -4.195543860964763E-4   -3.867414248851809E-1    3.120444233949301E-1
 1.000558121360000E+10  -4.995053908366655E-1    3.537239303657495E-2   -7.979580307074389E-5   -3.967543254031927E-4   -8.949056086553846E-5   -3.974963439253082E-4   -3.864532923559754E-1    3.123682879680347E-1
 1.000558588825000E+10  -4.996082507714292E-1    3.563019985300745E-2   -8.525503691690752E-5   -3.442097652512772E-4   -5.290487746260263E-5   -3.987230828851440E-4   -3.863187921683221E-1    3.126555475892697E-1
 1.000559056290000E+10  -4.995608682065268E-1    3.593440635525395E-2   -9.605574467473422E-5   -3.440439791065618E-4   -4.232335365027754E-5   -3.901964708297171E-4   -3.859830587398518E-1    3.129177421108370E-1
 1.000559523755000E+10  -4.996323008315239E-1    3.629945822984588E-2   -6.488849177930793E-5   -3.577352364513849E-4   -7.077713387973919E-5   -3.778225765750792E-4   -3.858957242637598E-1    3.131416641925656E-1
 1.000559991220000E+10  -4.994950843667350E-1    3.663154111270310E-2   -6.635895285713823E-5   -3.724407079853171E-4   -6.219261742409916E-5   -3.732567820513870E-4   -3.856207733647529E-1    3.135169049716895E-1
 1.000560458685000E+10  -4.994496637765674E-1    3.666296230794987E-2   -6.586962581734679E-5   -3.414689504915030E-4   -5.573470643337686E-5   -3.633405006071578E-4   -3.855004138517149E-1    3.137024051653521E-1
 1.000560926150000E+10  -4.995584217912794E-1    3.714732500264479E-2   -7.672405684932080E-5   -3.492384356402377E-4   -5.134144338970339E-5   -3.120957633824502E-4   -3.852488342179921E-1    3.139865545685562E-1
 1.000561393615000E+10  -4.994887303789167E-1    3.734700248757061E-2   -3.616339119763782E-5   -3.560120236860502E-4   -5.270311028692641E-5   -3.703566120194983E-4   -3.851537419419077E-1    3.142633989737948E-1
 1.000561861080000E+10  -4.994560323123121E-1    3.769335167082234E-2   -4.790578589699011E-5   -3.210281067454426E-4   -3.262687503381163E-5   -3.460153524129460E-4   -3.847874096197321E-1    3.145378873519449E-1
 1.000562328545000E+10  -4.994536201716546E-1    3.790759488489336E-2   -7.325298944454295E-5   -3.494523014636721E-4   -5.299122650906952E-5   -3.327537205305193E-4   -3.845863603950369E-1    3.148858565738390E-1
 1.000562796010000E+10  -4.995192560744279E-1    3.833065481039292E-2   -6.661031856871401E-5   -3.424200631176696E-4   -3.836720715250081E-5   -3.219932704063506E-4   -3.842851418227528E-1    3.150596109146554E-1
 1.000563263475000E+10  -4.994690447598238E-1    3.867190720515278E-2   -8.892143605199475E-5   -3.213995598070877E-4   -3.156722650992988E-5   -3.285622913583423E-4   -3.841417472522335E-1    3.153359090785114E-1
 1.000563730940000E+10  -4.993479986373768E-1    3.910406913827363E-2   -7.429244013951855E-5   -3.292511412926870E-4   -2.416045444903926E-5   -2.980711149883532E-4   -3.840043857352001E-1    3.157307652077028E-1
 1.000564198405000E+10  -4.993525220674821E-1    3.928693217312855E-2   -5.614969550075658E-5   -3.137277067459799E-4   -4.484634801604182E-5   -3.216527785735017E-4   -3.836402711686676E-1    3.158393492862560E-1
 1.000564665870000E+10  -4.993362340984558E-1    3.959563902307330E-2   -7.046167371238840E-5   -2.936699112975165E-4   -5.662022836616341E-5   -2.856763600294895E-4   -3.835101111547361E-1    3.162390011463002E-1
 1.000565133335000E+10  -4.994054389314554E-1    3.993360751005833E-2   -6.319627972009328E-5   -3.155212562396834E-4   -2.617644293238461E-5   -2.856460115780071E-4   -3.833710957478730E-1    3.165440729779410E-1
 1.000565600800000E+10  -4.993604938506453E-1    4.016547086065698E-2   -2.219107380773679E-5   -3.156855177953781E-4   -1.225105104337573E-5   -2.675352899234496E-4   -3.830733084082866E-1    3.168541663679484E-1
 1.000566068265000E+10  -4.992638528113306E-1    4.038175339687245E-2   -4.707166337037530E-5   -3.052507693606359E-4   -8.936418656389991E-6   -2.560797624926824E-4   -3.829191726533364E-1    3.171252008782414E-1
 1.000566535730000E+10  -4.993717990028362E-1    4.081528079165317E-2   -3.086077684556366E-5   -2.911736621863663E-4   -3.869728082208551E-5   -2.752447182348581E-4   -3.826544708229724E-1    3.173111849563179E-1
 1.000567003195000E+10  -4.992795358302756E-1    4.109413887503176E-2   -5.885770189866625E-5   -2.747639641381973E-4   -3.315735931054042E-5   -2.953993986183458E-4   -3.822226275094786E-1    3.176427086801618E-1
 1.000567470660000E+10  -4.992583065461070E-1    4.132913747931018E-2   -4.799347837355817E-5   -2.614600355591906E-4   -1.525201706925288E-5   -2.702628275672377E-4   -3.821478988646638E-1    3.180567737946265E-1
 1.000567938125000E+10  -4.992726201892745E-1    4.172702719220194E-2   -3.919817059276523E-5   -2.857113527426270E-4    1.702800751006026E-5   -2.680191013523589E-4   -3.818732415027736E-1    3.182671525601141E-1
 1.000568405590000E+10  -4.991233967804279E-1    4.193100443927265E-2   -3.153642988173218E-5   -2.991046701431889E-4   -2.535216392945118E-5   -2.566755860415165E-4   -3.816858616388392E-1    3.184794710106749E-1
 1.000568873055000E+10  -4.990929965128368E-1    4.234742677943600E-2   -2.949433849341157E-5   -2.690574799514781E-4   -1.014576412687089E-5   -2.503177455382618E-4   -3.815412309899039E-1    3.187578925162849E-1
 1.000569340520000E+10  -4.991862782606538E-1    4.267852333074393E-2   -5.118513666513953E-6   -2.438125615260878E-4   -1.236448562055254E-5   -2.591382562002755E-4   -3.812880089939193E-1    3.191003856357090E-1
 1.000569807985000E+10  -4.991263528430018E-1    4.300985509134805E-2   -1.056284263276454E-5   -2.700901795270401E-4   -2.419148716290925E-5   -2.543858493975829E-4   -3.810387805184492E-1    3.194015496809139E-1
 1.000570275450000E+10  -4.993391499998401E-1    4.318167880879809E-2   -1.919802179393803E-5   -2.693021188294713E-4   -8.336709760052454E-6   -2.594328017122090E-4   -3.807689690166515E-1    3.198766588486109E-1
 1.000570742915000E+10  -4.990337670281041E-1    4.358083958539536E-2   -1.768173263083328E-5   -2.260667418013062E-4   -2.098953699650927E-7   -2.413789650032200E-4   -3.806503724519421E-1    3.199995417640272E-1
 1.000571210380000E+10  -4.990860346906086E-1    4.386862737841900E-2    2.828329835789206E-5   -2.221212046172940E-4    1.044997291101678E-5   -2.536133574366290E-4   -3.803558120024405E-1    3.202746286266119E-1
 1.000571677845000E+10  -4.990426151482335E-1    4.416266047775615E-2   -2.480301504109940E-5   -2.029591294863562E-4    7.150091040418951E-6   -2.363943106023430E-4   -3.801232069442404E-1    3.204662194061200E-1
 1.000572145310000E+10  -4.990766947775745E-1    4.449925146278962E-2   -1.484409232011881E-5   -2.084954113297687E-4    7.043166020438351E-6   -1.966424222594083E-4   -3.799695844657207E-1    3.207545979124462E-1
 1.000572612775000E+10  -4.990531515399403E-1    4.481391014377122E-2    1.885349083190957E-5   -2.242006821979961E-4    3.330313733965553E-5   -1.769782096542281E-4   -3.796140160341125E-1    3.212650291674927E-1
 1.000573080240000E+10  -4.990477117780256E-1    4.518377434475611E-2    2.832198212858087E-6   -1.828035074909301E-4    2.867449378191946E-5   -1.853048124892080E-4   -3.792965292163428E-1    3.212631770593474E-1
 1.000573547705000E+10  -4.989523196526405E-1    4.546034239467983E-2    2.282968250478043E-5   -1.962205828213833E-4    1.714198397216385E-5   -2.029588648343648E-4   -3.791496407761143E-1    3.217731686369865E-1
 1.000574015170000E+10  -4.991041486050070E-1    4.580175672855995E-2    2.660009181974361E-6   -2.281648963901389E-4    2.327403331321813E-5   -2.065719563187153E-4   -3.790323294455362E-1    3.219528010759953E-1
 1.000574482635000E+10  -4.990516752486012E-1    4.593388717622752E-2    2.487323923504093E-6   -1.789902322159892E-4    1.628330148480615E-5   -1.590832222780027E-4   -3.786902143638892E-1    3.222950542630058E-1
 1.000574950100000E+10  -4.989592713294119E-1    4.634017237564535E-2    2.742091117602816E-5   -1.985919052852874E-4    4.557537087142646E-5   -1.654663435050924E-4   -3.784118673197121E-1    3.225226769282137E-1
 1.000575417565000E+10  -4.989362256831918E-1    4.667777358090125E-2    3.181348610249704E-5   -1.700048448451416E-4    6.296357544663397E-5   -1.612324095091896E-4   -3.781537586906484E-1    3.228063173380356E-1
 1.000575885030000E+10  -4.990135735679998E-1    4.686266580560038E-2    1.834176574907904E-5   -1.832810329984413E-4    6.468396925383839E-5   -1.772233068022083E-4   -3.780114390920647E-1    3.231022422998648E-1
 1.000576352495000E+10  -4.989588510811201E-1    4.724957137640084E-2    5.901240535548384E-5   -1.860490517388078E-4    4.534083792020021E-5   -1.289828730600575E-4   -3.778216656083532E-1    3.236077607780681E-1
 1.000576819960000E+10  -4.990322767707351E-1    4.757297799345628E-2    7.844934998565448E-5   -1.807870400343854E-4    5.231147301621440E-5   -1.042965596972002E-4   -3.774536729549431E-1    3.237007347997868E-1
 1.000577287425000E+10  -4.987759700038867E-1    4.782361313974044E-2    6.128239264280583E-5   -1.590836905862834E-4    6.783620455324583E-5   -1.360326778233932E-4   -3.771732079158793E-1    3.240450957950277E-1
 1.000577754890000E+10  -4.988438954093529E-1    4.822495784980287E-2    5.336328436008111E-5   -1.332189830172037E-4    6.307512842419047E-5   -1.187629420790530E-4   -3.769221437734777E-1    3.242327408424542E-1
 1.000578222355000E+10  -4.986864865930676E-1    4.851441478880839E-2    7.083062413284486E-5   -1.567813337224481E-4    4.952217998084372E-5   -1.295036916393596E-4   -3.767703989396101E-1    3.245507681035514E-1
 1.000578689820000E+10  -4.988467780341976E-1    4.875729712553453E-2    7.721703991280730E-5   -1.198586979954016E-4    8.527511666987053E-5   -1.252493386969920E-4   -3.764800775947774E-1    3.249024463950180E-1
 1.000579157285000E+10  -4.986875897439679E-1    4.897026330625372E-2    6.738004565562455E-5   -1.281296708526942E-4    8.552030482488274E-5   -1.112171132516233E-4   -3.762802950200569E-1    3.252502435172892E-1
 1.000579624750000E+10  -4.987373083443947E-1    4.934054813369656E-2    6.284265983123141E-5   -9.959625549025147E-5    7.531960806433829E-5   -8.962849061602390E-5   -3.760263661326129E-1    3.255071592981478E-1
 1.000580092215000E+10  -4.986775124051867E-1    4.966484798917511E-2    6.563226254528924E-5   -1.229379182300808E-4    9.186815532890838E-5   -8.616317939007169E-5   -3.758000215677380E-1    3.257190711715662E-1
 1.000580559680000E+10  -4.986568084726880E-1    5.004566853586922E-2    6.083583217351649E-5   -1.000556890164104E-4    1.087265257014344E-4   -1.036880244838740E-4   -3.754318282093215E-1    3.259383967444040E-1
 1.000581027145000E+10  -4.987389484122234E-1    5.041986491213091E-2    1.093163421014356E-4   -9.772001733522731E-5    1.235204886560364E-4   -8.376042661560084E-5   -3.751651447442373E-1    3.263516546780911E-1
 1.000581494610000E+10  -4.987478395063354E-1    5.057626283298861E-2    6.769626090567303E-5   -6.901191503156826E-5    9.723994934096717E-5   -7.921058016652021E-5   -3.749707632096167E-1    3.267133232704423E-1
 1.000581962075000E+10  -4.986622620264617E-1    5.090763427126402E-2    1.019509397752004E-4   -4.566185391097127E-5    1.240458517700356E-4   -5.182898726524144E-5   -3.746940428150668E-1    3.269721735055854E-1
 1.000582429540000E+10  -4.986654242155210E-1    5.104585112427806E-2    1.154091964532887E-4   -4.318311341018914E-5    1.235840465253473E-4   -7.034091030070330E-5   -3.744107475019291E-1    3.273520386582624E-1
 1.000582897005000E+10  -4.985957791486414E-1    5.145781258816059E-2    9.266087533726494E-5   -5.719011571804446E-5    1.176102309742664E-4   -4.755325162646998E-5   -3.742735992059071E-1    3.274650183179804E-1
 1.000583364470000E+10  -4.985564701858397E-1    5.171887386378069E-2    1.395267294992381E-4   -1.537986078210737E-5    1.351433950856383E-4   -2.969616860062127E-5   -3.741666375881619E-1    3.277703208749767E-1
 1.000583831935000E+10  -4.986334149398221E-1    5.196319778966225E-2    1.356947370188722E-4   -4.103353199619441E-5    1.375354814389436E-4   -2.740646716858417E-5   -3.737049865526811E-1    3.282052425569235E-1
 1.000584299400000E+10  -4.985244555949954E-1    5.230707408273332E-2    1.188522079543841E-4   -4.674929411810823E-5    1.435793841967282E-4   -4.042446663775319E-5   -3.734973170664656E-1    3.284425276688173E-1
 1.000584766865000E+10  -4.984768720181353E-1    5.277228216307739E-2    1.553331321363616E-4   -2.365727485148672E-5    9.487769089147487E-5   -5.861975611060994E-6   -3.731760200934023E-1    3.288320226906197E-1
 1.000585234330000E+10  -4.985275923081613E-1    5.276330911020861E-2    1.250736712827445E-4   -3.342308980167221E-5    1.347823554546343E-4   -3.010205582705957E-5   -3.728184496051475E-1    3.291210576370686E-1
 1.000585701795000E+10  -4.985688896591060E-1    5.338489372594125E-2    1.293509854584317E-4   -2.538482969581324E-5    1.372347555999471E-4   -1.270451020271514E-5   -3.726969092674272E-1    3.292845051151547E-1
 1.000586169260000E+10  -4.985203973566150E-1    5.355436090791146E-2    1.817146935019135E-4    5.890103207789521E-6    1.353545193019958E-4    2.965863598153322E-6   -3.724889947949451E-1    3.298021434498118E-1
 1.000586636725000E+10  -4.984588577874127E-1    5.382953570637176E-2    1.546680038365744E-4    3.212524411489943E-5    1.720572328857725E-4   -2.519952002609875E-5   -3.720305496791590E-1    3.298522731369645E-1
 1.000587104190000E+10  -4.984455401724724E-1    5.426829995653174E-2    1.576205866521376E-4    1.159342890929157E-5    1.551150883902814E-4    1.947985809456260E-5   -3.718983706992607E-1    3.302560806443834E-1
 1.000587571655000E+10  -4.984171198873890E-1    5.442274857222322E-2    2.008302909292628E-4    5.909104837248898E-5    1.712018493122510E-4    4.614974988875082E-5   -3.714197257097468E-1    3.305251905388127E-1
 1.000588039120000E+10  -4.983855679981339E-1    5.471819471077423E-2    1.885871921572707E-4    6.158345330295787E-5    2.020047540516925E-4    2.500194281814376E-5   -3.713803558922572E-1    3.308665767235014E-1
 1.000588506585000E+10  -4.982558833566435E-1    5.513305548191292E-2    1.844946552578152E-4    5.672216011781199E-5    1.820203136308126E-4    5.802784400644371E-5   -3.710485386765379E-1    3.313248271403220E-1
 1.000588974050000E+10  -4.983488655306910E-1    5.541498786937018E-2    2.106059407138498E-4    7.314265067295024E-5    1.888127747140315E-4    8.430696621146789E-5   -3.707667994486986E-1    3.316153162568880E-1
 1.000589441515000E+10  -4.982945059881373E-1    5.573895506476136E-2    2.301226252394016E-4    7.431688982632937E-5    1.849336121660918E-4    4.639611432787458E-5   -3.705100843528574E-1    3.319057913265473E-1
 1.000589908980000E+10  -4.983127911372325E-1    5.606862487232390E-2    2.352234271469378E-4    6.381628042678726E-5    2.057900037627640E-4    6.329102276907691E-5   -3.701852344160976E-1    3.322249134189544E-1
 1.000590376445000E+10  -4.982142188265861E-1    5.639838457968591E-2    1.883812854075408E-4    8.045700214107737E-5    2.340884242582733E-4    1.007042207648505E-4   -3.699128799325174E-1    3.324516809204838E-1
 1.000590843910000E+10  -4.982491483764143E-1    5.654065427794085E-2    2.213009245317857E-4    7.651662867964966E-5    2.015890347713494E-4    1.083552771724236E-4   -3.696715328297042E-1    3.327787086114705E-1
 1.000591311375000E+10  -4.980963205186995E-1    5.693391701226345E-2    2.395282218704731E-4    9.296580195864866E-5    1.933438112556142E-4    1.204344056514544E-4   -3.693147600263557E-1    3.331926537921306E-1
 1.000591778840000E+10  -4.981892092919429E-1    5.721834899673139E-2    2.750597084304639E-4    1.004404087320168E-4    2.495702137019340E-4    9.960309539297644E-5   -3.689810912325534E-1    3.334350134317356E-1
 1.000592246305000E+10  -4.982787962423172E-1    5.756561295421794E-2    2.430666690631324E-4    1.191565451905674E-4    2.403746156391570E-4    1.316482319897310E-4   -3.687237160970530E-1    3.336272233515113E-1
 1.000592713770000E+10  -4.982661068519755E-1    5.780633631098731E-2    2.625951343759257E-4    1.250092853085811E-4    2.500702136788391E-4    1.543303237818422E-4   -3.684056943657715E-1    3.340086300624142E-1
 1.000593181235000E+10  -4.980562688129768E-1    5.813024916258862E-2    2.720762214751350E-4    1.416915174129928E-4    2.300266623665633E-4    1.554773022108181E-4   -3.681142127964591E-1    3.342309631499055E-1
 1.000593648700000E+10  -4.980143487464397E-1    5.839075461537373E-2    2.793930456477203E-4    1.537938773203210E-4    2.573449883349702E-4    1.593650929490093E-4   -3.677108334003573E-1    3.346104710542130E-1
 1.000594116165000E+10  -4.979765012851473E-1    5.876647231276624E-2    3.118406023124395E-4    1.681838779428993E-4    2.734246096723779E-4    1.537427345963524E-4   -3.674357110309492E-1    3.349792733761184E-1
 1.000594583630000E+10  -4.980893980204775E-1    5.900141412843136E-2    2.898546234753717E-4    1.503641281527636E-4    2.983570497058911E-4    1.730268086552317E-4   -3.672560524583907E-1    3.352889777489211E-1
 1.000595051095000E+10  -4.980380308894447E-1    5.937825789278626E-2    3.037439107181092E-4    1.751961235167541E-4    2.828714070668105E-4    2.384488949910874E-4   -3.669638762372248E-1    3.356282434253721E-1
 1.000595518560000E+10  -4.979386903627662E-1    5.971041349578828E-2    3.213966063581693E-4    2.049132254152853E-4    3.058468062314371E-4    2.227056987983123E-4   -3.665966885120444E-1    3.359380725154709E-1
 1.000595986025000E+10  -4.979077857913069E-1    5.996755248402488E-2    3.741032366565656E-4    2.236409374748685E-4    3.180658940471609E-4    2.018071268822852E-4   -3.662279458906322E-1    3.363211294696125E-1
 1.000596453490000E+10  -4.977400877571125E-1    6.039340227035962E-2    3.391645840500482E-4    2.054385163487764E-4    3.077910627944630E-4    2.507093978692800E-4   -3.659701359453405E-1    3.366585837134896E-1
 1.000596920955000E+10  -4.978326189148758E-1    6.063082405192986E-2    3.641032754398837E-4    2.665664702377119E-4    3.168362027891617E-4    2.816880084376120E-4   -3.656226176332554E-1    3.368848996288961E-1
 1.000597388420000E+10  -4.979334819956361E-1    6.076963572750688E-2    3.952466404601732E-4    2.539428463334896E-4    3.768226952094974E-4    2.532571063052044E-4   -3.652649570856675E-1    3.372637784198154E-1
 1.000597855885000E+10  -4.978576076214780E-1    6.110657055407647E-2    3.963715709368603E-4    2.476825200312357E-4    3.726069973794183E-4    2.927009193833026E-4   -3.649372634250268E-1    3.376616842494330E-1
 1.000598323350000E+10  -4.976723289707868E-1    6.141696714316147E-2    4.155740946315974E-4    2.590388516485184E-4    4.182744939352593E-4    2.768876582100036E-4   -3.644968718942674E-1    3.378940138156127E-1
