#  HZ   S   RI   R     50.00 
! Rohde & Schwarz Vector Network Analyzer 
! Rohde-Schwarz,ZNB20-2Port,1311601062101988,3.16
! Created: UTC 3/20/2024, 11:42:50 AM
! freq[Hz]                re:S11                  im:S11                  re:S21                  im:S21                  re:S12                  im:S12                  re:S22                  im:S22
 1.000556477600000E+10  -4.997135052816849E-1    3.420213043871004E-2   -1.134125635211819E-4   -4.312149059826926E-4   -6.476141247906814E-5   -4.083379617781488E-4   -3.871978179699500E-1    3.113360348382835E-1
 1.000556943285000E+10  -4.994919600330293E-1    3.448667310610194E-2   -1.050329105110484E-4   -4.138215634073804E-4   -6.282346272113721E-5   -3.791694231036925E-4   -3.870589549611486E-1    3.115201269679057E-1
 1.000557408970000E+10  -4.995156270083871E-1    3.476511579379690E-2   -8.416758046335796E-5   -4.007369882011165E-4   -6.530876831080978E-5   -3.676901007643914E-4   -3.868881339436623E-1    3.118501837866418E-1
 1.000557874655000E+10  -4.996497974601157E-1    3.505595473712871E-2   -9.034662765855730E-5   -3.599371918233135E-4   -5.449584650799387E-5   -3.933928777623162E-4   -3.865717923585924E-1    3.122223867273209E-1
 1.000558340340000E+10  -4.995649163543134E-1    3.536342600949080E-2   -8.433126357521665E-5   -3.765517584315117E-4   -6.086688327564326E-5   -3.572533645238898E-4   -3.863573555910089E-1    3.125531947883146E-1
 1.000558806025000E+10  -4.995701683934476E-1    3.578606435822648E-2   -8.653295289181360E-5   -3.564482968927535E-4   -7.071632186870815E-5   -3.555981727686743E-4   -3.861800036438104E-1    3.127699949819472E-1
 1.000559271710000E+10  -4.994767857347127E-1    3.611695459142845E-2   -7.351097293203799E-5   -3.421621435540610E-4   -5.731078983401505E-5   -3.878815946260395E-4   -3.858699663777581E-1    3.131472370194135E-1
 1.000559737395000E+10  -4.995564988835849E-1    3.645704168133357E-2   -9.050756336281073E-5   -3.631482638368856E-4   -3.412378577110760E-5   -3.706274535526344E-4   -3.857823019748105E-1    3.132181449210996E-1
 1.000560203080000E+10  -4.995709022434481E-1    3.674445982095233E-2   -9.219656128227608E-5   -3.556535444431894E-4   -7.701027622012508E-5   -4.024953247776034E-4   -3.855365844517097E-1    3.135832365879388E-1
 1.000560668765000E+10  -4.994883189183256E-1    3.707023387251544E-2   -7.435175626394732E-5   -3.402355724812116E-4   -6.043745957777006E-5   -3.445366205015468E-4   -3.852797508359614E-1    3.137397957186318E-1
 1.000561134450000E+10  -4.994163026193530E-1    3.722098391266830E-2   -6.679930130154130E-5   -3.421130524873982E-4   -5.020304538953028E-5   -3.463509214490205E-4   -3.850860775570124E-1    3.141035518895969E-1
 1.000561600135000E+10  -4.994413624314521E-1    3.758778607483806E-2   -6.135004405559851E-5   -3.326923995648066E-4   -4.587449468957197E-5   -3.306864371969911E-4   -3.849732315485090E-1    3.144635209150941E-1
 1.000562065820000E+10  -4.994979436868870E-1    3.783633928241441E-2   -6.636099356157410E-5   -3.236856028229131E-4   -4.355068870107465E-5   -3.460664046725911E-4   -3.846996657381297E-1    3.148248300736161E-1
 1.000562531505000E+10  -4.994622489205279E-1    3.822108011752362E-2   -7.170477816138494E-5   -3.378064974543216E-4   -3.387766434465037E-5   -3.571626618555295E-4   -3.844368183037325E-1    3.148937012277101E-1
 1.000562997190000E+10  -4.995486668328487E-1    3.857403137056996E-2   -6.132906952855516E-5   -3.386977917532860E-4   -5.170072094883512E-5   -3.277501633381782E-4   -3.843780487101837E-1    3.152235504069730E-1
 1.000563462875000E+10  -4.995188103512420E-1    3.887134336255890E-2   -5.281341016189354E-5   -3.053571204846137E-4   -3.302383420700272E-5   -3.068657572529651E-4   -3.839959803360733E-1    3.154465655473645E-1
 1.000563928560000E+10  -4.993895634276612E-1    3.915823544867304E-2   -7.096142049895288E-5   -3.191754148500916E-4   -4.029235652219389E-5   -3.229085891060384E-4   -3.837739129364530E-1    3.158147635141567E-1
 1.000564394245000E+10  -4.994170399657923E-1    3.955752825848936E-2   -6.228408025013793E-5   -2.894340204616047E-4   -6.746099119157102E-5   -3.274674305180854E-4   -3.834969281399067E-1    3.161852596905375E-1
 1.000564859930000E+10  -4.993821531514177E-1    3.971975933751382E-2   -5.372522478509083E-5   -3.147611400240032E-4   -2.061063901400627E-5   -3.172129749688864E-4   -3.835441559488862E-1    3.163219327925861E-1
 1.000565325615000E+10  -4.994137710523757E-1    3.990140706141388E-2   -3.517513017550835E-5   -3.121821958299986E-4   -1.755186003604593E-5   -3.070680909231883E-4   -3.831941059585025E-1    3.166760933684414E-1
 1.000565791300000E+10  -4.993638426921954E-1    4.023771796675649E-2   -5.355596272109962E-5   -3.120905334212183E-4   -8.991201272554180E-6   -2.946715471697211E-4   -3.830116940565739E-1    3.170549675283711E-1
 1.000566256985000E+10  -4.993709752399474E-1    4.070115311458671E-2   -3.406458821263817E-5   -2.931943611013319E-4   -3.200611343218801E-5   -2.850583479204804E-4   -3.826849455599189E-1    3.171974155228389E-1
 1.000566722670000E+10  -4.991425514035599E-1    4.090682834424778E-2   -3.128332898714902E-5   -2.578858788895921E-4   -2.802036246258185E-5   -2.625530082634650E-4   -3.826409494900424E-1    3.175040767890528E-1
 1.000567188355000E+10  -4.992746689819128E-1    4.126169451948283E-2   -5.069827578749317E-5   -2.498895584946950E-4   -2.167628338870614E-5   -2.823574451490464E-4   -3.823502291592234E-1    3.177789267200401E-1
 1.000567654040000E+10  -4.992414432630332E-1    4.148829974810311E-2   -3.394176347912808E-5   -2.877655630082818E-4   -1.330392659851953E-5   -2.806612445343835E-4   -3.820073518514787E-1    3.182018080389020E-1
 1.000568119725000E+10  -4.991279903171514E-1    4.200993303953523E-2   -4.941416650303401E-5   -2.744903281209812E-4    1.366751649488451E-5   -2.739210836400873E-4   -3.817151575419782E-1    3.184244716153553E-1
 1.000568585410000E+10  -4.992623938228204E-1    4.213070408937714E-2   -1.363602281466935E-5   -2.626034404173109E-4   -5.308116256356633E-6   -2.773840435831431E-4   -3.816481965695057E-1    3.186881040722768E-1
 1.000569051095000E+10  -4.991766436643337E-1    4.235073097300215E-2    7.044827588577702E-6   -2.711230892761108E-4    7.794736145059655E-7   -2.643657790762903E-4   -3.813048826304077E-1    3.189748642483889E-1
 1.000569516780000E+10  -4.991976662907670E-1    4.269076627543359E-2   -2.007803018083624E-5   -2.564118359472245E-4    4.864410422145704E-7   -2.689019647818038E-4   -3.811855311056815E-1    3.193719971128819E-1
 1.000569982465000E+10  -4.991725638744371E-1    4.313080405035692E-2   -3.466670795067148E-5   -2.718992554644335E-4   -6.486873627884701E-6   -2.488241202739121E-4   -3.809933452276465E-1    3.194914518989878E-1
 1.000570448150000E+10  -4.990394645498166E-1    4.335167269379456E-2   -2.150128283099717E-5   -2.587190740369262E-4    1.257476133565979E-5   -2.452235158025511E-4   -3.807760383319066E-1    3.197480519582092E-1
 1.000570913835000E+10  -4.991815865221962E-1    4.365944696014423E-2    8.867210215530247E-6   -2.477716160678383E-4    2.155732697665286E-5   -2.492714484868407E-4   -3.804621196141820E-1    3.200346833438109E-1
 1.000571379520000E+10  -4.991973117986800E-1    4.397734266893288E-2    1.560399603986625E-5   -2.518981632847516E-4    1.393303961148927E-5   -2.020999318201275E-4   -3.803313622578328E-1    3.203393775280827E-1
 1.000571845205000E+10  -4.991232480820130E-1    4.416024779658204E-2    1.793707368343512E-5   -2.252268812146241E-4   -5.402475489849416E-6   -2.266229157433408E-4   -3.801781266093147E-1    3.206213188681165E-1
 1.000572310890000E+10  -4.990702015859344E-1    4.459856561895988E-2    2.574176322808375E-5   -2.104835830595007E-4   -2.728912412282315E-6   -2.324774964970153E-4   -3.798040667157010E-1    3.209788624160113E-1
 1.000572776575000E+10  -4.990962585398993E-1    4.484570204908283E-2    1.705361777306717E-5   -2.160741422119982E-4    3.259278391719600E-5   -1.985420459903547E-4   -3.795133004933163E-1    3.213277857707356E-1
 1.000573242260000E+10  -4.990729950439900E-1    4.522118663141164E-2    2.291947080604376E-5   -1.885607368264237E-4    2.217335822498129E-5   -2.007870295707338E-4   -3.793902963819763E-1    3.215511502695241E-1
 1.000573707945000E+10  -4.990003387164016E-1    4.536873978265276E-2    1.461599219833280E-5   -2.018516122132233E-4    4.877437726230868E-5   -2.001954951447683E-4   -3.791587807914402E-1    3.216444213347682E-1
 1.000574173630000E+10  -4.990599320624274E-1    4.581081054449837E-2    1.709520823813094E-5   -1.942526424866179E-4    1.697733974222683E-5   -2.044650425201000E-4   -3.788169716847853E-1    3.221062263592482E-1
 1.000574639315000E+10  -4.989071177849628E-1    4.612427571529146E-2    3.522632915731250E-5   -1.593723984629165E-4    5.464421555318418E-5   -1.749687086287102E-4   -3.785943998770824E-1    3.223044077987121E-1
 1.000575105000000E+10  -4.988746225970966E-1    4.646054970262642E-2    1.226973193797003E-5   -1.810835377893256E-4    2.131705152259107E-5   -1.840410154232940E-4   -3.784767777294374E-1    3.226204102185730E-1
 1.000575570685000E+10  -4.988881135117017E-1    4.678824504913198E-2    3.470365348453623E-5   -1.782406607869391E-4    3.755052590834164E-5   -1.619496976980048E-4   -3.780780676181539E-1    3.229836811277421E-1
 1.000576036370000E+10  -4.988870797329680E-1    4.697030174814379E-2    3.660134661415110E-5   -1.900148807534424E-4    3.887771473126508E-5   -1.683143988117696E-4   -3.779281586267686E-1    3.233603131171644E-1
 1.000576502055000E+10  -4.988666295884669E-1    4.734481822272242E-2    4.869691399947486E-5   -1.681332133486310E-4    3.930457505982537E-5   -1.701029453267806E-4   -3.776016026010924E-1    3.235673866103346E-1
 1.000576967740000E+10  -4.987981649644815E-1    4.756714004931799E-2    5.617279634476169E-5   -1.305048077589028E-4    3.652782529169776E-5   -1.450651237585936E-4   -3.773296411856142E-1    3.238894092589605E-1
 1.000577433425000E+10  -4.989016841291751E-1    4.797510788295888E-2    4.989822200106430E-5   -1.538499550918779E-4    5.822675661987469E-5   -1.464358270661094E-4   -3.772045573992532E-1    3.241698572060247E-1
 1.000577899110000E+10  -4.988236789661418E-1    4.812251483119189E-2    4.099061333948148E-5   -1.220872638341108E-4    7.809258973965140E-5   -1.440262388410759E-4   -3.769477388894040E-1    3.243497849412961E-1
 1.000578364795000E+10  -4.988215697905108E-1    4.852018151958398E-2    6.584186401473416E-5   -1.278626760305767E-4    6.105597696837938E-5   -1.313438449345257E-4   -3.767507959355536E-1    3.245433383092187E-1
 1.000578830480000E+10  -4.989916053359629E-1    4.876448916915877E-2    5.853437127676121E-5   -9.690412682884989E-5    6.440548996615354E-5   -1.436300211767415E-4   -3.765314609497030E-1    3.249388988674609E-1
 1.000579296165000E+10  -4.988661559047997E-1    4.905080572704544E-2    5.378232242269777E-5   -1.348086066755210E-4    9.331901838350626E-5   -8.864686186279469E-5   -3.761916634800483E-1    3.252431326240488E-1
 1.000579761850000E+10  -4.987252884562444E-1    4.946745205972425E-2    6.551725244916822E-5   -1.239138130097234E-4    9.655869209475926E-5   -9.279390307660170E-5   -3.759380590044332E-1    3.255592188322713E-1
 1.000580227535000E+10  -4.986879285295026E-1    4.984544372509549E-2    8.964234717422483E-5   -8.356378870845084E-5    9.333341325869909E-5   -1.132116518485163E-4   -3.756339242533727E-1    3.257975874462974E-1
 1.000580693220000E+10  -4.988423977081141E-1    4.996180916278709E-2    8.710618432385890E-5   -8.551034926007771E-5    1.119971619344566E-4   -9.376082793766314E-5   -3.753769875544727E-1    3.261745088966932E-1
 1.000581158905000E+10  -4.986742984231254E-1    5.031170201231600E-2    1.391150950074651E-4   -8.507659630726184E-5    9.101384217592294E-5   -8.691685425704645E-5   -3.753559802010430E-1    3.264389396563037E-1
 1.000581624590000E+10  -4.986847314448893E-1    5.070576799706000E-2    9.822892301110161E-5   -6.973956752572873E-5    9.498492937520044E-5   -7.217247262082922E-5   -3.749621324534737E-1    3.268224326374649E-1
 1.000582090275000E+10  -4.986692310671998E-1    5.092527108687094E-2    1.111804457729425E-4   -7.557724071238397E-5    9.421361174382728E-5   -7.340305661891622E-5   -3.744732332583443E-1    3.270474789299349E-1
 1.000582555960000E+10  -4.986150320899685E-1    5.129075601555473E-2    9.726032023313110E-5   -8.059150510803250E-5    1.161061092138705E-4   -5.407241712698685E-5   -3.743305478834122E-1    3.273448185214006E-1
 1.000583021645000E+10  -4.986112263306587E-1    5.170096931288006E-2    1.409723751139834E-4   -6.566741784290648E-5    1.151864380209014E-4   -7.352698850007853E-5   -3.742282631696341E-1    3.276291127810462E-1
 1.000583487330000E+10  -4.985524470676441E-1    5.182911034341361E-2    1.063812100823416E-4   -4.651743479804009E-5    1.127755327867141E-4   -4.404946670752905E-5   -3.740019109500786E-1    3.278936106629894E-1
 1.000583953015000E+10  -4.986004261169532E-1    5.215761924991395E-2    1.154352290425766E-4   -4.302981765315337E-5    1.370726695993104E-4   -4.530474558325613E-5   -3.735754659876184E-1    3.282249153121799E-1
 1.000584418700000E+10  -4.985541076120750E-1    5.251880248929012E-2    1.370432467488071E-4   -2.444348657437386E-5    1.199784954670953E-4   -1.583707627448191E-5   -3.733697442817338E-1    3.285162978029607E-1
 1.000584884385000E+10  -4.985279898315611E-1    5.285281866077136E-2    1.436958729369132E-4   -1.621082264161886E-5    1.546999725949886E-4   -1.638029779895645E-5   -3.730826239125620E-1    3.287934164260001E-1
 1.000585350070000E+10  -4.985792599958556E-1    5.303051999781267E-2    1.857668101158166E-4   -2.799135849237687E-5    1.620388529213892E-4   -2.930463928246109E-5   -3.728873858311804E-1    3.291165502439588E-1
 1.000585815755000E+10  -4.984808199556284E-1    5.326821254336460E-2    1.596492698529244E-4    1.715274221038702E-6    1.383385327930030E-4    9.826716456057258E-6   -3.726744550108804E-1    3.294197797658635E-1
 1.000586281440000E+10  -4.984949608715122E-1    5.355141114481219E-2    1.544115658086304E-4   -1.057352782128972E-5    1.780411740583547E-4   -6.396358166650141E-6   -3.722278279163283E-1    3.296157084825431E-1
 1.000586747125000E+10  -4.984603878559072E-1    5.386089907329026E-2    1.746486200618734E-4    2.791943296986272E-5    1.433529784016944E-4    2.018488040531670E-5   -3.721666818143892E-1    3.299946063082437E-1
 1.000587212810000E+10  -4.984277687006705E-1    5.426928736210700E-2    2.011453792429621E-4    8.556942250163677E-6    1.875666377804170E-4    2.078688621960686E-6   -3.718469669861514E-1    3.303994689887294E-1
 1.000587678495000E+10  -4.983486422061151E-1    5.459083390781367E-2    1.514912679342882E-4    3.605729385924455E-5    1.771291562911863E-4    3.744682666539311E-5   -3.716281927924123E-1    3.306100639169253E-1
 1.000588144180000E+10  -4.983193945871059E-1    5.497389598268135E-2    1.721890557057738E-4    5.210136282688989E-5    1.827183731309406E-4    4.786949035177694E-5   -3.712943737685371E-1    3.309911092618428E-1
 1.000588609865000E+10  -4.982838785227971E-1    5.514434161521067E-2    2.341689582540337E-4    5.811488243223338E-5    2.201268767711709E-4    4.229980582499769E-5   -3.708848669587281E-1    3.312643050251712E-1
 1.000589075550000E+10  -4.983814534669324E-1    5.558199520293453E-2    2.310608630487160E-4    2.546454189765308E-5    2.224787414109972E-4    7.212323901838313E-5   -3.707257034908297E-1    3.315715445765384E-1
 1.000589541235000E+10  -4.982581889161248E-1    5.576615983613669E-2    2.024490088164409E-4    6.976995831079444E-5    1.793535257415215E-4    7.082931266369387E-5   -3.704403702735033E-1    3.319011823523443E-1
 1.000590006920000E+10  -4.982958060010261E-1    5.608844723105511E-2    2.371166001974626E-4    6.674413136840615E-5    2.504530472056378E-4    8.101584695695819E-5   -3.699609074638953E-1    3.321702426791396E-1
 1.000590472605000E+10  -4.982777345905837E-1    5.627040367274386E-2    2.169637788293518E-4    8.536608481489503E-5    2.048183764878010E-4    8.976473842578150E-5   -3.696235343837997E-1    3.324299095553072E-1
 1.000590938290000E+10  -4.981598546845470E-1    5.660737932088460E-2    2.392947699498746E-4    7.152342848529229E-5    2.264353049594852E-4    1.000218511259736E-4   -3.694974612245903E-1    3.328401702268234E-1
 1.000591403975000E+10  -4.982402815137612E-1    5.707721741297026E-2    2.406773289022087E-4    1.137356287637083E-4    2.036080979552846E-4    1.109091869738230E-4   -3.692766908398905E-1    3.331486729823352E-1
 1.000591869660000E+10  -4.981463061019989E-1    5.723803804583888E-2    2.653869749298151E-4    1.139548267272822E-4    2.344775968157799E-4    1.428479778630072E-4   -3.689299113182557E-1    3.334650874639489E-1
 1.000592335345000E+10  -4.981339830966063E-1    5.757742034878170E-2    2.590879980336499E-4    1.259272099135945E-4    2.515284980097821E-4    1.267231471257547E-4   -3.685757265331741E-1    3.337516123610230E-1
 1.000592801030000E+10  -4.980990883533957E-1    5.788839126770533E-2    2.663051838496270E-4    1.587385865085251E-4    2.791059805119543E-4    1.452725370449036E-4   -3.682903566009865E-1    3.341946872982673E-1
 1.000593266715000E+10  -4.981111481576262E-1    5.816015328743285E-2    2.789822113733647E-4    1.396559825447721E-4    2.940045601217621E-4    1.588060419158819E-4   -3.680529511676032E-1    3.345347815326258E-1
 1.000593732400000E+10  -4.980449242852245E-1    5.849574010841580E-2    2.680369087134360E-4    1.597361617962361E-4    2.648084299428805E-4    1.688952937705177E-4   -3.677497901699998E-1    3.346875457842015E-1
 1.000594198085000E+10  -4.980063479060782E-1    5.868421937087787E-2    3.237364622580002E-4    1.633817225777694E-4    3.131401138100304E-4    1.820432454763588E-4   -3.673665382939581E-1    3.348931031080169E-1
 1.000594663770000E+10  -4.979728463544260E-1    5.903503369403425E-2    2.962416200541107E-4    1.827891990508298E-4    3.153164887578653E-4    1.875741074178572E-4   -3.670578697392654E-1    3.353426014301663E-1
 1.000595129455000E+10  -4.980337540333719E-1    5.938875031154432E-2    3.382174136520028E-4    1.942651771832141E-4    3.357862308693796E-4    1.990201149496732E-4   -3.668709558836749E-1    3.356788009886871E-1
 1.000595595140000E+10  -4.979371909847258E-1    5.971504448019297E-2    3.435837080498326E-4    2.217583929839582E-4    3.131524846133203E-4    2.293876690986285E-4   -3.664298231029329E-1    3.359913610235999E-1
 1.000596060825000E+10  -4.978886296883319E-1    5.998024819387796E-2    3.189510375096631E-4    2.247086124821575E-4    3.364412028978524E-4    2.330610546425836E-4   -3.662325833766236E-1    3.361701824426487E-1
 1.000596526510000E+10  -4.978897420397422E-1    6.045914048750771E-2    3.718616032706544E-4    2.330391067976060E-4    3.321885529511124E-4    2.439993235700161E-4   -3.657849642931793E-1    3.366228498890149E-1
 1.000596992195000E+10  -4.978227694236044E-1    6.063123356085292E-2    3.741066385839471E-4    2.766783774290234E-4    3.635787958730431E-4    2.319326508153115E-4   -3.654709524381621E-1    3.369956074048085E-1
 1.000597457880000E+10  -4.978509607432577E-1    6.084122955481697E-2    3.705680451925271E-4    2.682732937919549E-4    3.747080301093460E-4    2.606665155691399E-4   -3.651542692542623E-1    3.371386189969915E-1
 1.000597923565000E+10  -4.978676681141243E-1    6.123078441422149E-2    3.816745089184444E-4    2.439027466047929E-4    3.830912628727051E-4    2.942404918980973E-4   -3.649850272630032E-1    3.376408432427049E-1
 1.000598389250000E+10  -4.977055103284684E-1    6.146398252642852E-2    4.018647505997765E-4    2.798221744389059E-4    3.849840272424042E-4    3.018795480174556E-4   -3.644929058250359E-1    3.378486299134861E-1
