#  HZ   S   RI   R     50.00 
! Rohde & Schwarz Vector Network Analyzer 
! Rohde-Schwarz,ZNB20-2Port,1311601062101988,3.16
! Created: UTC 3/20/2024, 11:43:19 AM
! freq[Hz]                re:S11                  im:S11                  re:S21                  im:S21                  re:S12                  im:S12                  re:S22                  im:S22
 1.000549695900000E+10  -4.995596203072106E-1    2.990603011461171E-2   -1.149479883177292E-4   -4.408547169349010E-4   -8.834102578858358E-5   -4.436817407326985E-4   -3.902437916143463E-1    3.072729930115693E-1
 1.000550189992500E+10  -4.996719059690372E-1    3.016992076253350E-2   -9.743197107531773E-5   -4.416765066115357E-4   -1.154256135592913E-4   -4.451649976843364E-4   -3.899464266590751E-1    3.075999238505494E-1
 1.000550684085000E+10  -4.996750929148058E-1    3.047934470432817E-2   -1.203690712654096E-4   -4.399243032063173E-4   -7.760955394093150E-5   -4.209256091060084E-4   -3.895987504147597E-1    3.078525409157052E-1
 1.000551178177500E+10  -4.997441287565750E-1    3.075601173974503E-2   -1.148399445702423E-4   -4.288969890682009E-4   -9.237958316742213E-5   -4.341026890640459E-4   -3.894462449448406E-1    3.081500726413428E-1
 1.000551672270000E+10  -4.997950916386026E-1    3.115380921771256E-2   -8.817672876839018E-5   -4.563858278727152E-4   -8.284069072875611E-5   -4.361729823759904E-4   -3.891274441294246E-1    3.084554000341345E-1
 1.000552166362500E+10  -4.997094793170349E-1    3.157415281622167E-2   -8.112075830476045E-5   -4.371124333424795E-4   -8.392053799544939E-5   -4.207776682106258E-4   -3.889665439652834E-1    3.088838453013707E-1
 1.000552660455000E+10  -4.995553228313966E-1    3.168527728699134E-2   -1.041691745667208E-4   -3.958007289509567E-4   -8.681155604933619E-5   -4.105457675940278E-4   -3.888048887701964E-1    3.090129876021665E-1
 1.000553154547500E+10  -4.997338643161428E-1    3.212127277594839E-2   -1.146009928495399E-4   -3.890143896701671E-4   -8.445866327796526E-5   -4.169693836280775E-4   -3.886065122075632E-1    3.093829806259002E-1
 1.000553648640000E+10  -4.996132775231260E-1    3.238235768421496E-2   -7.762560898415111E-5   -4.108271840545610E-4   -5.334945771818837E-5   -4.136812686936229E-4   -3.883668204738343E-1    3.096506226531191E-1
 1.000554142732500E+10  -4.996746446917311E-1    3.265210342354272E-2   -1.046735691147607E-4   -4.248636918981666E-4   -5.675704195138595E-5   -4.118826613751904E-4   -3.881537373574169E-1    3.099186794822601E-1
 1.000554636825000E+10  -4.996525447119065E-1    3.292727394388249E-2   -8.878303601028100E-5   -4.089685128146016E-4   -7.019990712467754E-5   -3.963004143094930E-4   -3.878665941022919E-1    3.102037761353045E-1
 1.000555130917500E+10  -4.996447446655413E-1    3.341287093969936E-2   -8.304819821194329E-5   -3.933569471679966E-4   -7.388535351233406E-5   -3.999747468203326E-4   -3.876685262026668E-1    3.104127293105701E-1
 1.000555625010000E+10  -4.995996365657470E-1    3.376243527023612E-2   -9.675889101701239E-5   -3.743845731868251E-4   -8.572449486904946E-5   -3.811651117337833E-4   -3.875110129827910E-1    3.108611796561697E-1
 1.000556119102500E+10  -4.996084607914356E-1    3.397464969766967E-2   -7.918010050729836E-5   -4.034485338041621E-4   -7.715065254899244E-5   -3.803793289622059E-4   -3.873002885716147E-1    3.111458946620192E-1
 1.000556613195000E+10  -4.995999525463498E-1    3.437284174071287E-2   -6.391071391800645E-5   -3.644862425550053E-4   -6.387193972684965E-5   -3.477106527987868E-4   -3.871113674556401E-1    3.114920963470198E-1
 1.000557107287500E+10  -4.995457050655061E-1    3.469415260561565E-2   -9.906241974779633E-5   -3.587516514265662E-4   -4.263093844577263E-5   -3.906653216611892E-4   -3.869706111901129E-1    3.116172685605838E-1
 1.000557601380000E+10  -4.995186341615004E-1    3.491312251361883E-2   -6.971066321528161E-5   -3.683595492842041E-4   -4.051982442099556E-5   -3.689560780283770E-4   -3.866639828533630E-1    3.118253568940267E-1
 1.000558095472500E+10  -4.994645909011022E-1    3.535081541588932E-2   -6.549718420599962E-5   -3.557751920123645E-4   -5.777531619308917E-5   -3.529218039348949E-4   -3.863419767040128E-1    3.123018174405637E-1
 1.000558589565000E+10  -4.995518630330065E-1    3.567304145107388E-2   -9.126969580128047E-5   -3.906656998329862E-4   -6.883041458835315E-5   -3.500762169773085E-4   -3.862983590405500E-1    3.127258382823337E-1
 1.000559083657500E+10  -4.994819012603177E-1    3.592776751318998E-2   -7.533526175650277E-5   -3.901271731862135E-4   -5.156187223420917E-5   -3.333664179272889E-4   -3.858157690436831E-1    3.129117291634667E-1
 1.000559577750000E+10  -4.994542377129897E-1    3.628450489919834E-2   -3.683878544239599E-5   -3.532113324252578E-4   -6.930114294494000E-5   -3.641357179141091E-4   -3.856937539054681E-1    3.132225848802989E-1
 1.000560071842500E+10  -4.995269850465720E-1    3.664097767937518E-2   -7.678924421086767E-5   -3.322149085030402E-4   -5.778455144232029E-5   -3.513513615319434E-4   -3.855321263020955E-1    3.135428164596731E-1
 1.000560565935000E+10  -4.994398170377130E-1    3.705126019395398E-2   -5.185380981892196E-5   -3.318504515119283E-4   -4.674209175272907E-5   -3.413139665356120E-4   -3.851712220843326E-1    3.137712999683493E-1
 1.000561060027500E+10  -4.994635953307046E-1    3.730223523767515E-2   -5.600880324952388E-5   -3.407629415414842E-4   -3.902566096716982E-5   -3.259593194522336E-4   -3.849233002676971E-1    3.141424851496664E-1
 1.000561554120000E+10  -4.994161031160813E-1    3.764891234197532E-2   -4.918974411824026E-5   -3.282744753781889E-4   -2.167124064781518E-5   -3.300965836484203E-4   -3.847248580139018E-1    3.144025836094653E-1
 1.000562048212500E+10  -4.994326188869264E-1    3.800600755611445E-2   -4.469823542593787E-5   -3.135351018242043E-4   -4.977535931310011E-5   -3.513888204019022E-4   -3.846586265993717E-1    3.146352686032843E-1
 1.000562542305000E+10  -4.993975392541532E-1    3.818308350778932E-2   -4.758330769714201E-5   -3.300859343121595E-4   -3.591651917284191E-5   -3.193394266987199E-4   -3.844219990755866E-1    3.149277283267710E-1
 1.000563036397500E+10  -4.993900678561020E-1    3.856988626639858E-2   -5.678338333316029E-5   -2.908526206793468E-4   -1.817366546949395E-5   -2.853040855092551E-4   -3.840599711488942E-1    3.152540219453506E-1
 1.000563530490000E+10  -4.993794648789273E-1    3.894405654988258E-2   -3.493568082660407E-5   -3.088544509103004E-4   -1.842516939891922E-5   -3.044183539778673E-4   -3.837450606078790E-1    3.155652603055699E-1
 1.000564024582500E+10  -4.993808916885193E-1    3.910182074686484E-2   -2.198313984336420E-5   -2.987856882757812E-4   -2.225759435829393E-5   -3.098564942502264E-4   -3.836975937004173E-1    3.160243659298547E-1
 1.000564518675000E+10  -4.991280938785174E-1    3.954845734906585E-2   -3.445162348529278E-5   -3.147158042222413E-4   -5.485180658093363E-6   -3.250736008385082E-4   -3.834690901694028E-1    3.161525542893445E-1
 1.000565012767500E+10  -4.993418404315379E-1    3.985045419277908E-2   -4.821281880333350E-5   -3.045672105739979E-4   -2.203162030923779E-5   -3.054037990980435E-4   -3.831890359694777E-1    3.163695303912072E-1
 1.000565506860000E+10  -4.993823471044843E-1    4.010545773615293E-2   -4.420947493439999E-5   -2.814487742335566E-4   -8.130682845899736E-6   -2.701237037337056E-4   -3.830731076136900E-1    3.167353272412349E-1
 1.000566000952500E+10  -4.994430857928829E-1    4.051048146157495E-2   -3.362879229654030E-5   -2.833208607048442E-4   -2.303167556741786E-5   -2.513963354041691E-4   -3.826771669493697E-1    3.170108983789991E-1
 1.000566495045000E+10  -4.993210768817703E-1    4.090138308170378E-2   -3.811093355438660E-5   -2.759257568957478E-4    3.607788907030324E-6   -2.698358864069183E-4   -3.824644931607588E-1    3.174196665216264E-1
 1.000566989137500E+10  -4.992153056369805E-1    4.117201011521935E-2   -2.844168966159031E-5   -2.840953408282259E-4    1.180112944603776E-5   -2.937302888272708E-4   -3.822285641639733E-1    3.177631240555929E-1
 1.000567483230000E+10  -4.992250779585301E-1    4.156065157334336E-2   -2.336046875135278E-5   -2.538649191226749E-4   -1.286536224707588E-5   -2.765760677676378E-4   -3.819234331043059E-1    3.179978650540635E-1
 1.000567977322500E+10  -4.992053688852796E-1    4.184510744101026E-2   -3.264085030285037E-5   -2.452365294367765E-4    2.618766013755186E-5   -2.630820931468604E-4   -3.816647130567637E-1    3.182522645303112E-1
 1.000568471415000E+10  -4.993325379118395E-1    4.210962449821506E-2   -2.889017391268188E-6   -2.632676656974968E-4   -5.821009496454224E-6   -2.504924811852827E-4   -3.814463705041491E-1    3.187293808278701E-1
 1.000568965507500E+10  -4.990638557065992E-1    4.242873831926280E-2   -5.597608157450509E-6   -2.645191004957005E-4   -2.098438695833634E-5   -2.290221246194037E-4   -3.811544955267674E-1    3.188696089010668E-1
 1.000569459600000E+10  -4.990948032408561E-1    4.271103709115073E-2    3.732219104518894E-6   -2.379621150842265E-4    2.109255866016917E-5   -2.223715745453922E-4   -3.810620052559822E-1    3.191442052422513E-1
 1.000569953692500E+10  -4.990712864671150E-1    4.312031685575032E-2    7.772353632913904E-6   -2.404302545922360E-4    1.103128380057537E-5   -2.631397905800296E-4   -3.807738112502279E-1    3.196132039167465E-1
 1.000570447785000E+10  -4.990469834324843E-1    4.342329750026340E-2    2.639365114240687E-5   -2.320980635846401E-4    5.174842061138011E-5   -2.622699601197603E-4   -3.804405472746297E-1    3.199084145197023E-1
 1.000570941877500E+10  -4.990314732786168E-1    4.361877513869818E-2    7.588987972067897E-6   -2.290437910492054E-4    4.749443632747462E-5   -2.367813670854293E-4   -3.802436414328549E-1    3.200872444628555E-1
 1.000571435970000E+10  -4.990874578466887E-1    4.402051208137042E-2    2.686748829106158E-5   -2.239539987167706E-4    4.056276278770845E-6   -2.043255672326378E-4   -3.801250979525393E-1    3.203464032487618E-1
 1.000571930062500E+10  -4.991889914727062E-1    4.443260054005047E-2    3.105469884280341E-5   -2.352893176323233E-4    2.919470886137778E-5   -1.971050874759432E-4   -3.797381124844849E-1    3.207443883583370E-1
 1.000572424155000E+10  -4.991048159145788E-1    4.462946735342424E-2    2.130560194393627E-5   -2.327581420491161E-4    1.587737383919500E-5   -2.194541197965540E-4   -3.793846063166582E-1    3.208506728565966E-1
 1.000572918247500E+10  -4.990720318295061E-1    4.497145607266649E-2    2.898036147746905E-5   -2.165930285334654E-4    3.279742866709937E-5   -1.981941711042621E-4   -3.792260869274806E-1    3.212595894546958E-1
 1.000573412340000E+10  -4.991100472349610E-1    4.546539681379872E-2    4.137947552691250E-5   -1.914987182656969E-4    4.286596804964669E-5   -1.977321116975471E-4   -3.791384575229305E-1    3.216157509773111E-1
 1.000573906432500E+10  -4.990724522353330E-1    4.570645981148046E-2    4.912489594601306E-5   -1.758242713046039E-4    4.134288059633117E-5   -1.984333709209833E-4   -3.787559456831778E-1    3.220269778203197E-1
 1.000574400525000E+10  -4.990312386281908E-1    4.600766501564343E-2    5.585262838375543E-5   -2.016744929560477E-4    5.141492938810883E-5   -1.643701681543837E-4   -3.785934625691407E-1    3.224454560880052E-1
 1.000574894617500E+10  -4.989547559128970E-1    4.629903156139450E-2    4.620979213975202E-5   -1.706402189772531E-4    6.787363404853579E-5   -1.786150449005493E-4   -3.782755995057975E-1    3.226641245068672E-1
 1.000575388710000E+10  -4.988671364372485E-1    4.659762622097773E-2    4.476646743023152E-5   -1.637155596702402E-4    3.460258471033141E-5   -1.448414191650236E-4   -3.779865504868087E-1    3.230583954377537E-1
 1.000575882802500E+10  -4.988665213074225E-1    4.694701541151364E-2    6.630292313354453E-5   -1.569574859378560E-4    4.870768104726364E-5   -1.638188959991598E-4   -3.776649384463159E-1    3.232250001735575E-1
 1.000576376895000E+10  -4.988907260015156E-1    4.721992637587738E-2    5.648973010751096E-5   -1.428628034991660E-4    8.532245112891289E-5   -1.141962262070926E-4   -3.775800790589526E-1    3.235157480211172E-1
 1.000576870987500E+10  -4.989893604239120E-1    4.749946715052009E-2    6.484511126566489E-5   -1.192893718587755E-4    7.842900591504881E-5   -1.191533866522043E-4   -3.772911884124103E-1    3.239522231388667E-1
 1.000577365080000E+10  -4.988846496729424E-1    4.797912851090973E-2    9.374843789818748E-5   -1.406315203001798E-4    9.220084523412749E-5   -9.022640476039659E-5   -3.769581558767419E-1    3.240837851469858E-1
 1.000577859172500E+10  -4.988655174234603E-1    4.828129537691898E-2    1.034054463980457E-4   -1.375996935577572E-4    8.868847662801359E-5   -9.638072966537654E-5   -3.766783450706296E-1    3.244183233467485E-1
 1.000578353265000E+10  -4.987604380630123E-1    4.851482019156268E-2    6.698161376630331E-5   -1.383608283769939E-4    9.780509720033535E-5   -1.449669406728419E-4   -3.762510282350240E-1    3.247858157484765E-1
 1.000578847357500E+10  -4.987408903043978E-1    4.874449623547870E-2    1.344248864295508E-4   -9.651313168923766E-5    9.808325333998140E-5   -7.049997234649080E-5   -3.761194749407145E-1    3.250464499699229E-1
 1.000579341450000E+10  -4.986298771116462E-1    4.927920647776262E-2    5.070347843996611E-5   -1.208572955908911E-4    9.616288495912649E-5   -8.478098437332097E-5   -3.759264834632443E-1    3.254153576874904E-1
 1.000579835542500E+10  -4.987452001069881E-1    4.949237366172349E-2    9.114329002085631E-5   -1.033199859376198E-4    1.002666802945242E-4   -9.803599022395815E-5   -3.756716575664235E-1    3.257475462033106E-1
 1.000580329635000E+10  -4.987636949957699E-1    4.990419551219995E-2    1.161610151093007E-4   -8.062819382439324E-5    1.274990036262156E-4   -7.201895926805019E-5   -3.753235306921248E-1    3.260206081882528E-1
 1.000580823727500E+10  -4.986104752379730E-1    5.017223809833594E-2    9.698398862247137E-5   -7.376764883487469E-5    9.309600672182599E-5   -7.299117080865527E-5   -3.751299633598600E-1    3.262631713860481E-1
 1.000581317820000E+10  -4.987298009653116E-1    5.043671914731522E-2    1.145072592147246E-4   -5.682364952534868E-5    1.252820867972339E-4   -4.975505018583892E-5   -3.746258392229392E-1    3.267391294619073E-1
 1.000581811912500E+10  -4.985473756969524E-1    5.087521746081720E-2    1.284404109900933E-4   -4.880019667983157E-5    1.364264317713550E-4   -4.695052466119955E-5   -3.743923504691434E-1    3.270673072334470E-1
 1.000582306005000E+10  -4.987041344982616E-1    5.114473070875563E-2    1.190530676395208E-4   -3.771447500638851E-5    1.312570097588777E-4   -2.536827889763496E-5   -3.743370003023700E-1    3.273567576128616E-1
 1.000582800097500E+10  -4.986077664867576E-1    5.141038377556954E-2    1.436203582487750E-4   -5.199583964595635E-5    1.276587644163328E-4   -2.601142564006663E-5   -3.738933980422109E-1    3.275753530606196E-1
 1.000583294190000E+10  -4.985307942381335E-1    5.171138404497370E-2    1.546671138290057E-4   -3.106449172110285E-5    1.480832232621409E-4   -5.731785547427616E-5   -3.739761118079140E-1    3.278017568521754E-1
 1.000583788282500E+10  -4.985469490101620E-1    5.221427399986169E-2    1.733862321927746E-4   -3.264062957580193E-6    1.303947751051819E-4   -3.106299449923483E-5   -3.733577030585326E-1    3.282779821359770E-1
 1.000584282375000E+10  -4.985907440348969E-1    5.233627949861593E-2    1.687786619481710E-4   -8.286861996146767E-6    1.600057361092103E-4    2.367283549162917E-6   -3.732137911400364E-1    3.285866633366701E-1
 1.000584776467500E+10  -4.985117947201096E-1    5.268061418876538E-2    1.824967195195956E-4    8.758090654791619E-6    1.563253885390141E-4    6.715347888759885E-6   -3.728410103297522E-1    3.288736470552525E-1
 1.000585270560000E+10  -4.984035486093308E-1    5.296999272852233E-2    1.879368951312766E-4   -6.449798368615703E-6    1.548661854119418E-4    2.163814744886965E-5   -3.725118585134637E-1    3.293301006884439E-1
 1.000585764652500E+10  -4.983751785009407E-1    5.347121403020252E-2    1.732517900997524E-4    5.046832044201848E-5    1.769347354071836E-4    2.837868795711066E-5   -3.722069435843765E-1    3.295343668767060E-1
 1.000586258745000E+10  -4.984656860604426E-1    5.371237634747661E-2    1.748853525550178E-4    1.251375023450582E-5    2.153339371236041E-4    3.799548291265305E-5   -3.719639657457735E-1    3.297961550873924E-1
 1.000586752837500E+10  -4.983998316863451E-1    5.398121536539095E-2    2.003483953677455E-4    4.487599597037896E-5    1.784545158161922E-4    3.919885096611570E-5   -3.718008015423442E-1    3.300843137153859E-1
 1.000587246930000E+10  -4.982755630842923E-1    5.436214612416591E-2    2.221542912640681E-4    3.908401389937902E-5    2.023475907542188E-4    6.875141432276270E-5   -3.712413634130456E-1    3.304644225146400E-1
 1.000587741022500E+10  -4.984081289919131E-1    5.475702866106272E-2    2.230960085547199E-4    6.060632259137901E-5    2.590665812280826E-4    8.753243099633139E-5   -3.711215526264361E-1    3.307406344646120E-1
 1.000588235115000E+10  -4.983061497221066E-1    5.492495612335446E-2    1.915587387989786E-4    7.015381902522055E-5    2.220912669253494E-4    8.210608355707156E-5   -3.708041591583203E-1    3.311396380318889E-1
 1.000588729207500E+10  -4.982813717616526E-1    5.534997676157149E-2    2.309685066618527E-4    4.758637933931424E-5    2.364641521869441E-4    6.333392842559786E-5   -3.706205023951396E-1    3.315505214663745E-1
 1.000589223300000E+10  -4.982868790273556E-1    5.550673420766785E-2    2.307985629838097E-4    9.150221245050759E-5    2.258106277673683E-4    9.351297694468710E-5   -3.701845100730335E-1    3.317207164030961E-1
 1.000589717392500E+10  -4.982026694513316E-1    5.582669111114401E-2    2.625515997971635E-4    9.417753580258397E-5    2.328354471759491E-4    9.086143105547123E-5   -3.699306628736332E-1    3.322504283344280E-1
 1.000590211485000E+10  -4.982192692848364E-1    5.623752477593653E-2    2.711284697900208E-4    1.103505627482945E-4    2.555483177442637E-4    1.111446672670276E-4   -3.695990026403707E-1    3.323899436940018E-1
 1.000590705577500E+10  -4.982028647616527E-1    5.651388839896664E-2    2.632870450456955E-4    1.065933445508140E-4    2.730753620951590E-4    1.362097883569094E-4   -3.691688935902332E-1    3.326796560946104E-1
 1.000591199670000E+10  -4.981566869286219E-1    5.692739421156560E-2    2.870373160726041E-4    1.328722347610120E-4    2.634352608272518E-4    1.259400642086188E-4   -3.688780915775366E-1    3.331783756324834E-1
 1.000591693762500E+10  -4.981634530281442E-1    5.726494416777459E-2    2.726662407039591E-4    1.458016714969122E-4    2.765133316426792E-4    1.439029569071074E-4   -3.687364458999153E-1    3.334507807047720E-1
 1.000592187855000E+10  -4.981938585562641E-1    5.746221895769744E-2    3.178217554148291E-4    1.848140922013955E-4    2.758015822646793E-4    1.394623676482489E-4   -3.682656521382042E-1    3.338358519490280E-1
 1.000592681947500E+10  -4.981378142620987E-1    5.778747497361853E-2    3.048135933855090E-4    1.808066363757904E-4    2.981181578148244E-4    1.741403564459129E-4   -3.680291892740913E-1    3.341288680096944E-1
 1.000593176040000E+10  -4.980833589744274E-1    5.815886636187529E-2    3.244882754824895E-4    1.647092484290948E-4    3.132412527804376E-4    1.650809796730457E-4   -3.678306205131587E-1    3.345137143632239E-1
 1.000593670132500E+10  -4.978364116185460E-1    5.840809590203522E-2    3.364153392907888E-4    2.166296584954153E-4    3.112790585773305E-4    2.131121643451178E-4   -3.674190712708562E-1    3.346724574511436E-1
 1.000594164225000E+10  -4.980460254764926E-1    5.878406178647397E-2    3.388262999788540E-4    1.752180451613147E-4    2.972191756002448E-4    2.144195335494954E-4   -3.670761367382416E-1    3.352609909065559E-1
