#  HZ   S   RI   R     50.00 
! Rohde & Schwarz Vector Network Analyzer 
! Rohde-Schwarz,ZNB20-2Port,1311601062101988,3.16
! Created: UTC 3/20/2024, 11:43:35 AM
! freq[Hz]                re:S11                  im:S11                  re:S21                  im:S21                  re:S12                  im:S12                  re:S22                  im:S22
 1.000547305000000E+10  -4.997701978285173E-1    2.843888526677656E-2   -1.386747339272101E-4   -4.768799396786136E-4   -6.953323293535875E-5   -4.554111374477827E-4   -3.910494018666415E-1    3.058219730086081E-1
 1.000547807757500E+10  -4.998312736302479E-1    2.855055699971425E-2   -9.868969818477284E-5   -4.359463729803277E-4   -7.154209342819090E-5   -4.593793293876739E-4   -3.908094900991158E-1    3.061959491881970E-1
 1.000548310515000E+10  -4.996546885657561E-1    2.907866079121105E-2   -9.758983080847348E-5   -4.658713164561053E-4   -9.930911782315395E-5   -4.632263351211622E-4   -3.906640426274567E-1    3.065883190936157E-1
 1.000548813272500E+10  -4.997960796849468E-1    2.938336156995021E-2   -1.332009454646536E-4   -4.276622892749191E-4   -8.738759864910083E-5   -4.602754161989419E-4   -3.903277983224643E-1    3.067724491345462E-1
 1.000549316030000E+10  -4.998272883513701E-1    2.957495125390812E-2   -1.160154940460167E-4   -4.461171337662209E-4   -7.829267366744121E-5   -4.401580344691181E-4   -3.902015167140516E-1    3.070327403191465E-1
 1.000549818787500E+10  -4.997278370263491E-1    2.999461434953651E-2   -1.161512132917216E-4   -4.513516851371605E-4   -8.598627409137938E-5   -4.354366381851980E-4   -3.900547960990628E-1    3.074887667374038E-1
 1.000550321545000E+10  -4.996431414378498E-1    3.030674871140519E-2   -8.619971727429830E-5   -4.121506187872320E-4   -7.277416084356880E-5   -4.429039550667565E-4   -3.897320147879608E-1    3.077279611094361E-1
 1.000550824302500E+10  -4.997303372705578E-1    3.067372023547461E-2   -1.258807419808427E-4   -4.345705377811809E-4   -7.022614966326711E-5   -4.366235026458172E-4   -3.895255557981193E-1    3.081234607589188E-1
 1.000551327060000E+10  -4.996838940938652E-1    3.094558149305081E-2   -1.089684626255279E-4   -4.219606104550644E-4   -7.407762281030444E-5   -4.218033551307934E-4   -3.892767214314464E-1    3.083306036663270E-1
 1.000551829817500E+10  -4.997348427966218E-1    3.130261963753059E-2   -1.192260791889180E-4   -4.095009135631995E-4   -7.885729330815971E-5   -4.215510044876349E-4   -3.891884792821959E-1    3.085272207599533E-1
 1.000552332575000E+10  -4.997754718776675E-1    3.161798629413554E-2   -1.072540211596447E-4   -4.432002839537818E-4   -1.075985024331666E-4   -4.260141105161129E-4   -3.889714626122597E-1    3.088291592008083E-1
 1.000552835332500E+10  -4.996501620491178E-1    3.193948703869897E-2   -1.023120444053051E-4   -4.166659397815145E-4   -5.834138693669184E-5   -3.906476935311704E-4   -3.886925641945553E-1    3.090729704412254E-1
 1.000553338090000E+10  -4.996372767437002E-1    3.226351406544079E-2   -9.106401474817155E-5   -4.076962422667107E-4   -7.781160317945829E-5   -4.017023186549868E-4   -3.885122146921198E-1    3.094397509511127E-1
 1.000553840847500E+10  -4.997840737970973E-1    3.261498046636906E-2   -9.956498130196380E-5   -4.036434672150627E-4   -7.332119279928982E-5   -3.943311303458021E-4   -3.881955309984085E-1    3.097635828520940E-1
 1.000554343605000E+10  -4.997381057441715E-1    3.284907107051088E-2   -8.674232697810304E-5   -4.040397984307343E-4   -9.674258101865532E-5   -4.100354088345716E-4   -3.879517518773713E-1    3.101256549289506E-1
 1.000554846362500E+10  -4.996241096042451E-1    3.326992938890141E-2   -6.940204120408872E-5   -3.935525623314194E-4   -6.374830446238254E-5   -3.890518961578237E-4   -3.878967082109026E-1    3.103907858954643E-1
 1.000555349120000E+10  -4.994539170103662E-1    3.353893844142995E-2   -5.252927703806736E-5   -3.922053016348290E-4   -3.341361330974584E-5   -3.703833971368815E-4   -3.876447859528578E-1    3.107406969265116E-1
 1.000555851877500E+10  -4.995493476335654E-1    3.391044925160471E-2   -6.674936075180920E-5   -3.780958601305737E-4   -4.004738016798703E-5   -4.019889809864465E-4   -3.873028805017427E-1    3.109798833050091E-1
 1.000556354635000E+10  -4.996263805869561E-1    3.430617287280014E-2   -8.183739196920569E-5   -3.900839121215886E-4   -5.625986084210593E-5   -3.883410243734360E-4   -3.870871958481528E-1    3.112907994586329E-1
 1.000556857392500E+10  -4.994889646075069E-1    3.450899860354172E-2   -6.324522546046307E-5   -3.735013447810367E-4   -3.937937841672209E-5   -3.363012706590669E-4   -3.867399341895091E-1    3.116686658698508E-1
 1.000557360150000E+10  -4.995586518118216E-1    3.486661795661589E-2   -7.051156823266349E-5   -3.673235755815454E-4   -5.122398531322748E-5   -3.580988170193163E-4   -3.868348683063280E-1    3.118425500216582E-1
 1.000557862907500E+10  -4.994824615127921E-1    3.520959105822116E-2   -4.511211544189112E-5   -3.897134233244266E-4   -3.264679927135839E-5   -3.811122199255655E-4   -3.864057285863184E-1    3.121906165037375E-1
 1.000558365665000E+10  -4.995063173587428E-1    3.556639005821081E-2   -4.808146065102767E-5   -3.902339888909046E-4   -5.619559001575069E-5   -3.327166868595454E-4   -3.861643253613317E-1    3.123409225434300E-1
 1.000558868422500E+10  -4.995457280967368E-1    3.591694996149730E-2   -7.791218193879679E-5   -3.639650722300287E-4   -6.748850231509470E-5   -3.447704992241689E-4   -3.859723294238177E-1    3.127811387744750E-1
 1.000559371180000E+10  -4.994608399553361E-1    3.614698151796514E-2   -6.479440645669598E-5   -3.390131366846786E-4   -4.861447363650364E-5   -3.539725395500544E-4   -3.858031439223885E-1    3.131116524408924E-1
 1.000559873937500E+10  -4.995066205348921E-1    3.661418674573418E-2   -6.685385006076771E-5   -3.507322113533691E-4   -5.869720197093428E-5   -3.497135115120081E-4   -3.854743834912733E-1    3.132925080566133E-1
 1.000560376695000E+10  -4.995324654828437E-1    3.687358020821644E-2   -6.226258604133888E-5   -3.511458810325296E-4   -3.917632554834889E-5   -3.223411757908559E-4   -3.852336985262727E-1    3.137241540918963E-1
 1.000560879452500E+10  -4.995132824283131E-1    3.716630077863782E-2   -5.992740343061234E-5   -3.274877797515053E-4   -4.771121894347608E-5   -3.343540445353184E-4   -3.851131800061633E-1    3.140464009496500E-1
 1.000561382210000E+10  -4.993862403474950E-1    3.749770915819572E-2   -4.441186443218141E-5   -3.221063764214649E-4   -3.174409726197126E-5   -3.286340199280903E-4   -3.848020475455708E-1    3.143492745693247E-1
 1.000561884967500E+10  -4.994470811204673E-1    3.785454106898942E-2   -4.808316768593970E-5   -3.097198172931359E-4    1.459970363731031E-5   -2.885514483800023E-4   -3.845612535115653E-1    3.145538133273617E-1
 1.000562387725000E+10  -4.994447557326900E-1    3.826153558748799E-2   -3.570515367405241E-5   -3.001814962243316E-4   -2.474247268098194E-5   -3.130210659039761E-4   -3.843746733716381E-1    3.150509304345696E-1
 1.000562890482500E+10  -4.993529318048190E-1    3.851229174429997E-2   -2.667680478281394E-5   -3.159494778186113E-4   -3.206418769768806E-5   -3.200573313505913E-4   -3.840864440639168E-1    3.152026308941591E-1
 1.000563393240000E+10  -4.992638841175913E-1    3.870141204929029E-2   -5.598744579622917E-5   -3.038311888817683E-4    1.877874540923135E-5   -3.312246608612867E-4   -3.838123608066130E-1    3.155098103774150E-1
 1.000563895997500E+10  -4.993826549288001E-1    3.916853646264994E-2   -5.110535547417450E-5   -3.010467570362161E-4   -2.011228871361632E-5   -2.733131383895764E-4   -3.835388245896102E-1    3.158717976454758E-1
 1.000564398755000E+10  -4.994522706665809E-1    3.941988338549161E-2   -3.656326241739812E-5   -2.886160670232874E-4   -3.092487347357836E-5   -2.870823719819923E-4   -3.833650410912084E-1    3.161099434189876E-1
 1.000564901512500E+10  -4.993519074911805E-1    3.986761953266163E-2   -5.895095577508792E-6   -3.018126449992201E-4   -4.815644124746702E-6   -2.787716870228004E-4   -3.830597871789067E-1    3.164441048370130E-1
 1.000565404270000E+10  -4.993719037314600E-1    4.016158393220191E-2   -3.450683515227638E-5   -2.668373620690714E-4   -1.401922020149378E-5   -2.645183584844572E-4   -3.829524766838255E-1    3.168458737413928E-1
 1.000565907027500E+10  -4.991901609946467E-1    4.054551481948560E-2   -2.147831574002510E-5   -2.627271163258626E-4   -2.294331743300667E-5   -2.818605712114604E-4   -3.827447401343647E-1    3.169940619091615E-1
 1.000566409785000E+10  -4.993165572352430E-1    4.072627326833419E-2   -3.335331044278434E-5   -2.779342425850509E-4    8.628859118063216E-6   -2.687398352392484E-4   -3.823638571352775E-1    3.173786000848480E-1
 1.000566912542500E+10  -4.993865223334760E-1    4.121057020797521E-2   -2.917441447225983E-5   -2.509944096981490E-4    5.813536176920878E-6   -2.913935976043492E-4   -3.821431487316809E-1    3.176806649787124E-1
 1.000567415300000E+10  -4.991368651772569E-1    4.144187850056404E-2   -1.007135173499361E-5   -2.572604458515234E-4   -3.571591700127299E-7   -2.517458868839379E-4   -3.819122460666067E-1    3.180613594400913E-1
 1.000567918057500E+10  -4.992002441872421E-1    4.182677460793054E-2   -2.445322388758340E-5   -2.319933376230843E-4   -1.235709283929660E-5   -2.419311375041315E-4   -3.817289213884474E-1    3.183276163934311E-1
 1.000568420815000E+10  -4.992196733358626E-1    4.215631182075891E-2   -1.011750917516477E-5   -2.271206242266666E-4   -2.101399009293816E-5   -2.322210864984907E-4   -3.813996400240006E-1    3.186636350174702E-1
 1.000568923572500E+10  -4.991151803092430E-1    4.236172557328428E-2   -1.415464786018462E-5   -2.321407650751605E-4    2.138806540023301E-5   -2.470984829336431E-4   -3.811698170788673E-1    3.189763109416288E-1
 1.000569426330000E+10  -4.991171693102910E-1    4.272959767212531E-2    1.216045471770700E-5   -2.258299738207426E-4    2.147114955556773E-5   -2.106292291693375E-4   -3.810314970966840E-1    3.193505422316027E-1
 1.000569929087500E+10  -4.990112789743845E-1    4.298157821267780E-2    3.203822960257004E-5   -2.350997773005811E-4    1.122190518493278E-5   -2.274619409543111E-4   -3.806894321313865E-1    3.194767623580785E-1
 1.000570431845000E+10  -4.992334126191730E-1    4.352228812377213E-2    1.178823348565830E-5   -2.395723495170562E-4    4.230628090498768E-5   -2.362228765906812E-4   -3.803244998571498E-1    3.197348142373444E-1
 1.000570934602500E+10  -4.990531718297223E-1    4.373544618626400E-2    2.982314365745603E-5   -2.322752513104689E-4    4.327496081676718E-5   -2.306368564725024E-4   -3.802943212808035E-1    3.202828351037533E-1
 1.000571437360000E+10  -4.991266298665332E-1    4.404495848577211E-2    3.479196754874711E-5   -2.006727765553856E-4    5.113961194832720E-5   -2.340268356761944E-4   -3.799763946970808E-1    3.204656174073086E-1
 1.000571940117500E+10  -4.990169386703728E-1    4.440644302893728E-2    4.573683327084491E-5   -1.986564849508167E-4    7.476379370468846E-5   -1.881569655964934E-4   -3.796553152165930E-1    3.208094797695199E-1
 1.000572442875000E+10  -4.990114429516758E-1    4.475634781859485E-2    1.942765531557992E-5   -1.975948550227070E-4    3.283249362629048E-6   -1.885491000756319E-4   -3.794445428547979E-1    3.212173597288550E-1
 1.000572945632500E+10  -4.990054389422749E-1    4.514104804175218E-2    5.813966751325234E-5   -1.565452669099596E-4    2.407356731726756E-5   -1.874490542540773E-4   -3.791515599898924E-1    3.215159981919393E-1
 1.000573448390000E+10  -4.989855864233841E-1    4.533234142666856E-2    4.707545930251452E-5   -1.540473410798733E-4    4.425969397617463E-5   -1.878836203098493E-4   -3.789322618627760E-1    3.216524368166272E-1
 1.000573951147500E+10  -4.991057750352877E-1    4.568041695949004E-2    3.168506987593251E-5   -1.910118280081767E-4    5.098877069032997E-5   -1.617530584938080E-4   -3.784815505257114E-1    3.221015536047259E-1
 1.000574453905000E+10  -4.989975559194412E-1    4.602001740610718E-2    8.887404922025614E-5   -1.696776543879739E-4    6.662963084040921E-5   -1.286623467938209E-4   -3.784416822436098E-1    3.224113572078115E-1
 1.000574956662500E+10  -4.989047788394083E-1    4.621531381508429E-2    6.171291833265949E-5   -1.646334229080232E-4    9.254233243022531E-5   -1.662076417724321E-4   -3.780869350138780E-1    3.226592949438553E-1
 1.000575459420000E+10  -4.988646709428858E-1    4.666043170932251E-2    6.577897284233793E-5   -1.364784115778886E-4    9.223901705887319E-5   -1.481061154311817E-4   -3.777319071421442E-1    3.229336213924571E-1
 1.000575962177500E+10  -4.988594859557694E-1    4.691736290295685E-2    9.435532907433289E-5   -1.699638968309118E-4    8.480250066088564E-5   -1.231262863691965E-4   -3.777272170103911E-1    3.233138085786892E-1
 1.000576464935000E+10  -4.988663457231867E-1    4.729592009346052E-2    7.734433089601966E-5   -1.528797001717486E-4    7.172131798656357E-5   -8.833647744498161E-5   -3.773291864488526E-1    3.236096335616971E-1
 1.000576967692500E+10  -4.988186440931656E-1    4.760839885704334E-2    9.322072119779191E-5   -1.431426328271616E-4    9.632889531396557E-5   -1.346301984878732E-4   -3.771080481414913E-1    3.240292606708185E-1
 1.000577470450000E+10  -4.988129281040516E-1    4.806169516322874E-2    6.181523576332984E-5   -1.169948609242663E-4    8.787713931707304E-5   -1.000024364909755E-4   -3.768235895356081E-1    3.242043442348365E-1
 1.000577973207500E+10  -4.986702723262962E-1    4.828586331055965E-2    1.250244211493219E-4   -1.046383534049043E-4    1.049906907496868E-4   -1.054023355050249E-4   -3.763942613968421E-1    3.245236184238801E-1
 1.000578475965000E+10  -4.988399986280360E-1    4.858139489343507E-2    1.322577676092776E-4   -1.168709445519497E-4    1.105836048426666E-4   -1.129507734078164E-4   -3.762034625719355E-1    3.248946341153798E-1
 1.000578978722500E+10  -4.987553945257203E-1    4.899288892056154E-2    9.608112967631080E-5   -1.103261463022933E-4    7.523489756058929E-5   -7.150151387631375E-5   -3.759618827479031E-1    3.251569151329174E-1
 1.000579481480000E+10  -4.987282842788248E-1    4.925391126923788E-2    8.225530583176197E-5   -9.535441309849071E-5    1.283124921248194E-4   -9.343636488543914E-5   -3.757448779533812E-1    3.255086037292053E-1
 1.000579984237500E+10  -4.987813690477814E-1    4.963305137903747E-2    1.088994495523670E-4   -6.543661861672186E-5    1.022182038104875E-4   -7.704341318898148E-5   -3.754821064412300E-1    3.258814611743444E-1
 1.000580486995000E+10  -4.985881252463633E-1    4.996477236875537E-2    1.434871663228773E-4   -6.963403070945324E-5    1.178419290459079E-4   -6.972272843743226E-5   -3.752671240194035E-1    3.261020728826604E-1
 1.000580989752500E+10  -4.986851779017479E-1    5.017558117615449E-2    1.647627172500327E-4   -7.278132523097256E-5    1.326286720581033E-4   -8.507773516930271E-5   -3.749156631686155E-1    3.264454411993730E-1
 1.000581492510000E+10  -4.986696661507657E-1    5.062386612937259E-2    1.316323598631332E-4   -3.339306567145141E-5    1.066191221760181E-4   -5.244314829426242E-5   -3.745984592859787E-1    3.268689635789186E-1
 1.000581995267500E+10  -4.985492973488060E-1    5.081906581071104E-2    1.368305851871022E-4   -4.201177893694596E-5    1.574823999624867E-4   -6.394368765744929E-5   -3.744116583643123E-1    3.271832001315889E-1
 1.000582498025000E+10  -4.985518021145168E-1    5.122194101057049E-2    1.464124227996504E-4   -3.482546081138058E-5    1.396040472895454E-4   -3.159594046029956E-5   -3.739518200102345E-1    3.275286086235428E-1
 1.000583000782500E+10  -4.985498066841936E-1    5.148136712513670E-2    1.392441024495573E-4   -4.504094564719728E-5    1.652547106635142E-4   -4.266423177810093E-5   -3.738362647006446E-1    3.278049019262519E-1
 1.000583503540000E+10  -4.986349352870700E-1    5.195010878096060E-2    1.706830548431579E-4   -1.549837175804760E-5    1.738445344168516E-4   -2.314713469949062E-5   -3.734611989156107E-1    3.281220186035041E-1
 1.000584006297500E+10  -4.985336504019801E-1    5.223974717436366E-2    1.513612836281453E-4   -2.931112244296156E-5    1.655848147874460E-4   -7.767101054056389E-6   -3.731368100308479E-1    3.285625233868141E-1
 1.000584509055000E+10  -4.984816984643199E-1    5.261367180202431E-2    1.864432376272518E-4    1.086645803311241E-5    2.141883525727576E-4    1.921992194178523E-5   -3.730350429495115E-1    3.287739932514276E-1
 1.000585011812500E+10  -4.984975958466192E-1    5.291463770410642E-2    2.123855499274226E-4    3.201968028797894E-5    1.729459728356667E-4    2.381350836536866E-5   -3.725740014269268E-1    3.290264295224348E-1
 1.000585514570000E+10  -4.984013579754337E-1    5.320814210335266E-2    2.130236479321455E-4    3.595874395789421E-5    1.546075124469615E-4    3.533439807617219E-5   -3.722783367168342E-1    3.294899386815880E-1
 1.000586017327500E+10  -4.985500960028342E-1    5.358333097277011E-2    2.133664359977687E-4    2.504337878661283E-5    1.941350241684804E-4    2.419753685205178E-5   -3.719686643395257E-1    3.297049016249965E-1
 1.000586520085000E+10  -4.982775465750823E-1    5.382062395880630E-2    2.188761324960149E-4    2.161258660657707E-5    1.824856494658527E-4    4.106971523667942E-5   -3.717159609074995E-1    3.301042907891067E-1
 1.000587022842500E+10  -4.983177226143981E-1    5.411016253543233E-2    2.452964432729011E-4    7.895190964455157E-5    2.163493288426689E-4    5.178358642648333E-5   -3.713681169401798E-1    3.303661942281467E-1
 1.000587525600000E+10  -4.984139622338663E-1    5.463194958591145E-2    2.244838012578382E-4    5.901377214332753E-5    2.292065409086855E-4    8.891865640894943E-5   -3.710573874670061E-1    3.307880684761862E-1
 1.000588028357500E+10  -4.983897248233630E-1    5.498127343193345E-2    2.229049623182408E-4    6.415647219983938E-5    2.544587945241555E-4    9.730925048674465E-5   -3.707157900589790E-1    3.311557082027643E-1
 1.000588531115000E+10  -4.982612494209694E-1    5.523361388064769E-2    2.321854493333740E-4    5.780155716279929E-5    2.414132166078234E-4    1.067456048957180E-4   -3.703767688312770E-1    3.312818295317216E-1
 1.000589033872500E+10  -4.981836517244256E-1    5.545833014215264E-2    2.570568808872818E-4    9.399600986658560E-5    2.281941639622424E-4    9.602478660126528E-5   -3.701374404101263E-1    3.317941956456651E-1
 1.000589536630000E+10  -4.983003531200060E-1    5.585660288074053E-2    2.653619470226496E-4    8.340323781314315E-5    2.978980267789319E-4    1.256219892155837E-4   -3.698323866876146E-1    3.319620447834133E-1
 1.000590039387500E+10  -4.982373299291251E-1    5.606675612885033E-2    2.790189487788046E-4    1.071837899407520E-4    2.780564711674837E-4    1.415917408784744E-4   -3.693761523752844E-1    3.323880459858519E-1
 1.000590542145000E+10  -4.982759898667432E-1    5.641286855500949E-2    3.026356286744466E-4    1.309133562581174E-4    2.724896358627878E-4    1.355467712262067E-4   -3.691733075982225E-1    3.327942522937464E-1
 1.000591044902500E+10  -4.982322807622862E-1    5.678371478332742E-2    2.782200731149918E-4    1.347853386771014E-4    2.973358394121291E-4    1.573145929684951E-4   -3.688065157911560E-1    3.330623461376680E-1
 1.000591547660000E+10  -4.980960173411608E-1    5.706555423796648E-2    3.003415220282931E-4    1.463461202474959E-4    2.926920615447608E-4    1.571186756754475E-4   -3.685247804266565E-1    3.332822164702903E-1
 1.000592050417500E+10  -4.982532683052389E-1    5.753849063153720E-2    3.262962980878694E-4    1.554101418793827E-4    3.093278378779041E-4    1.580461855014548E-4   -3.683026938044920E-1    3.336398317410278E-1
 1.000592553175000E+10  -4.980300836403012E-1    5.771864487781983E-2    3.229778278446990E-4    1.798110490018944E-4    3.092715469747758E-4    1.630155476777989E-4   -3.677931633479974E-1    3.340216096460800E-1
