#  HZ   S   RI   R     50.00 
! Rohde & Schwarz Vector Network Analyzer 
! Rohde-Schwarz,ZNB20-2Port,1311601062101988,3.16
! Created: UTC 3/20/2024, 11:43:37 AM
! freq[Hz]                re:S11                  im:S11                  re:S21                  im:S21                  re:S12                  im:S12                  re:S22                  im:S22
 1.000547495500000E+10  -4.997764229122865E-1    2.855923377039144E-2   -1.277991299070773E-4   -4.951822786072151E-4   -7.769341319281855E-5   -4.748723956020846E-4   -3.910322826065497E-1    3.061432082267551E-1
 1.000547996877500E+10  -4.997745631380793E-1    2.879318881672959E-2   -9.594038411904120E-5   -4.484221986290564E-4   -6.824414860691458E-5   -4.341260923444415E-4   -3.907915373068335E-1    3.063407442416662E-1
 1.000548498255000E+10  -4.997123430693245E-1    2.927031151553477E-2   -1.179451852712451E-4   -4.536376816076847E-4   -9.991769578642824E-5   -4.374364557279974E-4   -3.906807571598230E-1    3.067309770048303E-1
 1.000548999632500E+10  -4.998100818973173E-1    2.954792780725370E-2   -9.085773786994832E-5   -4.535636889630929E-4   -1.062470619787722E-4   -4.437082724728023E-4   -3.903338634341809E-1    3.070164241603978E-1
 1.000549501010000E+10  -4.998407732852249E-1    2.986006390755259E-2   -1.180070207768258E-4   -4.432589990156928E-4   -6.613561851327353E-5   -4.412451932606376E-4   -3.900636946287926E-1    3.071305682125917E-1
 1.000550002387500E+10  -4.996152750493266E-1    3.008920270806723E-2   -1.241497176226105E-4   -4.270059932425193E-4   -8.818763107685091E-5   -4.319474390412202E-4   -3.899524297464409E-1    3.074463122813820E-1
 1.000550503765000E+10  -4.996537343554712E-1    3.037198918471097E-2   -8.489949811153737E-5   -4.357237593648136E-4   -9.493784608069863E-5   -4.592698215491292E-4   -3.896669184804756E-1    3.076888692171112E-1
 1.000551005142500E+10  -4.996437362941048E-1    3.071226984727423E-2   -1.013303143987460E-4   -4.364109906428233E-4   -6.189326598483908E-5   -4.307277087112593E-4   -3.893880996366501E-1    3.081252811574293E-1
 1.000551506520000E+10  -4.996912813483489E-1    3.108980090872004E-2   -1.147611340097685E-4   -3.875320595609769E-4   -7.893325579977539E-5   -4.072263437973999E-4   -3.893948701485792E-1    3.083156024632617E-1
 1.000552007897500E+10  -4.995965649757220E-1    3.137617014396286E-2   -9.098231603509159E-5   -4.317108061148944E-4   -9.439807994417068E-5   -3.940972436859475E-4   -3.890571460538787E-1    3.086661220813411E-1
 1.000552509275000E+10  -4.996829390239159E-1    3.164598354536606E-2   -9.761540683657136E-5   -4.144236466617786E-4   -8.963657005969713E-5   -4.243231364928248E-4   -3.888927477835906E-1    3.088407899190714E-1
 1.000553010652500E+10  -4.997312285762320E-1    3.199054921865848E-2   -9.232863277695517E-5   -3.729143273711328E-4   -3.994342136826407E-5   -4.230526935778093E-4   -3.885670041454586E-1    3.093840381924265E-1
 1.000553512030000E+10  -4.996260745288839E-1    3.245424371448656E-2   -9.776147857324808E-5   -4.055579652308526E-4   -8.143523147402817E-5   -4.050703778766629E-4   -3.882960235819490E-1    3.096694715943680E-1
 1.000554013407500E+10  -4.995247274343271E-1    3.281185638447717E-2   -8.967294582001452E-5   -4.227503611149313E-4   -8.006831922568727E-5   -4.022245781373714E-4   -3.880699108958515E-1    3.099148052414787E-1
 1.000554514785000E+10  -4.996365986849163E-1    3.307234548845831E-2   -1.124431850137487E-4   -3.679496183973458E-4   -5.014140607591342E-5   -4.077398323869210E-4   -3.880048073514984E-1    3.101555349959195E-1
 1.000555016162500E+10  -4.996815838119402E-1    3.345015278004396E-2   -7.668533675468992E-5   -3.974685056321571E-4   -6.942368163266358E-5   -3.831557631112390E-4   -3.876790584501924E-1    3.104211370659070E-1
 1.000555517540000E+10  -4.995973114960033E-1    3.359022859598888E-2   -8.325999330606468E-5   -3.706944719892774E-4   -5.504640058632195E-5   -3.911459045659339E-4   -3.874543565381864E-1    3.107658829458740E-1
 1.000556018917500E+10  -4.995038022930703E-1    3.394259385074773E-2   -9.578776354202535E-5   -3.719176791187558E-4   -5.231480267718621E-5   -3.630407884762535E-4   -3.873714318475083E-1    3.110937548710658E-1
 1.000556520295000E+10  -4.995511916684435E-1    3.435076849430146E-2   -5.636664091887775E-5   -3.665679399638534E-4   -3.652545979729321E-5   -3.859730259455923E-4   -3.869232114758022E-1    3.113710022882682E-1
 1.000557021672500E+10  -4.995806184120057E-1    3.464561373462183E-2   -8.742143916597815E-5   -3.563616363953731E-4   -5.571894682002767E-5   -3.788673808818038E-4   -3.868440886404573E-1    3.117413448636126E-1
 1.000557523050000E+10  -4.996427709822610E-1    3.493938259991136E-2   -7.444178956520071E-5   -3.753014842387799E-4   -8.394403558593571E-5   -3.799155435806370E-4   -3.865893669123846E-1    3.120453882043422E-1
 1.000558024427500E+10  -4.994850832643771E-1    3.533853888509713E-2   -6.633535031629513E-5   -3.429471645018909E-4   -4.310159776117002E-5   -3.943463150021456E-4   -3.863912762280177E-1    3.123307644797060E-1
 1.000558525805000E+10  -4.994572646966359E-1    3.569690116898680E-2   -7.474952943633979E-5   -3.510817728310662E-4   -1.789353494530426E-5   -3.458619526839806E-4   -3.861195914989997E-1    3.126646023197053E-1
 1.000559027182500E+10  -4.994640094993432E-1    3.592387336342954E-2   -7.864722979599138E-5   -3.372375644456062E-4   -2.060327737142578E-5   -3.574351850590197E-4   -3.858312727512779E-1    3.128611840860339E-1
 1.000559528560000E+10  -4.994534982578659E-1    3.628838499687884E-2   -6.685067440087299E-5   -3.494730666921579E-4   -3.597711838780321E-5   -3.386862875221866E-4   -3.856376023810651E-1    3.132472479123490E-1
 1.000560029937500E+10  -4.995126170049546E-1    3.665253808298980E-2   -7.883243783312192E-5   -3.427677829655202E-4   -3.017551141919023E-5   -3.246423797130215E-4   -3.854419011034786E-1    3.135097281517104E-1
 1.000560531315000E+10  -4.994113239488355E-1    3.699701172889477E-2   -3.756578050763990E-5   -3.481074075709327E-4   -4.015729304172693E-5   -3.392736996229705E-4   -3.851908621397216E-1    3.138701138179482E-1
 1.000561032692500E+10  -4.994660428889840E-1    3.736758402777891E-2   -4.912541578331335E-5   -3.309343705637769E-4   -4.030717885202445E-5   -3.219363410009254E-4   -3.849150563775078E-1    3.143159085644328E-1
 1.000561534070000E+10  -4.995033780339174E-1    3.756940992083716E-2   -3.400575343846174E-5   -3.416552593832660E-4   -1.454444332218340E-5   -3.185381658444567E-4   -3.846337680783036E-1    3.144198400950884E-1
 1.000562035447500E+10  -4.994262841686693E-1    3.798881201518309E-2   -5.049017389600696E-5   -3.365884218806752E-4    1.906296154519488E-6   -3.174715555962534E-4   -3.844264614967622E-1    3.146414250420992E-1
 1.000562536825000E+10  -4.992699169111135E-1    3.839188703761559E-2   -1.892308356052924E-5   -3.161324644738583E-4   -8.642365268773652E-6   -3.053680908526857E-4   -3.843151909422999E-1    3.150064201025156E-1
 1.000563038202500E+10  -4.992720779165353E-1    3.852250875369895E-2   -2.207599430154634E-5   -3.343776004246231E-4   -4.453337777740095E-5   -2.934622777749952E-4   -3.839606831119334E-1    3.152776197509868E-1
 1.000563539580000E+10  -4.993667754209972E-1    3.892942856162345E-2   -1.865757243306629E-5   -2.958871593999686E-4   -4.009275052765941E-5   -3.057057063764857E-4   -3.839011650132394E-1    3.156059424549862E-1
 1.000564040957500E+10  -4.993427669008610E-1    3.926765430902516E-2   -3.163542110521312E-5   -3.014561235773294E-4   -2.019342423327861E-5   -2.906606021514806E-4   -3.834373011676000E-1    3.159800766809435E-1
 1.000564542335000E+10  -4.994058131629520E-1    3.951221724276144E-2   -4.757576913278381E-5   -2.868232760637245E-4   -4.720855954860396E-5   -3.025431281087948E-4   -3.832530367393808E-1    3.162584001336214E-1
 1.000565043712500E+10  -4.992224444354301E-1    3.995015596146905E-2   -1.814679388446399E-5   -2.871368543859058E-4   -1.992921281795125E-5   -2.781865381345579E-4   -3.831505980824040E-1    3.166774192741801E-1
 1.000565545090000E+10  -4.992240578391852E-1    4.028100164439265E-2   -3.234238825644765E-5   -2.799657544523336E-4   -1.438864070447491E-5   -2.860530239597048E-4   -3.827554057025323E-1    3.168574480870708E-1
 1.000566046467500E+10  -4.992604323516935E-1    4.052518882377622E-2   -2.122719778914022E-5   -2.836027431252400E-4    5.373909489782374E-6   -2.833721150041550E-4   -3.826540194676760E-1    3.171667011233119E-1
 1.000566547845000E+10  -4.992879329718731E-1    4.085351531952786E-2   -1.607033342178549E-5   -2.762917018221920E-4   -8.894145241847346E-6   -2.626811822107728E-4   -3.822648678226744E-1    3.175494685999302E-1
 1.000567049222500E+10  -4.991618664700352E-1    4.137447559427741E-2    1.363262799081107E-5   -2.697906358593126E-4   -2.643552962562240E-5   -2.571055372239559E-4   -3.821392065902093E-1    3.178209858818282E-1
 1.000567550600000E+10  -4.992993343118808E-1    4.156141095399114E-2   -3.210317630972068E-5   -2.507205909276221E-4    8.495068943332116E-6   -2.522763187176805E-4   -3.819289091797013E-1    3.182183471922831E-1
 1.000568051977500E+10  -4.992568097094831E-1    4.183349314667688E-2    9.839153012281404E-6   -2.276610977760385E-4    2.333436499551937E-5   -2.701448000470925E-4   -3.814790130210052E-1    3.184900881701963E-1
 1.000568553355000E+10  -4.991310354045643E-1    4.234286740957714E-2   -7.210645500240817E-6   -2.540081217525889E-4   -9.347717484665780E-6   -2.432608093745944E-4   -3.813632830699935E-1    3.188339488793122E-1
 1.000569054732500E+10  -4.991283147992372E-1    4.243735512519375E-2    1.818191853982534E-5   -2.248081780628183E-4    4.105065588187855E-6   -2.316187857916511E-4   -3.811159773539886E-1    3.189934286017488E-1
 1.000569556110000E+10  -4.991118049160434E-1    4.302798452649242E-2    4.431061387725104E-5   -2.256743010440336E-4    3.901077924310940E-5   -2.328500066835676E-4   -3.807451248989555E-1    3.194672643005916E-1
 1.000570057487500E+10  -4.990632342778992E-1    4.316617026706935E-2    4.691555458569225E-5   -2.261884091517045E-4    4.108529846951926E-5   -2.273068265907826E-4   -3.806404478014995E-1    3.197668647222057E-1
 1.000570558865000E+10  -4.991114249735641E-1    4.352762926889734E-2    2.094973061547988E-5   -2.106203239572693E-4    3.044951118435964E-5   -2.066744769573726E-4   -3.803478555400696E-1    3.200374268771797E-1
 1.000571060242500E+10  -4.992056963118525E-1    4.404831172695128E-2    2.605784941650522E-5   -2.004394504007074E-4    5.362532254098057E-5   -2.135730148991452E-4   -3.801496752552200E-1    3.202154325110728E-1
 1.000571561620000E+10  -4.991293513689875E-1    4.427621087022605E-2    5.263147310695912E-5   -1.938005693830042E-4    5.772846707832026E-5   -1.995575834802315E-4   -3.798168753896160E-1    3.205311808648363E-1
 1.000572062997500E+10  -4.988877226081738E-1    4.442790997245879E-2    4.637387048370587E-5   -2.080027936313541E-4    6.555607317993438E-5   -2.112959593996354E-4   -3.794754891615278E-1    3.207336428058367E-1
 1.000572564375000E+10  -4.989774819558773E-1    4.471611032686735E-2    5.631291943899022E-5   -1.745818896100870E-4    4.851819894145276E-5   -1.869139891812564E-4   -3.792713374264883E-1    3.211720376670330E-1
 1.000573065752500E+10  -4.989872827028289E-1    4.513267802637655E-2    2.531786165293368E-5   -1.904077813996947E-4    5.960754132559192E-5   -1.686026111602998E-4   -3.789848358731298E-1    3.214580079567739E-1
 1.000573567130000E+10  -4.990492289048571E-1    4.539362329378890E-2    5.732486832170843E-5   -2.024545159941732E-4    2.823461104270052E-5   -1.456148286286465E-4   -3.788783666930525E-1    3.218227737671602E-1
 1.000574068507500E+10  -4.988866958862097E-1    4.580362311121838E-2    4.729726048378512E-5   -1.670697209444666E-4    4.291302226050374E-5   -1.603852886600467E-4   -3.785547786835624E-1    3.221578496284643E-1
 1.000574569885000E+10  -4.989176140363801E-1    4.609619761655914E-2    4.405888669406320E-5   -1.649041850611711E-4    6.640940349891091E-5   -1.506308834324355E-4   -3.782159604604872E-1    3.224102163826716E-1
 1.000575071262500E+10  -4.988936510165095E-1    4.652361879373322E-2    5.910263926123471E-5   -1.423807402008598E-4    4.820735452469146E-5   -1.605624950329538E-4   -3.779231378682581E-1    3.226444055101516E-1
 1.000575572640000E+10  -4.989416095669771E-1    4.685284447458219E-2    9.531006713797195E-5   -1.436818190434287E-4    9.630459934442606E-5   -1.171754943818950E-4   -3.777806214983718E-1    3.230695219063986E-1
 1.000576074017500E+10  -4.991074037267391E-1    4.712419984541266E-2    1.027790217714119E-4   -1.108494963475610E-4    7.362594722336019E-5   -1.421667171411416E-4   -3.774596303287652E-1    3.235361690008454E-1
 1.000576575395000E+10  -4.987037347047357E-1    4.741364965795208E-2    8.991121229554312E-5   -1.543301604228953E-4    1.038420423404452E-4   -1.117541528032561E-4   -3.772296945693896E-1    3.237988776132265E-1
 1.000577076772500E+10  -4.988955274499585E-1    4.778324911288107E-2    9.423136591002569E-5   -1.361442170443788E-4    7.029558233784280E-5   -1.271730891535942E-4   -3.769946625203623E-1    3.239403282312011E-1
 1.000577578150000E+10  -4.989743346220654E-1    4.809408154912705E-2    1.142525097761522E-4   -1.321847145648650E-4    1.100569584056953E-4   -9.858106274347906E-5   -3.768256790395657E-1    3.243384810004314E-1
 1.000578079527500E+10  -4.988986196905352E-1    4.847556634903259E-2    1.143184309535007E-4   -8.724484871208532E-5    9.744176353866984E-5   -1.133805872843938E-4   -3.763872136046153E-1    3.246047803062973E-1
 1.000578580905000E+10  -4.988246237964398E-1    4.877281234069748E-2    1.164148816105155E-4   -9.110988800265050E-5    1.152061473574624E-4   -9.873443572268049E-5   -3.760743124252066E-1    3.250099922349022E-1
 1.000579082282500E+10  -4.986916190352335E-1    4.910682437839105E-2    7.653405202499799E-5   -9.737029620264803E-5    1.011362687807151E-4   -9.635297068143966E-5   -3.758329871571620E-1    3.253415974464792E-1
 1.000579583660000E+10  -4.986901030105871E-1    4.936574228481674E-2    1.306956508456224E-4   -5.678425107063295E-5    1.263329577611050E-4   -8.434570595937808E-5   -3.756896089475013E-1    3.256818033146858E-1
 1.000580085037500E+10  -4.986713985342675E-1    4.969965208009951E-2    1.394510661469640E-4   -8.089815752120419E-5    1.437103975565339E-4   -6.998668690158752E-5   -3.754820284102152E-1    3.258881659549991E-1
 1.000580586415000E+10  -4.986758908764767E-1    5.000877687451058E-2    1.293573423319851E-4   -9.068223485150475E-5    1.153811424083663E-4   -4.419007927373775E-5   -3.751582329401352E-1    3.263261334013167E-1
 1.000581087792500E+10  -4.985990889310640E-1    5.045196722316788E-2    1.232020314456716E-4   -2.373262941711623E-5    1.418121596634030E-4   -5.472201916354184E-5   -3.747501465895903E-1    3.265197000402553E-1
 1.000581589170000E+10  -4.986922057485375E-1    5.056576871501640E-2    1.904200846506266E-4   -4.191548876547909E-5    1.056707740437457E-4   -5.757632599465274E-5   -3.745539742519013E-1    3.268094520559877E-1
 1.000582090547500E+10  -4.987109144003576E-1    5.103172071618404E-2    1.639719180004323E-4   -4.740130286134187E-5    1.499835566034362E-4   -6.242137729133127E-5   -3.741582441083149E-1    3.272679695026687E-1
 1.000582591925000E+10  -4.985880409129243E-1    5.129439525050931E-2    1.729920334958841E-4   -2.465788346339090E-5    1.345516466764011E-4   -2.984290194030043E-5   -3.739772620647813E-1    3.275949153806864E-1
 1.000583093302500E+10  -4.986703487289662E-1    5.165704327697288E-2    1.901267637560336E-4   -1.428993289316696E-5    1.553630150187008E-4   -1.743480588602885E-5   -3.736100915402541E-1    3.278477896893064E-1
 1.000583594680000E+10  -4.985600521543185E-1    5.199400740121021E-2    1.819584029042437E-4    6.876823196690824E-6    1.477113814011589E-4   -1.828938851111441E-5   -3.733911858483682E-1    3.282364078083911E-1
 1.000584096057500E+10  -4.985489637884594E-1    5.220203275909693E-2    2.045288435429998E-4   -3.479996420794214E-5    1.673462191884385E-4    1.667139974992137E-5   -3.730329266446843E-1    3.285043186007000E-1
 1.000584597435000E+10  -4.985069918120842E-1    5.266487546910099E-2    2.051247232900171E-4    7.615393112116394E-6    1.787737547664107E-4    1.093766634672429E-5   -3.727566701666360E-1    3.288382621311755E-1
 1.000585098812500E+10  -4.985071364915788E-1    5.296269286280740E-2    2.113773097851108E-4    3.058916527146660E-5    1.837234086773986E-4    2.878757898889618E-5   -3.724113315838683E-1    3.291680431185056E-1
 1.000585600190000E+10  -4.984469347995734E-1    5.326604414459423E-2    1.833141575469462E-4    3.597555369253062E-5    2.099084749663023E-4    3.839166179090217E-5   -3.721006209828537E-1    3.294657233256177E-1
 1.000586101567500E+10  -4.984275057148111E-1    5.362050194389087E-2    1.927583105617962E-4    5.851125265523889E-5    2.307676879737806E-4    6.322554546797564E-5   -3.717346101614318E-1    3.299126231515254E-1
 1.000586602945000E+10  -4.983276352717604E-1    5.392863992625110E-2    2.183486579742567E-4    6.061333222250136E-5    1.920048293289584E-4    3.597613489997546E-5   -3.716009811700061E-1    3.301826377023249E-1
 1.000587104322500E+10  -4.982844263491043E-1    5.415764593045503E-2    2.093385429030192E-4    5.911272500735578E-5    2.220935897580576E-4    8.329132635594438E-5   -3.711997081230752E-1    3.304475929362526E-1
 1.000587605700000E+10  -4.983302668298838E-1    5.459874917366552E-2    2.120366273053527E-4    6.377179990481098E-5    2.395930183024157E-4    1.079876055443357E-4   -3.711308446347106E-1    3.308036733479067E-1
 1.000588107077500E+10  -4.983416361484545E-1    5.487866467728270E-2    2.328728269718568E-4    8.090723659631767E-5    2.485538271462210E-4    7.163174155627218E-5   -3.706213950956327E-1    3.311592775509777E-1
 1.000588608455000E+10  -4.981820146804632E-1    5.522809523700323E-2    2.686854713143567E-4    5.540315572471738E-5    2.411184144870495E-4    8.475873139075932E-5   -3.703205612839905E-1    3.314293958529164E-1
 1.000589109832500E+10  -4.982168821473169E-1    5.554078361681312E-2    2.653777086994132E-4    7.776525007487984E-5    2.555494499480267E-4    9.725092599037653E-5   -3.701552195555455E-1    3.317983262631454E-1
 1.000589611210000E+10  -4.981465761915378E-1    5.580455960742867E-2    2.804500941430336E-4    1.182427908395639E-4    2.750831501524631E-4    1.056836082567267E-4   -3.698877753748047E-1    3.321601482027752E-1
 1.000590112587500E+10  -4.983480220550451E-1    5.614795221174376E-2    2.842494751843120E-4    1.150648439254379E-4    2.662130043899685E-4    1.412575289615571E-4   -3.694227289761775E-1    3.324378153280281E-1
 1.000590613965000E+10  -4.982131078713132E-1    5.651354469350488E-2    3.256988511984529E-4    1.403835385115295E-4    2.860682511865288E-4    1.272739658796968E-4   -3.691047490132532E-1    3.328137973966529E-1
 1.000591115342500E+10  -4.982117147124482E-1    5.676845476624286E-2    2.782073037041448E-4    1.477495976155133E-4    2.712801710463211E-4    1.387742160781995E-4   -3.687641210622845E-1    3.331026680905327E-1
 1.000591616720000E+10  -4.981214667750006E-1    5.717965184824712E-2    3.196310220679698E-4    1.405205290256360E-4    3.046626013562991E-4    1.299857531382998E-4   -3.684032789979958E-1    3.334671583601498E-1
 1.000592118097500E+10  -4.981284469062954E-1    5.741036854488960E-2    3.386901534630784E-4    1.511681538911488E-4    2.789311916436994E-4    2.045498087139169E-4   -3.681775553159269E-1    3.338958080422628E-1
 1.000592619475000E+10  -4.980949793657242E-1    5.774656228278011E-2    3.224824889514999E-4    1.696616873419062E-4    2.880625840137480E-4    1.908289347522811E-4   -3.679826107511273E-1    3.340130562089598E-1
