#  HZ   S   RI   R     50.00 
! Rohde & Schwarz Vector Network Analyzer 
! Rohde-Schwarz,ZNB20-2Port,1311601062101988,3.16
! Created: UTC 3/20/2024, 11:43:54 AM
! freq[Hz]                re:S11                  im:S11                  re:S21                  im:S21                  re:S12                  im:S12                  re:S22                  im:S22
 1.000544530200000E+10  -4.998313378235144E-1    2.656871589030525E-2   -1.094266225171978E-4   -5.079117973715029E-4   -1.453111938743656E-4   -4.722973088453025E-4   -3.921588194249048E-1    3.042720915263773E-1
 1.000545042645000E+10  -4.999490258810291E-1    2.673623476672456E-2   -1.319766082509880E-4   -4.866020403846563E-4   -9.427048115601746E-5   -4.848439174523488E-4   -3.920577545249401E-1    3.046463675246285E-1
 1.000545555090000E+10  -4.997662870826327E-1    2.719286395945946E-2   -1.016612487177344E-4   -4.600113404247654E-4   -7.903149125262717E-5   -4.740870992506005E-4   -3.918385852149681E-1    3.049170529715814E-1
 1.000546067535000E+10  -4.998987163847055E-1    2.746097272625829E-2   -1.090297130215047E-4   -4.727338708654591E-4   -1.007232936190534E-4   -4.896895630390517E-4   -3.915669833563045E-1    3.052726431523727E-1
 1.000546579980000E+10  -4.995938796080740E-1    2.790256697424327E-2   -1.376450331083098E-4   -4.409470437691934E-4   -8.117055037208291E-5   -4.699443395142306E-4   -3.914556171563862E-1    3.054676260731477E-1
 1.000547092425000E+10  -4.997207275917114E-1    2.822782092428967E-2   -1.256444407938701E-4   -4.578611881777166E-4   -7.965718069302973E-5   -4.586497466706199E-4   -3.910988626848184E-1    3.058579160433189E-1
 1.000547604870000E+10  -4.997443860660195E-1    2.850941143590692E-2   -1.082623849287347E-4   -4.332853948076484E-4   -7.240580920190107E-5   -4.176056198858819E-4   -3.908718151755073E-1    3.062152764444812E-1
 1.000548117315000E+10  -4.997416679068943E-1    2.883548253565617E-2   -1.019916874822350E-4   -4.408206595949044E-4   -6.443538463509423E-5   -4.544075661607474E-4   -3.906391702906310E-1    3.063460030105130E-1
 1.000548629760000E+10  -4.997779589189625E-1    2.921507992396372E-2   -9.745938542797756E-5   -4.594661504583106E-4   -8.649789096731576E-5   -4.596654170265215E-4   -3.904018581457792E-1    3.066794872754105E-1
 1.000549142205000E+10  -4.997073218358685E-1    2.968720054895046E-2   -1.283019994974630E-4   -4.303489047671124E-4   -5.788531358686137E-5   -4.260223043315520E-4   -3.901817903896216E-1    3.069662493394353E-1
 1.000549654650000E+10  -4.996140493691251E-1    2.995340646967272E-2   -8.648014882368810E-5   -4.353557225640795E-4   -9.324014424537119E-5   -4.120163785567651E-4   -3.900210732213414E-1    3.073201844881601E-1
 1.000550167095000E+10  -4.996884469527824E-1    3.020670496717295E-2   -8.985472910440524E-5   -4.365763624668177E-4   -6.154272276910952E-5   -4.065939359220078E-4   -3.898060882472388E-1    3.077055839104941E-1
 1.000550679540000E+10  -4.995894843874860E-1    3.057927377359474E-2   -1.180367732695804E-4   -4.406687985484248E-4   -4.322617837322626E-5   -4.217798042740163E-4   -3.896868711819109E-1    3.078373147969724E-1
 1.000551191985000E+10  -4.996403669338382E-1    3.088634794154180E-2   -7.223911877263505E-5   -4.460440588639730E-4   -7.656620040033269E-5   -4.242384042776937E-4   -3.893588714141349E-1    3.081090739391213E-1
 1.000551704430000E+10  -4.996774289585894E-1    3.128637053557899E-2   -7.766286991943917E-5   -3.825309929051862E-4   -7.994819558458829E-5   -4.119848787122496E-4   -3.891971423437057E-1    3.085482793864531E-1
 1.000552216875000E+10  -4.996009159832255E-1    3.160962610160913E-2   -9.312439433720029E-5   -3.912121910933391E-4   -6.996230073518009E-5   -3.946023109381681E-4   -3.888216269488943E-1    3.090177605589643E-1
 1.000552729320000E+10  -4.995651444748491E-1    3.184841790815701E-2   -4.795681344910160E-5   -4.462128009235559E-4   -6.533325458545388E-5   -4.035872214889958E-4   -3.887370441260154E-1    3.091024561605841E-1
 1.000553241765000E+10  -4.996134676095834E-1    3.207264275963836E-2   -9.789686776898896E-5   -3.896233167428016E-4   -4.585370417055951E-5   -3.758930053490700E-4   -3.884622397919796E-1    3.094039112891706E-1
 1.000553754210000E+10  -4.995114868465217E-1    3.254829786531604E-2   -9.768346124636652E-5   -4.020635073730467E-4   -3.838466180129662E-5   -3.985236729070286E-4   -3.882134195168937E-1    3.096971556515228E-1
 1.000554266655000E+10  -4.996871217243795E-1    3.291217215977937E-2   -7.782019957894664E-5   -4.127548861036094E-4   -4.838596243635676E-5   -3.915211986623598E-4   -3.879774642963395E-1    3.101966821049597E-1
 1.000554779100000E+10  -4.995425269878006E-1    3.321908211815012E-2   -8.841546359686782E-5   -3.985588529363723E-4   -3.687245443569834E-5   -3.881385459363451E-4   -3.877519617923147E-1    3.103447910072126E-1
 1.000555291545000E+10  -4.995440758459376E-1    3.374852559988892E-2   -8.368678740898275E-5   -3.592615214141618E-4   -5.555955354295768E-5   -3.857974741277460E-4   -3.874456799218301E-1    3.106129546213702E-1
 1.000555803990000E+10  -4.995892863697416E-1    3.393027694012342E-2   -7.849265434578384E-5   -3.959222339194415E-4   -4.376709490602457E-5   -3.779885708044119E-4   -3.872003432319125E-1    3.110586131961378E-1
 1.000556316435000E+10  -4.994197164753532E-1    3.430804381985261E-2   -8.258087531663456E-5   -3.959360435198165E-4   -3.824401392022929E-5   -3.420431516617946E-4   -3.870857889579048E-1    3.113689062734804E-1
 1.000556828880000E+10  -4.995171478787048E-1    3.452698363102129E-2   -8.262527310514313E-5   -3.624997953496628E-4   -4.584855850060277E-5   -3.579981708560518E-4   -3.867771365921777E-1    3.116200386078037E-1
 1.000557341325000E+10  -4.996075834299237E-1    3.492944153781147E-2   -5.115649844226658E-5   -3.519528346220406E-4   -2.824856471363707E-5   -3.399476806268088E-4   -3.865278071464650E-1    3.119451551242477E-1
 1.000557853770000E+10  -4.994377977689379E-1    3.536027245703541E-2   -8.875958403255480E-5   -3.678365324925857E-4   -4.262774139644177E-5   -3.390736859181719E-4   -3.862782048802904E-1    3.122909275735480E-1
 1.000558366215000E+10  -4.994557020411804E-1    3.559885196064797E-2   -6.579785909259859E-5   -3.366985785023163E-4   -4.254180327436856E-5   -3.391891183647245E-4   -3.860452956853848E-1    3.124906321655996E-1
 1.000558878660000E+10  -4.995759817843676E-1    3.594714064057761E-2   -6.363577202820338E-5   -3.459688908146535E-4   -1.625904907593929E-5   -3.671367012627294E-4   -3.858934020646925E-1    3.129231721066274E-1
 1.000559391105000E+10  -4.995381327242946E-1    3.617201554811181E-2   -9.598049455817810E-5   -3.586872196784049E-4   -4.630654447147558E-5   -3.276128043138830E-4   -3.856298813793230E-1    3.131379449240286E-1
 1.000559903550000E+10  -4.994289458749426E-1    3.653322819267386E-2   -6.861198885489804E-5   -3.356122561174472E-4   -4.307044990883898E-5   -3.350989836581685E-4   -3.853261660597949E-1    3.135220477895963E-1
 1.000560415995000E+10  -4.995326034889004E-1    3.693315726346391E-2   -3.345919012179039E-5   -3.324925676756595E-4   -3.633196277050397E-5   -3.568398571350753E-4   -3.851689360068971E-1    3.137835606719972E-1
 1.000560928440000E+10  -4.994179585255138E-1    3.726470323810824E-2   -2.327067149140015E-5   -3.406109651393055E-4   -3.579054553739469E-5   -3.397573886120922E-4   -3.849927259090042E-1    3.140717522947309E-1
 1.000561440885000E+10  -4.993263818604969E-1    3.757227797889118E-2   -5.097480412415743E-5   -2.949361768549189E-4   -4.226152951722851E-5   -2.865774449533660E-4   -3.845843307199768E-1    3.144096465196605E-1
 1.000561953330000E+10  -4.993929193050028E-1    3.797965036902319E-2   -3.850940386571025E-5   -3.396037321194571E-4   -1.751622070316658E-5   -3.256940558482961E-4   -3.844423674458007E-1    3.147723751713532E-1
 1.000562465775000E+10  -4.993353381884078E-1    3.832111167364698E-2   -3.376631644763484E-5   -2.923255936373115E-4   -1.861057053155594E-5   -3.015238173905743E-4   -3.841586483132476E-1    3.150383161676122E-1
 1.000562978220000E+10  -4.993586759413921E-1    3.862301733340111E-2   -2.727329769657180E-5   -3.380486119389610E-4   -1.494223528367319E-5   -2.980749789700142E-4   -3.839246989658010E-1    3.154283093084457E-1
 1.000563490665000E+10  -4.994362682303109E-1    3.904240121980573E-2   -4.110042238546504E-5   -3.105777231071609E-4   -1.623047064516302E-5   -3.088672095253564E-4   -3.837095429905618E-1    3.157123271424928E-1
 1.000564003110000E+10  -4.993877132849098E-1    3.921314618687894E-2   -2.461482407415405E-5   -2.877716590489236E-4   -4.330777172420114E-6   -3.094198495922037E-4   -3.834258754183577E-1    3.159888691467688E-1
 1.000564515555000E+10  -4.993512939231095E-1    3.953117201636956E-2   -3.623957923480124E-5   -2.794247329194852E-4   -2.385308235450102E-5   -2.719625975703533E-4   -3.833270878245094E-1    3.163272868581475E-1
 1.000565028000000E+10  -4.992690068930450E-1    3.989879884095560E-2   -4.975471270257215E-5   -2.769400204983225E-4   -1.354976997398395E-6   -2.780277630790968E-4   -3.829773530083773E-1    3.165052243407461E-1
 1.000565540445000E+10  -4.993171411642676E-1    4.017490527089842E-2   -1.426460288912472E-5   -2.884169506458324E-4   -4.090805780926512E-6   -2.622482572680268E-4   -3.827125240118096E-1    3.168742616091193E-1
 1.000566052890000E+10  -4.993804610485111E-1    4.045085337975553E-2   -2.817469560609215E-5   -2.834719666128473E-4    1.148399305806831E-5   -2.512811008587100E-4   -3.824306701731828E-1    3.172427150722310E-1
 1.000566565335000E+10  -4.992216414463242E-1    4.092659034546025E-2    7.801574492926379E-6   -2.503924340295894E-4    7.112375294975444E-6   -2.283825785520695E-4   -3.822071519944085E-1    3.176424052282014E-1
 1.000567077780000E+10  -4.990972404648788E-1    4.120148426098556E-2   -6.947186609019548E-6   -2.573262360722267E-4   -1.693756943014908E-6   -2.390458560112383E-4   -3.819526091074631E-1    3.178345077945897E-1
 1.000567590225000E+10  -4.991896462939515E-1    4.165761241245110E-2   -6.587382064620111E-6   -2.188270834741200E-4    3.334085187555651E-5   -2.655341594507787E-4   -3.817905400746122E-1    3.180966330456626E-1
 1.000568102670000E+10  -4.992366367020772E-1    4.196410862938663E-2    1.510448963224988E-5   -2.228490808677716E-4   -1.492201539331299E-6   -2.067123614894657E-4   -3.813944557099387E-1    3.184969757871161E-1
 1.000568615115000E+10  -4.991988084412781E-1    4.224231139160942E-2    1.466774222963945E-5   -2.336667244700755E-4    2.147234389139218E-5   -2.185661626639976E-4   -3.811704795642726E-1    3.188646920751737E-1
 1.000569127560000E+10  -4.991669743578083E-1    4.267968307782601E-2    1.030309252101110E-5   -2.467291658411440E-4    5.686118957085023E-5   -2.242691661121085E-4   -3.809531758106679E-1    3.191315512035155E-1
 1.000569640005000E+10  -4.991178345044416E-1    4.287431366290385E-2    3.702754328456681E-6   -2.134916627971966E-4    3.688831997071253E-5   -2.161354556710418E-4   -3.807794284819477E-1    3.195328716064170E-1
 1.000570152450000E+10  -4.991162672591204E-1    4.330274627095849E-2    3.253605897447311E-5   -2.041686124948117E-4    3.842999297897917E-5   -1.954305441240856E-4   -3.806417821441804E-1    3.198804040893680E-1
 1.000570664895000E+10  -4.991729732850752E-1    4.354394341712896E-2    4.633401422724700E-5   -2.248882230612139E-4    5.480753688934360E-5   -1.820325700146578E-4   -3.803030145177390E-1    3.201332211149142E-1
 1.000571177340000E+10  -4.990973042696822E-1    4.398750943995709E-2    6.502099680219315E-5   -1.869010645025049E-4    3.564270594062868E-5   -1.742074878475517E-4   -3.798990264989167E-1    3.203421511314391E-1
 1.000571689785000E+10  -4.990919802580391E-1    4.417546210517979E-2    5.710724959534693E-5   -2.089921033797974E-4    4.550529770996051E-5   -2.097372806985575E-4   -3.795729271299145E-1    3.208015719835913E-1
 1.000572202230000E+10  -4.991456687261665E-1    4.461680226053530E-2    4.471551448218321E-5   -1.551205642833721E-4    4.203153649769378E-5   -1.741756469126471E-4   -3.794502781103576E-1    3.211633548230770E-1
 1.000572714675000E+10  -4.990144697302649E-1    4.490254239066858E-2    7.603893179346451E-5   -1.557682805140553E-4    5.941116415184807E-5   -1.753670696400561E-4   -3.791269421996001E-1    3.212785734060793E-1
 1.000573227120000E+10  -4.990107464420819E-1    4.522873996743321E-2    7.124252861304467E-5   -1.487914412133519E-4    4.948800471051107E-5   -1.617421344667709E-4   -3.787791177322384E-1    3.217570115389268E-1
 1.000573739565000E+10  -4.990178409021823E-1    4.545761674533515E-2    6.619313802525126E-5   -1.712449700179025E-4    8.600113615395778E-5   -1.574281298169633E-4   -3.786650341226880E-1    3.220101888987841E-1
 1.000574252010000E+10  -4.990515354960278E-1    4.588771915428067E-2    7.386205202435129E-5   -1.453917678933755E-4    6.972658927920465E-5   -1.428317157966022E-4   -3.782457147404084E-1    3.223187303461624E-1
 1.000574764455000E+10  -4.988391455132980E-1    4.631654452902409E-2    8.573629476718659E-5   -1.426192766207241E-4    9.030199945574607E-5   -1.347190843432970E-4   -3.781281868846079E-1    3.226162154025272E-1
 1.000575276900000E+10  -4.988818448985605E-1    4.658982489867804E-2    7.657634729358603E-5   -1.296305273313275E-4    6.006807785445989E-5   -1.410641755548335E-4   -3.776990191642439E-1    3.229514860526616E-1
 1.000575789345000E+10  -4.988792040252533E-1    4.681066637857777E-2    9.197678555017230E-5   -1.405386313909132E-4    9.409086785790117E-5   -1.311070874464351E-4   -3.773752188528661E-1    3.232924615010829E-1
 1.000576301790000E+10  -4.988359042006859E-1    4.720882972581288E-2    1.122117683838989E-4   -1.363613568116895E-4    1.127726924081535E-4   -1.276957756674346E-4   -3.771804567948427E-1    3.236196041345213E-1
 1.000576814235000E+10  -4.988754472685289E-1    4.757166185307353E-2    1.037095958367718E-4   -1.159355954940686E-4    1.070952964012776E-4   -8.715351619645400E-5   -3.770448997062212E-1    3.240148932975487E-1
 1.000577326680000E+10  -4.988247959045670E-1    4.792202716942133E-2    1.060184052035110E-4   -1.330847702238339E-4    1.077108621937689E-4   -9.773686227250676E-5   -3.766883457055196E-1    3.242672305019497E-1
 1.000577839125000E+10  -4.987930071834469E-1    4.817334665357464E-2    1.156923508926264E-4   -1.008649481422907E-4    1.002372041456900E-4   -1.409128408257055E-4   -3.763581446249306E-1    3.244984717261885E-1
 1.000578351570000E+10  -4.987823374844738E-1    4.857658979846059E-2    1.181110988043130E-4   -1.198017217812257E-4    1.079784829289630E-4   -1.075860714793674E-4   -3.760963069602939E-1    3.249590615135718E-1
 1.000578864015000E+10  -4.987807817562588E-1    4.894437979389355E-2    1.077495397968216E-4   -4.552105772581240E-5    1.106699414976768E-4   -6.993505888198195E-5   -3.759719824914279E-1    3.253212954018255E-1
 1.000579376460000E+10  -4.988048000711284E-1    4.935521750917841E-2    1.448569202609317E-4   -1.016816434804458E-4    1.105967456876980E-4   -7.043370619678098E-5   -3.755807730303651E-1    3.255411341383136E-1
 1.000579888905000E+10  -4.987180979755271E-1    4.950495141248384E-2    1.244191295088417E-4   -6.066832918039648E-5    1.134596051307337E-4   -2.329473777001896E-5   -3.753388803615449E-1    3.258482013844348E-1
 1.000580401350000E+10  -4.987895935391101E-1    4.976900211520033E-2    1.322589320996753E-4   -7.389490470319445E-5    1.501141410616616E-4   -1.447174135657153E-5   -3.750456900835094E-1    3.261722926494632E-1
 1.000580913795000E+10  -4.986950212382954E-1    5.018603619133533E-2    1.494172033288337E-4   -1.349451897416358E-5    1.222436896194100E-4   -3.906695964403088E-5   -3.747997715428832E-1    3.264875093260943E-1
 1.000581426240000E+10  -4.985661295112696E-1    5.045068068999239E-2    1.649809381420264E-4   -3.540517944854776E-5    1.641065733173512E-4   -1.115236287664258E-5   -3.746028072157328E-1    3.268651990530579E-1
 1.000581938685000E+10  -4.987194331457222E-1    5.089442819815330E-2    1.810250228046700E-4    2.240341152898651E-6    1.629627191857549E-4   -2.381611377358836E-5   -3.741445308605750E-1    3.271940183885510E-1
 1.000582451130000E+10  -4.985378714534666E-1    5.127363397977876E-2    1.679060319384017E-4   -3.886899156065883E-5    1.793319571621252E-4   -1.706158512199559E-6   -3.738435932030803E-1    3.274939168432915E-1
 1.000582963575000E+10  -4.986135880287035E-1    5.163451150888248E-2    1.887719183355873E-4   -2.343069361268062E-5    1.951151403233579E-4   -3.482276455950785E-6   -3.736487775880543E-1    3.278602098456302E-1
 1.000583476020000E+10  -4.985174436852867E-1    5.198700880333280E-2    1.817155856838982E-4   -1.095774572471919E-6    1.950382048118673E-4   -1.680246172238117E-5   -3.731273130642622E-1    3.282919768515911E-1
 1.000583988465000E+10  -4.983923936981245E-1    5.217448416291001E-2    2.068008059360475E-4   -7.325332293551408E-6    1.633735172397071E-4    3.316058907186796E-5   -3.729321380089859E-1    3.285772392280781E-1
 1.000584500910000E+10  -4.984270503514800E-1    5.254950217714337E-2    2.055868645857170E-4    3.764438523502189E-5    2.110252654191402E-4    1.192201673536191E-5   -3.727577873096491E-1    3.288429246095232E-1
 1.000585013355000E+10  -4.985765116411550E-1    5.280734171851158E-2    2.125361552731922E-4    2.368369858369819E-5    2.013006278588694E-4    5.300822886854904E-5   -3.722793000720486E-1    3.292439894539900E-1
 1.000585525800000E+10  -4.983405262351291E-1    5.324930410969321E-2    2.126680535415661E-4    3.790929237769929E-5    2.170880230941282E-4    5.567655619408326E-5   -3.721482035273580E-1    3.293895980115655E-1
 1.000586038245000E+10  -4.984546589810017E-1    5.353847043048869E-2    2.309006040751389E-4    4.572785195265042E-5    2.057950015714780E-4    6.675127819670969E-5   -3.717261914435089E-1    3.298502052458744E-1
 1.000586550690000E+10  -4.984845695011716E-1    5.383266791633904E-2    2.229141209658188E-4    5.635337031718343E-5    2.357704083653780E-4    5.066830429789250E-5   -3.714340732320911E-1    3.301098718678844E-1
 1.000587063135000E+10  -4.983375811550849E-1    5.412382288297837E-2    2.245293778954689E-4    7.610509739075031E-5    2.375709794914518E-4    9.179831267214542E-5   -3.711128090162149E-1    3.306289762886491E-1
 1.000587575580000E+10  -4.983726061822515E-1    5.454275231116517E-2    2.507341699641222E-4    5.210967250292176E-5    2.268412944312749E-4    9.880267149357600E-5   -3.707736594470049E-1    3.308292466914297E-1
 1.000588088025000E+10  -4.983257951911902E-1    5.487541700230891E-2    2.703811150849952E-4    7.888159658216512E-5    2.380840405515452E-4    7.942745409357560E-5   -3.704686322489211E-1    3.312208414962530E-1
 1.000588600470000E+10  -4.982325587807295E-1    5.514050295460860E-2    2.644456754913850E-4    1.255586420006657E-4    2.737039972940325E-4    1.229626205435024E-4   -3.700665179695676E-1    3.316133444897861E-1
 1.000589112915000E+10  -4.983597482661421E-1    5.560961374170043E-2    2.945247253365219E-4    1.144056012916170E-4    2.859811729421714E-4    1.013713181914504E-4   -3.699750143356245E-1    3.319924472526133E-1
 1.000589625360000E+10  -4.982822394664517E-1    5.598197078264700E-2    2.637434791719994E-4    1.294848068349517E-4    2.881668838382676E-4    9.906397111136745E-5   -3.695692380111969E-1    3.322365545944693E-1
 1.000590137805000E+10  -4.981927144027429E-1    5.617311996553719E-2    2.981261674042133E-4    1.078132382969772E-4    3.142234545608468E-4    1.422955369790262E-4   -3.691780318826650E-1    3.325498421204914E-1
 1.000590650250000E+10  -4.982119668421747E-1    5.661041421305190E-2    2.951804978561253E-4    1.522029143635835E-4    3.129097991931959E-4    1.748565369034191E-4   -3.687704631426033E-1    3.328978402432538E-1
