#  HZ   S   RI   R     50.00 
! Rohde & Schwarz Vector Network Analyzer 
! Rohde-Schwarz,ZNB20-2Port,1311601062101988,3.16
! Created: UTC 3/20/2024, 11:44:16 AM
! freq[Hz]                re:S11                  im:S11                  re:S21                  im:S21                  re:S12                  im:S12                  re:S22                  im:S22
 1.000540403600000E+10  -4.998340737072500E-1    2.390867669514492E-2   -1.386341264915940E-4   -4.886432936142434E-4   -9.478935276514681E-5   -4.981221011407478E-4   -3.939252369264543E-1    3.018240602458581E-1
 1.000540932415000E+10  -4.998072591481245E-1    2.411532885151637E-2   -1.288645267750030E-4   -5.191784233710013E-4   -1.283227715391834E-4   -5.103618895171743E-4   -3.936578254492576E-1    3.021284134437259E-1
 1.000541461230000E+10  -4.998310492038834E-1    2.464050235201147E-2   -1.371486568990163E-4   -5.046746129172672E-4   -1.225365189053448E-4   -4.991788812039135E-4   -3.933498485267203E-1    3.025003693853500E-1
 1.000541990045000E+10  -4.998434938361679E-1    2.489741791734109E-2   -1.100692395390458E-4   -5.058696934584601E-4   -9.860166675343231E-5   -4.829450125355805E-4   -3.932350416695851E-1    3.027058729994552E-1
 1.000542518860000E+10  -4.997383220829234E-1    2.521251963963914E-2   -9.744350719053922E-5   -4.788399900945745E-4   -8.652426590595229E-5   -5.052646733510257E-4   -3.930028045931177E-1    3.030504501301270E-1
 1.000543047675000E+10  -4.996691650272685E-1    2.564172911449097E-2   -1.224443957667911E-4   -4.908111971373744E-4   -9.705555384890845E-5   -4.978146726863567E-4   -3.928184174259621E-1    3.034252712137452E-1
 1.000543576490000E+10  -4.997091188583190E-1    2.590346176837063E-2   -1.192733684705504E-4   -4.874547622009939E-4   -1.110899568074509E-4   -4.694385751301874E-4   -3.925596237087590E-1    3.037263490125720E-1
 1.000544105305000E+10  -4.997820213844114E-1    2.634686110068660E-2   -1.268171431281074E-4   -4.906708173212594E-4   -9.804958740796256E-5   -4.748424272151326E-4   -3.923756896337509E-1    3.040769584510504E-1
 1.000544634120000E+10  -4.998132128546967E-1    2.663317945254128E-2   -1.121604716463152E-4   -4.703189180694262E-4   -1.219820546185173E-4   -4.816334340016475E-4   -3.922077121015001E-1    3.042703289670978E-1
 1.000545162935000E+10  -4.997745680534297E-1    2.704827427112732E-2   -9.907295004285519E-5   -4.635499029211844E-4   -6.092977335446156E-5   -4.818471415044050E-4   -3.917793892905069E-1    3.047313193836965E-1
 1.000545691750000E+10  -4.998358864918209E-1    2.722105883410504E-2   -1.064557728129065E-4   -4.681909140772865E-4   -8.626059978242538E-5   -4.330427676529948E-4   -3.916162342060034E-1    3.048070416159042E-1
 1.000546220565000E+10  -4.997267859549687E-1    2.768856504428474E-2   -1.155152829846497E-4   -4.603378600285851E-4   -5.982476567518587E-5   -4.517597732658805E-4   -3.912973913475398E-1    3.053703939060631E-1
 1.000546749380000E+10  -4.996635888538674E-1    2.803212190403332E-2   -9.371024724500249E-5   -4.469476265096389E-4   -1.011584948930726E-4   -4.665623761032054E-4   -3.911915942113251E-1    3.056202437381556E-1
 1.000547278195000E+10  -4.997286202533688E-1    2.829702549318273E-2   -9.212756141977874E-5   -4.614524745896592E-4   -7.713144440189192E-5   -4.506973783577054E-4   -3.909901690642583E-1    3.059621333400854E-1
 1.000547807010000E+10  -4.998571713231131E-1    2.873497282685072E-2   -8.354650263709277E-5   -4.300583723768889E-4   -7.129723682099785E-5   -4.429321227209457E-4   -3.907685058638602E-1    3.062410266247499E-1
 1.000548335825000E+10  -4.997622029961407E-1    2.910257504093305E-2   -7.924461673425862E-5   -4.570762891194238E-4   -8.312666690636146E-5   -4.063389802846334E-4   -3.904542163794000E-1    3.065637481203482E-1
 1.000548864640000E+10  -4.996950874149328E-1    2.934309408308227E-2   -1.219689035369941E-4   -4.498703785580452E-4   -5.633333942204322E-5   -4.234419337842882E-4   -3.903742889951473E-1    3.068030851775168E-1
 1.000549393455000E+10  -4.996848292515375E-1    2.968889448020989E-2   -1.092899000509204E-4   -4.401475547772181E-4   -4.535537871433079E-5   -4.671617474305059E-4   -3.900161178348749E-1    3.071231079555689E-1
 1.000549922270000E+10  -4.996492404322555E-1    3.006342713725194E-2   -1.025211602182416E-4   -4.168870147479456E-4   -7.341439571504036E-5   -3.960542747599116E-4   -3.897360546639443E-1    3.075329537650228E-1
 1.000550451085000E+10  -4.996791614635513E-1    3.029796569690204E-2   -8.032164677165021E-5   -4.103968683743640E-4   -5.801495645447173E-5   -4.176177233165012E-4   -3.896072108743505E-1    3.077248915481377E-1
 1.000550979900000E+10  -4.996780321671380E-1    3.073785923034739E-2   -7.389350107711374E-5   -4.098007086617052E-4   -7.933457144787380E-5   -4.092675009084838E-4   -3.894390637550407E-1    3.081273562056781E-1
 1.000551508715000E+10  -4.996375914542895E-1    3.104742745717171E-2   -8.299032875328867E-5   -4.313294718235991E-4   -6.665833528355550E-5   -3.898281549315988E-4   -3.891448732265044E-1    3.084197760973661E-1
 1.000552037530000E+10  -4.995984634175933E-1    3.139084640458967E-2   -7.894034717016585E-5   -3.802418728926793E-4   -6.756804155714056E-5   -3.959345913703520E-4   -3.889880566747627E-1    3.088718541640639E-1
 1.000552566345000E+10  -4.997983696128480E-1    3.188929448918026E-2   -8.243162492211465E-5   -3.744575807238376E-4   -6.472724691963616E-5   -3.620304319216158E-4   -3.886786529357999E-1    3.090308558094688E-1
 1.000553095160000E+10  -4.996153532282491E-1    3.207773384465112E-2   -8.370628401316978E-5   -4.159843297620059E-4   -4.065738645884106E-5   -3.908134936327742E-4   -3.885619408627221E-1    3.093602423449498E-1
 1.000553623975000E+10  -4.995865268162694E-1    3.233287573989627E-2   -9.132124409125975E-5   -3.787136364507222E-4   -5.165341411059222E-5   -3.972236132835638E-4   -3.882465288359413E-1    3.095989752645660E-1
 1.000554152790000E+10  -4.996534730274320E-1    3.288266515872711E-2   -7.202811012581585E-5   -3.607780510721116E-4   -6.381813225359418E-5   -3.653957289762259E-4   -3.879439777941776E-1    3.100499106169132E-1
 1.000554681605000E+10  -4.995436296124482E-1    3.315171234253329E-2   -8.756188461819670E-5   -3.919608318701317E-4   -5.447097296267431E-5   -3.986226563918962E-4   -3.876675540186479E-1    3.104176241774181E-1
 1.000555210420000E+10  -4.996213794326166E-1    3.352870742452432E-2   -5.865753603609575E-5   -3.743979335209009E-4   -4.867542128021421E-5   -3.939894528406367E-4   -3.875238716773778E-1    3.106426548572874E-1
 1.000555739235000E+10  -4.995589515454067E-1    3.380762592495238E-2   -7.021234911204840E-5   -3.605563698996892E-4   -5.737679689868754E-5   -3.767655852989165E-4   -3.871856247826263E-1    3.109313102536017E-1
 1.000556268050000E+10  -4.994960679945035E-1    3.428952829633294E-2   -6.835949918986809E-5   -3.426230488950211E-4   -5.953380509376336E-5   -3.786277417600647E-4   -3.869794529960062E-1    3.112694250944677E-1
 1.000556796865000E+10  -4.994773128491163E-1    3.457487278207334E-2   -3.722930897750703E-5   -3.900400061681331E-4   -2.746396326626956E-5   -3.566694082826581E-4   -3.867717162029418E-1    3.117135692442614E-1
 1.000557325680000E+10  -4.995229339918854E-1    3.484872638604306E-2   -3.575117140838924E-5   -3.569239856083142E-4   -3.488476977075091E-5   -3.640967572935333E-4   -3.865767217300485E-1    3.119857064373994E-1
 1.000557854495000E+10  -4.994080164113268E-1    3.530399530878772E-2   -6.889964862582198E-5   -3.458319255089908E-4   -1.931132481842703E-5   -3.440227094616557E-4   -3.862639699084781E-1    3.123546507858617E-1
 1.000558383310000E+10  -4.994373431322133E-1    3.557513565504614E-2   -4.065675265501759E-5   -3.423711534381048E-4   -7.844301477461537E-6   -3.415968242973413E-4   -3.861368160091291E-1    3.126377579158471E-1
 1.000558912125000E+10  -4.994316858237762E-1    3.595054395598905E-2   -1.512321836416137E-5   -3.225412743798798E-4   -1.748892244729018E-5   -3.263763477966027E-4   -3.857129860449496E-1    3.127370557966849E-1
 1.000559440940000E+10  -4.995287185805689E-1    3.647062860618005E-2   -3.661859345534756E-5   -3.512247335515743E-4   -1.400186691188968E-5   -3.498729061388561E-4   -3.855581096139842E-1    3.131132765297717E-1
 1.000559969755000E+10  -4.993570919995758E-1    3.668166075612680E-2   -3.152439235739714E-5   -3.008695485287738E-4   -2.414250373629209E-6   -3.509151609200254E-4   -3.853073641523861E-1    3.135970501287474E-1
 1.000560498570000E+10  -4.994629854602716E-1    3.692075876098989E-2   -5.806454363564930E-5   -3.113120580590872E-4    1.189079556610714E-6   -2.931505791927980E-4   -3.849756664544056E-1    3.139776701101248E-1
 1.000561027385000E+10  -4.994299671004687E-1    3.735566561519708E-2   -4.470699550987881E-5   -3.226478173654308E-4   -9.345354161827425E-6   -3.114194750683980E-4   -3.849227164353129E-1    3.141569143729379E-1
 1.000561556200000E+10  -4.994013041041261E-1    3.761510314341807E-2    6.361997818169281E-6   -3.055544803572750E-4    2.270711603492320E-6   -3.133323571305296E-4   -3.844298611354816E-1    3.144408796340664E-1
 1.000562085015000E+10  -4.994227668069360E-1    3.793207025156176E-2   -3.158743159664739E-5   -2.865033159805230E-4   -1.492653967575855E-5   -3.039746277771932E-4   -3.843133610951610E-1    3.149118703205622E-1
 1.000562613830000E+10  -4.993721769362880E-1    3.837827719069013E-2   -5.474784299594903E-5   -2.976755493058337E-4   -5.362615356415202E-6   -2.881700725708695E-4   -3.840634865893235E-1    3.152090713758742E-1
 1.000563142645000E+10  -4.994128080268159E-1    3.867726869934195E-2    2.062464420244563E-5   -2.696410827086679E-4   -1.043797719649722E-5   -2.919092062852227E-4   -3.838883702815572E-1    3.154398662099154E-1
 1.000563671460000E+10  -4.992955466961507E-1    3.893454692836845E-2   -1.771163068368356E-5   -2.635330149273145E-4   -9.776683296204488E-6   -2.865480204660711E-4   -3.835312491628101E-1    3.157836111915059E-1
 1.000564200275000E+10  -4.994226920462939E-1    3.938725853692564E-2   -1.361398820063925E-5   -2.875251686514651E-4   -2.288214532543299E-6   -2.403168992347154E-4   -3.833447958036821E-1    3.162128732393468E-1
 1.000564729090000E+10  -4.992658748686470E-1    3.975353499922685E-2    1.555263054780344E-5   -2.811526112858374E-4    2.291752314023276E-5   -2.696197344455310E-4   -3.830078391951279E-1    3.164809989410866E-1
 1.000565257905000E+10  -4.993016353554736E-1    4.001800718833326E-2   -2.615583453396914E-5   -2.874266255072120E-4    3.109540039452255E-6   -2.674156357258475E-4   -3.827282175535560E-1    3.167786747331075E-1
 1.000565786720000E+10  -4.993385266946970E-1    4.041711908763222E-2    1.490207257319757E-5   -2.397371975390820E-4    6.381869486687074E-6   -2.511059832061429E-4   -3.825187199571074E-1    3.171150687943352E-1
 1.000566315535000E+10  -4.993069072802586E-1    4.073205847294675E-2    1.373148760614454E-5   -2.683619022183518E-4    2.660393564845071E-5   -2.453951318205464E-4   -3.821789259638721E-1    3.173816888782410E-1
 1.000566844350000E+10  -4.991370059625763E-1    4.117285705257199E-2    5.948920182676703E-6   -2.376524371144826E-4    2.357317339227271E-5   -2.243385283013005E-4   -3.820007394909182E-1    3.178343358747352E-1
 1.000567373165000E+10  -4.991374192241602E-1    4.150388116026549E-2    1.722133271046865E-5   -2.302559325196411E-4    7.417548723605704E-6   -2.406130293896582E-4   -3.816746306427427E-1    3.181281646620463E-1
 1.000567901980000E+10  -4.990035130407865E-1    4.184728648416262E-2    2.882608121715507E-5   -2.356158057488592E-4    2.378891716871473E-5   -2.282221032390607E-4   -3.815618061688120E-1    3.183311433725631E-1
 1.000568430795000E+10  -4.990380729680542E-1    4.209007084933765E-2    3.711846431797755E-5   -2.476422971250953E-4    4.560782985384225E-5   -1.993292405150013E-4   -3.811976077132778E-1    3.187156343081088E-1
 1.000568959610000E+10  -4.991503662960030E-1    4.239571904159311E-2    4.485755870127050E-5   -2.260961860285681E-4    6.781809380464017E-5   -2.210363189701893E-4   -3.809303108504291E-1    3.190722181802709E-1
 1.000569488425000E+10  -4.991013132141301E-1    4.284392525945294E-2    4.968513466234377E-5   -2.135917378733907E-4    4.944624048462209E-5   -2.243932878515044E-4   -3.806613783404925E-1    3.194556971818155E-1
 1.000570017240000E+10  -4.991274052440376E-1    4.316627064311494E-2    2.571699807498395E-5   -1.870189621308110E-4    4.907592828011978E-5   -2.054328123770090E-4   -3.803633739602516E-1    3.196679196743653E-1
 1.000570546055000E+10  -4.991510254688831E-1    4.345213618594519E-2    1.517505117682830E-5   -1.835302332809020E-4    2.474280683036772E-5   -1.870097531739697E-4   -3.800476472544602E-1    3.200702733411990E-1
 1.000571074870000E+10  -4.990887859315559E-1    4.375621962856317E-2    4.256992273836363E-5   -1.685163693298921E-4    7.311016251460346E-5   -1.997749169996292E-4   -3.798874915172578E-1    3.202415207408705E-1
 1.000571603685000E+10  -4.991559827633341E-1    4.425252487801940E-2    6.203130901263453E-5   -2.044816807848833E-4    5.297767582604590E-5   -2.000462744473306E-4   -3.795908200952213E-1    3.207642797041026E-1
 1.000572132500000E+10  -4.990691857812988E-1    4.453120150896077E-2    5.848977300677423E-5   -1.833572193975432E-4    7.744679354650859E-5   -1.717390116651954E-4   -3.793757314238350E-1    3.209782584874726E-1
 1.000572661315000E+10  -4.990134983776289E-1    4.477957287459535E-2    4.817692762344643E-5   -1.904740449425590E-4    6.726418119091400E-5   -1.562442204287302E-4   -3.790527690913625E-1    3.213899073964199E-1
 1.000573190130000E+10  -4.990999510932577E-1    4.519493301386469E-2    7.731035254712675E-5   -1.743522793248516E-4    6.995246563188923E-5   -1.391021143250627E-4   -3.787689473457534E-1    3.216497711235273E-1
 1.000573718945000E+10  -4.989421769489586E-1    4.563584149696357E-2    9.147199490362180E-5   -1.359608735170083E-4    9.992647889803194E-5   -1.494042632624957E-4   -3.782417593472491E-1    3.219775673386497E-1
 1.000574247760000E+10  -4.989326109842079E-1    4.594119590948805E-2    7.352011104855676E-5   -1.529359465976856E-4    8.911163949210540E-5   -1.734806382870733E-4   -3.782134846472577E-1    3.223632380712493E-1
 1.000574776575000E+10  -4.989119042148278E-1    4.630587385349165E-2    1.072087343648150E-4   -1.276507950767250E-4    7.354052473226467E-5   -1.457281021508235E-4   -3.779553422694520E-1    3.227159330487014E-1
 1.000575305390000E+10  -4.988897048183890E-1    4.646847373158141E-2    7.264452597031748E-5   -1.183085985687479E-4    6.530490730586601E-5   -1.105399301911638E-4   -3.775929317918559E-1    3.230785964193630E-1
 1.000575834205000E+10  -4.988762609702412E-1    4.691876002191631E-2    1.153405615107738E-4   -1.282231424451543E-4    1.012318077883556E-4   -1.210624137793405E-4   -3.773866997979363E-1    3.231834310424362E-1
 1.000576363020000E+10  -4.989955014743084E-1    4.741817660534106E-2    1.147782742099926E-4   -1.146064652067459E-4    1.147099035716277E-4   -9.634250927836754E-5   -3.770698681167689E-1    3.236975667786258E-1
 1.000576891835000E+10  -4.987852443084396E-1    4.758518681192137E-2    1.016995989486774E-4   -9.950667395243025E-5    1.204111116306136E-4   -1.054520583547762E-4   -3.768002386538549E-1    3.240123095500497E-1
 1.000577420650000E+10  -4.988478090309896E-1    4.799011424470710E-2    1.332272987408735E-4   -8.162314537940800E-5    1.193278455202337E-4   -8.431434846963289E-5   -3.764173397326352E-1    3.245074501396918E-1
 1.000577949465000E+10  -4.988065171909489E-1    4.828040681519757E-2    1.236073769348352E-4   -9.024557054572583E-5    1.241503950055558E-4   -7.652066821023108E-5   -3.762913347021486E-1    3.246127178567092E-1
 1.000578478280000E+10  -4.988534250885838E-1    4.872985513010959E-2    1.222282619673505E-4   -8.095977357835928E-5    1.127320929421205E-4   -5.151496786478008E-5   -3.758730535414404E-1    3.249256379677149E-1
 1.000579007095000E+10  -4.986813032900417E-1    4.887964519799844E-2    1.285641282423347E-4   -8.136307901776100E-5    1.228610762932191E-4   -5.505591663382810E-5   -3.756554593606132E-1    3.254135518827483E-1
 1.000579535910000E+10  -4.986762011838741E-1    4.922842472332999E-2    1.403076857288248E-4   -7.336919399785903E-5    1.492335614859142E-4   -2.608134294337913E-5   -3.752889778986878E-1    3.256843096453143E-1
 1.000580064725000E+10  -4.986227819457147E-1    4.951999475869965E-2    1.624907132708191E-4   -3.859487715476032E-5    1.290225000706228E-4   -2.172656557214412E-5   -3.749788636714021E-1    3.260027205395114E-1
 1.000580593540000E+10  -4.987634469606193E-1    5.004770861818884E-2    1.714235515078464E-4   -3.982765799620500E-5    1.425490432731706E-4   -5.754461133257333E-5   -3.747962690148481E-1    3.263671330050757E-1
 1.000581122355000E+10  -4.985998754345792E-1    5.027441913084076E-2    1.789703838272535E-4   -4.735034504790975E-5    1.906272433074763E-4   -1.292682211494014E-5   -3.744565870599135E-1    3.267438810209994E-1
 1.000581651170000E+10  -4.987430789564067E-1    5.066892211657108E-2    1.883074913496955E-4   -1.540877500866093E-5    1.647878734397580E-4   -2.173529829096589E-5   -3.741711831842673E-1    3.270024193123601E-1
 1.000582179985000E+10  -4.986077482433520E-1    5.090463898955316E-2    2.060658359404423E-4   -3.217655616965602E-5    1.750167833838767E-4    3.142814705552057E-5   -3.738618841634980E-1    3.273580310818837E-1
 1.000582708800000E+10  -4.986024858661349E-1    5.137998796350358E-2    2.229963670654609E-4   -3.084588095962545E-5    1.682499025701340E-4   -2.771623123887133E-6   -3.735122184590519E-1    3.276885384859531E-1
 1.000583237615000E+10  -4.984879272155698E-1    5.179409188773061E-2    2.365258768761450E-4    1.302534385633927E-5    1.810283412015933E-4   -3.148688852107808E-5   -3.732576641297150E-1    3.281889104578917E-1
 1.000583766430000E+10  -4.984505894296932E-1    5.214165429608864E-2    2.115403117381554E-4    2.260558369175905E-5    2.288812887688670E-4    1.716862904290385E-5   -3.728947825023048E-1    3.285336650883726E-1
 1.000584295245000E+10  -4.984474236391973E-1    5.243891828751945E-2    2.276091286008755E-4    3.819444382185622E-7    2.149657059825661E-4    2.208866417783838E-5   -3.725237848275057E-1    3.287747360191373E-1
 1.000584824060000E+10  -4.984596422990222E-1    5.265152350713807E-2    2.366046929339540E-4    4.518924192789530E-5    2.051332751066970E-4    2.943090437907403E-5   -3.722856827884179E-1    3.290845772009002E-1
 1.000585352875000E+10  -4.983894795669536E-1    5.300235678844902E-2    2.272785366607978E-4    5.089068835065151E-5    2.436291505522651E-4    5.766086628645834E-5   -3.718526971928920E-1    3.294937465270654E-1
 1.000585881690000E+10  -4.984922253458655E-1    5.357126772698675E-2    2.518364078082084E-4    4.688255468967923E-5    2.633431259887635E-4    7.508410540933460E-5   -3.714917042244676E-1    3.298490361954319E-1
 1.000586410505000E+10  -4.984260979304504E-1    5.379210803026221E-2    2.631834269545920E-4    6.383297346188084E-5    2.170891777203561E-4    9.876258532664715E-5   -3.714210644867688E-1    3.300780179628102E-1
 1.000586939320000E+10  -4.983075382384591E-1    5.398712475918663E-2    2.492064818972080E-4    5.487644399075205E-5    2.211727693592859E-4    8.843650566719027E-5   -3.709096546064159E-1    3.304495038310768E-1
 1.000587468135000E+10  -4.983798921894083E-1    5.441107114890455E-2    2.606729689351843E-4    1.078801679302643E-4    2.622930933614001E-4    9.960306639164201E-5   -3.706799965362515E-1    3.308875369283703E-1
 1.000587996950000E+10  -4.984398816480107E-1    5.474596230639276E-2    2.806269784264642E-4    1.095243303745662E-4    2.801327876493545E-4    1.213457451929497E-4   -3.703183178969858E-1    3.311849136052252E-1
