#  HZ   S   RI   R     50.00 
! Rohde & Schwarz Vector Network Analyzer 
! Rohde-Schwarz,ZNB20-2Port,1311601062101988,3.16
! Created: UTC 3/20/2024, 11:44:21 AM
! freq[Hz]                re:S11                  im:S11                  re:S21                  im:S21                  re:S12                  im:S12                  re:S22                  im:S22
 1.000539751700000E+10  -4.999239792158123E-1    2.346010633525694E-2   -1.530246011915509E-4   -5.102448252968388E-4   -1.334595121368186E-4   -5.181539742650933E-4   -3.941663844889267E-1    3.014801970895938E-1
 1.000540282807500E+10  -4.999956639532345E-1    2.371612099393247E-2   -1.126076544495772E-4   -4.912676061984329E-4   -1.199538403459764E-4   -5.276278423440034E-4   -3.937758417666977E-1    3.018437626429193E-1
 1.000540813915000E+10  -4.997996305195046E-1    2.411784095007303E-2   -1.224166383701102E-4   -5.164718790746465E-4   -8.993844316038605E-5   -4.881071632067455E-4   -3.937393487970798E-1    3.021008638672435E-1
 1.000541345022500E+10  -4.998581695592521E-1    2.433677928233427E-2   -9.390303508398341E-5   -5.063337117872441E-4   -1.113048336078323E-4   -4.933065064950203E-4   -3.934913753714701E-1    3.024764030356892E-1
 1.000541876130000E+10  -4.998074084159697E-1    2.491206611246276E-2   -8.512350187315400E-5   -4.879117965149947E-4   -1.048400260386369E-4   -5.120483482061140E-4   -3.933050441574512E-1    3.026666621541844E-1
 1.000542407237500E+10  -4.998435942820502E-1    2.509845613341456E-2   -1.044010042894068E-4   -4.907636016269633E-4   -7.596030015609114E-5   -4.764420949240250E-4   -3.930867518164409E-1    3.030239864798593E-1
 1.000542938345000E+10  -4.998412383432973E-1    2.549831420014327E-2   -1.569419237923946E-4   -4.998205463323583E-4   -1.056361284189764E-4   -5.102586804904782E-4   -3.929045173210396E-1    3.034003258268220E-1
 1.000543469452500E+10  -4.997571416694745E-1    2.586816152180959E-2   -1.632731828466762E-4   -4.658830303736811E-4   -1.083174764772440E-4   -4.665566539738447E-4   -3.926753234159420E-1    3.035720988415073E-1
 1.000544000560000E+10  -4.998046131595090E-1    2.620058069978821E-2   -1.212094103641412E-4   -4.577662943315809E-4   -8.124408160244519E-5   -4.848165445609202E-4   -3.922861955071940E-1    3.040533305023378E-1
 1.000544531667500E+10  -4.998303999107496E-1    2.663252662385742E-2   -1.216963362793371E-4   -4.878685418401753E-4   -9.064452723467479E-5   -4.974410721178404E-4   -3.921473944039621E-1    3.042585115629364E-1
 1.000545062775000E+10  -4.998671133300915E-1    2.696446469043797E-2   -1.335548481921787E-4   -4.652076042770644E-4   -1.032492749326309E-4   -4.552016916093882E-4   -3.918952042777816E-1    3.045485506411446E-1
 1.000545593882500E+10  -4.997569968202127E-1    2.729487563856485E-2   -1.412682565297111E-4   -4.466384958612334E-4   -8.119852156707064E-5   -4.503069219782476E-4   -3.916236860771308E-1    3.049067463065960E-1
 1.000546124990000E+10  -4.998072792084099E-1    2.763061389580739E-2   -1.087837122592067E-4   -4.652999877281499E-4   -8.180919893794975E-5   -4.575321297895800E-4   -3.914587733056183E-1    3.052326254369672E-1
 1.000546656097500E+10  -4.997437000598327E-1    2.802880715035951E-2   -9.050210759462319E-5   -4.610225758682999E-4   -7.795185735146512E-5   -4.512165594462010E-4   -3.912674418437994E-1    3.054480580879976E-1
 1.000547187205000E+10  -4.997678538188169E-1    2.826022992932025E-2   -1.208375435746861E-4   -4.122081713873564E-4   -1.037758675649241E-4   -4.116038671738326E-4   -3.909606910359003E-1    3.058825633770773E-1
 1.000547718312500E+10  -4.998286597461534E-1    2.858384705708825E-2   -9.885937884358703E-5   -4.443671692911982E-4   -6.043191129000334E-5   -4.155605812406177E-4   -3.907516238664839E-1    3.061707939366914E-1
 1.000548249420000E+10  -4.996739162019894E-1    2.894159449490167E-2   -1.136692138426382E-4   -4.510352293798929E-4   -1.215365007812586E-4   -4.533949829444740E-4   -3.904740545252854E-1    3.065837227928689E-1
 1.000548780527500E+10  -4.995788049162884E-1    2.946421560927193E-2   -6.634487592028527E-5   -4.318506943950764E-4   -7.311015894739616E-5   -4.441038427993844E-4   -3.903959810789664E-1    3.069391816113829E-1
 1.000549311635000E+10  -4.998536198882360E-1    2.972276983708459E-2   -9.532040967390761E-5   -4.453758792498978E-4   -9.065667134329490E-5   -4.505685947668300E-4   -3.899893852508911E-1    3.071559452900564E-1
 1.000549842742500E+10  -4.997710519888978E-1    2.993171334288870E-2   -9.977701654188184E-5   -4.331711337402269E-4   -7.569541312907736E-5   -3.747841554646912E-4   -3.898072015405199E-1    3.074873303686965E-1
 1.000550373850000E+10  -4.996317261691564E-1    3.035774252063001E-2   -9.765170503886747E-5   -3.987688951702793E-4   -6.813236421246359E-5   -4.079674256375379E-4   -3.896564851839852E-1    3.077329862398698E-1
 1.000550904957500E+10  -4.997314946935305E-1    3.078703069462099E-2   -7.931102778934208E-5   -3.870986842341741E-4   -3.521917477411511E-5   -4.111575678207927E-4   -3.892983841437492E-1    3.081140379692460E-1
 1.000551436065000E+10  -4.997279073791892E-1    3.119633437266532E-2   -7.993662562002066E-5   -4.164769801468993E-4   -3.888167115722086E-5   -3.845927160792531E-4   -3.892291808462617E-1    3.085014056162492E-1
 1.000551967172500E+10  -4.995635739681423E-1    3.142590782904921E-2   -9.598301775467407E-5   -4.241035168212813E-4   -6.070002168273807E-5   -3.916110853299454E-4   -3.889380945067299E-1    3.087284903787094E-1
 1.000552498280000E+10  -4.996628212757718E-1    3.179198387594253E-2   -9.667817839238295E-5   -3.885446565312028E-4   -6.168880972352785E-5   -4.166311171321428E-4   -3.885658445434045E-1    3.090271078306933E-1
 1.000553029387500E+10  -4.994789327154975E-1    3.220218135638165E-2   -5.527859700255417E-5   -4.185597971133225E-4   -4.155035827274821E-5   -4.063891907848739E-4   -3.884344314015200E-1    3.094722240718157E-1
 1.000553560495000E+10  -4.996903186025435E-1    3.250288872934667E-2   -6.969719962717999E-5   -3.912381552434739E-4   -7.363185942741696E-5   -4.029515557135497E-4   -3.881990879468512E-1    3.097339715879417E-1
 1.000554091602500E+10  -4.995097890569527E-1    3.276574125003678E-2   -7.376406332270408E-5   -3.866094233400250E-4   -5.891361439965696E-5   -3.567959297510051E-4   -3.879717126772723E-1    3.100305758217868E-1
 1.000554622710000E+10  -4.994948074111424E-1    3.309507684578322E-2   -6.796371154100788E-5   -3.748952198832042E-4   -4.031503524403399E-5   -3.749743042354326E-4   -3.877461024675261E-1    3.103175984341213E-1
 1.000555153817500E+10  -4.995644853241077E-1    3.361041898415044E-2   -8.410785536461598E-5   -3.609395442432686E-4   -1.460232330698446E-5   -3.838635670462627E-4   -3.874782095961442E-1    3.107009232505730E-1
 1.000555684925000E+10  -4.995721998714855E-1    3.372927743357201E-2   -6.071266988368036E-5   -3.690747839348503E-4   -6.009753152521360E-5   -3.685104800639645E-4   -3.871244292696224E-1    3.109149728010099E-1
 1.000556216032500E+10  -4.995011160790031E-1    3.419253451263050E-2   -7.044165695514301E-5   -3.768668753382994E-4   -3.374485496764187E-5   -3.748229486970876E-4   -3.867832456928350E-1    3.113440434581363E-1
 1.000556747140000E+10  -4.994830286580992E-1    3.453415853783114E-2   -4.602524817487967E-5   -3.504991593361114E-4   -2.193164179915567E-5   -3.590816165942361E-4   -3.868540463833660E-1    3.116687558057787E-1
 1.000557278247500E+10  -4.994633286230981E-1    3.495525627737611E-2   -5.071648966453785E-5   -3.638911636389992E-4   -5.934630546571800E-5   -3.664249566314349E-4   -3.865384064463164E-1    3.119084614422801E-1
 1.000557809355000E+10  -4.995013194232394E-1    3.527156320635264E-2   -5.180653456176517E-5   -3.511829549608555E-4   -2.509262465301163E-5   -3.485725592602454E-4   -3.862994409961451E-1    3.120935459446382E-1
 1.000558340462500E+10  -4.994883262001676E-1    3.548764446909206E-2   -7.571536560170748E-5   -3.598869766696521E-4   -3.600016798882028E-5   -3.660835073843123E-4   -3.859800079314563E-1    3.126014952553401E-1
 1.000558871570000E+10  -4.994293093268390E-1    3.604628812371440E-2   -3.215525673152588E-5   -3.375511538074830E-4   -2.597528057606514E-5   -3.390783684498764E-4   -3.857490757629383E-1    3.129011479500713E-1
 1.000559402677500E+10  -4.995620769713601E-1    3.639413423114901E-2   -5.207616111016407E-5   -3.184413309298329E-4   -3.162147754619953E-5   -3.256304242723379E-4   -3.855367089255167E-1    3.131621240446751E-1
 1.000559933785000E+10  -4.994412022730130E-1    3.673177280081765E-2   -1.314101112964834E-5   -3.285605638199610E-4   -1.608358585063693E-5   -3.067836052462778E-4   -3.852266948502381E-1    3.136013508495711E-1
 1.000560464892500E+10  -4.994677080414782E-1    3.695007193348008E-2   -9.676672576243204E-6   -2.909387512677326E-4   -1.116281134297981E-5   -2.845621749871296E-4   -3.851205775392861E-1    3.138710237907331E-1
 1.000560996000000E+10  -4.995156423758998E-1    3.723128941149266E-2   -1.864055909646450E-5   -2.924573273543623E-4   -3.040290840574280E-5   -2.839835282763862E-4   -3.848427792623149E-1    3.141822271667091E-1
 1.000561527107500E+10  -4.993398100995938E-1    3.764413555312113E-2   -4.271518864952908E-5   -3.165074397767812E-4   -2.404444088470471E-5   -3.274239268420215E-4   -3.843910762150162E-1    3.145383001574988E-1
 1.000562058215000E+10  -4.993784692772628E-1    3.797253912781377E-2   -4.966694737041847E-5   -3.209105941786111E-4   -9.995670559105931E-6   -2.881423820430454E-4   -3.842522243402222E-1    3.148144204726667E-1
 1.000562589322500E+10  -4.992982366402580E-1    3.840776358122636E-2   -2.138717127874327E-5   -2.869006949512071E-4   -9.101305529554661E-6   -3.011238057889382E-4   -3.841386786840587E-1    3.151997740393365E-1
 1.000563120430000E+10  -4.993190446662484E-1    3.857261681064854E-2   -9.199599749745958E-6   -2.661175600612998E-4    1.078945970336632E-6   -2.843048635632849E-4   -3.836623516419737E-1    3.154898761662773E-1
 1.000563651537500E+10  -4.993626755895924E-1    3.904602080316392E-2   -2.274222189333360E-6   -2.845705165275059E-4    1.517979987291804E-5   -2.860483095423833E-4   -3.836768999458582E-1    3.158696901293596E-1
 1.000564182645000E+10  -4.992897196792514E-1    3.928878843789314E-2   -9.305158085468600E-6   -3.036228214970801E-4    1.719013607873611E-5   -2.793449830735666E-4   -3.832484845555569E-1    3.161345239309709E-1
 1.000564713752500E+10  -4.993140312962442E-1    3.973109233479579E-2   -2.046534776376078E-5   -2.658372877822543E-4    1.826612492707306E-5   -2.521665892061423E-4   -3.830065838622821E-1    3.165000093633642E-1
 1.000565244860000E+10  -4.992760117551096E-1    4.007828759638344E-2   -4.193206517824093E-6   -2.576808082235521E-4    2.657151865277550E-5   -2.823225068642664E-4   -3.826221713765909E-1    3.167876774443209E-1
 1.000565775967500E+10  -4.992262471432514E-1    4.026937566020831E-2    5.053146938683968E-6   -2.742297618068897E-4    2.540041449656844E-5   -2.384170573150149E-4   -3.823831717567349E-1    3.170255041510234E-1
 1.000566307075000E+10  -4.993330833183469E-1    4.066982310524584E-2    7.200748772407372E-6   -2.578751522810443E-4    5.469939631761140E-5   -2.587173989157649E-4   -3.820940479423098E-1    3.175841664556922E-1
 1.000566838182500E+10  -4.991291057058480E-1    4.098732034862911E-2    1.982611577507281E-5   -2.596989163384597E-4    3.799978494516700E-5   -2.371460485724290E-4   -3.820193173058858E-1    3.177884943460839E-1
 1.000567369290000E+10  -4.992544063461750E-1    4.152125550613003E-2    5.426940815854295E-5   -2.127540670781511E-4    4.953889249771908E-6   -2.060655272264109E-4   -3.815978182316394E-1    3.181351890259963E-1
 1.000567900397500E+10  -4.993172504608130E-1    4.177746671568647E-2    5.864141678407542E-6   -2.373135975549566E-4    2.184765245793847E-5   -2.255026946072536E-4   -3.814659149766235E-1    3.183670973663418E-1
 1.000568431505000E+10  -4.992691623800036E-1    4.216422082427808E-2    1.273010169254423E-5   -1.958517495125264E-4    4.282221389374879E-5   -2.151569454780579E-4   -3.811180597809336E-1    3.188197487316846E-1
 1.000568962612500E+10  -4.992181314737898E-1    4.231683604967743E-2    4.200867113982418E-5   -1.783883487183957E-4    5.461070218742114E-5   -2.333303281565046E-4   -3.808050749866497E-1    3.191403687743075E-1
 1.000569493720000E+10  -4.992011534775344E-1    4.283235805754178E-2    4.609755008991512E-5   -2.241074384340101E-4    4.384571866950251E-5   -1.706767366542731E-4   -3.805200522304437E-1    3.193025169542931E-1
 1.000570024827500E+10  -4.990965316358635E-1    4.318155627656364E-2    3.100846276597943E-5   -1.975345385551696E-4    7.966276918339063E-5   -1.834053682406842E-4   -3.802479022214705E-1    3.197865540866668E-1
 1.000570555935000E+10  -4.991834771029485E-1    4.341755015032580E-2    5.324240997159959E-5   -1.879565794710006E-4    3.473652766080162E-5   -1.850853734546189E-4   -3.800949952787763E-1    3.200995544807504E-1
 1.000571087042500E+10  -4.990970484538890E-1    4.378076276021227E-2    3.189343553510627E-5   -1.725226848888620E-4    8.703508390162086E-5   -1.872839043607227E-4   -3.798069545732722E-1    3.204905167081655E-1
 1.000571618150000E+10  -4.990740070278949E-1    4.420463840615480E-2    6.950178008956063E-5   -1.838889802151913E-4    8.203762027554485E-5   -1.899666145802025E-4   -3.796145280121224E-1    3.206525612494754E-1
 1.000572149257500E+10  -4.991001710434158E-1    4.454755626412391E-2    8.019990572365468E-5   -1.376192418445855E-4    4.969311220288470E-5   -1.615613082327703E-4   -3.791496067920853E-1    3.210329213362278E-1
 1.000572680365000E+10  -4.990715263629573E-1    4.474093322864051E-2    8.840683318785903E-5   -1.496053276611135E-4    5.672384674701279E-5   -1.535737814511566E-4   -3.790264245208972E-1    3.213650697193333E-1
 1.000573211472500E+10  -4.989641597217936E-1    4.526132006002117E-2    8.713124939812523E-5   -1.403572612020391E-4    8.036535304801699E-5   -1.793284965142657E-4   -3.787695200530077E-1    3.217622597285599E-1
 1.000573742580000E+10  -4.989866280387456E-1    4.546068243965123E-2    7.702937672076165E-5   -1.305490100768664E-4    7.624277406388301E-5   -1.168700348172003E-4   -3.783564629408226E-1    3.221164022801787E-1
 1.000574273687500E+10  -4.990666056795382E-1    4.593648934271275E-2    1.119233609895706E-4   -1.178228358237683E-4    9.191891918813291E-5   -1.326167167116783E-4   -3.782375518381744E-1    3.223188109206943E-1
 1.000574804795000E+10  -4.989704802564968E-1    4.625414097264242E-2    8.539455287957425E-5   -1.357643919049493E-4    1.074714703234395E-4   -1.158521560381843E-4   -3.778328830822588E-1    3.227387782556692E-1
 1.000575335902500E+10  -4.989787962554396E-1    4.663039313330234E-2    1.145494804949278E-4   -1.038052645317051E-4    1.119473764503980E-4   -9.159752982950705E-5   -3.775878086133072E-1    3.230523313055144E-1
 1.000575867010000E+10  -4.989226720671336E-1    4.683374706630644E-2    1.082387214474531E-4   -1.231074287781646E-4    1.103566434735960E-4   -1.228882015463379E-4   -3.772389745463317E-1    3.234198814920792E-1
 1.000576398117500E+10  -4.989309226372005E-1    4.729613892550901E-2    1.061622747384337E-4   -1.078039136209129E-4    1.235688312788259E-4   -1.198898411422852E-4   -3.770711249450976E-1    3.236536516050935E-1
 1.000576929225000E+10  -4.988848812874239E-1    4.762347412994919E-2    1.509009719057418E-4   -1.100032471644646E-4    1.385131798144325E-4   -1.045766927216498E-4   -3.766009483634145E-1    3.240645340762810E-1
 1.000577460332500E+10  -4.988549430808282E-1    4.804566666381214E-2    1.351516559672455E-4   -9.718767713258365E-5    1.515616005494721E-4   -6.485199311936735E-5   -3.764479324609679E-1    3.242522423958482E-1
 1.000577991440000E+10  -4.987898851093971E-1    4.825526555633589E-2    1.136990743877184E-4   -8.218583685565167E-5    1.359538789294966E-4   -7.851240441041986E-5   -3.761603360039903E-1    3.247738561575668E-1
 1.000578522547500E+10  -4.987877469773107E-1    4.862859835468750E-2    1.413994371796816E-4   -7.474305661335869E-5    1.386762965907878E-4   -4.359311276579301E-5   -3.759462726513281E-1    3.250786243075944E-1
 1.000579053655000E+10  -4.987210544696438E-1    4.899109003612902E-2    1.418759166333131E-4   -9.098147656394745E-5    1.816706106519203E-4   -3.414466225898966E-5   -3.756348027039670E-1    3.255288714600707E-1
 1.000579584762500E+10  -4.987007192598282E-1    4.932803892240811E-2    1.655640357446545E-4   -6.091511138860604E-5    1.423380141126175E-4   -4.288312637952306E-5   -3.753463915660334E-1    3.256343868887510E-1
 1.000580115870000E+10  -4.985826521775538E-1    4.983142780956425E-2    1.831201911475609E-4   -7.358305125947276E-5    1.813776971527842E-4   -9.459701124677871E-6   -3.751298547961897E-1    3.260279726546595E-1
 1.000580646977500E+10  -4.986755669341044E-1    5.013693849830136E-2    1.691055359929939E-4   -1.171941885952995E-5    1.715740490089345E-4   -3.675001679439305E-5   -3.748036126923339E-1    3.265016667826645E-1
 1.000581178085000E+10  -4.986366548337469E-1    5.042794416505440E-2    2.052394538407682E-4   -1.080614151736604E-5    1.474291763097762E-4    1.948915308726041E-6   -3.745196732248851E-1    3.267690710905055E-1
 1.000581709192500E+10  -4.985588590560642E-1    5.065308058956455E-2    2.007447329155493E-4   -1.267013674566116E-5    1.724624769134606E-4   -3.496303797324389E-5   -3.740131768146202E-1    3.270111100312187E-1
 1.000582240300000E+10  -4.987259037861154E-1    5.105849556991746E-2    2.031809856982806E-4   -1.753913912469413E-5    1.903596083204112E-4   -2.516779917461983E-5   -3.736865349475818E-1    3.274356573002026E-1
 1.000582771407500E+10  -4.986011688454958E-1    5.141329582752800E-2    2.138566280411741E-4    1.504096180789837E-7    2.048932991511852E-4   -2.141084200367987E-5   -3.733702707344034E-1    3.278200570002892E-1
 1.000583302515000E+10  -4.986318730957376E-1    5.171441353810126E-2    2.376891315354591E-4    1.397577006070728E-5    2.176974797527801E-4    2.706860153698185E-5   -3.732347152760363E-1    3.280018443866686E-1
 1.000583833622500E+10  -4.985621263436808E-1    5.221493120773697E-2    2.207016833886839E-4    3.662756311792053E-5    2.119019011601712E-4    1.129446478633460E-5   -3.727558249280266E-1    3.285588075814105E-1
 1.000584364730000E+10  -4.984497421231024E-1    5.230733535203935E-2    2.122718092290425E-4    3.279280829029141E-5    2.213354337938417E-4    3.007288320334313E-5   -3.723920051246411E-1    3.287652993875845E-1
 1.000584895837500E+10  -4.985589952516785E-1    5.283689076756806E-2    2.314402998598159E-4    4.353263688042090E-5    2.292398044099181E-4    4.443585114964642E-5   -3.721953695583222E-1    3.291635295629696E-1
 1.000585426945000E+10  -4.984237248609523E-1    5.314976568066042E-2    2.554834702640914E-4    5.048512855327507E-5    2.418058948499328E-4    5.727630743068229E-5   -3.718348271553438E-1    3.295534444910483E-1
 1.000585958052500E+10  -4.985307612517638E-1    5.333790941059294E-2    2.325102421029919E-4    4.148528520359281E-5    2.315892237143681E-4    6.208957996111058E-5   -3.714686469442705E-1    3.298265940890744E-1
 1.000586489160000E+10  -4.983590939858117E-1    5.380122700859425E-2    2.706946752481481E-4    6.035201393693035E-5    2.763634182991105E-4    1.084831092263150E-4   -3.711775803621479E-1    3.303121700159278E-1
 1.000587020267500E+10  -4.983751442810602E-1    5.421914871554968E-2    2.600561770461088E-4    1.231589020002948E-4    2.701970266154977E-4    1.151528640270760E-4   -3.709573070181997E-1    3.305541513080458E-1
 1.000587551375000E+10  -4.983426975272763E-1    5.458660716646285E-2    2.726992968742295E-4    9.589068027809196E-5    2.780836739359202E-4    1.087906250648901E-4   -3.704738540264679E-1    3.309022953910339E-1
