#  HZ   S   RI   R     50.00 
! Rohde & Schwarz Vector Network Analyzer 
! Rohde-Schwarz,ZNB20-2Port,1311601062101988,3.16
! Created: UTC 3/20/2024, 11:44:41 AM
! freq[Hz]                re:S11                  im:S11                  re:S21                  im:S21                  re:S12                  im:S12                  re:S22                  im:S22
 1.000536301200000E+10  -4.999521760794280E-1    2.128134533071238E-2   -1.367092616178185E-4   -5.479292400504881E-4   -9.931948634778345E-5   -5.248348652284223E-4   -3.953865576071350E-1    2.994660136477234E-1
 1.000536845575000E+10  -4.998834743898639E-1    2.151397853880765E-2   -1.543112414436712E-4   -5.331613947476787E-4   -1.124127538880960E-4   -5.183287570754204E-4   -3.953724611568217E-1    2.998004616739322E-1
 1.000537389950000E+10  -4.999196969227533E-1    2.184127717182974E-2   -1.418975566182647E-4   -5.441815656268340E-4   -1.076396477316306E-4   -4.945298606403129E-4   -3.951927447685297E-1    3.001147521873502E-1
 1.000537934325000E+10  -4.998702655208700E-1    2.221117122853803E-2   -1.328901825051896E-4   -5.216878012637107E-4   -1.144471263547550E-4   -5.392391903226481E-4   -3.948467924012244E-1    3.003360873960714E-1
 1.000538478700000E+10  -4.999281641524249E-1    2.241795688686296E-2   -1.161337792810703E-4   -4.911220725433088E-4   -1.055925102531089E-4   -5.318343502118890E-4   -3.947516345548281E-1    3.007132787202056E-1
 1.000539023075000E+10  -4.999066146249626E-1    2.286006986383356E-2   -1.639750119251661E-4   -5.095131143558365E-4   -1.029694355245855E-4   -5.043134492874044E-4   -3.943607289680625E-1    3.008897650964007E-1
 1.000539567450000E+10  -4.999260117472266E-1    2.321213696387660E-2   -1.363098221764617E-4   -4.992391872657518E-4   -1.262753898199286E-4   -4.885947340306940E-4   -3.941804151362234E-1    3.012593602038768E-1
 1.000540111825000E+10  -4.998954741867340E-1    2.365031316009039E-2   -1.193691382971406E-4   -5.175064777611806E-4   -9.695587452318497E-5   -4.905538338375972E-4   -3.939462851691064E-1    3.015565546911289E-1
 1.000540656200000E+10  -4.997756033520403E-1    2.390383853795770E-2   -1.338728611714780E-4   -5.088930120165299E-4   -7.944416206110382E-5   -4.955897462256858E-4   -3.936787973339219E-1    3.020688421440522E-1
 1.000541200575000E+10  -4.998936804976011E-1    2.426100924226371E-2   -1.205593257610226E-4   -4.797646691572246E-4   -7.392677831563262E-5   -4.810004322639054E-4   -3.935233119991624E-1    3.022810476134865E-1
 1.000541744950000E+10  -4.998464645787974E-1    2.454088608314117E-2   -1.023351753534431E-4   -4.866111632683072E-4   -8.614031018415171E-5   -4.878702412017970E-4   -3.932927110892933E-1    3.025348591371590E-1
 1.000542289325000E+10  -4.998018818984195E-1    2.503121137386643E-2   -1.255854011278985E-4   -4.957854890265921E-4   -1.037987719649218E-4   -4.649314995802949E-4   -3.929662121621313E-1    3.029089024148179E-1
 1.000542833700000E+10  -4.998631103143346E-1    2.542226587314549E-2   -1.044128158626283E-4   -4.786614255099515E-4   -8.182089735586830E-5   -4.690683515809493E-4   -3.927412556327365E-1    3.031442645565953E-1
 1.000543378075000E+10  -4.997456455285758E-1    2.580158954804737E-2   -1.283879268366557E-4   -4.835099208759141E-4   -1.041752681214709E-4   -4.754472649466698E-4   -3.925737704997805E-1    3.035252590403943E-1
 1.000543922450000E+10  -4.997971633555944E-1    2.613913193539953E-2   -1.143208110008617E-4   -4.514285351995649E-4   -8.644228273188781E-5   -4.809143445795772E-4   -3.923966351538702E-1    3.037459245917934E-1
 1.000544466825000E+10  -4.998897757932351E-1    2.651198089247697E-2   -8.993582475069141E-5   -4.584314232660601E-4   -6.844577972129510E-5   -4.641743271473170E-4   -3.919702657877019E-1    3.042221062552796E-1
 1.000545011200000E+10  -4.998139781238676E-1    2.686885602697981E-2   -1.015099275963589E-4   -4.539167914517457E-4   -8.595723190669016E-5   -4.579059444130634E-4   -3.918107551586729E-1    3.047392632705159E-1
 1.000545555575000E+10  -4.998252587288314E-1    2.717989305553986E-2   -8.560477805826996E-5   -4.668856425187661E-4   -9.113618124292256E-5   -4.615878402044911E-4   -3.916040401873792E-1    3.048235246066331E-1
 1.000546099950000E+10  -4.998602881503789E-1    2.765387434820350E-2   -1.022877104305819E-4   -4.783263028368389E-4   -6.766544167400245E-5   -4.512610653279649E-4   -3.915297305860722E-1    3.052548535188958E-1
 1.000546644325000E+10  -4.997103331826151E-1    2.792960147111805E-2   -1.058331050266433E-4   -4.509343533677694E-4   -8.415329808396661E-5   -4.395725478311714E-4   -3.911146900173552E-1    3.054714871689373E-1
 1.000547188700000E+10  -4.998575469931475E-1    2.826384230098576E-2   -9.545399420820639E-5   -4.374053885762790E-4   -6.882895234990893E-5   -4.087836196490383E-4   -3.908971252122934E-1    3.059516573980696E-1
 1.000547733075000E+10  -4.998125311097529E-1    2.864075249431571E-2   -9.700146261472137E-5   -4.425529051865564E-4   -7.810644760764259E-5   -4.524607967813421E-4   -3.906985046618841E-1    3.062544920144639E-1
 1.000548277450000E+10  -4.996916208363446E-1    2.899886134558707E-2   -1.030041492145983E-4   -4.185971169287807E-4   -7.070650763783525E-5   -4.222982599646664E-4   -3.904181933164643E-1    3.065483441341398E-1
 1.000548821825000E+10  -4.997421556126975E-1    2.945537430605699E-2   -1.002397331551131E-4   -4.215673457128228E-4   -8.057272096457729E-5   -4.363617890941078E-4   -3.902811992238563E-1    3.067820413489911E-1
 1.000549366200000E+10  -4.997963772621755E-1    2.959216678581605E-2   -9.101456289831785E-5   -4.174993181906976E-4   -6.550846256935207E-5   -4.028234864760016E-4   -3.899015804063330E-1    3.073064637477261E-1
 1.000549910575000E+10  -4.997469594073491E-1    2.994887713098114E-2   -7.969777891239719E-5   -4.186331692222345E-4   -4.443824439525142E-5   -4.066969672540344E-4   -3.897042288741521E-1    3.075674679120648E-1
 1.000550454950000E+10  -4.996681127183681E-1    3.036621277586291E-2   -8.471349454075175E-5   -4.368664273720489E-4   -5.164858307110953E-5   -4.289678718343962E-4   -3.893695574201413E-1    3.077950460665210E-1
 1.000550999325000E+10  -4.997234076392021E-1    3.072196285674684E-2   -1.033743695758724E-4   -4.130849288776638E-4   -3.997707123045490E-5   -3.854814803701278E-4   -3.890941395925915E-1    3.080708883764867E-1
 1.000551543700000E+10  -4.996432411857830E-1    3.111953853342580E-2   -7.717340724557286E-5   -3.749628531050628E-4   -7.888805110936035E-5   -4.074724108831735E-4   -3.889882822577108E-1    3.083485405547426E-1
 1.000552088075000E+10  -4.996423474238986E-1    3.142097005335789E-2   -6.840572921725140E-5   -4.002966051595004E-4   -5.013198363557805E-5   -3.760477726591165E-4   -3.888416754150079E-1    3.088579465230386E-1
 1.000552632450000E+10  -4.996512126551977E-1    3.176338337563220E-2   -4.744169268534897E-5   -3.703868622175032E-4   -5.264533177772208E-5   -3.778784654846176E-4   -3.884376117683508E-1    3.090906927293631E-1
 1.000553176825000E+10  -4.996551233481630E-1    3.214120923922251E-2   -5.367402186042034E-5   -3.590318011353105E-4   -4.339977233451664E-5   -3.759121152755124E-4   -3.882774596097585E-1    3.094493128311293E-1
 1.000553721200000E+10  -4.996957298735852E-1    3.250516658830849E-2   -6.002234633906800E-5   -3.616292627673626E-4   -2.751825743990912E-5   -3.547362430238495E-4   -3.881400504112963E-1    3.098098306906247E-1
 1.000554265575000E+10  -4.997156420776958E-1    3.294172706747966E-2   -7.807697199750140E-5   -3.798259975276388E-4   -3.514324796241073E-5   -3.576509344338309E-4   -3.879152082894682E-1    3.102000539836244E-1
 1.000554809950000E+10  -4.995299692207493E-1    3.332589358606020E-2   -6.792959463980818E-5   -3.949499764228132E-4   -1.701666373448099E-5   -3.700366576603474E-4   -3.876097571998696E-1    3.103965772976078E-1
 1.000555354325000E+10  -4.995734966438855E-1    3.355015109224198E-2   -5.105149518512017E-5   -3.644176010506851E-4   -4.674868585707286E-5   -3.709521395545861E-4   -3.873214754529683E-1    3.108945617898953E-1
 1.000555898700000E+10  -4.995602204365435E-1    3.397610148381096E-2   -3.110192179637370E-5   -3.485214753688927E-4   -3.855028876654172E-5   -3.566296063343002E-4   -3.869761059877398E-1    3.109700110561022E-1
 1.000556443075000E+10  -4.995221298156653E-1    3.422681918960212E-2   -5.324460567690204E-5   -3.578260158822795E-4   -2.894153707053764E-5   -3.440059579067782E-4   -3.867700438685410E-1    3.113891727849099E-1
 1.000556987450000E+10  -4.995219405467731E-1    3.468690819508082E-2   -3.983429720372943E-5   -3.335566098573072E-4   -4.307325046234861E-5   -3.643214802348373E-4   -3.865545557295397E-1    3.116927298454518E-1
 1.000557531825000E+10  -4.996751580341229E-1    3.505615121970836E-2   -5.053579191327801E-5   -3.379718223532995E-4   -3.094700683896361E-5   -3.747203024476186E-4   -3.862704039049204E-1    3.121436802728259E-1
 1.000558076200000E+10  -4.995427889433280E-1    3.536272346537012E-2   -4.831521553692400E-5   -3.395995125126182E-4   -1.215646367446492E-5   -3.180190761368869E-4   -3.860682979586158E-1    3.123053175060656E-1
 1.000558620575000E+10  -4.996040131560091E-1    3.564125179480818E-2   -3.462892741507602E-5   -3.403198559278496E-4   -3.788222825691197E-5   -3.447629436035357E-4   -3.857934619479871E-1    3.127373235277431E-1
 1.000559164950000E+10  -4.994684413935651E-1    3.602558712483495E-2   -6.390620301116388E-5   -3.254139883463946E-4   -1.068430009070398E-5   -3.226198454757156E-4   -3.855003339829750E-1    3.132009000558720E-1
 1.000559709325000E+10  -4.994297227063331E-1    3.638818166597341E-2   -3.586690872338879E-5   -3.245136191962727E-4   -2.812222848086498E-5   -3.134608455864746E-4   -3.852831968875373E-1    3.133440835140225E-1
 1.000560253700000E+10  -4.993903028325755E-1    3.678343961608743E-2   -4.172637570714869E-5   -3.182406930475369E-4   -5.735167328491284E-6   -3.067373230186151E-4   -3.851220144693255E-1    3.136579260001121E-1
 1.000560798075000E+10  -4.996132638754510E-1    3.709473612675174E-2   -2.892151101776677E-5   -3.116858335523055E-4   -2.586901255024142E-5   -3.054059530967200E-4   -3.846678117741691E-1    3.141195156650726E-1
 1.000561342450000E+10  -4.994391795958643E-1    3.738189349092506E-2   -2.641751414883325E-5   -3.250655136120155E-4   -8.933754475085056E-6   -2.793808466520942E-4   -3.845525645854007E-1    3.144078971993591E-1
 1.000561886825000E+10  -4.994829671540459E-1    3.782536550829432E-2   -1.484298517453918E-5   -2.957381029163870E-4   -3.644845426877196E-7   -2.745053291595703E-4   -3.842542654823083E-1    3.147136043403415E-1
 1.000562431200000E+10  -4.994428246971219E-1    3.823618320155606E-2   -2.814563074931900E-6   -2.919625148808304E-4    4.223561681136807E-5   -2.752465207118732E-4   -3.839009622107863E-1    3.151385585924044E-1
 1.000562975575000E+10  -4.993429858700426E-1    3.860372326172803E-2   -1.850003206390665E-6   -2.759039758553680E-4   -4.227419936172002E-6   -2.853264396760422E-4   -3.836825400025152E-1    3.153754109673010E-1
 1.000563519950000E+10  -4.993113471959652E-1    3.890159938137446E-2   -6.335980627704643E-6   -2.940623271813222E-4    2.514806513221474E-5   -2.919026834290887E-4   -3.832935538080310E-1    3.157405395894825E-1
 1.000564064325000E+10  -4.993975372984407E-1    3.925538395411602E-2    1.353031517088111E-5   -2.814851177009341E-4    9.447709547706355E-6   -2.341665683766045E-4   -3.831890704339300E-1    3.160966960013047E-1
 1.000564608700000E+10  -4.994049565176926E-1    3.963106616809222E-2    6.248940372893103E-6   -2.559870024387998E-4    3.284415903574724E-5   -2.340791045472954E-4   -3.829289309012956E-1    3.165148521532065E-1
 1.000565153075000E+10  -4.993497168811310E-1    3.993222620119410E-2    1.258785577932941E-5   -2.655812029828330E-4   -1.966450647956321E-5   -2.363904623647950E-4   -3.825907959524023E-1    3.167672570278632E-1
 1.000565697450000E+10  -4.993066895278667E-1    4.031246958291378E-2    4.546499756742597E-5   -2.522123865097165E-4    2.847425090776508E-5   -2.405687438454085E-4   -3.824467505301368E-1    3.171389789757937E-1
 1.000566241825000E+10  -4.992921989060308E-1    4.074053448877713E-2    3.465178851965949E-5   -2.271732820631229E-4    3.259921653095556E-5   -2.347119947388391E-4   -3.821283464384577E-1    3.173241533122771E-1
 1.000566786200000E+10  -4.992437293345829E-1    4.098020358072960E-2    1.753437349717637E-5   -2.143797290035596E-4    6.474624342450845E-5   -2.229710248410478E-4   -3.818592945376884E-1    3.177787598193987E-1
 1.000567330575000E+10  -4.993541032014348E-1    4.133593576808650E-2    1.761724163929309E-5   -2.278086891176252E-4    3.424981283040458E-5   -2.172395623173515E-4   -3.817079934848810E-1    3.180153680616576E-1
 1.000567874950000E+10  -4.991231090033191E-1    4.166158689728005E-2    5.800141984052738E-5   -2.251309180728016E-4    6.701130321028469E-5   -2.187382751027145E-4   -3.813534427555086E-1    3.186499691789389E-1
 1.000568419325000E+10  -4.991500180372694E-1    4.210356490927190E-2    4.391269255796985E-5   -1.923985106388668E-4    5.969964900128625E-5   -2.287795326932503E-4   -3.810382348940859E-1    3.186728915489005E-1
 1.000568963700000E+10  -4.992209010007093E-1    4.239117089926077E-2    4.165106842525063E-5   -2.038508963718477E-4    4.122746334271588E-5   -1.823454817584399E-4   -3.810084980675846E-1    3.191000110836495E-1
 1.000569508075000E+10  -4.992046889838950E-1    4.281184561081821E-2    6.702612359523774E-5   -2.248179282471084E-4    7.996709672483032E-5   -1.916722118069181E-4   -3.804876319185140E-1    3.195277743481041E-1
 1.000570052450000E+10  -4.991198872810592E-1    4.314309057586728E-2    4.085927817140270E-5   -1.852981156239517E-4    5.338353094886211E-5   -1.995234992875816E-4   -3.802268541160489E-1    3.197205735646369E-1
 1.000570596825000E+10  -4.990751953714691E-1    4.349842043686551E-2    3.381317789343198E-5   -1.505032018051441E-4    6.239071605239456E-5   -1.749680560341779E-4   -3.799278325677747E-1    3.201512802557031E-1
 1.000571141200000E+10  -4.992876703651619E-1    4.382722764821011E-2    5.698777749578125E-5   -1.543856167034405E-4    7.966609499478852E-5   -2.010200316939178E-4   -3.796689912681095E-1    3.204397069469918E-1
 1.000571685575000E+10  -4.991118370418733E-1    4.428132566296354E-2    7.881012857139332E-5   -1.798604665761530E-4    5.180832917677589E-5   -1.618767430367975E-4   -3.794093265325363E-1    3.206376426370128E-1
 1.000572229950000E+10  -4.991118582810830E-1    4.460199092912447E-2    8.809566822174294E-5   -1.663266405154147E-4    9.179516715588782E-5   -1.451927075809579E-4   -3.790319994360400E-1    3.210690739758431E-1
 1.000572774325000E+10  -4.991277072803440E-1    4.494906085366433E-2    8.816628906929325E-5   -1.332827780906366E-4    5.865374443349139E-5   -1.377718277547819E-4   -3.787723321008152E-1    3.214342535465767E-1
 1.000573318700000E+10  -4.990345239710050E-1    4.525199171753688E-2    8.054855390911479E-5   -1.469084318950920E-4    1.371618986353163E-4   -1.080237996217350E-4   -3.785700093746999E-1    3.218467295085580E-1
 1.000573863075000E+10  -4.989656378195587E-1    4.564126852028031E-2    1.043896802963241E-4   -1.086516475214405E-4    7.978711611485310E-5   -1.252206610645574E-4   -3.782425440799937E-1    3.221702849650716E-1
 1.000574407450000E+10  -4.989008632084094E-1    4.594300720115373E-2    8.300951724131990E-5   -1.172690698378323E-4    1.031929425764772E-4   -1.345512383467166E-4   -3.779296711053935E-1    3.224631121682678E-1
 1.000574951825000E+10  -4.990349305340802E-1    4.643908666118392E-2    1.169888677738963E-4   -1.181999801811437E-4    1.199748670532536E-4   -1.082185885830355E-4   -3.776252360979750E-1    3.229356173953562E-1
 1.000575496200000E+10  -4.989323206739370E-1    4.677228633444772E-2    1.044649126157257E-4   -1.205737472790063E-4    1.226784723351846E-4   -9.495759828788842E-5   -3.772936366702304E-1    3.232398769454373E-1
 1.000576040575000E+10  -4.988953218948621E-1    4.706896816979731E-2    1.309937834562288E-4   -1.031898590491834E-4    1.369731811703231E-4   -1.222478540706457E-4   -3.772044543318228E-1    3.236317655924210E-1
 1.000576584950000E+10  -4.988770847320771E-1    4.730770931068243E-2    1.071369484214074E-4   -1.137181254017715E-4    1.404696733788588E-4   -8.925531057155153E-5   -3.768548603683990E-1    3.238448981675421E-1
 1.000577129325000E+10  -4.987612064214705E-1    4.784576524357931E-2    1.343950265006895E-4   -8.487833971613812E-5    9.551103335656882E-5   -7.859387422273225E-5   -3.764903475189598E-1    3.241499486419296E-1
 1.000577673700000E+10  -4.988571427582038E-1    4.813395372481927E-2    1.402311225747109E-4   -7.359443126929846E-5    1.478621567283503E-4   -6.321477684077278E-5   -3.761885593336219E-1    3.245763046087106E-1
 1.000578218075000E+10  -4.986706171792393E-1    4.844844400743178E-2    1.421303735682967E-4   -9.685015436078916E-5    1.453759916050930E-4   -7.191975364922422E-5   -3.757832169614114E-1    3.248924971292481E-1
 1.000578762450000E+10  -4.986964290455151E-1    4.885675254579255E-2    1.362295703909548E-4   -4.053385079712438E-5    1.725743867122073E-4   -2.858844424155712E-5   -3.755022003835110E-1    3.252288791986119E-1
 1.000579306825000E+10  -4.988273091208447E-1    4.921926530308152E-2    1.937158696783259E-4   -4.128174846221772E-5    1.879339729197254E-4   -2.534719156592205E-5   -3.752708979784755E-1    3.256307151385343E-1
 1.000579851200000E+10  -4.987859850848148E-1    4.956615672195749E-2    1.470232221196285E-4   -2.981728540128556E-5    2.014647160069251E-4   -1.455954156786384E-5   -3.750537591072148E-1    3.260291796952579E-1
 1.000580395575000E+10  -4.987800700815483E-1    4.993947008462896E-2    1.535295318347136E-4   -9.742245499268031E-6    1.607230851304156E-4   -1.973609042356037E-5   -3.746006947451258E-1    3.262568633002558E-1
 1.000580939950000E+10  -4.987637542244631E-1    5.023081902733890E-2    1.567193909420807E-4   -2.647308694810387E-5    2.057891028670979E-4   -2.442053493539347E-5   -3.742791704989161E-1    3.267720952203386E-1
 1.000581484325000E+10  -4.986505149263094E-1    5.047013646046011E-2    1.982213135538420E-4    3.120066596683992E-5    1.891781701732622E-4    8.318836930430545E-6   -3.740078840017903E-1    3.270978612801390E-1
 1.000582028700000E+10  -4.986075548251210E-1    5.098495362849777E-2    2.023768354641207E-4    4.785363304480507E-6    2.075816413726469E-4    1.074219963763317E-5   -3.735284774786466E-1    3.273259219299672E-1
 1.000582573075000E+10  -4.986500602696599E-1    5.132063097428753E-2    2.171167517315353E-4    2.439979302016946E-5    2.251925758086690E-4    1.898558143477755E-5   -3.732772941568584E-1    3.277309688328648E-1
 1.000583117450000E+10  -4.986269364718562E-1    5.166807021499214E-2    2.170831013612558E-4    1.556570751433553E-5    2.356739330302015E-4    3.938847064769688E-5   -3.731746995473258E-1    3.280239213204460E-1
 1.000583661825000E+10  -4.986096422867997E-1    5.200850154632467E-2    2.339672082238538E-4    2.021419011804679E-5    2.243691243562634E-4    5.255541829714130E-5   -3.725435321962846E-1    3.283563486493962E-1
 1.000584206200000E+10  -4.984495173924303E-1    5.236782835561394E-2    2.546344711682791E-4    2.792158657385632E-5    2.339679123874418E-4    2.586785241291517E-5   -3.724200041184257E-1    3.288199597744959E-1
 1.000584750575000E+10  -4.985055736725804E-1    5.261239516367845E-2    2.503287866948281E-4    5.970657732727630E-5    2.369836059366702E-4    6.447536294102410E-5   -3.720478237837994E-1    3.291386157223761E-1
 1.000585294950000E+10  -4.984513600647866E-1    5.305276581107121E-2    2.659530154031014E-4    7.105977596968126E-5    2.582890068534402E-4    9.762210076783476E-5   -3.716697096719322E-1    3.295400608606273E-1
