#  HZ   S   RI   R     50.00 
! Rohde & Schwarz Vector Network Analyzer 
! Rohde-Schwarz,ZNB20-2Port,1311601062101988,3.16
! Created: UTC 3/20/2024, 11:44:51 AM
! freq[Hz]                re:S11                  im:S11                  re:S21                  im:S21                  re:S12                  im:S12                  re:S22                  im:S22
 1.000533998300000E+10  -5.000512373491074E-1    1.972496796894340E-2   -1.577223385202487E-4   -5.549394809361636E-4   -1.038745444575055E-4   -5.118326241337106E-4   -3.964468249657633E-1    2.979254503962925E-1
 1.000534552540000E+10  -5.000265763214172E-1    1.996130743667513E-2   -1.343707612312304E-4   -5.234067975171887E-4   -1.290232555635212E-4   -5.439079210403415E-4   -3.961720953522170E-1    2.984476348688058E-1
 1.000535106780000E+10  -4.999359998231694E-1    2.036752037529369E-2   -1.372985884866727E-4   -5.155645513653817E-4   -1.282381095198259E-4   -5.427992743406930E-4   -3.959601269181536E-1    2.988194620544802E-1
 1.000535661020000E+10  -5.000326237432069E-1    2.070740068588535E-2   -1.315072482140965E-4   -5.355435538873893E-4   -8.706396281170371E-5   -5.424557384365768E-4   -3.957652503372499E-1    2.989243258367519E-1
 1.000536215260000E+10  -4.999158453620040E-1    2.106627108501431E-2   -1.507075399250906E-4   -5.318938923711970E-4   -9.877274188805459E-5   -5.276222608115620E-4   -3.955050056499894E-1    2.993138941288904E-1
 1.000536769500000E+10  -5.000532712435484E-1    2.146411992531176E-2   -1.476612872372340E-4   -5.137361954832980E-4   -8.013072022337307E-5   -5.106463122048027E-4   -3.954301965840723E-1    2.996188275043842E-1
 1.000537323740000E+10  -5.000213875281665E-1    2.174962745720715E-2   -1.647765332143226E-4   -5.505878678751640E-4   -1.188406268612592E-4   -5.193922620699212E-4   -3.951379509269590E-1    2.999638288814506E-1
 1.000537877980000E+10  -4.999835791098784E-1    2.218105340132776E-2   -1.278362290436260E-4   -4.967944661200672E-4   -1.072583306843416E-4   -5.179360016624878E-4   -3.948282878880948E-1    3.003606717837923E-1
 1.000538432220000E+10  -4.999789317520965E-1    2.255129658888009E-2   -1.272962901987593E-4   -5.115403260581261E-4   -8.568409820594717E-5   -4.990079743048129E-4   -3.946631566345408E-1    3.007527721263672E-1
 1.000538986460000E+10  -4.999821506505755E-1    2.273548644798752E-2   -1.273712774101801E-4   -5.167021171481804E-4   -9.096994248080032E-5   -5.396660821999779E-4   -3.943078283349614E-1    3.009983611261613E-1
 1.000539540700000E+10  -4.999816348451510E-1    2.330619610537291E-2   -1.125514725228349E-4   -5.053016981867551E-4   -1.161572013663683E-4   -4.913822278023508E-4   -3.941631760980170E-1    3.012991281007290E-1
 1.000540094940000E+10  -4.998961350645529E-1    2.350015967024939E-2   -1.302446521128149E-4   -4.917777211006158E-4   -1.145259199051355E-4   -5.004006451215701E-4   -3.939739011027286E-1    3.016035872647911E-1
 1.000540649180000E+10  -4.998848956598330E-1    2.387263633570742E-2   -1.111910645531921E-4   -4.653273566582173E-4   -8.506689265394591E-5   -4.876266960655429E-4   -3.937280226974334E-1    3.019809089664616E-1
 1.000541203420000E+10  -4.999098865014848E-1    2.434316341793290E-2   -1.072032263128274E-4   -4.686357835229858E-4   -8.925032843083093E-5   -4.710184427109779E-4   -3.934982092487088E-1    3.022571605365043E-1
 1.000541757660000E+10  -4.999460979834295E-1    2.474229254483790E-2   -1.077207574749569E-4   -4.949395091127305E-4   -8.723852458937589E-5   -4.977079148747862E-4   -3.932968097443688E-1    3.026670822116685E-1
 1.000542311900000E+10  -4.998884996326771E-1    2.503493236294126E-2   -1.136928548862909E-4   -4.776128557393138E-4   -1.148235034397414E-4   -5.052430413244663E-4   -3.930144855321645E-1    3.030694786481422E-1
 1.000542866140000E+10  -5.000703195073021E-1    2.561928635362378E-2   -9.701924529206678E-5   -4.912124821586984E-4   -6.628438750041474E-5   -4.803565668822279E-4   -3.927880923541923E-1    3.031876151784645E-1
 1.000543420380000E+10  -4.999894961070617E-1    2.579910844517330E-2   -1.124590020537686E-4   -4.810924572329368E-4   -8.789930710527627E-5   -4.498972425498938E-4   -3.925961567371298E-1    3.035058516170230E-1
 1.000543974620000E+10  -4.998032778668173E-1    2.606244235054143E-2   -1.033825275298554E-4   -4.631397719791284E-4   -1.002612070286686E-4   -4.748702379281409E-4   -3.922833192571201E-1    3.040828267587523E-1
 1.000544528860000E+10  -4.999271637359047E-1    2.647365731670165E-2   -1.104741197127411E-4   -4.664040809664345E-4   -5.075431544895154E-5   -4.646528793614146E-4   -3.919801522547016E-1    3.043439195548754E-1
 1.000545083100000E+10  -5.000107665532930E-1    2.696224508811689E-2   -1.010634313694892E-4   -4.479609741208363E-4   -7.129900068350366E-5   -4.329248073468547E-4   -3.918319584470431E-1    3.046452452183301E-1
 1.000545637340000E+10  -4.998114280995694E-1    2.714498000346748E-2   -9.458189910472472E-5   -4.659479820020571E-4   -8.214577998704131E-5   -4.446160122454933E-4   -3.915494734770683E-1    3.049867976606322E-1
 1.000546191580000E+10  -4.998086606286248E-1    2.762577909394897E-2   -8.386339610824968E-5   -4.750359329324646E-4   -6.343161163730720E-5   -4.588968500083847E-4   -3.914185952453891E-1    3.052536467220315E-1
 1.000546745820000E+10  -4.998543624755511E-1    2.791545814508496E-2   -8.204351945832796E-5   -4.524876584108238E-4   -7.341415134159332E-5   -4.195297583973420E-4   -3.911005967338950E-1    3.056401031891088E-1
 1.000547300060000E+10  -4.998452263974110E-1    2.825514234967771E-2   -7.747888344287991E-5   -4.273008363177489E-4   -6.710473190329752E-5   -4.181349949128648E-4   -3.909495629600647E-1    3.059419741464521E-1
 1.000547854300000E+10  -4.997748869439473E-1    2.873186472652393E-2   -8.493679762807038E-5   -4.300100255877992E-4   -7.657116713075125E-5   -4.253015996162044E-4   -3.906828068145682E-1    3.063138004121255E-1
 1.000548408540000E+10  -4.998073990164156E-1    2.915466468969300E-2   -8.506246097132374E-5   -4.112843628068832E-4   -1.031893798162704E-4   -4.350102017823441E-4   -3.903810229636283E-1    3.066993572590841E-1
 1.000548962780000E+10  -4.999019931174274E-1    2.930726023158505E-2   -1.136879093784328E-4   -4.207481123705023E-4   -6.446997190230368E-5   -4.136403203882181E-4   -3.903357147954697E-1    3.069652551047619E-1
 1.000549517020000E+10  -4.997542683445576E-1    2.974894696416185E-2   -7.726301088440343E-5   -4.364363472503346E-4   -6.930759914116881E-5   -4.221507706615614E-4   -3.899636903640797E-1    3.072525208248372E-1
 1.000550071260000E+10  -4.998486787246370E-1    3.007253374132631E-2   -7.946771579303913E-5   -4.049103452516631E-4   -2.348048895838309E-5   -3.987745594935695E-4   -3.895493226707507E-1    3.077614003450103E-1
 1.000550625500000E+10  -4.998619997457067E-1    3.048980259145290E-2   -8.273833157484425E-5   -3.884977089153705E-4   -5.065637508801479E-5   -3.778564144890087E-4   -3.894973786628526E-1    3.080299648719896E-1
 1.000551179740000E+10  -4.998109454070712E-1    3.077510130981203E-2   -7.422752818205855E-5   -4.064357859262539E-4   -6.510103305296123E-5   -4.250341027209294E-4   -3.892304561288817E-1    3.082789521105348E-1
 1.000551733980000E+10  -4.996965815850700E-1    3.116718556537447E-2   -4.637433903649227E-5   -3.863050997636132E-4   -3.958423317097897E-5   -3.846993729715712E-4   -3.889848671933798E-1    3.085729605936687E-1
 1.000552288220000E+10  -4.997931875420881E-1    3.156225987901768E-2   -7.866805008528673E-5   -3.934004198581234E-4   -5.380522426391033E-5   -4.015731012951995E-4   -3.886566178925414E-1    3.090109173640130E-1
 1.000552842460000E+10  -4.997541748506185E-1    3.190858961948296E-2   -6.065407004589077E-5   -3.971450951414150E-4   -4.551540977252070E-5   -3.674169870590898E-4   -3.884572814406401E-1    3.093132995033869E-1
 1.000553396700000E+10  -4.997687392849567E-1    3.236574485754815E-2   -2.796150040693671E-5   -3.676557849517361E-4   -8.363959372797102E-5   -3.637778423268930E-4   -3.881397309235820E-1    3.093864309301328E-1
 1.000553950940000E+10  -4.996146972939445E-1    3.261983103613584E-2   -4.779634379132157E-5   -3.496494286882549E-4   -2.596694925490690E-5   -3.649666052788124E-4   -3.878347546349317E-1    3.098648967604012E-1
 1.000554505180000E+10  -4.998318952502359E-1    3.303121132120130E-2   -2.049219481040067E-5   -3.521551363753384E-4   -7.766361409514547E-5   -3.468194318767494E-4   -3.876308363798057E-1    3.101638424678908E-1
 1.000555059420000E+10  -4.995700992786429E-1    3.338611372339467E-2   -4.520460538716065E-5   -3.505642713238529E-4   -2.864180723085042E-5   -3.453326562113585E-4   -3.874148394434547E-1    3.106896260240486E-1
 1.000555613660000E+10  -4.996405739499100E-1    3.371183559813763E-2   -4.952290713417686E-5   -3.654422344423580E-4   -1.002558237910425E-5   -3.407573782870801E-4   -3.871447127411388E-1    3.110104388287518E-1
 1.000556167900000E+10  -4.996383077615889E-1    3.413921993399689E-2   -3.485482406130861E-5   -3.517113195610364E-4   -2.976037441740248E-5   -3.552622236115963E-4   -3.870205664052613E-1    3.113372195976679E-1
 1.000556722140000E+10  -4.997073377994117E-1    3.434249863223472E-2   -5.111043439111279E-5   -3.310378507725209E-4   -2.952343646993797E-5   -3.284188675786443E-4   -3.865926275737182E-1    3.117878112555233E-1
 1.000557276380000E+10  -4.995892002383815E-1    3.482181325418854E-2   -5.805842021965973E-5   -3.295779296118351E-4   -5.766174966799938E-5   -3.461471181502808E-4   -3.863778281119243E-1    3.118944317629298E-1
 1.000557830620000E+10  -4.995697732208290E-1    3.518084927759074E-2   -2.663642833547569E-5   -3.392452072348386E-4   -9.667655650193442E-6   -3.229395167698344E-4   -3.862373633068007E-1    3.124181545756227E-1
 1.000558384860000E+10  -4.995191568095722E-1    3.555245506709067E-2   -7.116687329536130E-6   -3.344683668513367E-4    1.114372779156861E-6   -3.418468911108940E-4   -3.857761034111631E-1    3.127363794378780E-1
 1.000558939100000E+10  -4.995041732345034E-1    3.587422235376453E-2   -5.034678837809408E-5   -3.214830015049166E-4   -2.216737836984805E-5   -3.012178501275314E-4   -3.856700116443385E-1    3.129862752265025E-1
 1.000559493340000E+10  -4.993699811750278E-1    3.631630766974842E-2   -2.684015156844231E-5   -3.050838508949956E-4    1.978642946637047E-6   -2.999440817424777E-4   -3.854573442196916E-1    3.133614311664422E-1
 1.000560047580000E+10  -4.996534419559634E-1    3.665860440679723E-2   -3.863498641969621E-6   -2.950168190155654E-4   -3.171519955745341E-5   -3.052883825379979E-4   -3.851182758213519E-1    3.136165910585627E-1
 1.000560601820000E+10  -4.995882413485065E-1    3.698582534411106E-2   -4.243602955867295E-5   -3.071726808504932E-4   -1.048385412617496E-5   -2.761825744524613E-4   -3.848049365200908E-1    3.139717532362156E-1
 1.000561156060000E+10  -4.995310632829513E-1    3.727865891815185E-2   -2.074716476692519E-5   -2.888940833487210E-4    1.627947541544546E-5   -2.919668822453288E-4   -3.845757177438981E-1    3.145243129600421E-1
 1.000561710300000E+10  -4.994705100920767E-1    3.758368049528862E-2   -6.150099070164684E-6   -3.001609596969635E-4    4.108767436869305E-6   -2.947236529126618E-4   -3.842556364504261E-1    3.147591148909862E-1
 1.000562264540000E+10  -4.995337698639363E-1    3.797976265628743E-2   -2.341744703791993E-5   -2.757390626875140E-4    2.958827557305717E-5   -2.993289391958700E-4   -3.841111485719488E-1    3.149606878944674E-1
 1.000562818780000E+10  -4.995053736091872E-1    3.836108879831320E-2    1.529740682224944E-6   -2.706928125435800E-4    9.178490502530219E-6   -2.815748652031100E-4   -3.837431317956476E-1    3.154115197855044E-1
 1.000563373020000E+10  -4.993956432898998E-1    3.886046789329661E-2    9.877711880976041E-6   -2.843818354330891E-4    1.799454690019595E-5   -2.578194788837984E-4   -3.835007449052324E-1    3.156623930562888E-1
 1.000563927260000E+10  -4.993663475204891E-1    3.909063407699072E-2    1.430274582960248E-5   -2.495797536845662E-4    2.051954044045475E-5   -2.405340514891162E-4   -3.833040119317913E-1    3.159666686021058E-1
 1.000564481500000E+10  -4.994549544199954E-1    3.946467139953272E-2    4.543503864179284E-5   -2.833113433820430E-4    2.204656661511825E-5   -2.462249183411948E-4   -3.828107896598078E-1    3.163915525857438E-1
 1.000565035740000E+10  -4.993685442759370E-1    3.985221102029876E-2    1.833354296423196E-5   -2.265655854315413E-4    1.002259891976170E-5   -2.307303452995494E-4   -3.827603272465212E-1    3.167658855779711E-1
 1.000565589980000E+10  -4.993380478019108E-1    4.025132540760806E-2   -2.295695650987994E-6   -2.264952882667369E-4    4.866429549662363E-5   -2.346982567716741E-4   -3.824512630244209E-1    3.170822753277746E-1
 1.000566144220000E+10  -4.992948212190799E-1    4.057704667279181E-2    4.611875925919899E-5   -2.102935877684525E-4    4.559093300567167E-5   -2.320835284314466E-4   -3.820970300372564E-1    3.173499872087209E-1
 1.000566698460000E+10  -4.993506458506058E-1    4.087276582067401E-2    4.086816764748319E-5   -2.373765992164289E-4    5.808799540153387E-5   -2.059668460526136E-4   -3.818610101079979E-1    3.176933478647335E-1
 1.000567252700000E+10  -4.992228501771623E-1    4.123204658716118E-2    5.704016894330773E-5   -1.868891274341509E-4    7.021542797096196E-5   -2.173416455555716E-4   -3.815585058640736E-1    3.180289957981262E-1
 1.000567806940000E+10  -4.993889462056575E-1    4.172201084185989E-2    1.427455266401677E-5   -2.091731696203120E-4    3.753692231789387E-5   -1.707742291388337E-4   -3.813607662859415E-1    3.182785207709254E-1
 1.000568361180000E+10  -4.991311907615891E-1    4.194223915224263E-2    3.084805397277527E-5   -2.161216869381156E-4    4.740571401999064E-5   -1.969820623659896E-4   -3.809869975545668E-1    3.186187963871674E-1
 1.000568915420000E+10  -4.992122203414969E-1    4.233145615275418E-2    4.079260134736411E-5   -1.971589540125526E-4    3.424328199739954E-5   -2.047668839710821E-4   -3.808201533484425E-1    3.190734510059274E-1
 1.000569469660000E+10  -4.992031514717216E-1    4.272703698050289E-2    8.136526007418530E-5   -1.844849438391640E-4    6.578651552192224E-5   -2.055609435265182E-4   -3.805001228006002E-1    3.193527904372953E-1
 1.000570023900000E+10  -4.992103117533003E-1    4.302058910702001E-2    8.053352985848005E-5   -1.954180778871676E-4    6.246983026946012E-5   -1.911673612931340E-4   -3.801690140450821E-1    3.196490836634672E-1
 1.000570578140000E+10  -4.990838665206958E-1    4.338498901050018E-2    5.246968762972184E-5   -1.655420286645352E-4    1.021800533410895E-4   -1.670230348807707E-4   -3.798264055650015E-1    3.201557064558043E-1
 1.000571132380000E+10  -4.993129522027003E-1    4.374287289691545E-2    7.582381070362697E-5   -1.376329847531435E-4    9.212292944421096E-5   -1.689325002042588E-4   -3.797105488378076E-1    3.202751122326206E-1
 1.000571686620000E+10  -4.991460484185105E-1    4.414923243023119E-2    9.562289688916064E-5   -1.793048728055550E-4    1.132061414185003E-4   -1.521733103413750E-4   -3.793315219961147E-1    3.207531398731916E-1
 1.000572240860000E+10  -4.990626877559780E-1    4.466317554103869E-2    7.577889222543393E-5   -1.773514221423903E-4    9.537187311069986E-5   -1.474362821714281E-4   -3.790507391798513E-1    3.210741596850321E-1
 1.000572795100000E+10  -4.991094436025933E-1    4.491542851757080E-2    1.103021982685497E-4   -1.342667568341013E-4    8.826031180413682E-5   -1.423417559168631E-4   -3.787580943150359E-1    3.217504984388637E-1
 1.000573349340000E+10  -4.990095773915701E-1    4.527355743463435E-2    1.002660308613590E-4   -1.224711795846021E-4    8.994300540665370E-5   -1.195904426123542E-4   -3.784466627205645E-1    3.218794034811735E-1
 1.000573903580000E+10  -4.991987631773216E-1    4.548717053372921E-2    1.067934414581132E-4   -1.335190073114565E-4    1.039737034992378E-4   -1.153307402422867E-4   -3.783149200097824E-1    3.222861642878608E-1
 1.000574457820000E+10  -4.991649611107320E-1    4.595258767577969E-2    1.127280871612768E-4   -1.175080290971720E-4    1.314028075253758E-4   -1.061428269600036E-4   -3.778595622323098E-1    3.225524130271740E-1
 1.000575012060000E+10  -4.989917629918417E-1    4.632107600112517E-2    1.265212269051177E-4   -1.072158343998903E-4    1.251586707883811E-4   -9.784998162939694E-5   -3.775583534084102E-1    3.229106248479670E-1
 1.000575566300000E+10  -4.989247091899323E-1    4.669891985103762E-2    1.148027718716407E-4   -1.058423824106309E-4    1.096810479984492E-4   -8.057013656082430E-5   -3.771628448485110E-1    3.232326585898134E-1
 1.000576120540000E+10  -4.990404979643428E-1    4.699486063098630E-2    1.423487559017338E-4   -7.586429136826127E-5    1.170481086847504E-4   -7.326780442995136E-5   -3.769638694259943E-1    3.235543523784468E-1
 1.000576674780000E+10  -4.989533548600522E-1    4.747752929033274E-2    1.706634432012785E-4   -7.983937387785376E-5    1.336512591156044E-4   -7.741816328614037E-5   -3.766616456530329E-1    3.240369297411871E-1
 1.000577229020000E+10  -4.989783127500440E-1    4.769835774220494E-2    1.391741594444171E-4   -8.354085352671514E-5    1.532154285836152E-4   -6.179839382935358E-5   -3.764447510515329E-1    3.243345552840248E-1
 1.000577783260000E+10  -4.989358520034571E-1    4.813482410984731E-2    1.339117285035252E-4   -8.466252328202268E-5    1.245144350041576E-4   -5.812288047900241E-5   -3.760093865041005E-1    3.246797522452846E-1
 1.000578337500000E+10  -4.989292966118030E-1    4.840966408809648E-2    1.457231751758339E-4   -7.534141149433806E-5    1.478712617815515E-4   -5.866869271113898E-5   -3.757416737952727E-1    3.250603371052407E-1
 1.000578891740000E+10  -4.987867912857385E-1    4.880986824019971E-2    1.597849249502897E-4   -2.891396514879584E-5    1.588936677195113E-4   -3.663396970024961E-5   -3.755104150202338E-1    3.252174705060961E-1
 1.000579445980000E+10  -4.987564251968723E-1    4.925071742374673E-2    1.519383665997503E-4   -2.462110359168061E-5    1.698410931439128E-4   -4.009752639946059E-5   -3.751242421823645E-1    3.259055127628663E-1
 1.000580000220000E+10  -4.986928753745353E-1    4.957012103685102E-2    1.665731406579659E-4   -1.701952619781580E-6    1.700682518016544E-4   -1.467921961577948E-5   -3.746282474853297E-1    3.261074419205215E-1
 1.000580554460000E+10  -4.986659554276212E-1    4.995581634308340E-2    1.963118478208606E-4   -1.973086310479140E-5    2.135318255470046E-4   -5.332033963652404E-7   -3.744882632446765E-1    3.265490703050911E-1
 1.000581108700000E+10  -4.988797922941576E-1    5.031863695190234E-2    2.174461943190073E-4    5.345986242743277E-6    2.100035998920783E-4   -8.941197028748739E-6   -3.741176991548428E-1    3.268273545706577E-1
 1.000581662940000E+10  -4.986982239377714E-1    5.063670670189866E-2    2.079347244812244E-4   -2.756617196825800E-7    2.357263225784449E-4   -2.711322770536548E-5   -3.738814224626220E-1    3.271707350994228E-1
 1.000582217180000E+10  -4.986364671342823E-1    5.092787613800877E-2    2.359350188578114E-4    1.961180676598044E-5    2.436661686942258E-4    1.266533431628993E-5   -3.735202220500099E-1    3.274976832243581E-1
 1.000582771420000E+10  -4.987736372050646E-1    5.135690242925017E-2    2.471675969825324E-4   -2.217184490120931E-7    2.029059934986170E-4    5.552429279641183E-5   -3.732050889085194E-1    3.279980987569552E-1
 1.000583325660000E+10  -4.986190530213017E-1    5.180608253959993E-2    2.612389279989457E-4    4.519947901297712E-5    2.388832020159674E-4    2.234959891421768E-5   -3.727409873653064E-1    3.282290143655872E-1
 1.000583879900000E+10  -4.987447381419560E-1    5.207103765152390E-2    2.568310829671949E-4    4.835527593247231E-5    2.614451873371872E-4    6.559029476546807E-5   -3.725618718955050E-1    3.286069242510244E-1
