#  HZ   S   RI   R     50.00 
! Rohde & Schwarz Vector Network Analyzer 
! Rohde-Schwarz,ZNB20-2Port,1311601062101988,3.16
! Created: UTC 3/20/2024, 11:44:53 AM
! freq[Hz]                re:S11                  im:S11                  re:S21                  im:S21                  re:S12                  im:S12                  re:S22                  im:S22
 1.000534109500000E+10  -4.999333878552834E-1    1.967935460658984E-2   -1.371562260288466E-4   -5.197140661319815E-4   -1.048493921129731E-4   -5.535391058863044E-4   -3.963847291357021E-1    2.980899162326350E-1
 1.000534662187500E+10  -5.000915814938136E-1    1.996823664037200E-2   -1.305928513485062E-4   -5.331874207785159E-4   -8.569114044354536E-5   -5.231394126863641E-4   -3.960857832075809E-1    2.984698755868325E-1
 1.000535214875000E+10  -5.000396245380379E-1    2.033074044791353E-2   -1.380303815806014E-4   -5.757227676757858E-4   -1.110354773718287E-4   -5.503820561787561E-4   -3.960053228631851E-1    2.986946199430968E-1
 1.000535767562500E+10  -5.000083081921249E-1    2.067091451135857E-2   -1.352375159212438E-4   -5.239774763687738E-4   -1.198345641094559E-4   -5.139018182428639E-4   -3.957670952266634E-1    2.990247335811603E-1
 1.000536320250000E+10  -5.000294722311035E-1    2.117156330397273E-2   -1.413110494972343E-4   -5.194066500459120E-4   -9.443175297025428E-5   -5.302034870773700E-4   -3.955591381535653E-1    2.996108550509127E-1
 1.000536872937500E+10  -4.998913535193875E-1    2.150128570096338E-2   -1.178910581423811E-4   -5.160660794378578E-4   -1.001234287124762E-4   -5.327893270712028E-4   -3.952634672310556E-1    2.999284438526428E-1
 1.000537425625000E+10  -4.999353663287909E-1    2.186319580670690E-2   -1.372837915823730E-4   -5.392608874694303E-4   -1.004360516973057E-4   -5.210946064273922E-4   -3.951248910450092E-1    3.001546588263883E-1
 1.000537978312500E+10  -5.000336253904925E-1    2.223490517929971E-2   -1.278578592715257E-4   -4.927197982696548E-4   -1.164152271704779E-4   -5.041659000956739E-4   -3.947666323144599E-1    3.004883673291512E-1
 1.000538531000000E+10  -4.999710215319344E-1    2.246164468668147E-2   -1.452235100082250E-4   -5.088715584253099E-4   -1.284240753572401E-4   -4.775485689837533E-4   -3.944924612576405E-1    3.007567366854492E-1
 1.000539083687500E+10  -4.999211097780979E-1    2.294895803975851E-2   -1.148173948216135E-4   -4.973002296112989E-4   -1.070477314828923E-4   -4.958505498431988E-4   -3.943438042774084E-1    3.010324919601797E-1
 1.000539636375000E+10  -4.999660126744872E-1    2.334517142872709E-2   -1.408329412860425E-4   -5.216060282144123E-4   -1.097483678830959E-4   -4.986566709196954E-4   -3.940982818962697E-1    3.014681835346381E-1
 1.000540189062500E+10  -4.999687828953798E-1    2.359286746934098E-2   -1.213447613157790E-4   -4.720401154413432E-4   -1.048778175333144E-4   -4.902416064735231E-4   -3.938768358663857E-1    3.018102928721839E-1
 1.000540741750000E+10  -4.999750057518181E-1    2.408155416694024E-2   -1.249783895049416E-4   -4.897101614334669E-4   -1.149686037623773E-4   -4.802519573186974E-4   -3.936848665811230E-1    3.021315404315593E-1
 1.000541294437500E+10  -5.000560001418557E-1    2.447287276287140E-2   -1.082659803752643E-4   -4.990385568176223E-4   -1.001925342769452E-4   -4.765719508915576E-4   -3.932590930230098E-1    3.025238028120580E-1
 1.000541847125000E+10  -4.998945129933643E-1    2.479796133476398E-2   -1.189473020781303E-4   -4.761060474795868E-4   -7.746606846438686E-5   -5.000889192664305E-4   -3.930865218359099E-1    3.026971832058655E-1
 1.000542399812500E+10  -4.998945884612929E-1    2.513863539414384E-2   -1.168312914473977E-4   -4.636858319701089E-4   -9.536525838684021E-5   -4.616944494421663E-4   -3.928666123663136E-1    3.029888746880244E-1
 1.000542952500000E+10  -4.999579636311431E-1    2.549252524356920E-2   -1.077358750726417E-4   -4.789061757448956E-4   -8.738192582420226E-5   -4.475041595606707E-4   -3.928117114509174E-1    3.033731043948174E-1
 1.000543505187500E+10  -4.998619244584710E-1    2.591421457391490E-2   -9.317324194161355E-5   -4.802587731432456E-4   -7.665894594850454E-5   -4.540136215995955E-4   -3.924050764781572E-1    3.037151238588165E-1
 1.000544057875000E+10  -4.999993335076955E-1    2.629814462249360E-2   -1.239823915694122E-4   -4.336813126522671E-4   -6.854772632330419E-5   -4.779448922463793E-4   -3.921204633946125E-1    3.040427881540787E-1
 1.000544610562500E+10  -4.998708364397826E-1    2.640885171448307E-2   -9.796530887462801E-5   -4.688025099293439E-4   -7.157108013323365E-5   -4.274528647293520E-4   -3.919246238897340E-1    3.043617897669270E-1
 1.000545163250000E+10  -4.998348081146241E-1    2.697253843119116E-2   -1.070882229493004E-4   -4.508113270792013E-4   -7.687880860137610E-5   -4.355320243648063E-4   -3.918852577370916E-1    3.046674676647033E-1
 1.000545715937500E+10  -4.998307106964722E-1    2.728762904328133E-2   -1.023427751802466E-4   -4.594383463941682E-4   -9.304032165123484E-5   -4.100237218766375E-4   -3.915837798692742E-1    3.049947493217479E-1
 1.000546268625000E+10  -4.998221709421931E-1    2.772448723374620E-2   -1.090932468516654E-4   -4.331010734627031E-4   -4.971663946679745E-5   -4.363377365297231E-4   -3.912836670933584E-1    3.052438075805672E-1
 1.000546821312500E+10  -4.998197607520333E-1    2.803458361335267E-2   -1.174074195494168E-4   -4.389064073156779E-4   -7.829885901677364E-5   -4.205611104084434E-4   -3.910952963308957E-1    3.056056079896188E-1
 1.000547374000000E+10  -5.000308221689689E-1    2.838177515306115E-2   -1.189868859736267E-4   -4.347958807225503E-4   -7.019518045951144E-5   -4.426220646868403E-4   -3.909398492428003E-1    3.059393649936933E-1
 1.000547926687500E+10  -4.998237456110196E-1    2.865531975996762E-2   -1.044090467240468E-4   -4.343866507177049E-4   -6.995549362812871E-5   -3.941337475426650E-4   -3.906016750329047E-1    3.063102779342529E-1
 1.000548479375000E+10  -4.998306260371330E-1    2.909452274183673E-2   -9.650003590271072E-5   -4.286361303994991E-4   -7.363911978262427E-5   -4.256696621595116E-4   -3.902855045949286E-1    3.066740512338611E-1
 1.000549032062500E+10  -4.997882613820011E-1    2.948758802349544E-2   -6.971626519001248E-5   -4.472034585931096E-4   -9.801581093968098E-5   -4.225982277060668E-4   -3.900714764184689E-1    3.070226663765394E-1
 1.000549584750000E+10  -4.999209190819148E-1    2.979179350884595E-2   -7.059627110581484E-5   -4.280734035231645E-4   -6.711654648131452E-5   -4.013701660491452E-4   -3.897739457082526E-1    3.073159466342124E-1
 1.000550137437500E+10  -4.997973452490688E-1    3.018567351509957E-2   -7.075635476736270E-5   -4.238579540567300E-4   -3.496219374310929E-5   -3.956838459629009E-4   -3.895890563521471E-1    3.076635387713627E-1
 1.000550690125000E+10  -4.997309113390181E-1    3.058070112621883E-2   -1.083672780146127E-4   -4.128183051836669E-4   -4.904452304238549E-5   -3.969372490918261E-4   -3.894211883819964E-1    3.080378846685245E-1
 1.000551242812500E+10  -4.998251050979557E-1    3.097259003902801E-2   -8.439692304771359E-5   -3.805324442053624E-4   -8.724997444924511E-5   -3.954106282849339E-4   -3.891857256893231E-1    3.084374752801665E-1
 1.000551795500000E+10  -4.996771665892850E-1    3.126392113312278E-2   -6.513622849029807E-5   -3.952748851846195E-4   -5.466177371385251E-5   -3.995582993794631E-4   -3.889335298628994E-1    3.085776871090107E-1
 1.000552348187500E+10  -4.996990748900984E-1    3.155461135667938E-2   -6.380856874239165E-5   -3.866533445673707E-4   -3.496831464817743E-5   -3.825520247083164E-4   -3.885383814797089E-1    3.090106352937564E-1
 1.000552900875000E+10  -4.996245528650120E-1    3.183655014854937E-2   -7.195880750104423E-5   -3.679955800183430E-4   -6.103506700285816E-5   -3.965313421630984E-4   -3.884561427529964E-1    3.092873870624904E-1
 1.000553453562500E+10  -4.997330454339690E-1    3.249196541911158E-2   -5.252396812351604E-5   -3.749278778981284E-4   -1.904520804177572E-5   -3.723147437858497E-4   -3.881927527665854E-1    3.096962171747968E-1
 1.000554006250000E+10  -4.997835977663627E-1    3.269582044859696E-2   -5.535879985185960E-5   -3.407799956700448E-4   -2.599315786414606E-5   -3.699267493565486E-4   -3.878764754855187E-1    3.099703416374308E-1
 1.000554558937500E+10  -4.997452906586937E-1    3.295169287825899E-2   -6.652377267794437E-5   -3.933740285889108E-4   -5.524347491820745E-5   -3.509625700479023E-4   -3.876434283780453E-1    3.103448985460356E-1
 1.000555111625000E+10  -4.996594542852156E-1    3.331718257923566E-2   -3.442783335406956E-5   -3.453174987979196E-4   -3.094377281243390E-5   -3.584398081599726E-4   -3.873851478268878E-1    3.106295697036486E-1
 1.000555664312500E+10  -4.997543196224126E-1    3.371814610343480E-2   -5.481768162523581E-5   -3.305939376268415E-4   -5.692431832004593E-5   -3.646663751779702E-4   -3.871137845312672E-1    3.108459117283215E-1
 1.000556217000000E+10  -4.996625128683418E-1    3.411097914524717E-2   -4.200005045887055E-5   -3.371780647810353E-4   -3.887281838501301E-5   -3.220323903604828E-4   -3.866972320237340E-1    3.114005364953774E-1
 1.000556769687500E+10  -4.995967364350538E-1    3.450053943367767E-2   -2.309014448970523E-5   -3.531784646543932E-4   -2.771176017856396E-5   -3.212687378146991E-4   -3.866165872811843E-1    3.116303618158793E-1
 1.000557322375000E+10  -4.996230556561274E-1    3.498368909181934E-2   -3.139793046157094E-5   -3.445296882249405E-4   -1.041937454097400E-5   -3.521651984245255E-4   -3.862102600564856E-1    3.120212943754578E-1
 1.000557875062500E+10  -4.996264654182209E-1    3.525251367765918E-2   -4.104347247071142E-5   -3.181318031198733E-4   -1.326833614394170E-5   -3.394163485965959E-4   -3.861062189745506E-1    3.122693648109639E-1
 1.000558427750000E+10  -4.995494407605595E-1    3.548365259941782E-2   -1.821490048793378E-5   -3.329181560441956E-4   -3.067311985607579E-5   -3.380695517189585E-4   -3.857027217156710E-1    3.126649287784060E-1
 1.000558980437500E+10  -4.994406189713865E-1    3.593495822554662E-2   -1.997422382174721E-5   -3.237023472237691E-4   -1.024034373848243E-5   -3.018142657639256E-4   -3.855648290505372E-1    3.128852672275543E-1
 1.000559533125000E+10  -4.996085122938553E-1    3.628325591114785E-2    7.873136326202586E-6   -3.199599734725856E-4   -2.534630417602411E-5   -2.954379273434779E-4   -3.852869503215831E-1    3.135285949680613E-1
 1.000560085812500E+10  -4.995618501743480E-1    3.660234001375646E-2   -3.581065484475751E-6   -3.147299811037957E-4    1.234420287804808E-5   -2.952304900755527E-4   -3.851020996606558E-1    3.136485944278093E-1
 1.000560638500000E+10  -4.995153233441814E-1    3.694823627836632E-2   -6.560684619201988E-6   -2.893040591374900E-4   -7.776001013518321E-6   -2.687458371123073E-4   -3.848122427074844E-1    3.139097647221694E-1
 1.000561191187500E+10  -4.995118350997571E-1    3.735304253727837E-2   -1.293153622531723E-5   -2.911121386384834E-4   -3.139286944696774E-6   -2.873970026015202E-4   -3.845540315688850E-1    3.143739010860138E-1
 1.000561743875000E+10  -4.995094809829405E-1    3.774545759789071E-2   -2.341090181047610E-5   -2.983467709161554E-4    1.333820280267825E-5   -2.563296293240668E-4   -3.841836581428933E-1    3.145972842767050E-1
 1.000562296562500E+10  -4.994942185191195E-1    3.805194352359226E-2    9.395259423359001E-6   -2.981556746453943E-4    9.604079014719535E-6   -2.779889099832831E-4   -3.840511981693205E-1    3.149853956502150E-1
 1.000562849250000E+10  -4.994277225481222E-1    3.841089961122454E-2    6.653655020450418E-6   -2.933638688141324E-4   -8.492612205743769E-6   -3.030629403439742E-4   -3.837643901046603E-1    3.153845049387201E-1
 1.000563401937500E+10  -4.993024029732013E-1    3.879685703835970E-2    1.352718712407427E-5   -2.745378451968281E-4    7.829218653433068E-6   -2.872551196031191E-4   -3.833841690110333E-1    3.157321216487783E-1
 1.000563954625000E+10  -4.993686665614122E-1    3.912419744268471E-2   -1.076549860856962E-6   -2.692312362371931E-4    3.010175377592449E-5   -2.813553561190215E-4   -3.832843778408480E-1    3.160629877588880E-1
 1.000564507312500E+10  -4.994432233450941E-1    3.948438389830602E-2   -3.261035577726362E-6   -2.572131919151445E-4    2.332285736158439E-5   -2.695754246995211E-4   -3.829979035184951E-1    3.164550322178406E-1
 1.000565060000000E+10  -4.993715238123404E-1    3.979533885870578E-2    2.242339695163479E-5   -2.471832503972893E-4    2.424015218700004E-5   -2.578294499116184E-4   -3.826852835525947E-1    3.166623381589134E-1
 1.000565612687500E+10  -4.994669544481721E-1    4.018979404873028E-2    3.967752675199467E-5   -2.381951779423517E-4    1.232909928843750E-5   -2.291701507055392E-4   -3.823034887907503E-1    3.169548549143971E-1
 1.000566165375000E+10  -4.993659485758639E-1    4.049111494596735E-2    3.408140480455134E-5   -2.377996156032775E-4    7.500587470489793E-5   -2.369008355785802E-4   -3.821428200431954E-1    3.174395198824519E-1
 1.000566718062500E+10  -4.993341708385052E-1    4.101338287726933E-2    4.834883655339250E-5   -2.022691364163174E-4    2.085159680470035E-5   -2.261090415341580E-4   -3.817923859931189E-1    3.176985454021168E-1
 1.000567270750000E+10  -4.993414679077072E-1    4.119701569284391E-2    5.381110740011887E-5   -2.003308838648864E-4    3.007842172725953E-5   -2.153067293386515E-4   -3.813718351242925E-1    3.180345154831737E-1
 1.000567823437500E+10  -4.992926330240804E-1    4.164884525540605E-2    4.528383812341941E-5   -2.056494491166723E-4    5.453256237075229E-5   -2.325043361543192E-4   -3.812462069902965E-1    3.184837695482738E-1
 1.000568376125000E+10  -4.992508142102167E-1    4.202341920423568E-2    5.006956445580220E-5   -2.123235261103586E-4    4.126334149401794E-5   -1.826090372948749E-4   -3.810240084105287E-1    3.188893119121934E-1
 1.000568928812500E+10  -4.992333453552216E-1    4.235223981635804E-2    4.143315691830950E-5   -2.051998418937349E-4    9.496121461509767E-6   -1.867676755089041E-4   -3.807258514988490E-1    3.191202151049283E-1
 1.000569481500000E+10  -4.991784602972035E-1    4.261147029053925E-2    7.238264514809696E-5   -2.031771640939684E-4    6.293404070086818E-5   -1.787637581904018E-4   -3.804264362133132E-1    3.193156773853462E-1
 1.000570034187500E+10  -4.992325364058330E-1    4.306140079416137E-2    6.622586865418834E-5   -1.735579822388758E-4    7.440592749367341E-5   -1.818838925675387E-4   -3.801137690157756E-1    3.198231704458102E-1
 1.000570586875000E+10  -4.991813790037920E-1    4.340334222153681E-2    7.256051184183704E-5   -1.744581038276818E-4    5.224988904845548E-5   -1.547976379820485E-4   -3.796931012133371E-1    3.201524473858376E-1
 1.000571139562500E+10  -4.991993171219883E-1    4.379785019121048E-2    7.075473268201836E-5   -1.619405036514143E-4    3.732563550506490E-5   -1.556451721404776E-4   -3.796972590204453E-1    3.205359350911934E-1
 1.000571692250000E+10  -4.992046889145990E-1    4.429780829874435E-2    9.225074708265172E-5   -1.602982480202923E-4    7.723589539956751E-5   -1.704877766299065E-4   -3.791895061951807E-1    3.209452169763778E-1
 1.000572244937500E+10  -4.991322231099719E-1    4.464541285591581E-2    1.047764425920060E-4   -1.467034694249987E-4    9.655537905807308E-5   -1.357183694003231E-4   -3.791270997164836E-1    3.210943441832071E-1
 1.000572797625000E+10  -4.990790999744220E-1    4.477254327652156E-2    9.055687912134510E-5   -1.364970693051801E-4    9.110379505438508E-5   -1.588382148209832E-4   -3.787146426918034E-1    3.214028492271155E-1
 1.000573350312500E+10  -4.990671707757227E-1    4.522370572268909E-2    9.282322975932497E-5   -1.420730793278523E-4    1.468161844467728E-4   -1.125538741738910E-4   -3.784622255806019E-1    3.219275587230932E-1
 1.000573903000000E+10  -4.989367961591996E-1    4.568477638152759E-2    1.163672893968065E-4   -1.521202175089448E-4    1.303723671963623E-4   -1.297620525839449E-4   -3.782062494226882E-1    3.221288240717592E-1
 1.000574455687500E+10  -4.990229758871431E-1    4.600256693404643E-2    1.288280679390710E-4   -1.372318717184649E-4    1.379862998938399E-4   -9.734049034903374E-5   -3.776965350430533E-1    3.225189801207214E-1
 1.000575008375000E+10  -4.988999973941897E-1    4.620525024154410E-2    1.216384226215269E-4   -9.705710871290196E-5    1.319607067735133E-4   -1.211228424845278E-4   -3.775079588733589E-1    3.229330574482526E-1
 1.000575561062500E+10  -4.989641058466115E-1    4.658447925944518E-2    1.399862226757668E-4   -1.045053390281209E-4    1.666034295132788E-4   -5.944061047535491E-5   -3.772164637215588E-1    3.233458672706534E-1
 1.000576113750000E+10  -4.988751864039980E-1    4.688143155838856E-2    1.199431775061319E-4   -9.833245891856720E-5    1.537448749154333E-4   -1.098069849251698E-4   -3.767863365833806E-1    3.235656973314470E-1
 1.000576666437500E+10  -4.989911923282939E-1    4.723744772364859E-2    1.131319743515975E-4   -5.144273225042210E-5    1.419340952839216E-4   -8.104727295689327E-5   -3.766430138524037E-1    3.240002113382599E-1
 1.000577219125000E+10  -4.988908387083383E-1    4.776802523286492E-2    1.546832561299799E-4   -6.182994170773120E-5    1.343259126740927E-4   -5.391965860648917E-5   -3.763350605942267E-1    3.241968358146953E-1
 1.000577771812500E+10  -4.989097336968032E-1    4.813188075139360E-2    1.705774316136608E-4   -7.513090409387914E-5    1.310422068799963E-4   -3.757549956698824E-5   -3.760641141114537E-1    3.246605688188434E-1
 1.000578324500000E+10  -4.989868490437393E-1    4.837232311008387E-2    1.738348819636389E-4   -1.974115211298060E-5    1.345085630587249E-4   -5.375908483649581E-5   -3.756789121934082E-1    3.250789890116292E-1
 1.000578877187500E+10  -4.987744347320796E-1    4.890927517981374E-2    1.695734515439523E-4   -7.011306237477257E-5    1.772909391262696E-4   -4.388188209955094E-5   -3.753247241467940E-1    3.255026343796350E-1
 1.000579429875000E+10  -4.988193020639385E-1    4.916518934091779E-2    1.852692193158960E-4   -3.316019709858416E-5    1.987967110777501E-4   -3.222004283357847E-5   -3.750468240747780E-1    3.257116745305418E-1
 1.000579982562500E+10  -4.987455625447361E-1    4.962909829016781E-2    2.089104758514651E-4   -5.782212960425533E-5    1.815853564516536E-4    1.348790113740575E-5   -3.746661372750252E-1    3.260932313389127E-1
 1.000580535250000E+10  -4.987373221583376E-1    4.999029000740408E-2    1.939682413802932E-4   -1.443375021921948E-5    1.819393534648323E-4   -2.604778026761021E-5   -3.744243488868738E-1    3.264958432360825E-1
 1.000581087937500E+10  -4.987032851377172E-1    5.015901836381371E-2    1.879982163579016E-4    5.014703603756081E-7    1.949523582772338E-4    2.879896733730884E-5   -3.741879708473432E-1    3.267945985990396E-1
 1.000581640625000E+10  -4.988345776168051E-1    5.061203472896291E-2    2.310247490964078E-4    5.185418789379061E-6    2.290560107824013E-4    3.002585005845758E-5   -3.738266832281456E-1    3.270321592412885E-1
 1.000582193312500E+10  -4.987142947964398E-1    5.096360325215135E-2    2.077607796737551E-4    2.850491807357761E-6    2.563208962225890E-4    3.031986613677640E-5   -3.735463534072963E-1    3.274884516124601E-1
 1.000582746000000E+10  -4.987569346525181E-1    5.113354534356943E-2    2.537904262157376E-4    2.127009038230442E-5    2.058789617231974E-4    4.208512569626180E-6   -3.731488155547844E-1    3.277688354457179E-1
 1.000583298687500E+10  -4.986727925719539E-1    5.164268970612441E-2    2.440023723994684E-4    3.066120012151006E-5    2.325542503700468E-4    5.271463524431032E-5   -3.725985765953631E-1    3.282620826294725E-1
 1.000583851375000E+10  -4.985812031477008E-1    5.190742137766736E-2    2.372490753488435E-4    3.250798038819729E-5    2.427500795802746E-4    5.664196093947540E-5   -3.724024478981212E-1    3.286577004588004E-1
