#  HZ   S   RI   R     50.00 
! Rohde & Schwarz Vector Network Analyzer 
! Rohde-Schwarz,ZNB20-2Port,1311601062101988,3.16
! Created: UTC 3/20/2024, 11:45:00 AM
! freq[Hz]                re:S11                  im:S11                  re:S21                  im:S21                  re:S12                  im:S12                  re:S22                  im:S22
 1.000533035100000E+10  -5.000078698440267E-1    1.896171081790235E-2   -1.227950197267629E-4   -5.186852479649745E-4   -1.366146860587781E-4   -5.201733920412886E-4   -3.968657352948162E-1    2.975474308923307E-1
 1.000533592085000E+10  -5.000139429235395E-1    1.945885073664946E-2   -1.236540032004162E-4   -5.253285283681485E-4   -1.227626467926601E-4   -5.544918691438533E-4   -3.965328163168559E-1    2.978386576734592E-1
 1.000534149070000E+10  -5.001177226124707E-1    1.971111344530101E-2   -1.205480890236602E-4   -5.385131863463730E-4   -9.573180787826440E-5   -5.344227603142463E-4   -3.964423920508244E-1    2.982550945529215E-1
 1.000534706055000E+10  -5.000321330629189E-1    2.001016403990624E-2   -1.450235190290549E-4   -4.994172987516682E-4   -1.166052736312342E-4   -5.540507181786388E-4   -3.960889371996911E-1    2.984091569816388E-1
 1.000535263040000E+10  -5.001027578760086E-1    2.051276665801777E-2   -1.219599425602939E-4   -5.386638593563165E-4   -1.338841770972491E-4   -5.319072020547026E-4   -3.958222781988111E-1    2.987569697135593E-1
 1.000535820025000E+10  -4.999530087296680E-1    2.080564476648044E-2   -1.668047286287901E-4   -5.432802818564164E-4   -1.060342596585892E-4   -5.359475988826911E-4   -3.956586504644878E-1    2.991504258674029E-1
 1.000536377010000E+10  -5.001119361706173E-1    2.127181651614059E-2   -1.231453531256446E-4   -5.239671246283083E-4   -1.149398232902242E-4   -5.693123133478641E-4   -3.954719395666623E-1    2.994974870502433E-1
 1.000536933995000E+10  -5.000213524421155E-1    2.158453159853294E-2   -1.313235651049818E-4   -5.091823179951110E-4   -1.028541089708048E-4   -5.136952491860178E-4   -3.952870153748254E-1    2.998204942763134E-1
 1.000537490980000E+10  -5.000311754937846E-1    2.192708493638161E-2   -1.707538041175650E-4   -5.278649306448341E-4   -1.213173946789017E-4   -5.203899238499167E-4   -3.950100536260574E-1    3.001259188906901E-1
 1.000538047965000E+10  -5.000150626525114E-1    2.226209667304638E-2   -1.195559100210721E-4   -4.902091972554522E-4   -9.753546201159643E-5   -5.285018800874619E-4   -3.948240879154927E-1    3.005358923553826E-1
 1.000538604950000E+10  -5.000485705179528E-1    2.261013126341355E-2   -1.183934198717198E-4   -5.191376972491957E-4   -1.022608326251991E-4   -4.732117584331529E-4   -3.945371500012155E-1    3.008695659897047E-1
 1.000539161935000E+10  -4.999865786753262E-1    2.294944909023802E-2   -1.103386201594511E-4   -4.963823549285689E-4   -1.142550402305719E-4   -5.189911124805919E-4   -3.942750963317511E-1    3.010503839397207E-1
 1.000539718920000E+10  -4.998437615116337E-1    2.342621932741275E-2   -1.432494306511056E-4   -4.874069619720182E-4   -7.725227775497726E-5   -4.851678117984943E-4   -3.940365103370784E-1    3.014677334483281E-1
 1.000540275905000E+10  -4.999736178345903E-1    2.373693072058616E-2   -1.186988812566093E-4   -4.894840417540488E-4   -1.080676170524651E-4   -4.737451407770319E-4   -3.939665018440651E-1    3.017607549963633E-1
 1.000540832890000E+10  -4.999308359514477E-1    2.402383632374325E-2   -1.222639363786849E-4   -5.065830150757629E-4   -1.105712600358791E-4   -5.074959878972675E-4   -3.936495760545874E-1    3.022203322162341E-1
 1.000541389875000E+10  -4.999310490044846E-1    2.446696340389208E-2   -1.148290585199948E-4   -4.826101492226456E-4   -1.112422393018628E-4   -4.809250014807558E-4   -3.933423415251090E-1    3.023831509720262E-1
 1.000541946860000E+10  -4.999461051232881E-1    2.472479832465804E-2   -9.747935467253303E-5   -4.648455961856615E-4   -6.879090382225956E-5   -4.665155741424987E-4   -3.932154562635166E-1    3.029049978516776E-1
 1.000542503845000E+10  -4.999977184896823E-1    2.513678633428846E-2   -1.078457169617532E-4   -4.936797395323452E-4   -9.165242533535032E-5   -4.766563616103006E-4   -3.928424388636551E-1    3.030683232882376E-1
 1.000543060830000E+10  -4.998333864722314E-1    2.562844485674521E-2   -1.006282927829157E-4   -4.688907555128339E-4   -5.967270031682267E-5   -4.479923330373838E-4   -3.927237987708791E-1    3.035189263508464E-1
 1.000543617815000E+10  -4.997879993376478E-1    2.594754078700613E-2   -8.666905973053266E-5   -4.525755554564792E-4   -8.048829907613225E-5   -4.703895399727583E-4   -3.923958208954774E-1    3.038253252192915E-1
 1.000544174800000E+10  -4.998299908360004E-1    2.635855009005597E-2   -1.246781423924594E-4   -4.595130010930023E-4   -5.468726647105152E-5   -4.784840927266982E-4   -3.922619162650109E-1    3.040295779062813E-1
 1.000544731785000E+10  -4.998869547318104E-1    2.663213094699367E-2   -1.163213497866135E-4   -4.440608147510143E-4   -8.244497424024689E-5   -4.426555417397794E-4   -3.920245274099298E-1    3.043910978678998E-1
 1.000545288770000E+10  -4.998541012431462E-1    2.705071354646149E-2   -1.109782364088798E-4   -4.445158122634328E-4   -9.551450212385082E-5   -4.318523655155701E-4   -3.916774207555569E-1    3.048100845026157E-1
 1.000545845755000E+10  -4.998471062187630E-1    2.744086802727039E-2   -1.252073573759729E-4   -4.273228633852386E-4   -6.368349417007511E-5   -4.585336929824691E-4   -3.913281726284999E-1    3.049436035152985E-1
 1.000546402740000E+10  -4.998401255503168E-1    2.776849550470972E-2   -1.092309742523475E-4   -4.454252490796659E-4   -6.266560581285665E-5   -4.335230610844976E-4   -3.912494202579793E-1    3.055632971092465E-1
 1.000546959725000E+10  -4.998497596555996E-1    2.814682620193562E-2   -8.037751271840695E-5   -4.360279420146991E-4   -1.052630424323432E-4   -4.605659639155877E-4   -3.908885279336681E-1    3.057912836991489E-1
 1.000547516710000E+10  -4.998688655976097E-1    2.842573584187317E-2   -1.053193748351442E-4   -4.461427960508690E-4   -7.961250436678149E-5   -4.048124748574485E-4   -3.908322906865521E-1    3.060658168589173E-1
 1.000548073695000E+10  -4.998364793874810E-1    2.886270098209417E-2   -9.038390560675166E-5   -4.229797691168866E-4   -8.183502898029422E-5   -4.195978901095943E-4   -3.904809760655943E-1    3.064474846762174E-1
 1.000548630680000E+10  -4.998572028615584E-1    2.918330621261347E-2   -7.575263371410618E-5   -4.242322721676191E-4   -7.793918915910583E-5   -4.285035530850108E-4   -3.901894780279997E-1    3.067110507522051E-1
 1.000549187665000E+10  -4.998299637409077E-1    2.951408642376526E-2   -7.147438977265137E-5   -4.127823700629541E-4   -4.555828962510326E-5   -3.902234833524070E-4   -3.900995214890220E-1    3.071751300142660E-1
 1.000549744650000E+10  -4.997654400193505E-1    2.980129562369723E-2   -6.775048228808305E-5   -3.879204145394262E-4   -3.723293388784358E-5   -4.086323017563406E-4   -3.897448898514177E-1    3.075036443036891E-1
 1.000550301635000E+10  -4.998859922614468E-1    3.027644062123369E-2   -7.014584364172852E-5   -4.252904699927542E-4   -2.321167892027514E-5   -4.007812556483074E-4   -3.895429681075239E-1    3.076969399834630E-1
 1.000550858620000E+10  -4.997139144425757E-1    3.062034065834535E-2   -7.348799844525172E-5   -4.238364978339274E-4   -5.618905141028108E-5   -3.968577944664196E-4   -3.892823256761112E-1    3.081465277080605E-1
 1.000551415605000E+10  -4.997836759110406E-1    3.098153904704454E-2   -5.360690762370403E-5   -4.161663214339228E-4   -3.686341892459666E-5   -3.939605152422843E-4   -3.890386740403050E-1    3.082410876601823E-1
 1.000551972590000E+10  -4.998340429406454E-1    3.132314489258657E-2   -5.897859621863256E-5   -3.671918480292299E-4   -2.932490667911861E-5   -4.046566806269451E-4   -3.889230925126705E-1    3.087668883626282E-1
 1.000552529575000E+10  -4.998070766760760E-1    3.177322398223146E-2   -5.032636191333784E-5   -4.213617909732969E-4   -6.229360117700246E-5   -3.650562108889026E-4   -3.884443451114447E-1    3.091659237076003E-1
 1.000553086560000E+10  -4.997443399195040E-1    3.216396296729255E-2   -5.222171175075112E-5   -3.762255042842491E-4   -2.854399508246436E-5   -4.078155599565557E-4   -3.882521810595957E-1    3.094313464260032E-1
 1.000553643545000E+10  -4.996621877886137E-1    3.238453364848233E-2   -8.150292694749877E-5   -3.627377409749323E-4   -5.117284718406380E-5   -3.718999379351532E-4   -3.879629775025001E-1    3.098295494306857E-1
 1.000554200530000E+10  -4.996636653592675E-1    3.276465372991987E-2   -6.222349358242091E-5   -3.689347575604438E-4   -2.252984412114597E-5   -3.755977838609772E-4   -3.876203425714738E-1    3.099633914006596E-1
 1.000554757515000E+10  -4.997463187041156E-1    3.333755892610445E-2   -4.866966466318471E-5   -3.726516644077253E-4   -1.765032291248585E-5   -3.596140986281151E-4   -3.874382778890945E-1    3.104056545597966E-1
 1.000555314500000E+10  -4.996739142383561E-1    3.354840339268236E-2   -7.711054993119124E-5   -3.382428913743842E-4   -6.435982095894491E-5   -3.636695066666260E-4   -3.872299183867371E-1    3.107240390558627E-1
 1.000555871485000E+10  -4.996423638149308E-1    3.403981279272292E-2   -5.366900758620732E-5   -3.321534349416357E-4    4.815450399197296E-6   -3.096432304451403E-4   -3.869296965770836E-1    3.111606625238517E-1
 1.000556428470000E+10  -4.996885296573716E-1    3.413322349694349E-2   -7.078514605763901E-5   -3.608995880828602E-4   -9.978840611180907E-6   -3.552992304049386E-4   -3.866017091720804E-1    3.114629307275786E-1
 1.000556985455000E+10  -4.995807937275770E-1    3.459303234347121E-2   -2.363794358597649E-5   -3.639186829439778E-4    2.506187207296482E-6   -3.306578652603658E-4   -3.864685027005618E-1    3.118862530598914E-1
 1.000557542440000E+10  -4.996044549399908E-1    3.491189954969626E-2   -5.328807345746143E-5   -3.612694526430640E-4   -2.269395325110035E-5   -3.367483056655864E-4   -3.861739169173469E-1    3.121093145526366E-1
 1.000558099425000E+10  -4.997190026130602E-1    3.537280834981993E-2   -4.356381496631239E-5   -3.242468575930029E-4   -2.056730256797980E-5   -3.320762381071328E-4   -3.859448413705389E-1    3.124370368674597E-1
 1.000558656410000E+10  -4.995656902962622E-1    3.573400027875089E-2   -4.442038005767557E-5   -3.273744425500394E-4   -1.696952512087476E-5   -3.062521126552620E-4   -3.856743846081830E-1    3.128043659854920E-1
 1.000559213395000E+10  -4.995984011876330E-1    3.621526227807049E-2   -3.316675212417434E-5   -3.107999523982157E-4   -2.600227001654163E-5   -3.021211261913063E-4   -3.853829586175072E-1    3.131592347990972E-1
 1.000559770380000E+10  -4.995311004198003E-1    3.644579846969556E-2   -1.332528005403067E-5   -2.755017724020076E-4   -2.119432712157969E-6   -3.090632470852195E-4   -3.850660683096478E-1    3.135339365232199E-1
 1.000560327365000E+10  -4.995766163128930E-1    3.672502766757155E-2   -6.883720074895614E-6   -2.979876823659393E-4   -3.649077501625978E-6   -3.037000149544226E-4   -3.849105286010232E-1    3.139374292123418E-1
 1.000560884350000E+10  -4.994877457735418E-1    3.723329575830515E-2   -1.264857364828111E-5   -2.878063539156957E-4    3.677595419400530E-5   -2.742328944294771E-4   -3.846938775297724E-1    3.141421281042894E-1
 1.000561441335000E+10  -4.995372840235172E-1    3.750580159190986E-2   -2.124507093053882E-5   -2.808782824125095E-4    3.502795909788691E-5   -2.987081388774849E-4   -3.844820918253197E-1    3.143772823100307E-1
 1.000561998320000E+10  -4.994861332436402E-1    3.780698608856629E-2    3.245718178817370E-5   -2.701781311431556E-4    2.714299291501396E-5   -2.690606452138583E-4   -3.841402269687710E-1    3.147906546707768E-1
 1.000562555305000E+10  -4.994691998237734E-1    3.830173073999645E-2   -4.667259991616302E-7   -3.083380059202560E-4   -7.185380518357492E-6   -2.511417804654836E-4   -3.837887935713422E-1    3.152233865209127E-1
 1.000563112290000E+10  -4.995754311418717E-1    3.868255292054416E-2    1.025406441494395E-5   -2.596367491451766E-4    2.659638366122807E-5   -2.820779045197941E-4   -3.834501116907317E-1    3.155808612358767E-1
 1.000563669275000E+10  -4.994276016071751E-1    3.903448869204184E-2   -3.984383192287756E-6   -2.662973694533447E-4    1.271059812506884E-5   -2.322117947632168E-4   -3.833487736738649E-1    3.158885281731757E-1
 1.000564226260000E+10  -4.994128519387934E-1    3.940237876951522E-2    1.196782560379299E-5   -2.624621135769111E-4    2.877520070291317E-5   -2.418154567471146E-4   -3.829624320753621E-1    3.163085245475748E-1
 1.000564783245000E+10  -4.994978158686019E-1    3.972714530906530E-2    4.348866523544392E-5   -2.598700004461289E-4    2.383035607193236E-5   -2.367176330363236E-4   -3.828237173221318E-1    3.167157666524983E-1
 1.000565340230000E+10  -4.994813450991256E-1    4.001245667745942E-2    2.856330984544118E-6   -2.430692878472399E-4    4.932335185498104E-6   -2.338275507120291E-4   -3.824127798305737E-1    3.169807999434519E-1
 1.000565897215000E+10  -4.994588429960889E-1    4.037713853912803E-2    3.423403159689482E-5   -2.524998121015163E-4    4.297806614002615E-5   -2.539367964442099E-4   -3.821831239474778E-1    3.171772865096809E-1
 1.000566454200000E+10  -4.993267156034542E-1    4.078862910217743E-2    1.985923496512568E-5   -1.877123797049926E-4    6.477083896387911E-5   -2.178998546224543E-4   -3.817578753334350E-1    3.175922915536988E-1
 1.000567011185000E+10  -4.992475519296793E-1    4.117384448086465E-2    6.312645118297979E-5   -2.424848976290635E-4    5.446167715303700E-5   -2.420468519822076E-4   -3.816247255055841E-1    3.180174486958592E-1
 1.000567568170000E+10  -4.992684184379469E-1    4.137598047222869E-2    4.371323098851977E-5   -1.928735081924782E-4    5.027842644437385E-5   -2.117257297586767E-4   -3.814293985613806E-1    3.182974938583458E-1
 1.000568125155000E+10  -4.992298561646545E-1    4.191129759887757E-2    8.034771280581449E-5   -1.988655870498987E-4    4.105334956649525E-5   -1.800436435380869E-4   -3.809931819158862E-1    3.186573885219658E-1
 1.000568682140000E+10  -4.993478188012589E-1    4.224607535664004E-2    4.115672614160250E-5   -1.941882995974591E-4    5.563842115185965E-5   -1.816422706878794E-4   -3.808837523612502E-1    3.189345716538816E-1
 1.000569239125000E+10  -4.992528596246478E-1    4.270068250093986E-2    4.307122776914812E-5   -1.646490963304055E-4    3.602412148183172E-5   -1.830592147055254E-4   -3.805226692219822E-1    3.192269426478862E-1
 1.000569796110000E+10  -4.991663660416045E-1    4.284101151548426E-2    3.290862231600228E-5   -1.987592726701342E-4    5.964360606954227E-5   -1.989837777567687E-4   -3.801779971265000E-1    3.196769641826970E-1
 1.000570353095000E+10  -4.991818624833940E-1    4.339167847679973E-2    5.124195465138151E-5   -1.828468709248275E-4    6.141118317576515E-5   -1.823597769243975E-4   -3.799163984173629E-1    3.201278271612681E-1
 1.000570910080000E+10  -4.991575389918984E-1    4.368429076339209E-2    9.197608795615857E-5   -1.506297273438499E-4    6.058955821739746E-5   -1.749114389028766E-4   -3.796118601606878E-1    3.203705021669117E-1
 1.000571467065000E+10  -4.992216682209520E-1    4.399367107038108E-2    1.055237576207689E-4   -1.811805149478052E-4    5.420556857395889E-5   -1.397590443185346E-4   -3.792561303391991E-1    3.207805346081075E-1
 1.000572024050000E+10  -4.991671858997170E-1    4.439468931265986E-2    9.147587450208769E-5   -1.152979630427919E-4    9.763423424832619E-5   -1.496603322270549E-4   -3.790128744411683E-1    3.210632597312901E-1
 1.000572581035000E+10  -4.991546119904091E-1    4.482228880555277E-2    9.238261946531788E-5   -1.554838358150278E-4    1.005938251732567E-4   -1.397316131272674E-4   -3.787978228998712E-1    3.214168895708061E-1
 1.000573138020000E+10  -4.990866216078280E-1    4.520160384472953E-2    9.441983620856809E-5   -1.130160933811729E-4    1.265521535228027E-4   -1.454405425265128E-4   -3.784542692047641E-1    3.217467340351022E-1
 1.000573695005000E+10  -4.990278769106428E-1    4.543417847554315E-2    1.093783015320674E-4   -9.887465280975928E-5    1.349176343379207E-4   -1.258939886364903E-4   -3.781367657176091E-1    3.220994936290676E-1
 1.000574251990000E+10  -4.991371080322669E-1    4.586777041745142E-2    1.072888535181693E-4   -1.256735428904722E-4    1.206245657310057E-4   -1.243635483312092E-4   -3.778001230550723E-1    3.224531703031147E-1
 1.000574808975000E+10  -4.991179589565107E-1    4.619724822579013E-2    1.050279189098065E-4   -9.948256962424088E-5    1.463999119177257E-4   -7.109436137942741E-5   -3.776040779353785E-1    3.227912663083606E-1
 1.000575365960000E+10  -4.990183959026366E-1    4.668585956064237E-2    1.225953221735129E-4   -1.046989274072896E-4    1.373638424159724E-4   -7.403250564557248E-5   -3.772637762687572E-1    3.231041135023630E-1
 1.000575922945000E+10  -4.989858692833702E-1    4.689440805632619E-2    1.588556388593919E-4   -8.209867392355289E-5    1.133353005550964E-4   -7.829388107909311E-5   -3.769329087961786E-1    3.234928813855726E-1
 1.000576479930000E+10  -4.990046139666754E-1    4.714429172952360E-2    1.598663860300387E-4   -5.454079126464299E-5    1.504055718746897E-4   -6.720766600245418E-5   -3.768316195961574E-1    3.237949646246602E-1
 1.000577036915000E+10  -4.990022218467342E-1    4.761261785463504E-2    1.783526669026755E-4   -5.102221507101143E-5    1.593297699077720E-4   -4.428499792930657E-5   -3.764087916041300E-1    3.242315297055864E-1
 1.000577593900000E+10  -4.989706143065508E-1    4.804352621676889E-2    1.488613822105763E-4   -6.790262092562403E-5    1.568269764722901E-4   -6.206376828062764E-5   -3.760432148741142E-1    3.245716999687332E-1
 1.000578150885000E+10  -4.989929753993953E-1    4.847049734024871E-2    1.702761417365982E-4   -4.891416880355117E-5    1.870263790835174E-4   -4.209912686343677E-5   -3.757699524702089E-1    3.249524147057550E-1
 1.000578707870000E+10  -4.989570738520064E-1    4.873506096165654E-2    1.804205245857906E-4   -7.992824325181242E-5    1.989637219236588E-4   -1.815937190575457E-5   -3.753345514546285E-1    3.251673830728061E-1
 1.000579264855000E+10  -4.988492994426463E-1    4.911442610949335E-2    2.262005720922702E-4   -4.369472390652594E-5    1.939687884618579E-4   -2.247726182761877E-5   -3.749869442082872E-1    3.256789409833536E-1
 1.000579821840000E+10  -4.988546327010866E-1    4.948481459196036E-2    2.017337974595485E-4   -5.120842244947177E-5    1.655805733937796E-4   -2.392477291118419E-5   -3.747358565399267E-1    3.259380640703479E-1
 1.000580378825000E+10  -4.988885349879466E-1    4.976890097030373E-2    1.977726748077809E-4   -2.087656559143035E-5    2.102099556374236E-4    1.045200505652401E-5   -3.743832746951904E-1    3.263850403944226E-1
 1.000580935810000E+10  -4.987819255296669E-1    5.012227404707685E-2    2.312730662988473E-4   -2.479814445255368E-5    2.083899734668771E-4   -3.530350086086202E-6   -3.740753840447835E-1    3.266767004644314E-1
 1.000581492795000E+10  -4.987626632455565E-1    5.056239769531528E-2    2.132128727477456E-4    1.467524587211742E-5    2.240814550445553E-4    7.197787192953959E-6   -3.737542864910576E-1    3.270549209972121E-1
 1.000582049780000E+10  -4.986192532122425E-1    5.092391085792185E-2    2.039156750576363E-4    1.379398491224797E-5    2.410876089065479E-4    1.883826388662930E-5   -3.734390216186119E-1    3.274655532915991E-1
 1.000582606765000E+10  -4.988005575357444E-1    5.137519353937259E-2    2.539224903769638E-4    1.579913158058902E-5    2.100527230680800E-4    2.751823524079208E-5   -3.731283925209405E-1    3.276784253712056E-1
 1.000583163750000E+10  -4.985952806908067E-1    5.175129616805538E-2    2.629531095886070E-4    3.801869288059999E-5    2.043468285741543E-4    3.294119019085401E-5   -3.727644439114926E-1    3.281751094949962E-1
