#  HZ   S   RI   R     50.00 
! Rohde & Schwarz Vector Network Analyzer 
! Rohde-Schwarz,ZNB20-2Port,1311601062101988,3.16
! Created: UTC 3/20/2024, 11:45:08 AM
! freq[Hz]                re:S11                  im:S11                  re:S21                  im:S21                  re:S12                  im:S12                  re:S22                  im:S22
 1.000531633800000E+10  -5.000515474176741E-1    1.827039423908847E-2   -1.480706034348118E-4   -5.566539261422677E-4   -1.124231511246982E-4   -5.305723838509169E-4   -3.974044353683947E-1    2.966493199339700E-1
 1.000532196275000E+10  -5.000568231288360E-1    1.847868815097151E-2   -1.282471307235386E-4   -5.515782663838874E-4   -1.380532744433858E-4   -5.513889263908774E-4   -3.972743394779451E-1    2.968745937383863E-1
 1.000532758750000E+10  -5.000908532711072E-1    1.871157531308949E-2   -1.312774312648023E-4   -5.406634400176218E-4   -1.088968638069587E-4   -5.548505517204489E-4   -3.969203741751198E-1    2.972521022649562E-1
 1.000533321225000E+10  -5.000087951133801E-1    1.908818316400603E-2   -1.589793949197422E-4   -5.376164298423020E-4   -1.367025104396537E-4   -5.287059378097182E-4   -3.965863342417261E-1    2.976087545835801E-1
 1.000533883700000E+10  -4.999352282279781E-1    1.952614195754811E-2   -1.612154311491040E-4   -5.217748318873046E-4   -1.194308304056983E-4   -5.283262781179682E-4   -3.965525115494666E-1    2.979951998002029E-1
 1.000534446175000E+10  -5.000457908500551E-1    1.992501202636572E-2   -1.544916082785338E-4   -5.348056589180007E-4   -1.191503460003829E-4   -5.159198215744169E-4   -3.962977957709204E-1    2.982235252462233E-1
 1.000535008650000E+10  -5.000381761217537E-1    2.023328400495424E-2   -1.555101966435679E-4   -5.287120778965834E-4   -8.734051427586538E-5   -5.486055399464247E-4   -3.959693876377616E-1    2.987513448624550E-1
 1.000535571125000E+10  -4.999308383270317E-1    2.071082631211090E-2   -1.427855547626578E-4   -5.355343519562237E-4   -9.113081569866087E-5   -5.158777400485377E-4   -3.956498310974413E-1    2.988930988803723E-1
 1.000536133600000E+10  -4.999370785635576E-1    2.097937055030298E-2   -1.375218381428740E-4   -5.047813494005513E-4   -9.906017980429345E-5   -5.276098230603157E-4   -3.954888248826431E-1    2.991454398069114E-1
 1.000536696075000E+10  -4.999161181638510E-1    2.139751789736982E-2   -1.473599079360424E-4   -5.218508773791298E-4   -1.074842799923427E-4   -5.499328300668395E-4   -3.953771114126727E-1    2.996510163458966E-1
 1.000537258550000E+10  -5.000325549703271E-1    2.170993097718507E-2   -1.427678924708018E-4   -5.290731621301311E-4   -9.862221872539749E-5   -5.370876264044914E-4   -3.951040775494901E-1    3.000280152666849E-1
 1.000537821025000E+10  -5.000149691196766E-1    2.221140321693181E-2   -1.249465254883418E-4   -4.943651120637741E-4   -1.275184827737131E-4   -5.287659381683087E-4   -3.946806170186508E-1    3.003994197864968E-1
 1.000538383500000E+10  -5.000150274698436E-1    2.256327187938382E-2   -1.233494018311996E-4   -4.994234108835559E-4   -7.207447341527477E-5   -5.047478489787778E-4   -3.945616094845855E-1    3.005416797421444E-1
 1.000538945975000E+10  -4.999518869172471E-1    2.278849984129225E-2   -1.314516365746108E-4   -4.966507992328168E-4   -1.024604138182089E-4   -5.211497672200326E-4   -3.943847767906926E-1    3.008555236024876E-1
 1.000539508450000E+10  -4.999102850478948E-1    2.305692665552846E-2   -8.314033512697705E-5   -5.232737471848400E-4   -8.866459240547498E-5   -4.918780763413688E-4   -3.940014383266656E-1    3.013531410403327E-1
 1.000540070925000E+10  -4.999342836501184E-1    2.358022856435824E-2   -1.091445852619470E-4   -4.564867757458350E-4   -8.200439616541572E-5   -4.789444174518667E-4   -3.939969233622599E-1    3.015386931383556E-1
 1.000540633400000E+10  -4.998863824064399E-1    2.382094925597795E-2   -1.236754646247720E-4   -4.955658892665856E-4   -6.786545642391814E-5   -4.865457306316169E-4   -3.936761896615034E-1    3.019144855116966E-1
 1.000541195875000E+10  -4.998631090025477E-1    2.430685585431889E-2   -1.069726788720572E-4   -4.802790792143620E-4   -1.117195046045235E-4   -4.660741735290597E-4   -3.934435348245815E-1    3.024047125950623E-1
 1.000541758350000E+10  -4.999968416367551E-1    2.460226416801509E-2   -1.137671789241288E-4   -4.669462901283883E-4   -1.030082691233382E-4   -4.825878747660361E-4   -3.932333065682800E-1    3.027088085561766E-1
 1.000542320825000E+10  -4.998790719079536E-1    2.502826484322787E-2   -1.325522349040155E-4   -4.771218666155161E-4   -8.611317152916122E-5   -4.753331716709971E-4   -3.928806155162920E-1    3.029072815305717E-1
 1.000542883300000E+10  -4.999374355446458E-1    2.542257693711218E-2   -9.181296294954784E-5   -4.753247031279012E-4   -1.168191156254374E-4   -4.768964210462743E-4   -3.927718268164180E-1    3.033549697271246E-1
 1.000543445775000E+10  -4.999323271205756E-1    2.575549249843298E-2   -1.306820494099659E-4   -4.907834874439560E-4   -8.761619191893045E-5   -4.687066515597612E-4   -3.924280186633533E-1    3.036116067178659E-1
 1.000544008250000E+10  -5.000123205204066E-1    2.608673608058624E-2   -1.060221811137081E-4   -4.675519592812716E-4   -7.189975014070031E-5   -4.284955857665587E-4   -3.923055603396175E-1    3.039344793211257E-1
 1.000544570725000E+10  -4.999809954405873E-1    2.652543851320163E-2   -1.173661045326267E-4   -4.448642670734870E-4   -9.468257592491506E-5   -4.510729419423086E-4   -3.919585567108391E-1    3.043474897701132E-1
 1.000545133200000E+10  -4.999799755100750E-1    2.693431190144674E-2   -9.249852550420422E-5   -4.388122764208376E-4   -1.323162296422701E-4   -4.396967734411448E-4   -3.918204794557197E-1    3.045672107115005E-1
 1.000545695675000E+10  -4.998424206772918E-1    2.727610390107853E-2   -8.038461954727155E-5   -4.372020547293248E-4   -5.928535512542063E-5   -4.036314012955783E-4   -3.915641708661247E-1    3.049520737764185E-1
 1.000546258150000E+10  -4.998750162596491E-1    2.766384298256877E-2   -1.110282807501200E-4   -4.340499974228456E-4   -5.097207367888709E-5   -4.444188883706259E-4   -3.912675887758267E-1    3.053662074125802E-1
 1.000546820625000E+10  -4.996689347041919E-1    2.803511140065084E-2   -8.712280226892208E-5   -4.282466503608008E-4   -6.916428983043375E-5   -4.534723513078867E-4   -3.910675678966015E-1    3.056725212797067E-1
 1.000547383100000E+10  -4.997492138599267E-1    2.842636761153686E-2   -5.753250373312644E-5   -4.197007481081512E-4   -6.476914486116610E-5   -4.342489658610438E-4   -3.908708450787780E-1    3.060098768679236E-1
 1.000547945575000E+10  -4.997565359719818E-1    2.861965157472941E-2   -6.732533154031741E-5   -4.353466518868341E-4   -4.595545457928456E-5   -4.127552913232850E-4   -3.904708708292318E-1    3.065055495117030E-1
 1.000548508050000E+10  -4.997396956579037E-1    2.922066498966446E-2   -9.395892130007528E-5   -4.308947076405072E-4   -3.753696708622635E-5   -4.107135013301982E-4   -3.902988231028333E-1    3.067822662004775E-1
 1.000549070525000E+10  -4.997795009067082E-1    2.941798401469654E-2   -1.065707552804951E-4   -4.236455410597584E-4   -6.762584777920905E-5   -4.160601200117138E-4   -3.901237951012031E-1    3.070689607995038E-1
 1.000549633000000E+10  -4.999324682937099E-1    2.990060966033285E-2   -8.464869085050441E-5   -4.068752831464578E-4   -6.060052375271696E-5   -3.791482213619667E-4   -3.897248178065812E-1    3.073921941741653E-1
 1.000550195475000E+10  -4.997515293475961E-1    3.010557823270409E-2   -6.555671232498774E-5   -3.990835094610012E-4   -5.126630944739288E-5   -4.007383738292470E-4   -3.895200098065641E-1    3.076382239266323E-1
 1.000550757950000E+10  -4.997160210774425E-1    3.055395697086622E-2   -6.352277701433999E-5   -3.950196893442320E-4   -3.172677810098614E-5   -3.768533256559067E-4   -3.892165726477185E-1    3.080415457226842E-1
 1.000551320425000E+10  -4.998746524995354E-1    3.088594968067918E-2   -6.247679252633232E-5   -4.170790534206688E-4   -6.121763283121697E-6   -3.813111922182314E-4   -3.889678504362262E-1    3.084800808828961E-1
 1.000551882900000E+10  -4.997194620641374E-1    3.136198278752679E-2   -4.792910988979980E-5   -4.092468569642762E-4   -4.756185121981129E-5   -3.683632154719313E-4   -3.888426106421614E-1    3.086078391894237E-1
 1.000552445375000E+10  -4.997625629466961E-1    3.167880962970525E-2   -6.179213671348302E-5   -3.966092163668277E-4   -5.512709536631355E-5   -3.956992688245858E-4   -3.885548514570535E-1    3.091063162232707E-1
 1.000553007850000E+10  -4.997649403885465E-1    3.210444925647359E-2   -6.542182216629142E-5   -3.571304379590563E-4   -2.217942524102643E-5   -3.940027277456383E-4   -3.883872167049600E-1    3.092859099180427E-1
 1.000553570325000E+10  -4.997584321488759E-1    3.245827598603639E-2   -4.362803821834375E-5   -3.398764899738651E-4   -4.939577594457289E-5   -3.724451026386108E-4   -3.879026779288882E-1    3.096474588525108E-1
 1.000554132800000E+10  -4.998150490679994E-1    3.271320714247618E-2   -4.379204158067214E-5   -3.629959666394455E-4   -5.202229801176985E-5   -3.723590888136554E-4   -3.878836398470634E-1    3.100074294930754E-1
 1.000554695275000E+10  -4.997867506558786E-1    3.303574624880533E-2   -2.169305330537296E-5   -3.500964693234692E-4   -4.236627895702194E-5   -3.618757417908755E-4   -3.874989797820579E-1    3.103624484707169E-1
 1.000555257750000E+10  -4.997812711844831E-1    3.351913959596489E-2   -5.058707600383151E-5   -3.723424452183139E-4   -1.726136050502602E-5   -3.522554823902130E-4   -3.871850037930181E-1    3.107755230446123E-1
 1.000555820225000E+10  -4.995896949529417E-1    3.386708669240032E-2   -6.173246646840952E-5   -3.684045702111655E-4   -6.944569631889287E-6   -3.716819927691268E-4   -3.869137421502866E-1    3.110598442494672E-1
 1.000556382700000E+10  -4.996333235951864E-1    3.424677880433476E-2   -1.483074099498962E-5   -3.646842493167289E-4   -2.542048481261100E-6   -3.240184545123101E-4   -3.867259144326524E-1    3.113547789271646E-1
 1.000556945175000E+10  -4.997465203972922E-1    3.460234002881243E-2   -1.283941504373545E-5   -3.578666522028687E-4   -3.015299158732197E-5   -3.072518453641476E-4   -3.865438886968408E-1    3.118141061104758E-1
 1.000557507650000E+10  -4.995646777543359E-1    3.504180568197750E-2   -3.330756610082565E-5   -3.188415114955112E-4   -1.218964354936526E-5   -3.556920734184004E-4   -3.861218879664338E-1    3.120741829762527E-1
 1.000558070125000E+10  -4.996559738255447E-1    3.547880420969517E-2    3.838920753905986E-6   -3.138927754077330E-4   -3.701135703428735E-6   -3.168560438657658E-4   -3.859992952444553E-1    3.123588916683646E-1
 1.000558632600000E+10  -4.994736639089642E-1    3.554224835145071E-2   -3.955623244077590E-5   -2.986084516512552E-4    3.358767176882720E-5   -3.095141471890800E-4   -3.856512940751969E-1    3.128166410286030E-1
 1.000559195075000E+10  -4.995549952990585E-1    3.609922883700139E-2   -3.969708290292944E-6   -3.214131788499602E-4    1.022061796889234E-5   -2.842022620223239E-4   -3.854724756912695E-1    3.130950975663926E-1
 1.000559757550000E+10  -4.996117084859066E-1    3.639090223026197E-2   -1.881736786739213E-5   -3.101077019719219E-4    3.080601260437560E-5   -2.938004655332801E-4   -3.852136406372211E-1    3.134376236867101E-1
 1.000560320025000E+10  -4.995640499185992E-1    3.680567524684884E-2   -5.361249290656965E-6   -2.986130770429718E-4    2.980533686960192E-5   -2.902223357523663E-4   -3.848260347978888E-1    3.137910148739615E-1
 1.000560882500000E+10  -4.995343443267348E-1    3.717076520894672E-2    4.649135911202500E-6   -3.150156635089230E-4    1.207515489086456E-5   -2.873009760356763E-4   -3.845613102565741E-1    3.140829636768073E-1
 1.000561444975000E+10  -4.993683222812034E-1    3.759700328380911E-2    4.990881356067164E-6   -3.038118158356592E-4    1.139315688590971E-5   -2.706774409756409E-4   -3.843725665299565E-1    3.144988139125957E-1
 1.000562007450000E+10  -4.996160384485270E-1    3.787815953701412E-2    2.135420692566317E-6   -2.684394615429005E-4    3.935072523599336E-5   -2.753950059645387E-4   -3.840596987298532E-1    3.149073053334762E-1
 1.000562569925000E+10  -4.995094257748755E-1    3.827268079133229E-2    1.530460886850129E-5   -3.008756698996474E-4    1.810699852649025E-5   -2.712471455784643E-4   -3.837451390529923E-1    3.153100713353597E-1
 1.000563132400000E+10  -4.995314654472079E-1    3.863668821892154E-2    7.979358210652712E-6   -2.896604252080618E-4    3.178033698892613E-5   -2.794295712233125E-4   -3.835967721261136E-1    3.154915330077024E-1
 1.000563694875000E+10  -4.993691454271359E-1    3.890092831453035E-2    9.171436415644251E-6   -2.562768638044548E-4    1.594281433551087E-5   -2.323294812015687E-4   -3.832496622106665E-1    3.158004912284478E-1
 1.000564257350000E+10  -4.993422136972753E-1    3.928295406244541E-2    7.083924788124875E-6   -2.755069631209486E-4    2.141108204634815E-5   -2.289895212707418E-4   -3.830768079245352E-1    3.160912793145887E-1
 1.000564819825000E+10  -4.993630918026188E-1    3.970436301833807E-2    1.471151231262978E-5   -2.616476667928693E-4    5.295090789527846E-5   -2.302300333219675E-4   -3.826830920452533E-1    3.165708756909535E-1
 1.000565382300000E+10  -4.994283629952023E-1    4.002379069873967E-2    3.820126001634467E-5   -2.732514554482551E-4    5.178683860484419E-5   -2.442712991112800E-4   -3.823391327726799E-1    3.170774633830825E-1
 1.000565944775000E+10  -4.993283840369814E-1    4.038719563099583E-2    6.595782199480453E-5   -2.358201009388013E-4    4.272835978756143E-5   -2.618458647814383E-4   -3.821782562002620E-1    3.172296679637138E-1
 1.000566507250000E+10  -4.994671046966472E-1    4.091335267538177E-2    6.805176408373716E-5   -2.374800344798229E-4    5.254476311097593E-5   -2.197250964953857E-4   -3.817780733871153E-1    3.176451811594228E-1
 1.000567069725000E+10  -4.992677762946937E-1    4.108553432752103E-2    4.610758128124484E-5   -2.249663042045032E-4    5.850898388580866E-5   -1.880791464148246E-4   -3.816538351652328E-1    3.181071395768005E-1
 1.000567632200000E+10  -4.993463688334514E-1    4.149675647920679E-2    2.624222574032679E-5   -2.175582836502517E-4    6.538998524819322E-5   -1.902736343038644E-4   -3.814793323412586E-1    3.183258006877778E-1
 1.000568194675000E+10  -4.993745065985922E-1    4.193608227576293E-2    3.171495450463013E-5   -2.096077267936910E-4    6.083060736355129E-5   -1.865293986892305E-4   -3.809740381767304E-1    3.186666863962073E-1
 1.000568757150000E+10  -4.993839673148097E-1    4.236342185618534E-2    9.026004564043798E-5   -2.070783608101060E-4    9.823814763775370E-5   -2.052235899968402E-4   -3.806465026664643E-1    3.189711756013230E-1
 1.000569319625000E+10  -4.990545092977770E-1    4.266542837563915E-2    4.482849434094821E-5   -1.973245736801931E-4    5.767897784287879E-5   -1.847149119979705E-4   -3.804089908029167E-1    3.194196968455155E-1
 1.000569882100000E+10  -4.993758906593250E-1    4.299321112294185E-2    6.181918097452696E-5   -1.782039308992461E-4    1.055644497549369E-4   -1.511174539745378E-4   -3.800881638275777E-1    3.197647454131144E-1
 1.000570444575000E+10  -4.990846411284204E-1    4.338228748369783E-2    8.800569973810290E-5   -1.851878631557207E-4    6.768971491787578E-5   -1.474548337191290E-4   -3.797599841655589E-1    3.199589123905724E-1
 1.000571007050000E+10  -4.992766293119218E-1    4.360666678499024E-2    8.041455520038819E-5   -1.444828512307366E-4    8.964602923746957E-5   -1.673284119298174E-4   -3.796021097714601E-1    3.203241056535432E-1
 1.000571569525000E+10  -4.992547317469189E-1    4.405078439239239E-2    1.132071126865686E-4   -1.487540137053211E-4    8.475937090621314E-5   -1.528871167573785E-4   -3.792398012329889E-1    3.207948308234116E-1
 1.000572132000000E+10  -4.991727113964491E-1    4.452559857902302E-2    9.128471897482411E-5   -1.580117491154975E-4    9.505077106124977E-5   -1.557273441777357E-4   -3.789705501292495E-1    3.209859920231102E-1
 1.000572694475000E+10  -4.990346515063183E-1    4.490271124949360E-2    1.138584293080602E-4   -1.301730731661036E-4    1.188961667442673E-4   -1.371799332104619E-4   -3.788128861600525E-1    3.214136391709382E-1
 1.000573256950000E+10  -4.990998883260629E-1    4.525571468568024E-2    8.641868793596248E-5   -1.125151797070981E-4    1.209551561619726E-4   -9.541644482290622E-5   -3.784074534178669E-1    3.217133844392670E-1
 1.000573819425000E+10  -4.990734882983817E-1    4.565953734865934E-2    1.168349968005448E-4   -1.355573296461923E-4    9.313026878901981E-5   -1.006538437303862E-4   -3.780287789741238E-1    3.222627184866953E-1
 1.000574381900000E+10  -4.992105092066468E-1    4.601864583433396E-2    1.071409870641872E-4   -1.460934195505438E-4    1.431360488664519E-4   -1.169284039330079E-4   -3.777315443493898E-1    3.226030019434454E-1
 1.000574944375000E+10  -4.990675396014522E-1    4.631257672400969E-2    1.563913421846008E-4   -1.241917247233481E-4    1.343678107950649E-4   -8.925400871159149E-5   -3.774568455328666E-1    3.227647203218458E-1
 1.000575506850000E+10  -4.990180537346584E-1    4.667218652253519E-2    1.514433601339757E-4   -7.905957499622482E-5    1.464247638401987E-4   -4.488770770896139E-5   -3.771483851760521E-1    3.231377099283257E-1
 1.000576069325000E+10  -4.989657740470805E-1    4.696557847896498E-2    1.523228286229565E-4   -5.688602630138626E-5    1.697373060151383E-4   -6.531939313726232E-5   -3.767902198259558E-1    3.236284506077141E-1
 1.000576631800000E+10  -4.989755826973851E-1    4.742711925520322E-2    1.850440796324213E-4   -6.302582967832371E-5    1.291535503314989E-4   -3.962901973751212E-5   -3.765213569546975E-1    3.238759927230529E-1
 1.000577194275000E+10  -4.989896861711542E-1    4.775515287730875E-2    1.417218578205946E-4   -4.676058347438698E-5    1.568800979169981E-4   -4.485288093827983E-5   -3.761803579613203E-1    3.243902060205585E-1
 1.000577756750000E+10  -4.989885179839116E-1    4.818263921080600E-2    2.001827553110732E-4   -3.469292644507975E-5    1.374290707868811E-4   -4.367275212045389E-5   -3.757867470838986E-1    3.247344698852974E-1
 1.000578319225000E+10  -4.987450186283975E-1    4.855304296804950E-2    1.828313744818304E-4   -3.465724936563444E-5    2.073025603787016E-4   -3.095506349208613E-5   -3.755153853017821E-1    3.249609643658960E-1
 1.000578881700000E+10  -4.987632163314298E-1    4.890741968585301E-2    2.040058183594141E-4   -4.207743612829197E-5    1.865864432463346E-4   -1.118921715134530E-5   -3.752874846634673E-1    3.253676659323853E-1
 1.000579444175000E+10  -4.988719259547238E-1    4.923916470915534E-2    1.938802611820706E-4   -2.694254522984584E-5    1.966028391064333E-4   -2.606360695965116E-5   -3.749099165731370E-1    3.256598014948249E-1
 1.000580006650000E+10  -4.987130757473178E-1    4.977121571924628E-2    1.897409875403739E-4   -2.867518734278501E-5    1.896650920804459E-4   -3.261209196868242E-5   -3.747470906607402E-1    3.261927973864505E-1
 1.000580569125000E+10  -4.987298775591954E-1    4.993779610031239E-2    2.341817858191900E-4    2.120923648903988E-6    2.027064267647650E-4    2.793198400867115E-5   -3.743228021611132E-1    3.265154209117967E-1
 1.000581131600000E+10  -4.988247042764324E-1    5.036665725861823E-2    2.162490905691679E-4    1.400357880111304E-5    2.047446880623927E-4    2.813930506621746E-5   -3.740884899771307E-1    3.267317308445337E-1
 1.000581694075000E+10  -4.987212410085116E-1    5.067687288755458E-2    2.133940044485500E-4    1.453456031213472E-5    2.424313272009115E-4    9.287226381526515E-6   -3.735800284156070E-1    3.273532034529299E-1
 1.000582256550000E+10  -4.987660354973519E-1    5.100892542793635E-2    2.608364311007120E-4    3.207985823677312E-5    2.616218480156970E-4    3.466354440516154E-5   -3.732794533895268E-1    3.275089912665766E-1
