#  HZ   S   RI   R     50.00 
! Rohde & Schwarz Vector Network Analyzer 
! Rohde-Schwarz,ZNB20-2Port,1311601062101988,3.16
! Created: UTC 3/20/2024, 11:45:12 AM
! freq[Hz]                re:S11                  im:S11                  re:S21                  im:S21                  re:S12                  im:S12                  re:S22                  im:S22
 1.000529530600000E+10  -4.999930855262501E-1    1.656739520234212E-2   -1.391748201804540E-4   -5.652877596269296E-4   -1.407501229721796E-4   -5.719330380505031E-4   -3.981454953554167E-1    2.954710008985612E-1
 1.000530102897500E+10  -5.001250817718328E-1    1.697610425579557E-2   -1.621561031208630E-4   -5.619380289698670E-4   -1.222432692689239E-4   -5.580568147218149E-4   -3.980726163790563E-1    2.957851849815091E-1
 1.000530675195000E+10  -4.999318421410902E-1    1.739349719002943E-2   -1.588223726265237E-4   -5.317173715610968E-4   -1.074059350919345E-4   -5.766420926979398E-4   -3.976767627660023E-1    2.961561014527322E-1
 1.000531247492500E+10  -5.000787578268762E-1    1.780393218437301E-2   -1.463007493732527E-4   -5.346410685525233E-4   -1.055039516650403E-4   -5.668772854322986E-4   -3.974936480908989E-1    2.963154860337354E-1
 1.000531819790000E+10  -5.000191798411321E-1    1.808749920184611E-2   -1.621868245055143E-4   -5.334881806176458E-4   -1.166214944053742E-4   -5.420013279877319E-4   -3.972258144326231E-1    2.967116623584619E-1
 1.000532392087500E+10  -5.000588062861558E-1    1.852541278936844E-2   -1.396061166833829E-4   -5.523747028925321E-4   -1.188218386792712E-4   -5.425825851038009E-4   -3.971123266634716E-1    2.971317909844484E-1
 1.000532964385000E+10  -5.001150303946684E-1    1.897470469385833E-2   -1.349064499101128E-4   -5.532611400230493E-4   -1.247388106390316E-4   -5.393424110202143E-4   -3.967988498107688E-1    2.974394998306947E-1
 1.000533536682500E+10  -5.000386627603040E-1    1.943446991427608E-2   -1.641274332696059E-4   -5.471771272688971E-4   -8.617370983698051E-5   -5.427274172207458E-4   -3.965384829634737E-1    2.978136340515379E-1
 1.000534108980000E+10  -4.999668266678461E-1    1.955416189156626E-2   -1.440808385795109E-4   -5.532669702951695E-4   -1.029998026921710E-4   -5.429954282123110E-4   -3.963566920615719E-1    2.980861017265620E-1
 1.000534681277500E+10  -5.000082690606178E-1    2.006682137148238E-2   -1.304786352612490E-4   -5.218893178473075E-4   -1.235821428914356E-4   -5.274138149749910E-4   -3.961367294810568E-1    2.984118964129267E-1
 1.000535253575000E+10  -5.000363680676282E-1    2.045041472792204E-2   -1.477142226823158E-4   -5.283786956370615E-4   -1.050475624553494E-4   -4.999297205458155E-4   -3.958762767653498E-1    2.987615205590512E-1
 1.000535825872500E+10  -5.000773846193233E-1    2.080517291939385E-2   -1.266133965973184E-4   -5.087159397579085E-4   -1.064449030692569E-4   -4.926982894067469E-4   -3.956913412230406E-1    2.990334118714892E-1
 1.000536398170000E+10  -5.001513375494514E-1    2.128794111252447E-2   -1.479057209073130E-4   -5.142133612535226E-4   -8.897691105301208E-5   -5.252564848408127E-4   -3.954294257524402E-1    2.994341707462021E-1
 1.000536970467500E+10  -5.000934793407514E-1    2.157140935982829E-2   -1.309207327538970E-4   -5.192899815385151E-4   -9.052822035652827E-5   -5.358710994020072E-4   -3.952595189523270E-1    2.998337533722449E-1
 1.000537542765000E+10  -4.999924943039425E-1    2.185156034794824E-2   -1.218373486580289E-4   -4.855144979779902E-4   -1.009361862857214E-4   -4.811793877522742E-4   -3.948432327508035E-1    3.001521040990872E-1
 1.000538115062500E+10  -5.000094253165103E-1    2.233458569158298E-2   -1.369263720073869E-4   -5.111637413180189E-4   -1.057145139300990E-4   -5.190399898256390E-4   -3.945676134119759E-1    3.004691674189108E-1
 1.000538687360000E+10  -5.000791248787456E-1    2.267537407569799E-2   -1.037518728655202E-4   -5.067783154333835E-4   -1.032574681160185E-4   -4.877215731610126E-4   -3.945016400403469E-1    3.008396415171175E-1
 1.000539259657500E+10  -4.999471753183151E-1    2.311616387437618E-2   -1.066221502685290E-4   -4.985263521734293E-4   -9.858046465638006E-5   -4.816051174370148E-4   -3.942533318638411E-1    3.011893891958088E-1
 1.000539831955000E+10  -5.000599910587578E-1    2.346230325027735E-2   -1.118300036920731E-4   -5.086225340179718E-4   -7.999983757318994E-5   -4.788045078059794E-4   -3.940255324700617E-1    3.014798182294769E-1
 1.000540404252500E+10  -5.000807369940775E-1    2.383025776000825E-2   -9.875972276200776E-5   -4.845559996957430E-4   -8.159773557813218E-5   -4.694166825889472E-4   -3.939304704437320E-1    3.018295699428414E-1
 1.000540976550000E+10  -5.001278760086124E-1    2.423261290356296E-2   -1.404195164728319E-4   -4.879002071509142E-4   -6.066957241681712E-5   -4.656802252150947E-4   -3.934799706842335E-1    3.021372877535413E-1
 1.000541548847500E+10  -4.999634013959903E-1    2.449286277748402E-2   -8.373686157378936E-5   -4.769460054286599E-4   -9.190345416265381E-5   -4.674560815999148E-4   -3.932695357925488E-1    3.024780809808796E-1
 1.000542121145000E+10  -4.999718983590862E-1    2.496872441480558E-2   -8.362338242474288E-5   -4.530052847395547E-4   -9.429319541047503E-5   -4.653759608118721E-4   -3.930247203395114E-1    3.027839101379263E-1
 1.000542693442500E+10  -4.998976559579024E-1    2.530517011513964E-2   -1.232235300753769E-4   -4.800229412378575E-4   -8.294859117252751E-5   -4.286782742558429E-4   -3.928398871519573E-1    3.030555508688926E-1
 1.000543265740000E+10  -4.998717533360049E-1    2.573137251161211E-2   -1.099626390545066E-4   -4.599586028561815E-4   -7.472309607831837E-5   -4.446614018013101E-4   -3.925310356638040E-1    3.036634209660038E-1
 1.000543838037500E+10  -4.999504568636216E-1    2.605468811030529E-2   -1.030875320177779E-4   -4.456970799118543E-4   -7.844864909769258E-5   -4.348115633791061E-4   -3.924401459942082E-1    3.038818811488316E-1
 1.000544410335000E+10  -4.999587708519850E-1    2.647118213711829E-2   -7.960460851278039E-5   -4.713956200235880E-4   -1.099333385894339E-4   -4.620685047912379E-4   -3.920775551225794E-1    3.041563130587676E-1
 1.000544982632500E+10  -4.999710887644394E-1    2.692826636409215E-2   -1.134542802889858E-4   -4.590278634404140E-4   -5.268648028632831E-5   -4.264004833184454E-4   -3.918026633856561E-1    3.046078679564284E-1
 1.000545554930000E+10  -4.999123751728155E-1    2.710288719298333E-2   -5.949594643883316E-5   -4.607578524851326E-4   -1.001866698045871E-4   -4.366297211616667E-4   -3.915236680446530E-1    3.048561094446502E-1
 1.000546127227500E+10  -4.998045651051530E-1    2.759942560305671E-2   -9.538184797721206E-5   -4.000655689361181E-4   -7.915893276236511E-5   -4.648199374994556E-4   -3.911764455721074E-1    3.052588190090504E-1
 1.000546699525000E+10  -4.999286943146103E-1    2.796885259424348E-2   -1.120744843797727E-4   -4.339835699412482E-4   -4.914137707187215E-5   -4.151700169667147E-4   -3.911499955633381E-1    3.057331729713441E-1
 1.000547271822500E+10  -4.999523657489084E-1    2.836971208243833E-2   -7.999080170332994E-5   -4.375547322422065E-4   -9.010817828278362E-5   -4.458840412869624E-4   -3.907456781780728E-1    3.058724766804666E-1
 1.000547844120000E+10  -4.998406850934559E-1    2.867014565733572E-2   -8.357279471586314E-5   -4.257239063657495E-4   -4.156391608436694E-5   -4.442714746537362E-4   -3.906599352198671E-1    3.063521937877497E-1
 1.000548416417500E+10  -4.998214780619397E-1    2.894536164401987E-2   -9.444848541249790E-5   -4.155993760759107E-4   -6.081841722968039E-5   -4.149007293563119E-4   -3.903543206453347E-1    3.066247954542964E-1
 1.000548988715000E+10  -4.998299511892832E-1    2.936238870532433E-2   -8.626002628091893E-5   -3.963233734050716E-4   -4.334195446379633E-5   -4.287124662253276E-4   -3.899894410552140E-1    3.069579783880938E-1
 1.000549561012500E+10  -4.998716715288949E-1    2.970140016702470E-2   -9.345639208571912E-5   -4.083474075607987E-4   -5.759488314831825E-5   -4.050118645550202E-4   -3.898745626644101E-1    3.073665157743449E-1
 1.000550133310000E+10  -4.998059667559131E-1    3.014297520307893E-2   -9.539813552454255E-5   -3.993139726963308E-4   -4.845161928105866E-5   -4.024832117162469E-4   -3.894638778722896E-1    3.075128898002870E-1
 1.000550705607500E+10  -4.998356223403742E-1    3.057698311363247E-2   -9.207467051312779E-5   -3.812808256099269E-4   -4.722875693606156E-5   -3.878471241616673E-4   -3.893399468679073E-1    3.079727120480978E-1
 1.000551277905000E+10  -4.998954140680384E-1    3.085448006155736E-2   -6.249994671452348E-5   -3.919978941799439E-4   -6.209014554716908E-5   -4.238262186457110E-4   -3.892060593328294E-1    3.083819349551748E-1
 1.000551850202500E+10  -4.997972043568200E-1    3.128042057098494E-2   -4.554085780700706E-5   -3.985860423077352E-4   -4.462159960741117E-5   -4.020862651902246E-4   -3.887288399278205E-1    3.085446817944383E-1
 1.000552422500000E+10  -4.999230308702632E-1    3.168307713201549E-2   -4.179038428964584E-5   -3.962075859051551E-4   -4.250701464049043E-5   -3.888623491854756E-4   -3.884675521732976E-1    3.089487347706550E-1
 1.000552994797500E+10  -4.997914480496314E-1    3.202179074669655E-2   -6.614923943428225E-5   -3.677192852001391E-4   -4.733096547939395E-5   -3.795571804598967E-4   -3.882299167761310E-1    3.092566447685078E-1
 1.000553567095000E+10  -4.997630235229691E-1    3.234583111617829E-2   -6.727914353706711E-5   -3.905041024274812E-4   -3.517398330983436E-5   -3.553405723197555E-4   -3.881893242621254E-1    3.096619125268193E-1
 1.000554139392500E+10  -4.996764698925140E-1    3.269947767391326E-2   -6.089295199786963E-5   -3.568230722877580E-4   -4.281800437267525E-5   -3.575680292945300E-4   -3.877679073833962E-1    3.100315899024369E-1
 1.000554711690000E+10  -4.997500060267158E-1    3.321641532624920E-2   -4.629777085714622E-5   -3.585292209176073E-4   -3.205153483997057E-5   -3.412320237915957E-4   -3.874262066572949E-1    3.104243872034539E-1
 1.000555283987500E+10  -4.999015875701823E-1    3.355548594170148E-2   -2.773832698086773E-5   -3.459282656053232E-4   -5.212681353806636E-5   -3.579184001247637E-4   -3.871733026643771E-1    3.107503838446689E-1
 1.000555856285000E+10  -4.997626518712853E-1    3.378049969684063E-2   -4.391980771447281E-5   -3.370092602764903E-4   -2.676147401133268E-5   -3.460969773373823E-4   -3.869136797275176E-1    3.110504639693276E-1
 1.000556428582500E+10  -4.997780686521213E-1    3.415309216741837E-2   -4.507205042198654E-5   -3.361630626960903E-4   -1.823261520372503E-5   -3.495932109540371E-4   -3.866910910313621E-1    3.114254293768750E-1
 1.000557000880000E+10  -4.997331445359788E-1    3.461212250355414E-2   -2.065108503048352E-5   -3.577410271028269E-4   -1.230144861495089E-5   -3.197031970731328E-4   -3.864904589517676E-1    3.118175605981096E-1
 1.000557573177500E+10  -4.997066559457163E-1    3.504059580475886E-2   -3.739089450665873E-5   -3.556125592092397E-4   -6.297714652011305E-6   -3.186282866905930E-4   -3.861330151630464E-1    3.121727904388162E-1
 1.000558145475000E+10  -4.996223734027458E-1    3.540145433045250E-2   -1.304090302300268E-5   -3.035567401259048E-4   -1.841741423911644E-5   -3.234660041210739E-4   -3.859438477958035E-1    3.123579447154867E-1
 1.000558717772500E+10  -4.997465005019960E-1    3.562326906497475E-2   -4.246796233119256E-6   -3.394621579537096E-4    3.771079329407544E-6   -3.206705745673190E-4   -3.856134430324060E-1    3.129820181796340E-1
 1.000559290070000E+10  -4.996894838983044E-1    3.609811760434117E-2   -8.255028772245872E-6   -3.012890854433366E-4    1.860247089082293E-5   -2.900183537765843E-4   -3.853021864054204E-1    3.130515188591155E-1
 1.000559862367500E+10  -4.997112332701471E-1    3.643629740305609E-2   -2.385028044955776E-5   -3.043717148180372E-4    4.962588642354996E-6   -2.936959842009579E-4   -3.851402577257914E-1    3.136051427912925E-1
 1.000560434665000E+10  -4.996198336668891E-1    3.691891636803454E-2   -1.215740718948064E-5   -2.940372093781938E-4    3.307358390468552E-5   -2.907563240025770E-4   -3.847471376905545E-1    3.138650503502226E-1
 1.000561006962500E+10  -4.994950809185532E-1    3.728477537269171E-2   -6.693150947786661E-6   -2.766793492681173E-4    3.853560678341737E-6   -2.646127363978779E-4   -3.846958687156127E-1    3.142011977221389E-1
 1.000561579260000E+10  -4.994690441986763E-1    3.747855235012389E-2   -1.944689068907417E-5   -2.663203422881855E-4    2.794926155722265E-5   -2.837559523308142E-4   -3.842677108616797E-1    3.145931068964217E-1
 1.000562151557500E+10  -4.996112599512916E-1    3.793522637951945E-2    1.255482419499039E-6   -2.840904053871621E-4    2.035693873193444E-5   -2.484139774809555E-4   -3.840593014390503E-1    3.149136642654445E-1
 1.000562723855000E+10  -4.995489425753596E-1    3.827669933377488E-2    1.413933504426557E-5   -2.712190993898061E-4    1.701858876709567E-5   -2.684870567898531E-4   -3.836951957418520E-1    3.152219898152560E-1
 1.000563296152500E+10  -4.995040994979877E-1    3.858624675708884E-2    6.887780185218271E-6   -2.638023958876458E-4    1.960597833608481E-5   -2.485651227869205E-4   -3.834908454946068E-1    3.156498363465791E-1
 1.000563868450000E+10  -4.995174547460583E-1    3.911199854386899E-2    2.734414616694315E-5   -2.661511515738982E-4    2.052906384322233E-5   -2.362073721363803E-4   -3.831250605206826E-1    3.160556637948623E-1
 1.000564440747500E+10  -4.994409411051380E-1    3.937159041898379E-2    2.254252514230285E-5   -2.273354660009385E-4    4.021235048469715E-5   -2.676545999448705E-4   -3.828603681814214E-1    3.161826796491614E-1
 1.000565013045000E+10  -4.993742904003963E-1    3.985879262372734E-2    4.001343219068482E-5   -2.334268082631715E-4    6.493600358855423E-5   -2.523560285967679E-4   -3.824876735523539E-1    3.166852553472260E-1
 1.000565585342500E+10  -4.994176135215423E-1    4.012693467705401E-2    1.789678182857124E-5   -2.467213064834082E-4    4.323920694401802E-5   -2.261631477136020E-4   -3.822779574856534E-1    3.170088329645855E-1
 1.000566157640000E+10  -4.996068485583177E-1    4.049870376016097E-2    3.166386696433565E-5   -2.381821178475679E-4    3.756271677434370E-5   -2.100346616492791E-4   -3.818783184540795E-1    3.172937252449343E-1
 1.000566729937500E+10  -4.994252438971384E-1    4.089865819322676E-2    4.448714168073704E-5   -2.168260223909913E-4    1.033176988402594E-4   -2.264656804827293E-4   -3.817148258131862E-1    3.177784841389617E-1
 1.000567302235000E+10  -4.992866110959971E-1    4.124977732871495E-2    5.385076233127349E-5   -1.921882642537910E-4    8.053980842313187E-5   -1.966735393903652E-4   -3.813900535470601E-1    3.180325133126066E-1
 1.000567874532500E+10  -4.994267040457425E-1    4.178290216524033E-2    7.560548578807912E-5   -1.903251405752000E-4    5.976195633535167E-5   -1.999626632039564E-4   -3.813339153158208E-1    3.184855627682714E-1
 1.000568446830000E+10  -4.992445570168862E-1    4.201503254533756E-2    5.030629851528652E-5   -1.732742608532986E-4    8.892548572725546E-5   -2.151563602695985E-4   -3.809493308241905E-1    3.188324955842394E-1
 1.000569019127500E+10  -4.993215639615061E-1    4.251387772146979E-2    7.982539539702877E-5   -1.702490082092583E-4    5.901796737236274E-5   -1.972992466493988E-4   -3.805145403917310E-1    3.192816298442739E-1
 1.000569591425000E+10  -4.992788544801816E-1    4.269469792817725E-2    8.505156473227027E-5   -1.753710543735930E-4    7.529339733776631E-5   -1.595437927071452E-4   -3.801732472675018E-1    3.195611859564185E-1
 1.000570163722500E+10  -4.992865499051984E-1    4.307732828527754E-2    7.809421440570111E-5   -1.561605732130956E-4    7.159814010727835E-5   -1.588864079329194E-4   -3.800736143196020E-1    3.198969598105114E-1
 1.000570736020000E+10  -4.992737569733973E-1    4.349256086455056E-2    7.049902834605088E-5   -1.427617247972185E-4    6.535014956803420E-5   -1.557419717988902E-4   -3.797240702408944E-1    3.202096333013051E-1
 1.000571308317500E+10  -4.991469061435325E-1    4.392083149033689E-2    9.594060778670406E-5   -1.801639604267064E-4    1.019342166686756E-4   -1.383071792904350E-4   -3.793590833367703E-1    3.205539089530422E-1
 1.000571880615000E+10  -4.992042921764456E-1    4.438651536531642E-2    6.779693941464647E-5   -1.353998376000413E-4    1.272644939480982E-4   -1.562798412259015E-4   -3.790480693367013E-1    3.210050934830825E-1
 1.000572452912500E+10  -4.993302813968600E-1    4.466074903408650E-2    1.245306323914766E-4   -1.524591006223091E-4    1.051456806807887E-4   -1.546704582716132E-4   -3.787458741067520E-1    3.213216193199438E-1
 1.000573025210000E+10  -4.992131108838453E-1    4.505954158952760E-2    1.041158514925768E-4   -1.408271467294521E-4    9.909710854158062E-5   -1.315851806327051E-4   -3.785102290283788E-1    3.218061429405231E-1
 1.000573597507500E+10  -4.991499811794121E-1    4.549674629597125E-2    1.064304661154828E-4   -1.295532647857214E-4    1.110510350845291E-4   -1.142481647083312E-4   -3.780519971533094E-1    3.219887346169022E-1
 1.000574169805000E+10  -4.990645824943626E-1    4.580461066811380E-2    1.310966481522695E-4   -1.162757917727607E-4    1.185721280417248E-4   -7.067898822492812E-5   -3.779774629708776E-1    3.224046178405505E-1
 1.000574742102500E+10  -4.991814982588754E-1    4.606337931155009E-2    1.533971726790544E-4   -8.210720481771900E-5    1.195060278985391E-4   -8.001872228624833E-5   -3.775363859306134E-1    3.227218716479496E-1
 1.000575314400000E+10  -4.989941072786112E-1    4.655563876686657E-2    1.305789553513566E-4   -8.175285145166147E-5    1.452309583671898E-4   -6.700996968529389E-5   -3.771728991404656E-1    3.230505389348453E-1
 1.000575886697500E+10  -4.989359629687630E-1    4.692127365271932E-2    1.303889770124334E-4   -1.065141667265778E-4    1.669788220964805E-4   -7.581549521700494E-5   -3.768689948115911E-1    3.234772816804458E-1
 1.000576458995000E+10  -4.990501734830333E-1    4.725157147688919E-2    1.292278597351509E-4   -6.731827621633159E-5    1.645493864446582E-4   -7.969043920987990E-5   -3.766730847678729E-1    3.237537179821938E-1
 1.000577031292500E+10  -4.989781860605715E-1    4.756804717063030E-2    1.502359863576891E-4   -5.779723730699613E-5    1.675047323733293E-4   -5.352360828806368E-5   -3.763162451382462E-1    3.242677548765693E-1
 1.000577603590000E+10  -4.988970047594433E-1    4.787693133974187E-2    1.669017926053991E-4   -4.642155937974364E-5    1.552244525568184E-4   -4.932265421813791E-5   -3.759267725259626E-1    3.246390200144785E-1
 1.000578175887500E+10  -4.990020716275761E-1    4.828767594278252E-2    1.784777898317757E-4   -3.187406249794704E-5    1.547210180775930E-4   -5.159561666657257E-5   -3.756127278546379E-1    3.248771249641701E-1
 1.000578748185000E+10  -4.988867345199106E-1    4.882131481817866E-2    1.952927393586053E-4   -6.863296595470391E-5    1.956389168381091E-4   -2.101990642538951E-5   -3.753355852989111E-1    3.253429580078879E-1
 1.000579320482500E+10  -4.989395344889745E-1    4.912619977981654E-2    1.854191198690722E-4   -3.077669041612671E-5    1.504128261236118E-4   -1.894062628188226E-5   -3.750230942589739E-1    3.255779238460708E-1
 1.000579892780000E+10  -4.987574045604015E-1    4.945143330319013E-2    1.895624453333571E-4   -1.136270899337526E-5    2.185310883263283E-4   -2.263596905802765E-5   -3.747121387363216E-1    3.259475026597197E-1
 1.000580465077500E+10  -4.988752261997213E-1    4.980259571243518E-2    1.976644683603997E-4    2.185129066391195E-5    2.018054576781133E-4    3.474494742924778E-5   -3.743005038756954E-1    3.264445130132603E-1
 1.000581037375000E+10  -4.988019447706773E-1    5.024066389115128E-2    2.164390595243141E-4    3.082437128467242E-5    2.188308121729143E-4    2.596213405732645E-6   -3.738671539855384E-1    3.267634911516824E-1
