#  HZ   S   RI   R     50.00 
! Rohde & Schwarz Vector Network Analyzer 
! Rohde-Schwarz,ZNB20-2Port,1311601062101988,3.16
! Created: UTC 3/20/2024, 11:45:33 AM
! freq[Hz]                re:S11                  im:S11                  re:S21                  im:S21                  re:S12                  im:S12                  re:S22                  im:S22
 1.000526642500000E+10  -5.002063459478389E-1    1.490446888605642E-2   -1.520233325504016E-4   -5.900802047839393E-4   -1.409981178480204E-4   -5.871097996879642E-4   -3.993764322789498E-1    2.936086430468786E-1
 1.000527225245000E+10  -5.000917510370657E-1    1.523301877778914E-2   -1.536500906396821E-4   -5.702574040171712E-4   -1.336869833732927E-4   -5.810785550376639E-4   -3.990742428217132E-1    2.939092123237896E-1
 1.000527807990000E+10  -5.001757600193696E-1    1.557489687229162E-2   -1.493226932017627E-4   -5.805085119519208E-4   -1.308624682585603E-4   -5.452708369542487E-4   -3.989249887971270E-1    2.942529688013137E-1
 1.000528390735000E+10  -5.001122376597547E-1    1.597028238510539E-2   -1.339565037856815E-4   -5.501740421800613E-4   -1.045042892865563E-4   -5.798046300728354E-4   -3.985837912746931E-1    2.946608381757201E-1
 1.000528973480000E+10  -4.999514018290409E-1    1.629250512402101E-2   -1.487202637187391E-4   -5.745642047056544E-4   -1.240904121459868E-4   -5.517042878094319E-4   -3.984353006994543E-1    2.950442236505783E-1
 1.000529556225000E+10  -5.000760676588192E-1    1.668354702401043E-2   -1.706799706627541E-4   -5.343131147903290E-4   -1.175074461056162E-4   -5.576366996730402E-4   -3.980495948886968E-1    2.954417395846993E-1
 1.000530138970000E+10  -5.001488717520403E-1    1.713395674596578E-2   -1.203489004611952E-4   -5.644606009658861E-4   -1.057367502508941E-4   -5.820794050266437E-4   -3.979057438155649E-1    2.957928419030864E-1
 1.000530721715000E+10  -4.999896159836261E-1    1.745367841259465E-2   -1.309089675764917E-4   -5.777644129040577E-4   -1.178154521146690E-4   -5.661033031285363E-4   -3.977574038369310E-1    2.960939401603325E-1
 1.000531304460000E+10  -5.000470997687181E-1    1.788380208363883E-2   -1.410767114858833E-4   -5.424786703878371E-4   -1.144117203687449E-4   -5.380858552047996E-4   -3.974327000062008E-1    2.964396623190112E-1
 1.000531887205000E+10  -5.000447206271105E-1    1.823810894689362E-2   -1.320699520018784E-4   -5.467033581757489E-4   -1.156215741655316E-4   -5.262350403362987E-4   -3.972324143153318E-1    2.967488162599846E-1
 1.000532469950000E+10  -5.001155262211421E-1    1.861651557776792E-2   -1.480127493375463E-4   -5.491450322456520E-4   -7.606846256585485E-5   -5.465896222790787E-4   -3.970461358070633E-1    2.971882760869614E-1
 1.000533052695000E+10  -5.001447187945531E-1    1.904175793050197E-2   -1.266090911178957E-4   -5.113104758417495E-4   -1.196301178804945E-4   -5.250540905732629E-4   -3.967654896868201E-1    2.974314392980562E-1
 1.000533635440000E+10  -5.000338365206494E-1    1.937552631285583E-2   -1.604907381806209E-4   -5.147454580557543E-4   -9.487584039461944E-5   -5.038455285929549E-4   -3.965040496074145E-1    2.978290394667144E-1
 1.000534218185000E+10  -5.000567173869140E-1    1.984547321708706E-2   -1.286872735947753E-4   -5.059052054434425E-4   -1.079089975214656E-4   -5.389188764535981E-4   -3.962120081420226E-1    2.982238186569315E-1
 1.000534800930000E+10  -5.001044376663238E-1    2.014696310422044E-2   -1.195225772695106E-4   -5.140454023202744E-4   -1.171953713354890E-4   -5.245428961284689E-4   -3.959692167545446E-1    2.986643322852808E-1
 1.000535383675000E+10  -5.001330161717553E-1    2.051012209218619E-2   -1.244912209732673E-4   -5.380234171694699E-4   -9.791938656223660E-5   -5.319936707864052E-4   -3.958762227218539E-1    2.987610410947794E-1
 1.000535966420000E+10  -5.001384085492194E-1    2.081022585163702E-2   -9.413845966065681E-5   -5.342755442757942E-4   -1.142260309741321E-4   -5.219722185645600E-4   -3.955206747292478E-1    2.990126949683933E-1
 1.000536549165000E+10  -5.000680165375974E-1    2.132871378227450E-2   -1.239056388943571E-4   -4.746765734869726E-4   -1.101875289257331E-4   -5.321190293330177E-4   -3.953216392306992E-1    2.995722939950441E-1
 1.000537131910000E+10  -5.001377387216156E-1    2.168651357082723E-2   -1.504938270163006E-4   -5.217236212739378E-4   -1.194262611592038E-4   -5.172986028074654E-4   -3.951362595065603E-1    2.998967992069202E-1
 1.000537714655000E+10  -5.001168947848953E-1    2.195973101829221E-2   -1.162993011415304E-4   -5.016883353321620E-4   -9.583133827283635E-5   -4.952222408720835E-4   -3.947968156628806E-1    3.002633549335806E-1
 1.000538297400000E+10  -4.999926042155853E-1    2.244076101995389E-2   -1.105210817115030E-4   -5.019629827864731E-4   -7.803862065419443E-5   -4.937998998437291E-4   -3.946312813396161E-1    3.005441905882499E-1
 1.000538880145000E+10  -4.999517316051869E-1    2.282780446271034E-2   -1.419274095647371E-4   -4.955353281052851E-4   -8.772700525275755E-5   -5.077651262667122E-4   -3.943425174509940E-1    3.009268116024369E-1
 1.000539462890000E+10  -5.000502682923782E-1    2.318979225558207E-2   -1.164076669885164E-4   -4.797531496595726E-4   -9.281209531854318E-5   -4.792822933637924E-4   -3.940836844009353E-1    3.011832686964588E-1
 1.000540045635000E+10  -4.998451009535383E-1    2.353148890878979E-2   -1.190277485082930E-4   -4.704093249916422E-4   -7.962150809523687E-5   -4.997447083412976E-4   -3.939329126731052E-1    3.015418815191672E-1
 1.000540628380000E+10  -4.999322254237253E-1    2.385116497077065E-2   -1.178070626231080E-4   -5.006772709344159E-4   -6.276944266230053E-5   -4.949834306595200E-4   -3.937189143322953E-1    3.020966895929758E-1
 1.000541211125000E+10  -5.000186855532336E-1    2.447083464072389E-2   -1.112295274828088E-4   -4.706960783145242E-4   -9.956170509506685E-5   -4.704098622413478E-4   -3.934717165927132E-1    3.023115675633868E-1
 1.000541793870000E+10  -4.999875517274176E-1    2.484065186787091E-2   -1.142240645559953E-4   -4.519133448209933E-4   -1.049714307456878E-4   -4.760365806595756E-4   -3.930717858199026E-1    3.026192825243940E-1
 1.000542376615000E+10  -5.000351727829310E-1    2.514466650299878E-2   -1.177818703143575E-4   -4.700524064277008E-4   -7.394715166692230E-5   -4.524200785964698E-4   -3.927768101941931E-1    3.030149430540973E-1
 1.000542959360000E+10  -4.999676768370487E-1    2.548085287893871E-2   -9.085420264726202E-5   -4.856566290466438E-4   -9.246854202680099E-5   -4.649875305276880E-4   -3.927917000203438E-1    3.034276418330105E-1
 1.000543542105000E+10  -5.000169526898441E-1    2.577455073540680E-2   -9.048051390810824E-5   -4.630137440145563E-4   -5.285252404056342E-5   -4.522088079670211E-4   -3.923300870686260E-1    3.036376158183957E-1
 1.000544124850000E+10  -4.999749919213314E-1    2.625803982921713E-2   -8.900980126996852E-5   -4.498005382144596E-4   -8.490492734181237E-5   -4.683649491703228E-4   -3.921930440447871E-1    3.039281612611477E-1
 1.000544707595000E+10  -4.999380827227006E-1    2.670377218575285E-2   -6.487215615747239E-5   -4.275385951555227E-4   -7.800205501195345E-5   -4.562406433694235E-4   -3.919493950031096E-1    3.043567557007917E-1
 1.000545290340000E+10  -4.998698329014262E-1    2.699419174723130E-2   -8.010707261877346E-5   -4.631027436658247E-4   -6.249616230045920E-5   -4.451102908948537E-4   -3.916604796797850E-1    3.047592616501786E-1
 1.000545873085000E+10  -4.998374994019518E-1    2.739218483901210E-2   -6.114652274424661E-5   -4.291319069021263E-4   -6.470558720159350E-5   -4.354093927875585E-4   -3.914020966688792E-1    3.050700998661213E-1
 1.000546455830000E+10  -4.999788986575525E-1    2.774975555286984E-2   -1.149646445992746E-4   -4.375265922339702E-4   -5.351439895946208E-5   -4.063697608397205E-4   -3.910509448353047E-1    3.053929194389398E-1
 1.000547038575000E+10  -4.997771358061700E-1    2.798482387641670E-2   -7.616333020015962E-5   -4.471213212418835E-4   -6.396664070897663E-5   -4.367566450535063E-4   -3.909706715203631E-1    3.057842685296595E-1
 1.000547621320000E+10  -4.998711091524813E-1    2.845607219389016E-2   -6.611540478605433E-5   -4.019253871234822E-4   -7.528974937184782E-5   -4.304047993959809E-4   -3.905362975801197E-1    3.062522671204333E-1
 1.000548204065000E+10  -4.997883354192780E-1    2.888831625483319E-2   -7.510408855744582E-5   -4.080863655102245E-4   -3.577588982458468E-5   -3.999868841145269E-4   -3.904444932328779E-1    3.064451763436460E-1
 1.000548786810000E+10  -4.999494787035754E-1    2.920559781547556E-2   -7.072658551133589E-5   -4.232262534249705E-4   -4.659172497102472E-5   -4.149343001636538E-4   -3.900125391956614E-1    3.068754277951753E-1
 1.000549369555000E+10  -4.998553968203699E-1    2.965630301533833E-2   -5.304662981196852E-5   -4.008676740409213E-4   -4.233531881336595E-5   -3.948098408626870E-4   -3.898377265756697E-1    3.071569470024281E-1
 1.000549952300000E+10  -4.998246139933606E-1    3.005327637976288E-2   -5.105189860260363E-5   -4.020236623222064E-4   -2.704374284190443E-5   -3.780936453183982E-4   -3.895419948053766E-1    3.075341283158641E-1
 1.000550535045000E+10  -4.998804570535344E-1    3.037811763603489E-2   -5.722402179106169E-5   -4.099047441742471E-4   -4.862692209199798E-5   -4.047157055732582E-4   -3.893169106707367E-1    3.078363757408675E-1
 1.000551117790000E+10  -4.998378181800016E-1    3.074761807094547E-2   -7.367533555465716E-5   -3.899211599153476E-4   -3.899919033109808E-5   -4.024293070678437E-4   -3.890675963841999E-1    3.080559061328472E-1
 1.000551700535000E+10  -4.997741024670458E-1    3.111551435375432E-2   -5.510810051060575E-5   -3.860641035316499E-4   -4.379085755040975E-5   -3.978019032556048E-4   -3.887576804270528E-1    3.085648588526395E-1
 1.000552283280000E+10  -4.997951974736314E-1    3.149871230372862E-2   -4.172309037704440E-5   -3.868562620428406E-4   -1.697233092310960E-5   -3.690195479009037E-4   -3.885120980890577E-1    3.088963958996703E-1
 1.000552866025000E+10  -4.998665071166279E-1    3.197459376193486E-2   -5.845205220548472E-5   -3.865325718139482E-4   -2.831880645390403E-5   -3.662149941902914E-4   -3.882108831550594E-1    3.093026637699067E-1
 1.000553448770000E+10  -4.997913501137891E-1    3.209802547543169E-2   -5.899678564744428E-5   -3.657731728749128E-4   -3.546662924279620E-5   -3.381743158839528E-4   -3.880794619413270E-1    3.096014432757064E-1
 1.000554031515000E+10  -4.997524031618087E-1    3.269770076059993E-2   -1.220280341338411E-5   -3.834172466727176E-4   -3.813615049239024E-5   -3.465280503062284E-4   -3.876952057072449E-1    3.099362648367210E-1
 1.000554614260000E+10  -4.997972279243536E-1    3.294716444486597E-2   -4.350306026740677E-5   -3.601615649627897E-4   -2.223452335256770E-5   -3.532993989851315E-4   -3.874843195285544E-1    3.104071308081250E-1
 1.000555197005000E+10  -4.997425980761549E-1    3.339614137212739E-2   -3.470675660377308E-5   -3.511250760522800E-4   -1.502838130305887E-5   -3.344574991055857E-4   -3.870900774694789E-1    3.107406877920547E-1
 1.000555779750000E+10  -4.995361839047878E-1    3.378415663158518E-2   -4.004138816710788E-5   -3.409357790076237E-4    5.168089298432790E-6   -3.383818628690372E-4   -3.869817617230309E-1    3.110536356245838E-1
 1.000556362495000E+10  -4.997410431305984E-1    3.422248687743167E-2   -7.615292882982350E-6   -3.310691464164582E-4   -1.665556060930267E-5   -3.378596524549869E-4   -3.868157316763673E-1    3.115412997886508E-1
 1.000556945240000E+10  -4.996747692473173E-1    3.457809016440416E-2   -6.782122440935623E-6   -3.243165820680825E-4    2.903036567345203E-6   -3.356754204037632E-4   -3.864240154552653E-1    3.117120968593408E-1
 1.000557527985000E+10  -4.996702102251982E-1    3.498607601992033E-2   -1.142185894866809E-5   -3.340037783220366E-4   -2.096683665468452E-6   -3.171670069254091E-4   -3.861142518697974E-1    3.120807674771636E-1
 1.000558110730000E+10  -4.997123225971360E-1    3.533531157832978E-2   -9.280808429770859E-6   -2.869275752635679E-4    8.342650290738071E-6   -2.821145950482787E-4   -3.860430343876113E-1    3.125524767816154E-1
 1.000558693475000E+10  -4.996261710783022E-1    3.578387723119790E-2   -8.810930989881162E-6   -2.919230235025196E-4   -8.383423695020536E-6   -3.158976734796402E-4   -3.855859312478321E-1    3.127861256311586E-1
 1.000559276220000E+10  -4.996774087015473E-1    3.611273832755250E-2   -2.769790858431566E-6   -2.981220432569812E-4    1.617876874936438E-5   -3.021680823216180E-4   -3.852455752528002E-1    3.131145601163018E-1
 1.000559858965000E+10  -4.996047137928352E-1    3.641212877308175E-2   -1.674015808962756E-5   -2.960326643924896E-4    2.227542666283827E-5   -2.984152081235526E-4   -3.850498888550185E-1    3.135001680206776E-1
 1.000560441710000E+10  -4.997480451978930E-1    3.686793578941602E-2   -1.698595466367157E-5   -2.908128725285349E-4   -1.001902530385057E-5   -2.499849071449782E-4   -3.847245452040216E-1    3.140101407791654E-1
 1.000561024455000E+10  -4.996029968482747E-1    3.730577608355127E-2    2.621543905016751E-5   -2.602308897434952E-4    3.241186281819505E-5   -2.752456603503539E-4   -3.843979172018998E-1    3.143332338969891E-1
 1.000561607200000E+10  -4.995190457430947E-1    3.756365950432901E-2    2.310570035088972E-5   -2.588492285264724E-4    2.024379846260311E-5   -2.477798007771373E-4   -3.841431141030349E-1    3.144618650629442E-1
 1.000562189945000E+10  -4.995416045843813E-1    3.806130074606102E-2    2.303010808685244E-5   -2.704749315207659E-4    4.472522603088425E-5   -2.493209552886108E-4   -3.839134752335173E-1    3.149426319348309E-1
 1.000562772690000E+10  -4.996083325006283E-1    3.840781208696450E-2    3.291444383499347E-5   -2.615414287688396E-4    3.495188882103902E-5   -2.744425953075826E-4   -3.836072059932207E-1    3.152252127141379E-1
 1.000563355435000E+10  -4.994262518517759E-1    3.877430306371086E-2    3.296007178046977E-5   -2.478076925524009E-4    3.447371120424494E-5   -2.414041624012064E-4   -3.832268619709690E-1    3.157089619181183E-1
 1.000563938180000E+10  -4.994538123404362E-1    3.906689951862215E-2    4.018217347225801E-5   -2.268336098140765E-4    2.212557215300386E-5   -2.279766602497434E-4   -3.829722783115671E-1    3.159484088012032E-1
 1.000564520925000E+10  -4.995047533935032E-1    3.936568660513720E-2    6.064595927180251E-5   -2.111775048188712E-4    4.937325983942824E-5   -2.232029607390992E-4   -3.827525631685322E-1    3.164777011862469E-1
 1.000565103670000E+10  -4.994358770235819E-1    3.981778478472135E-2    3.609543195657985E-5   -1.948021219541739E-4    5.723460746299835E-5   -1.966672967157243E-4   -3.823979579871797E-1    3.166211351713517E-1
 1.000565686415000E+10  -4.994309945888838E-1    4.021418069498761E-2    3.228928189015430E-5   -2.007656894580298E-4    4.608889798734832E-5   -2.325777205376730E-4   -3.820975995215836E-1    3.172021122215347E-1
 1.000566269160000E+10  -4.994636878351622E-1    4.056646270898703E-2    6.538243904590658E-5   -2.117964210335810E-4    6.279180926602991E-5   -1.986755101521710E-4   -3.818086116106816E-1    3.173977724266158E-1
 1.000566851905000E+10  -4.994109451738067E-1    4.102766988454290E-2    7.130843788945316E-5   -2.010255018628674E-4    8.964809630269671E-5   -1.807056913750430E-4   -3.816603832302905E-1    3.178212704374946E-1
 1.000567434650000E+10  -4.994301546526705E-1    4.131410357718476E-2    7.444354780130951E-5   -2.043393291780494E-4    7.157220524074787E-5   -1.710612801215120E-4   -3.813749671645948E-1    3.182164026871706E-1
 1.000568017395000E+10  -4.992241794508308E-1    4.174188992301140E-2    7.670438552114898E-5   -1.827747455374005E-4    5.322829834929651E-5   -1.740411453854649E-4   -3.811125881008335E-1    3.185665535039024E-1
 1.000568600140000E+10  -4.992873228767109E-1    4.220497255033809E-2    8.634547125730758E-5   -1.807504088879989E-4    5.715748470675557E-5   -1.574627892915497E-4   -3.806630001815032E-1    3.188130571770549E-1
 1.000569182885000E+10  -4.992045328932279E-1    4.256222935873216E-2    8.923873803045092E-5   -1.535367825924313E-4    6.672615032397222E-5   -1.518008769593482E-4   -3.804406405113714E-1    3.192673180302302E-1
 1.000569765630000E+10  -4.991932814845563E-1    4.298664088497012E-2    1.000075703001811E-4   -1.507111829040877E-4    9.437545726864648E-5   -1.841728065615184E-4   -3.800241133996500E-1    3.196491427652187E-1
 1.000570348375000E+10  -4.992016241598174E-1    4.318428985881374E-2    1.002601950661563E-4   -1.463494984488999E-4    9.987299448971619E-5   -1.599229697370625E-4   -3.796184542598008E-1    3.200490641789272E-1
 1.000570931120000E+10  -4.993381519936912E-1    4.353847130869365E-2    9.352628403152635E-5   -1.513294046263037E-4    1.188461403723346E-4   -1.244808960722570E-4   -3.794271558713980E-1    3.203533173704353E-1
 1.000571513865000E+10  -4.992599138531728E-1    4.397417734727797E-2    9.774870158324449E-5   -1.452801918521109E-4    1.342564422808850E-4   -1.200041148332398E-4   -3.790904792964468E-1    3.206013538668238E-1
 1.000572096610000E+10  -4.992700020681416E-1    4.442033176083675E-2    1.419929166057565E-4   -1.378310836282697E-4    1.275234031493363E-4   -1.052821961533222E-4   -3.787461578229385E-1    3.211320460695000E-1
 1.000572679355000E+10  -4.991921830280172E-1    4.484689812513022E-2    1.417795042755707E-4   -1.346621494456086E-4    1.349761407806619E-4   -1.064622763886012E-4   -3.784931388419489E-1    3.215146586555591E-1
 1.000573262100000E+10  -4.990838436616024E-1    4.517906992229982E-2    1.192445191930769E-4   -1.182308484754918E-4    1.543116056356783E-4   -1.143081604322982E-4   -3.781664901685367E-1    3.218951385761110E-1
 1.000573844845000E+10  -4.990937478686548E-1    4.549559775090697E-2    1.390471215242746E-4   -1.269442853698067E-4    1.509844185228578E-4   -8.988774968275720E-5   -3.778238678601356E-1    3.221669295081532E-1
 1.000574427590000E+10  -4.991965607431430E-1    4.603886337997973E-2    1.631684877216702E-4   -1.113674895330904E-4    1.612374387852635E-4   -8.109859794273648E-5   -3.775230846782842E-1    3.225475808470469E-1
 1.000575010335000E+10  -4.989848566376595E-1    4.626495396139266E-2    1.319994442444929E-4   -8.332340941614580E-5    1.713960300830755E-4   -7.650840417539394E-5   -3.772871234338484E-1    3.229987055087402E-1
 1.000575593080000E+10  -4.991740314664108E-1    4.656693674981165E-2    1.469125932005504E-4   -1.021342583583368E-4    1.493672385775335E-4   -7.207937311676754E-5   -3.768872502678322E-1    3.233724770110509E-1
 1.000576175825000E+10  -4.991477730797129E-1    4.717019326700934E-2    1.549666506759035E-4   -6.626777132591733E-5    1.744182226314695E-4   -5.000912869172384E-5   -3.764861891039846E-1    3.236213001837514E-1
 1.000576758570000E+10  -4.991165140017620E-1    4.743541155911161E-2    1.722016020353042E-4   -6.699492864774306E-5    1.850467925668152E-4   -4.480847961368716E-5   -3.761629904413981E-1    3.239268573678890E-1
 1.000577341315000E+10  -4.990265991881038E-1    4.786550401305786E-2    1.877562089120597E-4   -2.831325534939269E-5    1.825132820368514E-4   -7.996273469743758E-5   -3.759254033550511E-1    3.244842958178722E-1
 1.000577924060000E+10  -4.990127719212110E-1    4.821402562956571E-2    1.790788359753398E-4   -4.651930425114629E-5    1.860472010817564E-4   -2.749432212140870E-5   -3.755020369643388E-1    3.247634818581150E-1
 1.000578506805000E+10  -4.990211654011380E-1    4.860371925056563E-2    1.867186073840676E-4   -1.506125238736888E-5    1.638883106170201E-4   -1.615128964878583E-5   -3.752388400703371E-1    3.251956893926329E-1
 1.000579089550000E+10  -4.988388898217255E-1    4.881715757452489E-2    1.798015177980001E-4   -4.743772835397343E-5    1.927450039230956E-4   -2.693979036953123E-5   -3.748134685100849E-1    3.256487134648087E-1
