#  HZ   S   RI   R     50.00 
! Rohde & Schwarz Vector Network Analyzer 
! Rohde-Schwarz,ZNB20-2Port,1311601062101988,3.16
! Created: UTC 3/20/2024, 11:45:45 AM
! freq[Hz]                re:S11                  im:S11                  re:S21                  im:S21                  re:S12                  im:S12                  re:S22                  im:S22
 1.000524718300000E+10  -5.001288476360318E-1    1.363828470447159E-2   -1.243306582414377E-4   -6.063150100078851E-4   -1.028376999815366E-4   -5.725875973627618E-4   -4.001900576991065E-1    2.924093976727499E-1
 1.000525308287500E+10  -5.000749786297697E-1    1.391088720358011E-2   -1.201076526535169E-4   -5.458086916205662E-4   -1.150699577495112E-4   -5.802505900242674E-4   -3.999517392294880E-1    2.929121992980788E-1
 1.000525898275000E+10  -5.000366785368434E-1    1.421484359413124E-2   -1.482169508501153E-4   -5.716912806581447E-4   -9.806421918413504E-5   -5.446175199120003E-4   -3.995857404605155E-1    2.932359672201918E-1
 1.000526488262500E+10  -5.000830118191743E-1    1.468291332196114E-2   -1.432904750632861E-4   -5.681664724253107E-4   -1.494387904761481E-4   -5.617059746317596E-4   -3.994102485149021E-1    2.935961621118545E-1
 1.000527078250000E+10  -5.000886186878509E-1    1.519712003280081E-2   -1.577919722281115E-4   -5.983164971350066E-4   -1.271271097183887E-4   -6.046895344673823E-4   -3.991123583326324E-1    2.940526376160892E-1
 1.000527668237500E+10  -4.999756311126135E-1    1.550361575894057E-2   -1.063347147353009E-4   -5.710253315515050E-4   -1.189889256520077E-4   -5.660718457098920E-4   -3.989357266156834E-1    2.943114369753412E-1
 1.000528258225000E+10  -5.000602207286645E-1    1.588572607733622E-2   -1.430536742269695E-4   -5.622042418365516E-4   -9.705972467217515E-5   -5.565869096652126E-4   -3.986719373844733E-1    2.946364148036083E-1
 1.000528848212500E+10  -5.000179202782356E-1    1.624488784372911E-2   -1.630215126051073E-4   -5.607933870196874E-4   -1.020633817612676E-4   -5.659698472661300E-4   -3.983938647503707E-1    2.949070775417486E-1
 1.000529438200000E+10  -5.001623286980111E-1    1.652607724065023E-2   -1.673954206366980E-4   -5.665648225010744E-4   -1.159768186912982E-4   -5.571885891084455E-4   -3.982705475219497E-1    2.953761017557784E-1
 1.000530028187500E+10  -5.000104022187792E-1    1.708295711039608E-2   -1.337315772724999E-4   -5.516391805291796E-4   -1.212038281033364E-4   -5.512655321322205E-4   -3.981431484224416E-1    2.957124659719197E-1
 1.000530618175000E+10  -5.000108531348978E-1    1.743173677239266E-2   -1.320984448530713E-4   -5.466381780152205E-4   -1.105806264713659E-4   -5.160538453103099E-4   -3.977256881041998E-1    2.960656019018289E-1
 1.000531208162500E+10  -5.001143525747201E-1    1.772315651044463E-2   -1.287491241226587E-4   -5.482789410234614E-4   -1.104575299906677E-4   -5.422931146034915E-4   -3.974900485294857E-1    2.964126806821658E-1
 1.000531798150000E+10  -4.999999781380157E-1    1.813547584564903E-2   -1.368567869693261E-4   -5.378931544029771E-4   -1.137603807440499E-4   -5.305114368162925E-4   -3.972481701256876E-1    2.967265654970248E-1
 1.000532388137500E+10  -4.999961494190728E-1    1.868126556382119E-2   -1.634629740497105E-4   -5.231031196891758E-4   -1.069049518932615E-4   -5.251834199712657E-4   -3.970074754194943E-1    2.970461323559929E-1
 1.000532978125000E+10  -5.000460475204725E-1    1.896110575981127E-2   -1.210899308606516E-4   -5.165897380774116E-4   -1.095818225721702E-4   -5.712609680723690E-4   -3.968073307373389E-1    2.974090153447119E-1
 1.000533568112500E+10  -5.000351390515618E-1    1.930757638781018E-2   -1.383150421653461E-4   -5.182932961305084E-4   -8.747877558670096E-5   -5.222621630294788E-4   -3.964373772046861E-1    2.977659047090320E-1
 1.000534158100000E+10  -4.999864509220607E-1    1.973116108372741E-2   -1.492511732615412E-4   -4.914002329393210E-4   -1.123164756944506E-4   -5.263033544165569E-4   -3.963766525857810E-1    2.981872220852807E-1
 1.000534748087500E+10  -5.000162691333483E-1    2.013862804375900E-2   -1.192874004277164E-4   -5.305735446699219E-4   -1.030900511882352E-4   -5.085281404155871E-4   -3.959531090703108E-1    2.984855943794555E-1
 1.000535338075000E+10  -5.000650027239087E-1    2.048876410125981E-2   -1.264284205601750E-4   -5.125300176226491E-4   -1.104711249039000E-4   -5.087972845512182E-4   -3.958428558064588E-1    2.986961609212485E-1
 1.000535928062500E+10  -5.001393772663776E-1    2.087879260988859E-2   -1.090492031629279E-4   -5.126840938961278E-4   -9.971792556544225E-5   -5.108157407823965E-4   -3.956370880672578E-1    2.992149881831375E-1
 1.000536518050000E+10  -5.000193627921139E-1    2.124332581868911E-2   -1.079876687608650E-4   -4.789044439302913E-4   -8.032697059210018E-5   -5.153235941841663E-4   -3.953605940564912E-1    2.995332119700773E-1
 1.000537108037500E+10  -5.000798368244381E-1    2.164439874727941E-2   -9.381870602500422E-5   -5.105803330772982E-4   -1.035154867734501E-4   -5.073681959133794E-4   -3.950131748144008E-1    2.998526701416940E-1
 1.000537698025000E+10  -5.000634621894950E-1    2.219237725063855E-2   -7.725856149139960E-5   -5.117281135723156E-4   -9.524846315949510E-5   -5.170349637597794E-4   -3.948334966555148E-1    3.003051677111805E-1
 1.000538288012500E+10  -5.000070668829241E-1    2.248773440427015E-2   -1.189376515647982E-4   -5.253512487429704E-4   -9.119322245741907E-5   -4.973083552339474E-4   -3.945977561986166E-1    3.005944773786844E-1
 1.000538878000000E+10  -5.000012574535716E-1    2.281401910581457E-2   -8.520570080267936E-5   -4.948811328465468E-4   -9.817743001975249E-5   -5.135589353464690E-4   -3.943843757534201E-1    3.008899525800031E-1
 1.000539467987500E+10  -4.999216290741031E-1    2.313083148010260E-2   -1.310061075718058E-4   -4.703214027085100E-4   -1.017803073261143E-4   -4.876961515194704E-4   -3.940672101712920E-1    3.013519202502131E-1
 1.000540057975000E+10  -5.000457663027812E-1    2.353879449347897E-2   -1.022666501100513E-4   -4.537359265666260E-4   -8.967266346071786E-5   -4.967377360156533E-4   -3.938346349616844E-1    3.016519423367908E-1
 1.000540647962500E+10  -4.999109941069488E-1    2.397410948065423E-2   -1.215937582985659E-4   -4.795133912561517E-4   -7.368505842660245E-5   -4.840581908514542E-4   -3.936550209026977E-1    3.020839702049081E-1
 1.000541237950000E+10  -5.000399777684573E-1    2.429795258106470E-2   -1.245710817162376E-4   -4.546664642521143E-4   -8.813181582460897E-5   -4.772694445394077E-4   -3.932927796989141E-1    3.021906979302978E-1
 1.000541827937500E+10  -4.998760985503367E-1    2.480231447937375E-2   -1.191015886884487E-4   -4.427460205529385E-4   -8.971348972606062E-5   -4.648202921806599E-4   -3.931235395781265E-1    3.027015122667398E-1
 1.000542417925000E+10  -4.998828130325539E-1    2.497839010605492E-2   -8.988398120596043E-5   -4.613893212807001E-4   -5.428998354266652E-5   -4.623146797242582E-4   -3.927934391282396E-1    3.030106968767379E-1
 1.000543007912500E+10  -4.999274982809870E-1    2.539760007949502E-2   -8.901172315390922E-5   -4.380794304212400E-4   -5.609021996531350E-5   -4.387901937835402E-4   -3.926215920798118E-1    3.032710648800627E-1
 1.000543597900000E+10  -4.999467440754921E-1    2.590193790982203E-2   -8.728710652156183E-5   -4.439317642888659E-4   -6.016863525108761E-5   -4.592319251452349E-4   -3.923217623252566E-1    3.037774106802205E-1
 1.000544187887500E+10  -4.999023879060133E-1    2.631274155790111E-2   -1.101976136409467E-4   -4.435780748686796E-4   -5.705042721794357E-5   -4.462859205756097E-4   -3.920797175017336E-1    3.039914785409442E-1
 1.000544777875000E+10  -4.998353317398526E-1    2.675287639409802E-2   -8.789557531825274E-5   -4.200983670709286E-4   -5.970455698246488E-5   -4.608144668626798E-4   -3.919023039135869E-1    3.044102951484020E-1
 1.000545367862500E+10  -5.000515901930560E-1    2.698924809624227E-2   -8.896812127263697E-5   -4.557783939824561E-4   -6.255821222566729E-5   -4.255766927110889E-4   -3.914318462886395E-1    3.048051241135338E-1
 1.000545957850000E+10  -5.000144382955551E-1    2.751697585118297E-2   -7.211272658570380E-5   -4.247336527277003E-4   -4.221503038627108E-5   -4.267767406825454E-4   -3.913605915573540E-1    3.052667896775046E-1
 1.000546547837500E+10  -4.998865619515493E-1    2.782996886135913E-2   -8.485705997182925E-5   -4.343990783263868E-4   -5.904214579234185E-5   -4.362077306168031E-4   -3.910664736810224E-1    3.055150831211398E-1
 1.000547137825000E+10  -4.999410082687066E-1    2.817872022373372E-2   -5.763214271898624E-5   -4.025639077124120E-4   -3.191412708211444E-5   -4.041805307866431E-4   -3.909200515209467E-1    3.057296102402908E-1
 1.000547727812500E+10  -4.999440862572989E-1    2.868395089761884E-2   -8.564278032830927E-5   -3.756310484570259E-4   -5.259860372667177E-5   -3.869261148035958E-4   -3.905434563188008E-1    3.061431765115327E-1
 1.000548317800000E+10  -4.998004916932957E-1    2.880246602860640E-2   -6.394689304359724E-5   -4.136815054691091E-4   -4.515376118981483E-5   -4.218118256153147E-4   -3.901954810036458E-1    3.065751030062928E-1
 1.000548907787500E+10  -4.998682042852737E-1    2.937707348010548E-2   -8.194081676116759E-5   -4.156826769220654E-4   -4.728805333168201E-5   -4.105390119055298E-4   -3.900029909819274E-1    3.068696306335285E-1
 1.000549497775000E+10  -4.997595256728978E-1    2.973661362383864E-2   -6.349100078892876E-5   -4.158393990576997E-4   -4.354833466008084E-5   -4.035099756325710E-4   -3.897654202720500E-1    3.071897361710668E-1
 1.000550087762500E+10  -4.998748338059545E-1    3.013563692859055E-2   -7.655790042306321E-5   -3.952625078576990E-4   -4.745822961181094E-5   -3.903095746596447E-4   -3.894520310345338E-1    3.076511258814504E-1
 1.000550677750000E+10  -4.999003385085177E-1    3.043441167562879E-2   -6.563895348413693E-5   -3.622593246263660E-4   -1.830139999291704E-5   -4.059305503854248E-4   -3.891746959307327E-1    3.080178185739647E-1
 1.000551267737500E+10  -4.998006051400097E-1    3.092841759220424E-2   -3.277903514123937E-5   -3.533811594209791E-4   -1.445387701965266E-5   -3.640906071653584E-4   -3.888927842142674E-1    3.082686698476823E-1
 1.000551857725000E+10  -4.997113616082252E-1    3.130151464704214E-2   -3.549522459088145E-5   -3.593454083153523E-4   -4.185253736388556E-5   -3.602125234984298E-4   -3.887234685645369E-1    3.086310875549018E-1
 1.000552447712500E+10  -4.998325290222888E-1    3.167867865809974E-2   -3.080272155194945E-5   -3.338628948415020E-4   -4.383327903514490E-6   -3.636351809684699E-4   -3.882798866428855E-1    3.091286211081547E-1
 1.000553037700000E+10  -4.997418862800768E-1    3.214090508382904E-2   -2.557968063097169E-5   -3.359540043139034E-4   -4.741262883534508E-5   -3.930009279764551E-4   -3.881322873652039E-1    3.092779929807571E-1
 1.000553627687500E+10  -4.999180168871152E-1    3.235334111025510E-2   -7.647904837107362E-6   -3.499517115972058E-4   -1.638921578106841E-5   -3.398254990182535E-4   -3.878180240956096E-1    3.097037896678953E-1
 1.000554217675000E+10  -4.997776515259823E-1    3.282518438752331E-2   -1.910895052798241E-5   -3.715343822121605E-4   -4.421604690504071E-5   -3.494723965905385E-4   -3.877422441890838E-1    3.100815122406844E-1
 1.000554807662500E+10  -4.996949786794642E-1    3.325145220690034E-2   -1.410686786788547E-5   -3.510715815559708E-4   -1.202296695727377E-5   -3.175823279585802E-4   -3.872720510482859E-1    3.105075964037099E-1
 1.000555397650000E+10  -4.997756320397212E-1    3.343333396196291E-2   -1.462066397889466E-5   -3.396122189671070E-4   -1.338091458395988E-5   -3.329003030711759E-4   -3.870683596571097E-1    3.108375498374906E-1
 1.000555987637500E+10  -4.997689796432431E-1    3.404905837102242E-2   -3.980741077761907E-5   -3.156838712069298E-4   -5.005725654643061E-6   -3.582426868067884E-4   -3.869093195173200E-1    3.112665880904908E-1
 1.000556577625000E+10  -4.995570787596703E-1    3.431365477188397E-2   -2.880247717498670E-5   -3.187308508641722E-4    1.855173269908136E-5   -3.112136858657989E-4   -3.864405190432874E-1    3.115843343171106E-1
 1.000557167612500E+10  -4.995518047389423E-1    3.474019970687434E-2   -8.802456167884843E-6   -3.111642737684649E-4    1.147962072186553E-5   -3.038903838554914E-4   -3.863214772403453E-1    3.119916263482264E-1
 1.000557757600000E+10  -4.996136951385706E-1    3.506171908671708E-2   -1.127307064277463E-5   -3.211573041804135E-4    7.881375782350509E-7   -2.766867821093380E-4   -3.858829305776425E-1    3.121050787437909E-1
 1.000558347587500E+10  -4.996189856943067E-1    3.543818928048088E-2    1.321360742666258E-5   -3.173606728194875E-4    1.474727071000872E-5   -2.767460369622410E-4   -3.856417504640637E-1    3.126090431473985E-1
 1.000558937575000E+10  -4.996133771735157E-1    3.578050078895794E-2    6.754832985469537E-6   -3.244534168222653E-4    3.368769189928848E-5   -2.921995076116078E-4   -3.852891644444047E-1    3.130206897704270E-1
 1.000559527562500E+10  -4.996584807198263E-1    3.622204276116833E-2    4.885253657353750E-7   -2.765919383021124E-4    2.535061676756944E-5   -2.865447043005286E-4   -3.850858894197396E-1    3.133170293401210E-1
 1.000560117550000E+10  -4.996648429303638E-1    3.669869499762540E-2    1.253208464389772E-5   -2.941291711591942E-4    1.648947310918099E-5   -2.903074050372642E-4   -3.848274917532686E-1    3.137866125743893E-1
 1.000560707537500E+10  -4.995112109181251E-1    3.703837516033880E-2    4.034419907468765E-5   -3.124515956276354E-4    2.412775568588678E-5   -2.731552061141507E-4   -3.845648082607247E-1    3.139623210346116E-1
 1.000561297525000E+10  -4.995637663587978E-1    3.731360094291704E-2    3.683048279679836E-5   -2.610909723479248E-4    4.105205967662391E-5   -2.705695696640401E-4   -3.843060511633925E-1    3.143597186670805E-1
 1.000561887512500E+10  -4.995315375626492E-1    3.787125506680084E-2    3.029692156113037E-5   -2.723425988993153E-4    3.172183628006464E-5   -2.365743407701964E-4   -3.840810322459691E-1    3.147174960206016E-1
 1.000562477500000E+10  -4.993999973068297E-1    3.805802762361083E-2    1.837438541939288E-5   -2.740692994743267E-4    6.536567715676585E-5   -2.611682516824809E-4   -3.835947138064261E-1    3.151224712040739E-1
 1.000563067487500E+10  -4.994225054026215E-1    3.866760580396802E-2    2.669669056925784E-5   -2.597946053365504E-4    2.947705673904372E-5   -2.410084118574307E-4   -3.833417042539227E-1    3.155455418655020E-1
 1.000563657475000E+10  -4.994320406812575E-1    3.890875770982435E-2    3.272820470000968E-5   -2.388037670781106E-4    5.922152226219161E-5   -2.409290797180047E-4   -3.830721725350759E-1    3.158613749808845E-1
 1.000564247462500E+10  -4.994277961912227E-1    3.934473246759125E-2    4.942394933993750E-5   -2.340851867604555E-4    5.457053708251993E-5   -2.059670004659482E-4   -3.828441453731407E-1    3.162570048540738E-1
 1.000564837450000E+10  -4.994552649746246E-1    3.972597484640879E-2    3.821684806475787E-5   -2.153135149238031E-4    5.063780389994716E-5   -2.364943862196055E-4   -3.825763932384217E-1    3.166051083111865E-1
 1.000565427437500E+10  -4.994589731928465E-1    4.016617083836475E-2    4.587213170693399E-5   -2.490073082662177E-4    4.917920635471280E-5   -2.240742988537461E-4   -3.823724490721118E-1    3.169448650744444E-1
 1.000566017425000E+10  -4.993941203517706E-1    4.048453387626087E-2    6.938322481589392E-5   -1.966415758317172E-4    6.169800253186113E-5   -1.796329723222978E-4   -3.817302642246082E-1    3.172113778816360E-1
 1.000566607412500E+10  -4.993564881899111E-1    4.071872599001947E-2    5.019820033765607E-5   -1.645198174242375E-4    7.437512324126082E-5   -2.195787222591490E-4   -3.815293520037604E-1    3.178193989401876E-1
 1.000567197400000E+10  -4.993454974765643E-1    4.121994621560670E-2    1.098565884872549E-4   -2.103493498090399E-4    8.128321271631853E-5   -2.079766825430044E-4   -3.813847813517079E-1    3.180715959451326E-1
 1.000567787387500E+10  -4.992291060056879E-1    4.164223808957288E-2    8.851685803716277E-5   -1.893972618947765E-4    5.320867244898085E-5   -1.944952583870461E-4   -3.810166107106825E-1    3.184326364590133E-1
 1.000568377375000E+10  -4.992957160397594E-1    4.195440570168158E-2    8.886265698637243E-5   -1.786623857429085E-4    6.764235248782742E-5   -1.618385040415013E-4   -3.806572667254342E-1    3.188080722757743E-1
 1.000568967362500E+10  -4.993682800652685E-1    4.243850693371606E-2    7.701956131485686E-5   -1.484560820251627E-4    8.102136880907941E-5   -1.287979439746332E-4   -3.803750717362998E-1    3.192207880200170E-1
 1.000569557350000E+10  -4.991992623237861E-1    4.270338251376663E-2    1.007759912327364E-4   -2.178008860132541E-4    1.393514113517253E-4   -1.610385856382136E-4   -3.800576597227998E-1    3.196367482513846E-1
 1.000570147337500E+10  -4.992197191599053E-1    4.322180817312561E-2    9.026539961345195E-5   -1.449976557438492E-4    8.383588999123528E-5   -1.214592113980926E-4   -3.798310471216936E-1    3.199983496823841E-1
 1.000570737325000E+10  -4.993306308745691E-1    4.356190598746264E-2    1.229592520894550E-4   -1.376226070383658E-4    1.273204332291144E-4   -1.216383717773512E-4   -3.795480990684552E-1    3.203623754076810E-1
 1.000571327312500E+10  -4.991440662147515E-1    4.381779054632122E-2    1.456658888860513E-4   -1.432506529510577E-4    1.088563696327974E-4   -1.557758073790555E-4   -3.792729109384592E-1    3.206786220334067E-1
 1.000571917300000E+10  -4.993207011172595E-1    4.435531938603352E-2    1.012288080325886E-4   -1.208437340203753E-4    1.344759910963020E-4   -1.468093772945076E-4   -3.789154661936363E-1    3.209615838620973E-1
 1.000572507287500E+10  -4.991731555885164E-1    4.464338217908979E-2    1.375474880618251E-4   -1.427169148666666E-4    1.397812487290488E-4   -1.011904422399102E-4   -3.786442051494390E-1    3.214746461158116E-1
 1.000573097275000E+10  -4.991602601302489E-1    4.496614813379310E-2    1.162770637483470E-4   -1.078086119002730E-4    1.481642616407063E-4   -1.100702032736012E-4   -3.781401181201214E-1    3.218360097494700E-1
 1.000573687262500E+10  -4.990850278124884E-1    4.553519235589637E-2    1.458193885608075E-4   -1.027928227081501E-4    1.358002135403570E-4   -9.328564357446591E-5   -3.779375197325552E-1    3.222091758179108E-1
 1.000574277250000E+10  -4.990437285010446E-1    4.588107071389800E-2    1.660892584015136E-4   -6.692013385174058E-5    1.468057607861238E-4   -5.066485954688753E-5   -3.774819658070697E-1    3.223530109169551E-1
 1.000574867237500E+10  -4.991014131242818E-1    4.625998680000161E-2    1.342646527906301E-4   -1.087948427817691E-4    1.559184217404478E-4   -7.361574538070961E-5   -3.771843214252845E-1    3.229285357888695E-1
 1.000575457225000E+10  -4.992274151129680E-1    4.654298009293982E-2    1.472147898835374E-4   -7.526206920014812E-5    1.824444949592731E-4   -3.834447729814378E-5   -3.769507459890915E-1    3.232587861230108E-1
 1.000576047212500E+10  -4.991172974385109E-1    4.710049806547710E-2    1.740176088036305E-4   -1.035230130000592E-4    1.966812998031602E-4   -5.092024620008994E-5   -3.766723678997536E-1    3.236661132979735E-1
 1.000576637200000E+10  -4.990054059843991E-1    4.728666537932565E-2    1.738471968412800E-4   -4.582730157414784E-5    1.744133901935999E-4   -5.930998967393911E-5   -3.762246218865770E-1    3.240768726751596E-1
 1.000577227187500E+10  -4.990903981588624E-1    4.770971052111096E-2    1.979856954284583E-4   -6.338556065646440E-5    1.877348324500079E-4   -3.822931419081065E-5   -3.757812207571945E-1    3.243694261144532E-1
 1.000577817175000E+10  -4.990078193845338E-1    4.808672314404840E-2    2.124566456731179E-4   -3.286090112621247E-6    1.978379428917090E-4   -2.101033715200927E-5   -3.755570205207956E-1    3.246570549119541E-1
