#  HZ   S   RI   R     50.00 
! Rohde & Schwarz Vector Network Analyzer 
! Rohde-Schwarz,ZNB20-2Port,1311601062101988,3.16
! Created: UTC 3/20/2024, 11:36:58 AM
! freq[Hz]                re:S11                  im:S11                  re:S21                  im:S21                  re:S12                  im:S12                  re:S22                  im:S22
 1.000632522200000E+10  -4.953884626289032E-1    8.325512763822734E-2    7.064486711241286E-4    1.037224313139759E-3    6.405507358674117E-4    1.083254321296088E-3   -3.456987385136118E-1    3.613981008939646E-1
 1.000632693690000E+10  -4.951773501639497E-1    8.321566054915010E-2    7.107847568588336E-4    1.063769695976323E-3    6.454825558823034E-4    1.086757949174323E-3   -3.455605250263525E-1    3.615362241856618E-1
 1.000632865180000E+10  -4.952654846608539E-1    8.332623050113518E-2    7.347478273891098E-4    1.086124952350679E-3    6.846376210304784E-4    1.095095855406651E-3   -3.453927200787863E-1    3.616969417354593E-1
 1.000633036670000E+10  -4.952693892514655E-1    8.350017768199137E-2    7.334466540663968E-4    1.104641604984555E-3    6.672987520652309E-4    1.117879788835562E-3   -3.451541136320794E-1    3.618477691471811E-1
 1.000633208160000E+10  -4.953563256862031E-1    8.361809028663178E-2    7.444553291169241E-4    1.097808504541376E-3    6.639145591375645E-4    1.108554418077675E-3   -3.450136995300226E-1    3.620767947612002E-1
 1.000633379650000E+10  -4.951037175724463E-1    8.386592609449375E-2    7.308583168090804E-4    1.081794155573747E-3    6.539863279277390E-4    1.132177657523037E-3   -3.448020146320078E-1    3.622865522397022E-1
 1.000633551140000E+10  -4.951877505762023E-1    8.389037064948590E-2    7.445449241176685E-4    1.148862245094359E-3    6.809948121665440E-4    1.151821660906536E-3   -3.447251912334132E-1    3.624810089215462E-1
 1.000633722630000E+10  -4.950927682914905E-1    8.411624818868178E-2    7.758542751630480E-4    1.161987196050158E-3    6.733640637505609E-4    1.156545934643901E-3   -3.444819525661018E-1    3.626026871620524E-1
 1.000633894120000E+10  -4.952494445411765E-1    8.412350049035017E-2    7.453220320936706E-4    1.150906444637054E-3    6.693367496315975E-4    1.183970949630194E-3   -3.443319331564085E-1    3.627760890321616E-1
 1.000634065610000E+10  -4.951120754685603E-1    8.414493401168217E-2    7.729882292483607E-4    1.143972183299108E-3    6.737107319660955E-4    1.180919838706619E-3   -3.441729131259533E-1    3.628892397231274E-1
 1.000634237100000E+10  -4.950783097133096E-1    8.421673994712724E-2    7.783306806490680E-4    1.166803303999612E-3    7.191867061428122E-4    1.200672507552766E-3   -3.438489144034942E-1    3.631484415982426E-1
 1.000634408590000E+10  -4.952276594001689E-1    8.440901318746824E-2    8.035636188854395E-4    1.199043015922447E-3    7.183771672618153E-4    1.197297831549929E-3   -3.437903028353602E-1    3.633424086636482E-1
 1.000634580080000E+10  -4.950110715523202E-1    8.454371382310927E-2    8.015967768179500E-4    1.201757917187280E-3    7.328755813609932E-4    1.200566015285727E-3   -3.434282389851688E-1    3.634480801963576E-1
 1.000634751570000E+10  -4.950513073616460E-1    8.467838388945351E-2    7.997805376114617E-4    1.183238049987096E-3    7.291990178982261E-4    1.224052548034642E-3   -3.433498794930167E-1    3.636182249570784E-1
 1.000634923060000E+10  -4.950217700587647E-1    8.483556899902439E-2    8.282530868296332E-4    1.223450698773058E-3    7.465302311617442E-4    1.234698637362467E-3   -3.432002344373085E-1    3.638534075846180E-1
 1.000635094550000E+10  -4.949181939361617E-1    8.485289255317098E-2    8.250820381671754E-4    1.252794458430950E-3    7.567782513500643E-4    1.253915799067448E-3   -3.429259838920268E-1    3.639055428142382E-1
 1.000635266040000E+10  -4.950112710072260E-1    8.495416471221361E-2    8.470384121668025E-4    1.264126115590909E-3    7.761487229551502E-4    1.270923110314638E-3   -3.428477694196982E-1    3.640930198442503E-1
 1.000635437530000E+10  -4.950055390887068E-1    8.503867601584714E-2    8.409843096452121E-4    1.253590515841934E-3    7.678164463353522E-4    1.270958658100129E-3   -3.426794654571930E-1    3.643607309475601E-1
 1.000635609020000E+10  -4.950463582165905E-1    8.517861711059348E-2    8.620688025609819E-4    1.279576503684422E-3    7.745907157501504E-4    1.282076235396646E-3   -3.425268876460801E-1    3.644322262129553E-1
 1.000635780510000E+10  -4.948714051509621E-1    8.528418379720419E-2    8.555504460744709E-4    1.258968532506877E-3    7.977704996921673E-4    1.307111916033084E-3   -3.423116009193606E-1    3.647935715163731E-1
 1.000635952000000E+10  -4.949327559560135E-1    8.536146766316115E-2    8.823113110564223E-4    1.293018953136022E-3    7.889156497464996E-4    1.305913886782558E-3   -3.420651548606673E-1    3.649684967276203E-1
 1.000636123490000E+10  -4.948062077657469E-1    8.545355393633690E-2    8.741477815936455E-4    1.310971159435054E-3    7.861746058718475E-4    1.318249742984299E-3   -3.416957683702204E-1    3.650272445615546E-1
 1.000636294980000E+10  -4.949066059652434E-1    8.555194531540172E-2    9.177173950511212E-4    1.317519540259195E-3    8.322543964862596E-4    1.358107774546940E-3   -3.415480258188967E-1    3.653618720083075E-1
 1.000636466470000E+10  -4.949526053039139E-1    8.584317173169059E-2    9.046817591837163E-4    1.352398144178996E-3    8.073351730357738E-4    1.356369984707012E-3   -3.413949632079332E-1    3.655040920615118E-1
 1.000636637960000E+10  -4.948219032811882E-1    8.596583367328856E-2    9.335480993974866E-4    1.339230345186480E-3    8.402706961589349E-4    1.359490376922111E-3   -3.410724114710465E-1    3.655642033148941E-1
 1.000636809450000E+10  -4.949369732698073E-1    8.605320667102249E-2    9.346498724543661E-4    1.368878993319670E-3    8.403387154554390E-4    1.370098892212079E-3   -3.409914532851812E-1    3.658074602803026E-1
 1.000636980940000E+10  -4.948083549288278E-1    8.609755217893361E-2    9.272011236866843E-4    1.361049983766791E-3    8.382611896785643E-4    1.408576297349636E-3   -3.407900301243647E-1    3.659021540071824E-1
 1.000637152430000E+10  -4.947812330402129E-1    8.617952507579492E-2    9.395769829484157E-4    1.402602927721862E-3    8.657033609119508E-4    1.389224844802802E-3   -3.405771952226336E-1    3.661328840470754E-1
 1.000637323920000E+10  -4.948883982029792E-1    8.638010411338860E-2    9.727777873865385E-4    1.432139048005600E-3    8.608189254173576E-4    1.412520669822531E-3   -3.403476307496512E-1    3.662950993789891E-1
 1.000637495410000E+10  -4.947732114195152E-1    8.632802948001896E-2    9.584127980067851E-4    1.403777932923795E-3    8.710387876201330E-4    1.439469426767512E-3   -3.402575849223097E-1    3.665924860485182E-1
 1.000637666900000E+10  -4.947886681031121E-1    8.652296115328907E-2    1.007609083148945E-3    1.426026165349004E-3    9.033423885276752E-4    1.443640390101707E-3   -3.399326462616681E-1    3.668299099693074E-1
 1.000637838390000E+10  -4.948030372031688E-1    8.661692971282704E-2    1.009594228242807E-3    1.443758336312309E-3    9.242519768022949E-4    1.485918664190649E-3   -3.397868126329531E-1    3.669132380106900E-1
 1.000638009880000E+10  -4.948081317191639E-1    8.682090028830548E-2    1.013547751970335E-3    1.476172920632694E-3    9.452548652492372E-4    1.491092510741196E-3   -3.394366087701646E-1    3.672376434751237E-1
 1.000638181370000E+10  -4.948169612526667E-1    8.691572603012451E-2    1.034746122506960E-3    1.506282345254982E-3    9.318312288544617E-4    1.459868915888419E-3   -3.392740608564326E-1    3.672433140112454E-1
 1.000638352860000E+10  -4.945570173828597E-1    8.703110075231610E-2    1.005708326413431E-3    1.514129638631633E-3    9.234861673235242E-4    1.521377377535316E-3   -3.389839087903690E-1    3.676086444117161E-1
 1.000638524350000E+10  -4.948226985103227E-1    8.720760202325643E-2    1.057200043444968E-3    1.528930818192178E-3    9.562606394216879E-4    1.559441342902159E-3   -3.387795234292003E-1    3.678025233511644E-1
 1.000638695840000E+10  -4.947595540821752E-1    8.728704380753280E-2    1.077974305094126E-3    1.538928122819808E-3    9.497970743329431E-4    1.527018545156252E-3   -3.384837433264906E-1    3.678846816868522E-1
 1.000638867330000E+10  -4.946099773061876E-1    8.744102430588198E-2    1.058416090947359E-3    1.542624807773257E-3    9.719995397539266E-4    1.549927157343492E-3   -3.383633221034867E-1    3.682195129110602E-1
 1.000639038820000E+10  -4.946599136293187E-1    8.760450283400940E-2    1.076822277978398E-3    1.555976840531979E-3    9.781570004713605E-4    1.572676150004988E-3   -3.380623225250849E-1    3.682447468561920E-1
 1.000639210310000E+10  -4.946417717844778E-1    8.756687981556828E-2    1.081628251423943E-3    1.550914502188676E-3    1.026345687263965E-3    1.595502441901002E-3   -3.378904657429269E-1    3.684831648300586E-1
 1.000639381800000E+10  -4.945835136678350E-1    8.776522537487934E-2    1.115248260826796E-3    1.579783843313773E-3    1.017545492013072E-3    1.595306487844305E-3   -3.376451767209184E-1    3.686276173730458E-1
 1.000639553290000E+10  -4.945911136309460E-1    8.799549061355227E-2    1.121929524579294E-3    1.610091214333914E-3    1.042586364547462E-3    1.632760822424777E-3   -3.373926613527610E-1    3.688663178975379E-1
 1.000639724780000E+10  -4.946346768877307E-1    8.792156121020681E-2    1.123534301464798E-3    1.647724258583482E-3    1.034325981553697E-3    1.647349671356786E-3   -3.371088530532692E-1    3.690429278878697E-1
 1.000639896270000E+10  -4.946552078859596E-1    8.807180668583182E-2    1.137428742566438E-3    1.645043025129961E-3    1.067209014315760E-3    1.669546456390057E-3   -3.368482017590552E-1    3.693807263047769E-1
 1.000640067760000E+10  -4.945991764938418E-1    8.817182595064141E-2    1.164927650728863E-3    1.657160295289981E-3    1.069228677082543E-3    1.698897308821952E-3   -3.365509948280231E-1    3.695488917128977E-1
 1.000640239250000E+10  -4.945869930594773E-1    8.823911641387590E-2    1.184727616385058E-3    1.670414105265618E-3    1.082649546140733E-3    1.687431274466031E-3   -3.363673264449646E-1    3.697527180411510E-1
 1.000640410740000E+10  -4.944276817777758E-1    8.844108647016184E-2    1.200797194382913E-3    1.677674606539661E-3    1.090823659790661E-3    1.730287303623708E-3   -3.361713080321857E-1    3.699085195278637E-1
 1.000640582230000E+10  -4.944809753078371E-1    8.842512033574623E-2    1.223554648213234E-3    1.720073338917649E-3    1.126944205395971E-3    1.704264238525018E-3   -3.359065076202548E-1    3.702809452550780E-1
 1.000640753720000E+10  -4.945549148944315E-1    8.860726869063612E-2    1.224831958655844E-3    1.762416626718307E-3    1.129597485283300E-3    1.738369356459320E-3   -3.356125643125850E-1    3.703151203878698E-1
 1.000640925210000E+10  -4.944188785045995E-1    8.874258595040793E-2    1.207216031356159E-3    1.751464255006397E-3    1.151378251940564E-3    1.756217243737709E-3   -3.352929317572392E-1    3.703714334915963E-1
 1.000641096700000E+10  -4.944152872793408E-1    8.887201341869766E-2    1.256009699913826E-3    1.760044268404817E-3    1.159949510597439E-3    1.751664485189651E-3   -3.349838372859217E-1    3.707869798325422E-1
 1.000641268190000E+10  -4.944881048215514E-1    8.891068003564259E-2    1.270194668187756E-3    1.764429590373668E-3    1.164248121122197E-3    1.806131166062015E-3   -3.349278613226464E-1    3.710255477086764E-1
 1.000641439680000E+10  -4.943562573100499E-1    8.909990205056792E-2    1.320248974519933E-3    1.813894530864048E-3    1.169080204564957E-3    1.824350519514135E-3   -3.346757099072052E-1    3.711774417906769E-1
 1.000641611170000E+10  -4.944116639722471E-1    8.916212251282410E-2    1.298742986375136E-3    1.818308034923138E-3    1.175844662091009E-3    1.852859505396151E-3   -3.343064885994896E-1    3.715600250093468E-1
 1.000641782660000E+10  -4.943056459264907E-1    8.930762306152684E-2    1.341944276183410E-3    1.827024989359679E-3    1.234916664913833E-3    1.850216583021804E-3   -3.340191289130012E-1    3.715820521711312E-1
 1.000641954150000E+10  -4.942185515847230E-1    8.936345394277416E-2    1.359275411196953E-3    1.864341437185926E-3    1.222554138256464E-3    1.880573710350481E-3   -3.337135652908962E-1    3.718939359841710E-1
 1.000642125640000E+10  -4.943962859362540E-1    8.949563177716123E-2    1.363100124256495E-3    1.866916242505510E-3    1.242256310139467E-3    1.938269663421342E-3   -3.334549526160540E-1    3.722664190484049E-1
 1.000642297130000E+10  -4.943258662128600E-1    8.968466917090583E-2    1.378766785832154E-3    1.909130647513976E-3    1.267961797513606E-3    1.930150409754898E-3   -3.331876785565388E-1    3.723783058583872E-1
 1.000642468620000E+10  -4.943006069062564E-1    8.978097598847568E-2    1.404774291930494E-3    1.923442964513861E-3    1.264898406939347E-3    1.962559660161194E-3   -3.328813980796522E-1    3.725437356703098E-1
 1.000642640110000E+10  -4.942255669542487E-1    8.990204438516661E-2    1.433371274743719E-3    1.931230593187659E-3    1.288984454883069E-3    1.973025486295008E-3   -3.325119367318808E-1    3.728460565233870E-1
 1.000642811600000E+10  -4.942035531606638E-1    9.002209645652071E-2    1.398961435029032E-3    1.974580829117638E-3    1.313139805796674E-3    1.994537609335312E-3   -3.322680236615502E-1    3.730191095240643E-1
 1.000642983090000E+10  -4.943411722457499E-1    9.012095814465806E-2    1.415366590412551E-3    2.006099960576783E-3    1.316798640417612E-3    2.046570903565883E-3   -3.319940210661617E-1    3.731821924073507E-1
 1.000643154580000E+10  -4.943741210903113E-1    9.023763622309093E-2    1.456616868255519E-3    1.997262289311918E-3    1.328797122796601E-3    2.029439100826965E-3   -3.315590083424396E-1    3.735762909493551E-1
 1.000643326070000E+10  -4.942971509309890E-1    9.031758028865569E-2    1.496021039561671E-3    2.022460660816677E-3    1.379965356222978E-3    2.077304632195814E-3   -3.314619443473021E-1    3.737213917022620E-1
 1.000643497560000E+10  -4.941751149198256E-1    9.039682826543087E-2    1.497750462703596E-3    2.058324713853133E-3    1.360263429790200E-3    2.068561706997347E-3   -3.311131577627719E-1    3.740037164240932E-1
 1.000643669050000E+10  -4.941130234255242E-1    9.053999920644561E-2    1.544832265757206E-3    2.080565519818431E-3    1.414662035751016E-3    2.064083660962394E-3   -3.306839108601048E-1    3.742185644915759E-1
 1.000643840540000E+10  -4.942445039024099E-1    9.058144394854567E-2    1.525374330703727E-3    2.079563073919669E-3    1.424569051887606E-3    2.102642995370828E-3   -3.304727781364893E-1    3.744870788294717E-1
 1.000644012030000E+10  -4.940958677304678E-1    9.068326521847282E-2    1.571950227823348E-3    2.144599291196386E-3    1.425453199898152E-3    2.125050933043660E-3   -3.300415436708504E-1    3.747557274488217E-1
 1.000644183520000E+10  -4.941379454565912E-1    9.089547566159814E-2    1.603501535984388E-3    2.120405033013213E-3    1.433631347873023E-3    2.154486521189960E-3   -3.297492975665631E-1    3.749962757903860E-1
 1.000644355010000E+10  -4.941143446903392E-1    9.091151505604883E-2    1.624753296721796E-3    2.153285894043348E-3    1.479785519967696E-3    2.182783590726543E-3   -3.295058401589519E-1    3.752078955048628E-1
 1.000644526500000E+10  -4.941722574102185E-1    9.107989430114596E-2    1.656318275539705E-3    2.176004331847208E-3    1.513289531597312E-3    2.209269569284605E-3   -3.291527832104388E-1    3.753220306578429E-1
 1.000644697990000E+10  -4.939497429431835E-1    9.111771629422519E-2    1.674630852499473E-3    2.192689361093314E-3    1.509747955846585E-3    2.223813183960401E-3   -3.287855688840873E-1    3.758384084838837E-1
 1.000644869480000E+10  -4.939817286823104E-1    9.135713676502827E-2    1.658408680209916E-3    2.243894385087392E-3    1.526295624422281E-3    2.244552653556465E-3   -3.284473787331851E-1    3.757492459115152E-1
 1.000645040970000E+10  -4.939069758251897E-1    9.147542147910875E-2    1.693242274016287E-3    2.264299621411647E-3    1.548069270533499E-3    2.269144918645796E-3   -3.281172684620253E-1    3.761980040385480E-1
 1.000645212460000E+10  -4.939919032883978E-1    9.142100192566470E-2    1.703594642026353E-3    2.291327530032380E-3    1.585894234373704E-3    2.287128410788427E-3   -3.276149714585851E-1    3.764727439805649E-1
 1.000645383950000E+10  -4.938340551715122E-1    9.172189959581746E-2    1.722175404901926E-3    2.308885930726203E-3    1.586939488171983E-3    2.332274349294922E-3   -3.273385318092141E-1    3.767148057351623E-1
 1.000645555440000E+10  -4.939696131101763E-1    9.180443070219096E-2    1.789780793116739E-3    2.309708120889886E-3    1.626113041508251E-3    2.333676363501011E-3   -3.270458400097889E-1    3.770597000889279E-1
 1.000645726930000E+10  -4.939043733491718E-1    9.183044480124568E-2    1.825509915499545E-3    2.323283455318093E-3    1.658298038383882E-3    2.374623016770841E-3   -3.265998355282326E-1    3.770945452852831E-1
 1.000645898420000E+10  -4.938868396287096E-1    9.205886452752028E-2    1.834916761338421E-3    2.334974318173413E-3    1.659941795975181E-3    2.397338792409703E-3   -3.261457550190419E-1    3.774879686931610E-1
 1.000646069910000E+10  -4.937985927048903E-1    9.214965426192702E-2    1.863259440496777E-3    2.391020658963911E-3    1.675009055298391E-3    2.405732327837736E-3   -3.258674306837916E-1    3.774379126329199E-1
 1.000646241400000E+10  -4.938595176299593E-1    9.228224032516825E-2    1.885479148561061E-3    2.427578889200811E-3    1.731027618038313E-3    2.456670376568409E-3   -3.254972696561486E-1    3.780219765078695E-1
 1.000646412890000E+10  -4.937894157301345E-1    9.228426817276954E-2    1.913314631205645E-3    2.429516952356243E-3    1.722241130147107E-3    2.468099998839870E-3   -3.251259038837462E-1    3.782827566242745E-1
 1.000646584380000E+10  -4.938230598013330E-1    9.254985489391648E-2    1.942838769442926E-3    2.468259990058653E-3    1.767919666217471E-3    2.504588945141708E-3   -3.246785191162860E-1    3.785023919456291E-1
 1.000646755870000E+10  -4.938752146124270E-1    9.254952741880947E-2    1.959846024995940E-3    2.499503481620825E-3    1.820261939966226E-3    2.560792861795121E-3   -3.243432720210037E-1    3.788624935888703E-1
 1.000646927360000E+10  -4.937730858384262E-1    9.278100141052785E-2    2.041695857223064E-3    2.510806920371982E-3    1.828500100553353E-3    2.571455797528216E-3   -3.239151796730574E-1    3.791092131607950E-1
 1.000647098850000E+10  -4.936617027584412E-1    9.279485774136551E-2    2.038084570987731E-3    2.539861778218337E-3    1.888279449667795E-3    2.594674392041837E-3   -3.234138812842186E-1    3.794055588850758E-1
 1.000647270340000E+10  -4.938048586592124E-1    9.291761051293129E-2    2.018552166679002E-3    2.605539269400507E-3    1.886719908097589E-3    2.610074323178433E-3   -3.230973376987943E-1    3.797850002882333E-1
 1.000647441830000E+10  -4.937221370195395E-1    9.298809623657744E-2    2.081271715195436E-3    2.609023682763399E-3    1.917696769848909E-3    2.639047222835059E-3   -3.225402975598792E-1    3.799381539963114E-1
 1.000647613320000E+10  -4.938832125933952E-1    9.328621152403098E-2    2.115951364989617E-3    2.661535482698880E-3    1.918612041253457E-3    2.657098273206425E-3   -3.222717129315591E-1    3.803064399101801E-1
 1.000647784810000E+10  -4.936484857107388E-1    9.320870762375513E-2    2.117054272108297E-3    2.687678224583523E-3    1.985654066521520E-3    2.722346876671713E-3   -3.218342596183242E-1    3.804351476721167E-1
 1.000647956300000E+10  -4.936882109364685E-1    9.343406795508095E-2    2.155176599139655E-3    2.721141121321120E-3    2.013373355534825E-3    2.759936139673966E-3   -3.214001042000471E-1    3.808702958908843E-1
