#  HZ   S   RI   R     50.00 
! Rohde & Schwarz Vector Network Analyzer 
! Rohde-Schwarz,ZNB20-2Port,1311601062101988,3.16
! Created: UTC 3/20/2024, 11:47:14 AM
! freq[Hz]                re:S11                  im:S11                  re:S21                  im:S21                  re:S12                  im:S12                  re:S22                  im:S22
 1.000509588800000E+10  -4.998055873734039E-1    3.899278273765156E-3   -1.566296882995081E-4   -6.444885487045329E-4   -1.084203861241928E-4   -6.755623105206593E-4   -4.057329485712379E-1    2.836333648507040E-1
 1.000510239037500E+10  -4.998713096031341E-1    4.366487580794797E-3   -1.757323235867343E-4   -6.402046717893586E-4   -1.404545189947324E-4   -6.690910809155272E-4   -4.055772681819760E-1    2.839364500195469E-1
 1.000510889275000E+10  -4.998157707508731E-1    4.776524179503251E-3   -1.617406325644693E-4   -6.405627207864175E-4   -1.416040191118305E-4   -6.356288176466050E-4   -4.052372809744262E-1    2.842481995706479E-1
 1.000511539512500E+10  -4.999300991590994E-1    5.138381951046004E-3   -1.881279280735792E-4   -6.487831916551551E-4   -1.456300151446197E-4   -6.342840943672616E-4   -4.048871129720629E-1    2.847890509108650E-1
 1.000512189750000E+10  -4.998601146910209E-1    5.495243687972171E-3   -1.530115929322657E-4   -6.443201392532179E-4   -1.336139909786812E-4   -6.209637158131708E-4   -4.047772101609852E-1    2.851406797915273E-1
 1.000512839987500E+10  -4.997708890716789E-1    5.935198148412215E-3   -1.617207133637826E-4   -6.424761657565185E-4   -9.855032308607917E-5   -6.418312361233757E-4   -4.044689027015199E-1    2.855297241062394E-1
 1.000513490225000E+10  -4.999071596987842E-1    6.374549755260554E-3   -1.666945022175415E-4   -6.655978637897283E-4   -1.216923160072339E-4   -6.598187085006309E-4   -4.042935210481148E-1    2.859587024383119E-1
 1.000514140462500E+10  -4.998601913823887E-1    6.769670133675719E-3   -1.805889289661370E-4   -6.250613960547391E-4   -1.381024993448033E-4   -6.497797357466284E-4   -4.040206989234859E-1    2.864191295254346E-1
 1.000514790700000E+10  -5.000194597744843E-1    7.358206009143336E-3   -1.821849014606923E-4   -6.460899276418148E-4   -1.016931902752032E-4   -5.951482475787644E-4   -4.037590377503461E-1    2.865778398861605E-1
 1.000515440937500E+10  -5.000681250376618E-1    7.828578112221865E-3   -1.756996105853687E-4   -6.056425288059506E-4   -1.392347120293257E-4   -6.131518621132026E-4   -4.035398038816472E-1    2.869474837491341E-1
 1.000516091175000E+10  -4.998394302920091E-1    8.076671322114428E-3   -1.267590076578931E-4   -6.017900595489572E-4   -1.238333766671057E-4   -5.808897213902198E-4   -4.032086025990716E-1    2.875517350281765E-1
 1.000516741412500E+10  -5.000724745022119E-1    8.582366653337309E-3   -1.605756125937142E-4   -6.090973130432050E-4   -1.132824255793723E-4   -6.035816122722261E-4   -4.031617382096739E-1    2.878118204055042E-1
 1.000517391650000E+10  -5.000360371860547E-1    8.958406823190795E-3   -1.353350735464547E-4   -6.120952205448350E-4   -1.081905048115043E-4   -5.991069201820126E-4   -4.029722834532894E-1    2.882214116235877E-1
 1.000518041887500E+10  -4.999265341260730E-1    9.313744504669390E-3   -1.512606642902509E-4   -6.042254928848475E-4   -1.213408603023411E-4   -6.028450754178312E-4   -4.025392505566996E-1    2.886014103994383E-1
 1.000518692125000E+10  -4.999728257893336E-1    9.760379168742154E-3   -1.529103665476255E-4   -6.055818114046991E-4   -1.263032125640620E-4   -6.001034955095935E-4   -4.022866673680063E-1    2.890282131638843E-1
 1.000519342362500E+10  -4.999367994319973E-1    1.031054697076331E-2   -1.361631870751342E-4   -6.050466342670097E-4   -1.474401232472979E-4   -5.762214455919901E-4   -4.018887808779836E-1    2.893710227843380E-1
 1.000519992600000E+10  -4.998869189061044E-1    1.077775630693807E-2   -1.564177952853146E-4   -6.117099298634052E-4   -9.522738332047000E-5   -6.327218797334992E-4   -4.018796160982587E-1    2.898797983166128E-1
 1.000520642837500E+10  -4.998806056515013E-1    1.118697632900031E-2   -1.546553418112125E-4   -6.123818584640074E-4   -1.093715016006738E-4   -6.115925657834715E-4   -4.014735085738382E-1    2.900579183841283E-1
 1.000521293075000E+10  -4.999099167773695E-1    1.152023983133871E-2   -1.625673093172050E-4   -5.873437656365967E-4   -9.646912038323479E-5   -5.963718612029893E-4   -4.012559975789610E-1    2.904890313522816E-1
 1.000521943312500E+10  -4.998913152376043E-1    1.196197722394189E-2   -1.270890191062519E-4   -5.940067359718001E-4   -1.008874907835329E-4   -5.922360201694605E-4   -4.009774574775871E-1    2.908220722741915E-1
 1.000522593550000E+10  -4.999411129435924E-1    1.248199136679273E-2   -1.471668434762983E-4   -5.977877430147092E-4   -1.328404397651657E-4   -5.935059610046898E-4   -4.007956225539346E-1    2.912995492174653E-1
 1.000523243787500E+10  -4.999582962290664E-1    1.283718846030442E-2   -1.318473021373343E-4   -5.809750663844817E-4   -1.181686868578198E-4   -5.739464723465825E-4   -4.004236091302553E-1    2.915447150202972E-1
 1.000523894025000E+10  -5.000456588439425E-1    1.331185018264641E-2   -1.608228516209644E-4   -6.007064929018746E-4   -1.166686595768258E-4   -5.588676639218561E-4   -4.003717833278643E-1    2.920299093078592E-1
 1.000524544262500E+10  -4.998954182221559E-1    1.360435528443295E-2   -1.274774280925893E-4   -5.789334959025532E-4   -1.073496191350859E-4   -5.449606912322949E-4   -3.999042838387944E-1    2.923356535481459E-1
 1.000525194500000E+10  -4.999763405583281E-1    1.412541109461787E-2   -1.332555402185199E-4   -5.519596165288668E-4   -9.708848241246752E-5   -5.896640258412185E-4   -3.995488151922600E-1    2.929007040070125E-1
 1.000525844737500E+10  -4.998379286164465E-1    1.445456947142968E-2   -1.398124879232590E-4   -5.278300549406927E-4   -9.578788162256464E-5   -5.523548619771178E-4   -3.994081868087959E-1    2.931466105509449E-1
 1.000526494975000E+10  -4.998974014329506E-1    1.495804216147640E-2   -1.210842066282723E-4   -6.033698254279228E-4   -9.212516056072109E-5   -5.430226035180193E-4   -3.990819401280435E-1    2.935421735943844E-1
 1.000527145212500E+10  -5.000431028183818E-1    1.541562675100265E-2   -1.272998283435368E-4   -5.466901849825293E-4   -8.865567412942436E-5   -5.479226904366641E-4   -3.989801347809003E-1    2.939816332460281E-1
 1.000527795450000E+10  -5.000503821867980E-1    1.570732209341805E-2   -1.329059140276740E-4   -5.624595575027793E-4   -9.791727976993864E-5   -5.085631300338086E-4   -3.986986673808304E-1    2.943238870153443E-1
 1.000528445687500E+10  -5.000319853130323E-1    1.616406626923120E-2   -1.085479074689822E-4   -5.540146909645898E-4   -8.358616227763059E-5   -5.555965682730012E-4   -3.983817507190773E-1    2.947901711216243E-1
 1.000529095925000E+10  -4.999978359918141E-1    1.675819510762250E-2   -1.311305085829617E-4   -5.185147181721782E-4   -1.115963732040882E-4   -5.554772038650745E-4   -3.981806526958484E-1    2.951209511281950E-1
 1.000529746162500E+10  -4.999598142193662E-1    1.716147391450660E-2   -1.537110516936321E-4   -5.224690389220695E-4   -9.909222987673452E-5   -5.166587747175695E-4   -3.977750075152722E-1    2.955665425441327E-1
 1.000530396400000E+10  -4.998774844378340E-1    1.750279085739201E-2   -1.150069412345420E-4   -5.312106773136819E-4   -6.217100038481348E-5   -5.430593995657165E-4   -3.975922864561985E-1    2.959295957248690E-1
 1.000531046637500E+10  -4.999469819727553E-1    1.781655342783862E-2   -1.314880558857112E-4   -5.243173146640601E-4   -6.430724960379063E-5   -5.294686468106413E-4   -3.973128593109228E-1    2.963013810272049E-1
 1.000531696875000E+10  -4.999491380964479E-1    1.834965760704561E-2   -1.100399967308286E-4   -5.297290072499631E-4   -1.148572099799000E-4   -5.307757897028663E-4   -3.970935742405002E-1    2.966098767396010E-1
 1.000532347112500E+10  -4.998759112732371E-1    1.877833490063672E-2   -1.206875485553225E-4   -4.988946104073833E-4   -7.116475177739192E-5   -5.004402612177166E-4   -3.967366962212005E-1    2.971400102884624E-1
 1.000532997350000E+10  -4.998577582682087E-1    1.915335803303774E-2   -9.841532569686431E-5   -5.098534223771426E-4   -7.478812056595922E-5   -5.137966811180564E-4   -3.965096104744232E-1    2.974397949807951E-1
 1.000533647587500E+10  -4.999039993957007E-1    1.966773531902264E-2   -1.204790510172576E-4   -4.988036831363076E-4   -8.561026355212626E-5   -5.098321439667878E-4   -3.961676332925409E-1    2.978540725609647E-1
 1.000534297825000E+10  -4.997586800189734E-1    2.007582239089707E-2   -8.406668211010117E-5   -5.158367523692980E-4   -6.052635446026988E-5   -4.933766003734115E-4   -3.959550027616079E-1    2.982093421310856E-1
 1.000534948062500E+10  -4.999312065295594E-1    2.033266132319351E-2   -1.183661889315569E-4   -4.918336332359615E-4   -5.511612730584681E-5   -4.915291738998254E-4   -3.956615230820114E-1    2.985004021532712E-1
 1.000535598300000E+10  -4.998977873913424E-1    2.092997267990867E-2   -1.017817952037252E-4   -4.998146486905746E-4   -6.447087374992217E-5   -4.578870507213510E-4   -3.954864204024789E-1    2.990017328208763E-1
 1.000536248537500E+10  -4.999811339973021E-1    2.131949258465860E-2   -9.103677838478827E-5   -4.942745834328145E-4   -6.757606640139837E-5   -4.931052837442713E-4   -3.951092351066731E-1    2.994033910087456E-1
 1.000536898775000E+10  -4.998365502442508E-1    2.172386239697220E-2   -1.185820530243083E-4   -4.442263754725817E-4   -5.990208673847631E-5   -5.019475159355679E-4   -3.949163724000415E-1    2.997148520827802E-1
 1.000537549012500E+10  -4.998667923632292E-1    2.220974304636173E-2   -1.127261139861097E-4   -4.967065409948134E-4   -9.478649723962111E-5   -4.662491832022216E-4   -3.945777807006757E-1    3.002913727542280E-1
 1.000538199250000E+10  -4.997342441255895E-1    2.249941270839139E-2   -8.864394818536697E-5   -4.491311514552467E-4   -7.021831966847754E-5   -4.672190000734495E-4   -3.942039724056377E-1    3.004843525888783E-1
 1.000538849487500E+10  -4.999659311331672E-1    2.294331781214079E-2   -7.399369770339256E-5   -4.483550336989703E-4   -6.601102339757244E-5   -4.545474785201370E-4   -3.941167047275031E-1    3.009333416051460E-1
 1.000539499725000E+10  -4.998356413810723E-1    2.331875880334188E-2   -1.073714863182108E-4   -4.412427000655457E-4   -5.895367392818751E-5   -4.523510967782914E-4   -3.937313877282772E-1    3.012817218356823E-1
 1.000540149962500E+10  -4.998646170733966E-1    2.383118346942550E-2   -7.874080090110899E-5   -4.485715585895642E-4   -6.886521739814393E-5   -4.395657834168035E-4   -3.936497458057385E-1    3.017667793718533E-1
 1.000540800200000E+10  -4.998534633846002E-1    2.418022379669389E-2   -7.747716822946462E-5   -4.535522176444188E-4   -3.111263704630461E-5   -4.640217544778518E-4   -3.932711777427926E-1    3.021099503596134E-1
 1.000541450437500E+10  -4.999030266534393E-1    2.457706236463562E-2   -4.430317906228536E-5   -4.158757927296301E-4   -4.858830505733823E-5   -4.193819963931446E-4   -3.929841528702877E-1    3.024491630270777E-1
 1.000542100675000E+10  -4.997991373307974E-1    2.518546712080622E-2   -5.934202946128882E-5   -4.327745519913813E-4   -3.995045190910388E-5   -4.318781728178540E-4   -3.927121704772341E-1    3.028906371256444E-1
 1.000542750912500E+10  -4.999213563377197E-1    2.545936449255632E-2   -7.154768643324976E-5   -4.427706795016017E-4   -5.060974137026854E-5   -4.377441121629785E-4   -3.924750847925105E-1    3.032436105712761E-1
 1.000543401150000E+10  -4.998688275300792E-1    2.586790841374342E-2   -6.746207166752719E-5   -4.161600050654118E-4   -3.691921400157283E-5   -4.129549171043814E-4   -3.920854442068094E-1    3.037291169725332E-1
 1.000544051387500E+10  -4.998726931044679E-1    2.628855716756942E-2   -6.174052813673210E-5   -4.211565627742233E-4   -5.272549811987574E-5   -4.218408716257100E-4   -3.919305395263456E-1    3.040942876514711E-1
 1.000544701625000E+10  -4.998722146071291E-1    2.674342027875524E-2   -5.755701881208743E-5   -4.309103759803281E-4   -2.747625608148625E-5   -4.085639947582328E-4   -3.916089781881075E-1    3.043840638866686E-1
 1.000545351862500E+10  -4.997543805571447E-1    2.726024415708726E-2   -3.110365846488603E-5   -4.088096977972580E-4   -3.581011723901920E-5   -4.310215631018060E-4   -3.913033026201572E-1    3.049173640205414E-1
 1.000546002100000E+10  -4.998429494638675E-1    2.771491294645468E-2   -5.881231703960302E-5   -3.965121648289447E-4   -1.853123799611801E-5   -3.803762170282131E-4   -3.909137009150004E-1    3.051925232928756E-1
 1.000546652337500E+10  -4.997653025899402E-1    2.789907348943121E-2   -1.871277351110456E-5   -3.773474393881185E-4   -2.560278680389229E-5   -3.588526309579610E-4   -3.906873738500753E-1    3.055652958898539E-1
 1.000547302575000E+10  -4.998800018171600E-1    2.852609936400088E-2   -4.169449321387328E-5   -4.026102326982109E-4   -2.924718132680986E-5   -3.701588831498749E-4   -3.904161473485799E-1    3.060772026129051E-1
 1.000547952812500E+10  -4.997039409260223E-1    2.890492032304712E-2   -2.311096613765366E-5   -3.667287368436937E-4   -3.440323308774532E-6   -3.734685505425036E-4   -3.900592945143133E-1    3.063928883489218E-1
 1.000548603050000E+10  -4.997582851751279E-1    2.933915403331823E-2   -6.771649692630635E-5   -3.718966549509590E-4    1.507217642113537E-5   -3.836841020789525E-4   -3.898494325955866E-1    3.068379667553583E-1
 1.000549253287500E+10  -4.997512648254254E-1    2.972164288305983E-2   -1.254314073666020E-5   -3.658856985849892E-4    1.397783607216960E-5   -3.885322603565929E-4   -3.896545309350443E-1    3.073071128004023E-1
 1.000549903525000E+10  -4.998433288891936E-1    3.014253646182855E-2   -4.175756761283038E-5   -3.488579999802980E-4    2.002555571895125E-7   -3.718020566088771E-4   -3.892732905471015E-1    3.075400854854817E-1
 1.000550553762500E+10  -4.997803235464183E-1    3.056693958532549E-2   -3.157856204718196E-5   -3.582036630796251E-4   -1.939104289260487E-6   -3.553756235442685E-4   -3.889894422073718E-1    3.079406075018137E-1
 1.000551204000000E+10  -4.997172909822560E-1    3.085751991329257E-2   -2.302323341697393E-5   -3.392483197534585E-4   -7.707753297340859E-6   -3.414322609365060E-4   -3.887669169180794E-1    3.083051268856898E-1
 1.000551854237500E+10  -4.997459309728519E-1    3.139147005310457E-2   -1.499397530611923E-5   -3.555774717373437E-4    5.207837668442927E-6   -3.485765460917166E-4   -3.881541704641893E-1    3.086864676149210E-1
 1.000552504475000E+10  -4.997451746855628E-1    3.175722773712850E-2    2.739975298475720E-5   -3.477183348945426E-4    6.599536276087254E-7   -3.300486180009830E-4   -3.879812169635356E-1    3.091877255980961E-1
 1.000553154712500E+10  -4.997356135321366E-1    3.230675780794497E-2    1.803947456078316E-5   -3.100690819514821E-4    7.521563224023762E-6   -3.495047189897658E-4   -3.876321046724384E-1    3.096589170399550E-1
 1.000553804950000E+10  -4.996185577246353E-1    3.263414360295866E-2    1.892353842375573E-5   -3.135299903770735E-4    2.117069804723472E-5   -3.505071281263796E-4   -3.874048672874262E-1    3.099643545564759E-1
 1.000554455187500E+10  -4.996076485241486E-1    3.306506588489339E-2   -9.771009076784902E-6   -3.029685483971068E-4    2.395317298832264E-5   -3.286917597834405E-4   -3.871913827425206E-1    3.105640815056698E-1
 1.000555105425000E+10  -4.997585768926289E-1    3.358176735552781E-2   -5.322213651707879E-6   -2.985881322682169E-4    1.942946236807743E-5   -3.256988513139333E-4   -3.866924136092612E-1    3.107163743456634E-1
 1.000555755662500E+10  -4.996008634476301E-1    3.402084254594025E-2    2.980224822130139E-5   -3.023993260504884E-4    4.807082597748132E-5   -2.861609056594314E-4   -3.863748756791174E-1    3.111302147066858E-1
 1.000556405900000E+10  -4.995723499596560E-1    3.436603655252191E-2    4.116434555908852E-5   -3.031316859094974E-4    3.446838694987799E-5   -2.775956419828619E-4   -3.861632558980035E-1    3.114606215783031E-1
 1.000557056137500E+10  -4.995053403825306E-1    3.478037526678023E-2    2.094718102667557E-5   -2.802350087660714E-4    5.472847200126934E-5   -2.582060933543024E-4   -3.858470765265223E-1    3.120281643931189E-1
 1.000557706375000E+10  -4.996889227246001E-1    3.521243190805327E-2    4.423395817878069E-5   -2.682999381710352E-4    1.662717583661586E-5   -2.798902788960689E-4   -3.855834610946069E-1    3.122695245863517E-1
 1.000558356612500E+10  -4.996519619321375E-1    3.566427702998488E-2    3.378732090710778E-5   -2.599436740754751E-4    4.656586785791415E-5   -2.445065941325641E-4   -3.852215016400974E-1    3.127053796858126E-1
 1.000559006850000E+10  -4.994594947258328E-1    3.603545720886682E-2    5.296600755053699E-5   -2.419945676154037E-4    2.624014303432935E-5   -2.527793831934373E-4   -3.849334820026865E-1    3.132282102542443E-1
 1.000559657087500E+10  -4.995935539653976E-1    3.652085161355743E-2    6.385783052852068E-5   -2.455822384316925E-4    3.974937513830371E-5   -2.146768461422383E-4   -3.847161528194252E-1    3.134436980029710E-1
 1.000560307325000E+10  -4.994738320344209E-1    3.688265230409698E-2    7.468620455073435E-5   -2.404047342134819E-4    6.066970012200943E-5   -2.613911408199342E-4   -3.843711708347296E-1    3.138010730338875E-1
 1.000560957562500E+10  -4.995264563515947E-1    3.735208474931321E-2    5.320263664504542E-5   -2.479609202067837E-4    9.654407793432241E-5   -1.969664266627327E-4   -3.838329570875889E-1    3.144294080212187E-1
 1.000561607800000E+10  -4.995158469554152E-1    3.767424069450000E-2    8.851080019992145E-5   -2.176753227475139E-4    9.009435416983516E-5   -2.018640949180879E-4   -3.836828985690684E-1    3.147692924202246E-1
 1.000562258037500E+10  -4.994826556352593E-1    3.801965948947927E-2    4.819759452576625E-5   -2.372342919273651E-4    7.018879259051951E-5   -2.038623515480206E-4   -3.832137536018470E-1    3.150419247387334E-1
 1.000562908275000E+10  -4.993544981332856E-1    3.856760643049558E-2    7.456601866150526E-5   -2.052096927685290E-4    9.710922047002840E-5   -1.783445294990392E-4   -3.829911475901867E-1    3.157297450060212E-1
 1.000563558512500E+10  -4.994640275305508E-1    3.900103647944540E-2    9.516093525645138E-5   -2.164736421495896E-4    9.586233104843465E-5   -2.152906054902520E-4   -3.827586578971015E-1    3.159317975646101E-1
 1.000564208750000E+10  -4.993044032974432E-1    3.946338506670573E-2    5.881431934693143E-5   -1.831665024709550E-4    1.221613309764945E-4   -1.695912182162346E-4   -3.822750223824734E-1    3.163809754599313E-1
 1.000564858987500E+10  -4.992533851261878E-1    3.972562418819243E-2    1.016528419868315E-4   -1.495299716757056E-4    8.574649799436546E-5   -1.959245096099146E-4   -3.819932462752324E-1    3.167822225352314E-1
 1.000565509225000E+10  -4.992545519693512E-1    4.035003563601781E-2    9.050426072313312E-5   -2.060397206722643E-4    1.087561744943362E-4   -1.820216303876447E-4   -3.817114180004366E-1    3.171835637751815E-1
 1.000566159462500E+10  -4.992755054825254E-1    4.059513130249516E-2    1.292007787194554E-4   -1.671676810054128E-4    1.248299491404115E-4   -1.516307199135266E-4   -3.813223053433579E-1    3.176379666103692E-1
 1.000566809700000E+10  -4.992679844410388E-1    4.107045848500528E-2    1.041442802890949E-4   -1.548903761548582E-4    1.291358626056601E-4   -1.373988905359269E-4   -3.808344336976472E-1    3.179193650960172E-1
 1.000567459937500E+10  -4.991873074588298E-1    4.155181881628719E-2    1.069806731359220E-4   -1.594609047223362E-4    1.325815800743968E-4   -1.375981230502891E-4   -3.807282976567615E-1    3.184700396966411E-1
 1.000568110175000E+10  -4.993224173714998E-1    4.205379918188900E-2    1.447748332622378E-4   -9.091618674456112E-5    1.424566909261245E-4   -1.432844397970240E-4   -3.803225507675652E-1    3.187292065404446E-1
