#  HZ   S   RI   R     50.00 
! Rohde & Schwarz Vector Network Analyzer 
! Rohde-Schwarz,ZNB20-2Port,1311601062101988,3.16
! Created: UTC 3/20/2024, 11:47:21 AM
! freq[Hz]                re:S11                  im:S11                  re:S21                  im:S21                  re:S12                  im:S12                  re:S22                  im:S22
 1.000509150800000E+10  -4.998288865978804E-1    3.598695186752649E-3   -1.678645595779262E-4   -6.417106437054592E-4   -1.312753956982518E-4   -6.591906681543176E-4   -4.058885167761663E-1    2.832443365925243E-1
 1.000509801700000E+10  -4.998630216533422E-1    4.135676112662726E-3   -1.736402991582903E-4   -6.495561725704664E-4   -1.348137722478376E-4   -6.529577068363513E-4   -4.057776383626154E-1    2.838680883820537E-1
 1.000510452600000E+10  -4.998596840764970E-1    4.373840050256097E-3   -1.372214648976359E-4   -6.470365231452498E-4   -1.384294663343286E-4   -6.370211018231489E-4   -4.053205660779203E-1    2.841094597866793E-1
 1.000511103500000E+10  -4.998619786892728E-1    4.885585846906146E-3   -1.541313788085594E-4   -6.428993139538072E-4   -1.228422247145418E-4   -6.381535294646853E-4   -4.050434447378238E-1    2.845358282846707E-1
 1.000511754400000E+10  -4.998675023760586E-1    5.286710629672370E-3   -1.442854802224928E-4   -6.529495347006237E-4   -1.214072675873512E-4   -6.396302987528243E-4   -4.048971427835213E-1    2.848007780628552E-1
 1.000512405300000E+10  -4.998698283189502E-1    5.702865428524776E-3   -1.440303971683075E-4   -6.268083916925346E-4   -1.341849618161382E-4   -6.338158415986271E-4   -4.048387618289059E-1    2.852667956632105E-1
 1.000513056200000E+10  -5.000276323583381E-1    6.129904943637251E-3   -1.738762821413961E-4   -6.222001168818915E-4   -1.501568877734170E-4   -6.148207560854140E-4   -4.043147892590280E-1    2.855444132096044E-1
 1.000513707100000E+10  -4.999907531553837E-1    6.504953798425790E-3   -1.533552317863007E-4   -6.331942196705769E-4   -1.027549418795345E-4   -6.088904957476525E-4   -4.041910037710599E-1    2.860153852988303E-1
 1.000514358000000E+10  -4.999485757629198E-1    6.965184208403910E-3   -1.470531327451731E-4   -6.173042940174130E-4   -1.450869303844771E-4   -6.330127034771358E-4   -4.039767024781410E-1    2.864572616746194E-1
 1.000515008900000E+10  -4.999208245695116E-1    7.395106749255599E-3   -1.352643477046952E-4   -6.229918125340777E-4   -1.228907491031709E-4   -5.899776381797651E-4   -4.037025545093663E-1    2.868614606685288E-1
 1.000515659800000E+10  -4.998703512731867E-1    7.790877113223929E-3   -1.448055299690829E-4   -6.271509183229646E-4   -1.286772842473312E-4   -6.064306394293081E-4   -4.034377994854031E-1    2.871288651140904E-1
 1.000516310700000E+10  -5.000401722124389E-1    8.523672688046260E-3   -1.407160722613285E-4   -6.268176429933763E-4   -9.598588875561523E-5   -5.921357671473383E-4   -4.031978919995396E-1    2.875825560709430E-1
 1.000516961600000E+10  -4.999809247480621E-1    8.799535260469648E-3   -1.493579392968192E-4   -6.203108494896955E-4   -1.123727585920082E-4   -6.139138277454164E-4   -4.029499646062857E-1    2.881099585043212E-1
 1.000517612500000E+10  -4.998460101682642E-1    9.263126388608432E-3   -1.563941566993835E-4   -5.953866951204066E-4   -1.248219550228761E-4   -5.890853785321113E-4   -4.027326411505571E-1    2.883053769847941E-1
 1.000518263400000E+10  -4.998606498150493E-1    9.520211238450078E-3   -1.406422315579202E-4   -6.106162537691288E-4   -1.202444796120480E-4   -5.712730329769097E-4   -4.023703553187311E-1    2.888080685404961E-1
 1.000518914300000E+10  -4.999137901508319E-1    9.972753607469860E-3   -1.482875721807183E-4   -5.787541049166688E-4   -1.178547204339320E-4   -5.859507255381829E-4   -4.022656813632159E-1    2.891638134129836E-1
 1.000519565200000E+10  -4.999468048838682E-1    1.039508088884394E-2   -1.524160477305022E-4   -5.977392079680636E-4   -9.976660322211029E-5   -6.020303612737776E-4   -4.019548452053008E-1    2.895094256500415E-1
 1.000520216100000E+10  -4.999581704225856E-1    1.090002577883800E-2   -1.675174587706159E-4   -6.150866705554673E-4   -1.221242208351481E-4   -6.038112201067119E-4   -4.017443200011903E-1    2.898609681809203E-1
 1.000520867000000E+10  -5.000125505148587E-1    1.119800044730067E-2   -1.458289861797180E-4   -5.841370900289676E-4   -8.559763854780982E-5   -6.110007385667309E-4   -4.014260870394821E-1    2.903535251012780E-1
 1.000521517900000E+10  -5.000801718728436E-1    1.163325519837892E-2   -1.502739911712497E-4   -6.064825554128547E-4   -1.176641269163790E-4   -5.666391232963387E-4   -4.011290034927627E-1    2.906361515883918E-1
 1.000522168800000E+10  -5.000285023500320E-1    1.217958737911462E-2   -1.261101733457331E-4   -5.693843806745733E-4   -1.109238732447003E-4   -5.624982861159263E-4   -4.008846289953910E-1    2.909750260468471E-1
 1.000522819700000E+10  -4.999471177165621E-1    1.249392238927762E-2   -1.457203253451524E-4   -5.777801000995975E-4   -9.043192364006874E-5   -5.852790627093051E-4   -4.007991365486265E-1    2.913981887942268E-1
 1.000523470600000E+10  -4.999590631463537E-1    1.286016001086351E-2   -1.543128741561226E-4   -5.911455501577519E-4   -1.155841022557700E-4   -5.586057441044349E-4   -4.003814430061473E-1    2.917431520400384E-1
 1.000524121500000E+10  -4.999449877635758E-1    1.354612766692140E-2   -1.153368212370227E-4   -5.638385522621807E-4   -1.026227791590563E-4   -5.580648964180477E-4   -4.000625631816783E-1    2.921192144725646E-1
 1.000524772400000E+10  -4.999861156539426E-1    1.389073143336231E-2   -1.287309836470157E-4   -5.726673912099654E-4   -9.658374529395283E-5   -5.785196001951662E-4   -3.997776620542616E-1    2.925590261052359E-1
 1.000525423300000E+10  -4.999498130153923E-1    1.419077350805864E-2   -1.499871533693906E-4   -5.549298952141027E-4   -1.422810691256039E-4   -5.375356003879235E-4   -3.995075243567059E-1    2.929046338414763E-1
 1.000526074200000E+10  -4.998978815234940E-1    1.467224312598208E-2   -1.265565725699174E-4   -5.567778261091667E-4   -1.088687876262587E-4   -5.568631615194399E-4   -3.993511567201654E-1    2.933443811651389E-1
 1.000526725100000E+10  -4.999061229860911E-1    1.500362740262732E-2   -1.237416975914791E-4   -5.403504958021385E-4   -9.778256171813887E-5   -5.521927293668073E-4   -3.990385574479866E-1    2.937081169884376E-1
 1.000527376000000E+10  -4.999161027216774E-1    1.555410258246501E-2   -1.103063139759818E-4   -5.461997408083147E-4   -8.560648443511451E-5   -5.623643290332307E-4   -3.988193599916628E-1    2.941448769587474E-1
 1.000528026900000E+10  -4.999167764917407E-1    1.598282560487961E-2   -1.149361592250892E-4   -5.608876947361779E-4   -1.019792316462668E-4   -5.302373963506434E-4   -3.986384822052275E-1    2.945251752547923E-1
 1.000528677800000E+10  -4.998901011443616E-1    1.643046425737983E-2   -1.076854018759426E-4   -5.387506550557135E-4   -7.294600016404944E-5   -5.320619150446308E-4   -3.983656101578019E-1    2.949330220720506E-1
 1.000529328700000E+10  -4.999349952166017E-1    1.683344120125196E-2   -1.153673559946968E-4   -5.303445325940754E-4   -8.704712682077259E-5   -5.246159103082309E-4   -3.980870913162210E-1    2.952277373158440E-1
 1.000529979600000E+10  -4.998791197560525E-1    1.722114857966942E-2   -1.060567085681646E-4   -5.451679939054288E-4   -9.841002323854503E-5   -5.308800274081636E-4   -3.978079420591520E-1    2.956524785506904E-1
 1.000530630500000E+10  -4.998686754070329E-1    1.769254119240671E-2   -1.290771616161764E-4   -5.239289957555902E-4   -1.185259203677806E-4   -5.115554524958082E-4   -3.974971266879861E-1    2.960739309286940E-1
 1.000531281400000E+10  -4.999945605375088E-1    1.796940149483107E-2   -1.202347268434583E-4   -5.191176404578394E-4   -9.327470335784977E-5   -5.167907841486994E-4   -3.972749358621002E-1    2.965246471563946E-1
 1.000531932300000E+10  -4.999158248410105E-1    1.846706958926466E-2   -8.944955433535800E-5   -5.221424483620934E-4   -6.323291465874861E-5   -5.239577895392454E-4   -3.970561189651729E-1    2.967904318232748E-1
 1.000532583200000E+10  -4.998843003701410E-1    1.884910720766160E-2   -1.164155214740722E-4   -5.007578708830538E-4   -9.171899898199189E-5   -4.956095273439776E-4   -3.966452712731551E-1    2.972300685052234E-1
 1.000533234100000E+10  -4.998949143044742E-1    1.918578776382295E-2   -1.070891085535693E-4   -4.983829872680648E-4   -8.172564442929784E-5   -5.070230548753205E-4   -3.963704082882061E-1    2.976168795502754E-1
 1.000533885000000E+10  -4.999376609497737E-1    1.974322097723628E-2   -1.190153683401399E-4   -5.380197979358929E-4   -9.766380346775559E-5   -4.836286996154200E-4   -3.962096360006256E-1    2.981221982748075E-1
 1.000534535900000E+10  -4.999989185061656E-1    2.016959532088080E-2   -8.733121001974011E-5   -5.130678439190667E-4   -5.723618100014892E-5   -5.074916316792531E-4   -3.959629593779461E-1    2.983855179658674E-1
 1.000535186800000E+10  -4.997968974113578E-1    2.063932343969248E-2   -1.180222515303237E-4   -4.919211552442969E-4   -7.874067239025659E-5   -4.853501419334848E-4   -3.956899544375133E-1    2.986856207054523E-1
 1.000535837700000E+10  -4.999275401090553E-1    2.095887183277271E-2   -9.318059964592806E-5   -4.657250055558881E-4   -5.965867897597339E-5   -5.110214684217845E-4   -3.953800265860437E-1    2.991492111843362E-1
 1.000536488600000E+10  -4.999340652392592E-1    2.143590403731097E-2   -7.881484681208014E-5   -4.474433535400069E-4   -7.527341728867277E-5   -4.921102553632907E-4   -3.951115454026777E-1    2.995369672039901E-1
 1.000537139500000E+10  -4.999504779660671E-1    2.181136918668745E-2   -7.585963780158941E-5   -4.391955223556185E-4   -5.455142246180717E-5   -4.702527160497407E-4   -3.947882540893966E-1    2.999898044354841E-1
 1.000537790400000E+10  -4.999770816371906E-1    2.221691242611638E-2   -1.029431965719881E-4   -4.672321334063790E-4   -7.972999780340488E-5   -4.690401971856169E-4   -3.945848039823567E-1    3.003904512279227E-1
 1.000538441300000E+10  -4.999100247450651E-1    2.277682055631283E-2   -6.767912864577254E-5   -4.705167379377227E-4   -6.443962657762874E-5   -4.835894328860477E-4   -3.942815259249454E-1    3.006631399114706E-1
 1.000539092200000E+10  -4.999640676045206E-1    2.318739671759364E-2   -5.294696235374893E-5   -4.360860796019099E-4   -5.550594953145524E-5   -4.331983181154182E-4   -3.939881308469093E-1    3.011478873341411E-1
 1.000539743100000E+10  -4.999217469300463E-1    2.352078163867334E-2   -5.629996982885175E-5   -4.481640683453920E-4   -5.010088615260868E-5   -4.544631889167115E-4   -3.937214508207174E-1    3.013898232797147E-1
 1.000540394000000E+10  -4.997972511661635E-1    2.390940176618797E-2   -7.896491668337925E-5   -4.389297355687136E-4   -4.711635575236212E-5   -4.556845190012008E-4   -3.933781668421005E-1    3.018740629020938E-1
 1.000541044900000E+10  -4.999174942854320E-1    2.434517322575497E-2   -4.956756277205021E-5   -4.261731786616928E-4   -3.604415628269686E-5   -4.373827791253957E-4   -3.931420491093214E-1    3.021926917563644E-1
 1.000541695800000E+10  -4.999978283260086E-1    2.473043597084726E-2   -8.067023463507489E-5   -4.324580455286581E-4   -6.268031263061180E-5   -4.364651224884920E-4   -3.928936605769550E-1    3.025477150989483E-1
 1.000542346700000E+10  -4.998866892001158E-1    2.523853447304899E-2   -6.819879391868526E-5   -4.254539172334431E-4   -5.528912248987549E-5   -4.272570313832246E-4   -3.924256128419262E-1    3.028731756271754E-1
 1.000542997600000E+10  -4.997985526419871E-1    2.553374311150251E-2   -9.332530733071814E-5   -4.177745394354920E-4   -1.121788978814925E-5   -4.211297946741229E-4   -3.922536964327568E-1    3.033280352279293E-1
 1.000543648500000E+10  -4.998307513140792E-1    2.609999326704991E-2   -7.357126203988761E-5   -4.341548417868443E-4   -4.558326296583695E-5   -4.403531438383339E-4   -3.920891138170453E-1    3.038574012375151E-1
 1.000544299400000E+10  -4.998159544995083E-1    2.646432214497694E-2   -7.846438005608803E-5   -4.299263082037348E-4   -5.015542992424206E-5   -3.852137612810358E-4   -3.917717330028628E-1    3.041178910056672E-1
 1.000544950300000E+10  -4.996560977252278E-1    2.708326850892221E-2   -5.979464886506767E-5   -3.981034124216743E-4   -6.510355684842953E-5   -4.207629042739553E-4   -3.914188521115685E-1    3.047250331397497E-1
 1.000545601200000E+10  -4.997316963758427E-1    2.736941001082232E-2   -5.028745912236783E-5   -4.241062807796004E-4   -6.384437712529470E-5   -3.778158277779712E-4   -3.911361271540857E-1    3.049487867702885E-1
 1.000546252100000E+10  -4.996977559024919E-1    2.776488444897087E-2   -5.339567330972098E-5   -4.290981870654272E-4   -1.721400967696448E-5   -3.722184943484236E-4   -3.908091921371979E-1    3.053409567252305E-1
 1.000546903000000E+10  -4.997568712718106E-1    2.826228558328010E-2   -3.199282083457415E-5   -3.918904311769249E-4   -3.172171018093995E-5   -3.799019768648402E-4   -3.906718071480051E-1    3.057868144306210E-1
 1.000547553900000E+10  -4.997997605597297E-1    2.860896243677732E-2   -1.980273027457293E-6   -3.737301599024821E-4   -1.081585654870638E-5   -3.607530718825826E-4   -3.903146039573203E-1    3.061696104668934E-1
 1.000548204800000E+10  -4.996981755776960E-1    2.898035379838857E-2   -5.509493585725925E-5   -3.767753659894526E-4   -5.244654096416191E-5   -3.601763046310437E-4   -3.899847624122018E-1    3.064674183571346E-1
 1.000548855700000E+10  -4.996613284815914E-1    2.952334076372323E-2   -7.757119465087454E-6   -3.718028417037837E-4   -2.066921200826740E-5   -3.655779133591690E-4   -3.896357029260784E-1    3.069638090220057E-1
 1.000549506600000E+10  -4.997998244271763E-1    2.991279084212141E-2   -5.497936102860615E-5   -3.545422062886158E-4    6.311139730276855E-6   -3.714179964940163E-4   -3.892511019624173E-1    3.072755073813867E-1
 1.000550157500000E+10  -4.997409564335105E-1    3.028757357016895E-2   -6.135693359514925E-6   -3.593927333989449E-4   -7.259101959869259E-6   -3.551543139715363E-4   -3.890264338572338E-1    3.078018518992873E-1
 1.000550808400000E+10  -4.997348505759615E-1    3.085979730249973E-2   -1.277206049801022E-5   -3.443245558951416E-4   -5.693809342215549E-6   -3.425019989067979E-4   -3.888118431202245E-1    3.081202244064168E-1
 1.000551459300000E+10  -4.997469153116827E-1    3.113242217675551E-2   -2.768114210258525E-5   -3.417352398805893E-4   -1.355180203998699E-5   -3.380155080663571E-4   -3.884665342399916E-1    3.085119252672395E-1
 1.000552110200000E+10  -4.996775406195424E-1    3.159305466204857E-2    1.912236995347981E-5   -3.318165984556316E-4   -1.050373018691000E-5   -3.276376522500364E-4   -3.880651024566266E-1    3.089011094828033E-1
 1.000552761100000E+10  -4.996564392759540E-1    3.192226984964465E-2   -9.014972589348141E-6   -3.485507123073994E-4    3.803102972291862E-6   -3.161058379913407E-4   -3.879523779940129E-1    3.091537084328976E-1
 1.000553412000000E+10  -4.997373150866428E-1    3.242786948613093E-2   -1.384005674798438E-5   -3.095444218448490E-4    4.111581971354336E-5   -3.077276191836012E-4   -3.875035455197769E-1    3.097773542274041E-1
 1.000554062900000E+10  -4.996361597060435E-1    3.282996224414236E-2    1.137542496311226E-5   -3.054622304260248E-4    1.348060737927033E-5   -3.098424856801885E-4   -3.872319429207023E-1    3.101345725553928E-1
 1.000554713800000E+10  -4.996078669537887E-1    3.339286547634548E-2    1.742601600275648E-5   -3.185032176334059E-4    3.967814124463273E-5   -2.977661371874327E-4   -3.869551963473977E-1    3.105634030660719E-1
 1.000555364700000E+10  -4.996014613842213E-1    3.363218559572670E-2   -1.100365402345370E-6   -2.854000549869454E-4    3.591867048058964E-5   -2.871223530864040E-4   -3.865806951014986E-1    3.108557692850864E-1
 1.000556015600000E+10  -4.996625363838101E-1    3.409515641562051E-2    1.090757631912701E-5   -3.111739652209493E-4    5.308331203293282E-5   -2.759755940295985E-4   -3.862029476510745E-1    3.113595813241832E-1
 1.000556666500000E+10  -4.995258245332483E-1    3.451611769291978E-2    1.549410759061344E-5   -2.843023815478946E-4    6.315674759897878E-5   -2.557864563642116E-4   -3.859832324874199E-1    3.116079202578358E-1
 1.000557317400000E+10  -4.995356106517324E-1    3.502251821148936E-2    2.511104512529786E-5   -2.598855295651934E-4    3.609955089298700E-5   -2.710377470146251E-4   -3.858218503045282E-1    3.121911687172731E-1
 1.000557968300000E+10  -4.995793887138317E-1    3.529255643557187E-2    5.151915105432563E-6   -2.761036442197199E-4    6.824348685723674E-5   -2.586893637352039E-4   -3.853881888839672E-1    3.125532754779535E-1
 1.000558619200000E+10  -4.996140362585036E-1    3.579545580616823E-2    4.446090211283982E-5   -2.395942697721286E-4    3.822857045012409E-5   -2.773664601946876E-4   -3.849991557020449E-1    3.128879151797511E-1
 1.000559270100000E+10  -4.994024700056151E-1    3.629022255064219E-2    4.985744391996299E-5   -2.546388546946535E-4    6.192563540438517E-5   -2.762762219177887E-4   -3.847990525963547E-1    3.133170284157047E-1
 1.000559921000000E+10  -4.994958480499010E-1    3.665283056464449E-2    6.051747580369487E-5   -2.516339947114044E-4    8.316230031899514E-5   -2.167935286954363E-4   -3.845676399595076E-1    3.135918062018720E-1
 1.000560571900000E+10  -4.995415109539251E-1    3.707728657759904E-2    6.541303717435031E-5   -2.501914534275269E-4    7.629558764442130E-5   -2.564248456378824E-4   -3.841318405947624E-1    3.142251394492356E-1
 1.000561222800000E+10  -4.994602262534476E-1    3.755077258416967E-2    5.495685362872778E-5   -2.592544288752846E-4    8.624029596578807E-5   -2.280407324798845E-4   -3.837782800919518E-1    3.145603786468288E-1
 1.000561873700000E+10  -4.995288776733110E-1    3.800964060231179E-2    8.588142808040908E-5   -2.108795261444795E-4    6.176230177554633E-5   -2.073644014899562E-4   -3.834206772542872E-1    3.148996575919003E-1
 1.000562524600000E+10  -4.995027874222535E-1    3.847636936219998E-2    7.895213845956212E-5   -1.857289734041312E-4    9.972663279626415E-5   -1.835254191018737E-4   -3.831414143914835E-1    3.152744224306174E-1
 1.000563175500000E+10  -4.994511395773114E-1    3.871552122259143E-2    7.978994480535191E-5   -1.997139957910040E-4    8.191049021092901E-5   -1.837839462384946E-4   -3.827758416971876E-1    3.156686120131826E-1
 1.000563826400000E+10  -4.994206561425703E-1    3.910795098207111E-2    1.021933488213798E-4   -1.887039826120227E-4    1.195587966568077E-4   -1.743907475334315E-4   -3.823444123856326E-1    3.161259187667597E-1
 1.000564477300000E+10  -4.994197638673165E-1    3.952405458736840E-2    1.087889660224401E-4   -2.281208571894865E-4    1.035318396320013E-4   -1.611729328910181E-4   -3.820933765076741E-1    3.164118674265259E-1
 1.000565128200000E+10  -4.992953267859855E-1    4.008946327655886E-2    1.099049135285665E-4   -2.106208095682187E-4    1.161417166797664E-4   -1.839188199564403E-4   -3.816655366947349E-1    3.169577172195868E-1
 1.000565779100000E+10  -4.993616059436075E-1    4.048677564758944E-2    1.343479802941518E-4   -1.613336319068239E-4    1.455438178006923E-4   -1.544352679326227E-4   -3.815526883195018E-1    3.173519206137002E-1
 1.000566430000000E+10  -4.993340194752840E-1    4.083355577437570E-2    1.431460511091837E-4   -1.672304539145302E-4    1.491430741881757E-4   -1.750372766373895E-4   -3.810749605902286E-1    3.176388805391478E-1
 1.000567080900000E+10  -4.993597086680010E-1    4.127356029270204E-2    1.213894451564478E-4   -1.386208129034139E-4    1.202504810248114E-4   -1.191466236601815E-4   -3.806722473781016E-1    3.181088694032442E-1
 1.000567731800000E+10  -4.992263776494088E-1    4.162126593872385E-2    1.222502588497353E-4   -1.363287838571011E-4    1.537100031913014E-4   -1.500763745120511E-4   -3.803727570357505E-1    3.184041946463108E-1
