#  HZ   S   RI   R     50.00 
! Rohde & Schwarz Vector Network Analyzer 
! Rohde-Schwarz,ZNB20-2Port,1311601062101988,3.16
! Created: UTC 3/20/2024, 11:47:44 AM
! freq[Hz]                re:S11                  im:S11                  re:S21                  im:S21                  re:S12                  im:S12                  re:S22                  im:S22
 1.000504584300000E+10  -4.998301395950817E-1    6.851934966245736E-4   -1.722475906043672E-4   -6.798792058048907E-4   -1.240691127585311E-4   -6.939265888714831E-4   -4.076333802141359E-1    2.805897120553586E-1
 1.000505254062500E+10  -4.998612831667598E-1    1.153119601718604E-3   -1.848633744795068E-4   -6.817938760855896E-4   -1.236510980865926E-4   -6.666335445002874E-4   -4.073829902240790E-1    2.812423845269442E-1
 1.000505923825000E+10  -4.998069773342614E-1    1.519019953497819E-3   -1.527940675401350E-4   -6.890630208168358E-4   -1.308274387824401E-4   -6.524047632489094E-4   -4.070425806750015E-1    2.813703949211236E-1
 1.000506593587500E+10  -4.997706530234393E-1    1.940249550540607E-3   -1.868200615736756E-4   -6.781290144454320E-4   -1.352448775743786E-4   -6.553698996770140E-4   -4.068403726678710E-1    2.817639041030453E-1
 1.000507263350000E+10  -4.997875436143823E-1    2.396435110043027E-3   -1.833552203143518E-4   -6.691218184643315E-4   -1.541176616297887E-4   -6.734306533707566E-4   -4.065250481215141E-1    2.823450744706316E-1
 1.000507933112500E+10  -4.998391034249428E-1    2.744162813331788E-3   -1.651808504115291E-4   -6.560308883820406E-4   -1.460882624780783E-4   -6.480326454841682E-4   -4.063502023346315E-1    2.826479471591902E-1
 1.000508602875000E+10  -4.998335743427607E-1    3.201636952724367E-3   -1.659335942165887E-4   -6.739832532249286E-4   -1.275043868452090E-4   -6.791859444634720E-4   -4.060899402150920E-1    2.831696404636979E-1
 1.000509272637500E+10  -4.998874726291010E-1    3.852152961221033E-3   -1.598759503974594E-4   -6.621069785842250E-4   -1.138673135606818E-4   -6.616812453004410E-4   -4.058234043949409E-1    2.833614154310866E-1
 1.000509942400000E+10  -4.997008549727249E-1    4.195274790339387E-3   -1.613468562478947E-4   -6.495094094608574E-4   -1.001072935208009E-4   -6.405437384828338E-4   -4.056128101734705E-1    2.837840468397976E-1
 1.000510612162500E+10  -4.997944571366092E-1    4.582352886494132E-3   -1.587935298784049E-4   -6.546565597055745E-4   -1.451055590414036E-4   -6.441819221447656E-4   -4.052331226209336E-1    2.841682698057980E-1
 1.000511281925000E+10  -4.998075998619053E-1    5.022974448431019E-3   -1.747096651202103E-4   -6.210626943647033E-4   -1.301587411987915E-4   -6.343254156853153E-4   -4.051333410404884E-1    2.844193127732857E-1
 1.000511951687500E+10  -4.997343785299770E-1    5.435238628711473E-3   -1.474111358032070E-4   -6.258888951039548E-4   -1.071693810647605E-4   -6.329764807302221E-4   -4.047678739853944E-1    2.850198523794088E-1
 1.000512621450000E+10  -4.999217082651825E-1    5.922235517184125E-3   -1.615227665731749E-4   -6.330807682108520E-4   -1.217980816894836E-4   -6.506385929444425E-4   -4.045604268419909E-1    2.854538920526062E-1
 1.000513291212500E+10  -5.000028477820466E-1    6.408197937295005E-3   -1.444602316103422E-4   -6.419097204900109E-4   -1.345861727145595E-4   -6.472548320570846E-4   -4.041676147830663E-1    2.855647991848484E-1
 1.000513960975000E+10  -4.999322426848388E-1    6.742441822539929E-3   -1.716173751976875E-4   -6.373361482383486E-4   -1.102716853311629E-4   -6.221883271378014E-4   -4.041353561428869E-1    2.861175214840473E-1
 1.000514630737500E+10  -4.999285034363465E-1    7.202225508375839E-3   -1.400991041866913E-4   -6.301845480561548E-4   -1.275983560638167E-4   -5.971925269806635E-4   -4.038406905691102E-1    2.864492006376933E-1
 1.000515300500000E+10  -4.999935514136445E-1    7.694580080366974E-3   -1.616665380570796E-4   -6.318162733257016E-4   -1.462294139785441E-4   -6.104428895214694E-4   -4.035751655161169E-1    2.868299202666953E-1
 1.000515970262500E+10  -4.999034975916203E-1    8.159334767494256E-3   -1.592735959888998E-4   -6.256632273784130E-4   -1.030542917903499E-4   -6.023839805882134E-4   -4.032692635790118E-1    2.873663197440569E-1
 1.000516640025000E+10  -4.999437203938314E-1    8.548680007640429E-3   -1.407638084002233E-4   -6.098297733820738E-4   -1.174197368674158E-4   -6.134870959184746E-4   -4.029761764644060E-1    2.878073183634077E-1
 1.000517309787500E+10  -4.998975978926129E-1    8.837182327509839E-3   -1.440379122708348E-4   -6.102298069837288E-4   -1.200649260133488E-4   -6.011112983714346E-4   -4.026423898963723E-1    2.881897014500975E-1
 1.000517979550000E+10  -4.998961600843679E-1    9.459644609295749E-3   -1.236571472490777E-4   -6.001099828880686E-4   -1.133786655920683E-4   -5.918601110517685E-4   -4.026141452778172E-1    2.884414024142006E-1
 1.000518649312500E+10  -4.998065495419916E-1    9.917878411820059E-3   -1.398277059807430E-4   -6.036444056053689E-4   -9.391506496501641E-5   -5.796780040657168E-4   -4.022362925792224E-1    2.888805025915993E-1
 1.000519319075000E+10  -4.999201557142633E-1    1.028566360645636E-2   -1.509626434309280E-4   -5.551384391777516E-4   -7.872485807164844E-5   -5.582464711378450E-4   -4.018593289559593E-1    2.893942261792347E-1
 1.000519988837500E+10  -4.998305571725297E-1    1.074906224906161E-2   -1.512201725879164E-4   -5.757708004540582E-4   -1.140181038045955E-4   -5.945254079999893E-4   -4.016123672877544E-1    2.897239785842153E-1
 1.000520658600000E+10  -4.999196359581122E-1    1.115734781406844E-2   -1.439927394040292E-4   -5.923178100622001E-4   -1.026721964396965E-4   -6.134408422104763E-4   -4.013988987625426E-1    2.901075785210920E-1
 1.000521328362500E+10  -4.999477420433240E-1    1.145623449136901E-2   -1.418397699382346E-4   -5.859201889092572E-4   -1.268510634057583E-4   -5.891421802792338E-4   -4.012872632536053E-1    2.905757793353735E-1
 1.000521998125000E+10  -5.000081814579251E-1    1.195994902195715E-2   -1.329067763861091E-4   -5.806190215244502E-4   -9.186387741641944E-5   -5.722081828037299E-4   -4.007177578900982E-1    2.911438860745995E-1
 1.000522667887500E+10  -5.000292106316452E-1    1.246167959673990E-2   -1.036837508169461E-4   -5.926355104433609E-4   -9.111568982049558E-5   -5.712032656858401E-4   -4.006878791558525E-1    2.911631726824742E-1
 1.000523337650000E+10  -5.000264830943338E-1    1.282781721300377E-2   -1.213239047835334E-4   -5.451287460166537E-4   -9.983430885703175E-5   -5.880072232536713E-4   -4.004751951023510E-1    2.916759829362431E-1
 1.000524007412500E+10  -4.999293549065096E-1    1.333231229218311E-2   -1.340271809508269E-4   -5.718893131495056E-4   -8.952663921237342E-5   -5.732834059701305E-4   -4.000461508412131E-1    2.920871733202319E-1
 1.000524677175000E+10  -4.999847410260637E-1    1.362786271745645E-2   -1.579252569928508E-4   -5.454786374919047E-4   -9.465655914759641E-5   -5.699519781654500E-4   -3.999060232631089E-1    2.925203057652546E-1
 1.000525346937500E+10  -4.999818905823725E-1    1.417369845035957E-2   -1.279881795623163E-4   -5.769216414980653E-4   -8.607107291027539E-5   -5.460227744840228E-4   -3.998190425115762E-1    2.928614561828206E-1
 1.000526016700000E+10  -4.999513150427509E-1    1.466888655441344E-2   -1.204698590874317E-4   -5.496774246658251E-4   -9.675311572393215E-5   -5.488854250304766E-4   -3.993113201780389E-1    2.934433755333938E-1
 1.000526686462500E+10  -4.999396848099460E-1    1.502994405908223E-2   -1.346869589818299E-4   -5.812424787679464E-4   -5.877818951753829E-5   -5.337530896127427E-4   -3.990015176371516E-1    2.937590343675354E-1
 1.000527356225000E+10  -4.998463649013267E-1    1.552505316117424E-2   -1.188517283314625E-4   -5.600127091842432E-4   -8.011645734301142E-5   -5.488464924837741E-4   -3.988710594624630E-1    2.941603627665184E-1
 1.000528025987500E+10  -4.998886287429311E-1    1.597132964414199E-2   -1.364087122787659E-4   -5.629638089717327E-4   -9.427188380978914E-5   -5.295148444321956E-4   -3.985267727795513E-1    2.944905688698310E-1
 1.000528695750000E+10  -5.000494144227008E-1    1.634336808359326E-2   -1.096594960507135E-4   -5.437362927768354E-4   -8.251450256063558E-5   -5.292047533630711E-4   -3.983886750799447E-1    2.948930012533974E-1
 1.000529365512500E+10  -4.998920739979755E-1    1.690976182623980E-2   -1.056551623786319E-4   -5.137099914036205E-4   -1.141267362875948E-4   -5.497787548255293E-4   -3.979542148446592E-1    2.952702656566039E-1
 1.000530035275000E+10  -4.997703693417609E-1    1.730097512309526E-2   -9.317680505815368E-5   -5.163919772214117E-4   -1.042247292473310E-4   -5.119714660449759E-4   -3.977308724265151E-1    2.956852756597618E-1
 1.000530705037500E+10  -4.999073120411272E-1    1.760316172240689E-2   -1.003246706747990E-4   -5.123561393763935E-4   -9.026888039152491E-5   -5.124480426011968E-4   -3.974495764859928E-1    2.960651657907207E-1
 1.000531374800000E+10  -4.998995767427350E-1    1.815618083303024E-2   -1.168438599756057E-4   -5.312724934746768E-4   -7.133096250647590E-5   -5.116517202061031E-4   -3.971944714547662E-1    2.965326273380722E-1
 1.000532044562500E+10  -4.998620926501290E-1    1.867071639464258E-2   -1.155467073388701E-4   -5.051967073825003E-4   -8.639134067798061E-5   -5.345278675994844E-4   -3.970451450335518E-1    2.968346043299746E-1
 1.000532714325000E+10  -4.999531973196297E-1    1.899482616127521E-2   -1.057308813184934E-4   -5.084900598630366E-4   -6.718800090238890E-5   -5.188602359571578E-4   -3.967235236142259E-1    2.972671088079947E-1
 1.000533384087500E+10  -4.999584739462355E-1    1.946444566755990E-2   -1.106538363905061E-4   -4.609840640279493E-4   -9.734518558358546E-5   -5.009541601489199E-4   -3.963880926986821E-1    2.978130083361166E-1
 1.000534053850000E+10  -4.998397665086308E-1    1.988010068555668E-2   -1.278428356131714E-4   -5.151181314332061E-4   -7.315676222724110E-5   -4.936075176632266E-4   -3.961026458656577E-1    2.979899379029187E-1
 1.000534723612500E+10  -4.999667566016542E-1    2.035259771929025E-2   -8.026051432571355E-5   -4.798617516796055E-4   -7.539613883455909E-5   -4.710408376959784E-4   -3.958301512913030E-1    2.984646675594340E-1
 1.000535393375000E+10  -4.998822504426567E-1    2.084321679512664E-2   -1.152268508050040E-4   -5.040972654622174E-4   -8.105208595284698E-5   -4.685648765902624E-4   -3.955167044487590E-1    2.988144642904615E-1
 1.000536063137500E+10  -4.999248725346306E-1    2.117017827336067E-2   -7.022123989151958E-5   -4.657210536160269E-4   -7.402604254559793E-5   -4.680403472635538E-4   -3.952436778299662E-1    2.993500457344093E-1
 1.000536732900000E+10  -4.999246391985979E-1    2.161171999700925E-2   -9.231951271762826E-5   -4.707886510770474E-4   -6.501039221589381E-5   -4.718839909645919E-4   -3.949876585892028E-1    2.996809139573478E-1
 1.000537402662500E+10  -4.998512946488630E-1    2.196009098647784E-2   -8.290053503174585E-5   -4.657528553463334E-4   -3.609286124594983E-5   -4.405348306140724E-4   -3.947059772686410E-1    2.998579407408766E-1
 1.000538072425000E+10  -4.999588449457858E-1    2.241682569815840E-2   -6.173260582698009E-5   -4.590069921799416E-4   -3.890520962916772E-5   -4.597149751458729E-4   -3.944108512930619E-1    3.004904627510596E-1
 1.000538742187500E+10  -4.999759490947090E-1    2.291025183115814E-2   -5.893193918785717E-5   -4.593216613577544E-4   -5.687019823996990E-5   -4.629588630394115E-4   -3.941704092152452E-1    3.008794221799230E-1
 1.000539411950000E+10  -4.998797154805384E-1    2.334754331142828E-2   -7.599326629048168E-5   -4.467095911932338E-4   -5.050185707424742E-5   -4.220335734182108E-4   -3.937455993682811E-1    3.012618927561151E-1
 1.000540081712500E+10  -4.998761596881479E-1    2.385809824112906E-2   -7.636599673324133E-5   -4.341473754782669E-4   -6.527101519559009E-5   -4.381288467600031E-4   -3.934203866669017E-1    3.016811802406245E-1
 1.000540751475000E+10  -4.997827321439846E-1    2.427114567360073E-2   -4.252587607970159E-5   -4.265316416212176E-4   -6.022248091668403E-5   -4.468279894648003E-4   -3.931643825011350E-1    3.020330843852770E-1
 1.000541421237500E+10  -4.998021127424030E-1    2.453104163635707E-2   -6.783699872107755E-5   -4.373669320721686E-4   -5.833928998668324E-5   -4.182903374044944E-4   -3.927509133142624E-1    3.025627405962928E-1
 1.000542091000000E+10  -4.998397852130174E-1    2.505925232709443E-2   -7.831896409348342E-5   -4.173099127350931E-4   -5.617656906102163E-5   -3.870006387467439E-4   -3.926907146527550E-1    3.029465887377351E-1
 1.000542760762500E+10  -4.998134825339116E-1    2.543546245965029E-2   -4.604716159870325E-5   -4.189860984282360E-4   -5.271898009686788E-5   -4.323703351537364E-4   -3.923757878239358E-1    3.032520603955312E-1
 1.000543430525000E+10  -4.998767307784346E-1    2.604675793487466E-2   -3.420663918632291E-5   -3.845251749644841E-4   -5.055609866464728E-5   -4.255704953378397E-4   -3.920909494119271E-1    3.036966645089593E-1
 1.000544100287500E+10  -4.999271333835455E-1    2.634106256033255E-2   -3.415213116576060E-5   -3.827552153855845E-4   -1.700668876539636E-5   -4.075536218752209E-4   -3.919121296031036E-1    3.041028518445462E-1
 1.000544770050000E+10  -4.998923300329990E-1    2.686270693698046E-2   -5.053197710051979E-5   -3.993977455434251E-4   -3.174385931321239E-5   -3.731951886329217E-4   -3.915316457123804E-1    3.045125250261835E-1
 1.000545439812500E+10  -4.997855135309008E-1    2.727122723736900E-2   -5.942028571481132E-5   -3.819277052389186E-4   -2.066102960723893E-5   -3.761992632078418E-4   -3.910881508727301E-1    3.048550844002096E-1
 1.000546109575000E+10  -4.997283482667765E-1    2.765550770153165E-2   -3.260175222067076E-5   -4.031657173072983E-4   -1.255746083306689E-5   -3.707302370720025E-4   -3.907400863969404E-1    3.052715088429921E-1
 1.000546779337500E+10  -4.997839514250128E-1    2.807542181769690E-2   -2.205418170221472E-5   -3.657943752612716E-4   -1.876608760834194E-5   -3.975356932405305E-4   -3.906426900554018E-1    3.056828847008670E-1
 1.000547449100000E+10  -4.997587067989565E-1    2.864750360711350E-2   -3.494096983850122E-5   -3.798431557167346E-4   -8.632604362896594E-6   -3.528945433824951E-4   -3.902230610301047E-1    3.061045704948048E-1
 1.000548118862500E+10  -4.997564755771248E-1    2.904095084862584E-2   -4.239002029902968E-5   -3.749945628561939E-4    4.591888016413029E-6   -3.703890752591983E-4   -3.899213266902052E-1    3.065373894420386E-1
 1.000548788625000E+10  -4.997209095133294E-1    2.947046569706658E-2   -3.179943502622583E-7   -3.542313359790501E-4   -4.190366656794053E-5   -3.525884338677813E-4   -3.895327701392171E-1    3.069026718319878E-1
 1.000549458387500E+10  -4.996572495933933E-1    2.973519628648079E-2   -1.859517240902758E-5   -3.398631591275533E-4    2.046410381540073E-5   -3.513156230267927E-4   -3.892983980282562E-1    3.074403055289792E-1
 1.000550128150000E+10  -4.996695381878028E-1    3.031531719498712E-2   -2.334636605089199E-5   -3.577633535344720E-4    1.117713110742051E-5   -3.508671463862806E-4   -3.890643293341624E-1    3.077268926080313E-1
 1.000550797912500E+10  -4.996474386814325E-1    3.065953152463510E-2   -1.062256104365281E-5   -3.791110045624610E-4    1.370856760649866E-5   -3.533798608828141E-4   -3.886832981837184E-1    3.081985708222018E-1
 1.000551467675000E+10  -4.996549524262531E-1    3.120330053837354E-2   -1.678840052878834E-5   -3.155069316570203E-4    3.026946091882316E-5   -3.185151087068760E-4   -3.884725734619514E-1    3.085858810831559E-1
 1.000552137437500E+10  -4.996242105466571E-1    3.160309360277491E-2    2.290634082501788E-5   -3.497992529639266E-4    8.046746590300637E-6   -3.374022308489499E-4   -3.881344061051912E-1    3.089542523857297E-1
 1.000552807200000E+10  -4.996072049475541E-1    3.196734210643148E-2    1.424156283605115E-5   -3.016365095409484E-4    5.704595091986976E-5   -3.288913147856060E-4   -3.876873315840186E-1    3.094548040138985E-1
 1.000553476962500E+10  -4.996018985426247E-1    3.236466233732332E-2    2.089191553344265E-5   -3.115101036598849E-4    3.013983855983913E-5   -2.988679875218714E-4   -3.874298363799571E-1    3.099235013293061E-1
 1.000554146725000E+10  -4.996594816782011E-1    3.283306274050356E-2   -1.030994271092713E-6   -2.953009164822427E-4    2.820348999603157E-5   -3.110180034568108E-4   -3.872471347539243E-1    3.102142176633340E-1
 1.000554816487500E+10  -4.996299728495312E-1    3.342407175263826E-2    3.069161077994077E-5   -3.386359344010833E-4    6.206146698632294E-5   -2.664385045037922E-4   -3.868229872676983E-1    3.106439188204647E-1
 1.000555486250000E+10  -4.997332830133943E-1    3.376165023146917E-2   -1.236833350785772E-6   -3.163778608087218E-4    4.687409908813097E-5   -2.862109893777742E-4   -3.865651789004632E-1    3.110909879472457E-1
 1.000556156012500E+10  -4.996402117424856E-1    3.420205153770507E-2    6.605652692286518E-5   -3.102123850338183E-4    3.314602745279304E-5   -2.670612417554815E-4   -3.861052145180077E-1    3.114261408228660E-1
 1.000556825775000E+10  -4.995630540320648E-1    3.465079315118699E-2    4.696646556093490E-5   -2.859436711171577E-4    5.180556170501025E-5   -2.697353196228198E-4   -3.859129481456204E-1    3.117754529233915E-1
 1.000557495537500E+10  -4.996437713715858E-1    3.502064430708042E-2    6.549375531441696E-5   -2.738382781670279E-4    8.912014970652818E-5   -2.403422627876707E-4   -3.854642947764169E-1    3.122947417517516E-1
 1.000558165300000E+10  -4.995776948061855E-1    3.539038278344932E-2    9.516707316648320E-6   -2.831520582924512E-4    6.454678001218044E-5   -2.384893343468723E-4   -3.850893582145142E-1    3.127388536271510E-1
 1.000558835062500E+10  -4.994694744052721E-1    3.592827865615148E-2    6.452317574911981E-5   -2.638102115403416E-4    8.785839265469645E-5   -2.432960544539549E-4   -3.848369771497533E-1    3.131245043048887E-1
 1.000559504825000E+10  -4.995311831397929E-1    3.637426979689376E-2    5.684269876398443E-5   -2.422817173155372E-4    7.279689842759243E-5   -2.138519063489225E-4   -3.846417347810437E-1    3.134191189245962E-1
 1.000560174587500E+10  -4.994647535127460E-1    3.685189928427975E-2    8.006039049875914E-5   -2.371838127772377E-4    7.696234465993051E-5   -2.275839290948706E-4   -3.842277338808517E-1    3.139063975706123E-1
 1.000560844350000E+10  -4.995894635566145E-1    3.723082997678129E-2    9.146633189773497E-5   -1.949499260849179E-4    8.847630856323148E-5   -1.837062561873977E-4   -3.838312150509150E-1    3.143354992263270E-1
 1.000561514112500E+10  -4.994880398498228E-1    3.765550303341137E-2    8.857372387180186E-5   -2.395962701942681E-4    9.900160078086035E-5   -1.785789323644355E-4   -3.834473472578952E-1    3.147615409928243E-1
 1.000562183875000E+10  -4.994216586007232E-1    3.811534591584522E-2    7.137300526699579E-5   -1.946784893001793E-4    9.890602086033480E-5   -1.911628791194398E-4   -3.831333920344591E-1    3.151176467271056E-1
 1.000562853637500E+10  -4.993367975248471E-1    3.843005326263399E-2    1.247085367713095E-4   -1.716928586318060E-4    8.577589980390017E-5   -1.805418015431912E-4   -3.828039032117688E-1    3.155592773619232E-1
 1.000563523400000E+10  -4.994300183586420E-1    3.895571090607489E-2    1.045523337337598E-4   -1.748416441664207E-4    1.164629627798502E-4   -1.450739051234472E-4   -3.825318205736272E-1    3.160314851984121E-1
 1.000564193162500E+10  -4.994165726879498E-1    3.943279682363019E-2    1.162025358137166E-4   -1.664817603646436E-4    1.451017611486659E-4   -1.910413551285734E-4   -3.821376132951211E-1    3.163961013982527E-1
 1.000564862925000E+10  -4.993367318625735E-1    3.980518703765784E-2    1.205403711955631E-4   -1.833296261867872E-4    1.384132194837112E-4   -1.792071499083085E-4   -3.817472338489000E-1    3.167362338984490E-1
