#  HZ   S   RI   R     50.00 
! Rohde & Schwarz Vector Network Analyzer 
! Rohde-Schwarz,ZNB20-2Port,1311601062101988,3.16
! Created: UTC 3/20/2024, 11:50:09 AM
! freq[Hz]                re:S11                  im:S11                  re:S21                  im:S21                  re:S12                  im:S12                  re:S22                  im:S22
 1.000480011300000E+10  -4.990066307468337E-1   -1.509241380594620E-2   -1.755446609628082E-4   -7.706633730115042E-4   -1.297981664119814E-4   -7.624261602343369E-4   -4.160520026019272E-1    2.662280081190083E-1
 1.000480775647500E+10  -4.990710900048739E-1   -1.465171221498592E-2   -1.796649861644410E-4   -7.459061939583473E-4   -1.503432125535088E-4   -7.589033039884090E-4   -4.156987241038854E-1    2.665511765182359E-1
 1.000481539995000E+10  -4.990491291289085E-1   -1.401350344140585E-2   -1.815286968952230E-4   -7.469089430579025E-4   -1.156697982650895E-4   -7.829704968288729E-4   -4.154555479770397E-1    2.670878412463075E-1
 1.000482304342500E+10  -4.992260972746928E-1   -1.357122459204026E-2   -1.542596699906574E-4   -7.496388425647497E-4   -1.342949658918913E-4   -7.727601513490783E-4   -4.153574485914645E-1    2.673274963884730E-1
 1.000483068690000E+10  -4.991990658678625E-1   -1.306153410963067E-2   -1.503348655018668E-4   -7.949299542101085E-4   -1.373392919390760E-4   -7.086568863514345E-4   -4.150506141413136E-1    2.678758984628035E-1
 1.000483833037500E+10  -4.991268807880130E-1   -1.268450036942237E-2   -1.698119949111434E-4   -7.594484666464769E-4   -1.223781586705115E-4   -7.333303900560360E-4   -4.146047412352551E-1    2.683608418522364E-1
 1.000484597385000E+10  -4.991405475165324E-1   -1.209247033529104E-2   -1.868897065727996E-4   -7.336107150331349E-4   -1.478647688150470E-4   -7.634950404857570E-4   -4.145901579859976E-1    2.688249493454307E-1
 1.000485361732500E+10  -4.992227046987573E-1   -1.161809129404921E-2   -1.862269538197390E-4   -7.304060246083039E-4   -1.414918120757867E-4   -7.461081887046801E-4   -4.141846665549049E-1    2.693319226706739E-1
 1.000486126080000E+10  -4.992594844665593E-1   -1.105913463145446E-2   -1.731272708455878E-4   -7.328710635544569E-4   -1.249355719648019E-4   -7.351168746696936E-4   -4.140110387658406E-1    2.697087439175211E-1
 1.000486890427500E+10  -4.991722037322412E-1   -1.069005137022941E-2   -1.787180787699391E-4   -7.379636421823600E-4   -1.259235853263729E-4   -7.153601456295889E-4   -4.136740747273093E-1    2.702870019342484E-1
 1.000487654775000E+10  -4.992256818314349E-1   -1.012838189660714E-2   -1.554604721572999E-4   -7.090600170432215E-4   -1.351020742341665E-4   -7.173391514827081E-4   -4.134388664335061E-1    2.707278438246347E-1
 1.000488419122500E+10  -4.993107744302830E-1   -9.781225188439607E-3   -1.806893652117054E-4   -7.346142261894197E-4   -1.202426997794234E-4   -7.182131344469008E-4   -4.131154843752707E-1    2.711717273026684E-1
 1.000489183470000E+10  -4.993317337514410E-1   -9.151191692549465E-3   -1.958498148189609E-4   -6.970901745736527E-4   -1.543279061411985E-4   -7.353579467839443E-4   -4.127739962194337E-1    2.716677568492358E-1
 1.000489947817500E+10  -4.992669270636552E-1   -8.479094468636740E-3   -1.912759668402492E-4   -7.207738329523182E-4   -1.195492234960455E-4   -7.092231469652729E-4   -4.125926140153143E-1    2.721017933236810E-1
 1.000490712165000E+10  -4.993653876058554E-1   -8.105298991140443E-3   -2.074504667960272E-4   -7.376522290776764E-4   -1.302125579019118E-4   -7.232621557452680E-4   -4.123678030744737E-1    2.724110441539198E-1
 1.000491476512500E+10  -4.993836900115426E-1   -7.631707522121889E-3   -1.469054897667672E-4   -7.226985550863853E-4   -1.029187807880448E-4   -6.941685780171615E-4   -4.119955258413782E-1    2.729764649660776E-1
 1.000492240860000E+10  -4.994540568384723E-1   -7.072803905934776E-3   -1.541896304036268E-4   -6.805865549355330E-4   -1.388514795525149E-4   -7.052891588491756E-4   -4.117109909867473E-1    2.733905738608225E-1
 1.000493005207500E+10  -4.993706299350447E-1   -6.638229841805105E-3   -1.598258923975854E-4   -7.027814650535807E-4   -9.140085128801770E-5   -7.212766146832403E-4   -4.114453665216685E-1    2.738352535469625E-1
 1.000493769555000E+10  -4.994724990930438E-1   -6.125581030953458E-3   -1.425356883192415E-4   -6.752593550241287E-4   -8.657336986724821E-5   -6.766954675030002E-4   -4.113108545581270E-1    2.743045289072638E-1
 1.000494533902500E+10  -4.995016136493788E-1   -5.763621183273925E-3   -1.627410406924224E-4   -6.564310266881859E-4   -1.466544402538670E-4   -6.995202145316336E-4   -4.110633715823379E-1    2.747944682890368E-1
 1.000495298250000E+10  -4.994903992633727E-1   -5.115713321313112E-3   -1.487208211908232E-4   -7.061311443640813E-4   -1.198131064258844E-4   -6.798933479178700E-4   -4.105960816555059E-1    2.752427577012690E-1
 1.000496062597500E+10  -4.995694744589126E-1   -4.628144743522860E-3   -1.502877911294455E-4   -6.728424798898289E-4   -1.184530153924756E-4   -6.909191114417295E-4   -4.104707618115416E-1    2.758008392444355E-1
 1.000496826945000E+10  -4.994370510402417E-1   -4.198006646470801E-3   -1.580586271624695E-4   -6.804259158366723E-4   -1.206293088209227E-4   -6.937100986182543E-4   -4.101267849058134E-1    2.761156889806496E-1
 1.000497591292500E+10  -4.996525155199381E-1   -3.678782703569913E-3   -1.597621747101354E-4   -6.836889063143954E-4   -1.074831031908762E-4   -6.703838234345374E-4   -4.098998289338331E-1    2.765779685109633E-1
 1.000498355640000E+10  -4.994871503414498E-1   -3.146081555615603E-3   -1.282448703639491E-4   -6.670375416155679E-4   -9.075417555917433E-5   -6.792678154728991E-4   -4.096145609310338E-1    2.771095136787997E-1
 1.000499119987500E+10  -4.995897065779788E-1   -2.595042519589923E-3   -1.709695865243274E-4   -6.757189370959257E-4   -1.228784890106398E-4   -6.922580354280207E-4   -4.092550472546522E-1    2.775371987879985E-1
 1.000499884335000E+10  -4.996686644939277E-1   -2.204823179159098E-3   -1.508510397427571E-4   -6.469426267157244E-4   -9.698752754435995E-5   -6.701206135406113E-4   -4.089980321939753E-1    2.780110005600805E-1
 1.000500648682500E+10  -4.995863492074549E-1   -1.637608470874855E-3   -1.581303399526637E-4   -6.834061230861742E-4   -1.303075302742417E-4   -6.772864942576067E-4   -4.087048199805439E-1    2.782895252575557E-1
 1.000501413030000E+10  -4.995182363714932E-1   -1.191023793790423E-3   -1.549938140378536E-4   -6.620892526469907E-4   -1.070093481697507E-4   -6.465823932252715E-4   -4.084343504282588E-1    2.787363633258358E-1
 1.000502177377500E+10  -4.996356948013176E-1   -6.685223340740722E-4   -1.439413706422159E-4   -6.729080806679046E-4   -1.397084167472435E-4   -6.792786008336766E-4   -4.080976847240644E-1    2.794346109891178E-1
 1.000502941725000E+10  -4.997226113192535E-1   -9.456059228108288E-5   -1.416761735404446E-4   -6.564238501354314E-4   -9.390532403308441E-5   -6.882053342336677E-4   -4.079814638763559E-1    2.798043143451655E-1
 1.000503706072500E+10  -4.997014183763480E-1    3.872101772252173E-4   -1.628806105244957E-4   -6.317956951830903E-4   -1.105296387678954E-4   -6.365221720612472E-4   -4.077003468316074E-1    2.801662433154768E-1
 1.000504470420000E+10  -4.997723098547744E-1    8.846862440157067E-4   -1.680168495974714E-4   -6.384423393785682E-4   -1.227130382334829E-4   -6.493246168765650E-4   -4.073291377210653E-1    2.805977884455222E-1
 1.000505234767500E+10  -4.996323671086795E-1    1.335677727455548E-3   -1.549963696876204E-4   -6.328600869381495E-4   -1.152800760284034E-4   -6.447979841185219E-4   -4.072644638070532E-1    2.810944605986805E-1
 1.000505999115000E+10  -4.997018780437686E-1    1.798052929692422E-3   -1.383128262157676E-4   -6.321232088177646E-4   -1.178353138007804E-4   -6.408645102553079E-4   -4.067436768469597E-1    2.816439207721114E-1
 1.000506763462500E+10  -4.998351927147948E-1    2.333055711400951E-3   -1.546620942455602E-4   -6.590650590074895E-4   -1.298535318795975E-4   -6.241567388173531E-4   -4.065005674899773E-1    2.820705573189016E-1
 1.000507527810000E+10  -4.998196305976446E-1    2.694675617058379E-3   -1.157174594824927E-4   -6.104606416140095E-4   -1.013932216008754E-4   -6.299140230841993E-4   -4.061294903392582E-1    2.824157829580433E-1
 1.000508292157500E+10  -4.998574306115888E-1    3.240094069775128E-3   -1.494389122385009E-4   -6.587169763694790E-4   -9.956967060359923E-5   -6.396298985868439E-4   -4.058028648752450E-1    2.830873400668717E-1
 1.000509056505000E+10  -4.997505057456806E-1    3.763807091031581E-3   -1.611859965709647E-4   -6.034398189064521E-4   -1.009098795554147E-4   -6.324691349897084E-4   -4.057981451386408E-1    2.832660405199552E-1
 1.000509820852500E+10  -4.998265295588197E-1    4.196792168612601E-3   -1.264881694175664E-4   -5.952529417368438E-4   -1.010129495090963E-4   -6.213383254881836E-4   -4.052841606808327E-1    2.838618753983742E-1
 1.000510585200000E+10  -4.997396624950678E-1    4.769738690368382E-3   -1.363070105268009E-4   -6.240336114214980E-4   -1.049920393916774E-4   -5.924931668145527E-4   -4.050874789239226E-1    2.842345568384574E-1
 1.000511349547500E+10  -4.998556253159278E-1    5.261828651274595E-3   -1.429005539406017E-4   -5.838948252549709E-4   -9.189335073512619E-5   -6.082236045809173E-4   -4.047761923345014E-1    2.845452973945822E-1
 1.000512113895000E+10  -4.998170872230479E-1    5.853226127468428E-3   -1.363119663028462E-4   -5.923058283260688E-4   -8.887166086220389E-5   -6.025453443048808E-4   -4.044041377441003E-1    2.851604388022065E-1
 1.000512878242500E+10  -4.997822536978385E-1    6.178377249192084E-3   -1.341310994584350E-4   -5.822025765839947E-4   -1.034535875194251E-4   -5.619221645168774E-4   -4.040285407483925E-1    2.857184392334842E-1
 1.000513642590000E+10  -4.998205751773804E-1    6.801470319368900E-3   -9.730696551501789E-5   -5.885112893978842E-4   -1.048477109113786E-4   -5.638774315214919E-4   -4.038383762894447E-1    2.860172762153967E-1
 1.000514406937500E+10  -4.997989287102361E-1    7.237902848622361E-3   -1.286240461045102E-4   -5.884903411990364E-4   -8.539256608588654E-5   -5.644841710448046E-4   -4.035901636498492E-1    2.865962905605986E-1
 1.000515171285000E+10  -4.998234007112664E-1    7.752039399087613E-3   -9.370964405159560E-5   -6.010242636758824E-4   -1.039927869235146E-4   -5.809807320480552E-4   -4.032657325822547E-1    2.870341260240788E-1
 1.000515935632500E+10  -4.998104935784061E-1    8.138166875791775E-3   -1.077981855104979E-4   -5.802357387682731E-4   -9.563429129593452E-5   -5.929806859628529E-4   -4.029397964357137E-1    2.873723658156563E-1
 1.000516699980000E+10  -4.998968356169997E-1    8.627561040368454E-3   -7.875288790531166E-5   -5.779510275022388E-4   -9.206309053058966E-5   -5.795258520245374E-4   -4.027227987876449E-1    2.879011876581486E-1
 1.000517464327500E+10  -4.999493973608634E-1    9.327757299876106E-3   -9.537019197217618E-5   -5.581653786088785E-4   -9.540930303560527E-5   -5.784768987143409E-4   -4.023712931892522E-1    2.882911949427344E-1
 1.000518228675000E+10  -4.998262288407275E-1    9.669808445869619E-3   -1.036284930748110E-4   -5.799018420514187E-4   -4.703816305812288E-5   -5.848734125103296E-4   -4.020078357614105E-1    2.886886417404725E-1
 1.000518993022500E+10  -4.999455827827333E-1    1.020460513214149E-2   -8.047144334842597E-5   -5.705697949990514E-4   -9.079621391348221E-5   -5.709028390605068E-4   -4.016496981175412E-1    2.892220980563830E-1
 1.000519757370000E+10  -4.999382668743766E-1    1.073556136509416E-2   -9.767447457026068E-5   -5.546179018436085E-4   -9.285673028604985E-5   -5.394110891015057E-4   -4.015490926876358E-1    2.896415042259510E-1
 1.000520521717500E+10  -4.999308661192886E-1    1.129664831672848E-2   -1.049843606170019E-4   -5.371241851488598E-4   -5.685627406750556E-5   -5.147422855793810E-4   -4.011605750901140E-1    2.901487146050522E-1
 1.000521286065000E+10  -4.999359116813408E-1    1.166884373880612E-2   -8.481553643009564E-5   -5.156426000426027E-4   -6.569587898721997E-5   -5.387070593844660E-4   -4.009036719567414E-1    2.905900765103344E-1
 1.000522050412500E+10  -4.999636100676869E-1    1.223166561331932E-2   -6.156948241665680E-5   -5.365825560062344E-4   -6.539736072925450E-5   -5.205999033175932E-4   -4.005348041168498E-1    2.909694648631984E-1
 1.000522814760000E+10  -4.998984533130247E-1    1.274285356045932E-2   -1.155875272639085E-4   -5.365371787118173E-4   -8.607225407206817E-5   -5.186732164702750E-4   -4.002380932386200E-1    2.915865786302175E-1
 1.000523579107500E+10  -5.000453438094172E-1    1.322213477556153E-2   -7.605291310697994E-5   -5.298031274089751E-4   -3.798031783924053E-5   -5.188120692010226E-4   -3.998944436485141E-1    2.920017423018726E-1
 1.000524343455000E+10  -4.998635760705942E-1    1.372508137097869E-2   -9.888840160303669E-5   -5.115255060219739E-4   -5.053239507705086E-5   -5.307392059891809E-4   -3.996198786248868E-1    2.923728517827236E-1
 1.000525107802500E+10  -4.998405468425517E-1    1.413777959153298E-2   -9.328970845289685E-5   -5.209132419742526E-4   -5.760808260236756E-5   -5.206487287013961E-4   -3.993141077733589E-1    2.928455401113191E-1
 1.000525872150000E+10  -5.000558908559523E-1    1.469515389643061E-2   -8.896224460868393E-5   -5.086791132113213E-4   -7.311453191033754E-5   -5.453232950733711E-4   -3.990884011785708E-1    2.933309322954184E-1
 1.000526636497500E+10  -4.998324128562004E-1    1.523820163644517E-2   -6.568159940105858E-5   -5.244181842076041E-4   -3.881932065179716E-5   -5.065550825180511E-4   -3.986847720005919E-1    2.938049171956982E-1
 1.000527400845000E+10  -4.998593542161859E-1    1.573713046616945E-2   -7.361222431010430E-5   -4.775070660718401E-4   -5.483510007158578E-5   -5.101661011609693E-4   -3.983579992247924E-1    2.943414071092196E-1
 1.000528165192500E+10  -4.999570746690686E-1    1.622557797849950E-2   -4.443021080281260E-5   -4.897721908440369E-4   -5.890748111981494E-5   -4.922981390710398E-4   -3.980076087520621E-1    2.948010091255755E-1
 1.000528929540000E+10  -4.998636418148801E-1    1.682408712801439E-2   -5.859099823850963E-5   -4.895983572911995E-4   -7.324648538613418E-5   -4.795047858443975E-4   -3.977790203449882E-1    2.951815775490461E-1
 1.000529693887500E+10  -4.998832437699489E-1    1.714271197958677E-2   -8.385555775428550E-5   -4.906389540562482E-4   -5.286954588423838E-5   -4.716146732882554E-4   -3.973241532716422E-1    2.956406571975151E-1
 1.000530458235000E+10  -4.999105992289430E-1    1.768407077514477E-2   -6.259066816856294E-5   -4.946789242077429E-4   -3.432515530018515E-5   -4.418857986049804E-4   -3.970089413527488E-1    2.960838659758909E-1
 1.000531222582500E+10  -4.998759156522341E-1    1.819289107268355E-2   -4.859478694962822E-5   -4.467020286355095E-4   -4.264786517377184E-5   -4.589518904780836E-4   -3.966748605046460E-1    2.964696500586324E-1
 1.000531986930000E+10  -4.999095430623891E-1    1.871839029790178E-2   -7.192256254415655E-5   -4.658640602814735E-4   -3.118253663698631E-5   -4.481407720978340E-4   -3.964857120000218E-1    2.968852238550259E-1
 1.000532751277500E+10  -5.000303367912505E-1    1.908684811570062E-2   -3.743751869593846E-5   -4.621316034130414E-4   -3.397984905519501E-5   -4.410202902707742E-4   -3.960226979050706E-1    2.974341180071013E-1
 1.000533515625000E+10  -4.998424869232284E-1    1.968398946671758E-2   -6.713755990295463E-5   -4.540354022577082E-4   -2.531843557313639E-5   -4.718773037217563E-4   -3.959181286533906E-1    2.978882686735011E-1
 1.000534279972500E+10  -4.999702849086800E-1    2.008476911258267E-2   -4.032610831667787E-5   -4.123818363188361E-4   -1.645136205390949E-5   -4.513210567444507E-4   -3.955738014734139E-1    2.983015866151553E-1
 1.000535044320000E+10  -4.998868747125060E-1    2.067739940230448E-2   -8.289509680310992E-6   -4.091397254045126E-4   -1.729450389084716E-5   -4.424875540735763E-4   -3.951607272634084E-1    2.986571447178665E-1
 1.000535808667500E+10  -4.998904722058362E-1    2.120447364982374E-2   -3.545406681331273E-5   -4.400804085602189E-4   -1.674257247878183E-5   -4.333551340266991E-4   -3.947845472006108E-1    2.992062571934202E-1
 1.000536573015000E+10  -4.998851005491686E-1    2.168194566695307E-2    5.249472111744004E-6   -4.267466235553403E-4   -1.792240361963495E-7   -3.952314217829319E-4   -3.945138873954500E-1    2.997095265705366E-1
 1.000537337362500E+10  -4.998893569797652E-1    2.211836916719954E-2   -2.050074063236545E-5   -4.068654315932515E-4   -1.761015484461785E-5   -4.105121661020542E-4   -3.940775106092257E-1    3.003284726727390E-1
 1.000538101710000E+10  -4.997564890991941E-1    2.272824985161223E-2   -2.583745699026655E-5   -4.100641149565263E-4   -1.118658102231940E-5   -4.173922738613717E-4   -3.936576619383872E-1    3.007847321408584E-1
 1.000538866057500E+10  -4.998876211874406E-1    2.314258762390356E-2   -1.147619594326023E-5   -4.066035404088137E-4   -7.567314972540272E-6   -3.984525831455246E-4   -3.933701402072928E-1    3.011130426583853E-1
 1.000539630405000E+10  -4.999389442430526E-1    2.364526062964213E-2   -2.794962737546320E-5   -3.752803185885495E-4    1.278634427175958E-5   -3.752530544194054E-4   -3.930453453254814E-1    3.016132265063483E-1
 1.000540394752500E+10  -4.998419845093493E-1    2.406465378854185E-2    2.800715341088701E-6   -3.827924506580645E-4    9.003240249549418E-6   -3.871659433127488E-4   -3.927012842451080E-1    3.021181975026338E-1
 1.000541159100000E+10  -4.996501600426688E-1    2.458456391478114E-2   -2.923958942574294E-5   -3.688469743915749E-4    2.210314792238956E-5   -3.801424725418677E-4   -3.924115635887758E-1    3.024602438392717E-1
 1.000541923447500E+10  -4.999316242282567E-1    2.512018378343886E-2    1.129064091424796E-7   -3.491362962823961E-4    2.183469449756282E-5   -3.426938024303374E-4   -3.921118159143178E-1    3.030131824841369E-1
 1.000542687795000E+10  -4.997297978921491E-1    2.564501246039235E-2    4.311229168378162E-5   -3.573059719256050E-4    2.604297512429389E-5   -3.671078447010235E-4   -3.917918802262211E-1    3.033586488832695E-1
 1.000543452142500E+10  -4.998052784356479E-1    2.599576769120539E-2    2.855625154037394E-5   -3.719304968855838E-4    2.952976121661277E-5   -3.421496419124325E-4   -3.913957039500842E-1    3.039301507238549E-1
 1.000544216490000E+10  -4.997097344036010E-1    2.664861073503922E-2    4.321011522296292E-5   -3.664864134049283E-4    3.822948122527103E-5   -3.590890219246450E-4   -3.909645037656956E-1    3.043590842656058E-1
 1.000544980837500E+10  -4.998650073438315E-1    2.712727935789731E-2    2.992413266973245E-5   -3.607795968049175E-4    5.440073756934815E-5   -3.670849733322282E-4   -3.906166202294617E-1    3.049548538085271E-1
 1.000545745185000E+10  -4.997323771928922E-1    2.754881472835504E-2    2.874237134820618E-5   -3.196106814941938E-4    5.450474456263510E-5   -3.289280555024757E-4   -3.903029242563869E-1    3.053580681011842E-1
 1.000546509532500E+10  -4.997661880815591E-1    2.809175936176154E-2    2.946434097900720E-5   -3.379578196948151E-4    5.564449404143858E-5   -3.214098252358960E-4   -3.897907925229720E-1    3.058099422948548E-1
 1.000547273880000E+10  -4.998131255423330E-1    2.867169438322461E-2    3.879862084472209E-5   -3.305991994822388E-4    6.536837344538018E-5   -2.886241600229885E-4   -3.896272907557707E-1    3.062925774757131E-1
 1.000548038227500E+10  -4.996476177018181E-1    2.914597618842122E-2    4.607878683437289E-5   -2.900479342267559E-4    7.416567745336941E-5   -2.862316826036724E-4   -3.893141015564318E-1    3.066584007889217E-1
 1.000548802575000E+10  -4.997793345990539E-1    2.961854869815899E-2    7.475992939726179E-5   -2.830484640083180E-4    5.181877139205152E-5   -2.777065412336533E-4   -3.888942817000645E-1    3.072372665669680E-1
