#  HZ   S   RI   R     50.00 
! Rohde & Schwarz Vector Network Analyzer 
! Rohde-Schwarz,ZNB20-2Port,1311601062101988,3.16
! Created: UTC 3/20/2024, 11:50:54 AM
! freq[Hz]                re:S11                  im:S11                  re:S21                  im:S21                  re:S12                  im:S12                  re:S22                  im:S22
 1.000472730500000E+10  -4.986929123568459E-1   -1.986735043074914E-2   -1.845770078965358E-4   -8.161721573633926E-4   -1.384440208725101E-4   -8.085588928178264E-4   -4.184576969173525E-1    2.617233307253741E-1
 1.000473523217500E+10  -4.987173823644364E-1   -1.928177499387833E-2   -1.718078890841687E-4   -7.998025807378999E-4   -1.458740266873600E-4   -7.834334227480051E-4   -4.182228942224591E-1    2.622509389501230E-1
 1.000474315935000E+10  -4.987361521559235E-1   -1.878601478792208E-2   -1.845783155641132E-4   -7.657383730607340E-4   -1.446025592662541E-4   -7.852300944242752E-4   -4.178508929753817E-1    2.626608461537689E-1
 1.000475108652500E+10  -4.986431348737894E-1   -1.828184786586517E-2   -1.886229087182166E-4   -7.888646602232471E-4   -1.337285160590075E-4   -7.771180733606258E-4   -4.175825017510528E-1    2.632097516101308E-1
 1.000475901370000E+10  -4.987577660640215E-1   -1.772209081402116E-2   -1.520697469444979E-4   -7.915589533888573E-4   -1.327166965350089E-4   -7.748851138763134E-4   -4.173226684553838E-1    2.636177839100788E-1
 1.000476694087500E+10  -4.989179169807517E-1   -1.722730451767458E-2   -1.740920490396192E-4   -7.441027283130774E-4   -1.437365807419761E-4   -7.572137931169345E-4   -4.171880574149557E-1    2.641478982542216E-1
 1.000477486805000E+10  -4.989219871249197E-1   -1.664034615438613E-2   -1.431568998237874E-4   -7.630432632305770E-4   -1.266430757136995E-4   -7.829362051682105E-4   -4.171002363955498E-1    2.645602248324019E-1
 1.000478279522500E+10  -4.988612960556347E-1   -1.627430107536501E-2   -1.614732830108508E-4   -7.759158762470267E-4   -1.278022588392105E-4   -7.376809205108701E-4   -4.165421970243088E-1    2.650322637220555E-1
 1.000479072240000E+10  -4.990047693288555E-1   -1.573014480360614E-2   -1.762426365459312E-4   -7.848872822883953E-4   -1.445202618246577E-4   -7.391177918042515E-4   -4.162456754847415E-1    2.655140637550716E-1
 1.000479864957500E+10  -4.989511255370098E-1   -1.519516285304819E-2   -1.973170895945393E-4   -7.396742262852892E-4   -1.353321812185649E-4   -7.337774206458097E-4   -4.161289970242339E-1    2.658690925619971E-1
 1.000480657675000E+10  -4.990261767850930E-1   -1.461201240721884E-2   -1.449936937485567E-4   -7.690224136456141E-4   -1.369370039207895E-4   -6.922519754477835E-4   -4.157473913512693E-1    2.664830918422192E-1
 1.000481450392500E+10  -4.989726407742976E-1   -1.412420224105307E-2   -1.754471305759142E-4   -7.534545776089688E-4   -1.046432708471129E-4   -7.184049068173811E-4   -4.154503848749265E-1    2.667808873611900E-1
 1.000482243110000E+10  -4.990826473483478E-1   -1.358031874844801E-2   -1.502048322568387E-4   -7.226541215487856E-4   -1.410087149853433E-4   -7.191787589443732E-4   -4.151793898993431E-1    2.674492534504646E-1
 1.000483035827500E+10  -4.990665545656159E-1   -1.306145611668652E-2   -1.464950881483698E-4   -7.531887021869829E-4   -1.124755057366135E-4   -7.427965091873201E-4   -4.147704067533721E-1    2.678333518299248E-1
 1.000483828545000E+10  -4.991195340496855E-1   -1.251991375230147E-2   -1.604264297942528E-4   -7.366141700381877E-4   -1.357163492970257E-4   -7.470587834206295E-4   -4.146611149296300E-1    2.682569592560826E-1
 1.000484621262500E+10  -4.991252467568184E-1   -1.196883673980617E-2   -1.988117921391622E-4   -7.411636151009028E-4   -1.358225153944149E-4   -7.587023369787383E-4   -4.143701043712365E-1    2.688088203436622E-1
 1.000485413980000E+10  -4.991956333613441E-1   -1.146330029013073E-2   -1.679796995880058E-4   -7.119619008447072E-4   -1.116979179334700E-4   -7.135874384255992E-4   -4.140637804278852E-1    2.692327163639408E-1
 1.000486206697500E+10  -4.992280090364556E-1   -1.100575758232297E-2   -1.891775054555514E-4   -7.315020251028463E-4   -1.173364894619917E-4   -7.268316766689334E-4   -4.137974710619247E-1    2.698134819060455E-1
 1.000486999415000E+10  -4.992385773157336E-1   -1.058290832776116E-2   -1.562500739628227E-4   -7.142240528724720E-4   -1.295080451099510E-4   -7.173813322048966E-4   -4.135663648935187E-1    2.703741557426754E-1
 1.000487792132500E+10  -4.991363560335491E-1   -1.002584558723680E-2   -1.557173416625410E-4   -6.994351704159041E-4   -1.008307066770586E-4   -7.041654021228553E-4   -4.133205428749037E-1    2.704863884585074E-1
 1.000488584850000E+10  -4.992554932501548E-1   -9.425652831905895E-3   -1.729937655612465E-4   -7.059454545440201E-4   -1.214049074215307E-4   -7.306631229611332E-4   -4.129829305139687E-1    2.711979048886952E-1
 1.000489377567500E+10  -4.993111928283428E-1   -9.000383312684292E-3   -1.640655597226153E-4   -7.093538960196486E-4   -1.199276880906827E-4   -7.063248570595603E-4   -4.126844775045699E-1    2.715880891732309E-1
 1.000490170285000E+10  -4.992491504705663E-1   -8.399546802871078E-3   -1.485881919212250E-4   -7.072812760154621E-4   -1.223319272932352E-4   -7.198344992064900E-4   -4.124625504097180E-1    2.720238435100442E-1
 1.000490963002500E+10  -4.992405332741416E-1   -7.820516382127907E-3   -1.685181127988262E-4   -6.882369732320789E-4   -1.116341028540748E-4   -7.196316467927439E-4   -4.121331609832860E-1    2.725642647818871E-1
 1.000491755720000E+10  -4.993606474152525E-1   -7.448350629930795E-3   -1.636547497785074E-4   -7.148276641112678E-4   -1.050515664172430E-4   -7.078420970604254E-4   -4.119085655648114E-1    2.729958281343843E-1
 1.000492548437500E+10  -4.992968760271044E-1   -6.901999249781534E-3   -1.477136414739668E-4   -7.023934092590037E-4   -1.069178991593557E-4   -7.055747459668634E-4   -4.116064453548346E-1    2.734578429725469E-1
 1.000493341155000E+10  -4.994723669321638E-1   -6.380343657161665E-3   -1.337117931861167E-4   -6.908125728764773E-4   -1.327207416416852E-4   -6.633986959254106E-4   -4.113338397076965E-1    2.740040697812199E-1
 1.000494133872500E+10  -4.994940933771757E-1   -5.830301196535866E-3   -1.595001748699536E-4   -6.932506241568270E-4   -9.897979285261746E-5   -6.668980097894545E-4   -4.110895144035062E-1    2.743767237925165E-1
 1.000494926590000E+10  -4.994413251242650E-1   -5.337262415790643E-3   -1.484526840086824E-4   -6.673260049579648E-4   -1.221610101719083E-4   -6.856587370471809E-4   -4.109223708296399E-1    2.749180911462202E-1
 1.000495719307500E+10  -4.995222992565602E-1   -4.951910521066117E-3   -1.575995235708488E-4   -6.886688210617346E-4   -1.274777634287753E-4   -6.769122874781405E-4   -4.104376080347633E-1    2.753963735601447E-1
 1.000496512025000E+10  -4.994327510091962E-1   -4.300929907949402E-3   -1.536672819522821E-4   -6.904501598307725E-4   -1.033054151810789E-4   -6.800237282689451E-4   -4.101592416453789E-1    2.757876718159160E-1
 1.000497304742500E+10  -4.995893084706057E-1   -3.852305085250676E-3   -1.497341773561209E-4   -6.631664622499127E-4   -1.391947280890803E-4   -6.687044875980440E-4   -4.099710993439190E-1    2.763037258937630E-1
 1.000498097460000E+10  -4.995524372762759E-1   -3.340843395552664E-3   -1.398239816091198E-4   -6.800981915934892E-4   -1.157345514504782E-4   -6.721901293540810E-4   -4.095842997485662E-1    2.767512092900552E-1
 1.000498890177500E+10  -4.995298354581873E-1   -2.856163044519917E-3   -1.671784892203875E-4   -6.735207264290075E-4   -1.007702143381491E-4   -6.616466577110435E-4   -4.093088768409355E-1    2.773332684591243E-1
 1.000499682895000E+10  -4.996889833596181E-1   -2.261572455846288E-3   -1.408725894589354E-4   -6.514820083590157E-4   -9.813166907514594E-5   -6.398150198993598E-4   -4.090305580299886E-1    2.777066748515886E-1
 1.000500475612500E+10  -4.995431893608092E-1   -1.741280864703686E-3   -1.477683761678316E-4   -6.513567255654359E-4   -1.023351607407968E-4   -6.652649794326879E-4   -4.087213669648463E-1    2.781975053825142E-1
 1.000501268330000E+10  -4.997002793156812E-1   -1.149521558558386E-3   -1.387953932670380E-4   -6.594456920553546E-4   -1.004488055735823E-4   -6.519296214457158E-4   -4.084190026863904E-1    2.787903192315400E-1
 1.000502061047500E+10  -4.996607952618413E-1   -6.150696240173763E-4   -1.583944082542941E-4   -6.580018991620811E-4   -1.039691266506841E-4   -6.411764487969378E-4   -4.082332768848399E-1    2.791642159923871E-1
 1.000502853765000E+10  -4.994829046101458E-1   -2.483902768048449E-4   -1.374020895497844E-4   -6.428074588468442E-4   -9.922386826116622E-5   -6.260427428623814E-4   -4.080495242706570E-1    2.794809743853178E-1
 1.000503646482500E+10  -4.995818269069037E-1    3.553706756156505E-4   -1.683099296349721E-4   -6.596521396342288E-4   -6.697521041391848E-5   -6.513739271026336E-4   -4.075973508326690E-1    2.800079219941324E-1
 1.000504439200000E+10  -4.996304455452611E-1    7.738534988710432E-4   -1.202115899489639E-4   -6.377716233831994E-4   -1.075354345063127E-4   -6.243479378450666E-4   -4.071722260333778E-1    2.804604333795903E-1
 1.000505231917500E+10  -4.996862368166731E-1    1.242551893168323E-3   -1.187726035422676E-4   -6.287416435356994E-4   -1.068201183887166E-4   -6.196166171186990E-4   -4.071314548974362E-1    2.809886353411613E-1
 1.000506024635000E+10  -4.996979768398870E-1    1.691829333071995E-3   -1.288695855027241E-4   -6.359827996251688E-4   -7.781427945567103E-5   -6.153724909775674E-4   -4.066124921239533E-1    2.814902210365665E-1
 1.000506817352500E+10  -4.998774119090770E-1    2.286138399143025E-3   -1.368348188090314E-4   -6.122473947600641E-4   -1.034720720643589E-4   -6.161818655519316E-4   -4.063300302069107E-1    2.819902357393514E-1
 1.000507610070000E+10  -4.998442504950750E-1    2.892639883170788E-3   -1.478698455138833E-4   -6.255724081951757E-4   -9.317266258806119E-5   -6.163904058680972E-4   -4.061207083102424E-1    2.822389797342369E-1
 1.000508402787500E+10  -4.997299003108739E-1    3.280728662392527E-3   -1.253294673738862E-4   -6.304273819422902E-4   -8.462888172993055E-5   -5.854717333288398E-4   -4.058393631675465E-1    2.829295575144730E-1
 1.000509195505000E+10  -4.997499250244870E-1    3.907340714604899E-3   -1.472822183744989E-4   -6.085515788637162E-4   -9.161289223031406E-5   -5.989068696459648E-4   -4.055855283854553E-1    2.833947253959252E-1
 1.000509988222500E+10  -4.998907803455609E-1    4.541866988460441E-3   -1.386132609969601E-4   -5.979240212083653E-4   -9.450832774969885E-5   -5.945986976810579E-4   -4.051334160620566E-1    2.838591452592404E-1
 1.000510780940000E+10  -4.998269120043802E-1    4.937220896951575E-3   -1.328919550706630E-4   -5.715967527518120E-4   -8.677234453670078E-5   -5.928404639607308E-4   -4.047315447455652E-1    2.844113573902225E-1
 1.000511573657500E+10  -4.998554376145634E-1    5.549427897406414E-3   -9.429616729406598E-5   -6.162524661130078E-4   -8.944942037724104E-5   -5.899582786325351E-4   -4.045894085843594E-1    2.848769648713613E-1
 1.000512366375000E+10  -4.998522049409674E-1    5.947917457408357E-3   -1.197380245831490E-4   -6.128827962910443E-4   -9.448295259014263E-5   -5.790880237917882E-4   -4.043309513552810E-1    2.851906180580596E-1
 1.000513159092500E+10  -4.997598438133405E-1    6.404122181543688E-3   -1.244550481656130E-4   -6.061899986450665E-4   -1.063589719484266E-4   -5.912885980565726E-4   -4.040042727309871E-1    2.857463900696788E-1
 1.000513951810000E+10  -4.998129092019348E-1    7.034843191931510E-3   -1.189946969010308E-4   -5.924988410027309E-4   -9.958238539297134E-5   -5.812826616120497E-4   -4.036684248227637E-1    2.861525111402780E-1
 1.000514744527500E+10  -4.997480271999558E-1    7.458333664232574E-3   -1.175032925973312E-4   -6.049401491429865E-4   -8.881158780744218E-5   -5.815399504065516E-4   -4.034420556660862E-1    2.867048002985593E-1
 1.000515537245000E+10  -4.997430206205090E-1    8.005731940090582E-3   -1.429788472946404E-4   -5.732575346376437E-4   -7.710045466202564E-5   -5.807639609572459E-4   -4.030268049429210E-1    2.871473806685778E-1
 1.000516329962500E+10  -4.997849338545594E-1    8.613952674751851E-3   -1.050026335762264E-4   -5.790086678898402E-4   -6.649621183038979E-5   -5.737434420023499E-4   -4.027302531149891E-1    2.876358105881275E-1
 1.000517122680000E+10  -4.998783048850302E-1    9.057570560210280E-3   -8.824053889937636E-5   -5.523365634033977E-4   -6.250602774217016E-5   -5.686364608138726E-4   -4.024187716871311E-1    2.879843844619135E-1
 1.000517915397500E+10  -4.998671622532255E-1    9.610443744465574E-3   -1.078907548419281E-4   -5.443941016413829E-4   -9.364570702922839E-5   -5.220359437985284E-4   -4.020671883992782E-1    2.884750577225651E-1
 1.000518708115000E+10  -5.000486675933318E-1    1.001236460888843E-2   -8.789572273194863E-5   -5.340616767289365E-4   -8.316914403629998E-5   -5.298685574150433E-4   -4.018274578823450E-1    2.890381190804873E-1
 1.000519500832500E+10  -4.999604795750025E-1    1.071633841819551E-2   -7.840380654155564E-5   -5.585779898183145E-4   -7.290272038921310E-5   -5.575662877006910E-4   -4.015076699823584E-1    2.896060558807944E-1
 1.000520293550000E+10  -4.999356942676116E-1    1.106490535187065E-2   -8.901890451184255E-5   -5.545758594663009E-4   -7.122117635448616E-5   -4.984515129827316E-4   -4.011718255598963E-1    2.899132356724565E-1
 1.000521086267500E+10  -4.998426110105532E-1    1.171206590549917E-2   -9.051176220698981E-5   -5.295553235664975E-4   -6.065000877813942E-5   -5.225378221605222E-4   -4.008580868002052E-1    2.905168882216980E-1
 1.000521878985000E+10  -4.997949162809150E-1    1.217329509471292E-2   -1.094822334889146E-4   -5.030445000907236E-4   -5.189652133606537E-5   -5.169607164426247E-4   -4.005241470032088E-1    2.908643725703797E-1
 1.000522671702500E+10  -5.000328752827012E-1    1.268634369835431E-2   -8.455660680886101E-5   -5.422407411758813E-4   -4.590625078424558E-5   -5.076463778318262E-4   -4.002347090089676E-1    2.914189522329641E-1
 1.000523464420000E+10  -4.999233138452243E-1    1.323865913738073E-2   -7.498625399588586E-5   -5.161970698644593E-4   -4.983722747330999E-5   -5.035827077579935E-4   -3.999590989100951E-1    2.919002138940187E-1
 1.000524257137500E+10  -4.998841381419548E-1    1.364750536483775E-2   -6.894905292978113E-5   -5.062809622704569E-4   -3.553374425556087E-5   -4.687971987406295E-4   -3.995420172900812E-1    2.924024326773852E-1
 1.000525049855000E+10  -4.998839981973105E-1    1.425463441743325E-2   -6.381794129155978E-5   -4.839455517913828E-4   -4.903410263720478E-5   -5.154974821410726E-4   -3.992410242116422E-1    2.928495595790667E-1
 1.000525842572500E+10  -4.999645565866372E-1    1.477288213479401E-2   -6.390475935322069E-5   -5.054990850060936E-4   -4.273548162465775E-5   -4.824836328218642E-4   -3.988941193221976E-1    2.932656981812249E-1
 1.000526635290000E+10  -5.000142316089349E-1    1.528005803738245E-2   -9.967475369875654E-5   -4.791993652044943E-4   -5.941323402915360E-5   -4.849490465782176E-4   -3.984461718246157E-1    2.937508029600492E-1
 1.000527428007500E+10  -4.999957087350274E-1    1.569541613127896E-2   -7.860632516874153E-5   -4.844407625585447E-4   -5.035398114275944E-5   -4.855573377006726E-4   -3.981703935626525E-1    2.942197708187931E-1
 1.000528220725000E+10  -5.000382785010643E-1    1.630596541930604E-2   -4.827318486376246E-5   -4.966969777105485E-4   -1.970790279628867E-5   -4.809659556481605E-4   -3.978726513856109E-1    2.946663191736681E-1
 1.000529013442500E+10  -5.000150935386938E-1    1.680587336725122E-2   -8.112282402072889E-5   -4.745545363830573E-4   -3.817128525905700E-5   -4.556399230549297E-4   -3.975093742136753E-1    2.952758129515345E-1
 1.000529806160000E+10  -4.998992083576007E-1    1.728653536313247E-2   -4.740413508521302E-5   -4.480381820308308E-4   -3.964099770183937E-5   -4.601065628506200E-4   -3.971177754566626E-1    2.957160377229272E-1
 1.000530598877500E+10  -4.998932678148502E-1    1.776303934591405E-2   -5.708600751326855E-5   -4.777574043673409E-4   -1.592027877445357E-5   -4.780384110315017E-4   -3.969969493530325E-1    2.962320983676440E-1
 1.000531391595000E+10  -4.999161112756247E-1    1.836194566780359E-2   -4.412096651096329E-5   -4.752660520319560E-4   -3.859716950163417E-5   -4.700232370631204E-4   -3.965410994855685E-1    2.966045127656221E-1
 1.000532184312500E+10  -4.999219014315107E-1    1.880571674652366E-2   -1.277442529061762E-5   -4.282216669040145E-4   -1.705392057931805E-5   -4.664909807440027E-4   -3.962783251720708E-1    2.971275849312450E-1
 1.000532977030000E+10  -4.999282459657476E-1    1.923531587335753E-2   -4.219964798682778E-5   -4.285431686344966E-4   -1.373711887204739E-5   -4.295171257743198E-4   -3.959311644744188E-1    2.975552119225185E-1
 1.000533769747500E+10  -4.998387099316804E-1    1.987698589744528E-2   -3.380271287642013E-5   -4.331584714636937E-4   -3.317815971316865E-5   -4.347284375710913E-4   -3.955453644943388E-1    2.980562967054153E-1
 1.000534562465000E+10  -4.998652452553183E-1    2.040366093786672E-2   -4.514856894450117E-5   -4.160736388854151E-4   -4.524126879236457E-6   -4.134425065461871E-4   -3.952279394744004E-1    2.984636100729260E-1
 1.000535355182500E+10  -4.999034532857732E-1    2.078276312671299E-2   -2.578707116992289E-5   -4.101102143619193E-4   -1.246890938223903E-5   -4.036039849708437E-4   -3.947253531610153E-1    2.989304466974519E-1
 1.000536147900000E+10  -4.997920066731478E-1    2.131535525433872E-2   -1.729926389217130E-5   -4.139832169250354E-4    5.695061424138395E-6   -3.842880632993732E-4   -3.944100311962467E-1    2.994805783531109E-1
 1.000536940617500E+10  -4.998067322882566E-1    2.189373453882631E-2   -3.007602687146388E-5   -4.080645817587969E-4   -7.406757979955563E-6   -3.875348656428654E-4   -3.941013487236760E-1    3.000362863036760E-1
 1.000537733335000E+10  -4.999410498386015E-1    2.247016923985637E-2   -1.844010430793320E-5   -3.877294908821081E-4    1.684659954483844E-5   -3.999451575449288E-4   -3.939339006692140E-1    3.003769931933745E-1
 1.000538526052500E+10  -4.997974499145869E-1    2.300630731759702E-2   -1.875790646194308E-5   -3.944208074351415E-4   -1.772887447084151E-5   -3.781656206647505E-4   -3.934939798710399E-1    3.009001948811683E-1
 1.000539318770000E+10  -4.998731575942136E-1    2.345387141956896E-2   -1.329955080496111E-7   -3.674745898559195E-4   -8.886151304652612E-7   -3.781021373857962E-4   -3.929053256055063E-1    3.013329096060797E-1
 1.000540111487500E+10  -4.999131738805623E-1    2.397818867044502E-2    2.213422578827710E-5   -3.885605004986435E-4    1.789317545857330E-5   -3.570111024112433E-4   -3.926979415557637E-1    3.018788995794331E-1
 1.000540904205000E+10  -4.997829723742468E-1    2.443086854452272E-2    3.406421609618891E-5   -3.480348099042222E-4    2.135934440203865E-5   -3.733570294146249E-4   -3.924401988243911E-1    3.023631234669223E-1
 1.000541696922500E+10  -4.999174523000963E-1    2.492985984773609E-2    1.262134737406107E-5   -3.654458922574167E-4    1.675897580732500E-5   -3.499090040470144E-4   -3.919463771038609E-1    3.027503095887379E-1
 1.000542489640000E+10  -4.998217710615585E-1    2.551549394398503E-2    3.851101032556479E-6   -3.372053143328119E-4    4.653187907844079E-5   -3.105649743506192E-4   -3.915211196496081E-1    3.033121886203212E-1
 1.000543282357500E+10  -4.998463348007519E-1    2.597967378071698E-2    4.872557490727666E-5   -3.200544821878974E-4    3.951503835947236E-5   -3.413230811765722E-4   -3.911627686890183E-1    3.038940049267876E-1
 1.000544075075000E+10  -4.998241377890257E-1    2.646189991406787E-2    7.312182385633028E-5   -3.155807046855680E-4    1.328098088216656E-5   -3.320096697130481E-4   -3.907769846165320E-1    3.042984466452732E-1
