#  HZ   S   RI   R     50.00 
! Rohde & Schwarz Vector Network Analyzer 
! Rohde-Schwarz,ZNB20-2Port,1311601062101988,3.16
! Created: UTC 3/20/2024, 11:51:06 AM
! freq[Hz]                re:S11                  im:S11                  re:S21                  im:S21                  re:S12                  im:S12                  re:S22                  im:S22
 1.000470659000000E+10  -4.985052837849610E-1   -2.121991927495022E-2   -1.873019479591079E-4   -7.615672897654067E-4   -1.488537252578658E-4   -8.187842848606364E-4   -4.190390690792070E-1    2.604012131721649E-1
 1.000471460172500E+10  -4.986761638871979E-1   -2.059236933540569E-2   -1.886301230137359E-4   -7.683352491940231E-4   -1.428739582966929E-4   -7.909836105596769E-4   -4.188687216239412E-1    2.609374911384494E-1
 1.000472261345000E+10  -4.988317127578277E-1   -2.005354851608059E-2   -1.952064576802209E-4   -7.883963260233326E-4   -1.451693590435441E-4   -7.798467768073352E-4   -4.185707093153637E-1    2.614421403812361E-1
 1.000473062517500E+10  -4.986755932256268E-1   -1.956054717998387E-2   -1.822807752329329E-4   -7.837142192940775E-4   -1.668027587597347E-4   -7.847488263377170E-4   -4.182525871867029E-1    2.619410274560314E-1
 1.000473863690000E+10  -4.987562925791676E-1   -1.907668634292415E-2   -1.903220799120191E-4   -7.815092319850395E-4   -1.160906817688132E-4   -7.689596541285934E-4   -4.179709070178514E-1    2.623301722525576E-1
 1.000474664862500E+10  -4.988792658895604E-1   -1.855292863058863E-2   -1.639319630352466E-4   -7.819574533199463E-4   -1.392031104859132E-4   -7.732653520372433E-4   -4.177128397671279E-1    2.630042755520104E-1
 1.000475466035000E+10  -4.989286647034360E-1   -1.797148575544890E-2   -1.759923540751240E-4   -7.660188810569114E-4   -1.384493633348145E-4   -7.636121412639994E-4   -4.176072097232771E-1    2.633254205771109E-1
 1.000476267207500E+10  -4.988565031011320E-1   -1.760057021611193E-2   -1.935167544459743E-4   -7.528883595786508E-4   -1.247399708416753E-4   -7.642082177705691E-4   -4.171487981173410E-1    2.640478659532907E-1
 1.000477068380000E+10  -4.988828020651229E-1   -1.690058626870367E-2   -1.653269905657307E-4   -7.431691810598888E-4   -1.278400712142993E-4   -7.825168207767906E-4   -4.170136847736265E-1    2.642904274691809E-1
 1.000477869552500E+10  -4.990527049515815E-1   -1.647422365510735E-2   -1.663782150616150E-4   -7.506832225904313E-4   -1.407668161042872E-4   -7.810380361161631E-4   -4.166219882417822E-1    2.648274046995073E-1
 1.000478670725000E+10  -4.988917015730613E-1   -1.587749237711979E-2   -1.688388315403133E-4   -7.048927189681996E-4   -1.390575385299414E-4   -7.452673664037046E-4   -4.164085798251131E-1    2.653653655905019E-1
 1.000479471897500E+10  -4.988744356888450E-1   -1.526449950062898E-2   -1.795458469657170E-4   -7.653414065795729E-4   -1.481017277022043E-4   -7.638604054045014E-4   -4.161341890698176E-1    2.656208014155033E-1
 1.000480273070000E+10  -4.989658446070854E-1   -1.481772020915559E-2   -1.521469636505078E-4   -7.291043505376671E-4   -1.166721496754490E-4   -7.229439970805438E-4   -4.157913454678104E-1    2.661018503613588E-1
 1.000481074242500E+10  -4.990077650437975E-1   -1.429575179144700E-2   -1.554833595422591E-4   -7.541107543954386E-4   -1.106012882030085E-4   -7.811921106527265E-4   -4.155266422813574E-1    2.666351682467665E-1
 1.000481875415000E+10  -4.991244072791425E-1   -1.380002561570026E-2   -1.911408249159075E-4   -7.477505285376705E-4   -1.135902612253679E-4   -7.585541472444335E-4   -4.154437890683374E-1    2.670640411374710E-1
 1.000482676587500E+10  -4.991070406247550E-1   -1.336198195373188E-2   -1.732685434244841E-4   -7.299208917738650E-4   -1.404741159357040E-4   -7.167140179315895E-4   -4.149367434200641E-1    2.675461949060577E-1
 1.000483477760000E+10  -4.991498259111741E-1   -1.284104335446627E-2   -1.683770769677341E-4   -7.283128842311001E-4   -1.303996456168342E-4   -7.142658879802587E-4   -4.148562787813063E-1    2.681649196075688E-1
 1.000484278932500E+10  -4.992753411304514E-1   -1.223437202905436E-2   -1.686456659013922E-4   -7.363678461341048E-4   -1.360011447314381E-4   -7.385324606026073E-4   -4.145057293367748E-1    2.685412954493164E-1
 1.000485080105000E+10  -4.992988601892978E-1   -1.179140642391547E-2   -1.765194574091758E-4   -7.332704329612037E-4   -1.132925849704416E-4   -7.135050061022177E-4   -4.142348996415343E-1    2.691518548866627E-1
 1.000485881277500E+10  -4.992441154477570E-1   -1.127546619312991E-2   -1.547961330884597E-4   -7.238802741325338E-4   -1.210227073988936E-4   -7.132727751527342E-4   -4.139353323816919E-1    2.695564010340913E-1
 1.000486682450000E+10  -4.993156281144783E-1   -1.072557243713139E-2   -1.862851058742716E-4   -7.093479425559990E-4   -1.275271993336665E-4   -7.111289567464735E-4   -4.137479693269859E-1    2.699759824696681E-1
 1.000487483622500E+10  -4.992647278485846E-1   -1.031162188028622E-2   -1.394496779412386E-4   -7.426494508830069E-4   -1.376919012537019E-4   -7.204024206182132E-4   -4.134317881002271E-1    2.704876312714787E-1
 1.000488284795000E+10  -4.992485816133539E-1   -9.731507598177801E-3   -1.607279376706829E-4   -6.967816135022189E-4   -1.521649927074057E-4   -7.049336330259545E-4   -4.131782239753853E-1    2.709531995077189E-1
 1.000489085967500E+10  -4.993446895777409E-1   -9.169599661126895E-3   -1.426964964988634E-4   -7.125385561398954E-4   -1.163073191003398E-4   -7.397581534246814E-4   -4.128373894403318E-1    2.715071378250324E-1
 1.000489887140000E+10  -4.993872374935936E-1   -8.582293879769574E-3   -1.527184789563031E-4   -7.426966283458026E-4   -1.210375265760927E-4   -7.113404115866201E-4   -4.125042373217922E-1    2.719319046256283E-1
 1.000490688312500E+10  -4.994427457937929E-1   -8.169290482924767E-3   -1.483597417966254E-4   -7.200228547775469E-4   -1.147682203219466E-4   -6.977881176637636E-4   -4.122161328766318E-1    2.724006248737544E-1
 1.000491489485000E+10  -4.993063148550678E-1   -7.538466225082014E-3   -1.513219453777836E-4   -7.053536665774025E-4   -1.338819020785938E-4   -7.349724861742733E-4   -4.120396386503741E-1    2.729249016200048E-1
 1.000492290657500E+10  -4.995142782748997E-1   -6.998820540741011E-3   -1.460216355845659E-4   -6.841113067021051E-4   -1.033548512813821E-4   -7.405199806204785E-4   -4.116852229898285E-1    2.733971670743994E-1
 1.000493091830000E+10  -4.994153475551214E-1   -6.536256273350863E-3   -1.458006638816227E-4   -7.099764354669896E-4   -1.242343680694083E-4   -6.937387611825523E-4   -4.114333416064104E-1    2.738769189475809E-1
 1.000493893002500E+10  -4.995134376069166E-1   -6.003451163311096E-3   -1.625929676038239E-4   -7.042989446850015E-4   -1.061750350364310E-4   -6.805812311619989E-4   -4.111354860215869E-1    2.743110545745037E-1
 1.000494694175000E+10  -4.995750966313580E-1   -5.599621761967107E-3   -1.549591391657594E-4   -6.979663055992710E-4   -1.298535028703083E-4   -6.737268181066125E-4   -4.108372350314442E-1    2.747388918623451E-1
 1.000495495347500E+10  -4.994847625029660E-1   -4.986948660099205E-3   -1.236535027105988E-4   -6.890436331602618E-4   -1.053610186214011E-4   -6.739981587468504E-4   -4.105148745352654E-1    2.751894192252872E-1
 1.000496296520000E+10  -4.993930296398851E-1   -4.458300370897551E-3   -1.558604870519307E-4   -7.002977540690818E-4   -1.291041252948780E-4   -7.046691412742971E-4   -4.102565305106028E-1    2.756578419450264E-1
 1.000497097692500E+10  -4.994779092245402E-1   -3.891926004232906E-3   -1.464884458223875E-4   -6.895356306447609E-4   -1.333924472175577E-4   -7.184105146244807E-4   -4.100275174833665E-1    2.762277035021195E-1
 1.000497898865000E+10  -4.995476860573158E-1   -3.517247568943270E-3   -1.424339867481442E-4   -6.539416119800873E-4   -1.091745710177488E-4   -6.605105721145290E-4   -4.096487478642977E-1    2.765572119854557E-1
 1.000498700037500E+10  -4.995762307691223E-1   -3.000266532436193E-3   -1.513717004385415E-4   -6.907782923829713E-4   -1.344128864371530E-4   -6.729593499241296E-4   -4.093716182095085E-1    2.772341075022516E-1
 1.000499501210000E+10  -4.996569929065666E-1   -2.371533800485922E-3   -1.319797404920048E-4   -6.437141679152645E-4   -1.148287808525571E-4   -6.702012189344415E-4   -4.090384450662617E-1    2.774979965016712E-1
 1.000500302382500E+10  -4.996370150816311E-1   -1.846290412849314E-3   -1.450748780290492E-4   -6.730760375748007E-4   -1.248255094231683E-4   -6.828268372160381E-4   -4.087784436150865E-1    2.781273364169852E-1
 1.000501103555000E+10  -4.996384180884254E-1   -1.207162783090052E-3   -1.390503693585283E-4   -6.441527917069641E-4   -9.620245956327057E-5   -6.427734612050032E-4   -4.084754988346041E-1    2.786516472141785E-1
 1.000501904727500E+10  -4.997398579632618E-1   -7.758501257581765E-4   -1.626867655243155E-4   -6.642645051823368E-4   -1.316119422481071E-4   -6.415658742422390E-4   -4.083128190554149E-1    2.791367971215541E-1
 1.000502705900000E+10  -4.995171767482000E-1   -2.950736395345560E-4   -1.462198020748361E-4   -6.326229612351284E-4   -1.384276832231079E-4   -6.632375096772398E-4   -4.078772357362468E-1    2.795788149077127E-1
 1.000503507072500E+10  -4.997003858536172E-1    2.256321407512476E-4   -1.588041604133178E-4   -6.534651811661684E-4   -7.451284119858870E-5   -6.461257550102104E-4   -4.076662376718426E-1    2.800623128293585E-1
 1.000504308245000E+10  -4.996816164017777E-1    6.841368551646092E-4   -1.084755929750178E-4   -6.438521675662558E-4   -9.942600183353836E-5   -6.674265970695291E-4   -4.073370501134494E-1    2.803423455578785E-1
 1.000505109417500E+10  -4.998533197784411E-1    1.301805840890282E-3   -1.209115981142154E-4   -6.213876057421467E-4   -6.410518044360636E-5   -6.335472941745876E-4   -4.070361535890921E-1    2.809936433085092E-1
 1.000505910590000E+10  -4.996569870262250E-1    1.737164338417464E-3   -1.488027489253258E-4   -6.241926990313898E-4   -1.034087671891668E-4   -6.380172297347525E-4   -4.066174513848641E-1    2.813639020339720E-1
 1.000506711762500E+10  -4.997314891933755E-1    2.152751204320542E-3   -1.087318045386573E-4   -6.395372468903565E-4   -7.795623574655605E-5   -6.145922817885142E-4   -4.065046105788354E-1    2.819601327117893E-1
 1.000507512935000E+10  -4.996744612373272E-1    2.765865611595250E-3   -1.160092052519426E-4   -6.165292842151612E-4   -8.514496141006107E-5   -5.953152368632256E-4   -4.061487121321141E-1    2.823894455153471E-1
 1.000508314107500E+10  -4.998442328088382E-1    3.246541910726216E-3   -1.314162219390149E-4   -6.032903522446014E-4   -9.788434955097523E-5   -6.140064158298162E-4   -4.058962282345399E-1    2.828465908651008E-1
 1.000509115280000E+10  -4.998554913596949E-1    3.954727747339720E-3   -1.275798929558347E-4   -5.860728747185664E-4   -8.075517527536609E-5   -5.906046808180407E-4   -4.054287235162733E-1    2.833269205842721E-1
 1.000509916452500E+10  -4.999062367848096E-1    4.374737093414121E-3   -1.163324962323340E-4   -5.875402604466652E-4   -1.093924198592699E-4   -5.984624790951371E-4   -4.052384189245029E-1    2.837679339924265E-1
 1.000510717625000E+10  -4.998294863996312E-1    4.891590588678591E-3   -1.316477607671914E-4   -6.130900836005325E-4   -8.307818304406692E-5   -5.981853645668805E-4   -4.048756519299137E-1    2.843418289677394E-1
 1.000511518797500E+10  -4.997799257437635E-1    5.465805650118590E-3   -9.540118217552109E-5   -5.898726813112962E-4   -7.385247667887810E-5   -5.715995142333665E-4   -4.046137070304336E-1    2.847846940529339E-1
 1.000512319970000E+10  -4.998054310079258E-1    5.900088881454068E-3   -1.354250933773975E-4   -5.978395262741203E-4   -9.382389214619141E-5   -5.761311248226283E-4   -4.042842326780200E-1    2.852892674055191E-1
 1.000513121142500E+10  -4.999194879613686E-1    6.319186793800610E-3   -9.925995035704552E-5   -5.744577349028057E-4   -1.016847462213995E-4   -5.857414066592835E-4   -4.039970326233524E-1    2.858434541493792E-1
 1.000513922315000E+10  -4.999300661502699E-1    7.040089459481745E-3   -1.033147717963436E-4   -5.738582322843527E-4   -1.068163777531144E-4   -5.673304288348623E-4   -4.036208410840211E-1    2.862567447669517E-1
 1.000514723487500E+10  -4.998365581684371E-1    7.403452095020669E-3   -1.034503174720913E-4   -5.887711615391052E-4   -8.390489695210072E-5   -5.893572280175534E-4   -4.033812139534816E-1    2.866651902541300E-1
 1.000515524660000E+10  -4.997980232826312E-1    7.984273823942125E-3   -9.419861742929775E-5   -5.807576072669459E-4   -7.542824290588037E-5   -5.893142328896505E-4   -4.030182350959423E-1    2.872128806011402E-1
 1.000516325832500E+10  -4.999419171498027E-1    8.561438537791814E-3   -1.074244515655566E-4   -5.511495815744484E-4   -9.324964568232725E-5   -5.781553829637290E-4   -4.025793551227826E-1    2.875005030321642E-1
 1.000517127005000E+10  -4.999799377950517E-1    9.040933063195951E-3   -9.730276614817649E-5   -5.735398544071828E-4   -8.319188259768965E-5   -5.410492703575560E-4   -4.024220503900710E-1    2.881576598480883E-1
 1.000517928177500E+10  -4.998842129519773E-1    9.583360174215341E-3   -9.008869110945429E-5   -5.758476091907504E-4   -6.123505523090371E-5   -5.614823572750053E-4   -4.020149119620102E-1    2.886145373384493E-1
 1.000518729350000E+10  -4.998788341911318E-1    1.013074153794887E-2   -8.781901659775512E-5   -5.433545680057125E-4   -6.027437627916181E-5   -5.215816803034061E-4   -4.018983798041298E-1    2.891217440447437E-1
 1.000519530522500E+10  -4.998134784128671E-1    1.046586534367397E-2   -8.810608568632282E-5   -5.165445355907839E-4   -4.685896121320382E-5   -5.676792085192087E-4   -4.014491934289717E-1    2.895226767835191E-1
 1.000520331695000E+10  -5.000115030501374E-1    1.115490237913991E-2   -7.925617316067592E-5   -5.364973872184010E-4   -5.962766222648195E-5   -5.300441362571437E-4   -4.010286217183093E-1    2.900410161222391E-1
 1.000521132867500E+10  -4.998751668191555E-1    1.168545683040307E-2   -8.171449854764774E-5   -5.196390316343604E-4   -6.297117495462164E-5   -5.119128340043090E-4   -4.009374558540343E-1    2.905530107529682E-1
 1.000521934040000E+10  -4.999991707373152E-1    1.216195520218607E-2   -6.752453640480411E-5   -5.360283084415125E-4   -4.404593370337512E-5   -5.079235018324912E-4   -4.005036882234710E-1    2.909817393074168E-1
 1.000522735212500E+10  -4.999178574540091E-1    1.257216168488725E-2   -9.070399707126472E-5   -5.191447972834439E-4   -8.596262436810244E-5   -5.269056100873679E-4   -4.000634000537889E-1    2.915291890176143E-1
 1.000523536385000E+10  -4.998820797846886E-1    1.324035055529153E-2   -9.781062342563874E-5   -4.886931061104019E-4   -4.048432254057216E-5   -5.175059303157843E-4   -3.998345479061339E-1    2.919967531925307E-1
 1.000524337557500E+10  -4.999860636516532E-1    1.384922167598171E-2   -7.303541394558490E-5   -4.957665802239002E-4   -7.229779741686917E-5   -4.877778169883052E-4   -3.995458586006165E-1    2.924552126415437E-1
 1.000525138730000E+10  -4.998803892968696E-1    1.422000433018917E-2   -6.569040483982342E-5   -4.865882074992721E-4   -4.336562212272893E-5   -4.958728048496663E-4   -3.991859319391134E-1    2.929166127367826E-1
 1.000525939902500E+10  -5.000814206978591E-1    1.489512670049910E-2   -5.629450492736178E-5   -4.904064190469478E-4   -5.606217311342146E-5   -4.970953320918594E-4   -3.987563002685318E-1    2.934725701180824E-1
 1.000526741075000E+10  -4.999857778262999E-1    1.531591743970887E-2   -8.481400043551937E-5   -4.959667869162655E-4   -4.522871356765280E-5   -4.894336421666492E-4   -3.985338911694641E-1    2.940754156648673E-1
 1.000527542247500E+10  -4.999981676337826E-1    1.586990178421987E-2   -5.394039264333006E-5   -4.782272650238521E-4   -4.141204816722930E-5   -4.703918284696879E-4   -3.981789508354134E-1    2.942493049970434E-1
 1.000528343420000E+10  -4.999694805471842E-1    1.634148171612704E-2   -3.402873026197279E-5   -4.777049357025902E-4   -2.787993030772396E-5   -4.518980195293124E-4   -3.977537228281220E-1    2.948590401151269E-1
 1.000529144592500E+10  -4.999870737039913E-1    1.677752703246152E-2   -6.550348575187777E-5   -4.777234204136331E-4   -1.333674244121028E-5   -4.777057326881479E-4   -3.975504326462679E-1    2.953231681128148E-1
 1.000529945765000E+10  -5.000020516360973E-1    1.726649627994831E-2   -4.117007656097451E-5   -4.699768275359704E-4   -4.422756539606740E-5   -4.503452715494656E-4   -3.971581774803303E-1    2.957991230553697E-1
 1.000530746937500E+10  -4.998598225706792E-1    1.795168515811111E-2   -5.704981455701904E-5   -4.693695506454038E-4   -3.611797897570581E-5   -4.355146452548471E-4   -3.967187566635584E-1    2.963048962014799E-1
 1.000531548110000E+10  -5.000471758689167E-1    1.829062953396222E-2   -1.660030106651356E-5   -4.496766857917681E-4   -2.358842560710654E-5   -4.457228915793220E-4   -3.964680337517745E-1    2.965859176941381E-1
 1.000532349282500E+10  -4.998625501751583E-1    1.902334102618818E-2   -4.292872068772829E-6   -4.411421803037359E-4   -1.293354028121206E-5   -4.370307303412113E-4   -3.961078204571343E-1    2.972625885340762E-1
 1.000533150455000E+10  -4.998135693525615E-1    1.936526587891522E-2   -2.330445257910157E-5   -4.393096916862865E-4   -1.094649617473465E-6   -4.344354941745683E-4   -3.956662552235128E-1    2.977781480452880E-1
 1.000533951627500E+10  -4.998936919585341E-1    1.988483594203896E-2   -3.607477472787190E-6   -4.196105423788848E-4   -5.185924171104389E-6   -4.178347364987315E-4   -3.954048651005193E-1    2.982029786405270E-1
 1.000534752800000E+10  -4.999843268615990E-1    2.054917770965464E-2   -1.529337275832455E-5   -4.237611179355234E-4   -4.191833431691184E-7   -4.043026877388847E-4   -3.949980507487829E-1    2.985624032939840E-1
 1.000535553972500E+10  -4.998323296421029E-1    2.112754877584959E-2   -5.735295770687801E-6   -4.056165854143850E-4   -1.221510692530051E-5   -3.822508327804061E-4   -3.947330846300712E-1    2.991636664856843E-1
 1.000536355145000E+10  -4.998456350269196E-1    2.157681986225281E-2   -2.815605695820618E-5   -3.856178513243917E-4   -1.146462178413539E-5   -4.145146601985732E-4   -3.943213345259161E-1    2.997507753854903E-1
 1.000537156317500E+10  -4.998443968355887E-1    2.208038789378458E-2   -5.575986303287480E-6   -3.930621760394788E-4    1.784477290281240E-5   -3.841245271268628E-4   -3.941415375439440E-1    3.002938294642912E-1
 1.000537957490000E+10  -4.998465184428720E-1    2.258777623467792E-2   -5.704465867248174E-7   -3.918181808651047E-4    2.797763586057958E-5   -3.705774149044378E-4   -3.937553815242052E-1    3.005280834252169E-1
 1.000538758662500E+10  -4.997589912772626E-1    2.307261876993080E-2    7.906178615469734E-6   -4.217136357822293E-4    1.435617981873558E-5   -3.564039555046945E-4   -3.934074249289486E-1    3.010361719578337E-1
 1.000539559835000E+10  -4.997697855774738E-1    2.348063320770676E-2    3.806018559877542E-6   -3.421814320452955E-4    1.016205070412291E-5   -3.569864753644658E-4   -3.928389772825631E-1    3.014719109709890E-1
 1.000540361007500E+10  -5.000273512161383E-1    2.419200947060602E-2    3.460537987951006E-5   -3.628742599663367E-4    2.223944766390802E-5   -3.829178461986210E-4   -3.925216294440093E-1    3.019581338231344E-1
 1.000541162180000E+10  -4.997992942689197E-1    2.465357897596680E-2    2.923561650476424E-5   -3.386241978251329E-4    6.364921730083161E-6   -3.637036521997532E-4   -3.921819777010158E-1    3.026849919415074E-1
 1.000541963352500E+10  -4.998108508393828E-1    2.528830830110757E-2    4.158190931861176E-5   -3.544062266432486E-4    5.682904000897666E-5   -3.483376204009863E-4   -3.918876810512250E-1    3.031269317968497E-1
 1.000542764525000E+10  -4.997847140135037E-1    2.576103957320793E-2   -3.372087407824005E-6   -3.309410443548173E-4    1.254203818410151E-5   -3.249207648012347E-4   -3.913887189163453E-1    3.035582560833032E-1
