#  HZ   S   RI   R     50.00 
! Rohde & Schwarz Vector Network Analyzer 
! Rohde-Schwarz,ZNB20-2Port,1311601062101988,3.16
! Created: UTC 3/20/2024, 11:52:01 AM
! freq[Hz]                re:S11                  im:S11                  re:S21                  im:S21                  re:S12                  im:S12                  re:S22                  im:S22
 1.000473268000000E+10  -4.987590361805599E-1   -1.956480386636162E-2   -1.759899251994909E-4   -7.927579951420692E-4   -1.605132480942324E-4   -7.942081962960154E-4   -4.185422471569778E-1    2.618407402128225E-1
 1.000474075215000E+10  -4.987538117225920E-1   -1.883529057186792E-2   -1.729950399646391E-4   -8.003871113926768E-4   -1.428301936074972E-4   -7.866756720031710E-4   -4.181758320911406E-1    2.622621856614890E-1
 1.000474882430000E+10  -4.987746157050204E-1   -1.846518106985896E-2   -1.898290444448635E-4   -7.633762256449111E-4   -1.394750254645655E-4   -7.855761298849869E-4   -4.177826109851506E-1    2.628661105240516E-1
 1.000475689645000E+10  -4.988433555545179E-1   -1.791593239025567E-2   -1.543205346784353E-4   -7.707225435763526E-4   -1.254252117143226E-4   -7.658146620403386E-4   -4.176365631158465E-1    2.633483787808976E-1
 1.000476496860000E+10  -4.987866523216760E-1   -1.745627792552375E-2   -2.045778986067830E-4   -8.094350772965237E-4   -1.394705564422557E-4   -7.671168647701174E-4   -4.173635089886273E-1    2.637853484887009E-1
 1.000477304075000E+10  -4.990533307944772E-1   -1.698062235995019E-2   -2.174193097091923E-4   -7.864934268859383E-4   -1.334056055216629E-4   -7.801955177501948E-4   -4.169758997432572E-1    2.643295599571553E-1
 1.000478111290000E+10  -4.989235800323936E-1   -1.639849140394124E-2   -1.828126309919634E-4   -7.788162651137328E-4   -1.512105696369738E-4   -7.743772668019620E-4   -4.168586252873845E-1    2.647827122258080E-1
 1.000478918505000E+10  -4.989388796213407E-1   -1.583538816840291E-2   -1.752916079582481E-4   -7.679064535953627E-4   -1.600848023363235E-4   -7.751926566565059E-4   -4.164033617450235E-1    2.652681707511299E-1
 1.000479725720000E+10  -4.990003993856854E-1   -1.517050995940856E-2   -1.990186811053094E-4   -7.720195246908606E-4   -1.700295333000623E-4   -7.888159685845463E-4   -4.161936276144819E-1    2.657168243551442E-1
 1.000480532935000E+10  -4.990642790496184E-1   -1.488424741787774E-2   -1.874495472618691E-4   -7.532567144846108E-4   -1.335168952135196E-4   -7.823450925361526E-4   -4.158261728106841E-1    2.661046276068085E-1
 1.000481340150000E+10  -4.990616624879785E-1   -1.435534305212191E-2   -1.567507776577223E-4   -7.403313674784330E-4   -1.442219487739584E-4   -7.450134468878128E-4   -4.156418506560055E-1    2.666016870179822E-1
 1.000482147365000E+10  -4.991387155807222E-1   -1.375773566179537E-2   -1.773138044393167E-4   -7.777705583175697E-4   -1.351876579590745E-4   -7.445165218568042E-4   -4.152976037891923E-1    2.672275887301745E-1
 1.000482954580000E+10  -4.990430085140014E-1   -1.332820829384416E-2   -1.741546630279951E-4   -7.606951996336909E-4   -1.414436031396527E-4   -7.554271632437185E-4   -4.150525154729542E-1    2.675959339764702E-1
 1.000483761795000E+10  -4.990840024237626E-1   -1.268500261067667E-2   -1.622162143593236E-4   -7.538737903321857E-4   -1.488167245208259E-4   -7.372891848108805E-4   -4.149293023779333E-1    2.680826686596918E-1
 1.000484569010000E+10  -4.991719606514159E-1   -1.215566802115201E-2   -1.813140259542070E-4   -7.555468558965171E-4   -1.441596277453464E-4   -7.444400968520849E-4   -4.146731183164966E-1    2.685342651561214E-1
 1.000485376225000E+10  -4.991663274785285E-1   -1.162402384841811E-2   -1.783765352526153E-4   -7.456279570942671E-4   -1.488861607607262E-4   -7.356870655670603E-4   -4.142771133336186E-1    2.691721635225270E-1
 1.000486183440000E+10  -4.992636712303375E-1   -1.103643464563908E-2   -1.557399914609032E-4   -7.519434479719963E-4   -1.641442505789006E-4   -7.469209336178346E-4   -4.140568801736065E-1    2.694520577230243E-1
 1.000486990655000E+10  -4.992621938591404E-1   -1.055865907401189E-2   -1.723401885687883E-4   -7.508606805309276E-4   -1.501175140992910E-4   -7.174506793331029E-4   -4.138045087562720E-1    2.699468644227677E-1
 1.000487797870000E+10  -4.993524642059458E-1   -1.009304248002389E-2   -1.397350106078509E-4   -7.687009569865605E-4   -1.027369673465168E-4   -7.196835929504674E-4   -4.134712756195472E-1    2.703774923345120E-1
 1.000488605085000E+10  -4.993348154288833E-1   -9.641680673505924E-3   -1.522027241563052E-4   -7.390922417007958E-4   -1.264268266875283E-4   -7.306525029133990E-4   -4.131663437515989E-1    2.708827738217796E-1
 1.000489412300000E+10  -4.993355690096213E-1   -8.984120876830320E-3   -1.682003151458308E-4   -7.441479090516576E-4   -1.362354844384318E-4   -7.339676286574000E-4   -4.130238958460547E-1    2.714250860327420E-1
 1.000490219515000E+10  -4.993238115549022E-1   -8.300285386744681E-3   -1.650123605810965E-4   -7.267251007568675E-4   -1.265644024587938E-4   -7.311144080297967E-4   -4.126717273660086E-1    2.717166701924484E-1
 1.000491026730000E+10  -4.993833847424258E-1   -8.034777019397130E-3   -1.679701332500637E-4   -7.198979600467013E-4   -1.213462093272605E-4   -7.075718243494674E-4   -4.122048464618133E-1    2.721952456648791E-1
 1.000491833945000E+10  -4.993907521599257E-1   -7.579617977751836E-3   -1.476160751976726E-4   -7.394295695719650E-4   -1.329419891959810E-4   -6.818184989999477E-4   -4.121332172951923E-1    2.728854324083153E-1
 1.000492641160000E+10  -4.994785416094817E-1   -6.968176967086916E-3   -1.357832163214832E-4   -7.130916856089639E-4   -1.448832169757390E-4   -7.343165559479255E-4   -4.118295924759716E-1    2.731980618804837E-1
 1.000493448375000E+10  -4.993926887560704E-1   -6.412600372433932E-3   -1.361839359279891E-4   -7.271423873491286E-4   -1.141284638537193E-4   -6.961823103206197E-4   -4.115614649480170E-1    2.737587866345793E-1
 1.000494255590000E+10  -4.994719545549193E-1   -5.885867350383277E-3   -1.639138386487008E-4   -7.070792922240910E-4   -1.420478096031925E-4   -7.018769777761560E-4   -4.113279914420370E-1    2.742597725197257E-1
 1.000495062805000E+10  -4.994908084743917E-1   -5.369284975908804E-3   -1.654378936625193E-4   -6.980769111892032E-4   -1.206463703097760E-4   -7.113547876478501E-4   -4.109354733141651E-1    2.747334241330661E-1
 1.000495870020000E+10  -4.995802545728403E-1   -4.734790397509226E-3   -1.478915653254765E-4   -6.849331263986103E-4   -9.684120776173657E-5   -6.989083253597906E-4   -4.106264698072916E-1    2.751508593979753E-1
 1.000496677235000E+10  -4.996160246501241E-1   -4.248975124489230E-3   -1.331059520350565E-4   -6.832150865681328E-4   -1.281519549037486E-4   -6.951659870398787E-4   -4.102474917253289E-1    2.756297517379081E-1
 1.000497484450000E+10  -4.995040856146780E-1   -3.675272908630702E-3   -1.787611660960743E-4   -7.165257325655183E-4   -1.582201308650203E-4   -6.796611537169697E-4   -4.099846230745047E-1    2.762096127899213E-1
 1.000498291665000E+10  -4.995022046826096E-1   -3.233656934839031E-3   -1.474295063719593E-4   -6.972977559757175E-4   -1.231796150690162E-4   -7.010811718066647E-4   -4.096785673790528E-1    2.767396386662139E-1
 1.000499098880000E+10  -4.996399903080483E-1   -2.638733203696049E-3   -1.561371955266339E-4   -6.823021205869179E-4   -1.179484581343581E-4   -6.804569592368571E-4   -4.093279288982890E-1    2.772125472778725E-1
 1.000499906095000E+10  -4.997767953958586E-1   -2.244093450970945E-3   -1.456367383050812E-4   -6.819934951255736E-4   -1.363202438542185E-4   -6.680132269276471E-4   -4.091702938612747E-1    2.776859920969439E-1
 1.000500713310000E+10  -4.996196083628771E-1   -1.645898261422545E-3   -1.508134599843775E-4   -6.687239817045398E-4   -1.114226974148646E-4   -6.503433709319584E-4   -4.089074137906030E-1    2.781340251382123E-1
 1.000501520525000E+10  -4.997067491558688E-1   -1.121324275840737E-3   -1.555619501885636E-4   -6.613702380755966E-4   -1.366882874485496E-4   -6.628683894534661E-4   -4.085487314652441E-1    2.785052805492316E-1
 1.000502327740000E+10  -4.997066438810372E-1   -4.377301901376581E-4   -1.182803023915386E-4   -6.451649906147350E-4   -1.326644650534345E-4   -6.613573472828323E-4   -4.083442472736204E-1    2.791931016764088E-1
 1.000503134955000E+10  -4.996361167462463E-1   -2.314335693038743E-5   -1.539716061919512E-4   -6.563892426452538E-4   -8.880753637741470E-5   -6.647941830101570E-4   -4.079010845652827E-1    2.794704879258229E-1
 1.000503942170000E+10  -4.996826709200786E-1    4.793672206659941E-4   -1.506964947661779E-4   -6.320480657637713E-4   -1.441655094201566E-4   -6.618765573661657E-4   -4.076941725063065E-1    2.799466463407916E-1
 1.000504749385000E+10  -4.997188401956428E-1    1.013113244987547E-3   -1.381287866527953E-4   -6.565414458477891E-4   -1.203815827514616E-4   -6.499976372021783E-4   -4.073808156466605E-1    2.804985094984653E-1
 1.000505556600000E+10  -4.997673099039143E-1    1.492876728136472E-3   -1.494598626359992E-4   -6.228433437632442E-4   -1.009766271951631E-4   -6.515433357708978E-4   -4.070820828622220E-1    2.809254331601639E-1
 1.000506363815000E+10  -4.997099339551195E-1    2.139008133885771E-3   -1.555089809388575E-4   -6.533485451073219E-4   -1.205497471104776E-4   -6.215540579588645E-4   -4.066049554452760E-1    2.814440174278341E-1
 1.000507171030000E+10  -4.997245429499416E-1    2.553253261610783E-3   -1.565250792197830E-4   -6.456114871930131E-4   -9.561267049174527E-5   -6.052173445860945E-4   -4.064606100600178E-1    2.819205054117815E-1
 1.000507978245000E+10  -4.998061030947579E-1    3.276153420319402E-3   -1.424071189413978E-4   -6.536326498988056E-4   -1.100294426147755E-4   -6.341150907627453E-4   -4.060418537544417E-1    2.822923456954375E-1
 1.000508785460000E+10  -4.996900156597626E-1    3.537744109834318E-3   -1.393321395264999E-4   -6.062202832265831E-4   -1.199477907785440E-4   -6.175752101164536E-4   -4.058242051401552E-1    2.829317789006411E-1
 1.000509592675000E+10  -4.998900042195137E-1    4.144189049617226E-3   -1.210592833310635E-4   -6.103707088674343E-4   -1.196760163162584E-4   -6.106805916683543E-4   -4.055429976712742E-1    2.833793276116209E-1
 1.000510399890000E+10  -4.998062812721767E-1    4.617034276262741E-3   -1.330346795480809E-4   -5.998533497995344E-4   -1.141537153450506E-4   -6.324293053378310E-4   -4.052976299175481E-1    2.838874788109609E-1
 1.000511207105000E+10  -4.997435702531224E-1    5.209131130272652E-3   -9.281063377990111E-5   -6.130637417330899E-4   -8.854069435626530E-5   -6.225478435956607E-4   -4.049920196395944E-1    2.842392232302749E-1
 1.000512014320000E+10  -4.998742720367673E-1    5.644258131734194E-3   -1.414801396675447E-4   -6.210420988426784E-4   -1.047181782159782E-4   -5.896603336851792E-4   -4.045671372684452E-1    2.848465667918813E-1
 1.000512821535000E+10  -4.998330555998162E-1    6.097749692746863E-3   -1.516049724420031E-4   -6.036471822523067E-4   -1.042018492306278E-4   -5.776689682562392E-4   -4.043541330151261E-1    2.853070785015058E-1
 1.000513628750000E+10  -4.998239132278004E-1    6.613252064231604E-3   -1.200227237385621E-4   -5.966226756820102E-4   -7.603918016859487E-5   -5.805207307814092E-4   -4.039969527161318E-1    2.857695726520834E-1
 1.000514435965000E+10  -4.997948708459336E-1    7.220398433298161E-3   -1.257355982351501E-4   -5.870077748166198E-4   -8.464556884812831E-5   -6.126649269988555E-4   -4.036639428990269E-1    2.863509717032108E-1
 1.000515243180000E+10  -4.998184031153879E-1    7.706595256674801E-3   -1.018253304976187E-4   -5.802233385877823E-4   -8.159663995950070E-5   -5.712592767399509E-4   -4.033274279865265E-1    2.867705806940958E-1
 1.000516050395000E+10  -4.998637125826941E-1    8.325358868667426E-3   -1.183065674878346E-4   -5.859021833671341E-4   -9.737112679555129E-5   -5.748640107055728E-4   -4.030970452564005E-1    2.871442425930810E-1
 1.000516857610000E+10  -4.999008872362811E-1    8.868175219688171E-3   -1.123411069714762E-4   -5.849941960659850E-4   -6.394277201364067E-5   -6.034196162988404E-4   -4.027612596423601E-1    2.877080797086837E-1
 1.000517664825000E+10  -4.999469341495124E-1    9.355710808265291E-3   -9.846387322112816E-5   -5.939076616851004E-4   -7.027128431721282E-5   -5.472279853340393E-4   -4.025090569789996E-1    2.881634585025327E-1
 1.000518472040000E+10  -4.998704328879059E-1    9.950459045681469E-3   -9.271937937355334E-5   -5.761291613092044E-4   -8.533230779887119E-5   -5.824003691647593E-4   -4.021633861980184E-1    2.885903214535196E-1
 1.000519279255000E+10  -4.998929871883366E-1    1.034008776159477E-2   -8.905230590484025E-5   -5.687138842611168E-4   -9.232692805394261E-5   -5.607342921719909E-4   -4.016626145313160E-1    2.891036023107698E-1
 1.000520086470000E+10  -4.998027414321809E-1    1.091445485676574E-2   -9.951228529495340E-5   -5.790593202726616E-4   -8.613254510921694E-5   -5.413760721991537E-4   -4.014318714224122E-1    2.895779568526837E-1
 1.000520893685000E+10  -4.998417349092436E-1    1.152524512823812E-2   -1.205686486684500E-4   -5.568114761873721E-4   -8.252181897064232E-5   -5.698494722703644E-4   -4.011698065671789E-1    2.900254150455216E-1
 1.000521700900000E+10  -4.998975431885498E-1    1.201342510660039E-2   -1.076394449641258E-4   -5.452318362665806E-4   -1.026088034282159E-4   -5.428063358578589E-4   -4.008390347274224E-1    2.906015625804864E-1
 1.000522508115000E+10  -4.998990950761851E-1    1.244881130457842E-2   -9.557492806083042E-5   -5.512339319526998E-4   -6.825013142991634E-5   -5.659608901356622E-4   -4.004662791528740E-1    2.910251098688201E-1
 1.000523315330000E+10  -4.999573111293578E-1    1.312872469637254E-2   -8.349826663012691E-5   -5.254814686817987E-4   -7.177301072313979E-5   -5.480699633132054E-4   -4.003107889011391E-1    2.914766247634301E-1
 1.000524122545000E+10  -4.999346320167184E-1    1.352750132420193E-2   -1.091053315547776E-4   -5.442781595327522E-4   -9.224976968553683E-5   -5.284250915329394E-4   -3.997080370970886E-1    2.920162884377686E-1
 1.000524929760000E+10  -4.999322043158355E-1    1.408802039002063E-2   -9.223412300140429E-5   -5.216279565873419E-4   -6.798916765809176E-5   -5.386513512527132E-4   -3.993736592065663E-1    2.924314269297831E-1
 1.000525736975000E+10  -4.999242046704810E-1    1.458469378083187E-2   -7.879747616418353E-5   -5.585055728951660E-4   -7.571932097189839E-5   -4.823825565383189E-4   -3.991593187173707E-1    2.929402854428085E-1
 1.000526544190000E+10  -4.999122466593593E-1    1.509081324518096E-2   -6.997045338777240E-5   -5.365848923821968E-4   -7.046083847779531E-5   -5.331460026997229E-4   -3.988354963969952E-1    2.933923975884394E-1
 1.000527351405000E+10  -5.001007328905932E-1    1.571931977694206E-2   -1.004332430053616E-4   -5.073734887464971E-4   -6.013576181564862E-5   -5.177301652989489E-4   -3.985474884094438E-1    2.939164250763201E-1
 1.000528158620000E+10  -5.000298209101254E-1    1.632167048512252E-2   -7.796221772628035E-5   -5.009601933228529E-4   -3.793760920340703E-5   -4.997832291136152E-4   -3.981628488171178E-1    2.943249872142616E-1
 1.000528965835000E+10  -5.000447510329945E-1    1.663607621843744E-2   -5.279349360930761E-5   -5.018025263690059E-4   -4.938292823841129E-5   -4.856284244389803E-4   -3.978618746562415E-1    2.948020594897551E-1
 1.000529773050000E+10  -4.999201837273669E-1    1.728188777603377E-2   -8.849255558054723E-5   -4.957692756534524E-4   -2.344047385694619E-5   -4.529958657770094E-4   -3.975286624779527E-1    2.954106690474019E-1
 1.000530580265000E+10  -4.999481220909533E-1    1.770242047070558E-2   -5.520183223305474E-5   -4.779022986515139E-4   -6.419029939158251E-5   -4.937664744904017E-4   -3.971049746446576E-1    2.958922455826627E-1
 1.000531387480000E+10  -4.999821445024978E-1    1.818869920018605E-2   -2.899616363673889E-5   -4.856759668799359E-4   -2.837835059539502E-5   -4.750566124992373E-4   -3.967066264994435E-1    2.963158083135490E-1
 1.000532194695000E+10  -4.999576901333532E-1    1.871067096142592E-2   -5.381230006545179E-5   -4.674416357810688E-4   -1.395771368646019E-5   -4.574884189117118E-4   -3.966796128889243E-1    2.968784535011187E-1
 1.000533001910000E+10  -4.999209780687364E-1    1.928202287425602E-2   -4.229498331923126E-5   -4.643010667773991E-4   -5.394438357352710E-5   -4.865228896140118E-4   -3.961501623459266E-1    2.972191731712877E-1
 1.000533809125000E+10  -4.999168283510039E-1    1.982759795579562E-2   -6.129776302744096E-5   -4.563355424293663E-4   -2.436404340213229E-5   -4.619198854731740E-4   -3.958566208561572E-1    2.977035207904788E-1
 1.000534616340000E+10  -4.999231304059671E-1    2.045738165959101E-2   -4.285791883734995E-5   -4.650971279957138E-4   -1.676234349721525E-5   -4.575835659794561E-4   -3.955014020372821E-1    2.983479251491534E-1
 1.000535423555000E+10  -4.998334470265967E-1    2.090488301699368E-2   -5.558294074303376E-5   -4.261720983853340E-4   -3.831781384657321E-5   -4.325561057454672E-4   -3.950876150610859E-1    2.988416888841514E-1
 1.000536230770000E+10  -5.000260725136501E-1    2.150860352145847E-2   -3.076439122059394E-5   -4.373379076352582E-4    2.062767907296492E-6   -4.632530721057315E-4   -3.948292906234389E-1    2.992082765673268E-1
 1.000537037985000E+10  -4.999111333821768E-1    2.200733510183135E-2   -2.919079448965356E-5   -4.136363320255566E-4   -1.927660806125698E-5   -4.303127618586949E-4   -3.945018814999891E-1    2.996131415462687E-1
 1.000537845200000E+10  -4.997053819887727E-1    2.244275099975832E-2   -1.275430908036999E-5   -3.861263154753951E-4   -1.415113573815873E-5   -4.200867997622941E-4   -3.942409514958555E-1    3.001277485155361E-1
 1.000538652415000E+10  -4.998417792148738E-1    2.294671716441125E-2   -2.836411805493293E-5   -4.108321889960981E-4    6.056012652482530E-7   -4.150079050319374E-4   -3.937531250521836E-1    3.007670480725581E-1
 1.000539459630000E+10  -4.997895585894577E-1    2.355045791540685E-2   -2.414404828393162E-5   -3.794482105470374E-4   -6.613711389727186E-6   -4.088120437887024E-4   -3.932712642696686E-1    3.012278819567509E-1
 1.000540266845000E+10  -4.998168744601846E-1    2.395933935821222E-2    7.517495095601536E-7   -4.262048480203057E-4    1.945254210667303E-5   -3.632816343780378E-4   -3.930878874745266E-1    3.016251983395296E-1
 1.000541074060000E+10  -4.999463330093264E-1    2.457740553258636E-2   -1.646051980869201E-5   -3.809855477687868E-4    1.418673020701541E-5   -3.716416480452131E-4   -3.926113772973769E-1    3.020869818349627E-1
 1.000541881275000E+10  -4.998307947873293E-1    2.503128244812874E-2   -7.110472669834229E-6   -4.028620746411438E-4    1.322665436807205E-6   -4.181081365239006E-4   -3.923051447947908E-1    3.026995485536793E-1
 1.000542688490000E+10  -4.998155433237176E-1    2.558841880803226E-2    1.743449062187019E-6   -3.968804115590533E-4    2.657427354801969E-5   -3.794542613385077E-4   -3.920011582276097E-1    3.030584657619021E-1
 1.000543495705000E+10  -4.998665396124469E-1    2.606345429246629E-2    2.807132337949065E-5   -3.638568066940665E-4    5.125152526945187E-5   -3.307350220949342E-4   -3.914655028667166E-1    3.036600171998248E-1
 1.000544302920000E+10  -4.997836110934344E-1    2.664149075143011E-2    1.206629907678946E-5   -3.631521646214979E-4    7.407390014583395E-6   -3.429535328310681E-4   -3.911137125777221E-1    3.040813476737204E-1
 1.000545110135000E+10  -4.997397650160925E-1    2.722440642870936E-2    3.939096693122351E-5   -3.694838482558389E-4    2.584185365088785E-5   -3.530359819875226E-4   -3.908907505848087E-1    3.044144738255456E-1
 1.000545917350000E+10  -4.995820680320869E-1    2.758921940269236E-2    3.181773370183896E-5   -3.400445034553631E-4    3.188123211028373E-5   -3.309924966536223E-4   -3.904400768970251E-1    3.049357013033331E-1
