#  HZ   S   RI   R     50.00 
! Rohde & Schwarz Vector Network Analyzer 
! Rohde-Schwarz,ZNB20-2Port,1311601062101988,3.16
! Created: UTC 3/20/2024, 11:52:10 AM
! freq[Hz]                re:S11                  im:S11                  re:S21                  im:S21                  re:S12                  im:S12                  re:S22                  im:S22
 1.000474830600000E+10  -4.987522024304786E-1   -1.852390399152956E-2   -1.857972003251688E-4   -7.776546649964694E-4   -1.468267622471361E-4   -8.037662199738418E-4   -4.178681316882284E-1    2.627609648278871E-1
 1.000475630255000E+10  -4.989332268409042E-1   -1.804292895108243E-2   -1.871373408277548E-4   -7.643334004051642E-4   -1.308535022830235E-4   -8.106918669519576E-4   -4.175964608791408E-1    2.633421077659072E-1
 1.000476429910000E+10  -4.987759164425813E-1   -1.726648066740584E-2   -1.661851878075358E-4   -7.506282002650727E-4   -1.425817785992451E-4   -7.692749691812547E-4   -4.173506379209825E-1    2.637745494194582E-1
 1.000477229565000E+10  -4.988667041652100E-1   -1.691032839878192E-2   -1.937472046905132E-4   -7.540060085287192E-4   -1.497075208107383E-4   -7.773695231750357E-4   -4.170249226472178E-1    2.642843729276766E-1
 1.000478029220000E+10  -4.989543718326306E-1   -1.635162073140104E-2   -1.737814468695319E-4   -7.607756078324643E-4   -1.460856352996005E-4   -7.563511396084708E-4   -4.168314672785036E-1    2.646794770256899E-1
 1.000478828875000E+10  -4.988974940003219E-1   -1.597037414176734E-2   -1.773782641901915E-4   -7.703687710171224E-4   -1.466182877668267E-4   -7.878374199328781E-4   -4.166150645395371E-1    2.652119306502285E-1
 1.000479628530000E+10  -4.990449287406996E-1   -1.541680270365525E-2   -1.948154477010734E-4   -7.464390685665507E-4   -1.524724507615887E-4   -7.894885034503011E-4   -4.162100544289739E-1    2.657829815248179E-1
 1.000480428185000E+10  -4.989453148711600E-1   -1.491810520308859E-2   -1.845101896926708E-4   -7.311172054964133E-4   -1.545418321552384E-4   -7.553178726342575E-4   -4.160449876481539E-1    2.659872528186244E-1
 1.000481227840000E+10  -4.990186453541199E-1   -1.440429410709826E-2   -1.448883436722695E-4   -7.730187463881752E-4   -1.576723675311887E-4   -7.649527230187760E-4   -4.157165827618285E-1    2.665392350626407E-1
 1.000482027495000E+10  -4.990251183147058E-1   -1.388667764882476E-2   -1.821191033040249E-4   -7.611565394995015E-4   -1.394618741969526E-4   -7.543091949202809E-4   -4.155119569757271E-1    2.670489030585523E-1
 1.000482827150000E+10  -4.990865074542660E-1   -1.323075469126526E-2   -1.749647732269472E-4   -7.663022781143697E-4   -1.402574750171595E-4   -7.488127813511890E-4   -4.151070929616145E-1    2.675463182354549E-1
 1.000483626805000E+10  -4.991401210086392E-1   -1.278748556067997E-2   -1.716967815868982E-4   -7.550766900807897E-4   -1.195642305577441E-4   -7.579740155732791E-4   -4.147871242018195E-1    2.680947744301349E-1
 1.000484426460000E+10  -4.990517393980010E-1   -1.218996921776574E-2   -1.702291322046532E-4   -7.303482363763979E-4   -1.476589394545367E-4   -7.767357495828440E-4   -4.145164225028651E-1    2.684524342963038E-1
 1.000485226115000E+10  -4.992584350485716E-1   -1.167611043355379E-2   -1.747448989498334E-4   -7.463026838265166E-4   -1.429627587703622E-4   -7.581660789452623E-4   -4.142727643464567E-1    2.690274539498926E-1
 1.000486025770000E+10  -4.991546335627596E-1   -1.115434764677648E-2   -1.911715611035627E-4   -7.348792553221181E-4   -1.564011399691331E-4   -7.102797155257045E-4   -4.139746219445246E-1    2.695844453241245E-1
 1.000486825425000E+10  -4.991223719811023E-1   -1.070624443121448E-2   -1.441207890526717E-4   -7.397166458123967E-4   -1.166995565003434E-4   -7.291429134282086E-4   -4.138648114212544E-1    2.699358635134626E-1
 1.000487625080000E+10  -4.992271678779777E-1   -1.017509812510831E-2   -1.956856542295682E-4   -7.298929702527194E-4   -1.327730204113541E-4   -7.206825309775111E-4   -4.135985270956964E-1    2.702597747240289E-1
 1.000488424735000E+10  -4.993186988193749E-1   -9.583976247787564E-3   -1.735002680360369E-4   -7.220397143167271E-4   -1.227565769281996E-4   -7.344965742501397E-4   -4.132582619577167E-1    2.708707244953817E-1
 1.000489224390000E+10  -4.993895790287833E-1   -9.061828923668519E-3   -1.701263438663901E-4   -7.252971734263741E-4   -1.234400795242800E-4   -7.420741365211799E-4   -4.129320243681194E-1    2.713605434217577E-1
 1.000490024045000E+10  -4.993509356973275E-1   -8.607084051778097E-3   -1.677137735975481E-4   -7.178391850831518E-4   -1.347476100383405E-4   -7.259459348187962E-4   -4.125261091166953E-1    2.717961225200660E-1
 1.000490823700000E+10  -4.992752124259799E-1   -8.083231570429828E-3   -1.771175739303762E-4   -7.056039009123471E-4   -1.451846777390511E-4   -7.202143233834582E-4   -4.123831861957608E-1    2.723512022116936E-1
 1.000491623355000E+10  -4.994407508069678E-1   -7.420493030142974E-3   -1.621533210928616E-4   -7.461018709166391E-4   -1.190945703781005E-4   -7.276007671737581E-4   -4.120048378815288E-1    2.727522448759185E-1
 1.000492423010000E+10  -4.994443464212590E-1   -7.079892236961568E-3   -1.664418885122090E-4   -6.956964164997034E-4   -1.075944503244688E-4   -7.134122479288625E-4   -4.118169478094257E-1    2.732073042155762E-1
 1.000493222665000E+10  -4.995683737524585E-1   -6.504578418772828E-3   -1.738397008326154E-4   -6.773864452210359E-4   -1.200923076388786E-4   -7.091871429259373E-4   -4.115002171410704E-1    2.736276840417881E-1
 1.000494022320000E+10  -4.995412987527085E-1   -6.035443209882011E-3   -1.865775149629854E-4   -7.058941826057227E-4   -1.317602116601717E-4   -7.049509311073233E-4   -4.112693321490059E-1    2.740884574361376E-1
 1.000494821975000E+10  -4.995302071453285E-1   -5.588510174886966E-3   -1.411651892235277E-4   -7.026940924770785E-4   -1.357163260663215E-4   -7.074297166521610E-4   -4.109901995028884E-1    2.746529583980128E-1
 1.000495621630000E+10  -4.995756287830201E-1   -5.033074742559969E-3   -1.582946869715005E-4   -7.088918656352459E-4   -1.175831016890720E-4   -7.145155655790834E-4   -4.107697635488711E-1    2.749485185603623E-1
 1.000496421285000E+10  -4.993943679267629E-1   -4.463784749779558E-3   -1.726319042466501E-4   -7.106343800507716E-4   -1.016135568825960E-4   -6.813668629493916E-4   -4.103985164252342E-1    2.755625594559044E-1
 1.000497220940000E+10  -4.995545077627502E-1   -3.899873764140198E-3   -1.495384289123627E-4   -7.249839074349320E-4   -1.005053427553965E-4   -6.549949040338777E-4   -4.101214795492293E-1    2.759530435632930E-1
 1.000498020595000E+10  -4.996144923869391E-1   -3.419733826905254E-3   -1.523218027856562E-4   -6.956942261840059E-4   -1.190603072766363E-4   -6.839795818063582E-4   -4.099014191904334E-1    2.764340911364691E-1
 1.000498820250000E+10  -4.996050186509861E-1   -2.809942831980531E-3   -1.478562026182404E-4   -6.903156290491591E-4   -1.148529213426514E-4   -6.834375462669899E-4   -4.095619984201562E-1    2.768806030471613E-1
 1.000499619905000E+10  -4.995988031223102E-1   -2.363590912408089E-3   -1.732977171031449E-4   -7.027089696341512E-4   -1.113382969143955E-4   -6.848274506111881E-4   -4.090146493035570E-1    2.774245899955885E-1
 1.000500419560000E+10  -4.995685412400260E-1   -1.846435631073914E-3   -1.538559220809189E-4   -6.936271931732601E-4   -1.137878866678973E-4   -6.638878544235429E-4   -4.089240204869627E-1    2.779621269174168E-1
 1.000501219215000E+10  -4.995537981986747E-1   -1.376555299151761E-3   -1.569453673984429E-4   -6.750362495967741E-4   -9.664330321722667E-5   -6.696831148803409E-4   -4.086953259609930E-1    2.783984710742671E-1
 1.000502018870000E+10  -4.997189385274899E-1   -8.398877996007567E-4   -1.558082391604419E-4   -6.586456104600173E-4   -1.160037529036759E-4   -6.723385644329980E-4   -4.083444304903499E-1    2.787805074763282E-1
 1.000502818525000E+10  -4.998146632972453E-1   -2.898978693418276E-4   -1.422630365228055E-4   -6.560622328981854E-4   -1.172223507408287E-4   -6.559368329993436E-4   -4.081370992041224E-1    2.794471162726160E-1
 1.000503618180000E+10  -4.996059429452587E-1    2.201855399533034E-4   -1.343411127846531E-4   -6.523281164954514E-4   -1.331811401503282E-4   -6.723619734417525E-4   -4.078042185971359E-1    2.798538557013537E-1
 1.000504417835000E+10  -4.997041515537202E-1    7.470149170380520E-4   -1.441743928824233E-4   -6.694797333086751E-4   -1.111633126104222E-4   -6.498178259979852E-4   -4.075716994601581E-1    2.802333996665174E-1
 1.000505217490000E+10  -4.997128407050626E-1    1.227087336414514E-3   -1.523121801977856E-4   -6.467925191577872E-4   -1.091670940196857E-4   -6.353088331640380E-4   -4.072189919977691E-1    2.805589307889883E-1
 1.000506017145000E+10  -4.997678538728633E-1    1.783878173063052E-3   -1.415018383938199E-4   -6.379131686716224E-4   -1.143297793450037E-4   -6.401980241138214E-4   -4.068798508751021E-1    2.812420266887362E-1
 1.000506816800000E+10  -4.997496283393248E-1    2.424922779347200E-3   -1.167747916216963E-4   -6.637477074199673E-4   -1.045128264639154E-4   -6.215186759832443E-4   -4.064957202274945E-1    2.817127523168979E-1
 1.000507616455000E+10  -4.996800427151277E-1    2.916988644036768E-3   -1.017381673376133E-4   -6.407738023659986E-4   -1.346095649389330E-4   -6.288029247957474E-4   -4.063240011408594E-1    2.822664839793532E-1
 1.000508416110000E+10  -4.997725133247639E-1    3.486785494032961E-3   -1.551554070455291E-4   -6.646697651835783E-4   -1.184734322937558E-4   -6.602854675544697E-4   -4.059799484473344E-1    2.826416303467946E-1
 1.000509215765000E+10  -4.997857987824344E-1    3.772528202567802E-3   -1.244420489833616E-4   -5.989779963430483E-4   -1.028733250095416E-4   -6.323872260615821E-4   -4.055776524372045E-1    2.831478319573892E-1
 1.000510015420000E+10  -4.997207916617040E-1    4.293864137808808E-3   -1.378427141133863E-4   -6.248314150645222E-4   -1.119101596329518E-4   -6.015760261828075E-4   -4.053633838884957E-1    2.835454416037853E-1
 1.000510815075000E+10  -4.998607108721553E-1    4.981751756392538E-3   -1.530120788143538E-4   -6.341398610899903E-4   -1.183145653933062E-4   -6.334793474504932E-4   -4.050623005132938E-1    2.840692611134889E-1
 1.000511614730000E+10  -4.997553294246670E-1    5.525694329529680E-3   -1.069882963299240E-4   -5.952048715779265E-4   -1.058473334958360E-4   -6.053467848182774E-4   -4.047128310973735E-1    2.845653703694245E-1
 1.000512414385000E+10  -4.998150258275139E-1    5.925318077228570E-3   -1.425843667023274E-4   -6.136548645693627E-4   -7.650233873624193E-5   -6.147803132699793E-4   -4.045064282254225E-1    2.850040931523442E-1
 1.000513214040000E+10  -4.998416040664701E-1    6.550969509950063E-3   -1.229019431532300E-4   -6.016769001710989E-4   -7.807840571146516E-5   -5.905158051742867E-4   -4.040946955092243E-1    2.855274820014345E-1
 1.000514013695000E+10  -4.998600973337576E-1    6.885322412854412E-3   -1.491709126951410E-4   -5.823336194876909E-4   -7.262629893457985E-5   -6.134039197496441E-4   -4.038419891584057E-1    2.859607108396113E-1
 1.000514813350000E+10  -4.999681807500028E-1    7.384241847768157E-3   -1.231698607190231E-4   -5.830897818029525E-4   -8.045586979028704E-5   -5.826423335562124E-4   -4.034446018870086E-1    2.864730448753583E-1
 1.000515613005000E+10  -4.999183566533150E-1    8.001522664711529E-3   -1.042361756391856E-4   -6.099689586564467E-4   -8.970345921060385E-5   -5.860004460728824E-4   -4.031432639601486E-1    2.869450022027463E-1
 1.000516412660000E+10  -4.998992950334338E-1    8.570696831433525E-3   -1.585217664561437E-4   -5.924479022925117E-4   -8.518947340768766E-5   -5.836373951677551E-4   -4.029029910143154E-1    2.872827214085046E-1
 1.000517212315000E+10  -4.998504335855620E-1    9.065364466913030E-3   -1.055252865072990E-4   -5.751295165067935E-4   -1.019561449505991E-4   -5.928594295750257E-4   -4.025180535882176E-1    2.878946821008635E-1
 1.000518011970000E+10  -4.998762728912807E-1    9.612863446717732E-3   -1.109381909109037E-4   -5.533371803191843E-4   -6.671194416344853E-5   -5.699784563286173E-4   -4.023433906647135E-1    2.883761843001780E-1
 1.000518811625000E+10  -4.998581907256087E-1    1.013576965132766E-2   -1.043971733127995E-4   -6.011020796511652E-4   -6.960822876872083E-5   -5.725264186769805E-4   -4.020667790703730E-1    2.888798757274968E-1
 1.000519611280000E+10  -4.999024439770929E-1    1.069845464152114E-2   -1.054332335384791E-4   -5.497739484516830E-4   -9.163865464595057E-5   -5.558128458750239E-4   -4.016971172392822E-1    2.893719902254029E-1
 1.000520410935000E+10  -4.998032052181282E-1    1.107536550624094E-2   -1.254898505226992E-4   -5.852207009880179E-4   -5.390793748601383E-5   -5.405390282563591E-4   -4.013558592270390E-1    2.897827601953191E-1
 1.000521210590000E+10  -4.998871319604468E-1    1.166087071698326E-2   -8.250010150327277E-5   -5.463822776634237E-4   -8.929122553713152E-5   -5.606753705614395E-4   -4.010623744956880E-1    2.902466755140431E-1
 1.000522010245000E+10  -4.998952748714618E-1    1.231351878986341E-2   -9.022873533947734E-5   -5.623264402490117E-4   -8.398449775713221E-5   -5.512338918888827E-4   -4.007097065220162E-1    2.908408714273907E-1
 1.000522809900000E+10  -5.000010574665866E-1    1.272311296607202E-2   -8.946397606877915E-5   -5.601387828366256E-4   -9.458434555610152E-5   -5.359092366702000E-4   -4.005718517206598E-1    2.912684817618552E-1
 1.000523609555000E+10  -5.000096867770879E-1    1.324500612831881E-2   -7.833074832440886E-5   -5.470427798211940E-4   -4.843246540384576E-5   -5.542870969157915E-4   -4.000381437557258E-1    2.917121841616146E-1
 1.000524409210000E+10  -4.997560579228444E-1    1.374213264648807E-2   -6.116166033280766E-5   -5.282731994587685E-4   -4.965672400825848E-5   -5.260309845933646E-4   -3.997923165066082E-1    2.922196241394323E-1
 1.000525208865000E+10  -4.999162805559261E-1    1.431338904740663E-2   -8.411492629151651E-5   -5.259960153371814E-4   -6.848270050479866E-5   -5.051720702124651E-4   -3.995403493226223E-1    2.926568287772174E-1
 1.000526008520000E+10  -4.998719522745529E-1    1.480590839349506E-2   -8.416342725024469E-5   -5.250651515222608E-4   -6.902707512535672E-5   -5.037523391274594E-4   -3.989839262028911E-1    2.930274695386630E-1
 1.000526808175000E+10  -4.999119980771041E-1    1.516087701117199E-2   -9.491414759173673E-5   -5.280491815986443E-4   -8.448331698428332E-5   -5.240388035381137E-4   -3.987548814028172E-1    2.935599067703955E-1
 1.000527607830000E+10  -4.999709988482662E-1    1.592567842126735E-2   -8.008335411457410E-5   -5.069663053732230E-4   -2.350851588788265E-5   -5.047945403257182E-4   -3.984070025012256E-1    2.940338178962311E-1
 1.000528407485000E+10  -4.999293941895532E-1    1.636682629886363E-2   -9.144429227666641E-5   -5.033147107952858E-4   -4.180742146097350E-5   -5.004435716692289E-4   -3.980740859913512E-1    2.945775018765679E-1
 1.000529207140000E+10  -4.999088282502039E-1    1.683765968278662E-2   -6.623035073529851E-5   -5.077580698892299E-4   -4.249784007605459E-5   -4.992262996931893E-4   -3.977439553464627E-1    2.949592096723178E-1
 1.000530006795000E+10  -4.999042835173121E-1    1.735317140470957E-2   -5.974574061385612E-5   -4.761836255472128E-4   -3.082577417031410E-5   -5.036342173521229E-4   -3.976058076937839E-1    2.955079443314996E-1
 1.000530806450000E+10  -4.998291494780589E-1    1.783625377233938E-2   -6.294803267931571E-5   -5.010260294332907E-4   -3.029075911389225E-5   -4.500914840271897E-4   -3.971386148508831E-1    2.960357859140937E-1
 1.000531606105000E+10  -4.998632632866355E-1    1.834004170677245E-2   -4.990646915818653E-5   -4.777361538267187E-4   -5.838671065057255E-5   -4.766462659569108E-4   -3.968338198265785E-1    2.963340278865910E-1
 1.000532405760000E+10  -4.998480349565004E-1    1.904764671081351E-2   -4.672336722584834E-5   -4.575779053122969E-4   -5.003129033740244E-5   -4.779653897863441E-4   -3.964658110019254E-1    2.969531103998571E-1
 1.000533205415000E+10  -4.998505526419572E-1    1.942695408572666E-2   -5.903794551674512E-5   -4.615911324820581E-4   -5.539452833408622E-5   -4.196913615746831E-4   -3.961799588546379E-1    2.973020011523664E-1
 1.000534005070000E+10  -4.999450323238223E-1    2.006984866987449E-2   -4.425096665191602E-5   -4.636047103803037E-4   -1.736566867603845E-5   -4.627138957845970E-4   -3.958226352699236E-1    2.978730226749940E-1
 1.000534804725000E+10  -4.997792887838917E-1    2.049361285797316E-2   -2.152875388411202E-5   -4.417580200661892E-4   -3.368313256043006E-5   -4.489858982840194E-4   -3.954287690519619E-1    2.982723078604528E-1
 1.000535604380000E+10  -4.998545998339194E-1    2.104202039739477E-2   -4.339526880264499E-5   -4.587907293715185E-4   -1.170666814175458E-5   -4.268746086246313E-4   -3.949987330014586E-1    2.989041263159297E-1
 1.000536404035000E+10  -4.999440635266235E-1    2.146770999791111E-2   -5.298179594232620E-5   -4.436220479243088E-4   -2.412006059227530E-5   -4.382495187366776E-4   -3.946989925203679E-1    2.992009376782930E-1
 1.000537203690000E+10  -4.999295628171705E-1    2.192113899631956E-2   -2.857815015622583E-5   -4.050630401059564E-4   -1.892471870070801E-5   -4.491531933309099E-4   -3.942463595132930E-1    2.998435495305142E-1
 1.000538003345000E+10  -4.998670640095895E-1    2.246849350578008E-2   -6.095521815852789E-5   -4.341802388789573E-4   -1.457620663932498E-5   -4.138344807380102E-4   -3.939043844790114E-1    3.002816523149920E-1
 1.000538803000000E+10  -4.999055518117238E-1    2.303464097623077E-2   -1.402376693830366E-5   -4.297865885983170E-4   -2.106390614346424E-5   -3.710766351882537E-4   -3.937237264693262E-1    3.007825010306066E-1
 1.000539602655000E+10  -4.997751090380843E-1    2.348450880658040E-2   -2.935831161782053E-5   -3.980324792468542E-4   -1.760317005142995E-5   -4.178951410296028E-4   -3.932720971142175E-1    3.012451303589799E-1
 1.000540402310000E+10  -4.998543562261081E-1    2.416450453610071E-2   -1.365876007550730E-5   -3.998366293933597E-4   -6.105310810437093E-6   -4.013065197773730E-4   -3.928225526795107E-1    3.018300691261491E-1
 1.000541201965000E+10  -4.998409420491416E-1    2.460421264995166E-2   -1.443980437635152E-5   -3.897682031520392E-4    3.006921164766956E-6   -3.908067220337089E-4   -3.924845262365099E-1    3.023315688860715E-1
 1.000542001620000E+10  -4.998165834008692E-1    2.516062744834691E-2   -3.599022357294421E-6   -3.937489480336762E-4    1.889615378335016E-6   -3.817634689130958E-4   -3.922509135724147E-1    3.026865970064095E-1
 1.000542801275000E+10  -4.998866313879441E-1    2.577290658048837E-2    2.669978110406398E-6   -3.728751707584856E-4    1.388435423512341E-5   -3.721697248265697E-4   -3.917816412770984E-1    3.031044093196204E-1
 1.000543600930000E+10  -4.999052868379384E-1    2.624594622261437E-2   -1.058681269803583E-5   -3.557058370563996E-4    3.509778074969549E-5   -3.422090765339537E-4   -3.915067263713048E-1    3.036434452119966E-1
 1.000544400585000E+10  -4.998771864338937E-1    2.669283700437380E-2    1.359538228888311E-5   -3.732819681646168E-4    2.242060526253102E-5   -3.677889798768409E-4   -3.911698750574003E-1    3.041353715692617E-1
 1.000545200240000E+10  -4.997807307268983E-1    2.724130229496048E-2    1.519370432353067E-6   -3.696957678300817E-4    4.371080425508024E-5   -3.868134005584000E-4   -3.907690222929819E-1    3.045640977475304E-1
 1.000545999895000E+10  -4.998633534404965E-1    2.768006695116355E-2    3.417942088650979E-5   -3.299113443174231E-4    2.939281340600626E-5   -3.235266388777800E-4   -3.903639147961103E-1    3.051995589309761E-1
 1.000546799550000E+10  -4.998199076075511E-1    2.827045493663960E-2    1.372027883543633E-5   -3.334300165191136E-4    5.131596971814699E-5   -3.240045320918683E-4   -3.900644104092287E-1    3.055810054080539E-1
