#  HZ   S   RI   R     50.00 
! Rohde & Schwarz Vector Network Analyzer 
! Rohde-Schwarz,ZNB20-2Port,1311601062101988,3.16
! Created: UTC 3/20/2024, 11:53:10 AM
! freq[Hz]                re:S11                  im:S11                  re:S21                  im:S21                  re:S12                  im:S12                  re:S22                  im:S22
 1.000482320000000E+10  -4.990961616147823E-1   -1.375361513356896E-2   -1.694986497867805E-4   -7.396111222867187E-4   -1.484348278881239E-4   -7.606187125385724E-4   -4.153834558740563E-1    2.670974416600010E-1
 1.000483089835000E+10  -4.991627144373140E-1   -1.316428855056345E-2   -1.919674580239306E-4   -7.634293067649162E-4   -1.459249763982998E-4   -7.722923631563436E-4   -4.152555890379450E-1    2.676353573922460E-1
 1.000483859670000E+10  -4.991148666317389E-1   -1.273103650387951E-2   -2.111628185014322E-4   -7.369636060912073E-4   -1.089823599151762E-4   -7.871718518715348E-4   -4.149083135114723E-1    2.679887978191515E-1
 1.000484629505000E+10  -4.990162537094162E-1   -1.232323912853915E-2   -1.707279042115117E-4   -7.491250494043416E-4   -1.434882610712698E-4   -7.274586061969947E-4   -4.146701309829413E-1    2.685625788946567E-1
 1.000485399340000E+10  -4.991383619279405E-1   -1.175480844492270E-2   -1.798378307625445E-4   -7.457543542996897E-4   -1.579238608688234E-4   -7.292198792707056E-4   -4.143598043177046E-1    2.690707783338392E-1
 1.000486169175000E+10  -4.992904014860826E-1   -1.122427915239364E-2   -1.672558582521743E-4   -7.299864787764225E-4   -1.340552519735816E-4   -7.400866755785260E-4   -4.140536897329787E-1    2.694598146573447E-1
 1.000486939010000E+10  -4.991322692548800E-1   -1.083039900102090E-2   -1.552365438782648E-4   -7.398138636016648E-4   -1.103440041162501E-4   -7.413180408977560E-4   -4.138126308404447E-1    2.698640249247657E-1
 1.000487708845000E+10  -4.992812385741710E-1   -1.014450510373981E-2   -1.714766313952182E-4   -7.338862080511757E-4   -1.398179513516969E-4   -7.468083046156827E-4   -4.135642157506238E-1    2.703426250705782E-1
 1.000488478680000E+10  -4.992629785380799E-1   -9.658574749316636E-3   -1.489688873881828E-4   -7.366063398610121E-4   -1.599630866355292E-4   -7.030310194964644E-4   -4.132596102013535E-1    2.708361590735215E-1
 1.000489248515000E+10  -4.993118881596660E-1   -9.168785145382720E-3   -1.651612592309178E-4   -7.183975124770606E-4   -1.358317760630205E-4   -7.432473494059089E-4   -4.129854602812756E-1    2.713171994286289E-1
 1.000490018350000E+10  -4.993447922750970E-1   -8.592733912713530E-3   -1.807874179928794E-4   -7.411995388337580E-4   -1.405087524274654E-4   -7.205009347545283E-4   -4.126746823794386E-1    2.717903656090833E-1
 1.000490788185000E+10  -4.992968028346271E-1   -8.214271900307707E-3   -1.726303853190013E-4   -7.138875036733523E-4   -1.226502687211177E-4   -7.289226072423582E-4   -4.123328946748903E-1    2.721747113697919E-1
 1.000491558020000E+10  -4.993900390523398E-1   -7.757487826312129E-3   -1.863597801043690E-4   -7.283797736551257E-4   -1.155185315540622E-4   -7.249275942973857E-4   -4.122897846783038E-1    2.726709278800330E-1
 1.000492327855000E+10  -4.993735422829229E-1   -7.139512969455637E-3   -1.623907764702563E-4   -7.085602566863418E-4   -1.279154378625098E-4   -7.136257181673114E-4   -4.118451194992145E-1    2.729532619162565E-1
 1.000493097690000E+10  -4.994041917030281E-1   -6.758016072095588E-3   -1.839736011152170E-4   -7.107497186916873E-4   -1.351681248009622E-4   -7.302948431273691E-4   -4.116924008062722E-1    2.734730809489616E-1
 1.000493867525000E+10  -4.994210554974494E-1   -6.189190399186744E-3   -1.706977027549656E-4   -7.128526567360301E-4   -1.346020580007852E-4   -7.267500934221043E-4   -4.113256056741091E-1    2.738769096442592E-1
 1.000494637360000E+10  -4.993203819011512E-1   -5.739231654129397E-3   -1.416718121488795E-4   -7.098289503336247E-4   -1.376659460699731E-4   -7.259099900159391E-4   -4.110836765882249E-1    2.743139654115754E-1
 1.000495407195000E+10  -4.994348238129630E-1   -5.201993834971952E-3   -1.777199591419279E-4   -6.965967606729234E-4   -1.314209199103472E-4   -7.051746816305295E-4   -4.109532060400229E-1    2.749040327994440E-1
 1.000496177030000E+10  -4.994556096811203E-1   -4.686263988240780E-3   -2.017896528313347E-4   -7.205222761278748E-4   -1.416739150220281E-4   -6.851399316197575E-4   -4.106937249649024E-1    2.753482318615645E-1
 1.000496946865000E+10  -4.994043704692787E-1   -4.215018370606063E-3   -1.677649399934979E-4   -6.953456559122568E-4   -1.223779270343744E-4   -6.931421137831050E-4   -4.104126673453425E-1    2.757859138750026E-1
 1.000497716700000E+10  -4.994444077196571E-1   -3.654248762590339E-3   -1.376164831804633E-4   -7.250118580096901E-4   -1.383240718884282E-4   -7.219481899133239E-4   -4.100386336793677E-1    2.760659943751339E-1
 1.000498486535000E+10  -4.996692172138643E-1   -3.174633432540629E-3   -1.559085558241957E-4   -7.035782017144869E-4   -1.377220381192266E-4   -6.982299293790150E-4   -4.096681586257023E-1    2.766618856288658E-1
 1.000499256370000E+10  -4.995838690643736E-1   -2.703179172292020E-3   -1.466530132506874E-4   -6.783927985532372E-4   -1.201948915950986E-4   -6.904837762614565E-4   -4.093824952185462E-1    2.771683718874500E-1
 1.000500026205000E+10  -4.995571991094008E-1   -2.030848186746638E-3   -1.494624139036931E-4   -6.903566003670299E-4   -1.049984241152268E-4   -6.872144537857042E-4   -4.092999121274116E-1    2.775691693618349E-1
 1.000500796040000E+10  -4.997319278741513E-1   -1.711096218283216E-3   -1.546065702909690E-4   -6.640229484306692E-4   -1.565936620555398E-4   -6.861990527964958E-4   -4.090198796402673E-1    2.780941500123956E-1
 1.000501565875000E+10  -4.995805961111195E-1   -1.245169356158910E-3   -1.537823860063696E-4   -6.527265145054629E-4   -1.197834378267261E-4   -6.652546983313048E-4   -4.085589111546784E-1    2.785993410442797E-1
 1.000502335710000E+10  -4.996778726118500E-1   -7.927085907753828E-4   -1.573774795941554E-4   -6.823185379314003E-4   -1.207284975391631E-4   -6.760315987192538E-4   -4.084599061848540E-1    2.791334057255354E-1
 1.000503105545000E+10  -4.996060648079479E-1   -6.440618673904998E-5   -1.556996995232445E-4   -6.617245455936705E-4   -1.118359831311193E-4   -6.781846612452359E-4   -4.081636876964153E-1    2.793248888344347E-1
 1.000503875380000E+10  -4.996234195104031E-1    3.251874139996087E-4   -1.617725230324019E-4   -6.892169117525282E-4   -1.088384445919623E-4   -6.672906853814022E-4   -4.077147357680774E-1    2.797525144598036E-1
 1.000504645215000E+10  -4.997442561199940E-1    7.848613514562212E-4   -1.443844110921775E-4   -6.672717639782489E-4   -1.134951237149180E-4   -6.422453158398474E-4   -4.076217605249620E-1    2.803380947856600E-1
 1.000505415050000E+10  -4.995924157069727E-1    1.303217959595887E-3   -1.572129313149894E-4   -6.760225017860965E-4   -1.184915326959108E-4   -6.589218579722422E-4   -4.072698859416951E-1    2.808285872756880E-1
 1.000506184885000E+10  -4.996889754208334E-1    1.755556007118005E-3   -1.622450438091179E-4   -6.684263059366729E-4   -1.142564545535194E-4   -6.351030380381002E-4   -4.070114812787463E-1    2.812007128216170E-1
 1.000506954720000E+10  -4.997612208323674E-1    2.374532573957024E-3   -1.543468363545883E-4   -6.570821010594149E-4   -9.555722780094481E-5   -6.741066697357292E-4   -4.067675120741678E-1    2.817136548893503E-1
 1.000507724555000E+10  -4.997479685409221E-1    2.903542449676188E-3   -1.689800632391675E-4   -6.213779707343808E-4   -1.150376613001217E-4   -6.496789081237039E-4   -4.063827900298915E-1    2.821865114072578E-1
 1.000508494390000E+10  -4.997268483348251E-1    3.179174745163825E-3   -1.594250435285623E-4   -6.611605744453530E-4   -1.139474162723058E-4   -6.498755154130224E-4   -4.061087518392694E-1    2.824301703646556E-1
 1.000509264225000E+10  -4.997889691612544E-1    3.800796236247686E-3   -1.596944329523981E-4   -6.369037021937312E-4   -1.273719419339253E-4   -6.519923214998905E-4   -4.058732266086439E-1    2.830919113988822E-1
 1.000510034060000E+10  -4.996918807344600E-1    4.373349255402053E-3   -1.525251461442761E-4   -6.438735920065657E-4   -1.000743070007506E-4   -6.117355520995943E-4   -4.054853969374074E-1    2.836209661849025E-1
 1.000510803895000E+10  -4.996262720085201E-1    4.638970671611033E-3   -1.403679807413469E-4   -6.301242383573463E-4   -1.112442685148821E-4   -6.220088614146945E-4   -4.052495345107157E-1    2.839653633428813E-1
 1.000511573730000E+10  -4.998233381214013E-1    5.415990679955674E-3   -1.482555805237689E-4   -6.212019546668917E-4   -1.024599039956344E-4   -6.126746957777987E-4   -4.049801591582771E-1    2.844702980507170E-1
 1.000512343565000E+10  -4.997247893875602E-1    5.817792990146440E-3   -1.629756964532111E-4   -6.098769708180079E-4   -1.105708436299789E-4   -6.124232924588712E-4   -4.046347482369021E-1    2.848848326554372E-1
 1.000513113400000E+10  -4.998134957569386E-1    6.315511866011429E-3   -1.451618272544381E-4   -5.856048577361787E-4   -1.106054230159459E-4   -6.400289217071964E-4   -4.042927413876726E-1    2.852678597466614E-1
 1.000513883235000E+10  -4.997228681731765E-1    6.897065497015818E-3   -1.263079445036220E-4   -6.153431671267830E-4   -1.305978667591801E-4   -6.143837159184808E-4   -4.039479268482586E-1    2.859103156381895E-1
 1.000514653070000E+10  -4.998724103471582E-1    7.323822689997159E-3   -1.354660927756950E-4   -6.326413694132194E-4   -1.022652524916666E-4   -6.005082630970410E-4   -4.038394527605450E-1    2.863834445868552E-1
 1.000515422905000E+10  -4.998043471999029E-1    7.730935299426923E-3   -1.348279104640878E-4   -6.239699163148754E-4   -9.152787800368189E-5   -6.076444890134528E-4   -4.034860517786171E-1    2.867812185193338E-1
 1.000516192740000E+10  -4.998169299213862E-1    8.308416444031203E-3   -1.124526984270831E-4   -6.028889414613550E-4   -1.282555425793867E-4   -6.086321355734835E-4   -4.030794087676670E-1    2.870930975298448E-1
 1.000516962575000E+10  -4.998206069784084E-1    8.872964922228731E-3   -1.045231411663938E-4   -5.549496093106019E-4   -1.028109876656654E-4   -5.902589201747438E-4   -4.029405719401672E-1    2.876655325152642E-1
 1.000517732410000E+10  -4.998245219594760E-1    9.233863671839058E-3   -1.439538907455739E-4   -5.736355923762954E-4   -1.072522628275755E-4   -5.512422834863599E-4   -4.026404755137560E-1    2.880972706780187E-1
 1.000518502245000E+10  -4.998763483132321E-1    9.868798439029514E-3   -1.154510776166392E-4   -5.673568111332788E-4   -8.853190140083288E-5   -5.855706430042678E-4   -4.022411487214863E-1    2.884831946093779E-1
 1.000519272080000E+10  -4.997805232857333E-1    1.034835197817617E-2   -1.254865350182275E-4   -5.828884271992191E-4   -8.805016715313062E-5   -5.716066148174354E-4   -4.019471640203507E-1    2.888321185691350E-1
 1.000520041915000E+10  -4.998474512115653E-1    1.090028259031058E-2   -9.777763722374100E-5   -5.756264727323253E-4   -8.958399904385056E-5   -5.992909811284440E-4   -4.017191743885461E-1    2.894575257842465E-1
 1.000520811750000E+10  -4.998600244067281E-1    1.139243856033742E-2   -1.038392229017410E-4   -5.705442564602016E-4   -8.408709851591507E-5   -5.704424163630670E-4   -4.012701850598167E-1    2.899870806011918E-1
 1.000521581585000E+10  -4.998734782374538E-1    1.188164374949341E-2   -1.048827609458271E-4   -5.715019092027599E-4   -9.167138120893594E-5   -5.560073154537587E-4   -4.010870938208330E-1    2.902514468714242E-1
 1.000522351420000E+10  -4.999923059460352E-1    1.238895644411971E-2   -1.110526192092126E-4   -5.608478941673459E-4   -8.505205692399445E-5   -5.855159031814272E-4   -4.007361910804060E-1    2.907042164616335E-1
 1.000523121255000E+10  -4.998868729104375E-1    1.288176262314193E-2   -1.004728104936575E-4   -5.590091523968241E-4   -7.218395625405428E-5   -5.511361745140296E-4   -4.004893244196018E-1    2.912657938581480E-1
 1.000523891090000E+10  -4.998339480025897E-1    1.340547160057992E-2   -1.184644547987824E-4   -5.424781425295996E-4   -8.773573450137186E-5   -5.409537138198848E-4   -4.001812954308240E-1    2.917890436157367E-1
 1.000524660925000E+10  -4.997936685051622E-1    1.390656934255204E-2   -1.320213212795267E-4   -5.416270938150769E-4   -8.059533358796805E-5   -5.518596432436755E-4   -3.998797551338867E-1    2.920703817913524E-1
 1.000525430760000E+10  -4.998877315741094E-1    1.442060873786405E-2   -6.682921979519656E-5   -5.323163082117072E-4   -9.666227436844018E-5   -5.324124322477581E-4   -3.994944216181893E-1    2.925700717755497E-1
 1.000526200595000E+10  -4.999317732043952E-1    1.487657539160009E-2   -9.522582971129977E-5   -5.325016301646327E-4   -7.726187511215579E-5   -5.224148482117424E-4   -3.991759221072221E-1    2.931244502741156E-1
 1.000526970430000E+10  -4.998619348520060E-1    1.538465196163755E-2   -1.219792730587545E-4   -5.208702099788202E-4   -4.451291906048317E-5   -5.292444690442787E-4   -3.988760939364804E-1    2.935737559621922E-1
 1.000527740265000E+10  -4.998416711284029E-1    1.583998565904520E-2   -1.025453968135499E-4   -5.356783029027429E-4   -3.539618182812273E-5   -5.108445608209503E-4   -3.985416302236848E-1    2.939778222366182E-1
 1.000528510100000E+10  -4.998332906043763E-1    1.627537311942461E-2   -8.190728327597729E-5   -5.102301062765697E-4   -3.073300967577578E-5   -5.328960834369503E-4   -3.982112702930715E-1    2.943303756744369E-1
 1.000529279935000E+10  -4.999110094749202E-1    1.675233405247131E-2   -8.114328529034950E-5   -5.415574529030793E-4   -6.118047206747874E-5   -5.113028232818230E-4   -3.980282433050738E-1    2.949272287878201E-1
 1.000530049770000E+10  -4.998459577916095E-1    1.726519498640556E-2   -5.092338428096276E-5   -5.016507470429349E-4   -7.500273872014759E-5   -4.764130482710647E-4   -3.975694572296196E-1    2.953965960031876E-1
 1.000530819605000E+10  -4.998812009053121E-1    1.797886896633262E-2   -7.358902967530372E-5   -5.022439061148032E-4   -7.853305797776829E-5   -5.114223830012080E-4   -3.974570058465104E-1    2.958683836026582E-1
 1.000531589440000E+10  -4.997790681615344E-1    1.844188220352174E-2   -8.571819415128668E-5   -4.971526247787257E-4   -8.474740175676283E-5   -4.647989582847088E-4   -3.970204129342149E-1    2.963358392925026E-1
 1.000532359275000E+10  -4.999248904800375E-1    1.886156198048262E-2   -7.749550844675483E-5   -4.802271556741804E-4   -5.755201616511008E-5   -4.886683985100578E-4   -3.966079993346203E-1    2.967210706106018E-1
 1.000533129110000E+10  -4.998521097216406E-1    1.941817468166766E-2   -6.405643416734895E-5   -4.923670081538520E-4   -5.447429808110754E-5   -4.785748265487135E-4   -3.962937842644118E-1    2.972366681031692E-1
 1.000533898945000E+10  -4.999138318655111E-1    1.979670133054258E-2   -6.551517410058449E-5   -4.620998836853091E-4   -6.950411163155799E-5   -4.808268809849234E-4   -3.959765929280631E-1    2.977721636403157E-1
 1.000534668780000E+10  -4.998442076293704E-1    2.042235530676429E-2   -5.744277803778487E-5   -5.040934952215708E-4   -7.436194042911258E-5   -4.431539884577738E-4   -3.955738534987682E-1    2.979685394956915E-1
 1.000535438615000E+10  -4.997777685175445E-1    2.082139799049499E-2   -7.486216742117060E-5   -4.534423148691966E-4   -3.101925350774664E-5   -4.441259377263578E-4   -3.952883309090089E-1    2.986322205572272E-1
 1.000536208450000E+10  -4.997303076408118E-1    2.131926255343126E-2   -7.640886130911624E-5   -4.319822963423600E-4   -1.160547860500648E-5   -4.298253928886328E-4   -3.950818263224483E-1    2.990658433654771E-1
 1.000536978285000E+10  -4.998279159569312E-1    2.188837861278460E-2   -5.257162122580664E-5   -4.321280831231404E-4   -4.184182979108737E-5   -4.706097524730699E-4   -3.946212150350017E-1    2.996533746558930E-1
 1.000537748120000E+10  -4.996931670295532E-1    2.229282502269552E-2   -6.211736208833904E-5   -4.700517483576287E-4   -3.756721623132813E-5   -4.162733490531503E-4   -3.943143946942842E-1    3.000901991470035E-1
 1.000538517955000E+10  -4.999088496049194E-1    2.283940375850344E-2   -6.252101407082154E-5   -4.277365284224265E-4   -1.903078895782426E-5   -4.313155688986117E-4   -3.939627299896251E-1    3.004928846213555E-1
 1.000539287790000E+10  -5.000200625858234E-1    2.339486309397567E-2   -3.236106849130795E-5   -4.322517235177323E-4   -5.101254132812105E-5   -4.362545136250653E-4   -3.936653009596150E-1    3.009647821594547E-1
 1.000540057625000E+10  -4.998821427230551E-1    2.388375675590497E-2   -4.262596302594852E-5   -4.316674498274705E-4   -3.115823238894740E-5   -4.367887493782727E-4   -3.932837151279696E-1    3.013405774802601E-1
 1.000540827460000E+10  -4.998029538351914E-1    2.434435443437424E-2   -3.132155025585136E-5   -4.314523109637265E-4   -3.226095395057414E-5   -4.151067425377428E-4   -3.929822389685352E-1    3.019082155279298E-1
 1.000541597295000E+10  -4.997394344021058E-1    2.477424537104928E-2   -1.064682829355810E-5   -3.867370599668953E-4   -5.342376366325549E-6   -4.159844819583087E-4   -3.925990702586812E-1    3.021931950922688E-1
 1.000542367130000E+10  -4.997656500117394E-1    2.524482226816844E-2    5.306004069127993E-7   -4.370237262033591E-4   -2.993681729716336E-5   -4.083279150944181E-4   -3.923340013051709E-1    3.026872682756312E-1
 1.000543136965000E+10  -4.997991768165475E-1    2.593877260390943E-2   -4.034488602050546E-5   -4.273953294587480E-4   -8.090547261293527E-6   -3.714285904390364E-4   -3.920261907754657E-1    3.033496958105827E-1
 1.000543906800000E+10  -4.997686234217059E-1    2.645234465849820E-2   -1.685824292591979E-5   -4.232891176056275E-4    3.436492219908635E-6   -3.736267073359632E-4   -3.914902838522371E-1    3.037018724641106E-1
 1.000544676635000E+10  -4.999168560251805E-1    2.678816672370975E-2   -1.348890266901955E-6   -3.849560529513553E-4    7.466292693413286E-6   -3.421202424582908E-4   -3.912029232259067E-1    3.042867049764567E-1
 1.000545446470000E+10  -4.998356070253270E-1    2.730092832733536E-2    3.510025091208178E-6   -3.651869584178438E-4    3.401393592386636E-5   -3.665720722967597E-4   -3.908932781495267E-1    3.046257943406279E-1
 1.000546216305000E+10  -4.997312366408991E-1    2.777054956631142E-2    1.736522305587444E-6   -3.619789652791404E-4   -5.341463471232361E-6   -3.885239211218341E-4   -3.905653665030701E-1    3.050721687609350E-1
 1.000546986140000E+10  -4.997103508018226E-1    2.821748680627507E-2    1.863337428282902E-5   -3.162923676822470E-4    2.710107277827071E-5   -3.698434523749859E-4   -3.901958584667338E-1    3.055969620244676E-1
 1.000547755975000E+10  -4.996713966778790E-1    2.886347114940561E-2    2.034212793458972E-5   -3.634284418748431E-4    2.650569163418079E-5   -3.490459602863330E-4   -3.899193903586300E-1    3.060366299803215E-1
 1.000548525810000E+10  -4.997149635618735E-1    2.941937119489365E-2    4.651251523077014E-5   -3.628883933399893E-4    4.543807091828677E-5   -3.052611474644767E-4   -3.894737748889885E-1    3.063705206833721E-1
 1.000549295645000E+10  -4.997548221888867E-1    2.993766583745629E-2    1.042765335484987E-5   -3.256566553104307E-4    3.375592511175468E-5   -3.437617961431803E-4   -3.892644132644385E-1    3.070415292816143E-1
 1.000550065480000E+10  -4.996321073837034E-1    3.027649499155849E-2    5.176816860926445E-5   -3.065844531429520E-4    4.407120931369672E-5   -3.314485240749310E-4   -3.887473004046267E-1    3.073636029353239E-1
 1.000550835315000E+10  -4.996778105064617E-1    3.083722440690109E-2    4.301168603532173E-5   -2.929422820893301E-4    3.073626245116733E-5   -2.781587350913053E-4   -3.885065503960546E-1    3.079821559707291E-1
 1.000551605150000E+10  -4.997476603541036E-1    3.122125250663504E-2    2.387657167327522E-5   -3.133236841746028E-4    5.613399757217901E-5   -2.894642740581379E-4   -3.880270588113495E-1    3.084858665774709E-1
