#  HZ   S   RI   R     50.00 
! Rohde & Schwarz Vector Network Analyzer 
! Rohde-Schwarz,ZNB20-2Port,1311601062101988,3.16
! Created: UTC 3/20/2024, 11:53:12 AM
! freq[Hz]                re:S11                  im:S11                  re:S21                  im:S21                  re:S12                  im:S12                  re:S22                  im:S22
 1.000484162700000E+10  -4.992368268010837E-1   -1.256357653854829E-2   -1.821143857657255E-4   -7.585740783432485E-4   -1.551996117307567E-4   -7.623824654484254E-4   -4.149230454423082E-1    2.683003112225438E-1
 1.000484923497500E+10  -4.992034422779518E-1   -1.181018357544647E-2   -1.604906444617568E-4   -7.395903857318821E-4   -1.345022048124963E-4   -7.685918490770376E-4   -4.146031131304291E-1    2.686470361984944E-1
 1.000485684295000E+10  -4.992130998370956E-1   -1.146731591775464E-2   -1.702186707945410E-4   -7.586580867487289E-4   -1.371202901823876E-4   -7.361958070747768E-4   -4.142856613880603E-1    2.691869669392293E-1
 1.000486445092500E+10  -4.991964107802951E-1   -1.106163173403506E-2   -1.639222842433632E-4   -7.412779823780717E-4   -1.363922224631606E-4   -7.286657790819482E-4   -4.140442269676323E-1    2.696960778178886E-1
 1.000487205890000E+10  -4.992210418666861E-1   -1.055944751824441E-2   -1.923607781777861E-4   -7.413958444189603E-4   -1.490983287854066E-4   -7.460723138690746E-4   -4.138374940219714E-1    2.700181126592393E-1
 1.000487966687500E+10  -4.993584137694289E-1   -1.003615503009679E-2   -1.605545243571238E-4   -7.410125431707938E-4   -1.331710789253261E-4   -7.529852237883615E-4   -4.133782122564877E-1    2.704685897000875E-1
 1.000488727485000E+10  -4.991565435364534E-1   -9.634207189311839E-3   -1.877031754892674E-4   -7.296380511383861E-4   -1.393330515754026E-4   -7.292980651273989E-4   -4.132188206037296E-1    2.710613631804845E-1
 1.000489488282500E+10  -4.993633509722389E-1   -8.988210589823690E-3   -1.835462225218389E-4   -7.415008949219574E-4   -1.257125103269839E-4   -7.274881437133293E-4   -4.129360902591864E-1    2.714532184358058E-1
 1.000490249080000E+10  -4.992961901012703E-1   -8.500904511159566E-3   -1.680249705392261E-4   -7.329750723894430E-4   -1.126342587264555E-4   -7.254174236899587E-4   -4.127823280602338E-1    2.718224613955587E-1
 1.000491009877500E+10  -4.992760201141447E-1   -8.009113662341014E-3   -1.720499257080692E-4   -7.466352569538367E-4   -1.278893495583951E-4   -7.054983744244237E-4   -4.123607733285145E-1    2.722225326146167E-1
 1.000491770675000E+10  -4.994389630783287E-1   -7.381093677916318E-3   -1.624363695424578E-4   -7.500557006721188E-4   -1.286957517939798E-4   -7.161617962064268E-4   -4.122373745549835E-1    2.727708085576215E-1
 1.000492531472500E+10  -4.993748685811683E-1   -7.139941039168352E-3   -1.591888440029795E-4   -7.054096822160133E-4   -1.137644444008555E-4   -7.100197893564016E-4   -4.119102177544370E-1    2.732795494182050E-1
 1.000493292270000E+10  -4.994020653064554E-1   -6.536930291161792E-3   -1.658330219322201E-4   -7.286667498262921E-4   -1.295488343795622E-4   -7.207253681541263E-4   -4.116060830571645E-1    2.736953236755372E-1
 1.000494053067500E+10  -4.993652660802886E-1   -6.054883090156652E-3   -1.577516877425665E-4   -7.238385363531046E-4   -1.252520827849021E-4   -7.122575958410099E-4   -4.112868411405675E-1    2.741150539601654E-1
 1.000494813865000E+10  -4.994249431538460E-1   -5.572561529663979E-3   -1.631537238821575E-4   -7.357394664366664E-4   -1.337819530864509E-4   -6.957971558690737E-4   -4.110110239706045E-1    2.745742419183575E-1
 1.000495574662500E+10  -4.995670190357911E-1   -5.167615753922297E-3   -1.747120114702644E-4   -6.989515283150796E-4   -1.241283009627826E-4   -6.925169857866122E-4   -4.108155039164111E-1    2.750098210494669E-1
 1.000496335460000E+10  -4.995111931024584E-1   -4.582005469323546E-3   -1.596615978506688E-4   -6.832052139572979E-4   -1.290261289610138E-4   -6.970172614771309E-4   -4.105283158280876E-1    2.755039229510812E-1
 1.000497096257500E+10  -4.993236996272400E-1   -4.037341851309995E-3   -1.613838970796339E-4   -6.630379654182431E-4   -1.384288541812816E-4   -7.117451600187871E-4   -4.102374004595599E-1    2.760340824097775E-1
 1.000497857055000E+10  -4.995784289156529E-1   -3.666711432481066E-3   -1.401836697291102E-4   -7.036147261712249E-4   -1.394459978199009E-4   -6.955557958663245E-4   -4.099669470273958E-1    2.763007567498370E-1
 1.000498617852500E+10  -4.996126692657107E-1   -2.968045424620805E-3   -1.749129988666758E-4   -7.157539050512793E-4   -1.291162245640766E-4   -7.081323504603811E-4   -4.097393944698095E-1    2.768794883541095E-1
 1.000499378650000E+10  -4.996062927170498E-1   -2.591286609915135E-3   -1.368805181244478E-4   -7.014799076076805E-4   -1.184067277045627E-4   -6.921787352431414E-4   -4.094128393987958E-1    2.772441904337590E-1
 1.000500139447500E+10  -4.996026019741079E-1   -2.066173524507891E-3   -1.710615201175657E-4   -6.766330692436050E-4   -1.417741537338249E-4   -7.236916456274962E-4   -4.091586236256733E-1    2.775144232719510E-1
 1.000500900245000E+10  -4.996074765134625E-1   -1.505135805581591E-3   -1.539955626713110E-4   -7.004125818078743E-4   -1.360568982111244E-4   -6.905217596844119E-4   -4.089875796238995E-1    2.781863384912669E-1
 1.000501661042500E+10  -4.996473580485940E-1   -1.134501575219093E-3   -1.513721177446448E-4   -6.686195306831444E-4   -1.288878392450094E-4   -6.757433239589053E-4   -4.086630783677839E-1    2.785007131985175E-1
 1.000502421840000E+10  -4.996692296129827E-1   -6.063209077092272E-4   -1.923890576462442E-4   -6.872422650444296E-4   -1.270301199338163E-4   -6.722699994255279E-4   -4.082716841247388E-1    2.789399253333472E-1
 1.000503182637500E+10  -4.997167858215312E-1   -1.249124266401686E-4   -1.552034428889005E-4   -6.921852228810061E-4   -1.421254085662369E-4   -7.003435648527514E-4   -4.080207689340798E-1    2.793231373131653E-1
 1.000503943435000E+10  -4.995668798462327E-1    4.424563173070615E-4   -1.683385122360095E-4   -6.655024716481834E-4   -1.181519847976345E-4   -6.691882409984796E-4   -4.078929442531343E-1    2.799642412398463E-1
 1.000504704232500E+10  -4.996518909758110E-1    8.801243829345433E-4   -1.530831712099702E-4   -6.620682756840983E-4   -1.206443958332805E-4   -6.690346025531135E-4   -4.075210013063410E-1    2.804040887976431E-1
 1.000505465030000E+10  -4.996051239826337E-1    1.350060301743196E-3   -1.463099288218340E-4   -6.647016494700811E-4   -9.639425975764077E-5   -6.695142577994621E-4   -4.072451178744347E-1    2.808978544918007E-1
 1.000506225827500E+10  -4.995432228192281E-1    1.843221987199665E-3   -1.462601377845830E-4   -6.607963195664661E-4   -1.113477051282976E-4   -6.410002126515700E-4   -4.070590672187836E-1    2.812556647180238E-1
 1.000506986625000E+10  -4.996882148487641E-1    2.418608880906447E-3   -1.677594674914074E-4   -6.207445640656895E-4   -1.129551622250125E-4   -6.609531927952416E-4   -4.066010520101305E-1    2.817529838277124E-1
 1.000507747422500E+10  -4.996143267782432E-1    2.912729995479129E-3   -1.249295647304606E-4   -6.364882246450174E-4   -1.390042722615890E-4   -6.404895186874652E-4   -4.062916265872419E-1    2.821525850924158E-1
 1.000508508220000E+10  -4.997356487187629E-1    3.377516689212989E-3   -1.501035515641569E-4   -6.552405571017559E-4   -1.142268504147787E-4   -6.429647806567200E-4   -4.062025350520096E-1    2.825845413279943E-1
 1.000509269017500E+10  -4.997830058893590E-1    3.838446065015917E-3   -1.135863076581206E-4   -6.426801479450119E-4   -1.162041099687909E-4   -6.389381675688042E-4   -4.057770934265550E-1    2.830771435106003E-1
 1.000510029815000E+10  -4.996729410019045E-1    4.436599994822419E-3   -1.526449118748644E-4   -6.552411764792720E-4   -1.082251670382813E-4   -6.540333020909820E-4   -4.056599146674228E-1    2.835724764774918E-1
 1.000510790612500E+10  -4.997675988194490E-1    4.813970079230901E-3   -1.445359408744408E-4   -6.325468273995262E-4   -1.368968372201658E-4   -5.972320100652159E-4   -4.053177382726131E-1    2.839639225075906E-1
 1.000511551410000E+10  -4.998800143330671E-1    5.384290280171910E-3   -1.346960306668458E-4   -6.052073016051214E-4   -1.145085053692699E-4   -6.178723353444909E-4   -4.048491661031538E-1    2.843860232888291E-1
 1.000512312207500E+10  -4.997448145930059E-1    5.855068243090098E-3   -1.403389160872714E-4   -6.522391095401828E-4   -1.011373593173918E-4   -6.014085108155799E-4   -4.047264341760403E-1    2.848512283890114E-1
 1.000513073005000E+10  -4.996802144299416E-1    6.358449990059186E-3   -1.324873164360339E-4   -6.446745541098719E-4   -8.490308248836257E-5   -6.059092444052475E-4   -4.043115627362778E-1    2.853324876578612E-1
 1.000513833802500E+10  -4.998115678678978E-1    6.862663694127967E-3   -1.261987288701556E-4   -6.287956285903189E-4   -1.088948265419303E-4   -6.082842061628413E-4   -4.040911730614096E-1    2.858990460607565E-1
 1.000514594600000E+10  -4.998926412886373E-1    7.354527364340455E-3   -1.254664194437769E-4   -6.248047005317745E-4   -1.189360191013935E-4   -6.104707075047996E-4   -4.037547812585026E-1    2.862455154379010E-1
 1.000515355397500E+10  -4.997205874479314E-1    7.840604087091703E-3   -1.105237332546087E-4   -5.964907770959158E-4   -1.174536762944978E-4   -5.731512497850743E-4   -4.034260054310249E-1    2.864523744498262E-1
 1.000516116195000E+10  -4.998063110081187E-1    8.095726446627488E-3   -1.398593914644390E-4   -6.122833803453142E-4   -1.139652896179216E-4   -5.860161175270137E-4   -4.031444569911770E-1    2.871212568915764E-1
 1.000516876992500E+10  -4.998157941813165E-1    8.910450446259384E-3   -1.277274129505463E-4   -6.017314152651496E-4   -9.280497094630090E-5   -5.783883779394012E-4   -4.028093047789327E-1    2.877107557101044E-1
 1.000517637790000E+10  -4.997609854646681E-1    9.281477110838930E-3   -1.248671929136000E-4   -5.657691527849870E-4   -9.612414934538928E-5   -5.964055108991088E-4   -4.026160024957444E-1    2.880317520171176E-1
 1.000518398587500E+10  -4.999886535327311E-1    9.854133827409883E-3   -1.078863680514523E-4   -5.844798932469524E-4   -9.804693086756287E-5   -5.822126672266665E-4   -4.023176714886695E-1    2.885085084607274E-1
 1.000519159385000E+10  -4.997820204050694E-1    1.033396614428432E-2   -1.170183709207793E-4   -5.793082897106651E-4   -9.129515320772708E-5   -5.792715170276998E-4   -4.019993834193416E-1    2.889411765966661E-1
 1.000519920182500E+10  -4.997561881924427E-1    1.074130933752493E-2   -1.096834860604944E-4   -5.626450709515824E-4   -7.397796564265946E-5   -5.727717903085775E-4   -4.017110793975274E-1    2.894900635877548E-1
 1.000520680980000E+10  -4.997316485273343E-1    1.122609217248583E-2   -1.164424565468287E-4   -5.594708405804921E-4   -9.887241358383024E-5   -5.658717775524850E-4   -4.013330406518707E-1    2.899633992643462E-1
 1.000521441777500E+10  -5.000108251518659E-1    1.180993555844571E-2   -1.125772932607456E-4   -5.732257626327835E-4   -9.927114428910197E-5   -5.494750237953236E-4   -4.011345368915989E-1    2.903014830669264E-1
 1.000522202575000E+10  -4.997943308951044E-1    1.215767434285803E-2   -8.916548100767503E-5   -5.378119575716022E-4   -6.943082453131848E-5   -5.615490339709447E-4   -4.007370572782821E-1    2.908284225985635E-1
 1.000522963372500E+10  -4.998930881937043E-1    1.279502685323358E-2   -1.144150395282859E-4   -5.504575813662508E-4   -8.204627627205921E-5   -5.552946899498467E-4   -4.004817252645585E-1    2.912101020906480E-1
 1.000523724170000E+10  -4.998384538097752E-1    1.323933372932548E-2   -1.124032327789052E-4   -5.553234645769436E-4   -9.057131023873597E-5   -5.501823692882046E-4   -4.001824367720621E-1    2.916790476066501E-1
 1.000524484967500E+10  -4.999557305071458E-1    1.370195313458861E-2   -1.148699663377342E-4   -5.362182780002653E-4   -8.211018259764806E-5   -5.381353269222040E-4   -3.997812045834996E-1    2.920586595073656E-1
 1.000525245765000E+10  -4.997164163874915E-1    1.422777529154464E-2   -1.253804320140205E-4   -5.003699406234938E-4   -6.954210908800848E-5   -5.164209656592457E-4   -3.995529353828671E-1    2.925187066609062E-1
 1.000526006562500E+10  -4.999133181056765E-1    1.466557525764903E-2   -7.215504971543068E-5   -5.192487627511821E-4   -6.843475449847543E-5   -5.294864418772017E-4   -3.992005411897186E-1    2.930345537859607E-1
 1.000526767360000E+10  -4.998798779958722E-1    1.534905304055162E-2   -7.442247977333102E-5   -5.203265052882249E-4   -6.618530486690885E-5   -5.178288348384121E-4   -3.989773465259134E-1    2.933640880860943E-1
 1.000527528157500E+10  -4.999015432727619E-1    1.563447401440981E-2   -9.845071926642517E-5   -5.408898075018262E-4   -7.481525349471430E-5   -5.285295852851536E-4   -3.986575058055482E-1    2.939927878564818E-1
 1.000528288955000E+10  -4.998553718616766E-1    1.612076485141862E-2   -1.006901982421215E-4   -5.184660743958450E-4   -7.908375256251250E-5   -4.908769274134747E-4   -3.985228802421348E-1    2.944940717127523E-1
 1.000529049752500E+10  -4.997719216076787E-1    1.672410136234618E-2   -1.180667291825161E-4   -5.120418208503879E-4   -5.283065791805336E-5   -5.053355246930889E-4   -3.980614799614849E-1    2.949562831348738E-1
 1.000529810550000E+10  -4.999220364264230E-1    1.726476657029868E-2   -9.871502661244424E-5   -4.823119598085110E-4   -7.359759018725313E-5   -4.913602990531966E-4   -3.976556167039706E-1    2.952135055899423E-1
 1.000530571347500E+10  -4.997906165031276E-1    1.760819328991256E-2   -8.383432459561942E-5   -5.313265467079490E-4   -6.339548673221039E-5   -4.816625325842418E-4   -3.974656322037155E-1    2.957579235672226E-1
 1.000531332145000E+10  -4.998380843598644E-1    1.804734864826034E-2   -9.725109717403624E-5   -4.822330830920315E-4   -3.077405693849028E-5   -4.473807987323648E-4   -3.971364584120314E-1    2.961732131411027E-1
 1.000532092942500E+10  -4.998681045490501E-1    1.872108688723409E-2   -8.677927299568546E-5   -5.148917273456617E-4   -6.446401510805554E-5   -5.087878782763258E-4   -3.967864916831521E-1    2.967209985142645E-1
 1.000532853740000E+10  -4.998216407415504E-1    1.921447013631198E-2   -6.962130202153425E-5   -4.776939005399104E-4   -5.840480995566305E-5   -4.596260315431403E-4   -3.962634542736349E-1    2.970602752610693E-1
 1.000533614537500E+10  -4.999116524374406E-1    1.962241768522167E-2   -7.607371637466879E-5   -4.898488511087453E-4   -5.040328596781431E-5   -4.730180708441298E-4   -3.962257561835110E-1    2.975711524314797E-1
 1.000534375335000E+10  -5.000049811741156E-1    2.011606921316436E-2   -8.133145741169863E-5   -4.753978449872318E-4   -3.131872669237408E-5   -4.745915763402202E-4   -3.958811237911758E-1    2.980824093236130E-1
 1.000535136132500E+10  -4.999203420932636E-1    2.071942425633076E-2   -8.011697406658064E-5   -4.715752925883646E-4   -2.642919358900167E-5   -4.503991855907643E-4   -3.955260586460997E-1    2.984713933611058E-1
 1.000535896930000E+10  -4.999009432518526E-1    2.113015307063282E-2   -6.528486028973000E-5   -4.941134342017601E-4   -2.413574368655569E-5   -4.597886159123638E-4   -3.950442652617482E-1    2.989624642486414E-1
 1.000536657727500E+10  -4.999567912344957E-1    2.167451951227127E-2   -5.250757152213831E-5   -4.544711844817704E-4   -3.673277170208469E-6   -4.463481465689306E-4   -3.949343675465225E-1    2.992555123234556E-1
 1.000537418525000E+10  -4.998124696289084E-1    2.216363599083679E-2   -4.084551255439725E-5   -4.530345546322118E-4   -2.327641070095857E-5   -4.320637395371167E-4   -3.943959623090738E-1    2.997810867184837E-1
 1.000538179322500E+10  -4.998552732327883E-1    2.262205882360836E-2   -5.246781676444391E-5   -4.186228511675018E-4   -3.931919476306321E-5   -4.253447131786850E-4   -3.940606500709429E-1    3.004298472205845E-1
 1.000538940120000E+10  -4.997824312474319E-1    2.315270048933284E-2   -5.375097654842891E-5   -4.437406026917450E-4   -4.373948339776526E-5   -4.001630090748167E-4   -3.938821258265133E-1    3.006052841129443E-1
 1.000539700917500E+10  -4.998088618025885E-1    2.363089245226682E-2   -4.471825212674690E-5   -4.452953482126946E-4    6.432158365536733E-6   -4.355459522128388E-4   -3.935410454792614E-1    3.011694921537879E-1
 1.000540461715000E+10  -4.997651115209513E-1    2.401517737846749E-2   -3.413270697556161E-5   -3.987850697365518E-4    2.524099793210134E-5   -4.078034653139381E-4   -3.930174601525629E-1    3.015683016043099E-1
 1.000541222512500E+10  -4.999047153450233E-1    2.452024562745415E-2   -4.946096835030773E-5   -4.020345770309720E-4   -8.787156017500515E-6   -4.049431010689732E-4   -3.928871688580537E-1    3.021190262120443E-1
 1.000541983310000E+10  -4.998371402432308E-1    2.506753544381444E-2   -3.854425991454698E-5   -4.070376777286243E-4   -3.261896401930846E-5   -3.829981802280603E-4   -3.925583886017815E-1    3.026426395445807E-1
 1.000542744107500E+10  -4.998048193076204E-1    2.554871510620306E-2   -3.079585407039750E-5   -3.794795377004796E-4   -2.716428088650178E-6   -4.160653488220363E-4   -3.922308395662754E-1    3.030257455005884E-1
 1.000543504905000E+10  -4.998787102696193E-1    2.601556231187651E-2   -5.593000573698890E-7   -3.854848990778571E-4   -5.020190614339241E-6   -3.837960469700782E-4   -3.919702269335216E-1    3.034288936107143E-1
 1.000544265702500E+10  -4.998904411419197E-1    2.651314036946638E-2    8.912210638068699E-6   -3.782084965038457E-4    3.096975225603517E-5   -3.640596524478873E-4   -3.914506294526281E-1    3.040329634499487E-1
 1.000545026500000E+10  -4.997512159662724E-1    2.702146221704164E-2   -1.301803080088415E-5   -3.883743255301013E-4    2.454837152693188E-5   -3.701008195833419E-4   -3.911758613139625E-1    3.044360014090811E-1
 1.000545787297500E+10  -4.997325903760113E-1    2.752668947420342E-2   -8.364339555968770E-6   -3.596588708411601E-4    8.361293160697759E-6   -3.885607058818410E-4   -3.906949938418456E-1    3.048228383311371E-1
 1.000546548095000E+10  -4.998266266446027E-1    2.809972228472436E-2    1.954853061415498E-6   -3.509236576671423E-4    9.688714389920478E-6   -3.279373268564625E-4   -3.905332803245039E-1    3.052626386164204E-1
 1.000547308892500E+10  -4.998143662740000E-1    2.851703135326062E-2    2.362446165149326E-5   -3.532367947105544E-4    2.753056413790999E-5   -3.696242143882419E-4   -3.900607952844562E-1    3.059584586433778E-1
 1.000548069690000E+10  -4.996895848978978E-1    2.898463203216109E-2    1.020109694939891E-5   -3.271182814321004E-4    3.753573636529322E-5   -3.433951735043979E-4   -3.897400364989941E-1    3.061766549235300E-1
 1.000548830487500E+10  -4.997066096958536E-1    2.947213151766780E-2    2.833295122827161E-5   -3.433042814510083E-4    3.559134644813534E-5   -3.083701377690252E-4   -3.893890724638878E-1    3.068285956987512E-1
 1.000549591285000E+10  -4.997113695045229E-1    3.013898969768347E-2    1.080129778982010E-5   -3.374255640239207E-4    6.696896732073275E-5   -3.352975572206918E-4   -3.890257596630163E-1    3.070818826193829E-1
 1.000550352082500E+10  -4.996265843452558E-1    3.057247845477007E-2    2.416651702181105E-5   -3.061593748373453E-4    4.519145100715926E-5   -3.101427614073398E-4   -3.887122580072149E-1    3.075083557664427E-1
 1.000551112880000E+10  -4.996834625751114E-1    3.101521659952350E-2    3.880958770514705E-5   -3.129713167893847E-4    5.537297056499867E-5   -2.985433445767047E-4   -3.882807658601291E-1    3.080546635388539E-1
 1.000551873677500E+10  -4.995919379649661E-1    3.143521214135918E-2    4.710791259153570E-5   -2.999375411887676E-4    7.916812507329528E-5   -3.150771267102695E-4   -3.879322046150138E-1    3.086186327412573E-1
 1.000552634475000E+10  -4.996786291999666E-1    3.199921548354243E-2    3.798280464889352E-5   -2.866907713330041E-4    6.856476463570316E-5   -3.008708946858775E-4   -3.876577972775732E-1    3.090275887980143E-1
