#  HZ   S   RI   R     50.00 
! Rohde & Schwarz Vector Network Analyzer 
! Rohde-Schwarz,ZNB20-2Port,1311601062101988,3.16
! Created: UTC 3/20/2024, 11:53:40 AM
! freq[Hz]                re:S11                  im:S11                  re:S21                  im:S21                  re:S12                  im:S12                  re:S22                  im:S22
 1.000489684800000E+10  -4.992184489938476E-1   -8.986123714059475E-3   -1.780711697032700E-4   -7.204707235034843E-4   -1.426118265803718E-4   -7.532135283823992E-4   -4.129288141233705E-1    2.714988356964968E-1
 1.000490422172500E+10  -4.993451821118046E-1   -8.537186240954493E-3   -1.899195740758101E-4   -7.076332669604987E-4   -1.490761283257311E-4   -7.168098696391811E-4   -4.127716113006222E-1    2.718181830860998E-1
 1.000491159545000E+10  -4.993183512892365E-1   -7.963546463374606E-3   -1.742484936348780E-4   -7.443063170046977E-4   -1.200235050789415E-4   -7.507837328825084E-4   -4.124281687818165E-1    2.723809718384810E-1
 1.000491896917500E+10  -4.993423111812890E-1   -7.423766827015000E-3   -1.970524974005184E-4   -7.275924221704420E-4   -1.453705484763709E-4   -7.195342650790669E-4   -4.121542761083047E-1    2.727554795544138E-1
 1.000492634290000E+10  -4.993513328655653E-1   -7.217870445571256E-3   -1.798857714933672E-4   -7.348840788977707E-4   -1.344833217861066E-4   -7.147816463220226E-4   -4.117844890300323E-1    2.732375780305230E-1
 1.000493371662500E+10  -4.993359696953243E-1   -6.450537062935620E-3   -2.037634566486150E-4   -6.856824916748246E-4   -1.687624859366582E-4   -7.435341361214526E-4   -4.115977733076273E-1    2.737983766391511E-1
 1.000494109035000E+10  -4.993720646141522E-1   -6.012514453936067E-3   -1.769913259617214E-4   -6.900255725063112E-4   -1.503731340321111E-4   -7.190333773211181E-4   -4.114971751123803E-1    2.739001931822012E-1
 1.000494846407500E+10  -4.994825514197574E-1   -5.501180863050708E-3   -1.899326647200461E-4   -7.017254017539529E-4   -1.367006343372186E-4   -7.290270371945858E-4   -4.111477269811730E-1    2.744871067705155E-1
 1.000495583780000E+10  -4.993721192938526E-1   -5.046026562730696E-3   -1.862508906740136E-4   -6.850566282649617E-4   -1.608284555748080E-4   -7.058030035698100E-4   -4.107729744639571E-1    2.749020642576296E-1
 1.000496321152500E+10  -4.994471411088879E-1   -4.631445587128761E-3   -1.873641887724593E-4   -7.199244872061859E-4   -1.483598760019036E-4   -7.106378552228251E-4   -4.106786719378468E-1    2.753820066908406E-1
 1.000497058525000E+10  -4.994793710989987E-1   -4.183719452329942E-3   -1.648267778627528E-4   -6.870340505474014E-4   -1.263932084589311E-4   -7.028378229657007E-4   -4.104953258266608E-1    2.756448655928908E-1
 1.000497795897500E+10  -4.995672400906487E-1   -3.799361970980740E-3   -1.702430056676240E-4   -7.005597956866603E-4   -1.365641911747084E-4   -6.974896427303615E-4   -4.101916229178468E-1    2.763344939927151E-1
 1.000498533270000E+10  -4.994832921823854E-1   -3.162072524314065E-3   -1.821028125012823E-4   -7.219529202292257E-4   -1.303388027591391E-4   -6.959844547714300E-4   -4.097323109078791E-1    2.767031704423746E-1
 1.000499270642500E+10  -4.995345986295242E-1   -2.750716023620301E-3   -1.768280955956184E-4   -6.949688963477099E-4   -1.129012780197303E-4   -7.117872811926346E-4   -4.096494751720705E-1    2.769449674488155E-1
 1.000500008015000E+10  -4.995435551333866E-1   -2.139695629308548E-3   -1.510406307326232E-4   -7.040669568611505E-4   -1.250542836647286E-4   -6.889903942620947E-4   -4.093212765918605E-1    2.774865236332724E-1
 1.000500745387500E+10  -4.996403230312614E-1   -1.676932318814247E-3   -1.818193637189719E-4   -6.554211765410121E-4   -1.533200580714119E-4   -7.002413171022500E-4   -4.089360256594547E-1    2.779259986722160E-1
 1.000501482760000E+10  -4.996508577536529E-1   -1.183395446757985E-3   -1.413518248084084E-4   -6.829364429372290E-4   -1.460757316237561E-4   -7.020949002740005E-4   -4.087003216237649E-1    2.784468473630924E-1
 1.000502220132500E+10  -4.996105375037326E-1   -8.879880480708443E-4   -1.696297797382818E-4   -6.878139736879840E-4   -1.229428672564245E-4   -6.731272711248705E-4   -4.085319823904877E-1    2.788406590217450E-1
 1.000502957505000E+10  -4.996116525849634E-1   -3.528012092361737E-4   -1.601703143452012E-4   -6.559235404124209E-4   -1.055844729550135E-4   -6.829505138032946E-4   -4.081987502918270E-1    2.793274151399210E-1
 1.000503694877500E+10  -4.996824997077793E-1    2.890419591638927E-4   -1.688447472213575E-4   -7.011965036705761E-4   -1.293363003807146E-4   -6.527779739574991E-4   -4.079054650115423E-1    2.797110301841399E-1
 1.000504432250000E+10  -4.995434869308929E-1    6.244329127781429E-4   -1.512321986284719E-4   -6.692276886174483E-4   -1.219242166823396E-4   -6.621212943052626E-4   -4.078061917776389E-1    2.801978959137427E-1
 1.000505169622500E+10  -4.997374617462295E-1    1.077360656679365E-3   -1.506064081726920E-4   -6.636657043071647E-4   -1.313240997077107E-4   -6.634339634405064E-4   -4.073811309435645E-1    2.804980171010612E-1
 1.000505906995000E+10  -4.996147813012085E-1    1.601923782309927E-3   -1.732982589846482E-4   -6.723973671992890E-4   -1.229192463163842E-4   -6.365500796583894E-4   -4.071743122569884E-1    2.810282874896586E-1
 1.000506644367500E+10  -4.997173277512973E-1    2.123338063505554E-3   -1.380196095625469E-4   -6.487326102650367E-4   -1.398116772593526E-4   -6.892334218232530E-4   -4.068418416376242E-1    2.814929366304817E-1
 1.000507381740000E+10  -4.996127420573095E-1    2.526473784628292E-3   -1.536401701230434E-4   -6.611829427764519E-4   -1.264289939539821E-4   -6.301748856424129E-4   -4.066105677147411E-1    2.818872451949440E-1
 1.000508119112500E+10  -4.998215999263588E-1    3.039439599268483E-3   -1.672334155235851E-4   -6.521490456537398E-4   -1.235346531966431E-4   -6.312320901194112E-4   -4.063863675216964E-1    2.822492657496781E-1
 1.000508856485000E+10  -4.996807328352602E-1    3.423580547079167E-3   -1.543286282655674E-4   -6.590543210229747E-4   -1.264463015636775E-4   -6.604899597252976E-4   -4.058732308420329E-1    2.828114947754680E-1
 1.000509593857500E+10  -4.997821565628505E-1    4.167691364210565E-3   -1.496732520826044E-4   -6.227043723668501E-4   -1.286062478812488E-4   -6.682745585828864E-4   -4.057905139409326E-1    2.831871437050268E-1
 1.000510331230000E+10  -4.997636257766558E-1    4.556586083478260E-3   -1.456032268094679E-4   -6.210388746992813E-4   -1.271450904000411E-4   -6.231845218752336E-4   -4.054008763509296E-1    2.837149590428009E-1
 1.000511068602500E+10  -4.996918362997981E-1    5.078679267706600E-3   -1.597634633102599E-4   -6.276756995062634E-4   -9.732172993107280E-5   -6.272105479533159E-4   -4.052562084757957E-1    2.840812193877217E-1
 1.000511805975000E+10  -4.997420623342930E-1    5.516653494307257E-3   -1.166972923971075E-4   -6.257046124703282E-4   -1.117404859841628E-4   -6.541744118647682E-4   -4.049509844164433E-1    2.845183174204075E-1
 1.000512543347500E+10  -4.996567583715184E-1    6.023598233796613E-3   -1.344546804098773E-4   -6.266062664325825E-4   -1.494557876450606E-4   -6.096378760169303E-4   -4.046423946157997E-1    2.848865834278021E-1
 1.000513280720000E+10  -4.997651936538280E-1    6.559407239847669E-3   -1.432089982492534E-4   -6.281087310614087E-4   -9.739069164814773E-5   -6.325892156479061E-4   -4.043817820246867E-1    2.854066952273638E-1
 1.000514018092500E+10  -4.998801399716034E-1    6.748160721333217E-3   -1.668281871005833E-4   -5.987861843065643E-4   -1.008999055058485E-4   -6.144006232930607E-4   -4.041878468499184E-1    2.857891108346627E-1
 1.000514755465000E+10  -4.998106516502233E-1    7.403876173052071E-3   -1.287508461265476E-4   -6.008848759156840E-4   -8.947559896932984E-5   -5.935755010126726E-4   -4.037539218502919E-1    2.863190708960043E-1
 1.000515492837500E+10  -4.996644246395043E-1    7.793557105223282E-3   -1.618716970694205E-4   -6.218332400403533E-4   -1.066210503515058E-4   -5.932574278833684E-4   -4.034507516786021E-1    2.866763570829843E-1
 1.000516230210000E+10  -4.997810599803065E-1    8.373324999048512E-3   -1.272884796161486E-4   -5.956243432389000E-4   -8.628289980558136E-5   -6.003271707240386E-4   -4.032874365061375E-1    2.870696236925087E-1
 1.000516967582500E+10  -4.998334846486104E-1    8.776019665370165E-3   -1.545451524554565E-4   -6.155370513125632E-4   -1.015278442484498E-4   -5.910716583903021E-4   -4.029628217580242E-1    2.876735292858476E-1
 1.000517704955000E+10  -4.998946216358723E-1    9.480633142222724E-3   -1.208277886955063E-4   -5.691466406917160E-4   -1.065235361731313E-4   -5.901479601392055E-4   -4.026591381899006E-1    2.879678788900468E-1
 1.000518442327500E+10  -4.997434219800067E-1    9.793230565838236E-3   -1.047144027107673E-4   -6.068374778598468E-4   -1.159228624302825E-4   -5.810807436741944E-4   -4.022532696784710E-1    2.883797837737350E-1
 1.000519179700000E+10  -4.998126842473184E-1    1.028247044594186E-2   -1.400945874743429E-4   -5.794977669999120E-4   -8.719034719113254E-5   -5.912330053886349E-4   -4.020345573937305E-1    2.888251072472569E-1
 1.000519917072500E+10  -4.998407523430553E-1    1.070389519396823E-2   -1.082146759158753E-4   -5.859078582726921E-4   -1.185234451756457E-4   -5.681279120683311E-4   -4.017672117598597E-1    2.893236534600913E-1
 1.000520654445000E+10  -4.998052379490147E-1    1.110184588045316E-2   -1.332435910100048E-4   -5.738959553444895E-4   -8.650540931709567E-5   -5.766791454649377E-4   -4.015739097386796E-1    2.898400346706539E-1
 1.000521391817500E+10  -4.998389141790165E-1    1.174587397461881E-2   -1.383972593927657E-4   -5.375457650544367E-4   -8.809814886090485E-5   -5.608619244746253E-4   -4.011916490674904E-1    2.901637180398588E-1
 1.000522129190000E+10  -4.998910435592180E-1    1.226069425927879E-2   -1.287564227924669E-4   -5.741485883209442E-4   -8.752198713865000E-5   -5.757301621209856E-4   -4.009620353936841E-1    2.905042366950508E-1
 1.000522866562500E+10  -4.998537641544502E-1    1.267193901067444E-2   -9.613887102121546E-5   -5.645979565829814E-4   -8.987980239406605E-5   -5.454548006153178E-4   -4.005410659813050E-1    2.910838046676782E-1
 1.000523603935000E+10  -4.998267439061470E-1    1.315802328902702E-2   -1.238962130997602E-4   -5.616065152082926E-4   -6.933248311156873E-5   -5.411699885458224E-4   -4.003966985728654E-1    2.916090822638405E-1
 1.000524341307500E+10  -4.998524742445723E-1    1.370751691074942E-2   -9.330073306364492E-5   -5.795420650318315E-4   -1.002125774447048E-4   -5.539367892812918E-4   -4.000515430970550E-1    2.919245260753074E-1
 1.000525078680000E+10  -4.998700290873113E-1    1.412892097391026E-2   -1.277100610336115E-4   -5.422903238934562E-4   -8.559094692904775E-5   -5.329603944443580E-4   -3.998664720084207E-1    2.922913134038236E-1
 1.000525816052500E+10  -4.998030398347083E-1    1.463504006200585E-2   -1.162202918155682E-4   -5.128262391410886E-4   -7.688186902023525E-5   -5.234813299168843E-4   -3.995916167206571E-1    2.929493533629038E-1
 1.000526553425000E+10  -4.998898450960290E-1    1.502856446451505E-2   -9.174519799216795E-5   -5.125177090678230E-4   -4.936308184801793E-5   -5.374535943717965E-4   -3.991365286294835E-1    2.932369833538611E-1
 1.000527290797500E+10  -4.998398296100778E-1    1.554045130269516E-2   -9.655376754928754E-5   -5.420184159066901E-4   -9.007481963380318E-5   -5.294271624028417E-4   -3.989428720417791E-1    2.936975106467968E-1
 1.000528028170000E+10  -4.998804435405671E-1    1.600804784805905E-2   -1.090749233422509E-4   -5.086960022616912E-4   -7.275357125045620E-5   -5.240835227770277E-4   -3.984869313523446E-1    2.941228846067560E-1
 1.000528765542500E+10  -4.998284680597397E-1    1.639377244351031E-2   -9.202558018206102E-5   -5.417695413592175E-4   -5.063504089193223E-5   -5.052318629442633E-4   -3.983087235734732E-1    2.945164041505114E-1
 1.000529502915000E+10  -4.997522747889679E-1    1.708832333775329E-2   -9.158220359521272E-5   -5.434637132227794E-4   -4.142782831258032E-5   -4.903918707817965E-4   -3.979732762722643E-1    2.951591576256859E-1
 1.000530240287500E+10  -4.998331115876575E-1    1.742296501657047E-2   -9.523069206741569E-5   -5.275684300021811E-4   -6.766339140710977E-5   -4.838614985534810E-4   -3.976583095175081E-1    2.953739931252701E-1
 1.000530977660000E+10  -4.997988058256450E-1    1.786031746658949E-2   -8.159762330497562E-5   -5.185431781354506E-4   -6.856904756244546E-5   -4.978312945117788E-4   -3.973474480532674E-1    2.958816662871135E-1
 1.000531715032500E+10  -4.998452428401420E-1    1.831741926831447E-2   -8.340443197130897E-5   -4.954360371678511E-4   -4.318337468311165E-5   -5.023099233200160E-4   -3.970120916583763E-1    2.962054905245667E-1
 1.000532452405000E+10  -4.999295876322082E-1    1.885118940285699E-2   -7.803121936193110E-5   -4.867068777310771E-4   -9.535634672134960E-5   -4.996177746700851E-4   -3.967055674812021E-1    2.966744129457519E-1
 1.000533189777500E+10  -4.999841556618383E-1    1.930645213497751E-2   -8.475403464731573E-5   -4.771314465663658E-4   -5.280638386241692E-5   -4.969995812895900E-4   -3.963533354672804E-1    2.970995478053962E-1
 1.000533927150000E+10  -4.997863554331001E-1    1.992042971876984E-2   -9.302111067367109E-5   -4.849486116955977E-4   -8.325486703983834E-5   -4.682546162248816E-4   -3.960360541568754E-1    2.976916324756381E-1
 1.000534664522500E+10  -4.999120766839764E-1    2.023184528687091E-2   -5.533684589747224E-5   -4.796650500474667E-4   -3.742168689763134E-5   -4.592484526532319E-4   -3.958103703740781E-1    2.980643062329776E-1
 1.000535401895000E+10  -4.998780161173942E-1    2.084551729123861E-2   -8.262432371652196E-5   -4.571199281506591E-4   -2.812788518277406E-5   -4.718727921261102E-4   -3.957006195034825E-1    2.984435375639651E-1
 1.000536139267500E+10  -4.997725793550580E-1    2.132125710209753E-2   -7.299367834968413E-5   -4.569556508614983E-4   -4.218771419292153E-5   -4.626744871977256E-4   -3.952252408268892E-1    2.989598207129926E-1
 1.000536876640000E+10  -4.998546616332050E-1    2.177652100106197E-2   -6.350238074307402E-5   -4.562044948261866E-4   -4.090894596429623E-5   -4.459265784081702E-4   -3.949021590941023E-1    2.993699644226346E-1
 1.000537614012500E+10  -4.997808076790827E-1    2.227479254564810E-2   -3.880219674680964E-5   -4.486002571750208E-4   -3.938207706573951E-5   -4.647779753477710E-4   -3.944683699695040E-1    2.998447214655054E-1
 1.000538351385000E+10  -4.997970438495301E-1    2.271024921590376E-2   -4.655890418420805E-5   -4.383092584725013E-4   -5.152565756989402E-5   -4.636014304739749E-4   -3.943691122597815E-1    3.004309568336909E-1
 1.000539088757500E+10  -4.998531336335149E-1    2.311193164187270E-2   -4.490702700042387E-5   -4.229856933240650E-4   -2.511151270072658E-5   -4.348312509313816E-4   -3.938463307009213E-1    3.006980142157040E-1
 1.000539826130000E+10  -4.997268343685629E-1    2.376755624575997E-2   -3.053080277184866E-5   -4.098116643002900E-4   -4.195772460318237E-5   -4.369760501114391E-4   -3.935774751627748E-1    3.010890630551595E-1
 1.000540563502500E+10  -4.998819573270489E-1    2.418385285202720E-2   -5.299582996783573E-5   -4.124629814398361E-4   -3.542021059167967E-5   -4.210645689255764E-4   -3.932911461088779E-1    3.016753364895199E-1
 1.000541300875000E+10  -4.997741894437734E-1    2.449070293743591E-2   -2.122402662646173E-5   -4.014758723680989E-4   -3.862689643471517E-5   -4.356743777890680E-4   -3.928523885203453E-1    3.020400611101695E-1
 1.000542038247500E+10  -4.997651506029773E-1    2.527210035693845E-2   -2.672181845003358E-5   -4.233187031529240E-4   -3.452260633480186E-5   -4.063836254602083E-4   -3.925359062495214E-1    3.025521187763001E-1
 1.000542775620000E+10  -4.997538030432286E-1    2.559703593442475E-2   -4.002100868815090E-5   -4.032302124391973E-4   -3.539527743748211E-5   -4.247096667818442E-4   -3.922754074018160E-1    3.028998619823641E-1
 1.000543512992500E+10  -4.996172850398002E-1    2.609448876719084E-2   -2.527394859468402E-5   -4.068631460898177E-4    1.868159162832878E-6   -4.195996600154101E-4   -3.919381007107350E-1    3.035020998748187E-1
 1.000544250365000E+10  -4.997613213641162E-1    2.636789732441382E-2   -1.512527837134425E-5   -3.854477786283821E-4   -2.644846056393549E-5   -3.476539063115162E-4   -3.915908165679191E-1    3.037735224782196E-1
 1.000544987737500E+10  -4.997365128678137E-1    2.701434775751845E-2    1.716803363565371E-5   -4.139987956052218E-4   -1.935308632014817E-5   -3.560380827576605E-4   -3.911952707597558E-1    3.044236040126713E-1
 1.000545725110000E+10  -4.996877784943108E-1    2.747751557833886E-2    1.121571079282132E-5   -3.706217037397397E-4    1.031027496061917E-5   -3.701130061683759E-4   -3.908929245839797E-1    3.047241940919729E-1
 1.000546462482500E+10  -4.996624972006261E-1    2.804116669186313E-2    6.682439060882219E-6   -3.630249147318160E-4   -9.257608425766160E-6   -3.404124400852943E-4   -3.906731027733986E-1    3.052608583554124E-1
 1.000547199855000E+10  -4.996713442473260E-1    2.843267995456673E-2    2.543930899836944E-7   -3.734897930206822E-4    1.974789608136269E-5   -3.656733694987592E-4   -3.902703830236543E-1    3.057025486738930E-1
 1.000547937227500E+10  -4.996662307343709E-1    2.897160860912083E-2    4.396340385105236E-6   -3.625543481513357E-4    3.848454848743374E-6   -3.518928697539925E-4   -3.899409244925189E-1    3.061625195401554E-1
 1.000548674600000E+10  -4.996694218770475E-1    2.943781966371794E-2   -7.564534750346654E-8   -3.520076065564763E-4    9.937635887828260E-6   -3.399086330933315E-4   -3.895806704769190E-1    3.065903472183856E-1
 1.000549411972500E+10  -4.996779329701060E-1    2.984920500925780E-2    1.567987133480671E-6   -3.134676225118786E-4    4.340392583391306E-5   -3.219354014895225E-4   -3.891312875970258E-1    3.070206213734816E-1
 1.000550149345000E+10  -4.995641372394199E-1    3.027732432986567E-2    1.107913668256101E-5   -3.263074532289659E-4    6.095362251803210E-5   -3.419542245856035E-4   -3.888785036987646E-1    3.073555944503999E-1
 1.000550886717500E+10  -4.995911615194137E-1    3.095951883635046E-2    3.028549435349475E-5   -3.074743915027231E-4    3.688179629166088E-5   -3.156486058738661E-4   -3.886213060928291E-1    3.077595690586025E-1
 1.000551624090000E+10  -4.996066696620560E-1    3.129685020922397E-2    1.689113947524311E-5   -3.165224530453163E-4    3.863891234358245E-5   -3.014779525448157E-4   -3.883072504108525E-1    3.083023291504507E-1
 1.000552361462500E+10  -4.995503730059270E-1    3.175899932480405E-2    5.417027241808652E-5   -3.130379167278158E-4    4.509011958612468E-5   -2.977030771326626E-4   -3.878754380562592E-1    3.087424859257870E-1
 1.000553098835000E+10  -4.997692333387202E-1    3.241995817498900E-2    4.459325447608444E-5   -2.832634709015087E-4    4.495124054539953E-5   -3.133438072066510E-4   -3.875609314313274E-1    3.091921790935589E-1
 1.000553836207500E+10  -4.995764169143372E-1    3.280920122154023E-2    5.759126680725121E-5   -2.933905735757384E-4    2.084638606510946E-5   -2.746268992924743E-4   -3.872678474126439E-1    3.096746727328777E-1
 1.000554573580000E+10  -4.995728303280327E-1    3.323376515695892E-2    3.294130779264668E-5   -2.600638789641802E-4    5.868255871840216E-5   -2.587995415328366E-4   -3.868247456496621E-1    3.100717574480342E-1
 1.000555310952500E+10  -4.995915196499479E-1    3.360104659507327E-2    7.220729891530526E-5   -2.540335635791807E-4    6.531733508035177E-5   -2.630974472748264E-4   -3.863054888136609E-1    3.106162013094594E-1
 1.000556048325000E+10  -4.994693203452814E-1    3.421769278645567E-2    8.820835509795058E-5   -2.499588658798198E-4    6.156731999919698E-5   -2.455261965574966E-4   -3.861206334059333E-1    3.109828803016744E-1
