#  HZ   S   RI   R     50.00 
! Rohde & Schwarz Vector Network Analyzer 
! Rohde-Schwarz,ZNB20-2Port,1311601062101988,3.16
! Created: UTC 3/20/2024, 11:53:47 AM
! freq[Hz]                re:S11                  im:S11                  re:S21                  im:S21                  re:S12                  im:S12                  re:S22                  im:S22
 1.000490578700000E+10  -4.993457544992501E-1   -8.362163883581446E-3   -1.831447808155876E-4   -7.355351310942698E-4   -1.121137609599249E-4   -7.398812367838254E-4   -4.126699988320678E-1    2.719815327979365E-1
 1.000491312802500E+10  -4.994460512114364E-1   -7.834299615596084E-3   -1.719336885938746E-4   -6.960595671102032E-4   -1.483281733464365E-4   -7.301165000418589E-4   -4.123605022835109E-1    2.722367196696820E-1
 1.000492046905000E+10  -4.994238238305959E-1   -7.454964172519612E-3   -1.960601965050372E-4   -6.993103937290351E-4   -1.506811602861645E-4   -7.348966512682733E-4   -4.120666491743135E-1    2.729384730606896E-1
 1.000492781007500E+10  -4.992543230351951E-1   -6.861299204218389E-3   -1.694794510423408E-4   -7.328381994428213E-4   -1.305636121859659E-4   -7.181853499341109E-4   -4.119167447196306E-1    2.733871866174509E-1
 1.000493515110000E+10  -4.993164745681317E-1   -6.445198922213476E-3   -1.853795725488999E-4   -7.437134394676835E-4   -1.463704925302334E-4   -7.205161932144548E-4   -4.116729090118368E-1    2.736273111630110E-1
 1.000494249212500E+10  -4.993841162108696E-1   -6.031421380491856E-3   -1.699743495281917E-4   -7.380808434248113E-4   -1.313867661438824E-4   -7.220927390807576E-4   -4.113447064919070E-1    2.740533821372307E-1
 1.000494983315000E+10  -4.994005128163087E-1   -5.471600302263769E-3   -1.856509621794829E-4   -7.212161041070510E-4   -1.479066850210069E-4   -7.123999698872052E-4   -4.110937848825096E-1    2.746604345353392E-1
 1.000495717417500E+10  -4.994181786474123E-1   -4.966083334580747E-3   -1.796799844507593E-4   -7.094134379901605E-4   -1.509162240357463E-4   -7.061039068844155E-4   -4.108513701274333E-1    2.749028722817850E-1
 1.000496451520000E+10  -4.995211183898554E-1   -4.563235597255499E-3   -1.615631980098818E-4   -7.056854579012989E-4   -1.269506490832152E-4   -7.047599145061708E-4   -4.106289121816745E-1    2.754869560778612E-1
 1.000497185622500E+10  -4.993675049929530E-1   -4.126965047717833E-3   -1.824243246337352E-4   -7.204171188971022E-4   -1.550356975041018E-4   -7.237562680407566E-4   -4.103432937522056E-1    2.759129576385121E-1
 1.000497919725000E+10  -4.995282265427234E-1   -3.757404276454699E-3   -1.590573267801493E-4   -6.945656614557304E-4   -1.549197438421996E-4   -6.833778669678869E-4   -4.099496749364828E-1    2.762593137371455E-1
 1.000498653827500E+10  -4.995838787068175E-1   -3.108887828842527E-3   -1.601898674480053E-4   -7.036354385984552E-4   -1.655481547300992E-4   -7.137919085625819E-4   -4.098702282082302E-1    2.766859365838026E-1
 1.000499387930000E+10  -4.995987549623270E-1   -2.587215004179676E-3   -1.888141909480468E-4   -7.003651458833516E-4   -1.001380424509310E-4   -7.061395854464371E-4   -4.095644813145469E-1    2.771019364090500E-1
 1.000500122032500E+10  -4.996454265291398E-1   -2.278314769300679E-3   -1.732907474332289E-4   -6.854606116819377E-4   -1.231371454701827E-4   -6.566787482943950E-4   -4.092487899787218E-1    2.776936650662220E-1
 1.000500856135000E+10  -4.994958620836835E-1   -1.813363480603518E-3   -1.650788313048446E-4   -6.751413791732465E-4   -1.403140021263383E-4   -6.775561880567317E-4   -4.089797764115992E-1    2.780464871423322E-1
 1.000501590237500E+10  -4.995613110510588E-1   -1.263219731408472E-3   -1.585022852764224E-4   -6.918704772014354E-4   -1.284433999995690E-4   -6.836816817373262E-4   -4.086279764093744E-1    2.785792854076634E-1
 1.000502324340000E+10  -4.995878486733739E-1   -7.802848297591425E-4   -1.795751700993369E-4   -6.771339895280375E-4   -1.255158157127792E-4   -6.713176554215335E-4   -4.085516659201624E-1    2.788597112907842E-1
 1.000503058442500E+10  -4.996313398087412E-1   -2.035082850487439E-4   -1.598420375120142E-4   -6.854756105614445E-4   -1.100819273713010E-4   -6.795266237874096E-4   -4.081060923582489E-1    2.793804381727359E-1
 1.000503792545000E+10  -4.995219538927306E-1    1.792474627864343E-4   -1.527538174195509E-4   -6.629416740844800E-4   -1.351882677749846E-4   -6.739093150946990E-4   -4.078602917365287E-1    2.797674543486094E-1
 1.000504526647500E+10  -4.996765120247458E-1    7.069747893015771E-4   -1.708742727387469E-4   -6.658133213318208E-4   -1.076813361055028E-4   -6.616090720867956E-4   -4.076565537162506E-1    2.802179291385490E-1
 1.000505260750000E+10  -4.996726936342756E-1    1.327668640755650E-3   -1.622056096007416E-4   -6.656000203924792E-4   -1.190778396886921E-4   -6.546823622815484E-4   -4.074193665364192E-1    2.806821383429038E-1
 1.000505994852500E+10  -4.997175634475207E-1    1.678447508425159E-3   -1.556757095820066E-4   -6.404875491709797E-4   -1.335412312761345E-4   -6.665878785575585E-4   -4.071687755161104E-1    2.809507935531567E-1
 1.000506728955000E+10  -4.996227791222959E-1    2.100827413715719E-3   -1.797537886756842E-4   -6.761443916719816E-4   -1.104353495896800E-4   -6.440700073837904E-4   -4.067482324842777E-1    2.814695648744482E-1
 1.000507463057500E+10  -4.996118103851866E-1    2.704477010071991E-3   -1.586423286406317E-4   -6.571230207428263E-4   -1.285985808355831E-4   -6.160704252949744E-4   -4.066264766623230E-1    2.818763258511610E-1
 1.000508197160000E+10  -4.997479046314276E-1    3.163382070805753E-3   -1.632112749639067E-4   -6.311827458883239E-4   -1.082432910199328E-4   -6.374716342687748E-4   -4.062150513075267E-1    2.822714582013426E-1
 1.000508931262500E+10  -4.996600942061306E-1    3.620939054015102E-3   -1.289895969903014E-4   -6.512090516010081E-4   -1.333908312327961E-4   -6.619157583749648E-4   -4.060209624670090E-1    2.827983412095305E-1
 1.000509665365000E+10  -4.997899849815329E-1    3.955724292577890E-3   -1.417967049126517E-4   -6.510336816718554E-4   -1.115858142492993E-4   -6.230045780436120E-4   -4.057655651471203E-1    2.832531160098166E-1
 1.000510399467500E+10  -4.997141764659767E-1    4.637061787380645E-3   -1.257911030228381E-4   -6.293739850414328E-4   -1.205909093780603E-4   -6.538951825627734E-4   -4.055139011409137E-1    2.837482213669547E-1
 1.000511133570000E+10  -4.997819942367001E-1    5.004869075970209E-3   -1.513828335515970E-4   -6.476422156945518E-4   -1.166267604149790E-4   -6.057553205430217E-4   -4.052612729679099E-1    2.839695322593766E-1
 1.000511867672500E+10  -4.998401725446520E-1    5.457980029146894E-3   -1.633959032762322E-4   -6.323740196446336E-4   -1.246275253913106E-4   -6.244948921596942E-4   -4.049257126834255E-1    2.846003898445754E-1
 1.000512601775000E+10  -4.997950627061395E-1    5.998313631162802E-3   -1.331176397662952E-4   -6.106522207595071E-4   -1.000345100195034E-4   -6.102479871804098E-4   -4.046532863206097E-1    2.850265526374944E-1
 1.000513335877500E+10  -4.998791747766630E-1    6.463115974872799E-3   -1.402827265671880E-4   -6.136745525538400E-4   -1.095806636967106E-4   -6.141667111258740E-4   -4.043618330679233E-1    2.853506543006551E-1
 1.000514069980000E+10  -4.998366941056325E-1    6.925963077242444E-3   -1.362026712762768E-4   -6.001726226571307E-4   -1.269815710730107E-4   -6.021746787304575E-4   -4.040739386631770E-1    2.858149888508343E-1
 1.000514804082500E+10  -4.998287266358138E-1    7.276360828016794E-3   -1.439526969771487E-4   -6.047835782361946E-4   -8.930976575100377E-5   -5.926740304565111E-4   -4.038760623465322E-1    2.862824096489436E-1
 1.000515538185000E+10  -4.998308874329045E-1    7.752322847899199E-3   -1.491638832096272E-4   -6.190466386821441E-4   -9.425644610655483E-5   -6.040001045775830E-4   -4.034665894775491E-1    2.867664754616724E-1
 1.000516272287500E+10  -4.998400128414717E-1    8.466376227936220E-3   -1.302133127945511E-4   -5.945685287284372E-4   -1.088229183115816E-4   -5.858481214398901E-4   -4.032538198676355E-1    2.872123444289230E-1
 1.000517006390000E+10  -4.998360837944831E-1    8.873144827654559E-3   -1.207709918285009E-4   -5.934392436156089E-4   -1.275837624996491E-4   -5.668408299691852E-4   -4.029870387594695E-1    2.876557974741156E-1
 1.000517740492500E+10  -4.998868084545940E-1    9.382373874331346E-3   -1.179491590562485E-4   -5.841229954229463E-4   -9.882374307559305E-5   -5.880461996012225E-4   -4.025321918628772E-1    2.880523755034460E-1
 1.000518474595000E+10  -4.998630921785393E-1    9.806414660388721E-3   -1.448289992364630E-4   -5.914113112423786E-4   -1.391041231620473E-4   -6.146443539049876E-4   -4.024006002454704E-1    2.884388138575060E-1
 1.000519208697500E+10  -4.999581671426314E-1    1.025476682955633E-2   -1.032919897725099E-4   -5.726831861763512E-4   -9.579900336158667E-5   -5.580374021493857E-4   -4.019560836910830E-1    2.888376727355576E-1
 1.000519942800000E+10  -4.997902818609979E-1    1.067311164751214E-2   -1.178898250050093E-4   -5.860160431449778E-4   -1.107763447825995E-4   -5.843705230766501E-4   -4.018804028831546E-1    2.892162235975350E-1
 1.000520676902500E+10  -4.997627852919204E-1    1.114442435169207E-2   -1.584242298737821E-4   -5.812337294010775E-4   -9.883840068281827E-5   -5.693931189680554E-4   -4.015419768641159E-1    2.897710927430497E-1
 1.000521411005000E+10  -4.998999897472881E-1    1.164102850499342E-2   -1.608599642723749E-4   -5.623769180697080E-4   -1.131485824012695E-4   -5.702543195327662E-4   -4.012399421171424E-1    2.900927408370274E-1
 1.000522145107500E+10  -4.999410187105649E-1    1.224604387322582E-2   -1.084047986798249E-4   -5.757520376878227E-4   -7.919592961923180E-5   -5.741716874321613E-4   -4.008513402183266E-1    2.907095239910644E-1
 1.000522879210000E+10  -4.998517493835525E-1    1.267319020171537E-2   -1.042557831440292E-4   -5.707522749077377E-4   -9.756427173801176E-5   -5.675233102286216E-4   -4.007760908410368E-1    2.911444752672244E-1
 1.000523613312500E+10  -4.998044511688760E-1    1.312151031422234E-2   -1.043859972035309E-4   -5.733846756045610E-4   -1.188277249097210E-4   -5.575497546346399E-4   -4.001637727409927E-1    2.915650873060503E-1
 1.000524347415000E+10  -4.998491072026927E-1    1.354399940323411E-2   -1.080220129910428E-4   -5.472738782664583E-4   -8.844993938749275E-5   -5.378873078003281E-4   -4.001258648815674E-1    2.918531312697070E-1
 1.000525081517500E+10  -4.998779138927156E-1    1.401458018878915E-2   -1.322673580091693E-4   -5.477753148854722E-4   -7.453534340096579E-5   -5.370700089453421E-4   -3.998638365535000E-1    2.923035311769611E-1
 1.000525815620000E+10  -5.000332655535605E-1    1.451591363235823E-2   -1.158932066272357E-4   -5.248176260059344E-4   -8.995739942385137E-5   -5.295770904061563E-4   -3.994601620461887E-1    2.926678817988227E-1
 1.000526549722500E+10  -4.999296166107481E-1    1.501852237897654E-2   -9.086690489008614E-5   -5.500603798349546E-4   -8.160496988040713E-5   -5.160155643397650E-4   -3.991545632171711E-1    2.933780608892783E-1
 1.000527283825000E+10  -4.999249495246630E-1    1.554319584010543E-2   -1.160085749485684E-4   -5.224872544814357E-4   -7.943523094518217E-5   -5.554585952379003E-4   -3.988670959813079E-1    2.936389186176110E-1
 1.000528017927500E+10  -4.997045688102784E-1    1.589275627641538E-2   -1.159750832752872E-4   -5.469777270782733E-4   -8.152505934378915E-5   -5.393037078499332E-4   -3.984721322014920E-1    2.940454932302462E-1
 1.000528752030000E+10  -4.997489902880166E-1    1.629487945118662E-2   -8.482977743840351E-5   -5.301565303761843E-4   -7.597375333044434E-5   -5.237772886142807E-4   -3.983930550963363E-1    2.944277887838120E-1
 1.000529486132500E+10  -4.999716345221817E-1    1.702431336778791E-2   -7.449959145799996E-5   -5.215723012477091E-4   -7.330018309063195E-5   -5.340416138325239E-4   -3.980559646671447E-1    2.950277869311191E-1
 1.000530220235000E+10  -4.999171036805639E-1    1.739996232883632E-2   -8.380305861619475E-5   -5.083703187729409E-4   -5.908484559624468E-5   -5.033167000567663E-4   -3.976048024230044E-1    2.954038794643763E-1
 1.000530954337500E+10  -4.997933918041770E-1    1.785401370169381E-2   -1.258141909800760E-4   -4.823303284557916E-4   -6.303576421373085E-5   -4.834794681113779E-4   -3.973714458137979E-1    2.958315733801555E-1
 1.000531688440000E+10  -4.998180254340464E-1    1.838309095400269E-2   -7.544879667974577E-5   -5.107826058231027E-4   -4.130704256520377E-5   -4.970224365481991E-4   -3.970029093415385E-1    2.962439277384816E-1
 1.000532422542500E+10  -4.998004749096276E-1    1.887443990065796E-2   -9.103652724692821E-5   -4.830724907145832E-4   -6.599400360216668E-5   -4.567776203686851E-4   -3.967790111103536E-1    2.967481066308790E-1
 1.000533156645000E+10  -4.997901022925629E-1    1.929526003810561E-2   -8.576712773528412E-5   -4.729624028450229E-4   -3.363055029882531E-5   -4.718623911214647E-4   -3.964407338023127E-1    2.971935519318912E-1
 1.000533890747500E+10  -4.999271096815550E-1    1.981140398964617E-2   -7.896978562999458E-5   -4.866082749201876E-4   -3.871393222506091E-5   -4.861955117758314E-4   -3.961475580390505E-1    2.976866170841450E-1
 1.000534624850000E+10  -4.998982040510843E-1    2.024967267494893E-2   -6.739524359319493E-5   -4.765589664670189E-4   -8.468846302783144E-5   -4.955854845684389E-4   -3.957308203607062E-1    2.979807926077485E-1
 1.000535358952500E+10  -4.999373277844621E-1    2.075840182369643E-2   -4.587477558178860E-5   -4.481102657905422E-4   -3.214302827573264E-5   -4.581788013005859E-4   -3.954749054146733E-1    2.985400664481942E-1
 1.000536093055000E+10  -4.999625204562281E-1    2.120848970513177E-2   -8.244478841442633E-5   -4.797300073768488E-4   -2.654119245518463E-5   -4.708547782627761E-4   -3.951787582133907E-1    2.988867622417566E-1
 1.000536827157500E+10  -4.998611034452445E-1    2.172490936682262E-2   -6.936368391917626E-5   -4.938125119249143E-4   -7.216325066574685E-5   -4.407390219459614E-4   -3.947826292606158E-1    2.993097786517150E-1
 1.000537561260000E+10  -4.997933692617502E-1    2.211610993235176E-2   -5.117734128508297E-5   -4.526430687404260E-4   -3.175791764610015E-5   -4.388647234010924E-4   -3.945323100701394E-1    2.996870138581524E-1
 1.000538295362500E+10  -4.997636657286129E-1    2.281673523019145E-2   -8.558949185863037E-5   -4.552532432994846E-4   -3.934684233415287E-5   -4.524980276796155E-4   -3.942628764172017E-1    3.002986777764191E-1
 1.000539029465000E+10  -4.997555828027099E-1    2.299958102165484E-2   -5.946333797884262E-5   -4.362061508531926E-4   -2.005498996340687E-5   -4.623589950991917E-4   -3.938963642281337E-1    3.006606150210625E-1
 1.000539763567500E+10  -4.998102408419111E-1    2.361535692162565E-2   -6.111494062362642E-5   -4.108840998024981E-4   -3.073482247953211E-5   -4.597166253357783E-4   -3.936432654741215E-1    3.011716657756651E-1
 1.000540497670000E+10  -4.997453916259816E-1    2.408007757697810E-2   -3.125562055770924E-5   -4.174867202694067E-4   -2.983369750370285E-5   -4.158010997417578E-4   -3.934261251615608E-1    3.014794111799169E-1
 1.000541231772500E+10  -4.997269305336869E-1    2.451687602138178E-2   -3.250993593417126E-5   -4.096853803685370E-4   -3.987869368240054E-5   -3.779905965897962E-4   -3.928309480833777E-1    3.020013776166847E-1
 1.000541965875000E+10  -4.997530410504605E-1    2.496428753463451E-2   -3.325620361368514E-5   -4.221836726496488E-4   -3.308548115121258E-5   -3.756971339814066E-4   -3.927388870574038E-1    3.024626595269408E-1
 1.000542699977500E+10  -4.997661170956270E-1    2.549086674788408E-2   -3.023602564323917E-5   -3.917259646692763E-4   -4.969831839326124E-5   -4.193327585253637E-4   -3.922744514498709E-1    3.028802778892455E-1
 1.000543434080000E+10  -4.996831955898672E-1    2.604215080488393E-2   -3.052706798108659E-5   -4.285597973477567E-4   -2.395872864075093E-5   -3.897170266379554E-4   -3.920809482767463E-1    3.033273703523809E-1
 1.000544168182500E+10  -4.997198060396334E-1    2.646839504054261E-2   -1.478348168837604E-5   -3.914847320801575E-4   -8.995019675878374E-7   -4.215263175425047E-4   -3.917785621023626E-1    3.036402234834789E-1
 1.000544902285000E+10  -4.998150566443129E-1    2.686621415167000E-2   -4.974248533182890E-6   -3.980286430838521E-4    2.233280605575311E-6   -3.675302618937194E-4   -3.913669557177760E-1    3.041976985112260E-1
 1.000545636387500E+10  -4.996903449177248E-1    2.751139862395085E-2   -4.766342269726117E-5   -3.681932822699424E-4   -1.238756468376222E-5   -3.521067746358321E-4   -3.910067651309321E-1    3.046159438946349E-1
 1.000546370490000E+10  -4.997122834176125E-1    2.801446263031800E-2   -5.194815172624170E-6   -3.720439805122052E-4    5.817112335212499E-6   -4.020660481977351E-4   -3.905994115754158E-1    3.050227788227686E-1
 1.000547104592500E+10  -4.999662294062059E-1    2.836847770483150E-2   -1.468886366806460E-5   -3.427485904280627E-4   -3.104716993051304E-5   -3.705305650880441E-4   -3.904134886174340E-1    3.055792630268277E-1
 1.000547838695000E+10  -4.997763745345583E-1    2.889485851341470E-2    4.395226140012602E-6   -3.508018862198917E-4    1.258650162511057E-5   -3.642080220061013E-4   -3.899121121349403E-1    3.059603690896120E-1
 1.000548572797500E+10  -4.996353446676601E-1    2.921931531591742E-2    1.092993220434078E-5   -3.229453846966014E-4    1.190530651368770E-5   -3.397582261057488E-4   -3.895727317844992E-1    3.064532488202847E-1
 1.000549306900000E+10  -4.996924769811949E-1    2.979800600199754E-2    1.344541272646289E-5   -3.476800181438239E-4    2.058040607496421E-5   -3.549651327151941E-4   -3.893738043126721E-1    3.070125301383191E-1
 1.000550041002500E+10  -4.996465402004047E-1    3.029556000364711E-2    4.314870671552275E-6   -3.489689689358320E-4    3.619535119748222E-5   -3.175022369587880E-4   -3.890643958552407E-1    3.072357734132066E-1
 1.000550775105000E+10  -4.995345627915981E-1    3.074696617425830E-2    4.874007981846030E-6   -3.252062370793709E-4    2.839850459277158E-5   -3.054181979220720E-4   -3.886092926221878E-1    3.077743826697548E-1
 1.000551509207500E+10  -4.995805361298378E-1    3.120500454475953E-2    4.192095167062422E-5   -3.012056768556819E-4    4.745852890620879E-5   -3.014859383510708E-4   -3.884025301337163E-1    3.081281488454131E-1
 1.000552243310000E+10  -4.995726962269625E-1    3.171434099715226E-2    1.986662364824453E-5   -2.919924429751473E-4    1.015278032277434E-5   -3.024990974884510E-4   -3.878633871093237E-1    3.086797043473759E-1
 1.000552977412500E+10  -4.994788844881293E-1    3.216816105956195E-2    3.742548058737713E-5   -3.160391799630927E-4    4.272917256106178E-5   -2.962022605670439E-4   -3.876844050682614E-1    3.090230033271623E-1
 1.000553711515000E+10  -4.996974084736099E-1    3.259254559163870E-2    4.429701034325631E-5   -3.018436803885160E-4    7.242971211821935E-5   -2.984885585375214E-4   -3.872511186617662E-1    3.095170412585324E-1
 1.000554445617500E+10  -4.995659749530651E-1    3.317323133332922E-2    3.495590703931634E-5   -2.785890873298948E-4    4.761359487705957E-5   -2.819613065129907E-4   -3.869242073117273E-1    3.100083624693111E-1
 1.000555179720000E+10  -4.996223168404184E-1    3.343078861632669E-2    3.892006973276566E-5   -2.498003447235396E-4    7.977641633706128E-5   -2.889080277761110E-4   -3.865243168683593E-1    3.105258799348397E-1
 1.000555913822500E+10  -4.995361802474260E-1    3.399685706803975E-2    5.875692142182021E-5   -2.808219260551911E-4    9.002921447271789E-5   -2.647239310731446E-4   -3.862343210540617E-1    3.109337375461233E-1
 1.000556647925000E+10  -4.995036079211179E-1    3.458560357231381E-2    5.102237347139997E-5   -2.675832278225035E-4    6.062597291825430E-5   -2.395764023866446E-4   -3.857883534061745E-1    3.114369967732449E-1
