#  HZ   S   RI   R     50.00 
! Rohde & Schwarz Vector Network Analyzer 
! Rohde-Schwarz,ZNB20-2Port,1311601062101988,3.16
! Created: UTC 3/20/2024, 11:53:55 AM
! freq[Hz]                re:S11                  im:S11                  re:S21                  im:S21                  re:S12                  im:S12                  re:S22                  im:S22
 1.000493024800000E+10  -4.993576210657962E-1   -6.804147012363601E-3   -1.766637894164231E-4   -7.262233800906589E-4   -1.260479192419781E-4   -7.294707179523814E-4   -4.118239184038010E-1    2.732870478023209E-1
 1.000493748032500E+10  -4.993661100299455E-1   -6.232960834698987E-3   -1.771359849266340E-4   -7.236948379859548E-4   -1.441116198107589E-4   -7.119350104259700E-4   -4.117284239734141E-1    2.738518572610208E-1
 1.000494471265000E+10  -4.994597896183549E-1   -5.923134519197745E-3   -1.908499816798955E-4   -7.175111360154370E-4   -1.559988710598301E-4   -7.382888061792884E-4   -4.114754040441431E-1    2.743429083158822E-1
 1.000495194497500E+10  -4.994956671041931E-1   -5.421071397292705E-3   -1.787029328708228E-4   -7.239642073235634E-4   -1.438942391011194E-4   -7.112623241422205E-4   -4.111246314087414E-1    2.746123929232933E-1
 1.000495917730000E+10  -4.993339051386954E-1   -4.864778177746359E-3   -1.925584555758553E-4   -7.170143628030291E-4   -1.305412317184225E-4   -7.347585525529017E-4   -4.108755946286077E-1    2.751332836558032E-1
 1.000496640962500E+10  -4.994074371747457E-1   -4.383158388395938E-3   -1.615128651250683E-4   -7.130458527037674E-4   -1.287989223554019E-4   -7.018969479124715E-4   -4.105820751633098E-1    2.754839735563215E-1
 1.000497364195000E+10  -4.995300876770361E-1   -3.906683906623601E-3   -1.924164528651928E-4   -6.864832696151820E-4   -1.486413898860951E-4   -7.068679807637715E-4   -4.103094899026815E-1    2.759430348280998E-1
 1.000498087427500E+10  -4.994995816317921E-1   -3.595682086298500E-3   -1.657522444015844E-4   -7.025714304999491E-4   -1.428574970157436E-4   -6.959907489313788E-4   -4.100449576111561E-1    2.764281896653867E-1
 1.000498810660000E+10  -4.995382186640940E-1   -2.974200373730457E-3   -1.791493622850676E-4   -6.829930517937335E-4   -1.519902227491419E-4   -7.173069495335641E-4   -4.098405930786760E-1    2.768692715319988E-1
 1.000499533892500E+10  -4.996072975073977E-1   -2.533524796167519E-3   -1.485116969291813E-4   -6.751856363832758E-4   -1.204101005314277E-4   -7.004184984963217E-4   -4.094750344207653E-1    2.771412978570962E-1
 1.000500257125000E+10  -4.996334828649274E-1   -2.066595100701421E-3   -1.864322763304365E-4   -6.805436635662070E-4   -1.275847861081694E-4   -7.200752972969212E-4   -4.092609758976021E-1    2.775840783662626E-1
 1.000500980357500E+10  -4.995532151755325E-1   -1.593886067754815E-3   -1.679621125007444E-4   -7.007168637438863E-4   -1.145883782539696E-4   -6.700640383184820E-4   -4.088263946882443E-1    2.780832753873240E-1
 1.000501703590000E+10  -4.996601602194197E-1   -1.177464252257765E-3   -1.683976676615289E-4   -7.083321750312666E-4   -1.379312658515161E-4   -7.005940329810630E-4   -4.086359290057923E-1    2.784199131239434E-1
 1.000502426822500E+10  -4.997316891317656E-1   -7.504418892013532E-4   -1.685157341340036E-4   -6.830714512292296E-4   -1.387740559565682E-4   -6.872929081635227E-4   -4.083367730953486E-1    2.790024251980964E-1
 1.000503150055000E+10  -4.997192120124966E-1   -2.168860343497103E-4   -1.543127994424283E-4   -7.136352301674696E-4   -1.152160681516559E-4   -6.661591053415377E-4   -4.083190242345102E-1    2.792920719428635E-1
 1.000503873287500E+10  -4.997945694984222E-1    2.502139138832729E-4   -1.601509969929154E-4   -6.616824857235273E-4   -1.363554440919511E-4   -6.838771962946677E-4   -4.078217707407463E-1    2.798102316740575E-1
 1.000504596520000E+10  -4.996851840373919E-1    6.363467494243338E-4   -1.605761369430488E-4   -6.723021187717666E-4   -1.418458496209449E-4   -6.896198402924532E-4   -4.077129316330620E-1    2.803058485600474E-1
 1.000505319752500E+10  -4.996903111377117E-1    1.235396170944086E-3   -1.340143332494085E-4   -7.197753010190418E-4   -1.478578586979383E-4   -6.718518973576123E-4   -4.072859363029535E-1    2.806509173944523E-1
 1.000506042985000E+10  -4.996688486662111E-1    1.567060460738212E-3   -1.494110847217547E-4   -6.445736510384166E-4   -1.303266163022390E-4   -6.659865702156401E-4   -4.071494788249184E-1    2.810591986742854E-1
 1.000506766217500E+10  -4.995852007475349E-1    2.088626448498886E-3   -1.668206030782743E-4   -6.668852840995594E-4   -1.421160209931603E-4   -6.360824367155514E-4   -4.069045023362268E-1    2.813730914343620E-1
 1.000507489450000E+10  -4.996907202976935E-1    2.588586285473514E-3   -1.732826798286623E-4   -6.608433766341471E-4   -1.261935894905380E-4   -6.798730107170426E-4   -4.065922321078017E-1    2.820307762405294E-1
 1.000508212682500E+10  -4.995903226939957E-1    3.063890396559466E-3   -1.522138205190527E-4   -6.406502668799654E-4   -1.487892940820122E-4   -6.751077585369698E-4   -4.062668830967364E-1    2.824783006936256E-1
 1.000508935915000E+10  -4.996999008084496E-1    3.537060470623651E-3   -1.363002537514502E-4   -6.211855524308949E-4   -1.237758715618680E-4   -6.362770675180453E-4   -4.060984839601640E-1    2.828480480079297E-1
 1.000509659147500E+10  -4.997222472346849E-1    4.045282236253943E-3   -1.557653321616667E-4   -6.378713122806270E-4   -8.918809546867251E-5   -6.228650113137878E-4   -4.056983764138088E-1    2.832341271116242E-1
 1.000510382380000E+10  -4.997149128896355E-1    4.570429177890768E-3   -1.503221120179263E-4   -6.270460187626582E-4   -9.885545758508332E-5   -6.266773311581671E-4   -4.054346069960960E-1    2.834970331704555E-1
 1.000511105612500E+10  -4.998059926076651E-1    5.080005702382794E-3   -1.328205507024388E-4   -6.368598150622427E-4   -1.081027710371001E-4   -6.325404787070824E-4   -4.050977170507883E-1    2.840551160560812E-1
 1.000511828845000E+10  -4.997401373518440E-1    5.436439667083034E-3   -1.424006620332458E-4   -6.315336340350363E-4   -1.454018256858491E-4   -6.354002357092508E-4   -4.050257487985606E-1    2.845366122081353E-1
 1.000512552077500E+10  -4.997965414647574E-1    5.867680091038136E-3   -1.588928628049915E-4   -6.122343439379322E-4   -1.322428654116694E-4   -6.453522712705632E-4   -4.045668511267666E-1    2.850375903896100E-1
 1.000513275310000E+10  -4.998031423107709E-1    6.396516485080493E-3   -1.358138588687273E-4   -6.363582532064756E-4   -8.352871507862437E-5   -6.242005135367231E-4   -4.045644806697156E-1    2.853597551068189E-1
 1.000513998542500E+10  -4.998152720216259E-1    6.847274978329557E-3   -1.528785883072184E-4   -6.162838129590088E-4   -1.061977367462344E-4   -6.254978116088473E-4   -4.039928732491859E-1    2.857751893635752E-1
 1.000514721775000E+10  -4.996849761021774E-1    7.225734433480105E-3   -1.423126697941963E-4   -6.160646863217431E-4   -1.086929840069241E-4   -6.361905777642118E-4   -4.038688296597701E-1    2.862157203805847E-1
 1.000515445007500E+10  -4.998036044373053E-1    7.816441296084374E-3   -1.387402943445590E-4   -6.168548692845027E-4   -1.009835351412780E-4   -5.869960758413340E-4   -4.036276059078971E-1    2.867339043462692E-1
 1.000516168240000E+10  -4.998539170938686E-1    8.163340939297253E-3   -1.398009061601659E-4   -6.054790794665910E-4   -8.253294453464676E-5   -5.953815837187375E-4   -4.033172520265713E-1    2.871350703405799E-1
 1.000516891472500E+10  -4.998333871385383E-1    8.638484562406507E-3   -1.277975144266245E-4   -6.022980313878109E-4   -1.020775055026010E-4   -5.821402645316413E-4   -4.029985271143025E-1    2.875318096120578E-1
 1.000517614705000E+10  -4.998180165411947E-1    9.230348842735676E-3   -1.483130352642364E-4   -5.927075514813647E-4   -5.644441434397550E-5   -5.848905189331778E-4   -4.026717741891096E-1    2.879205740325588E-1
 1.000518337937500E+10  -4.997112828848427E-1    9.699830968361207E-3   -1.171005794010350E-4   -5.948286776111913E-4   -1.038822978991911E-4   -5.855883235324575E-4   -4.024562140080363E-1    2.882969336934646E-1
 1.000519061170000E+10  -4.997743624386396E-1    1.019807629500674E-2   -1.200941585370097E-4   -5.711901119859855E-4   -8.613753990375056E-5   -6.203308154172632E-4   -4.021947642378008E-1    2.888447695716502E-1
 1.000519784402500E+10  -4.998772892827251E-1    1.061363444269464E-2   -1.586506892147318E-4   -5.919395439617003E-4   -1.077091912644788E-4   -5.910478865580049E-4   -4.018936225714114E-1    2.891894066281018E-1
 1.000520507635000E+10  -4.999094663933443E-1    1.113271794384098E-2   -1.086786682158742E-4   -5.702996242887143E-4   -1.141862586282372E-4   -5.605643669137798E-4   -4.015068837541533E-1    2.895753031432588E-1
 1.000521230867500E+10  -4.999015068221203E-1    1.157899052334615E-2   -1.151534191951158E-4   -5.739599639783840E-4   -7.591413354243279E-5   -5.961391545454706E-4   -4.012904462561185E-1    2.899497837423864E-1
 1.000521954100000E+10  -4.998715129338111E-1    1.198149989084113E-2   -1.174371322237120E-4   -5.757774031786098E-4   -1.097240261409668E-4   -5.914906843099183E-4   -4.012027775600999E-1    2.906087437208866E-1
 1.000522677332500E+10  -4.998090587600593E-1    1.255953054444602E-2   -1.332844558228937E-4   -5.717992064443701E-4   -8.460986886997776E-5   -5.629233724504573E-4   -4.008039787675773E-1    2.908926352522092E-1
 1.000523400565000E+10  -4.999142810573990E-1    1.285652372642865E-2   -7.011634877352379E-5   -5.597901139263463E-4   -9.370491706008233E-5   -5.619645226994870E-4   -4.003527190828488E-1    2.913782655243647E-1
 1.000524123797500E+10  -4.998870616696913E-1    1.341603685778568E-2   -1.266213809572869E-4   -5.465394409671346E-4   -6.778415447297151E-5   -5.489570792425801E-4   -4.001939230854655E-1    2.918359799689257E-1
 1.000524847030000E+10  -4.998967921283035E-1    1.389649145641861E-2   -9.958015378839797E-5   -5.823885673558954E-4   -7.817726768791187E-5   -5.206641606067013E-4   -3.996880033777959E-1    2.921136266819823E-1
 1.000525570262500E+10  -4.998098111345876E-1    1.439572500861564E-2   -1.272748242574047E-4   -5.533433320933763E-4   -1.043088741507222E-4   -5.647327887906963E-4   -3.994573116100232E-1    2.927254219086270E-1
 1.000526293495000E+10  -4.998335024831899E-1    1.486636123795282E-2   -1.054945503280943E-4   -5.454301347140063E-4   -8.722524046421116E-5   -5.183824685548080E-4   -3.992808330799772E-1    2.931295736351400E-1
 1.000527016727500E+10  -4.998769645770715E-1    1.532329315160600E-2   -1.145878274190278E-4   -5.259801036640383E-4   -9.524186937802632E-5   -5.259619533409273E-4   -3.990838049419644E-1    2.934864667697440E-1
 1.000527739960000E+10  -4.997458036837416E-1    1.567498325723089E-2   -9.561412917683242E-5   -5.353152940215672E-4   -7.610315996754302E-5   -5.397570244849984E-4   -3.985848542546864E-1    2.940217766306007E-1
 1.000528463192500E+10  -4.998581928689256E-1    1.619213005127759E-2   -1.336478263010503E-4   -5.200242487194054E-4   -8.970319050670761E-5   -5.176092642151071E-4   -3.985109130464782E-1    2.942068460680735E-1
 1.000529186425000E+10  -4.997907112114889E-1    1.672518196790094E-2   -1.009036052575060E-4   -5.227414559437104E-4   -7.159068603122812E-5   -5.074802710582579E-4   -3.981387670423068E-1    2.948024633609149E-1
 1.000529909657500E+10  -4.998419715723276E-1    1.721387016295104E-2   -1.048452133493973E-4   -5.229542133805068E-4   -5.390965063279359E-5   -5.240353815650785E-4   -3.977734347268070E-1    2.953062626793734E-1
 1.000530632890000E+10  -4.997941589161097E-1    1.770942971923751E-2   -7.314549549034574E-5   -5.149970516784333E-4   -6.273409318229013E-5   -4.874802124524968E-4   -3.975263071017034E-1    2.956245738303160E-1
 1.000531356122500E+10  -4.999052167578262E-1    1.811981742661182E-2   -1.044953478338278E-4   -4.795033022321863E-4   -2.973182200136558E-5   -4.990903368675226E-4   -3.971885419164732E-1    2.961558710500020E-1
 1.000532079355000E+10  -4.999959838885823E-1    1.860765043490258E-2   -7.088986305412002E-5   -4.833107186129543E-4   -7.939026731072053E-5   -4.942344034223344E-4   -3.969485975831492E-1    2.964398826643999E-1
 1.000532802587500E+10  -4.998967201860769E-1    1.909061031574063E-2   -6.251820033071857E-5   -5.095761749902318E-4   -7.008754876089376E-5   -4.834278379398893E-4   -3.965599906556598E-1    2.969208014174761E-1
 1.000533525820000E+10  -4.998646104200051E-1    1.970501604508458E-2   -8.002003116073894E-5   -4.797338377661450E-4   -8.977792341646507E-5   -4.971315762276839E-4   -3.963619861579847E-1    2.973849271634477E-1
 1.000534249052500E+10  -4.999353392846494E-1    2.007093691176836E-2   -7.685767440690046E-5   -4.783675561064039E-4   -7.717805347796992E-5   -4.856686058102197E-4   -3.959761523835729E-1    2.977618421202249E-1
 1.000534972285000E+10  -4.998010719541642E-1    2.044639127218650E-2   -6.421291339922448E-5   -4.828819428099769E-4   -2.707383371189316E-5   -4.712832498887864E-4   -3.956698664247481E-1    2.981674818174136E-1
 1.000535695517500E+10  -4.998862694351274E-1    2.088322973651839E-2   -7.763351838136876E-5   -4.828697952561014E-4   -3.174646607581923E-5   -4.736222924042459E-4   -3.954109513133715E-1    2.985285365219294E-1
 1.000536418750000E+10  -4.999495444013065E-1    2.141136906881801E-2   -4.955868707732099E-5   -4.807699746151962E-4   -8.400761226711840E-5   -4.461959250383300E-4   -3.951900336389467E-1    2.990703691485869E-1
 1.000537141982500E+10  -4.998765622460593E-1    2.186573358450951E-2   -5.842787069513092E-5   -4.751232449580969E-4   -7.978326330048659E-5   -4.637230090574276E-4   -3.948491222451214E-1    2.994873292632805E-1
 1.000537865215000E+10  -4.998866022117162E-1    2.235244066403514E-2   -6.304531212650455E-5   -4.280529035804755E-4   -4.365994173947908E-5   -4.557919488735667E-4   -3.945074753401301E-1    2.999228960645923E-1
 1.000538588447500E+10  -4.998514962144738E-1    2.284295652333391E-2   -5.419363418365749E-5   -4.629011543297897E-4   -1.571500194858558E-5   -4.367622262926645E-4   -3.942292878310206E-1    3.004996606154709E-1
 1.000539311680000E+10  -4.996838692787969E-1    2.324192833199621E-2   -4.983559676287510E-5   -4.414704917798845E-4   -5.582830260229909E-5   -4.237262880519972E-4   -3.938610676506781E-1    3.009489059145690E-1
 1.000540034912500E+10  -4.996723108188628E-1    2.393003713684926E-2   -7.022745907206861E-5   -4.509829325974261E-4   -3.234187746473020E-5   -4.277802393773278E-4   -3.936415259016340E-1    3.012032894160785E-1
 1.000540758145000E+10  -4.997257629383954E-1    2.419526707631319E-2   -4.422431482513555E-5   -4.228775211276395E-4   -2.457424130690209E-5   -4.386790297686337E-4   -3.931669512852602E-1    3.016500361130852E-1
 1.000541481377500E+10  -4.999397711752577E-1    2.462070170311019E-2   -4.631524989880048E-5   -4.202673143366061E-4   -2.498439154685053E-6   -4.125625325158132E-4   -3.929616368063692E-1    3.020730390168845E-1
 1.000542204610000E+10  -4.998680725386901E-1    2.514557649859075E-2   -6.180176059060719E-5   -4.293946740623049E-4   -2.699236811900843E-5   -3.983886482253989E-4   -3.926493367654020E-1    3.026665550226857E-1
 1.000542927842500E+10  -4.998083910662676E-1    2.569656174532402E-2   -4.136491570809799E-5   -4.106011240012135E-4   -5.387577219319710E-6   -4.127228053401598E-4   -3.922883302850432E-1    3.029399029875119E-1
 1.000543651075000E+10  -4.997033801205459E-1    2.616190636292318E-2   -5.108276146878363E-5   -3.937566695548398E-4   -5.526084093425079E-6   -3.975028790282734E-4   -3.920805248892792E-1    3.035402994285529E-1
 1.000544374307500E+10  -4.998038592620280E-1    2.661830409556084E-2   -3.231276436951358E-5   -3.943608557440302E-4   -9.268514352720907E-6   -3.907426447241770E-4   -3.917363317377984E-1    3.038953888111431E-1
 1.000545097540000E+10  -4.996915836933143E-1    2.700114782649531E-2   -2.412904817483025E-5   -3.850058648809320E-4   -3.010514644288644E-5   -3.916111917171149E-4   -3.912833153616483E-1    3.043026397422659E-1
 1.000545820772500E+10  -4.998591561481872E-1    2.742547561896872E-2   -2.918314066116874E-5   -3.920384373140891E-4   -1.229860938483502E-5   -3.744391794589540E-4   -3.910500349133129E-1    3.047429135406563E-1
 1.000546544005000E+10  -4.997225173449892E-1    2.795893775452072E-2   -2.640785588187525E-5   -3.854361085391999E-4    5.116921643076732E-7   -3.825856978491167E-4   -3.906232934867933E-1    3.051601003889858E-1
 1.000547267237500E+10  -4.997613862121347E-1    2.834014590916154E-2   -3.675922037831492E-6   -3.573260485751507E-4   -1.338451993756585E-5   -3.548850177165168E-4   -3.903402818278374E-1    3.056452575276530E-1
 1.000547990470000E+10  -4.997108258227935E-1    2.885812416954916E-2   -6.072411099536021E-6   -3.716812011005347E-4    1.255499832774344E-5   -3.452892698313285E-4   -3.900552804027593E-1    3.061468480561398E-1
 1.000548713702500E+10  -4.996003012440534E-1    2.943737861082107E-2    1.350243065478170E-5   -3.677846516125594E-4    2.487680736720834E-5   -3.626282516246935E-4   -3.897070267956395E-1    3.065315071952173E-1
 1.000549436935000E+10  -4.997627055331105E-1    2.994932835438097E-2    3.483098644921265E-5   -3.271717283254609E-4    5.043307173860433E-5   -3.271056819658333E-4   -3.892952944516201E-1    3.069873277674188E-1
 1.000550160167500E+10  -4.997141168609655E-1    3.036925838942674E-2    3.652133553455145E-5   -3.431068060115647E-4    5.014601282587735E-5   -2.962014316664651E-4   -3.890128595850169E-1    3.073412792727526E-1
 1.000550883400000E+10  -4.996625556572957E-1    3.077416830761496E-2    2.532555255103199E-6   -3.175527002747558E-4    4.224927742910750E-5   -3.187664149536764E-4   -3.887312713719903E-1    3.078879437967501E-1
 1.000551606632500E+10  -4.996116982818404E-1    3.131810994602276E-2    3.838514209027256E-5   -3.124952442437085E-4    2.114448019470459E-5   -3.213345053417105E-4   -3.882978916985287E-1    3.082636042794841E-1
 1.000552329865000E+10  -4.996526006417157E-1    3.170727916033677E-2    4.242441067396039E-5   -3.207638935102169E-4    4.117319399439466E-5   -3.017847415973644E-4   -3.878817909890566E-1    3.086633114153793E-1
 1.000553053097500E+10  -4.996040401207525E-1    3.236228661296867E-2    2.048051391294585E-5   -3.122332897196547E-4    5.333897315577099E-5   -3.058632902559795E-4   -3.877409869969741E-1    3.090670452172597E-1
 1.000553776330000E+10  -4.995258978923917E-1    3.255893162706687E-2    5.102202778176253E-5   -2.911564676253656E-4    3.621135841499246E-5   -3.111075112490703E-4   -3.872928702749402E-1    3.095980949050414E-1
 1.000554499562500E+10  -4.996057196608782E-1    3.321853369117619E-2    4.763914020058376E-5   -3.108675154819744E-4    5.860532951367330E-5   -3.021294784690434E-4   -3.868472134965632E-1    3.100522869120294E-1
 1.000555222795000E+10  -4.996467338370900E-1    3.357452853122010E-2    5.502798867824087E-5   -2.572762987867293E-4    2.876816234430874E-5   -2.866776670773166E-4   -3.866536669459409E-1    3.105344177172269E-1
 1.000555946027500E+10  -4.995184761699308E-1    3.416173389868701E-2    6.841146589368564E-5   -2.709437087624862E-4    6.273780850585658E-5   -2.453837312759873E-4   -3.862934063630211E-1    3.108196983743577E-1
 1.000556669260000E+10  -4.994330012963028E-1    3.456734575068354E-2    9.545852652068361E-5   -2.490325179400199E-4    6.525281588518616E-5   -2.719308372078931E-4   -3.859467338033509E-1    3.114434856464007E-1
 1.000557392492500E+10  -4.995241464722326E-1    3.500160545821621E-2    7.878793752793869E-5   -2.647308178008238E-4    6.956048222834091E-5   -2.332949673867789E-4   -3.855737134076984E-1    3.117463457937245E-1
 1.000558115725000E+10  -4.994103239498944E-1    3.557608394238103E-2    4.927848964340219E-5   -2.778872197407928E-4    7.813495561268936E-5   -2.460711050264558E-4   -3.851761284800398E-1    3.123027528942525E-1
