#  HZ   S   RI   R     50.00 
! Rohde & Schwarz Vector Network Analyzer 
! Rohde-Schwarz,ZNB20-2Port,1311601062101988,3.16
! Created: UTC 3/20/2024, 11:54:00 AM
! freq[Hz]                re:S11                  im:S11                  re:S21                  im:S21                  re:S12                  im:S12                  re:S22                  im:S22
 1.000493502000000E+10  -4.994009429439529E-1   -6.471899817938179E-3   -1.920574117740201E-4   -7.025371837488971E-4   -1.207705506118460E-4   -7.025676190990244E-4   -4.116965769504703E-1    2.737913258497705E-1
 1.000494223600000E+10  -4.994903717466621E-1   -6.081132456883100E-3   -1.259412632156811E-4   -7.120572091756163E-4   -1.483223656843297E-4   -7.612621161818696E-4   -4.113688633695653E-1    2.741260176218824E-1
 1.000494945200000E+10  -4.995979583272457E-1   -5.481719572238734E-3   -1.810603832900030E-4   -7.170008668882818E-4   -1.376514328062016E-4   -6.940150143859233E-4   -4.110914629752257E-1    2.744696594037679E-1
 1.000495666800000E+10  -4.994408934544763E-1   -5.100423155934666E-3   -1.646185294968294E-4   -7.082070730875909E-4   -1.220506070385583E-4   -7.241107762489585E-4   -4.108463925417347E-1    2.749496190444760E-1
 1.000496388400000E+10  -4.995462636984542E-1   -4.655088148065289E-3   -1.981825764559115E-4   -7.198097001942696E-4   -1.381314146907391E-4   -7.117411185845866E-4   -4.106163574460771E-1    2.754246531361599E-1
 1.000497110000000E+10  -4.995061086841968E-1   -4.154203051188914E-3   -1.752088864430415E-4   -7.313059471321284E-4   -1.568246269052890E-4   -6.971193199780344E-4   -4.103583645721133E-1    2.756112456600270E-1
 1.000497831600000E+10  -4.994832312054583E-1   -3.649850882720642E-3   -1.659343594465834E-4   -6.927201183378328E-4   -1.218844405014403E-4   -6.861869703935491E-4   -4.101588275098413E-1    2.761487043783470E-1
 1.000498553200000E+10  -4.996014074319492E-1   -3.185166503037738E-3   -1.834767921441191E-4   -7.203442597936225E-4   -1.432508158064195E-4   -6.751300109608883E-4   -4.098595688442722E-1    2.767515527184319E-1
 1.000499274800000E+10  -4.995488241407776E-1   -2.569363141562885E-3   -1.693944544265946E-4   -7.148260622083354E-4   -1.466064174478895E-4   -6.764122976724387E-4   -4.095869859455842E-1    2.770143528337147E-1
 1.000499996400000E+10  -4.996224603931530E-1   -2.248728325430886E-3   -1.520206372690790E-4   -6.812462179813519E-4   -1.342363558140802E-4   -6.836774398256331E-4   -4.093275991094201E-1    2.774245348045461E-1
 1.000500718000000E+10  -4.995605661068428E-1   -1.806534698705974E-3   -1.685791627806217E-4   -6.796032706842179E-4   -1.210734237808476E-4   -6.893151586699663E-4   -4.090227003305091E-1    2.779291615557218E-1
 1.000501439600000E+10  -4.995599417644198E-1   -1.340752272401537E-3   -1.446602172481671E-4   -7.137246105722973E-4   -1.054973433174318E-4   -6.929211601434266E-4   -4.088519589225961E-1    2.782788519924592E-1
 1.000502161200000E+10  -4.995856724818366E-1   -8.629989868935906E-4   -1.913510479938202E-4   -6.627602832412417E-4   -1.481028754017718E-4   -6.722328275014835E-4   -4.085303741560298E-1    2.786850057628633E-1
 1.000502882800000E+10  -4.997240173766056E-1   -3.849198373388779E-4   -1.601317133655697E-4   -6.611233970537675E-4   -1.394420694705029E-4   -6.960296951167276E-4   -4.083105295722119E-1    2.792367843064538E-1
 1.000503604400000E+10  -4.996588061281755E-1    6.883903300614454E-5   -1.547777640010602E-4   -6.850314331154002E-4   -1.206714673385016E-4   -6.577553661261483E-4   -4.079427813580760E-1    2.796015868683202E-1
 1.000504326000000E+10  -4.997363318874888E-1    4.823828607633447E-4   -1.981610708607078E-4   -6.683899522883477E-4   -1.161060681711366E-4   -6.948247924015949E-4   -4.077950589187688E-1    2.801314930687925E-1
 1.000505047600000E+10  -4.996852039231441E-1    9.695942897068665E-4   -1.374821900789206E-4   -6.502100945258223E-4   -1.316422950645404E-4   -6.617091537612473E-4   -4.075453767820641E-1    2.804264954080931E-1
 1.000505769200000E+10  -4.995580156836641E-1    1.460686797549806E-3   -1.404680863078422E-4   -6.696783885852116E-4   -1.456960245536238E-4   -6.484196466499035E-4   -4.071074320444916E-1    2.807510785508951E-1
 1.000506490800000E+10  -4.997121830714351E-1    1.861180529005132E-3   -1.439446084932682E-4   -6.594945109068353E-4   -1.501196161385058E-4   -6.689465251185710E-4   -4.069757647978773E-1    2.812434397748287E-1
 1.000507212400000E+10  -4.996320938515600E-1    2.474024889377298E-3   -1.587631283612695E-4   -6.790039402097882E-4   -1.263201332438012E-4   -6.570837304583653E-4   -4.066748724756132E-1    2.817925551256222E-1
 1.000507934000000E+10  -4.997033654508218E-1    2.886555670271330E-3   -1.429726345524710E-4   -6.677864560092410E-4   -1.362832124241745E-4   -6.598427878035097E-4   -4.062549518057495E-1    2.820329475147553E-1
 1.000508655600000E+10  -4.997504371657995E-1    3.364687171357458E-3   -1.702241703200845E-4   -6.696761836300545E-4   -1.452030568304805E-4   -6.611593884152844E-4   -4.061558173147256E-1    2.826489430630643E-1
 1.000509377200000E+10  -4.997295765244429E-1    3.927535784888939E-3   -1.681233659754774E-4   -6.320550910406141E-4   -1.215291654487221E-4   -6.460675689347380E-4   -4.058407792998824E-1    2.831016824858028E-1
 1.000510098800000E+10  -4.997929403222920E-1    4.184148917742833E-3   -1.519234359820598E-4   -6.444878181461418E-4   -1.337363174860154E-4   -6.423316283894848E-4   -4.056969405251086E-1    2.833295396003465E-1
 1.000510820400000E+10  -4.997271483660103E-1    4.827570013146224E-3   -1.468583006474015E-4   -6.267676354813271E-4   -1.046240741415845E-4   -6.177145503708602E-4   -4.054794985211439E-1    2.839017702145058E-1
 1.000511542000000E+10  -4.997137544172867E-1    5.311024515713369E-3   -1.346605040502125E-4   -6.106645833137411E-4   -1.260483546948138E-4   -6.523969115952144E-4   -4.050378917510337E-1    2.843215773710060E-1
 1.000512263600000E+10  -4.998404424925157E-1    5.765477255939913E-3   -1.578036626034726E-4   -6.299577442244860E-4   -9.604064508257623E-5   -6.352426151817214E-4   -4.048551299286158E-1    2.846808785868104E-1
 1.000512985200000E+10  -4.997668136353831E-1    6.220793745741436E-3   -1.322137246032839E-4   -6.076706945041919E-4   -1.395773781618998E-4   -5.863615655039385E-4   -4.044002814419611E-1    2.852534587393148E-1
 1.000513706800000E+10  -4.998140388579851E-1    6.747387396332123E-3   -1.480624083435815E-4   -6.244788937927024E-4   -1.016756363205265E-4   -6.065978096110328E-4   -4.042291469051464E-1    2.856407472898680E-1
 1.000514428400000E+10  -4.998233455378323E-1    7.083857731262621E-3   -1.576721146944695E-4   -5.887780446122386E-4   -8.827979256429760E-5   -6.475336517530876E-4   -4.039351851875172E-1    2.860554871092864E-1
 1.000515150000000E+10  -4.998514362938145E-1    7.593408419574259E-3   -1.393712424566127E-4   -6.057989616496865E-4   -1.099762573225078E-4   -6.000015571143109E-4   -4.038043204868597E-1    2.864933218694212E-1
 1.000515871600000E+10  -4.998463846724974E-1    8.148345030052189E-3   -1.411669138325119E-4   -5.914266820734402E-4   -1.162505263026251E-4   -6.146847071001919E-4   -4.034193265099043E-1    2.868752123770633E-1
 1.000516593200000E+10  -4.998199392196875E-1    8.638158831466913E-3   -1.471035594527337E-4   -6.129246386497314E-4   -1.271641819937962E-4   -5.787285024933602E-4   -4.030108041119482E-1    2.872541135890016E-1
 1.000517314800000E+10  -4.998322150683993E-1    9.125876763084585E-3   -1.743424939816635E-4   -6.234530094475750E-4   -1.026217291350286E-4   -6.007675131524626E-4   -4.029091531920672E-1    2.877880647160735E-1
 1.000518036400000E+10  -4.997509285172513E-1    9.354579179111238E-3   -1.475225986154026E-4   -6.150976310588842E-4   -9.032653693356214E-5   -5.959628623478648E-4   -4.025825645998296E-1    2.880934927348954E-1
 1.000518758000000E+10  -4.996820482621626E-1    1.003293131760949E-2   -1.496895694816849E-4   -5.970155924124786E-4   -1.025468229489467E-4   -5.985812944629097E-4   -4.022445665920044E-1    2.883927125166653E-1
 1.000519479600000E+10  -4.997650771455941E-1    1.040974512339495E-2   -1.258532455261781E-4   -5.901582535702196E-4   -1.041285685246604E-4   -5.798492421982824E-4   -4.019800276998195E-1    2.889838213503072E-1
 1.000520201200000E+10  -4.997641521733973E-1    1.095503904969661E-2   -1.278739447311330E-4   -5.966619025733022E-4   -1.021515560773764E-4   -6.107216892155006E-4   -4.016494764367874E-1    2.895651669513037E-1
 1.000520922800000E+10  -4.998410175808612E-1    1.136019163149220E-2   -1.341191168049803E-4   -5.839050476770916E-4   -1.111703181895373E-4   -5.927287546236698E-4   -4.015016852932630E-1    2.897991898724303E-1
 1.000521644400000E+10  -4.998264993507831E-1    1.179860671105582E-2   -1.396376778794497E-4   -5.904130340667307E-4   -7.513804321720064E-5   -5.746130036103548E-4   -4.011898329124350E-1    2.902668336543652E-1
 1.000522366000000E+10  -4.999051315739805E-1    1.228918369828860E-2   -9.488533962962810E-5   -5.800774752253816E-4   -1.264334420464113E-4   -5.835900873884122E-4   -4.007664770926892E-1    2.907352852919239E-1
 1.000523087600000E+10  -4.998601632318485E-1    1.275765427166804E-2   -1.311484537202852E-4   -5.879827816887413E-4   -1.122429729207408E-4   -5.509733653641203E-4   -4.005775885244162E-1    2.911379204624958E-1
 1.000523809200000E+10  -4.999018135026822E-1    1.308196530445582E-2   -1.399368797236268E-4   -5.602188508668886E-4   -1.054101567610158E-4   -5.765386437083269E-4   -4.001938101490303E-1    2.914051254666728E-1
 1.000524530800000E+10  -4.999202570368949E-1    1.363362847198952E-2   -1.064597954756775E-4   -5.783636449059908E-4   -1.070347520038093E-4   -5.451019581253639E-4   -4.001492662403223E-1    2.919537408858480E-1
 1.000525252400000E+10  -4.998685293042319E-1    1.428357942520504E-2   -1.266122137535526E-4   -5.248260117409159E-4   -8.487655265623938E-5   -5.479783963278532E-4   -3.997304387497788E-1    2.925962311371109E-1
 1.000525974000000E+10  -4.999546584772673E-1    1.459884690999873E-2   -1.139588929767506E-4   -5.339014588941031E-4   -9.053274581563135E-5   -5.600761695528757E-4   -3.994110205311336E-1    2.929270104099982E-1
 1.000526695600000E+10  -4.998220971523075E-1    1.517647826512163E-2   -9.655476025843654E-5   -5.286579890045539E-4   -9.978265931744313E-5   -5.493317323843251E-4   -3.990823932783998E-1    2.933242804369223E-1
 1.000527417200000E+10  -4.998204935071501E-1    1.559894496360856E-2   -1.111704077238042E-4   -5.309106008405702E-4   -8.055488810759800E-5   -5.237354652356898E-4   -3.989795814610441E-1    2.937569665843377E-1
 1.000528138800000E+10  -4.997924584067249E-1    1.602651272078358E-2   -7.602113428269306E-5   -5.418377681302417E-4   -6.635906884543335E-5   -5.158806576993147E-4   -3.985592593612136E-1    2.940560854751056E-1
 1.000528860400000E+10  -4.999782056852723E-1    1.647199215613089E-2   -1.154914170440962E-4   -5.311450490561864E-4   -7.138876398288169E-5   -5.119729268894833E-4   -3.982848875746073E-1    2.945996354788914E-1
 1.000529582000000E+10  -4.998318710228576E-1    1.701036032897561E-2   -7.066826377524025E-5   -5.044351241056455E-4   -7.236644784487471E-5   -4.954486188920779E-4   -3.978287017314167E-1    2.951033145931097E-1
 1.000530303600000E+10  -4.998722707241146E-1    1.744007404216841E-2   -9.343769868193501E-5   -5.005617064646198E-4   -6.635220945040086E-5   -5.017405798560300E-4   -3.976641381694066E-1    2.953520561352558E-1
 1.000531025200000E+10  -4.998428881377254E-1    1.784348571356191E-2   -1.171586419296635E-4   -5.101597638780880E-4   -7.141133260911444E-5   -5.123506372202107E-4   -3.974067553988953E-1    2.958640770821022E-1
 1.000531746800000E+10  -4.999051009826443E-1    1.827749002633254E-2   -9.889526846026596E-5   -5.146483517337797E-4   -5.317889138787588E-5   -4.794081488274724E-4   -3.971480250301122E-1    2.962335458036077E-1
 1.000532468400000E+10  -4.998971164631280E-1    1.878166498259037E-2   -1.157449501289215E-4   -5.078053014825260E-4   -7.096442433814284E-5   -4.894237306231372E-4   -3.967555226883711E-1    2.967266235254188E-1
 1.000533190000000E+10  -4.998137293314273E-1    1.930800462003330E-2   -7.824136525943335E-5   -4.712585725269161E-4   -6.621923788827551E-5   -4.922008365128609E-4   -3.964238409221638E-1    2.971437122468586E-1
 1.000533911600000E+10  -4.998934729652457E-1    1.976693350518662E-2   -7.595682188167780E-5   -4.794487833658384E-4   -7.371638064211181E-5   -4.838248761698525E-4   -3.962113250609448E-1    2.976084798063047E-1
 1.000534633200000E+10  -4.997914149747307E-1    2.024318296983611E-2   -8.656802276541140E-5   -4.924361359502578E-4   -6.011032282436382E-5   -4.664818160635773E-4   -3.958845107325157E-1    2.980328225824138E-1
 1.000535354800000E+10  -4.997642909028787E-1    2.073602550511661E-2   -8.527826839841034E-5   -4.737948208983868E-4   -5.019726076759605E-5   -4.830123303380852E-4   -3.955949017192724E-1    2.985247677573045E-1
 1.000536076400000E+10  -4.998221574686113E-1    2.131242641800060E-2   -6.796607750495404E-5   -4.918516366248174E-4   -5.458634237024948E-5   -4.704739066483608E-4   -3.952793594052315E-1    2.988963076477097E-1
 1.000536798000000E+10  -4.998138294703798E-1    2.164288181990916E-2   -5.344177275076512E-5   -4.781859148295698E-4   -7.299376401385991E-5   -4.529169072997573E-4   -3.950200859013336E-1    2.993387969212324E-1
 1.000537519600000E+10  -4.997838067890441E-1    2.208847574239725E-2   -5.509342992304977E-5   -4.543280812323564E-4   -3.757394076888627E-5   -4.671089187271462E-4   -3.945958556461047E-1    2.997227776972482E-1
 1.000538241200000E+10  -4.999564132937114E-1    2.269389814529436E-2   -6.446706799949871E-5   -4.624463961034222E-4   -4.252496388455805E-5   -4.477694973792635E-4   -3.942929541427370E-1    3.001133635628370E-1
 1.000538962800000E+10  -4.998405237133232E-1    2.302716732946525E-2   -4.390545012402612E-5   -4.392739963466036E-4   -4.461730723278502E-5   -4.775427672690551E-4   -3.940507382825772E-1    3.004921549687429E-1
 1.000539684400000E+10  -4.996794658668795E-1    2.356894382991923E-2   -3.867495371924408E-5   -4.195687909676881E-4   -2.913944598319216E-5   -4.388588010556310E-4   -3.937613750112933E-1    3.010433976952026E-1
 1.000540406000000E+10  -4.999115412742705E-1    2.407737367386947E-2   -2.692786735216587E-5   -4.394069211699518E-4   -3.831733519813548E-5   -3.996501389481369E-4   -3.934441177965104E-1    3.014461407620107E-1
 1.000541127600000E+10  -4.998194787860452E-1    2.431690700121929E-2   -6.008970235898387E-5   -4.168038685799444E-4   -5.210765812683633E-5   -4.184992570206207E-4   -3.931062897700854E-1    3.018690036303590E-1
 1.000541849200000E+10  -4.998330367578527E-1    2.489756249174701E-2   -3.733884695844599E-5   -4.356619151141127E-4   -5.008063601563071E-5   -4.156382010687145E-4   -3.927385072588095E-1    3.023917595189410E-1
 1.000542570800000E+10  -4.997465066679788E-1    2.549595440667004E-2   -4.429993434381073E-5   -4.051127862301952E-4   -4.080813683563131E-5   -4.117785112728393E-4   -3.923352336566756E-1    3.027728586407811E-1
 1.000543292400000E+10  -4.996710757295578E-1    2.586787686535596E-2   -4.293933327022183E-5   -4.062991744776928E-4   -1.175536546760494E-5   -3.826737125420112E-4   -3.922098712196844E-1    3.032627958756174E-1
 1.000544014000000E+10  -4.996451165537076E-1    2.645329572753510E-2   -5.523226451266719E-5   -3.822347053315830E-4   -1.212602901202929E-5   -3.925277231436434E-4   -3.919357293940474E-1    3.035594297627343E-1
 1.000544735600000E+10  -4.996990971307552E-1    2.683039877282636E-2   -3.898827010038728E-5   -4.070702050063625E-4   -1.708190238999338E-5   -3.992929411665158E-4   -3.916084825480279E-1    3.041814814621621E-1
 1.000545457200000E+10  -4.997486712793969E-1    2.728749583514307E-2   -1.130255082595228E-5   -3.707664504664408E-4   -4.790644454039175E-5   -3.894203443250597E-4   -3.912292137844556E-1    3.043239219033365E-1
 1.000546178800000E+10  -4.996121483090678E-1    2.780973714695582E-2   -4.795778204692853E-5   -3.800087187270427E-4   -1.117012094263013E-5   -3.913242163652180E-4   -3.908613454555311E-1    3.049419792076036E-1
 1.000546900400000E+10  -4.996418970213822E-1    2.823114146270276E-2   -2.102535148903037E-5   -3.542169974771811E-4    1.196016892112402E-6   -3.607458397221983E-4   -3.906230993169179E-1    3.053493932455279E-1
 1.000547622000000E+10  -4.996580558607825E-1    2.873704137939825E-2   -3.575223197633639E-5   -3.414059334690670E-4    4.440035827672497E-6   -3.614837664090821E-4   -3.900583519730632E-1    3.058113971124356E-1
 1.000548343600000E+10  -4.995263569136848E-1    2.917368545260565E-2   -1.818696355485799E-5   -3.981365402490997E-4    2.927751242211054E-5   -3.915146559903192E-4   -3.898287938300373E-1    3.062171810757160E-1
 1.000549065200000E+10  -4.995991761784382E-1    2.962104814392776E-2    1.223701591328477E-6   -3.582686025100291E-4    4.207001677278605E-5   -3.593729298904488E-4   -3.895327394445477E-1    3.067219586868792E-1
 1.000549786800000E+10  -4.997149113283189E-1    3.009316466120459E-2   -5.942672484348150E-6   -3.608904288844877E-4    5.952090101389656E-6   -3.327921605796850E-4   -3.890869993725677E-1    3.071441370851712E-1
 1.000550508400000E+10  -4.996734630833307E-1    3.061026071037557E-2    6.051163163979488E-7   -3.186914693744619E-4    6.166698920473181E-6   -3.507095109678125E-4   -3.889223008714250E-1    3.074841558381996E-1
 1.000551230000000E+10  -4.997523374265039E-1    3.097742065129529E-2    3.165126939125459E-5   -3.138113933151427E-4    4.733925964648404E-5   -3.120021793476322E-4   -3.884303035488646E-1    3.080706666050400E-1
 1.000551951600000E+10  -4.996240422091089E-1    3.147962220128329E-2    2.822457940693406E-5   -3.188781113630357E-4    2.943885459540403E-5   -3.182410776914880E-4   -3.881394177300028E-1    3.083954239619798E-1
 1.000552673200000E+10  -4.996041391520763E-1    3.190804877616112E-2    3.749659873288356E-5   -3.170552819741183E-4    3.672330892524217E-5   -3.116813619573641E-4   -3.878107931455939E-1    3.089693555377591E-1
 1.000553394800000E+10  -4.995333602036849E-1    3.248562216008238E-2    5.323034619006104E-5   -2.958101199227783E-4    4.121184114630095E-5   -3.027056316943592E-4   -3.874536566312465E-1    3.092584938503946E-1
 1.000554116400000E+10  -4.995846430409689E-1    3.293778628413723E-2    2.803075571682348E-5   -3.166476494716539E-4    7.792189200885678E-5   -2.882402513141211E-4   -3.872682257697998E-1    3.096718773543459E-1
 1.000554838000000E+10  -4.996429747402780E-1    3.336717325640613E-2    4.650666553849405E-5   -2.648684145631357E-4    7.011762182347810E-5   -2.681013833228142E-4   -3.869105074649734E-1    3.102383474494753E-1
 1.000555559600000E+10  -4.994391288452369E-1    3.384339974996744E-2    3.399333462879917E-5   -2.791594078662197E-4    5.181649005088754E-5   -2.721749542959357E-4   -3.863950790611296E-1    3.107729675736448E-1
 1.000556281200000E+10  -4.994672744818943E-1    3.418140301929212E-2    5.039004272692942E-5   -2.661686761802520E-4    6.094833481019510E-5   -2.688792512496424E-4   -3.861212307226674E-1    3.110599545822073E-1
 1.000557002800000E+10  -4.994107834829278E-1    3.483519386614147E-2    9.391721775536894E-5   -2.767491293925157E-4    7.512586388158956E-5   -2.396199559689522E-4   -3.855899759027992E-1    3.115886899972309E-1
 1.000557724400000E+10  -4.994122271211284E-1    3.525877511571937E-2    9.107865980213278E-5   -2.387370080295614E-4    9.098053527154893E-5   -2.484651653972259E-4   -3.855018277402735E-1    3.119420908930796E-1
 1.000558446000000E+10  -4.994814739052533E-1    3.574818078046020E-2    8.371066599833624E-5   -2.432537544530947E-4    8.303058558456216E-5   -2.399788249315729E-4   -3.849528621804152E-1    3.123842578685299E-1
