#  HZ   S   RI   R     50.00 
! Rohde & Schwarz Vector Network Analyzer 
! Rohde-Schwarz,ZNB20-2Port,1311601062101988,3.16
! Created: UTC 3/20/2024, 11:54:22 AM
! freq[Hz]                re:S11                  im:S11                  re:S21                  im:S21                  re:S12                  im:S12                  re:S22                  im:S22
 1.000496162500000E+10  -4.996380276813713E-1   -4.874308142340215E-3   -1.978322697957087E-4   -7.217331856897045E-4   -1.264832062616905E-4   -6.975881492964996E-4   -4.108333322826567E-1    2.752496711435316E-1
 1.000496875517500E+10  -4.995443141665549E-1   -4.433701065295029E-3   -1.799654647405719E-4   -7.091345005418697E-4   -1.422397824842327E-4   -7.120408392960681E-4   -4.106125487588837E-1    2.756115105039228E-1
 1.000497588535000E+10  -4.995524450427630E-1   -3.985408335607763E-3   -1.822127858987542E-4   -7.079263286400175E-4   -1.203638138293359E-4   -7.030733611212116E-4   -4.102445237468215E-1    2.760155093275419E-1
 1.000498301552500E+10  -4.996044353265794E-1   -3.472116815770828E-3   -1.653378691821403E-4   -7.077412890471195E-4   -1.441846735900228E-4   -7.133966365228493E-4   -4.099576155896972E-1    2.764091289265453E-1
 1.000499014570000E+10  -4.997589811339522E-1   -2.886507698479389E-3   -1.577128764318780E-4   -6.906818911369817E-4   -1.242696528582445E-4   -7.058446316465505E-4   -4.097167722608314E-1    2.769086478063512E-1
 1.000499727587500E+10  -4.995095899084339E-1   -2.527347219704491E-3   -1.898575597813099E-4   -6.878412859625773E-4   -1.261130557559243E-4   -7.096097521833864E-4   -4.094013242870956E-1    2.773086117928994E-1
 1.000500440605000E+10  -4.996185577861697E-1   -1.929278806985500E-3   -1.634906343373023E-4   -7.089788748853186E-4   -1.242735038582882E-4   -7.129571433262331E-4   -4.092404140825951E-1    2.776929304717118E-1
 1.000501153622500E+10  -4.996871627166398E-1   -1.715260704403884E-3   -1.788930360844737E-4   -6.927194001081468E-4   -1.466105908540865E-4   -6.951696421965039E-4   -4.087796677008362E-1    2.781403598219758E-1
 1.000501866640000E+10  -4.996461882094657E-1   -1.167089196471813E-3   -1.637043602957936E-4   -6.894131350960723E-4   -1.260020895023961E-4   -6.642392294489049E-4   -4.087608089016417E-1    2.785260960485516E-1
 1.000502579657500E+10  -4.996788724700603E-1   -6.496339516411569E-4   -1.478841834480125E-4   -6.646854807117835E-4   -1.178316160433009E-4   -6.687687901307115E-4   -4.084340816327650E-1    2.789611634947020E-1
 1.000503292675000E+10  -4.996570263579138E-1   -2.681904952102588E-4   -1.729188362760252E-4   -6.998260990536753E-4   -1.424960698277063E-4   -6.826644531112859E-4   -4.081950050003654E-1    2.793663093193527E-1
 1.000504005692500E+10  -4.997811788374745E-1    1.880902759263195E-4   -1.527427773259494E-4   -6.617861868768487E-4   -1.430223439078022E-4   -6.456654357152880E-4   -4.079176627494838E-1    2.796942115842723E-1
 1.000504718710000E+10  -4.996930918479566E-1    7.216050902981382E-4   -1.705950183856822E-4   -6.895925938338150E-4   -1.278596726617106E-4   -6.711985568501663E-4   -4.076269214332210E-1    2.801739195877769E-1
 1.000505431727500E+10  -4.997465106231798E-1    1.291485675043006E-3   -1.806165073487939E-4   -6.597450680397494E-4   -1.170405953332132E-4   -6.746147030884740E-4   -4.074626772293220E-1    2.806529413422732E-1
 1.000506144745000E+10  -4.998051812239950E-1    1.598549950017684E-3   -1.686661439579361E-4   -6.630513306875890E-4   -1.378074284747061E-4   -6.693564317570564E-4   -4.072029014372792E-1    2.810385965250331E-1
 1.000506857762500E+10  -4.998848203403622E-1    2.192605508040279E-3   -1.626297932788013E-4   -6.584715123392221E-4   -1.293663397505677E-4   -6.481977019038034E-4   -4.068348819058544E-1    2.815273386241492E-1
 1.000507570780000E+10  -4.998768632044956E-1    2.538195102360369E-3   -1.673059112443293E-4   -6.645818463691312E-4   -1.054102644146294E-4   -6.590948110633413E-4   -4.066565016852743E-1    2.820554097773268E-1
 1.000508283797500E+10  -4.999347418688131E-1    3.060233827717556E-3   -1.621842903848222E-4   -6.301223170728490E-4   -1.181237351708398E-4   -6.670527580970982E-4   -4.063886536089702E-1    2.823498923411362E-1
 1.000508996815000E+10  -4.998451975519930E-1    3.571560623280827E-3   -1.547463796069401E-4   -6.734021658581262E-4   -1.274811249898145E-4   -6.734316617394341E-4   -4.059059483116664E-1    2.827909977506761E-1
 1.000509709832500E+10  -4.997665414187917E-1    3.965137381569792E-3   -1.431402794095771E-4   -6.336321744999254E-4   -1.082913570882782E-4   -6.576572214004391E-4   -4.058697977723674E-1    2.832080192331657E-1
 1.000510422850000E+10  -4.998776216582239E-1    4.489844353218080E-3   -1.709943785486410E-4   -6.352928760819774E-4   -1.219787181271803E-4   -6.450267232466979E-4   -4.054235536519956E-1    2.837120469688289E-1
 1.000511135867500E+10  -4.999361471093707E-1    5.036316029389590E-3   -1.415710346581297E-4   -6.433860103071893E-4   -1.351475682827939E-4   -6.189520106909339E-4   -4.053535761663599E-1    2.839814461094299E-1
 1.000511848885000E+10  -4.997829114270983E-1    5.312598430374661E-3   -1.333729928041733E-4   -6.257321155859105E-4   -1.321290087551612E-4   -6.321693825280424E-4   -4.049584615767176E-1    2.844267658623443E-1
 1.000512561902500E+10  -4.999215484863463E-1    5.841451424440790E-3   -1.587458374137710E-4   -6.249951158096809E-4   -1.010820619404263E-4   -6.535123464523093E-4   -4.046866435283298E-1    2.848152578042304E-1
 1.000513274920000E+10  -4.998620901777941E-1    6.303026508613667E-3   -1.533091636069697E-4   -6.341423928900556E-4   -8.843370494282648E-5   -6.156552717415679E-4   -4.043698505223798E-1    2.853502969182011E-1
 1.000513987937500E+10  -4.998833763651455E-1    6.770729788352235E-3   -1.614880336927250E-4   -6.221798607063681E-4   -1.105991469436959E-4   -6.176827050470030E-4   -4.042534723683709E-1    2.857892975423159E-1
 1.000514700955000E+10  -4.998714892623062E-1    7.211063702605185E-3   -1.422468382784431E-4   -6.002806442733567E-4   -7.537153775613530E-5   -6.286224611478711E-4   -4.039928794192822E-1    2.861164447775189E-1
 1.000515413972500E+10  -4.998806480842412E-1    7.601584228996176E-3   -1.244792838343585E-4   -6.041194897313692E-4   -1.189572296939787E-4   -6.046831779596069E-4   -4.036771294638271E-1    2.866346765090024E-1
 1.000516126990000E+10  -4.998585195872736E-1    8.151464456653611E-3   -1.189029024979601E-4   -6.259233882223607E-4   -1.178365369426073E-4   -6.311884809432775E-4   -4.034771825646510E-1    2.869581790062992E-1
 1.000516840007500E+10  -4.999889618713914E-1    8.574630097403764E-3   -1.468710695324624E-4   -5.866625233916070E-4   -9.625577071617737E-5   -6.276787526546192E-4   -4.030536215034394E-1    2.874718157297333E-1
 1.000517553025000E+10  -4.998557606206375E-1    9.090025346296039E-3   -1.401493714223096E-4   -5.868346491415629E-4   -1.020091422313791E-4   -6.097142300618868E-4   -4.028496613027766E-1    2.877326919731891E-1
 1.000518266042500E+10  -4.999400911721835E-1    9.588954610171490E-3   -1.315442247101712E-4   -6.092211415886683E-4   -1.107654613969863E-4   -5.977841472832348E-4   -4.027020785072561E-1    2.882703931179912E-1
 1.000518979060000E+10  -4.999312860726273E-1    9.986663995672072E-3   -1.382252628566773E-4   -6.029949298085774E-4   -8.175980156507208E-5   -6.180617263483280E-4   -4.021953369658584E-1    2.887085081690082E-1
 1.000519692077500E+10  -4.998866170676423E-1    1.040449194538512E-2   -1.321679408671972E-4   -5.948625518359619E-4   -1.038637444594920E-4   -5.651710672258364E-4   -4.019777756962046E-1    2.889674544469729E-1
 1.000520405095000E+10  -4.999168151205461E-1    1.090265651618198E-2   -1.563793422536910E-4   -6.064015609268658E-4   -1.264362059128325E-4   -5.619846897215706E-4   -4.017498718636707E-1    2.894448404809483E-1
 1.000521118112500E+10  -4.999725250566842E-1    1.139981123006570E-2   -1.166194843093876E-4   -5.690587640151433E-4   -1.168679805261505E-4   -5.684062918188820E-4   -4.015201584201467E-1    2.899635848057048E-1
 1.000521831130000E+10  -4.999595324951296E-1    1.190239819815068E-2   -1.405880805334705E-4   -5.850967946949743E-4   -1.073815190669103E-4   -5.513997137181484E-4   -4.011473251279239E-1    2.904706917413224E-1
 1.000522544147500E+10  -4.998928311314004E-1    1.232951201844248E-2   -9.667679642636172E-5   -5.558600950746555E-4   -6.381004396721655E-5   -5.477069654464249E-4   -4.009862984876453E-1    2.908895078278719E-1
 1.000523257165000E+10  -4.997909020210135E-1    1.268940845805513E-2   -1.038218220305791E-4   -5.543046962611938E-4   -8.994881865038571E-5   -5.675500878760750E-4   -4.007700916145526E-1    2.912027275906349E-1
 1.000523970182500E+10  -4.998636418429770E-1    1.327572203769504E-2   -1.465082220893475E-4   -5.563293410759121E-4   -9.772691953242533E-5   -5.843188795021198E-4   -4.002930932353650E-1    2.916644670162468E-1
 1.000524683200000E+10  -4.999616521104014E-1    1.367220016081753E-2   -1.088064552694283E-4   -5.602097087452189E-4   -9.228965707306189E-5   -5.650210844807696E-4   -4.000140721504622E-1    2.920797701669223E-1
 1.000525396217500E+10  -4.999798721946375E-1    1.410734574890636E-2   -1.112557229353564E-4   -5.586825157677809E-4   -9.768097247675944E-5   -5.726096642812917E-4   -3.998628322144932E-1    2.925091656633291E-1
 1.000526109235000E+10  -4.998571032146414E-1    1.463656700080411E-2   -1.069332902418940E-4   -5.655564340917874E-4   -7.165851308952689E-5   -5.476542056474164E-4   -3.994692871816068E-1    2.928895619112581E-1
 1.000526822252500E+10  -4.999282467832226E-1    1.509953625364509E-2   -1.236145306451750E-4   -5.325971583576237E-4   -8.692480886926395E-5   -5.226983836597751E-4   -3.991631272238769E-1    2.933537703290803E-1
 1.000527535270000E+10  -4.999690858534329E-1    1.547271987226313E-2   -1.061064380548881E-4   -5.463080602146527E-4   -7.894812404453680E-5   -5.583230626421638E-4   -3.989976815297796E-1    2.937929144962706E-1
 1.000528248287500E+10  -5.000673558302393E-1    1.604006189157947E-2   -1.347365706264745E-4   -5.552260962382336E-4   -8.597865413646308E-5   -5.260724034360980E-4   -3.986176404630835E-1    2.942339012229769E-1
 1.000528961305000E+10  -5.000303066605646E-1    1.659556151195240E-2   -8.052145128277657E-5   -5.244055102598486E-4   -3.679187243402028E-5   -5.282928694484521E-4   -3.982836741969014E-1    2.945842861021862E-1
 1.000529674322500E+10  -4.998800282453745E-1    1.693635419712329E-2   -1.050531298793668E-4   -5.088834929101135E-4   -7.843294947796980E-5   -4.871783789209352E-4   -3.980330316774936E-1    2.949738997730506E-1
 1.000530387340000E+10  -4.998484397089772E-1    1.750358438866914E-2   -1.003141205690491E-4   -5.411222688665902E-4   -1.006046048226591E-4   -4.924036408568638E-4   -3.977382742266207E-1    2.953802162796084E-1
 1.000531100357500E+10  -4.999455589428782E-1    1.785439502463062E-2   -8.680082629342331E-5   -5.225048123614907E-4   -6.108341104658046E-5   -5.282155613441651E-4   -3.975080215783369E-1    2.958676342452783E-1
 1.000531813375000E+10  -4.999850113194850E-1    1.827715168345875E-2   -1.198725877538698E-4   -5.006656157575439E-4   -7.397638087627708E-5   -5.023965957761371E-4   -3.971715154451341E-1    2.962741525774787E-1
 1.000532526392500E+10  -4.999048236224751E-1    1.879444654438223E-2   -8.535280997610431E-5   -4.986223325532370E-4   -8.096246614588062E-5   -5.094875291393730E-4   -3.967466740871758E-1    2.966236887583257E-1
 1.000533239410000E+10  -4.998786228876783E-1    1.925653161903195E-2   -9.086745339490134E-5   -4.851123694126043E-4   -6.645289491957233E-5   -5.134860364307144E-4   -3.965694061380493E-1    2.970356630539767E-1
 1.000533952427500E+10  -4.999082448303260E-1    1.974218128350251E-2   -1.071855227183613E-4   -4.868739666878679E-4   -6.339560353736944E-5   -4.977541582122701E-4   -3.962448320220175E-1    2.975260849354625E-1
 1.000534665445000E+10  -4.998563779503173E-1    2.012544326848791E-2   -6.542142290447958E-5   -4.793599047623951E-4   -3.303761762709416E-5   -4.885688664994445E-4   -3.960454385720690E-1    2.980249406138659E-1
 1.000535378462500E+10  -4.998523121102336E-1    2.071343687841052E-2   -9.470511082638104E-5   -4.960501706011928E-4   -3.549627074335573E-5   -4.742245040228938E-4   -3.956131890288851E-1    2.983853749708600E-1
 1.000536091480000E+10  -4.998611592703475E-1    2.105441228827476E-2   -7.027583379877179E-5   -4.908757934533559E-4   -7.480596328072480E-5   -4.754535415571499E-4   -3.953426412723017E-1    2.986978155321669E-1
 1.000536804497500E+10  -4.999797664871336E-1    2.160475880866884E-2   -6.437504260678075E-5   -4.583825093792785E-4   -5.753572262352083E-5   -4.784039978222723E-4   -3.950930171130887E-1    2.991108710799599E-1
 1.000537517515000E+10  -4.998799087392775E-1    2.209462266223920E-2   -8.443933701805661E-5   -4.690009396892056E-4   -3.620506176253578E-5   -4.370831847789336E-4   -3.948274181420688E-1    2.995164786868066E-1
 1.000538230532500E+10  -4.998989667753415E-1    2.255357688253238E-2   -6.443103309018407E-5   -4.675057183739207E-4   -1.171849093156187E-5   -4.683030045965012E-4   -3.942647013880732E-1    3.000198977397384E-1
 1.000538943550000E+10  -4.999370149416060E-1    2.294474180425077E-2   -8.088149972408363E-5   -4.551682168514255E-4   -9.386007391034048E-6   -4.289283125991108E-4   -3.941971420505178E-1    3.005088755064647E-1
 1.000539656567500E+10  -4.998596856976070E-1    2.343989999805651E-2   -8.759549918395804E-5   -4.502155072131477E-4   -2.784691190789902E-5   -4.450080466277780E-4   -3.936799194564098E-1    3.009647513533064E-1
 1.000540369585000E+10  -4.998255436217186E-1    2.391325844545945E-2   -5.539809105194959E-5   -4.662560547711216E-4   -5.264379335921491E-5   -4.471762378206041E-4   -3.935137467630611E-1    3.012796122228980E-1
 1.000541082602500E+10  -4.999062269406499E-1    2.442122357358266E-2   -4.448012926494975E-5   -4.039194559907201E-4   -4.059486019268281E-5   -4.384051623483534E-4   -3.932547130315800E-1    3.017247824768540E-1
 1.000541795620000E+10  -4.999269610146405E-1    2.488908226989848E-2   -5.265069001871384E-5   -4.188558703763635E-4   -3.301955150491516E-5   -4.064346129654722E-4   -3.930331035355573E-1    3.022592466595290E-1
 1.000542508637500E+10  -4.997267891181097E-1    2.518763707040317E-2   -2.714638328687357E-5   -4.164176433072805E-4   -4.922217477831555E-5   -4.012926141042332E-4   -3.926531544569954E-1    3.025443120035564E-1
 1.000543221655000E+10  -4.997835030044798E-1    2.576490871078787E-2   -5.040555391543888E-5   -4.130680993958224E-4   -2.114836590633405E-5   -4.008402981014450E-4   -3.923465377451127E-1    3.031651075111061E-1
 1.000543934672500E+10  -4.999538969358790E-1    2.624286572497290E-2   -3.981393281424712E-5   -4.172969463696569E-4    1.145036817967322E-5   -3.993630484008126E-4   -3.919794780404140E-1    3.033796505752063E-1
 1.000544647690000E+10  -4.998821866506591E-1    2.676522404253907E-2   -5.340824893363218E-5   -4.157942072902091E-4   -5.349862538731496E-6   -4.120352408545239E-4   -3.915366145907377E-1    3.040394149818275E-1
 1.000545360707500E+10  -4.998405468160493E-1    2.727255045650875E-2   -2.682544570412614E-5   -3.756320495649745E-4   -2.405731404752118E-5   -3.780549236680425E-4   -3.912457479328141E-1    3.042964672354573E-1
 1.000546073725000E+10  -4.998196653766544E-1    2.761509804627640E-2    5.411675480783919E-6   -3.985925153855901E-4    3.249962555922811E-5   -3.798790555988958E-4   -3.909990258432240E-1    3.048514154905602E-1
 1.000546786742500E+10  -4.996540925325078E-1    2.809250260051718E-2   -8.814633374272039E-6   -3.902265522346468E-4   -2.063206157798196E-5   -3.597212389356605E-4   -3.907799523708723E-1    3.053300798013467E-1
 1.000547499760000E+10  -4.997170096089572E-1    2.853109175996449E-2   -2.918826120079212E-5   -3.515904192396149E-4    9.770132304264640E-6   -3.649111111184667E-4   -3.902935438532980E-1    3.056544023685284E-1
 1.000548212777500E+10  -4.998156571971248E-1    2.896909386722497E-2   -3.063229898955401E-5   -3.781837590147944E-4    3.417634759372910E-6   -3.728032376502670E-4   -3.899523441789839E-1    3.061427212312957E-1
 1.000548925795000E+10  -4.996750532482869E-1    2.953482672888274E-2   -2.443932511483489E-5   -3.547102381877675E-4    2.864223065383847E-5   -3.687080331712434E-4   -3.897825362410877E-1    3.065453924971202E-1
 1.000549638812500E+10  -4.997606075898854E-1    3.002731426910790E-2   -9.314469624977193E-6   -3.421516066469422E-4    5.276917623706576E-6   -3.654229025718937E-4   -3.892952898437557E-1    3.068879683421017E-1
 1.000550351830000E+10  -4.997522242021367E-1    3.048815231785683E-2   -1.076697729073941E-5   -3.685590379753816E-4    5.170354516361211E-5   -3.529195694688182E-4   -3.889654097393540E-1    3.074148446571160E-1
 1.000551064847500E+10  -4.997135815928984E-1    3.092628802259879E-2    1.429039766099557E-5   -3.401281511195578E-4    5.769889366294379E-6   -3.501583878106219E-4   -3.888676702783224E-1    3.077881248450992E-1
 1.000551777865000E+10  -4.997503358075545E-1    3.127507210097537E-2    3.606248377087236E-5   -3.260027258438223E-4    1.106886948555949E-5   -3.043630029024014E-4   -3.883985726520284E-1    3.082327378497611E-1
 1.000552490882500E+10  -4.995774447016620E-1    3.181798601720026E-2    2.742949575634763E-5   -3.105048730318008E-4    9.027008432126874E-6   -3.038543822212618E-4   -3.881312580343879E-1    3.087539282988218E-1
 1.000553203900000E+10  -4.996441948330635E-1    3.225397862763421E-2   -1.498104097757507E-7   -3.150619118439440E-4    3.651764997299035E-5   -3.039770390997830E-4   -3.877286736729971E-1    3.092282690071284E-1
 1.000553916917500E+10  -4.996671442275998E-1    3.268227556202217E-2    3.303893451293965E-5   -2.964078463825114E-4    5.342885906024078E-5   -2.844571455109929E-4   -3.874060919432348E-1    3.094146836603889E-1
 1.000554629935000E+10  -4.995252004840352E-1    3.318763656246867E-2    1.091102917702975E-5   -3.062266949772563E-4    8.105379031210750E-5   -3.095584668567102E-4   -3.869963173653542E-1    3.098946941640099E-1
 1.000555342952500E+10  -4.996430213520876E-1    3.370213161184742E-2    3.843555440998372E-5   -2.739851116281599E-4    6.196453615503030E-5   -2.767802495637699E-4   -3.867550503245696E-1    3.105243569509786E-1
 1.000556055970000E+10  -4.995630483019325E-1    3.418706455406787E-2    2.865653402043113E-5   -2.762397893188762E-4    4.753472456768204E-5   -2.851617994819940E-4   -3.863498274127832E-1    3.108412860951434E-1
 1.000556768987500E+10  -4.993660942213561E-1    3.449536807963945E-2    5.650798562413148E-5   -2.918929090336069E-4    5.842514433743875E-5   -2.542056297482562E-4   -3.860397723301172E-1    3.113873347374316E-1
 1.000557482005000E+10  -4.996379252422050E-1    3.503218287872449E-2    5.209486393988922E-5   -2.806109014169977E-4    8.792497424859144E-5   -2.293319391316683E-4   -3.856377328013481E-1    3.118751962720894E-1
 1.000558195022500E+10  -4.994413323474406E-1    3.547871761195694E-2    7.528812266465060E-5   -2.226714075861022E-4    8.842074912229948E-5   -2.163398729036980E-4   -3.852315612573816E-1    3.123352032345579E-1
 1.000558908040000E+10  -4.994326341361627E-1    3.593775779296553E-2    7.557392938421133E-5   -2.472521301223947E-4    9.500776430600940E-5   -2.144790044984348E-4   -3.848903498157568E-1    3.126946708911817E-1
 1.000559621057500E+10  -4.994016307292818E-1    3.646693566554320E-2    8.606529265429308E-5   -2.457009161692143E-4    6.476827602760367E-5   -2.370907805784306E-4   -3.847010066996431E-1    3.131403251404019E-1
 1.000560334075000E+10  -4.995071475384235E-1    3.691445723440918E-2    8.614765410780506E-5   -2.515867628642928E-4    1.023346679870703E-4   -2.612334340972808E-4   -3.843848985504911E-1    3.134508953543689E-1
