#  HZ   S   RI   R     50.00 
! Rohde & Schwarz Vector Network Analyzer 
! Rohde-Schwarz,ZNB20-2Port,1311601062101988,3.16
! Created: UTC 3/20/2024, 11:54:34 AM
! freq[Hz]                re:S11                  im:S11                  re:S21                  im:S21                  re:S12                  im:S12                  re:S22                  im:S22
 1.000499536700000E+10  -4.996832224393092E-1   -2.805689831025323E-3   -1.994762496012872E-4   -7.173082392945055E-4   -1.501954564423111E-4   -7.204925853843966E-4   -4.096014213249912E-1    2.770005656809471E-1
 1.000500235322500E+10  -4.996519308489410E-1   -2.197698801909814E-3   -1.963874701098864E-4   -7.024484419553494E-4   -1.409525878089035E-4   -6.961442330198317E-4   -4.093334383628439E-1    2.774283437470911E-1
 1.000500933945000E+10  -4.997146717953956E-1   -1.786939748581914E-3   -1.900506281093488E-4   -6.854159484780190E-4   -1.789760126305890E-4   -6.904027904440905E-4   -4.090868395810281E-1    2.780342018694141E-1
 1.000501632567500E+10  -4.997239417460998E-1   -1.448786907502669E-3   -2.016709542290395E-4   -6.914295653662649E-4   -1.354535453064747E-4   -6.988124551013239E-4   -4.088186602298587E-1    2.784134592157871E-1
 1.000502331190000E+10  -4.996246196796574E-1   -8.979943616111405E-4   -1.905282341669537E-4   -6.748175022533513E-4   -1.216236843224609E-4   -6.790243086867018E-4   -4.084858041363755E-1    2.788621083607448E-1
 1.000503029812500E+10  -4.996591653172422E-1   -3.893965640766042E-4   -1.812510980473708E-4   -6.768244906190161E-4   -1.274516035124918E-4   -6.684438415196796E-4   -4.083874605774242E-1    2.791952495091232E-1
 1.000503728435000E+10  -4.997012750494301E-1   -7.964594531529500E-5   -1.779130699103845E-4   -6.747773024052366E-4   -1.233486257098863E-4   -7.149056670229014E-4   -4.081078033369184E-1    2.796794454831499E-1
 1.000504427057500E+10  -4.997809271258697E-1    4.122005471328819E-4   -1.781881543630317E-4   -6.826164105762898E-4   -1.293310919207288E-4   -6.729315270944078E-4   -4.078481679382567E-1    2.799102591976178E-1
 1.000505125680000E+10  -4.997057219442417E-1    1.020216524707236E-3   -1.636636477270917E-4   -6.693338664659015E-4   -1.393188958552543E-4   -6.769115545137007E-4   -4.074837631179121E-1    2.804594305348740E-1
 1.000505824302500E+10  -4.997352150974104E-1    1.364877886479178E-3   -1.575752841565611E-4   -6.643633132851353E-4   -1.495901723884301E-4   -6.891721900913455E-4   -4.072711534385856E-1    2.808704872265095E-1
 1.000506522925000E+10  -4.997751494369187E-1    1.955063137914985E-3   -1.687177207587027E-4   -6.402910780124410E-4   -1.141953581371827E-4   -6.493804648597988E-4   -4.069868849214627E-1    2.811959312313911E-1
 1.000507221547500E+10  -4.997609442904233E-1    2.322961957306384E-3   -1.556833992937514E-4   -6.665320460110845E-4   -1.296177622449595E-4   -6.802904592684615E-4   -4.066594893639128E-1    2.816320345008219E-1
 1.000507920170000E+10  -4.997602612335346E-1    2.708843421770325E-3   -1.427835472706279E-4   -6.433433953130567E-4   -1.356068943430710E-4   -6.709664721568113E-4   -4.065556693488572E-1    2.821266771971705E-1
 1.000508618792500E+10  -5.000493663173852E-1    3.191726752922737E-3   -1.749386069050011E-4   -6.493432455148348E-4   -1.216436023403063E-4   -6.760213678914729E-4   -4.062766918359595E-1    2.825216324610539E-1
 1.000509317415000E+10  -4.998819785678638E-1    3.712355042825357E-3   -1.573061980591411E-4   -6.519294945073216E-4   -1.192219302488990E-4   -6.586152598992560E-4   -4.058655775090845E-1    2.827991699791830E-1
 1.000510016037500E+10  -4.997005293091255E-1    4.143515533850179E-3   -1.660061965286815E-4   -6.091870039559345E-4   -1.417739625977304E-4   -6.542353910921355E-4   -4.056613799964311E-1    2.833286147665191E-1
 1.000510714660000E+10  -4.997214448765829E-1    4.580560576520233E-3   -1.778478471282223E-4   -6.443908978265435E-4   -1.135870217546093E-4   -6.612358815439321E-4   -4.055766583909409E-1    2.838070634629101E-1
 1.000511413282500E+10  -5.000061222839898E-1    5.062622040951983E-3   -1.519359649932752E-4   -6.690566705906493E-4   -1.132071835626293E-4   -6.589067876457365E-4   -4.052940614021170E-1    2.843218080454719E-1
 1.000512111905000E+10  -4.998668898247429E-1    5.540288798126821E-3   -1.315093579860486E-4   -6.336158995455582E-4   -9.146135951865578E-5   -6.195535123320182E-4   -4.048935173028337E-1    2.845296595339224E-1
 1.000512810527500E+10  -4.998160951620737E-1    5.955018798971272E-3   -1.665080414439255E-4   -6.353906538974217E-4   -1.311727417563873E-4   -6.385925591429765E-4   -4.046425199665359E-1    2.851311939016590E-1
 1.000513509150000E+10  -4.998278173450160E-1    6.469602196095889E-3   -1.571875818086005E-4   -6.403886670026888E-4   -1.008167043305745E-4   -6.230744960497827E-4   -4.044327268651429E-1    2.853705739597185E-1
 1.000514207772500E+10  -4.999232519198574E-1    6.884699868956865E-3   -1.333627380369584E-4   -6.261549002007364E-4   -1.340305285745063E-4   -6.145222689199607E-4   -4.041291571398977E-1    2.858083444733057E-1
 1.000514906395000E+10  -4.999745730866953E-1    7.413520302433441E-3   -1.487642822451192E-4   -6.203869452553480E-4   -1.293299324917430E-4   -5.977666141531047E-4   -4.038831702104946E-1    2.863460079465572E-1
 1.000515605017500E+10  -4.998272719534642E-1    7.790921890565101E-3   -1.540401109597770E-4   -6.230859202743549E-4   -9.414723645264878E-5   -6.356831924622943E-4   -4.035931727091093E-1    2.867094111140931E-1
 1.000516303640000E+10  -4.999148427938015E-1    8.221989969519124E-3   -1.595096514739010E-4   -6.280566903984219E-4   -1.126243598478260E-4   -6.295248936050903E-4   -4.033197031387679E-1    2.869437260896290E-1
 1.000517002262500E+10  -4.999409705341176E-1    8.615222529762595E-3   -1.221548978797187E-4   -6.329103717319224E-4   -8.003664703671269E-5   -6.257119084815173E-4   -4.031669508272884E-1    2.873579240170948E-1
 1.000517700885000E+10  -4.999711285243323E-1    9.194746832138214E-3   -1.427662504431244E-4   -6.038523499797074E-4   -9.077167570945059E-5   -5.905432585780004E-4   -4.028475881489021E-1    2.879837851424918E-1
 1.000518399507500E+10  -4.999298789259013E-1    9.596367048615174E-3   -1.372287545921916E-4   -6.013396432348842E-4   -1.234026459890136E-4   -6.053061590437291E-4   -4.024283093895761E-1    2.882405437865758E-1
 1.000519098130000E+10  -4.998384632048505E-1    1.011133425881698E-2   -1.325366408843774E-4   -5.951665177667012E-4   -1.156713619697106E-4   -5.965882480827091E-4   -4.023388413674925E-1    2.887887546423993E-1
 1.000519796752500E+10  -4.999782847893016E-1    1.060463170946930E-2   -1.479094915088463E-4   -6.022807543412065E-4   -1.271397349385981E-4   -6.073945983659547E-4   -4.019754259924863E-1    2.890204030240326E-1
 1.000520495375000E+10  -4.999615998996644E-1    1.101600365420563E-2   -1.505928726795065E-4   -6.154571568504680E-4   -1.392585291791243E-4   -5.898272115647509E-4   -4.017697490394193E-1    2.896380625875727E-1
 1.000521193997500E+10  -5.000623427931359E-1    1.140872419559966E-2   -1.323448785784523E-4   -6.064429849256254E-4   -1.236191361998810E-4   -5.698326364144409E-4   -4.013594539097732E-1    2.899210269945434E-1
 1.000521892620000E+10  -4.999225585677760E-1    1.187101081126364E-2   -1.406635980116880E-4   -5.761500273230111E-4   -8.769106914452776E-5   -5.799632280171202E-4   -4.012270661068830E-1    2.903391623257204E-1
 1.000522591242500E+10  -4.999161010075859E-1    1.226542522929473E-2   -1.284393658772735E-4   -5.636483588097583E-4   -1.339990347726034E-4   -6.204990789911529E-4   -4.009444180683960E-1    2.908065584650175E-1
 1.000523289865000E+10  -4.999628914736765E-1    1.274308558959431E-2   -1.631753259101658E-4   -5.783561772074209E-4   -7.887094378089088E-5   -5.578293889125821E-4   -4.006061879918532E-1    2.912815107803357E-1
 1.000523988487500E+10  -4.999656638298396E-1    1.329618197070810E-2   -1.205177408483800E-4   -5.613431237490328E-4   -8.246411246163999E-5   -5.386660242888137E-4   -4.003726952067202E-1    2.915802264243815E-1
 1.000524687110000E+10  -4.999435379277163E-1    1.365147829200093E-2   -1.083075591679395E-4   -5.916059964652186E-4   -1.086495933604301E-4   -5.800321051096941E-4   -4.000490661459070E-1    2.920334363599059E-1
 1.000525385732500E+10  -4.999418389933207E-1    1.419368565125370E-2   -1.504293174987022E-4   -5.729040154651170E-4   -9.284855572668566E-5   -5.400572278643477E-4   -3.998190841105532E-1    2.925284202538554E-1
 1.000526084355000E+10  -4.999941673968312E-1    1.476548223353464E-2   -1.332818872750161E-4   -5.374825836420919E-4   -1.038590991266715E-4   -5.571433799121728E-4   -3.994510998977919E-1    2.928042207669180E-1
 1.000526782977500E+10  -4.999107094839049E-1    1.512434285741739E-2   -1.174047315737121E-4   -5.538146171767638E-4   -7.222631110919001E-5   -5.586199048571040E-4   -3.992840720633241E-1    2.931620734210654E-1
 1.000527481600000E+10  -5.000201857644879E-1    1.539892518474332E-2   -1.081585165439217E-4   -5.496672898106501E-4   -1.070316399743012E-4   -5.331050022813137E-4   -3.988600115950355E-1    2.936277700749431E-1
 1.000528180222500E+10  -5.000464056278051E-1    1.591049040121775E-2   -1.170434983258681E-4   -5.218004629622765E-4   -7.122765686496737E-5   -5.511602514367413E-4   -3.985942887051561E-1    2.940749336635275E-1
 1.000528878845000E+10  -4.998686015348955E-1    1.638618243455748E-2   -1.167681598510053E-4   -5.356159044825544E-4   -8.778284317280806E-5   -5.375594594338334E-4   -3.983554004002594E-1    2.944349067893420E-1
 1.000529577467500E+10  -4.999444783414783E-1    1.686525351469377E-2   -1.227526435146898E-4   -5.576457071090519E-4   -9.518461034656673E-5   -5.365398324374936E-4   -3.982307117690163E-1    2.949253322910900E-1
 1.000530276090000E+10  -5.000053538693555E-1    1.735961481756289E-2   -8.493316839755539E-5   -5.111392703039239E-4   -8.389716389745169E-5   -5.143176019132290E-4   -3.979759656523326E-1    2.953469717929799E-1
 1.000530974712500E+10  -5.000485166981656E-1    1.767123227917643E-2   -1.119267878759132E-4   -5.185917322632768E-4   -7.710510155559416E-5   -5.019306976851976E-4   -3.976837776367791E-1    2.958311240363410E-1
 1.000531673335000E+10  -4.999545047605057E-1    1.823168003716956E-2   -9.912335387503035E-5   -5.225245005954318E-4   -5.945511219709555E-5   -5.431838932876303E-4   -3.972790775145107E-1    2.960476446584385E-1
 1.000532371957500E+10  -4.999923345582054E-1    1.862363091711724E-2   -9.978609308515937E-5   -5.138878814193305E-4   -7.211722207402040E-5   -4.968558801926583E-4   -3.969369949694172E-1    2.965355965027823E-1
 1.000533070580000E+10  -4.998981915053014E-1    1.906852136067116E-2   -9.338929744067617E-5   -5.059211719810935E-4   -6.057711838260839E-5   -4.945283118488519E-4   -3.967139807803635E-1    2.969618388567712E-1
 1.000533769202500E+10  -4.999262138944602E-1    1.966637691962966E-2   -9.377494309872867E-5   -4.869558880417591E-4   -6.871752290695619E-5   -5.055576076812114E-4   -3.964521239662646E-1    2.973586060173100E-1
 1.000534467825000E+10  -5.000205237470995E-1    2.009329920529255E-2   -9.241486530165844E-5   -5.020288905803379E-4   -6.568640342959971E-5   -4.920599177563188E-4   -3.961376213199945E-1    2.977177235507690E-1
 1.000535166447500E+10  -5.001179492462439E-1    2.055620229039253E-2   -7.168448989822751E-5   -4.900049096349336E-4   -8.325200218492453E-5   -4.705852403271536E-4   -3.958180259855026E-1    2.982564420476916E-1
 1.000535865070000E+10  -4.998100433053395E-1    2.099409041339779E-2   -7.627066382628437E-5   -4.810699473115231E-4   -3.948397564574899E-5   -4.962656235065953E-4   -3.954969841296539E-1    2.986942966265211E-1
 1.000536563692500E+10  -4.999398145586269E-1    2.148231311131433E-2   -7.518267800283345E-5   -4.778918979095011E-4   -9.736872203417413E-5   -4.891565987880245E-4   -3.952399595538446E-1    2.990375642255744E-1
 1.000537262315000E+10  -5.000225290479148E-1    2.184372368428114E-2   -7.842756694740782E-5   -4.655531273301748E-4   -4.885906806431609E-5   -4.883446339362458E-4   -3.948582201239755E-1    2.996086699948257E-1
 1.000537960937500E+10  -4.998596657745811E-1    2.237424050125234E-2   -1.026423181206277E-4   -4.698846820373944E-4   -5.472679836982596E-5   -4.767926860835333E-4   -3.946223643509011E-1    2.998838904014587E-1
 1.000538659560000E+10  -4.999747146015005E-1    2.277845740625185E-2   -6.654188829951116E-5   -4.877331878466263E-4   -5.055661900465321E-5   -4.596731340957055E-4   -3.942689234062708E-1    3.004278745443816E-1
 1.000539358182500E+10  -4.998893986105030E-1    2.314116933841191E-2   -7.175698163701707E-5   -4.504245913877503E-4   -3.711192028833758E-5   -4.520761786660449E-4   -3.940948092440233E-1    3.006473818527156E-1
 1.000540056805000E+10  -4.998398303975722E-1    2.376918914233631E-2   -3.888896293380020E-5   -4.179939967669758E-4   -2.997510234594708E-5   -4.417541811877881E-4   -3.936918515336342E-1    3.013752125071822E-1
 1.000540755427500E+10  -4.999042242398993E-1    2.413594248237952E-2   -5.103804682770749E-5   -4.503850775622147E-4   -1.379649521378503E-5   -4.329027137104245E-4   -3.933232864882000E-1    3.014921562549342E-1
 1.000541454050000E+10  -4.998867599818362E-1    2.460809054559500E-2   -5.624540285850910E-5   -4.545199443422390E-4   -3.156319266145222E-5   -4.620212525857016E-4   -3.930015784000452E-1    3.020045229630547E-1
 1.000542152672500E+10  -4.998260654176914E-1    2.510522744518174E-2   -5.235779961879846E-5   -4.386575967525492E-4   -3.764096437645294E-5   -4.141807102247000E-4   -3.927912754794567E-1    3.023999365537939E-1
 1.000542851295000E+10  -4.998812700265123E-1    2.556800878737215E-2   -6.277702202470408E-5   -4.077334135435972E-4    1.706149815891682E-6   -4.021323071235977E-4   -3.925566914067970E-1    3.027261435748449E-1
 1.000543549917500E+10  -4.999450311524075E-1    2.576227750825376E-2   -4.615842613220617E-5   -3.924435848084966E-4   -9.472772799699024E-6   -4.000947179664377E-4   -3.922025271481620E-1    3.033472177426709E-1
 1.000544248540000E+10  -4.998696836326290E-1    2.639995397358273E-2   -3.772896266047872E-5   -4.008771274615855E-4   -2.986530563462984E-5   -4.006347150769819E-4   -3.919900226826615E-1    3.037203175760690E-1
 1.000544947162500E+10  -4.998290129335373E-1    2.682328794200783E-2   -7.356239771542595E-5   -4.138411912752522E-4   -4.684517196981968E-5   -3.844519583635387E-4   -3.915986355345114E-1    3.039658295799409E-1
 1.000545645785000E+10  -4.998058021577939E-1    2.728256802119343E-2   -6.218149686372500E-5   -3.833296515738704E-4   -9.820161724409403E-6   -3.709239836221472E-4   -3.913355257236187E-1    3.045231576629112E-1
 1.000546344407500E+10  -4.997443784814785E-1    2.787736917956768E-2   -3.727345483941648E-5   -3.675163212071517E-4   -3.723808441144500E-5   -3.894765356939364E-4   -3.908594191499048E-1    3.048050620817624E-1
 1.000547043030000E+10  -4.997847101137748E-1    2.831454337960847E-2   -1.450545851523121E-5   -3.706485101099879E-4   -1.220245750685480E-5   -3.443334287133312E-4   -3.906551367745530E-1    3.053265936945330E-1
 1.000547741652500E+10  -4.998594332043291E-1    2.857265119482642E-2   -1.949747074719508E-5   -3.803594071347823E-4   -9.101412915244333E-6   -3.781348896826335E-4   -3.904639567184778E-1    3.056801090090322E-1
 1.000548440275000E+10  -4.997677672165541E-1    2.919094781154225E-2   -7.157432445878486E-6   -3.922383286936146E-4    1.473273334581422E-5   -3.854853012161119E-4   -3.899932068044799E-1    3.061456447490570E-1
 1.000549138897500E+10  -4.997140188895057E-1    2.971229037236658E-2   -1.166853064074438E-5   -3.476723144575544E-4   -1.834419102498086E-5   -3.493434795232994E-4   -3.896086358966817E-1    3.067118270207399E-1
 1.000549837520000E+10  -4.998385930808589E-1    2.998621352150269E-2   -1.889572577651944E-6   -3.634436412201198E-4   -6.275223674297317E-6   -3.608782715926884E-4   -3.893943797122160E-1    3.070712246531117E-1
 1.000550536142500E+10  -4.997537654575329E-1    3.048093341122975E-2   -8.815725383592204E-6   -3.534769969019147E-4   -5.008810245719662E-6   -3.516332213942954E-4   -3.891076463973482E-1    3.075570016516728E-1
 1.000551234765000E+10  -4.997113395625493E-1    3.096479331081935E-2   -5.581072943577404E-6   -3.365933380087454E-4    2.123743289140778E-5   -3.466424281110067E-4   -3.886994089069399E-1    3.079057753516613E-1
 1.000551933387500E+10  -4.997041401637611E-1    3.148571606028968E-2    1.225599512421871E-5   -3.429134676358266E-4    2.318602085263927E-5   -3.070646957571083E-4   -3.883728957028478E-1    3.082673363139814E-1
 1.000552632010000E+10  -4.996159589118775E-1    3.188687887097956E-2    2.252304853035445E-5   -3.289670146338700E-4    1.050168830782036E-5   -3.191882884204676E-4   -3.880300844092843E-1    3.087498544005530E-1
 1.000553330632500E+10  -4.996394752520436E-1    3.226856359102812E-2    5.646513219482733E-5   -3.294792001934256E-4    5.410094444160579E-5   -3.090660412356118E-4   -3.878128665281922E-1    3.091845368448402E-1
 1.000554029255000E+10  -4.997027568030113E-1    3.273945261221958E-2    1.384785017786895E-5   -2.871603395293551E-4    2.158885388343353E-5   -3.239553096069610E-4   -3.873680716336441E-1    3.096529244458112E-1
 1.000554727877500E+10  -4.997413140460778E-1    3.326579314136797E-2    2.451855109819412E-5   -3.008462912426790E-4    4.404220705624846E-5   -2.877315007052061E-4   -3.870447661406319E-1    3.099942559019545E-1
 1.000555426500000E+10  -4.995976119052409E-1    3.357664625889537E-2    4.967136383470934E-5   -2.798800004432454E-4    7.487435660575551E-5   -3.072098240107053E-4   -3.867839023379392E-1    3.103761896269058E-1
 1.000556125122500E+10  -4.997211947299880E-1    3.414759285430228E-2    4.438037560463367E-5   -3.072500095728271E-4    5.601117682894244E-5   -2.601695677577446E-4   -3.864212898626397E-1    3.106450605427717E-1
 1.000556823745000E+10  -4.995761085313433E-1    3.464550576581137E-2    5.052123167782750E-5   -2.822765499415709E-4    4.490876424017069E-5   -2.692376026384520E-4   -3.860522973702070E-1    3.112858885383505E-1
 1.000557522367500E+10  -4.995230480088079E-1    3.505029223598490E-2    4.946742756959252E-5   -2.770242295784112E-4    5.844537639579906E-5   -2.665818318466990E-4   -3.856855429052611E-1    3.117627553364202E-1
 1.000558220990000E+10  -4.994666890034132E-1    3.553302842518273E-2    4.349814398641770E-5   -2.797939679674801E-4    4.829093403818970E-5   -2.814019454465838E-4   -3.853943312276783E-1    3.121501109214248E-1
 1.000558919612500E+10  -4.995837656774965E-1    3.588339967217258E-2    4.126728858139549E-5   -2.540657022398306E-4    6.209459262428324E-5   -2.527926129669597E-4   -3.849839415943129E-1    3.126697693493998E-1
 1.000559618235000E+10  -4.995812150977486E-1    3.630833284759845E-2    9.200716087590526E-5   -2.378987712636689E-4    8.220845802494367E-5   -2.446056052205404E-4   -3.847564123701866E-1    3.129263034855403E-1
 1.000560316857500E+10  -4.995439192706998E-1    3.696666335408674E-2    9.692709317096692E-5   -2.591935684398376E-4    9.888208163389223E-5   -2.494584227017087E-4   -3.843332914314376E-1    3.134752863860167E-1
 1.000561015480000E+10  -4.995247097323294E-1    3.728779990282943E-2    8.770875016731483E-5   -2.371324288967913E-4    6.908131189510309E-5   -2.083373479680608E-4   -3.840538630700139E-1    3.138385639729978E-1
 1.000561714102500E+10  -4.995143312959697E-1    3.781938105024554E-2    1.059210416976901E-4   -2.020107311916420E-4    1.015389556260883E-4   -2.155759395778660E-4   -3.837282548940776E-1    3.143459187222413E-1
 1.000562412725000E+10  -4.994201308779003E-1    3.822662801389731E-2    7.308325647867495E-5   -2.126691614465192E-4    9.818125622590062E-5   -2.116287845989325E-4   -3.834801466999900E-1    3.147202165631088E-1
