#  HZ   S   RI   R     50.00 
! Rohde & Schwarz Vector Network Analyzer 
! Rohde-Schwarz,ZNB20-2Port,1311601062101988,3.16
! Created: UTC 3/20/2024, 11:54:37 AM
! freq[Hz]                re:S11                  im:S11                  re:S21                  im:S21                  re:S12                  im:S12                  re:S22                  im:S22
 1.000499076000000E+10  -4.997541759760477E-1   -2.957261199324249E-3   -1.786876933063137E-4   -7.149178261432318E-4   -1.451830404009349E-4   -7.304756680127315E-4   -4.096419487157860E-1    2.768570371627023E-1
 1.000499777560000E+10  -4.995723723757209E-1   -2.501664338216552E-3   -1.861455725990247E-4   -6.993578331306128E-4   -1.267408611761585E-4   -6.934576061573140E-4   -4.096335312931705E-1    2.774200002791131E-1
 1.000500479120000E+10  -4.996729883970368E-1   -2.020612308908718E-3   -1.671044713750167E-4   -6.740334031524677E-4   -1.386050839504066E-4   -7.361690638454337E-4   -4.092365727558307E-1    2.776950705484821E-1
 1.000501180680000E+10  -4.996916180407011E-1   -1.639022965672398E-3   -1.692313221267324E-4   -6.793167312247634E-4   -1.170776675502799E-4   -6.915623767666182E-4   -4.090650288159993E-1    2.781541573376494E-1
 1.000501882240000E+10  -4.996670711375366E-1   -1.200369546514034E-3   -1.911187476557300E-4   -6.783965479365146E-4   -1.242782986123363E-4   -6.899380945182297E-4   -4.086786838961280E-1    2.785167253965373E-1
 1.000502583800000E+10  -4.997965913463907E-1   -7.068985837277596E-4   -1.833467265594519E-4   -6.903498947945009E-4   -1.296430752865773E-4   -6.659026857953402E-4   -4.084286050819723E-1    2.791879666730067E-1
 1.000503285360000E+10  -4.996921186323935E-1   -2.353526606836385E-4   -1.641794522913075E-4   -6.767115399526062E-4   -1.355430682824810E-4   -6.795408863245835E-4   -4.081285613894056E-1    2.793305157045198E-1
 1.000503986920000E+10  -4.996718463942728E-1    1.973127852244891E-4   -1.624999893240166E-4   -6.711955597986880E-4   -1.374480580147229E-4   -6.825904893428687E-4   -4.081091910933621E-1    2.799484096326402E-1
 1.000504688480000E+10  -4.996974915692140E-1    6.336214863680113E-4   -1.542144269733378E-4   -7.000882246951873E-4   -1.442245054262036E-4   -6.794578765870945E-4   -4.076819086752759E-1    2.801277901608731E-1
 1.000505390040000E+10  -4.997506626480537E-1    1.143444536737155E-3   -1.770544298425000E-4   -6.640448649328708E-4   -1.212740606289695E-4   -6.676629559448941E-4   -4.073300807367101E-1    2.805980394679069E-1
 1.000506091600000E+10  -4.997944796228969E-1    1.414733498573944E-3   -1.486320266275232E-4   -6.796377342444712E-4   -1.279454685164661E-4   -6.549263628951890E-4   -4.072410483479361E-1    2.809772410539524E-1
 1.000506793160000E+10  -4.998525609635807E-1    2.155163254282656E-3   -1.654032267807190E-4   -6.569744143759437E-4   -1.263940255219356E-4   -6.868603589618374E-4   -4.069105161357174E-1    2.813401980761541E-1
 1.000507494720000E+10  -4.998068757881352E-1    2.647100409300533E-3   -1.701563276808729E-4   -6.593654110332670E-4   -1.168137323672726E-4   -6.477825533678857E-4   -4.067578014984329E-1    2.819366115788604E-1
 1.000508196280000E+10  -4.998459256522926E-1    3.049684126287636E-3   -1.496456455705275E-4   -6.597286025474923E-4   -1.500575499046782E-4   -6.488659580997947E-4   -4.063749153332092E-1    2.822834452585425E-1
 1.000508897840000E+10  -4.997728349704027E-1    3.357284178854488E-3   -1.453497939681467E-4   -6.407781067157804E-4   -1.396160237809490E-4   -6.453347885417238E-4   -4.062501556392217E-1    2.827498398288798E-1
 1.000509599400000E+10  -4.997875960402379E-1    3.989027368645861E-3   -1.465391667754029E-4   -6.391661179781638E-4   -1.228156576948656E-4   -6.589501192724935E-4   -4.059144990848153E-1    2.830469963294739E-1
 1.000510300960000E+10  -4.997297714460523E-1    4.410030002743578E-3   -1.721414824355242E-4   -6.275775025171149E-4   -1.199153686106675E-4   -6.655875163719472E-4   -4.056186152154072E-1    2.836600857870438E-1
 1.000511002520000E+10  -4.997807809493298E-1    4.797402076829690E-3   -1.595983567416417E-4   -6.365482666665672E-4   -1.282754042722577E-4   -6.458964473743474E-4   -4.052502459284951E-1    2.838418403210819E-1
 1.000511704080000E+10  -4.999100258192923E-1    5.158410963582611E-3   -1.639645306210040E-4   -6.332985184864373E-4   -1.151911048244332E-4   -6.479691590311923E-4   -4.051235400678449E-1    2.843133146301080E-1
 1.000512405640000E+10  -4.999263887817181E-1    5.694684237404775E-3   -1.411424980139739E-4   -6.424223992341794E-4   -1.350502213470619E-4   -6.481456968681564E-4   -4.048571992281949E-1    2.847259253646664E-1
 1.000513107200000E+10  -4.999490706395195E-1    6.143074020688736E-3   -1.463448984122443E-4   -6.309986350708257E-4   -1.309930415903911E-4   -6.376749560305978E-4   -4.045003163799845E-1    2.850627713327601E-1
 1.000513808760000E+10  -4.998699568491871E-1    6.666332898986159E-3   -1.702329630112340E-4   -6.315906969135930E-4   -1.118205727853863E-4   -6.448372274681690E-4   -4.042358078782894E-1    2.856955553176059E-1
 1.000514510320000E+10  -4.998154094387577E-1    7.141276780045952E-3   -1.454041117074275E-4   -6.379711739997524E-4   -1.285075736080511E-4   -6.331841004115675E-4   -4.041868845486617E-1    2.860252228850029E-1
 1.000515211880000E+10  -4.998929157015410E-1    7.428541726678057E-3   -1.614395224742355E-4   -6.119456979204554E-4   -1.068053005049445E-4   -6.061523460305383E-4   -4.037914206885234E-1    2.863967451153059E-1
 1.000515913440000E+10  -4.998786030740425E-1    8.028815112767174E-3   -1.535077798486368E-4   -6.113183863579686E-4   -1.366702383982205E-4   -6.185886707686561E-4   -4.035258834202600E-1    2.867732427940615E-1
 1.000516615000000E+10  -4.998272599246403E-1    8.452136955247018E-3   -1.497181855356287E-4   -6.097509491730032E-4   -1.162586349872352E-4   -6.251086119350437E-4   -4.030749502033064E-1    2.873080509934718E-1
 1.000517316560000E+10  -4.998499711169306E-1    8.818568626488176E-3   -1.501370886802998E-4   -6.125370081881013E-4   -1.416488912563113E-4   -6.142333116324492E-4   -4.029475433928824E-1    2.877444073983449E-1
 1.000518018120000E+10  -4.998616787541660E-1    9.404487665296805E-3   -1.652928577485939E-4   -5.985470706519650E-4   -1.025977609861959E-4   -5.908815838519763E-4   -4.026967012588104E-1    2.880205968237665E-1
 1.000518719680000E+10  -4.999474275278439E-1    9.752848167642535E-3   -1.566581309346101E-4   -6.160729211673519E-4   -9.617104600213217E-5   -6.117228190123457E-4   -4.023878440959976E-1    2.884392295718264E-1
 1.000519421240000E+10  -5.000214840455369E-1    1.026791688986082E-2   -1.273255632266652E-4   -5.955695608032940E-4   -1.389536119484310E-4   -5.913873998195326E-4   -4.022267051233209E-1    2.888109859741383E-1
 1.000520122800000E+10  -4.999008786960119E-1    1.075859624332932E-2   -1.495167156475236E-4   -5.771264045677600E-4   -1.157721548744892E-4   -5.926071273033826E-4   -4.020485394809785E-1    2.893486195771268E-1
 1.000520824360000E+10  -4.999017979619462E-1    1.132522920932419E-2   -1.218768423676632E-4   -5.824426523322793E-4   -1.113345345535010E-4   -5.852656663741460E-4   -4.015577248117222E-1    2.896804274451776E-1
 1.000521525920000E+10  -4.998816507043048E-1    1.171027763144271E-2   -1.408578998955433E-4   -5.738595321664175E-4   -9.560466986443890E-5   -6.007705976124568E-4   -4.013714585736539E-1    2.901920122036088E-1
 1.000522227480000E+10  -5.001379122031929E-1    1.211907908946347E-2   -1.317822469616539E-4   -5.894809825273341E-4   -9.300145684916406E-5   -5.583318255435052E-4   -4.010411227096238E-1    2.905269330609594E-1
 1.000522929040000E+10  -4.998092581050365E-1    1.258983449575038E-2   -1.041287526257785E-4   -5.368093899492161E-4   -6.369759415812398E-5   -5.695842440556127E-4   -4.008399946659360E-1    2.910083613191940E-1
 1.000523630600000E+10  -5.000554089429525E-1    1.307443452630903E-2   -1.123629117949110E-4   -5.723514724601189E-4   -7.908392369042709E-5   -5.816552801918974E-4   -4.004525309129180E-1    2.914271457720151E-1
 1.000524332160000E+10  -4.999293070104213E-1    1.353348410235569E-2   -1.130724982544508E-4   -5.797235080843926E-4   -9.503934918129139E-5   -5.797635966984432E-4   -4.002349627093603E-1    2.917051394731355E-1
 1.000525033720000E+10  -5.000121352013089E-1    1.386863922845541E-2   -1.108557302874752E-4   -5.720245888465393E-4   -9.674566122740761E-5   -5.560381991932540E-4   -3.999773853729545E-1    2.921882023983355E-1
 1.000525735280000E+10  -4.998307978536941E-1    1.434872113070565E-2   -1.103410064846325E-4   -5.574374160851805E-4   -7.922716704894504E-5   -5.618338524588021E-4   -3.996927540590576E-1    2.927336116090870E-1
 1.000526436840000E+10  -4.999959040442106E-1    1.476990968806767E-2   -1.278653666005779E-4   -5.612732208448087E-4   -7.825696277263918E-5   -5.745859271720689E-4   -3.993629044854103E-1    2.930345290534889E-1
 1.000527138400000E+10  -4.999625023893592E-1    1.530072442615376E-2   -1.261513094434118E-4   -5.479848595817151E-4   -9.523055652534601E-5   -5.407456461702713E-4   -3.990891601361873E-1    2.934115965342303E-1
 1.000527839960000E+10  -5.000298323058998E-1    1.567003054937845E-2   -9.127203868008132E-5   -5.453074255811223E-4   -6.924711722830281E-5   -5.343365096826897E-4   -3.988463949689229E-1    2.940027364521863E-1
 1.000528541520000E+10  -4.999890339867497E-1    1.619714176825503E-2   -1.398703355624568E-4   -5.592172393432181E-4   -9.375534571990379E-5   -5.321637231764866E-4   -3.985836359860656E-1    2.941220106054683E-1
 1.000529243080000E+10  -4.999617325076220E-1    1.664217164030793E-2   -9.995184187361366E-5   -5.287493719353901E-4   -1.044542319008699E-4   -5.512801732835802E-4   -3.982017372939261E-1    2.946421140272630E-1
 1.000529944640000E+10  -4.998751086426935E-1    1.705110756923889E-2   -1.076981455418808E-4   -5.296412030221059E-4   -7.253534596665846E-5   -5.071355089421131E-4   -3.978372497005176E-1    2.950460813159635E-1
 1.000530646200000E+10  -5.000279640908970E-1    1.758785366355213E-2   -9.650056473523870E-5   -5.151391498276088E-4   -6.685432277824595E-5   -4.946524425856318E-4   -3.976775750298846E-1    2.955766015942905E-1
 1.000531347760000E+10  -4.999719156148616E-1    1.805813283847553E-2   -8.701666024284118E-5   -5.052622228029344E-4   -6.848416043483771E-5   -4.878999529060777E-4   -3.973300492583197E-1    2.960089645721127E-1
 1.000532049320000E+10  -4.999259053283047E-1    1.844742880999224E-2   -1.023986889497425E-4   -4.898302924919533E-4   -7.556706893759344E-5   -5.152428160207700E-4   -3.970568620498260E-1    2.962763582330184E-1
 1.000532750880000E+10  -4.998455604495055E-1    1.901251142224871E-2   -6.393219062201351E-5   -5.289286210405825E-4   -7.160338226508859E-5   -4.910815490883168E-4   -3.968121287641977E-1    2.967805120399686E-1
 1.000533452440000E+10  -5.000106771236041E-1    1.943230648032048E-2   -9.721378389696257E-5   -4.805380378918884E-4   -5.888878117946452E-5   -5.088718633629286E-4   -3.964872626246037E-1    2.972015986145631E-1
 1.000534154000000E+10  -4.999259556669227E-1    1.988657066620834E-2   -9.599519546281399E-5   -4.787974581646906E-4   -5.483032699467115E-5   -5.026417888349458E-4   -3.962378456184767E-1    2.974990238373091E-1
 1.000534855560000E+10  -4.999859279665409E-1    2.027911586291775E-2   -9.538101959188984E-5   -4.949832503689883E-4   -7.938231275063194E-5   -4.751481379740654E-4   -3.959902930108075E-1    2.980891917321588E-1
 1.000535557120000E+10  -4.999432878514989E-1    2.077590868479643E-2   -8.565536975616468E-5   -5.001295847111250E-4   -3.131242835821874E-5   -4.632069299310081E-4   -3.955415694631519E-1    2.984319313218751E-1
 1.000536258680000E+10  -4.998296968638939E-1    2.133220734978853E-2   -6.910082013251140E-5   -4.730483098844028E-4   -5.887136801158693E-5   -4.756023677386020E-4   -3.953656573799341E-1    2.987124253590951E-1
 1.000536960240000E+10  -4.998765928632175E-1    2.170357132379748E-2   -8.196685697979276E-5   -4.684818904812687E-4   -6.023988003635478E-5   -4.796613549211808E-4   -3.951122287019711E-1    2.993351156928355E-1
 1.000537661800000E+10  -4.998660022965151E-1    2.218827222248029E-2   -8.614539469527153E-5   -4.717663996010953E-4   -5.459413640785057E-5   -4.348944693581885E-4   -3.948156404273153E-1    2.997490797804965E-1
 1.000538363360000E+10  -4.999908246834971E-1    2.255531533911966E-2   -8.416555306921982E-5   -4.502197302694592E-4   -5.018916011570822E-5   -4.698240563795829E-4   -3.943756107069123E-1    3.000834993381659E-1
 1.000539064920000E+10  -4.998159510667859E-1    2.309600391255228E-2   -5.872197679787746E-5   -4.317939982805123E-4   -5.080185713358653E-5   -4.695926620367574E-4   -3.942131686967195E-1    3.005920028686194E-1
 1.000539766480000E+10  -4.998716360229048E-1    2.357677327925902E-2   -7.777549456319726E-5   -4.559065792026927E-4   -5.258747240468647E-5   -4.538027428031697E-4   -3.939492087299812E-1    3.009778141241832E-1
 1.000540468040000E+10  -5.000307305888478E-1    2.404017131836793E-2   -3.462709798980120E-5   -4.627354387418036E-4   -4.608916938246837E-5   -4.388703451243362E-4   -3.934992054726836E-1    3.012479364019368E-1
 1.000541169600000E+10  -4.998568247240570E-1    2.427607048585289E-2   -4.020168024550729E-5   -4.366296484277801E-4   -2.783931058040735E-5   -4.246815619257726E-4   -3.933699369118003E-1    3.018053652949982E-1
 1.000541871160000E+10  -4.997547048847711E-1    2.489750247607535E-2   -7.220946537608036E-5   -4.373439372645905E-4   -6.192489825539739E-5   -4.277919134924640E-4   -3.930669041456937E-1    3.022859254552366E-1
 1.000542572720000E+10  -4.998515321142543E-1    2.530331872632834E-2   -5.135832005254330E-5   -4.292447496195164E-4   -3.354411601904744E-5   -3.976582001805742E-4   -3.926108236126984E-1    3.026742851946491E-1
 1.000543274280000E+10  -4.996750103808730E-1    2.576809785585881E-2   -4.295196019921704E-5   -4.187284893998029E-4   -2.836663560614714E-5   -4.095851017941146E-4   -3.922870890717379E-1    3.030542852659102E-1
 1.000543975840000E+10  -4.998905186233257E-1    2.620125169543581E-2   -6.121407338032988E-5   -3.962024084014836E-4   -2.598586546241440E-5   -4.156404966223060E-4   -3.919694048736016E-1    3.035964910312782E-1
 1.000544677400000E+10  -4.998910789458173E-1    2.676296592803463E-2   -3.838657159579096E-5   -4.136426592175510E-4   -2.787358892913972E-5   -4.341705538458365E-4   -3.917400246961334E-1    3.038927217826619E-1
 1.000545378960000E+10  -4.997521813766534E-1    2.704134311775389E-2   -3.357440685023093E-5   -4.194884522904321E-4    4.114194968285937E-6   -4.321306244528272E-4   -3.913898289503582E-1    3.042378832954870E-1
 1.000546080520000E+10  -4.998213882312253E-1    2.768369678957875E-2   -2.599201531858038E-5   -4.252958981799306E-4   -2.682115540736222E-5   -4.184806474091305E-4   -3.910272201251861E-1    3.048379657094167E-1
 1.000546782080000E+10  -4.998139415189099E-1    2.799193352439188E-2   -3.718920210317832E-5   -3.902589103638336E-4   -6.028150603993320E-6   -3.715950461399417E-4   -3.907487352334442E-1    3.052967901030279E-1
 1.000547483640000E+10  -4.998539155352667E-1    2.840603172865901E-2   -4.596989257919712E-5   -3.696575742186321E-4    2.827274372119808E-6   -3.571694609722239E-4   -3.904066854557273E-1    3.055830136740623E-1
 1.000548185200000E+10  -4.996704136632665E-1    2.905108209138976E-2   -3.434783677825332E-5   -3.818315512159275E-4   -8.452764758182652E-6   -3.658224622587132E-4   -3.902460390740378E-1    3.059726686878074E-1
 1.000548886760000E+10  -4.996900788241977E-1    2.933970687948160E-2   -2.185825272784706E-5   -3.768341853387389E-4   -2.354094824248743E-6   -3.404931472018011E-4   -3.898023703787283E-1    3.064554070435001E-1
 1.000549588320000E+10  -4.996937055343686E-1    2.986720492672103E-2   -2.735754509244432E-5   -3.675435349966681E-4   -1.277193932178515E-5   -3.404470637042836E-4   -3.893966218477683E-1    3.070044636083708E-1
 1.000550289880000E+10  -4.998615087877870E-1    3.033592182321644E-2   -3.403169011451364E-5   -3.459711056339530E-4    4.665214751544203E-7   -3.298809592427843E-4   -3.892038258049523E-1    3.072210544170869E-1
 1.000550991440000E+10  -4.997518384547972E-1    3.075924223997873E-2    5.438728717906372E-7   -3.330332385388900E-4    3.055249831730015E-6   -3.181473843703139E-4   -3.888555825572879E-1    3.076765426576517E-1
 1.000551693000000E+10  -4.998018598998486E-1    3.123166404990995E-2   -1.329249263683840E-5   -3.533825717363090E-4    2.371669384798029E-5   -3.141313542891761E-4   -3.886749362852219E-1    3.079208161522494E-1
 1.000552394560000E+10  -4.997537588743073E-1    3.178270633170109E-2    2.779513429851667E-5   -3.458406393522748E-4    1.444172304456657E-5   -3.535520239295404E-4   -3.882107399082817E-1    3.085729746974843E-1
 1.000553096120000E+10  -4.997273598032827E-1    3.212358692878454E-2    2.653961512075821E-5   -3.084783586368649E-4    1.889847324992727E-5   -3.365030081742392E-4   -3.880371416070601E-1    3.089638833643049E-1
 1.000553797680000E+10  -4.997026186194299E-1    3.256132460448743E-2    3.316635815224029E-5   -3.338274246288545E-4    4.984186950108460E-5   -3.072431399129578E-4   -3.875354064952551E-1    3.094816439134098E-1
 1.000554499240000E+10  -4.997051922691569E-1    3.299595496448241E-2    4.158316013819583E-5   -3.149012960632581E-4    4.463039628269153E-5   -2.933966950597158E-4   -3.871276420465105E-1    3.099721445276505E-1
 1.000555200800000E+10  -4.995921494699573E-1    3.358668269556121E-2    2.223596781969351E-5   -2.963256578358229E-4    5.272630115346331E-5   -2.880105131363461E-4   -3.869338462046409E-1    3.102575401673447E-1
 1.000555902360000E+10  -4.996320293201318E-1    3.384861955078982E-2    3.275634875121215E-5   -2.838938498485574E-4    5.087157431775161E-5   -2.972474355278631E-4   -3.865065928555705E-1    3.106059402159441E-1
 1.000556603920000E+10  -4.996409023867381E-1    3.441705162919283E-2    2.517365422522588E-5   -2.872732456345499E-4    5.035475057024367E-5   -2.703528723746862E-4   -3.860674566734131E-1    3.112852422167012E-1
 1.000557305480000E+10  -4.996123563717291E-1    3.496464253327684E-2    4.904131466156783E-5   -2.780058478285480E-4    5.216833688077032E-5   -2.663861842299332E-4   -3.858702777732934E-1    3.115864848611646E-1
 1.000558007040000E+10  -4.995703728314990E-1    3.520327453161624E-2    6.129981256636558E-5   -2.866489011399967E-4    6.814461172277977E-5   -2.733161504711165E-4   -3.856913242821088E-1    3.119868175860643E-1
 1.000558708600000E+10  -4.996584491174130E-1    3.577125001755430E-2    4.328070411299107E-5   -2.623903863233839E-4    8.839564420018213E-5   -2.650873304470642E-4   -3.852110286685604E-1    3.123852785920821E-1
 1.000559410160000E+10  -4.996444701645942E-1    3.617409232796152E-2    4.548332409580726E-5   -2.272635451964313E-4    5.322264738069387E-5   -2.200921050405216E-4   -3.848541463960414E-1    3.127751737058275E-1
 1.000560111720000E+10  -4.994060365730946E-1    3.672766661051546E-2    8.030699687864647E-5   -2.219423257308390E-4    8.596111428174383E-5   -2.408167304346114E-4   -3.845119658877293E-1    3.132612024393034E-1
 1.000560813280000E+10  -4.995159869602591E-1    3.712201672562104E-2    9.675829085213496E-5   -2.365629985991132E-4    6.135103008100835E-5   -2.162296348017720E-4   -3.840999517499168E-1    3.137145973143041E-1
 1.000561514840000E+10  -4.994968630653128E-1    3.762426700651973E-2    1.106214271271886E-4   -1.973226839271754E-4    1.087566713097557E-4   -2.018361952459141E-4   -3.837432508715262E-1    3.140921116867844E-1
 1.000562216400000E+10  -4.993106220097648E-1    3.812441176171569E-2    9.454287902968470E-5   -2.003831696785871E-4    1.298017315854813E-4   -1.853531790281529E-4   -3.833915791524868E-1    3.145375914639308E-1
