#  HZ   S   RI   R     50.00 
! Rohde & Schwarz Vector Network Analyzer 
! Rohde-Schwarz,ZNB20-2Port,1311601062101988,3.16
! Created: UTC 3/20/2024, 11:54:56 AM
! freq[Hz]                re:S11                  im:S11                  re:S21                  im:S21                  re:S12                  im:S12                  re:S22                  im:S22
 1.000500889600000E+10  -4.997595068454139E-1   -1.777824456263278E-3   -1.863360755286549E-4   -7.128685167590733E-4   -9.804314648063841E-5   -6.994182353490473E-4   -4.091055023570001E-1    2.780415937651228E-1
 1.000501586740000E+10  -4.998285103448135E-1   -1.455674902297186E-3   -1.892104861115800E-4   -6.911477083289054E-4   -1.543489287173064E-4   -6.678717418083113E-4   -4.087416491517137E-1    2.782968559610423E-1
 1.000502283880000E+10  -4.997357789432493E-1   -9.791526076580331E-4   -2.092798023205138E-4   -6.979709972586634E-4   -1.424043130458408E-4   -6.794741359503471E-4   -4.086525319438521E-1    2.787377562753806E-1
 1.000502981020000E+10  -4.999375801268984E-1   -5.005466639570541E-4   -1.816403534970184E-4   -6.709375491119800E-4   -1.437066259541983E-4   -7.003163806032182E-4   -4.082726492041903E-1    2.791469655958006E-1
 1.000503678160000E+10  -4.997689460492153E-1   -4.689694480510819E-5   -1.701413193039251E-4   -6.780089014446645E-4   -1.394363867456110E-4   -6.640354870701383E-4   -4.080498718789046E-1    2.796331698695951E-1
 1.000504375300000E+10  -4.999173538474185E-1    3.399420085580760E-4   -1.740562268248379E-4   -7.097987782980494E-4   -1.369486090038091E-4   -6.814105028594672E-4   -4.078147054472852E-1    2.800295494294165E-1
 1.000505072440000E+10  -4.999042777234416E-1    8.702822035792780E-4   -1.689617099411921E-4   -6.836952750427864E-4   -1.371202532492334E-4   -6.859895138159724E-4   -4.075624427252795E-1    2.804403372852426E-1
 1.000505769580000E+10  -4.997202340000766E-1    1.344899036330350E-3   -1.680777326862095E-4   -6.540386003986655E-4   -1.366390955607501E-4   -6.826698463113466E-4   -4.072857240655617E-1    2.808069689758132E-1
 1.000506466720000E+10  -4.998254103247661E-1    1.821796676893645E-3   -1.512655639591542E-4   -6.767220374426135E-4   -1.296705574693647E-4   -6.650019143920804E-4   -4.070771072304820E-1    2.812107729747458E-1
 1.000507163860000E+10  -4.999012636719974E-1    2.267965867575330E-3   -1.755373564374548E-4   -6.476620373216043E-4   -1.387597933065063E-4   -6.798535737212374E-4   -4.068081667475668E-1    2.815290274126557E-1
 1.000507861000000E+10  -4.997485803074845E-1    2.656953581443711E-3   -1.862081250758399E-4   -6.624804932862937E-4   -1.282948348254392E-4   -6.872551120781818E-4   -4.064941951040729E-1    2.821858028134670E-1
 1.000508558140000E+10  -4.998199094998601E-1    3.127069386572250E-3   -1.769013643888116E-4   -6.532572608868637E-4   -1.074296727186285E-4   -6.782962624437741E-4   -4.062576018398055E-1    2.826045738783117E-1
 1.000509255280000E+10  -4.999833515252168E-1    3.606406394560722E-3   -1.812356355852105E-4   -6.574274960839988E-4   -1.485822868594867E-4   -6.517539637001781E-4   -4.060580746913674E-1    2.831133817269234E-1
 1.000509952420000E+10  -4.999079370298178E-1    4.075105015751069E-3   -1.591077626640724E-4   -6.240707584678984E-4   -1.294297654625388E-4   -6.604601894885664E-4   -4.057786840478173E-1    2.832000992332406E-1
 1.000510649560000E+10  -4.998150210877719E-1    4.396315707714289E-3   -1.589576924753679E-4   -6.230689466708013E-4   -1.331646234006609E-4   -6.573224806112081E-4   -4.055538759199153E-1    2.837718499149510E-1
 1.000511346700000E+10  -4.999733825002845E-1    4.851466523667328E-3   -1.664242738310729E-4   -6.584841197834308E-4   -1.373212691997739E-4   -6.749355881824892E-4   -4.053443182840433E-1    2.841071598412604E-1
 1.000512043840000E+10  -4.999849553376659E-1    5.392077271757176E-3   -1.589618123840449E-4   -6.448609169471080E-4   -1.059887939806446E-4   -6.568741902512380E-4   -4.050682704807483E-1    2.844826427148242E-1
 1.000512740980000E+10  -4.998301101845466E-1    5.905628924382799E-3   -1.545298120460634E-4   -6.220917037628266E-4   -1.486625667708346E-4   -6.445277600290452E-4   -4.046330188585203E-1    2.848429059531574E-1
 1.000513438120000E+10  -4.999132735261236E-1    6.342666130780885E-3   -1.549063501699198E-4   -6.405574277326051E-4   -1.333762199873221E-4   -6.605572177772183E-4   -4.045901581795558E-1    2.853776594288637E-1
 1.000514135260000E+10  -5.000039729039905E-1    6.708070403567296E-3   -1.605735969473763E-4   -6.451948439546429E-4   -1.269948273658788E-4   -6.256890532243413E-4   -4.041769945169028E-1    2.858384009069115E-1
 1.000514832400000E+10  -4.999817520759724E-1    7.341826440468693E-3   -1.768098874825937E-4   -6.122922158536148E-4   -1.273718315964562E-4   -6.310526401595666E-4   -4.039913240355614E-1    2.862158160674451E-1
 1.000515529540000E+10  -5.000183676072447E-1    7.700424485118203E-3   -1.585135151531219E-4   -6.304377822562835E-4   -1.408972148523540E-4   -6.428181313014703E-4   -4.037190614949069E-1    2.865809311800501E-1
 1.000516226680000E+10  -4.999381333503150E-1    7.949665687031166E-3   -1.571079359023522E-4   -6.512631991112225E-4   -1.230873806834868E-4   -6.399730337162950E-4   -4.033157462881806E-1    2.870146919373327E-1
 1.000516923820000E+10  -4.999616952145986E-1    8.572717846345690E-3   -1.404093658184702E-4   -6.157993319037095E-4   -1.107930542216524E-4   -6.215801042432429E-4   -4.030080295410770E-1    2.874417745903359E-1
 1.000517620960000E+10  -4.999518577016592E-1    8.976643012402679E-3   -1.603521717227127E-4   -6.047657734605408E-4   -1.145112378195334E-4   -5.926463962710475E-4   -4.027246847926957E-1    2.878462519635393E-1
 1.000518318100000E+10  -4.999952149549229E-1    9.489129089927596E-3   -1.194920692193207E-4   -6.212493215570494E-4   -1.000589828311096E-4   -5.879707030644714E-4   -4.026057958335716E-1    2.882725900557048E-1
 1.000519015240000E+10  -5.000530009749173E-1    9.895125643681358E-3   -1.448786306642277E-4   -5.923176609757581E-4   -1.263334456293301E-4   -5.861983621100325E-4   -4.023191946020424E-1    2.885587769598308E-1
 1.000519712380000E+10  -5.000679617861955E-1    1.037965123526417E-2   -1.436215785734620E-4   -6.059549831668267E-4   -1.137961241142864E-4   -5.769364576950490E-4   -4.021290979417977E-1    2.891089544774893E-1
 1.000520409520000E+10  -5.000810449122354E-1    1.097919665709795E-2   -1.396450547016921E-4   -6.069959183351145E-4   -9.583770349547277E-5   -6.086506522804282E-4   -4.017873748545271E-1    2.895917297670351E-1
 1.000521106660000E+10  -5.000222651190815E-1    1.131422298557942E-2   -1.373542883790612E-4   -6.043955159787822E-4   -1.261375953405063E-4   -5.704973365925058E-4   -4.015077074570495E-1    2.899354613259383E-1
 1.000521803800000E+10  -5.001550554065127E-1    1.171734490487007E-2   -1.420164890226758E-4   -6.035570076904200E-4   -1.117951889614325E-4   -5.805136064517149E-4   -4.013117799951688E-1    2.903433589847882E-1
 1.000522500940000E+10  -5.000181764371723E-1    1.222081444971860E-2   -1.318412330717635E-4   -5.740153102801439E-4   -9.232043527866731E-5   -5.852677749123865E-4   -4.010346053816647E-1    2.906447545697366E-1
 1.000523198080000E+10  -5.000854873593384E-1    1.260300660048239E-2   -1.375834803103282E-4   -5.728647954918411E-4   -9.874619478407710E-5   -6.052945623286105E-4   -4.007196779480524E-1    2.911096707187157E-1
 1.000523895220000E+10  -5.000659473257305E-1    1.331258619158587E-2   -1.322451714015330E-4   -5.874441951361005E-4   -8.710638791983166E-5   -5.568571955775495E-4   -4.004202114637200E-1    2.916047377721448E-1
 1.000524592360000E+10  -5.000371979361177E-1    1.358734024759233E-2   -1.485318094641484E-4   -5.628418557915497E-4   -1.009728997152039E-4   -5.499999480582588E-4   -4.002107607720103E-1    2.919112668859585E-1
 1.000525289500000E+10  -4.999920693937660E-1    1.415284720705008E-2   -1.464492127993824E-4   -5.318084181079489E-4   -1.044575979208827E-4   -5.802654650392766E-4   -3.999199347379739E-1    2.923858158804564E-1
 1.000525986640000E+10  -5.000306954305372E-1    1.439842240911294E-2   -1.442340251444774E-4   -5.778052488236191E-4   -1.350611292428934E-4   -5.569553068998314E-4   -3.996341664272772E-1    2.927912510699318E-1
 1.000526683780000E+10  -4.999873588181007E-1    1.484994044456522E-2   -9.803666944990588E-5   -5.466749436932221E-4   -1.292919612565927E-4   -5.564401936689847E-4   -3.992998963310853E-1    2.931717540849395E-1
 1.000527380920000E+10  -5.000689399546893E-1    1.546167618765977E-2   -1.280052176154857E-4   -5.656955113200734E-4   -1.032305798781919E-4   -5.601014929306758E-4   -3.991360117391264E-1    2.936211184861486E-1
 1.000528078060000E+10  -4.999830964333679E-1    1.580354235093884E-2   -9.174786095537584E-5   -5.204823000145334E-4   -1.331973204085078E-4   -5.390188891010987E-4   -3.986937931000555E-1    2.939751411764389E-1
 1.000528775200000E+10  -5.001452616456855E-1    1.630635103396805E-2   -1.389588710901433E-4   -5.690790437459705E-4   -9.127173884434725E-5   -5.738321138021022E-4   -3.984445869597482E-1    2.944479859019778E-1
 1.000529472340000E+10  -5.000330704959519E-1    1.663078484466663E-2   -1.370048136884510E-4   -5.539767291369050E-4   -9.496665982763286E-5   -5.109129571309858E-4   -3.981840031667566E-1    2.948038177334049E-1
 1.000530169480000E+10  -5.001487681249055E-1    1.720213938287099E-2   -1.118310366102645E-4   -5.256570610188785E-4   -8.512404915963759E-5   -5.439046279084634E-4   -3.978423594912123E-1    2.954101055443776E-1
 1.000530866620000E+10  -5.000819174245682E-1    1.765359592380832E-2   -1.047206561819210E-4   -5.316392880738501E-4   -8.541323742401821E-5   -5.078676287938636E-4   -3.975504299615041E-1    2.956080422553340E-1
 1.000531563760000E+10  -4.999346549516037E-1    1.806450682024345E-2   -1.259679865322315E-4   -5.236553565606704E-4   -8.328832350662109E-5   -5.094893458309201E-4   -3.973175442153948E-1    2.960788446773235E-1
 1.000532260900000E+10  -5.000627407984281E-1    1.841782217398906E-2   -7.223530430391127E-5   -5.311843594731505E-4   -7.057587321575435E-5   -5.058175301593385E-4   -3.971992263586432E-1    2.963004029275917E-1
 1.000532958040000E+10  -5.000148765201872E-1    1.894019009037958E-2   -9.749094200242472E-5   -5.210337680578359E-4   -7.453631797049291E-5   -5.050386305983287E-4   -3.968548712576621E-1    2.968302669060000E-1
 1.000533655180000E+10  -5.001285207855646E-1    1.947122167861669E-2   -9.334044539445622E-5   -4.974976973750896E-4   -5.818451622313024E-5   -4.766995657563425E-4   -3.964627606264045E-1    2.971890937403340E-1
 1.000534352320000E+10  -5.000336617832341E-1    1.990748512231059E-2   -1.347809981250634E-4   -4.994444488376556E-4   -7.667307042363302E-5   -4.950045766599852E-4   -3.961907759471941E-1    2.977961316653425E-1
 1.000535049460000E+10  -5.000117138769793E-1    2.039835578484506E-2   -1.168155762581649E-4   -4.789471082493489E-4   -7.901162410641147E-5   -4.879497813943778E-4   -3.959293933172530E-1    2.979669647868258E-1
 1.000535746600000E+10  -5.000056921394243E-1    2.088579318118089E-2   -1.123016588839274E-4   -4.787761966033790E-4   -7.475292412758220E-5   -5.008040485763172E-4   -3.956450270418422E-1    2.985439335716489E-1
 1.000536443740000E+10  -4.999073686913408E-1    2.126579651935062E-2   -9.022464762849176E-5   -4.835927443585414E-4   -8.262753275091112E-5   -4.731943903706516E-4   -3.954532493464444E-1    2.990404707363275E-1
 1.000537140880000E+10  -4.999522314175098E-1    2.172895463669243E-2   -9.997857272528215E-5   -4.872832439604764E-4   -7.904816437579343E-5   -4.728308657994567E-4   -3.950160541326071E-1    2.993965364325535E-1
 1.000537838020000E+10  -5.000530698007329E-1    2.225246596435685E-2   -7.770175007377241E-5   -4.571846812103020E-4   -8.053060367839008E-5   -4.370606593454565E-4   -3.947933290045719E-1    2.997639455861977E-1
 1.000538535160000E+10  -4.998373113899053E-1    2.267215640792823E-2   -8.390443896433208E-5   -4.784000644506264E-4   -4.827861439658289E-5   -4.605027346902010E-4   -3.944022955937623E-1    3.001704418948395E-1
 1.000539232300000E+10  -4.999349498847295E-1    2.315592949390148E-2   -6.975618351144209E-5   -4.665462317430212E-4   -5.388733327988952E-5   -4.560106274802882E-4   -3.941181202652609E-1    3.006592909135642E-1
 1.000539929440000E+10  -4.999511581863840E-1    2.357358097511606E-2   -8.451517404250193E-5   -4.404494247973281E-4   -6.268917064536849E-5   -4.720376199815723E-4   -3.937833352418279E-1    3.010415534640136E-1
 1.000540626580000E+10  -5.000679309826473E-1    2.389914737128390E-2   -6.648187526333183E-5   -4.617658210629118E-4   -6.521475908686768E-5   -4.197722354675336E-4   -3.935712559504790E-1    3.015975137572657E-1
 1.000541323720000E+10  -4.999259467498075E-1    2.446569018582507E-2   -5.179332244099403E-5   -4.509364895092466E-4   -4.226037629160115E-5   -4.420348129688171E-4   -3.933191442541561E-1    3.019264448569395E-1
 1.000542020860000E+10  -4.999600953938524E-1    2.492933343868237E-2   -9.453937037415445E-5   -4.507242804558547E-4   -3.288254366597611E-5   -4.480604998918481E-4   -3.929643008112896E-1    3.023191525251983E-1
 1.000542718000000E+10  -4.999138700351005E-1    2.536293243970423E-2   -5.896364631960103E-5   -4.445156533883083E-4   -4.056766352668978E-5   -4.289304572493883E-4   -3.925829210725529E-1    3.026163661973224E-1
 1.000543415140000E+10  -4.999249935912281E-1    2.581008812679789E-2   -6.653685417497214E-5   -4.005631002380650E-4   -6.343833416896851E-5   -4.343918707595302E-4   -3.923182615953780E-1    3.031495688446637E-1
 1.000544112280000E+10  -4.998537186546961E-1    2.625287464055869E-2   -5.808139567808545E-5   -4.425057174580361E-4   -3.905162401265104E-5   -4.252169847020383E-4   -3.920752402910567E-1    3.035523683492888E-1
 1.000544809420000E+10  -4.998995747125790E-1    2.673153531424451E-2   -5.326608866510578E-5   -4.224552329769382E-4   -4.200341239309290E-5   -4.298790690725953E-4   -3.916765289039817E-1    3.039648490306591E-1
 1.000545506560000E+10  -5.000073683963334E-1    2.717381277402438E-2   -4.121309316186596E-5   -4.380432686675699E-4   -2.703453979612738E-5   -3.771847536109380E-4   -3.915194028611266E-1    3.045158643040603E-1
 1.000546203700000E+10  -4.998985857590481E-1    2.764025309397694E-2   -2.981857279551165E-5   -3.956572199112272E-4   -4.987717907116044E-5   -3.656535236719703E-4   -3.911010786852319E-1    3.048247109331501E-1
 1.000546900840000E+10  -4.998321330299118E-1    2.805151926201696E-2   -3.680138865306031E-5   -3.976576904167861E-4   -1.131292262646211E-5   -3.921109071200617E-4   -3.907476030792523E-1    3.051865498922406E-1
 1.000547597980000E+10  -4.998975129321238E-1    2.851222459887513E-2   -4.668889082947437E-5   -4.022372532374258E-4    8.180499581615839E-6   -3.625852628777818E-4   -3.904258108730316E-1    3.056884603605305E-1
 1.000548295120000E+10  -4.997759386406593E-1    2.893148140976897E-2   -2.468432575681432E-5   -3.940704080851703E-4   -1.129966613704856E-5   -3.839058030986990E-4   -3.901407505950906E-1    3.060238384716933E-1
 1.000548992260000E+10  -4.998778986288679E-1    2.938584969669438E-2   -1.247226704656467E-5   -3.779504372068428E-4   -3.042500406874158E-5   -3.769080492145204E-4   -3.897420034837605E-1    3.064875734551278E-1
 1.000549689400000E+10  -4.998848607649868E-1    2.988808821894793E-2   -4.090499713291744E-5   -3.754419193808822E-4   -1.274751206039030E-5   -3.724582527259885E-4   -3.894878762613185E-1    3.068761080219135E-1
 1.000550386540000E+10  -4.997123333905193E-1    3.028985614570357E-2   -4.072329287886346E-5   -3.784375307706656E-4   -1.797018581972370E-5   -3.543776648123007E-4   -3.891080793959650E-1    3.072140244128068E-1
 1.000551083680000E+10  -4.998410392824164E-1    3.069541465254940E-2    1.302531528217684E-5   -3.388793956824588E-4    8.527684135885695E-6   -3.512411986569934E-4   -3.887788980539265E-1    3.076966803379958E-1
 1.000551780820000E+10  -4.997294707556180E-1    3.130192676187795E-2   -9.399781004254615E-6   -3.624356256036652E-4   -9.214982636593563E-6   -3.356972011610417E-4   -3.885049470367271E-1    3.081980654583766E-1
 1.000552477960000E+10  -4.997728698369592E-1    3.163539491355923E-2    2.217346549696747E-5   -3.520760836067822E-4    1.570654217987913E-5   -3.118678292490083E-4   -3.882220759356957E-1    3.086483835520243E-1
 1.000553175100000E+10  -4.998725423840300E-1    3.213160940319151E-2    8.576295636874240E-6   -3.333504521488778E-4    1.540219965715875E-5   -3.406198540486990E-4   -3.879323598880717E-1    3.090595782030205E-1
 1.000553872240000E+10  -4.997292542467637E-1    3.258299044981108E-2    1.710419455494139E-5   -3.205653622522685E-4    2.544329981679365E-5   -3.007554250398535E-4   -3.875094714390407E-1    3.095038163727977E-1
 1.000554569380000E+10  -4.997319219053487E-1    3.305255792749734E-2    3.716533262039413E-5   -2.849108003871842E-4    3.751133957177969E-5   -3.022716871343157E-4   -3.872014501635292E-1    3.098071519730917E-1
 1.000555266520000E+10  -4.998497371479350E-1    3.344419610446744E-2    4.769447575620490E-6   -3.151468869001231E-4    2.325871790588483E-5   -3.068868649780722E-4   -3.868850057283242E-1    3.103862965525442E-1
 1.000555963660000E+10  -4.996952093581910E-1    3.401038902014319E-2    3.041154769811936E-5   -3.170538041771180E-4    4.463024829350995E-5   -2.994990761569081E-4   -3.865991624445854E-1    3.106752772655487E-1
 1.000556660800000E+10  -4.997831521619411E-1    3.433237879354152E-2   -2.077915873224113E-6   -3.113759703174542E-4    7.365743938072896E-5   -2.727857281847907E-4   -3.861945953942318E-1    3.110385676923225E-1
 1.000557357940000E+10  -4.996599170751697E-1    3.494422836819199E-2    4.656730702703446E-5   -3.025184728433770E-4    6.206273124699346E-5   -2.875759929260767E-4   -3.858025983666253E-1    3.115791688355104E-1
 1.000558055080000E+10  -4.996104739498193E-1    3.540246129440976E-2    4.170328286365356E-5   -2.896460508791050E-4    6.043587957101525E-5   -2.884892724371526E-4   -3.855922237232873E-1    3.120047689225356E-1
 1.000558752220000E+10  -4.997268845712097E-1    3.567700525957935E-2    3.878778451460361E-5   -2.695250255754507E-4    5.887616679080458E-5   -2.695109553954797E-4   -3.853566309608174E-1    3.123840631843427E-1
 1.000559449360000E+10  -4.996581405557662E-1    3.630171305159596E-2    5.876689042179379E-5   -2.643783057292026E-4    5.674739910483499E-5   -2.391133481996504E-4   -3.850270892548462E-1    3.127220468932580E-1
 1.000560146500000E+10  -4.996370204928852E-1    3.662566750269647E-2    6.607923214264228E-5   -2.475875076973517E-4    8.772320269710406E-5   -2.288555641852890E-4   -3.844677326296150E-1    3.133298551157065E-1
 1.000560843640000E+10  -4.996373409567187E-1    3.713764214658379E-2    8.253864003896982E-5   -2.574458742315228E-4    7.913455202208307E-5   -2.395693145080036E-4   -3.841400481645262E-1    3.137357557667380E-1
 1.000561540780000E+10  -4.995666626387475E-1    3.762088596492519E-2    8.150027866604863E-5   -2.036360324529221E-4    9.970847833038977E-5   -2.298430225248219E-4   -3.838887783815745E-1    3.141681849084708E-1
 1.000562237920000E+10  -4.995955438565824E-1    3.795182810057684E-2    8.195329935700352E-5   -2.395721292197525E-4    8.760407282802799E-5   -2.152508430934816E-4   -3.834783487762433E-1    3.144501335803245E-1
 1.000562935060000E+10  -4.995601497634644E-1    3.852524699969037E-2    1.134004082140241E-4   -2.196561354983559E-4    1.112060763477649E-4   -2.020080330952917E-4   -3.832262408261914E-1    3.150157864120950E-1
 1.000563632200000E+10  -4.995716657191113E-1    3.882262266382055E-2    1.019140904220452E-4   -2.342389546482806E-4    6.903771263598338E-5   -1.833673432198429E-4   -3.828192096544651E-1    3.153568992408139E-1
