#  HZ   S   RI   R     50.00 
! Rohde & Schwarz Vector Network Analyzer 
! Rohde-Schwarz,ZNB20-2Port,1311601062101988,3.16
! Created: UTC 3/20/2024, 11:55:06 AM
! freq[Hz]                re:S11                  im:S11                  re:S21                  im:S21                  re:S12                  im:S12                  re:S22                  im:S22
 1.000503726300000E+10  -4.998828529627470E-1    2.416005715804134E-5   -1.862855996726152E-4   -6.991932125095272E-4   -1.335733914823495E-4   -6.788901666071878E-4   -4.081518651464691E-1    2.796068117752745E-1
 1.000504410790000E+10  -4.999445886029067E-1    2.322805312570769E-4   -1.886150836592616E-4   -7.022357739614884E-4   -1.213236414717635E-4   -6.965907941397111E-4   -4.078633895611830E-1    2.800570282356822E-1
 1.000505095280000E+10  -4.998288561405805E-1    9.191561999586190E-4   -1.671481854408179E-4   -6.681091105122380E-4   -1.247826213509681E-4   -6.666312789696371E-4   -4.076197661244879E-1    2.803957432641599E-1
 1.000505779770000E+10  -4.999610292461538E-1    1.154979637955814E-3   -1.921017883512334E-4   -6.870550183911745E-4   -1.453533954626039E-4   -6.806353417975242E-4   -4.072625668603262E-1    2.807857200937165E-1
 1.000506464260000E+10  -4.998688414140227E-1    1.662806069357409E-3   -1.488209031161001E-4   -6.803355318749442E-4   -1.431248061516438E-4   -6.846941852352113E-4   -4.071571229300601E-1    2.812801583488619E-1
 1.000507148750000E+10  -4.998896374801963E-1    2.212394596483733E-3   -1.557846984150134E-4   -7.050075512452879E-4   -1.379747277575437E-4   -6.796740620635887E-4   -4.068482784373916E-1    2.816796312151360E-1
 1.000507833240000E+10  -4.998532887466996E-1    2.503356351849793E-3   -1.670239136792229E-4   -6.620441161008170E-4   -1.222527658679138E-4   -6.552908976424995E-4   -4.066912163175972E-1    2.820245986239425E-1
 1.000508517730000E+10  -4.999018260660941E-1    3.113851337196320E-3   -1.421118448341256E-4   -6.831114014911427E-4   -1.243047263245031E-4   -6.534930792893458E-4   -4.062869013534496E-1    2.825620112400759E-1
 1.000509202220000E+10  -4.998095408236284E-1    3.585251755966040E-3   -1.681376824751337E-4   -6.230817089164903E-4   -1.394889546746438E-4   -6.519561683909080E-4   -4.059481641347154E-1    2.828793045176114E-1
 1.000509886710000E+10  -4.999382091644665E-1    4.043164164664387E-3   -1.655342743606710E-4   -6.529849548008946E-4   -1.077183892591018E-4   -6.569146451560817E-4   -4.058665578419557E-1    2.832008316209088E-1
 1.000510571200000E+10  -4.999730798358851E-1    4.481264669531257E-3   -1.370280428100338E-4   -6.343181601107886E-4   -1.422044254240422E-4   -6.540760942218713E-4   -4.055604159168173E-1    2.836662182209326E-1
 1.000511255690000E+10  -4.999586157855853E-1    4.828871771062505E-3   -1.790273904375497E-4   -6.688617172430083E-4   -1.339800666440969E-4   -6.807801029586254E-4   -4.052971569271268E-1    2.840903798582020E-1
 1.000511940180000E+10  -5.000752439060613E-1    5.296131493389866E-3   -1.540935621879848E-4   -6.367075794359542E-4   -1.463510764350225E-4   -6.336735816145046E-4   -4.051122735846301E-1    2.844718428506767E-1
 1.000512624670000E+10  -4.999829536344291E-1    5.751450673504832E-3   -1.824296830253142E-4   -6.235545639198844E-4   -1.348733736584157E-4   -6.445142436314043E-4   -4.047343171966613E-1    2.849269741439464E-1
 1.000513309160000E+10  -5.001527688761411E-1    6.263320251689750E-3   -1.466448322917972E-4   -6.471553877962962E-4   -1.478260805802449E-4   -6.160896949307071E-4   -4.045161670342700E-1    2.852877709161498E-1
 1.000513993650000E+10  -5.001055648614166E-1    6.589847557805278E-3   -1.476497880762282E-4   -6.456732971149438E-4   -1.591009175565774E-4   -6.282678520179931E-4   -4.041288544393656E-1    2.857413944470035E-1
 1.000514678140000E+10  -5.000149399503302E-1    7.086482055878128E-3   -1.669953228077178E-4   -6.420612042284511E-4   -1.283409749020497E-4   -6.499894008730537E-4   -4.040167955516801E-1    2.859756875967711E-1
 1.000515362630000E+10  -5.000731660207267E-1    7.613857511808758E-3   -1.303412788983534E-4   -6.190216320001322E-4   -1.204357720019015E-4   -6.213065871599287E-4   -4.037778049560865E-1    2.864499900546417E-1
 1.000516047120000E+10  -5.000441910521201E-1    7.892409652132263E-3   -1.567636320621532E-4   -6.344104232771225E-4   -8.994457368973113E-5   -6.505206221823800E-4   -4.035696267752055E-1    2.869658420622100E-1
 1.000516731610000E+10  -5.000599439373493E-1    8.509922136330013E-3   -1.559480963072339E-4   -6.201994281773525E-4   -1.221325098366953E-4   -6.396114837916529E-4   -4.033146060095716E-1    2.872539538897145E-1
 1.000517416100000E+10  -5.001528249875825E-1    8.902299026751999E-3   -1.658621285892377E-4   -5.948711085295021E-4   -1.229308839825359E-4   -6.239497006029133E-4   -4.030351766933250E-1    2.876693900883532E-1
 1.000518100590000E+10  -4.999836534068309E-1    9.256890980961878E-3   -1.515808945178159E-4   -6.285138117270311E-4   -1.129975585902947E-4   -5.930172794361871E-4   -4.026949429637151E-1    2.881504578189242E-1
 1.000518785080000E+10  -4.998616842605086E-1    9.738565066465220E-3   -1.358551568787180E-4   -5.879472668071363E-4   -1.296071453311134E-4   -5.858327354801386E-4   -4.025473382563540E-1    2.885717092273345E-1
 1.000519469570000E+10  -5.001257507139297E-1    1.019426730568312E-2   -1.465013381024339E-4   -5.857697331188751E-4   -1.178966455697649E-4   -5.880574123064390E-4   -4.021718081401608E-1    2.888888590584138E-1
 1.000520154060000E+10  -5.001066087444866E-1    1.070033513387368E-2   -1.346851002252371E-4   -5.764395985833686E-4   -1.122243542958367E-4   -6.269203879045357E-4   -4.019535807145072E-1    2.893526994972643E-1
 1.000520838550000E+10  -5.001001110090237E-1    1.110025656717827E-2   -1.319654475447004E-4   -5.863577274834495E-4   -1.215316333760386E-4   -6.162378491265904E-4   -4.017308368265651E-1    2.895743995107146E-1
 1.000521523040000E+10  -5.000753149514129E-1    1.162560253601069E-2   -1.439273114673742E-4   -6.101282058624238E-4   -9.335292465114192E-5   -5.884908289410669E-4   -4.015100187174051E-1    2.901898503985934E-1
 1.000522207530000E+10  -5.000021484353003E-1    1.192350393698753E-2   -1.079082802597230E-4   -6.168742871204321E-4   -7.691156460042171E-5   -5.852892148556487E-4   -4.010960292185461E-1    2.904886821899831E-1
 1.000522892020000E+10  -5.001419664548173E-1    1.245414186685082E-2   -1.490157228809216E-4   -6.042628921848266E-4   -8.989662805932614E-5   -5.893447656412559E-4   -4.007989432454739E-1    2.908557015894966E-1
 1.000523576510000E+10  -5.000746306395220E-1    1.279842054094247E-2   -1.394772228873785E-4   -5.655678628695581E-4   -1.127862286673245E-4   -5.777352240875245E-4   -4.004763164636045E-1    2.913928065598757E-1
 1.000524261000000E+10  -5.000995110058737E-1    1.332543120112683E-2   -1.490867585719787E-4   -5.696176753443256E-4   -8.641544121156570E-5   -5.525245448749706E-4   -4.004376027800354E-1    2.917175149027798E-1
 1.000524945490000E+10  -5.000199913594157E-1    1.369687788019946E-2   -1.410002789016656E-4   -5.780354755406247E-4   -9.786370958557215E-5   -5.442417607548571E-4   -4.000290337440211E-1    2.921531271925135E-1
 1.000525629980000E+10  -5.001326111744480E-1    1.407518648845118E-2   -1.311510581870300E-4   -5.758842952369111E-4   -9.509735292090309E-5   -5.713989255765733E-4   -3.998461706427741E-1    2.925586273671723E-1
 1.000526314470000E+10  -5.001686430771549E-1    1.461382367634703E-2   -1.543456887524062E-4   -5.287087144353505E-4   -1.259326704802175E-4   -5.376911485867847E-4   -3.995706588906870E-1    2.929268097687580E-1
 1.000526998960000E+10  -5.000840112396145E-1    1.510771918085609E-2   -1.299567998544473E-4   -5.649199993270066E-4   -1.087675396342528E-4   -5.620564271582309E-4   -3.992556609519085E-1    2.932306800063078E-1
 1.000527683450000E+10  -5.000917720502939E-1    1.563711675618675E-2   -1.489485301116088E-4   -5.385693108048515E-4   -7.913494153133767E-5   -5.401439492286614E-4   -3.989648872644925E-1    2.938478504541150E-1
 1.000528367940000E+10  -5.000916199682960E-1    1.595469125655010E-2   -1.390633745373264E-4   -5.517374136291836E-4   -8.574295842953629E-5   -5.060219510971834E-4   -3.985644375511672E-1    2.942163486163525E-1
 1.000529052430000E+10  -5.001508775239499E-1    1.650574785354194E-2   -1.164493528272799E-4   -5.391120283564051E-4   -7.912646150334029E-5   -5.482234510135165E-4   -3.984402463269594E-1    2.947110719382915E-1
 1.000529736920000E+10  -5.000459156269911E-1    1.687167065790374E-2   -9.355178940055161E-5   -5.290626304938708E-4   -8.666299639991289E-5   -5.308975059026515E-4   -3.980839096167418E-1    2.948845142627803E-1
 1.000530421410000E+10  -4.999905568394779E-1    1.736583343914452E-2   -9.646186258867971E-5   -5.311178468905480E-4   -8.540662734844567E-5   -5.195154014626160E-4   -3.977923481890592E-1    2.954001752833615E-1
 1.000531105900000E+10  -5.000891102435144E-1    1.768570890368389E-2   -1.143325055283233E-4   -5.138583101301081E-4   -9.766950147916020E-5   -5.375974685271175E-4   -3.977691962701025E-1    2.958601101523497E-1
 1.000531790390000E+10  -5.000143833875750E-1    1.822893538532030E-2   -1.242355598250827E-4   -5.367856122148326E-4   -1.041046833815961E-4   -5.247293529290676E-4   -3.972809156227853E-1    2.962679228005166E-1
 1.000532474880000E+10  -5.001694284588972E-1    1.865891394893825E-2   -1.070734388836498E-4   -5.142046332759811E-4   -7.742237128948832E-5   -5.219483427222910E-4   -3.971125812945071E-1    2.966426496306175E-1
 1.000533159370000E+10  -4.999882418818868E-1    1.915908094690162E-2   -1.286868849970084E-4   -5.384878959925792E-4   -8.342613838897023E-5   -5.135764604748690E-4   -3.966710188857773E-1    2.970373219204037E-1
 1.000533843860000E+10  -5.000675006011066E-1    1.953516742403896E-2   -7.928303275425611E-5   -5.054781834770815E-4   -6.046807760394031E-5   -4.828334476029699E-4   -3.964797294178971E-1    2.973032437822481E-1
 1.000534528350000E+10  -5.001363038529626E-1    1.999211366332760E-2   -8.534672414877418E-5   -5.059229917260903E-4   -6.324207362547869E-5   -5.013247836312583E-4   -3.961212893613336E-1    2.978692043288239E-1
 1.000535212840000E+10  -5.001062245019043E-1    2.042571538405717E-2   -1.087093931431188E-4   -4.914828588310211E-4   -8.287114345950473E-5   -5.017999062638790E-4   -3.959664445464883E-1    2.981708269925002E-1
 1.000535897330000E+10  -4.999955972335587E-1    2.092959735757511E-2   -1.024382327901030E-4   -4.943844636717544E-4   -6.272756880515330E-5   -5.068044804858291E-4   -3.956490939217910E-1    2.985321935876798E-1
 1.000536581820000E+10  -5.000793381391053E-1    2.134757560946465E-2   -7.454198892822180E-5   -4.978571431857644E-4   -7.682304167422820E-5   -4.377751908639814E-4   -3.952896317762297E-1    2.989285774098103E-1
 1.000537266310000E+10  -5.000472323466073E-1    2.171372304867150E-2   -1.268351008296621E-4   -4.723614100597573E-4   -5.277105989629763E-5   -4.889745345349356E-4   -3.949947306876437E-1    2.995827783428135E-1
 1.000537950800000E+10  -5.000334000817459E-1    2.219476379894634E-2   -7.775448025675604E-5   -4.680110693780989E-4   -8.001057878533975E-5   -4.838930732777215E-4   -3.946706089638977E-1    3.000272660461950E-1
 1.000538635290000E+10  -4.999732183039865E-1    2.267366737083374E-2   -9.124166510546176E-5   -4.990560495441882E-4   -5.354442654636022E-5   -4.640676118037969E-4   -3.943971694571407E-1    3.001340309825738E-1
 1.000539319780000E+10  -5.001946263147233E-1    2.315622147227712E-2   -9.710597662901952E-5   -4.596189694006286E-4   -1.059443136211970E-4   -4.551377169783047E-4   -3.940639140553165E-1    3.006974323270262E-1
 1.000540004270000E+10  -4.999373992654169E-1    2.348898258812189E-2   -8.030132989669949E-5   -4.824715657047760E-4   -5.975244034141425E-5   -4.479072586141671E-4   -3.937164441866733E-1    3.010207817100691E-1
 1.000540688760000E+10  -4.998494727943250E-1    2.387964845650178E-2   -1.079900419945837E-4   -4.434401431327577E-4   -6.698856687388144E-5   -4.516981220111751E-4   -3.936547765344161E-1    3.014909487929361E-1
 1.000541373250000E+10  -5.000337363350421E-1    2.443211402871700E-2   -5.093829786760297E-5   -4.008905363160145E-4   -7.658165112032948E-5   -4.460366228731727E-4   -3.931963359578314E-1    3.019060117185914E-1
 1.000542057740000E+10  -4.998679520453873E-1    2.488554068935844E-2   -6.307452264896680E-5   -4.386866012432543E-4   -3.124534824703087E-5   -4.536951768100250E-4   -3.930634659972306E-1    3.023763215443118E-1
 1.000542742230000E+10  -5.000151742038911E-1    2.538571546891745E-2   -5.852270677624774E-5   -4.456063843895118E-4   -3.652263420508780E-5   -4.256804405298457E-4   -3.927056278815426E-1    3.027738367907421E-1
 1.000543426720000E+10  -4.999051968716205E-1    2.572102113210018E-2   -4.519267845923448E-5   -4.473203937059424E-4   -4.791984972455618E-5   -4.046135582444497E-4   -3.922061986887252E-1    3.029522614493385E-1
 1.000544111210000E+10  -4.999661253561705E-1    2.616059206825211E-2   -6.407977040300111E-5   -4.075255545034217E-4   -3.305984605800551E-5   -4.137830823256322E-4   -3.919624470380909E-1    3.035954011877152E-1
 1.000544795700000E+10  -4.999014575584139E-1    2.665154613953627E-2   -6.026281494984618E-5   -4.357279080413849E-4   -2.034934471419277E-5   -3.933954873685926E-4   -3.917578822359983E-1    3.039519521356414E-1
 1.000545480190000E+10  -4.999349850527536E-1    2.716824340406335E-2   -1.639297568252593E-5   -4.209867573007055E-4   -4.075108673229081E-5   -4.294528450280330E-4   -3.914271073370373E-1    3.043575175230290E-1
 1.000546164680000E+10  -4.999607244625002E-1    2.757546942947398E-2   -3.371420473532626E-5   -3.863396951752958E-4   -1.905799262774653E-5   -4.027545674759492E-4   -3.911422087082354E-1    3.049673488697094E-1
 1.000546849170000E+10  -4.999842669885768E-1    2.794873656556057E-2   -3.765532781104792E-5   -4.013594937338809E-4   -2.642783383862456E-5   -4.067327910553449E-4   -3.907785672606671E-1    3.051616841377616E-1
 1.000547533660000E+10  -4.999232920063445E-1    2.841541958846776E-2   -4.957581849142597E-5   -3.914709789754721E-4   -1.043459942865792E-5   -3.830927699276228E-4   -3.906265585110115E-1    3.055581202089405E-1
 1.000548218150000E+10  -4.998136596745091E-1    2.887940765809166E-2   -2.328672645017473E-5   -3.988882834393006E-4   -1.559104483831612E-5   -3.881790975961645E-4   -3.902360200091139E-1    3.059772307637044E-1
 1.000548902640000E+10  -4.999162244025621E-1    2.945307965242124E-2   -1.453031752215147E-5   -3.820028338579250E-4   -4.661099131849461E-6   -3.819279240723552E-4   -3.898579976271056E-1    3.064530265638496E-1
 1.000549587130000E+10  -4.998836232369765E-1    2.968557309971014E-2    1.361306481049511E-5   -3.816933629414741E-4   -2.747206161925754E-7   -3.793465514507383E-4   -3.897298736445913E-1    3.068397548539795E-1
 1.000550271620000E+10  -4.998215446189399E-1    3.024917039357943E-2   -8.700369432048575E-6   -3.663564220566283E-4   -1.312074296432632E-5   -3.528096020844544E-4   -3.892632010505922E-1    3.072714086272796E-1
 1.000550956110000E+10  -4.997981705173571E-1    3.076274113380556E-2   -2.421842223506683E-5   -3.436466328003444E-4    3.361377717160213E-6   -3.682073127639800E-4   -3.890169556087531E-1    3.076339860311258E-1
 1.000551640600000E+10  -4.998580580143607E-1    3.113869687763898E-2   -3.219019331319275E-5   -3.334878369639748E-4   -1.347291183226901E-5   -3.688948652790078E-4   -3.886456075837148E-1    3.081619489645212E-1
 1.000552325090000E+10  -4.997554600459764E-1    3.146746845779696E-2    4.877976001764941E-6   -3.694506649172796E-4    9.482258803878302E-6   -3.557449642222805E-4   -3.883407870296129E-1    3.085340981667430E-1
 1.000553009580000E+10  -4.998050174480321E-1    3.203794465621603E-2   -1.159045276004201E-5   -3.523148750114984E-4    3.926613712782709E-5   -3.255179469170607E-4   -3.880136959845596E-1    3.089301187566736E-1
 1.000553694070000E+10  -4.998279039102926E-1    3.247265922549847E-2    2.914587690177461E-5   -3.298059060892328E-4    7.222567398798345E-6   -3.289895582880963E-4   -3.877145553725728E-1    3.093430131364802E-1
 1.000554378560000E+10  -4.997406954413234E-1    3.281548847449897E-2    1.175767492403591E-5   -3.289966278480542E-4    1.865265785115678E-5   -3.403883406291885E-4   -3.874652988778163E-1    3.097483648972572E-1
 1.000555063050000E+10  -4.997461339206664E-1    3.335250322749359E-2    1.834312330281031E-5   -3.183641625060322E-4    2.651770089699952E-5   -3.259327703040901E-4   -3.871145852429768E-1    3.101795240131663E-1
 1.000555747540000E+10  -4.996067942722433E-1    3.369384700400089E-2   -4.714750326816366E-6   -3.178388711299232E-4    3.060482840457289E-5   -3.114545053374815E-4   -3.867647630812918E-1    3.106722450145126E-1
 1.000556432030000E+10  -4.996592847133041E-1    3.424138073209586E-2    1.976817849845545E-5   -2.959068948930922E-4    5.321531854952773E-5   -3.109718299228177E-4   -3.862319076481190E-1    3.108586555834154E-1
 1.000557116520000E+10  -4.997594919570808E-1    3.473065972540779E-2    5.908175547327854E-6   -3.280926594657662E-4    3.969954434599692E-5   -2.998112797947583E-4   -3.861248320893924E-1    3.113360202383859E-1
 1.000557801010000E+10  -4.996709755033481E-1    3.512438917716850E-2    1.791594272291030E-5   -2.913521446301275E-4    5.815638517236795E-5   -2.510752930630280E-4   -3.857046613406369E-1    3.117959203311512E-1
 1.000558485500000E+10  -4.997201320922929E-1    3.545019744917378E-2    4.168746549579219E-5   -2.599343424945040E-4    5.757506983519479E-5   -2.671946791396923E-4   -3.853228949159770E-1    3.120716713114729E-1
 1.000559169990000E+10  -4.996876812142858E-1    3.592057713977182E-2    2.737254587045429E-5   -2.691835832493681E-4    9.435107422135586E-5   -2.596165098505790E-4   -3.850278761234440E-1    3.127165434574604E-1
 1.000559854480000E+10  -4.996331224004018E-1    3.643781714675799E-2    5.155862648919447E-5   -2.850566282208484E-4    5.647456341260277E-5   -2.441467708704208E-4   -3.846614262417258E-1    3.130680007069851E-1
 1.000560538970000E+10  -4.996394022006733E-1    3.674762620601980E-2    7.178668609093661E-5   -2.787342740263717E-4    8.876077216069516E-5   -2.567206774806932E-4   -3.844381169583065E-1    3.133974345518054E-1
 1.000561223460000E+10  -4.996481067035199E-1    3.725248215472215E-2    8.381127618280745E-5   -2.394742618208332E-4    9.750737281809405E-5   -2.603486358515363E-4   -3.840385689569042E-1    3.139156731058418E-1
 1.000561907950000E+10  -4.996412823000218E-1    3.782781619275054E-2    9.814569355232531E-5   -2.205569604967333E-4    9.496668269397809E-5   -2.406424062389772E-4   -3.837223421283429E-1    3.144032746925682E-1
 1.000562592440000E+10  -4.995407271829483E-1    3.826672353673399E-2    7.738091757343915E-5   -2.223834397770810E-4    8.158768230225361E-5   -2.311963577939365E-4   -3.834021951296505E-1    3.147611793858735E-1
 1.000563276930000E+10  -4.995456304077030E-1    3.856001320749237E-2    9.735688769786658E-5   -1.928311703805689E-4    8.408122136978673E-5   -2.320861676255206E-4   -3.831399614111070E-1    3.151294979402955E-1
 1.000563961420000E+10  -4.994516424538526E-1    3.910142249395632E-2    8.793324544696307E-5   -1.974984559707257E-4    1.170346517609151E-4   -2.180069212450173E-4   -3.824998325584623E-1    3.155920866734201E-1
 1.000564645910000E+10  -4.995096211185795E-1    3.960390961174808E-2    8.693240064383069E-5   -1.953670789886640E-4    1.133313217498179E-4   -2.050575600263030E-4   -3.823006833456131E-1    3.160657757413990E-1
 1.000565330400000E+10  -4.994566502984986E-1    3.996359883747101E-2    1.249593243338948E-4   -2.072109044960987E-4    1.052405572991611E-4   -1.942420454075496E-4   -3.819024236438145E-1    3.165471261679824E-1
