#  HZ   S   RI   R     50.00 
! Rohde & Schwarz Vector Network Analyzer 
! Rohde-Schwarz,ZNB20-2Port,1311601062101988,3.16
! Created: UTC 3/20/2024, 11:37:55 AM
! freq[Hz]                re:S11                  im:S11                  re:S21                  im:S21                  re:S12                  im:S12                  re:S22                  im:S22
 1.000620561300000E+10  -4.962982279030065E-1    7.554768603532061E-2    4.334162379920479E-4    6.396018371120496E-4    3.936381785971811E-4    6.138337610074852E-4   -3.543428257736730E-1    3.520820068442038E-1
 1.000620772600000E+10  -4.961762436125713E-1    7.564402366840139E-2    4.381074363516738E-4    6.129417624610888E-4    4.396861198919428E-4    6.272012545186741E-4   -3.540870481598512E-1    3.523035927701504E-1
 1.000620983900000E+10  -4.962134078647986E-1    7.591383825378586E-2    4.744501167190599E-4    6.256486186205925E-4    4.065053543771263E-4    6.334334326666722E-4   -3.540417250988904E-1    3.525631037609124E-1
 1.000621195200000E+10  -4.961281444787879E-1    7.595147312019537E-2    4.433503647389412E-4    6.656258493860752E-4    4.092103382967483E-4    6.427748095607639E-4   -3.538219738992873E-1    3.526370331970757E-1
 1.000621406500000E+10  -4.961262624096927E-1    7.609734209150572E-2    4.404234192846098E-4    6.881414917209452E-4    3.993288696787699E-4    6.617984718224136E-4   -3.536539405751071E-1    3.528571896881766E-1
 1.000621617800000E+10  -4.962294742707026E-1    7.622792927735994E-2    4.653459007443841E-4    6.921874709295108E-4    4.155623612618883E-4    6.813753734679096E-4   -3.534543479112679E-1    3.530341102710295E-1
 1.000621829100000E+10  -4.962073255359026E-1    7.628485438767769E-2    5.057660674548359E-4    6.639192725494385E-4    4.553030324953398E-4    6.975362195543051E-4   -3.531017493389922E-1    3.531374269428936E-1
 1.000622040400000E+10  -4.960584854707898E-1    7.658116497539022E-2    4.826751760987695E-4    7.096854323380700E-4    4.390838021902600E-4    6.874670584292945E-4   -3.530551887108492E-1    3.533757887745365E-1
 1.000622251700000E+10  -4.958982567327477E-1    7.675142653858984E-2    4.825750552294716E-4    7.000720153862935E-4    4.110114746028002E-4    7.032748427192237E-4   -3.528706951358367E-1    3.535722570812689E-1
 1.000622463000000E+10  -4.960811495547124E-1    7.691606840209859E-2    4.979743243717603E-4    7.068603163642946E-4    4.234639219267309E-4    7.426205929790184E-4   -3.528045127536023E-1    3.536879407185307E-1
 1.000622674300000E+10  -4.960294914454939E-1    7.699074118776478E-2    5.017808768743873E-4    7.162707606923471E-4    4.345959511495127E-4    7.577326300986240E-4   -3.525563416557240E-1    3.538881845752246E-1
 1.000622885600000E+10  -4.959072576810299E-1    7.704062521741303E-2    4.811864399034325E-4    6.880271373082633E-4    4.469833364127413E-4    7.407541199813347E-4   -3.522217732021758E-1    3.540088376623184E-1
 1.000623096900000E+10  -4.960716726376139E-1    7.717757802503937E-2    5.180806356881850E-4    7.051596801798288E-4    4.727491280715183E-4    7.372706889404185E-4   -3.521900167381997E-1    3.541783165158802E-1
 1.000623308200000E+10  -4.959390738846041E-1    7.736397477878851E-2    5.211554420607490E-4    7.471925794217944E-4    4.904263770087207E-4    7.719165135646930E-4   -3.519276266960768E-1    3.543165532208665E-1
 1.000623519500000E+10  -4.959417048454527E-1    7.752659398631928E-2    5.432883433041871E-4    7.519979685893049E-4    4.802467968868309E-4    7.692607355482342E-4   -3.517911511309209E-1    3.545362143284452E-1
 1.000623730800000E+10  -4.959309396048474E-1    7.767155989393383E-2    5.036084443055086E-4    7.733403725358804E-4    4.665640540182757E-4    7.721396279189476E-4   -3.516270958737345E-1    3.547707027735774E-1
 1.000623942100000E+10  -4.960170066239061E-1    7.802690727694792E-2    5.246035599119064E-4    7.897741846471359E-4    4.672383527375378E-4    7.881181252833533E-4   -3.514592412509794E-1    3.548683581078363E-1
 1.000624153400000E+10  -4.959636720179252E-1    7.799920701403701E-2    5.567340790933291E-4    7.909696124657577E-4    4.752164999738331E-4    8.036720704292920E-4   -3.512422344111197E-1    3.551920523823925E-1
 1.000624364700000E+10  -4.958121944290046E-1    7.815440058845903E-2    5.261260724033523E-4    8.178282273227431E-4    5.185981727991892E-4    7.816958084391374E-4   -3.509908383304246E-1    3.553987736354939E-1
 1.000624576000000E+10  -4.957722046889119E-1    7.832266655233236E-2    5.756768047261031E-4    8.268074022039153E-4    5.323077931560689E-4    8.021168844352923E-4   -3.508681005653606E-1    3.554693185042122E-1
 1.000624787300000E+10  -4.958332344573800E-1    7.842980095732056E-2    5.899924399753424E-4    8.151748129137360E-4    5.160464393403957E-4    8.156264500439436E-4   -3.506722888373036E-1    3.557765791400356E-1
 1.000624998600000E+10  -4.957817413795821E-1    7.836190344425342E-2    5.977358999942194E-4    8.058557114786276E-4    5.174682258371567E-4    8.436302978798532E-4   -3.504061064144307E-1    3.558956948046422E-1
 1.000625209900000E+10  -4.958859978636654E-1    7.866802169199169E-2    6.036263466996727E-4    8.318179318707297E-4    5.059342660709487E-4    8.441344624488206E-4   -3.502099295180652E-1    3.559542002072515E-1
 1.000625421200000E+10  -4.958659242263387E-1    7.871480635664943E-2    5.928994576400059E-4    8.165512014326700E-4    5.262080749406161E-4    8.433792766877787E-4   -3.500746119802600E-1    3.563733069855171E-1
 1.000625632500000E+10  -4.957840017991617E-1    7.890425609708905E-2    5.948932194722854E-4    8.609927855213653E-4    5.583023079202843E-4    8.695028302517011E-4   -3.499682128158252E-1    3.563970971151771E-1
 1.000625843800000E+10  -4.958135035307596E-1    7.910373859908339E-2    6.084155639524438E-4    8.729616241561594E-4    5.482394945028976E-4    8.992068261584674E-4   -3.496853054911431E-1    3.566198562100354E-1
 1.000626055100000E+10  -4.957345583745315E-1    7.916249534916388E-2    6.084218870552149E-4    8.869255014165960E-4    5.789960903955386E-4    8.986057590603684E-4   -3.495040544438813E-1    3.567880590486762E-1
 1.000626266400000E+10  -4.957336396669397E-1    7.923866054944753E-2    6.475955058423894E-4    8.546189966119828E-4    5.796047241423966E-4    8.742859612181422E-4   -3.494354398934508E-1    3.569609722893481E-1
 1.000626477700000E+10  -4.957036966081366E-1    7.954973001808267E-2    6.584263197155313E-4    9.131249871091136E-4    5.972594359233613E-4    8.980624583973546E-4   -3.490909914787331E-1    3.572166864644821E-1
 1.000626689000000E+10  -4.957264459388576E-1    7.973151760220219E-2    6.536996955709061E-4    9.087332258684448E-4    5.993169400603174E-4    9.332781413461980E-4   -3.489238511873490E-1    3.573255748840557E-1
 1.000626900300000E+10  -4.957752987178893E-1    7.971545592228005E-2    6.542218108713555E-4    9.391806950027164E-4    5.884905011329025E-4    9.384028789990007E-4   -3.487195070567464E-1    3.576540400130445E-1
 1.000627111600000E+10  -4.957409082657798E-1    7.997285446227273E-2    6.722605165527913E-4    9.563209948688112E-4    6.200583213321787E-4    9.767844686482988E-4   -3.485179546931944E-1    3.577850346581798E-1
 1.000627322900000E+10  -4.955548065262113E-1    8.019676134799779E-2    6.675573935093272E-4    9.538727916046248E-4    6.262340431056330E-4    9.742576441067475E-4   -3.483363512607723E-1    3.579780160325727E-1
 1.000627534200000E+10  -4.957108168032278E-1    8.027376424922789E-2    6.747894011166878E-4    9.857778454855142E-4    6.427610284624647E-4    9.756407255553898E-4   -3.480597596833995E-1    3.581056683332480E-1
 1.000627745500000E+10  -4.955519742099633E-1    8.038462827423196E-2    6.732524791004906E-4    9.713114480354621E-4    6.382622723857230E-4    1.026760439566957E-3   -3.478056724459587E-1    3.583920831066045E-1
 1.000627956800000E+10  -4.954868636237390E-1    8.051127767246773E-2    6.971241250220705E-4    9.779031793059213E-4    6.288978777892970E-4    9.733522175289706E-4   -3.476240686258679E-1    3.584143939660450E-1
 1.000628168100000E+10  -4.955915425968978E-1    8.060490692436069E-2    6.900447483534226E-4    1.001781030939161E-3    6.849074970017968E-4    1.022981433365435E-3   -3.474636573137511E-1    3.587301129782945E-1
 1.000628379400000E+10  -4.956569052580239E-1    8.071125930170453E-2    7.257861449038765E-4    1.021491302672725E-3    6.569029884496584E-4    1.044014998766243E-3   -3.472695607753470E-1    3.589118742959837E-1
 1.000628590700000E+10  -4.954906627527711E-1    8.092886158545176E-2    7.499449688415236E-4    9.894342255501625E-4    6.860297206647782E-4    1.059116144633403E-3   -3.469830813314573E-1    3.590022025644033E-1
 1.000628802000000E+10  -4.956288941276876E-1    8.106535329233137E-2    7.514331409746482E-4    1.050362381325476E-3    6.964816640541989E-4    1.066002300755068E-3   -3.468008250296254E-1    3.593546652083960E-1
 1.000629013300000E+10  -4.954407509996447E-1    8.111942543960446E-2    7.531512549400874E-4    1.041728593166089E-3    6.815446705246722E-4    1.061860075894424E-3   -3.465347906013275E-1    3.594630267859588E-1
 1.000629224600000E+10  -4.955087409485484E-1    8.120779387664677E-2    7.965561996461907E-4    1.054903624469490E-3    7.167825182086511E-4    1.102444578860417E-3   -3.463433966267897E-1    3.596777011345640E-1
 1.000629435900000E+10  -4.954487625002829E-1    8.144879022830216E-2    7.582363022039053E-4    1.040295776837519E-3    7.146822483182227E-4    1.114056706230575E-3   -3.461290300805927E-1    3.599467046699060E-1
 1.000629647200000E+10  -4.953286078661303E-1    8.158053255323833E-2    8.127256550509614E-4    1.083409153196572E-3    7.203494671312733E-4    1.120516284949595E-3   -3.459609131086249E-1    3.601583189169050E-1
 1.000629858500000E+10  -4.953962005554951E-1    8.174027802368046E-2    8.141761190097478E-4    1.088786478418632E-3    7.173577539708254E-4    1.118864172800283E-3   -3.455577219291162E-1    3.604018243216709E-1
 1.000630069800000E+10  -4.953433608631301E-1    8.194731520353665E-2    7.968270015907242E-4    1.118075090645545E-3    7.546140381812158E-4    1.137713907191743E-3   -3.453328230018928E-1    3.606664649983543E-1
 1.000630281100000E+10  -4.953665231961796E-1    8.196010432313654E-2    8.299109982781017E-4    1.125431041374276E-3    7.569385640538457E-4    1.147352613367857E-3   -3.452623172534864E-1    3.606472092907623E-1
 1.000630492400000E+10  -4.953908828289715E-1    8.208073966737241E-2    8.388567899769740E-4    1.151579704028712E-3    7.909182006590643E-4    1.163391646218813E-3   -3.449049818999232E-1    3.609460256784504E-1
 1.000630703700000E+10  -4.952883334990318E-1    8.231778285143411E-2    8.772287603068520E-4    1.141125262076046E-3    7.840884965264208E-4    1.186380280211702E-3   -3.445361098811417E-1    3.613217301014635E-1
 1.000630915000000E+10  -4.953813259361206E-1    8.243969507354350E-2    8.903922632157440E-4    1.183278747168570E-3    7.771635666905649E-4    1.163277052126451E-3   -3.444312533915441E-1    3.614814208049213E-1
 1.000631126300000E+10  -4.953369975300679E-1    8.239794225553468E-2    8.707675233796722E-4    1.206406626737964E-3    7.930954955206939E-4    1.196481556241854E-3   -3.443490550568531E-1    3.616545019780030E-1
 1.000631337600000E+10  -4.953172510914917E-1    8.263366749819069E-2    8.937757833035533E-4    1.189961744868835E-3    8.291720569988784E-4    1.234313133477320E-3   -3.439435651759869E-1    3.617428997883434E-1
 1.000631548900000E+10  -4.952306377834373E-1    8.283273337712940E-2    9.052649132239779E-4    1.211593549065543E-3    7.848116056617026E-4    1.239550896608188E-3   -3.437360865645731E-1    3.620918648692821E-1
 1.000631760200000E+10  -4.953132774052988E-1    8.297258339171686E-2    9.196089148026849E-4    1.233106447454748E-3    8.399302538344824E-4    1.260938986648177E-3   -3.435649687457089E-1    3.623349285099512E-1
 1.000631971500000E+10  -4.951596135662527E-1    8.315055198050475E-2    9.155495495882527E-4    1.227320167433062E-3    8.553684212110562E-4    1.276725688387677E-3   -3.432605366450743E-1    3.624844515953615E-1
 1.000632182800000E+10  -4.951853869127211E-1    8.316501716453613E-2    9.545130164851233E-4    1.264050957860804E-3    8.561567667015544E-4    1.288167887233528E-3   -3.430177931234949E-1    3.626684903623072E-1
 1.000632394100000E+10  -4.952866642539846E-1    8.337007521964590E-2    9.283945601085258E-4    1.274546844226151E-3    8.728976973552010E-4    1.298006723991344E-3   -3.428395664351531E-1    3.628773233757114E-1
 1.000632605400000E+10  -4.952256998499933E-1    8.359258757898298E-2    9.590428411088547E-4    1.304544484696279E-3    8.823742852787887E-4    1.324413594333050E-3   -3.423632911490722E-1    3.631388715102826E-1
 1.000632816700000E+10  -4.951212110583667E-1    8.354331188874471E-2    9.976209011593915E-4    1.327917576051854E-3    8.523287891594576E-4    1.338705391603183E-3   -3.422039441994477E-1    3.631992095691043E-1
 1.000633028000000E+10  -4.951122055482793E-1    8.380188075130386E-2    9.848326580562344E-4    1.357087457843357E-3    8.972217128595813E-4    1.318959910419959E-3   -3.419514659585587E-1    3.636523696111766E-1
 1.000633239300000E+10  -4.951182983525669E-1    8.391417196191212E-2    1.019381426148773E-3    1.337793111152290E-3    9.323111737800199E-4    1.344631138172340E-3   -3.416530875318901E-1    3.638670029159439E-1
 1.000633450600000E+10  -4.949983094146232E-1    8.411644202946827E-2    1.030920704587661E-3    1.372991231328833E-3    9.415939842948181E-4    1.366662403028963E-3   -3.413487039487838E-1    3.639871819430459E-1
 1.000633661900000E+10  -4.950344474024617E-1    8.415283428737910E-2    1.041484346629225E-3    1.378547656789878E-3    9.559017743692994E-4    1.391458772853789E-3   -3.412309787122905E-1    3.641083890693159E-1
 1.000633873200000E+10  -4.948989160024944E-1    8.435104867482304E-2    1.074284944516788E-3    1.398310850563461E-3    9.614587331649058E-4    1.438048182341875E-3   -3.408557758308793E-1    3.645583809215225E-1
 1.000634084500000E+10  -4.949657014840181E-1    8.452783027996887E-2    1.085908003804496E-3    1.441401201389971E-3    9.668558724933598E-4    1.417380872724252E-3   -3.405682716830257E-1    3.648017904295676E-1
 1.000634295800000E+10  -4.949139051110566E-1    8.468545771457121E-2    1.088077599190574E-3    1.420587045663062E-3    1.018210414424820E-3    1.456880895839330E-3   -3.401711187327297E-1    3.648763749405015E-1
 1.000634507100000E+10  -4.949895237481403E-1    8.479586703579310E-2    1.092109759647229E-3    1.465989355185965E-3    1.014293585247650E-3    1.463489858757393E-3   -3.398894146820329E-1    3.651155050555791E-1
 1.000634718400000E+10  -4.950934863231211E-1    8.501254953485037E-2    1.113813389973289E-3    1.453275565389368E-3    1.043450521901346E-3    1.488345804410616E-3   -3.397336278225787E-1    3.654544040299419E-1
 1.000634929700000E+10  -4.949674408280571E-1    8.519890692483115E-2    1.152582815805646E-3    1.488558263042569E-3    1.034566241928776E-3    1.518197758921870E-3   -3.394767705769751E-1    3.656248151636587E-1
 1.000635141000000E+10  -4.949376409494127E-1    8.526383333486423E-2    1.182900424100434E-3    1.515703176042252E-3    1.062000037092034E-3    1.561433819382905E-3   -3.390667612110992E-1    3.659217184379955E-1
 1.000635352300000E+10  -4.949732560800557E-1    8.538432294594436E-2    1.185676044929154E-3    1.528318253242125E-3    1.081382607706650E-3    1.543658034736619E-3   -3.388299395689143E-1    3.661141070887721E-1
 1.000635563600000E+10  -4.949566622374520E-1    8.549584209006005E-2    1.183825531007374E-3    1.575286678427759E-3    1.100118746799381E-3    1.569323417855680E-3   -3.385134578832560E-1    3.664188988398668E-1
 1.000635774900000E+10  -4.948647371744748E-1    8.573948872210813E-2    1.225951444496623E-3    1.563017454730919E-3    1.114881490146450E-3    1.570751970838237E-3   -3.382103573778155E-1    3.666118486829130E-1
 1.000635986200000E+10  -4.948438677734677E-1    8.564720283958480E-2    1.231990361613154E-3    1.612241380185754E-3    1.086974113879721E-3    1.613946869550302E-3   -3.379215070332448E-1    3.669450419048371E-1
 1.000636197500000E+10  -4.947711802591545E-1    8.575420037603249E-2    1.237289532896688E-3    1.614788182977580E-3    1.138480921920364E-3    1.632004154049060E-3   -3.375172013583721E-1    3.671210185134635E-1
 1.000636408800000E+10  -4.948026797117928E-1    8.606179031140712E-2    1.254197358037368E-3    1.625200920709611E-3    1.156650004835589E-3    1.655179806876547E-3   -3.371685529265583E-1    3.673753034352886E-1
 1.000636620100000E+10  -4.948266595822451E-1    8.614550776913583E-2    1.258705876167353E-3    1.652353778682528E-3    1.187481444354593E-3    1.652272315364501E-3   -3.369545799528678E-1    3.675784950602954E-1
 1.000636831400000E+10  -4.946556669442964E-1    8.623570015846194E-2    1.301815362801266E-3    1.676010726410262E-3    1.194373656676937E-3    1.696618168822776E-3   -3.365923395878879E-1    3.677865688193644E-1
 1.000637042700000E+10  -4.947761092510599E-1    8.650234961660247E-2    1.295956093521097E-3    1.677309373106005E-3    1.214902823748725E-3    1.719789050011007E-3   -3.361440891068905E-1    3.680245562185970E-1
 1.000637254000000E+10  -4.948082355188231E-1    8.654461956221439E-2    1.349268383369870E-3    1.703920118866827E-3    1.253048187150645E-3    1.743187393985989E-3   -3.359733394444442E-1    3.683416918328897E-1
 1.000637465300000E+10  -4.947367702699810E-1    8.672793906303392E-2    1.372330551510918E-3    1.704848822521698E-3    1.249287724905937E-3    1.742434198264132E-3   -3.355536677757588E-1    3.685102379790643E-1
 1.000637676600000E+10  -4.945800899495931E-1    8.690773249877293E-2    1.380924316570094E-3    1.725766536622693E-3    1.263855378888279E-3    1.784229035790253E-3   -3.352261363272340E-1    3.688728520154431E-1
 1.000637887900000E+10  -4.946675282330800E-1    8.698109720341651E-2    1.435676742567245E-3    1.750929453823625E-3    1.303427603811870E-3    1.784389121625640E-3   -3.348051496815321E-1    3.690957451794683E-1
 1.000638099200000E+10  -4.947366256061089E-1    8.707682910475154E-2    1.430684857456527E-3    1.810145642275394E-3    1.332174724268749E-3    1.833913727179326E-3   -3.346828911635678E-1    3.693309307322684E-1
 1.000638310500000E+10  -4.945550078626627E-1    8.720458101205170E-2    1.446865602656321E-3    1.819779015632333E-3    1.351057503412557E-3    1.847504791182108E-3   -3.341613119213066E-1    3.695826195063083E-1
 1.000638521800000E+10  -4.947071155505504E-1    8.744160392235824E-2    1.472691858443389E-3    1.818663313419764E-3    1.348781506713936E-3    1.885396489592107E-3   -3.337215907122173E-1    3.699415144159352E-1
 1.000638733100000E+10  -4.945644316643094E-1    8.742620687928204E-2    1.480110703607958E-3    1.867792236874265E-3    1.380565376894499E-3    1.927194153379757E-3   -3.334038637423204E-1    3.701652922673564E-1
 1.000638944400000E+10  -4.945236524023219E-1    8.774716940473487E-2    1.521939800562008E-3    1.895639578396480E-3    1.417771250106828E-3    1.899465125541669E-3   -3.330126463353987E-1    3.705487005001278E-1
 1.000639155700000E+10  -4.945248285940280E-1    8.788066506548710E-2    1.524502460316396E-3    1.903838789413785E-3    1.438183337203289E-3    1.940318282086147E-3   -3.326312628424727E-1    3.707323949764624E-1
 1.000639367000000E+10  -4.944322842876848E-1    8.789036924876892E-2    1.563680633188617E-3    1.937880382657689E-3    1.440867409646397E-3    1.954622273984601E-3   -3.322852304662255E-1    3.710469512287235E-1
 1.000639578300000E+10  -4.944583362306826E-1    8.801266204151505E-2    1.579528567027673E-3    1.988773108514032E-3    1.479832659395337E-3    1.976280796550345E-3   -3.319909451137647E-1    3.711905479602597E-1
