#  HZ   S   RI   R     50.00 
! Rohde & Schwarz Vector Network Analyzer 
! Rohde-Schwarz,ZNB20-2Port,1311601062101988,3.16
! Created: UTC 3/20/2024, 11:55:44 AM
! freq[Hz]                re:S11                  im:S11                  re:S21                  im:S21                  re:S12                  im:S12                  re:S22                  im:S22
 1.000511127300000E+10  -5.003250795683356E-1    4.564510789356889E-3   -1.539294570715031E-4   -6.731758911842039E-4   -1.436029159315568E-4   -6.620161073584684E-4   -4.055264303416098E-1    2.839356190461714E-1
 1.000511783087500E+10  -5.003440893984837E-1    4.941208330765090E-3   -1.760850586819980E-4   -6.854177826229102E-4   -1.295051758917283E-4   -6.636776864483106E-4   -4.052323329808178E-1    2.842867416682533E-1
 1.000512438875000E+10  -5.002192702052838E-1    5.331510838970052E-3   -1.413416955091384E-4   -6.787728080897684E-4   -1.354249474106564E-4   -6.539733168992055E-4   -4.049767869102345E-1    2.847374181800544E-1
 1.000513094662500E+10  -5.001955197120831E-1    5.685161665371312E-3   -1.760168944377073E-4   -6.527929521476175E-4   -1.268700637408706E-4   -6.407595060965111E-4   -4.046819709514295E-1    2.850523011354717E-1
 1.000513750450000E+10  -5.002685506410752E-1    6.135063332040818E-3   -1.605394799076412E-4   -6.421149589861603E-4   -1.473942536977831E-4   -6.268723781826362E-4   -4.044644241942965E-1    2.855704818006033E-1
 1.000514406237500E+10  -5.002463276851364E-1    6.699840668614183E-3   -1.799017082107869E-4   -6.569722400439718E-4   -1.357306081779937E-4   -6.509536128641425E-4   -4.042812648742627E-1    2.857368233448704E-1
 1.000515062025000E+10  -5.002583477555607E-1    7.045960649957364E-3   -1.519421237402370E-4   -6.447982378481788E-4   -1.152811240917588E-4   -6.478154732493864E-4   -4.040359846902780E-1    2.862718260049162E-1
 1.000515717812500E+10  -5.002217190071562E-1    7.495137541538980E-3   -1.621734007530326E-4   -6.355747214970473E-4   -1.108796480900577E-4   -6.430189946785696E-4   -4.036630511236631E-1    2.866522852442583E-1
 1.000516373600000E+10  -5.003447119235601E-1    7.858602853691450E-3   -1.788001166265152E-4   -6.368410305636106E-4   -1.097438428896187E-4   -6.253957462276089E-4   -4.035083650700705E-1    2.869473970934003E-1
 1.000517029387500E+10  -5.002649268510145E-1    8.313499002692007E-3   -1.596740576411836E-4   -6.399145879267638E-4   -1.397643365686070E-4   -6.224660716622418E-4   -4.032907133807714E-1    2.873823805871660E-1
 1.000517685175000E+10  -5.002489747774830E-1    8.802298208690397E-3   -1.607378711913046E-4   -6.255987145932382E-4   -1.191361670627213E-4   -6.275157290941963E-4   -4.029703357440875E-1    2.876016386569427E-1
 1.000518340962500E+10  -5.001276438354754E-1    9.177644524955560E-3   -1.506071507268291E-4   -6.587308462639009E-4   -1.117521677742040E-4   -6.412831657321925E-4   -4.027383275165680E-1    2.882032236317518E-1
 1.000518996750000E+10  -5.002445788274144E-1    9.548927787098508E-3   -1.643463067700549E-4   -6.054934474282706E-4   -1.093625802203601E-4   -6.055033387468235E-4   -4.025179948618586E-1    2.886716686351165E-1
 1.000519652537500E+10  -5.002881137159347E-1    1.003353030263180E-2   -1.396667902869402E-4   -6.046977931782073E-4   -1.186143578606968E-4   -6.371911277160687E-4   -4.022612588884732E-1    2.889276978545100E-1
 1.000520308325000E+10  -5.002644231625868E-1    1.043423073927396E-2   -1.589205027995860E-4   -6.167416948061044E-4   -1.142533119544950E-4   -5.931862986916305E-4   -4.019292016515801E-1    2.893516429211039E-1
 1.000520964112500E+10  -5.003544788021014E-1    1.092790635029756E-2   -1.195011629511544E-4   -5.995544407947389E-4   -8.826820907335663E-5   -6.138386440900619E-4   -4.016469316403205E-1    2.896808663138121E-1
 1.000521619900000E+10  -5.002180001015992E-1    1.126693280356051E-2   -1.703477703317902E-4   -6.051725518712683E-4   -8.638394930742895E-5   -5.871818849812102E-4   -4.014468088165328E-1    2.901307820068334E-1
 1.000522275687500E+10  -5.003050522659398E-1    1.167676677098725E-2   -1.469518592222569E-4   -6.040664474932280E-4   -1.189724138452594E-4   -5.856887185534846E-4   -4.010579039347248E-1    2.905019097122306E-1
 1.000522931475000E+10  -5.003062264841487E-1    1.223360284859178E-2   -1.330600836885403E-4   -5.822832896327221E-4   -1.281018621559675E-4   -6.038717042243501E-4   -4.009141081999833E-1    2.907816148665878E-1
 1.000523587262500E+10  -5.002835114040517E-1    1.263427027694924E-2   -1.498829984185662E-4   -6.058270371518989E-4   -1.255299802496236E-4   -5.704975053304430E-4   -4.006483305003214E-1    2.912888287091099E-1
 1.000524243050000E+10  -5.004105336915428E-1    1.297990326483906E-2   -1.409015943735285E-4   -5.631754946242276E-4   -1.149492665966641E-4   -5.857668070257178E-4   -4.004855669454859E-1    2.917343033258441E-1
 1.000524898837500E+10  -5.003675321065965E-1    1.345973601289239E-2   -1.416697804324437E-4   -5.916042451401487E-4   -1.129069855990229E-4   -5.878879468502469E-4   -4.001102426950838E-1    2.920089996946799E-1
 1.000525554625000E+10  -5.003967025208921E-1    1.383184883528482E-2   -1.456649662781820E-4   -5.808520656214784E-4   -1.354709361232640E-4   -5.566053953491932E-4   -3.999752707450319E-1    2.923642090666630E-1
 1.000526210412500E+10  -5.003089632937617E-1    1.442808381671170E-2   -1.580811527195056E-4   -5.851694869757230E-4   -1.004351132154342E-4   -5.738986425950847E-4   -3.996483555469277E-1    2.928283916902100E-1
 1.000526866200000E+10  -5.002998271486250E-1    1.479490031565734E-2   -1.320985896239523E-4   -5.504423238072248E-4   -1.119760089792423E-4   -5.595929849053395E-4   -3.993326246095518E-1    2.932157438871420E-1
 1.000527521987500E+10  -5.003211358936822E-1    1.522334676179167E-2   -1.421687824313760E-4   -5.499676635604841E-4   -1.019237537292067E-4   -5.652869677437176E-4   -3.991815492120497E-1    2.935957964090655E-1
 1.000528177775000E+10  -5.003823566509891E-1    1.555628323820246E-2   -1.478658624439151E-4   -5.587051181129302E-4   -1.220095893960469E-4   -5.561512935999705E-4   -3.988616182897032E-1    2.938889964900810E-1
 1.000528833562500E+10  -5.002444524181185E-1    1.603483550087765E-2   -1.465733732858552E-4   -5.520871526358431E-4   -1.135389400298616E-4   -5.530549350094006E-4   -3.985948852726099E-1    2.943876955353331E-1
 1.000529489350000E+10  -5.004026465830468E-1    1.645311286038374E-2   -1.349568396298729E-4   -5.259163170065998E-4   -1.159168008414837E-4   -5.486011637664611E-4   -3.982446288143410E-1    2.948437294583435E-1
 1.000530145137500E+10  -5.002593983424608E-1    1.691686305247923E-2   -1.402730544190343E-4   -5.269701868506443E-4   -8.021179077582408E-5   -5.455297894246384E-4   -3.982162135319493E-1    2.951137701722265E-1
 1.000530800925000E+10  -5.003911811941323E-1    1.732475556815102E-2   -1.314431793110122E-4   -5.296810824472482E-4   -1.202709184365435E-4   -5.026695911658790E-4   -3.977501784652723E-1    2.955472458402637E-1
 1.000531456712500E+10  -5.003068046370936E-1    1.772226215555472E-2   -1.388456211688150E-4   -5.138524521321035E-4   -8.359968793772840E-5   -5.457676642313649E-4   -3.974896347155417E-1    2.958340164327651E-1
 1.000532112500000E+10  -5.002374061160183E-1    1.818738695948873E-2   -1.298177357137773E-4   -5.309985396018109E-4   -1.068456327958097E-4   -5.185047670332193E-4   -3.972245337370283E-1    2.962245544137531E-1
 1.000532768287500E+10  -5.003577145739593E-1    1.857549174563062E-2   -1.275670740568670E-4   -5.601215921026114E-4   -1.181392699718694E-4   -5.302105652896114E-4   -3.969745293519286E-1    2.967118520918663E-1
 1.000533424075000E+10  -5.004143255423409E-1    1.905552690029529E-2   -1.079588171496927E-4   -5.427986740761711E-4   -1.237968706109953E-4   -5.131244333362808E-4   -3.968394241442091E-1    2.971366599893540E-1
 1.000534079862500E+10  -5.001992555224377E-1    1.940982115720702E-2   -1.209941743858794E-4   -5.241719097047531E-4   -7.531144352237642E-5   -5.115602780304502E-4   -3.964517961693915E-1    2.975403311599334E-1
 1.000534735650000E+10  -5.002979334340777E-1    1.979107039477647E-2   -1.211712011401710E-4   -4.901131026207952E-4   -8.379153823240568E-5   -5.193738516335459E-4   -3.961717450902332E-1    2.977783156334040E-1
 1.000535391437500E+10  -5.003251453110306E-1    2.029839187517167E-2   -1.154412299003246E-4   -5.092063466321001E-4   -9.323633136359692E-5   -4.941421013703518E-4   -3.959098589707352E-1    2.981876778806517E-1
 1.000536047225000E+10  -5.002986359622968E-1    2.070501054016496E-2   -9.372034601922020E-5   -5.282456297466011E-4   -9.332084365194872E-5   -5.092243392024622E-4   -3.955548180426754E-1    2.986371702387453E-1
 1.000536703012500E+10  -5.003083221062409E-1    2.114642641392976E-2   -1.216278936712418E-4   -5.049344751746682E-4   -1.021216337373216E-4   -5.028962576847582E-4   -3.954026440799177E-1    2.988858597555901E-1
 1.000537358800000E+10  -5.002210815838188E-1    2.145769644021625E-2   -1.119460108364476E-4   -4.956564549164023E-4   -9.872925855227186E-5   -4.830061475096066E-4   -3.950774567597697E-1    2.992975641622336E-1
 1.000538014587500E+10  -5.002303677402162E-1    2.193083382939573E-2   -6.862694904148165E-5   -4.717366532319221E-4   -6.610266499925297E-5   -5.042060384186830E-4   -3.948941486096859E-1    2.997624852803116E-1
 1.000538670375000E+10  -5.002222127328766E-1    2.243921250805149E-2   -1.125655212520437E-4   -5.006434899313711E-4   -7.046905496451298E-5   -4.982164261069245E-4   -3.945931856053503E-1    3.002208416834789E-1
 1.000539326162500E+10  -5.001806552887479E-1    2.287510397424928E-2   -8.882232081131497E-5   -4.737207619548697E-4   -7.073023387426468E-5   -4.993506521314743E-4   -3.943327210814639E-1    3.004893281073239E-1
 1.000539981950000E+10  -5.002192724829645E-1    2.326588137857529E-2   -9.709539737702070E-5   -4.787649275917668E-4   -7.067483175312386E-5   -4.405069672473084E-4   -3.941037499313241E-1    3.010418125394271E-1
 1.000540637737500E+10  -5.002774282143495E-1    2.378099855202060E-2   -1.075019770601209E-4   -4.753874727076700E-4   -8.015048329925043E-5   -4.737383471971819E-4   -3.936103208501313E-1    3.013769997093198E-1
 1.000541293525000E+10  -5.002813335155311E-1    2.407347920773665E-2   -6.696021155187478E-5   -4.414909726366326E-4   -3.893977174235428E-5   -4.397244598295526E-4   -3.934298368453967E-1    3.017073919176327E-1
 1.000541949312500E+10  -5.002132669509369E-1    2.461914437154917E-2   -8.956993112758862E-5   -4.410500404194657E-4   -6.463207417362316E-5   -4.483904089938811E-4   -3.932051514402833E-1    3.021390277122705E-1
 1.000542605100000E+10  -5.001486550414710E-1    2.492046064280937E-2   -1.114609292648437E-4   -4.609481029762680E-4   -4.754435720580936E-5   -4.531356577011174E-4   -3.928272597108852E-1    3.025045172674108E-1
 1.000543260887500E+10  -5.003044148683224E-1    2.546268734719599E-2   -9.249926457774485E-5   -4.584040413534640E-4   -6.936663498734599E-5   -4.653698519384614E-4   -3.926481032439687E-1    3.029017127756863E-1
 1.000543916675000E+10  -5.002547497901274E-1    2.588283887105291E-2   -8.035610262699990E-5   -4.594909814618372E-4   -7.392934103511531E-5   -4.513866469985848E-4   -3.922569621318493E-1    3.033116735417751E-1
 1.000544572462500E+10  -5.002023717268936E-1    2.624493649336869E-2   -8.259599511415616E-5   -4.202089711388219E-4   -6.382165158803921E-5   -4.181332620878197E-4   -3.920879667898658E-1    3.036626401233285E-1
 1.000545228250000E+10  -5.002987915466113E-1    2.680367073803266E-2   -7.560465137758458E-5   -4.342037302749305E-4   -4.193585527425676E-5   -4.507240941939652E-4   -3.918727285157486E-1    3.041101287375581E-1
 1.000545884037500E+10  -5.001489746174408E-1    2.707571572892352E-2   -6.230834645554326E-5   -4.208482397516148E-4   -4.829425614364129E-5   -4.363984913329391E-4   -3.914508989090778E-1    3.045888036164857E-1
 1.000546539825000E+10  -5.001627136460862E-1    2.761498288407931E-2   -3.831296210019421E-5   -4.288269385146644E-4   -4.719795851506220E-5   -3.866469582857382E-4   -3.911757168326457E-1    3.049553701235105E-1
 1.000547195612500E+10  -5.002085623095932E-1    2.794797069671776E-2   -3.042689339230353E-5   -4.224372337949918E-4   -2.824863251881518E-5   -3.920304843424628E-4   -3.908591454035915E-1    3.052445377360118E-1
 1.000547851400000E+10  -5.001361042129099E-1    2.842695325223524E-2   -7.373095438344075E-5   -3.935897787630329E-4   -2.936412318472155E-5   -4.057425486662490E-4   -3.905246396757637E-1    3.056839867102583E-1
 1.000548507187500E+10  -5.001784102826654E-1    2.888725348144849E-2   -4.964155206241348E-5   -4.090148523837288E-4   -5.702089667645322E-5   -3.769651069031069E-4   -3.902843741557409E-1    3.060798442222676E-1
 1.000549162975000E+10  -5.000999623460981E-1    2.904224440217811E-2   -3.084038978069893E-5   -3.884967350607099E-4   -4.088786495147602E-5   -3.769464536977964E-4   -3.899551095885077E-1    3.064890130828481E-1
 1.000549818762500E+10  -5.001400862555966E-1    2.955880506269301E-2   -4.002748862961855E-5   -4.010796114487110E-4    2.649161104169493E-6   -4.210440711139886E-4   -3.896351504989601E-1    3.068864783645552E-1
 1.000550474550000E+10  -5.000794115562668E-1    3.010441564568508E-2   -3.690154359991663E-5   -3.880926814082408E-4   -2.698896686524921E-5   -3.641900960515011E-4   -3.893769847770514E-1    3.071266170307167E-1
 1.000551130337500E+10  -5.000599341715672E-1    3.057441691289119E-2   -3.797181354036015E-5   -3.881848306282728E-4   -7.409774988242174E-6   -3.631541742868735E-4   -3.891622400245137E-1    3.076370550363808E-1
 1.000551786125000E+10  -5.001907583000220E-1    3.091077310551310E-2   -4.342340625294664E-5   -3.907044402670772E-4   -6.733727420803244E-6   -3.788311434386243E-4   -3.888513380847513E-1    3.080611854520838E-1
 1.000552441912500E+10  -5.000957062494552E-1    3.139898671533922E-2   -2.396118211572124E-5   -3.532567889831019E-4    5.492805304333755E-6   -3.532133642675512E-4   -3.886491653364909E-1    3.083266469362821E-1
 1.000553097700000E+10  -5.000719083153782E-1    3.172488763517919E-2   -8.199020877682116E-6   -3.481304024026662E-4    2.324331760814299E-5   -3.418392384603754E-4   -3.882866161953922E-1    3.088631406705871E-1
 1.000553753487500E+10  -4.999807847515347E-1    3.221249380192966E-2   -8.871714128069950E-6   -3.651773566117539E-4    8.326628078823825E-6   -3.535486190654834E-4   -3.879346902641051E-1    3.092729190159765E-1
 1.000554409275000E+10  -4.999975349360796E-1    3.262885610371476E-2   -2.960668143958158E-5   -3.272278875744396E-4   -7.158312730037542E-7   -2.972871874383230E-4   -3.875956646789211E-1    3.096000939379144E-1
 1.000555065062500E+10  -5.000112536750915E-1    3.309009835549494E-2   -1.243839326760178E-5   -3.392930265565826E-4   -2.044430748574582E-5   -3.069264578274181E-4   -3.873188182416732E-1    3.100844139777715E-1
 1.000555720850000E+10  -4.999649386281166E-1    3.343549415566798E-2    1.047990574519209E-5   -3.262773123062949E-4    1.061013054088464E-5   -3.166192918317837E-4   -3.871457564334466E-1    3.104817149395944E-1
 1.000556376637500E+10  -4.998744957043400E-1    3.401037165761730E-2    9.103534960028116E-6   -3.007970008490570E-4    2.029423071957499E-5   -2.816723947034972E-4   -3.867869657494916E-1    3.108942946868059E-1
 1.000557032425000E+10  -4.999496040955972E-1    3.442773493976430E-2   -2.004805867060885E-5   -2.941807979077384E-4    3.448199098624482E-5   -2.896887550514482E-4   -3.863663434423916E-1    3.111556299844213E-1
 1.000557688212500E+10  -4.998117202338141E-1    3.477338094608229E-2    1.802640878954024E-5   -2.812729072453356E-4    8.644151778963581E-6   -2.934215848107919E-4   -3.860517542928489E-1    3.116245980971508E-1
 1.000558344000000E+10  -4.998885036406233E-1    3.516376999481072E-2    3.337366505411180E-5   -3.095999015928659E-4    3.368499127395966E-5   -3.045519087762119E-4   -3.857236391262889E-1    3.119689883229698E-1
 1.000558999787500E+10  -4.998961899170025E-1    3.556264280762583E-2    3.598491714040604E-5   -2.925229028931110E-4    8.072039098883040E-6   -2.803650713453334E-4   -3.854609491439726E-1    3.122816891740212E-1
 1.000559655575000E+10  -4.998908074959608E-1    3.607130595636278E-2    1.195346998254192E-5   -2.889845147763392E-4    5.437026504079795E-5   -2.458032725038504E-4   -3.851761409367258E-1    3.128971753053749E-1
 1.000560311362500E+10  -5.000014169036583E-1    3.651801485174142E-2    3.236906111708553E-5   -2.947201037120936E-4    3.554797142111381E-5   -2.756264059287733E-4   -3.848308348609046E-1    3.132954211971385E-1
 1.000560967150000E+10  -4.999149445573682E-1    3.695433712937823E-2    1.582541708655274E-5   -2.837011465975234E-4    3.003279691242398E-5   -2.665438917230781E-4   -3.846562466296924E-1    3.135676731488932E-1
 1.000561622937500E+10  -4.998736884694076E-1    3.743327974449742E-2    4.467989644760286E-5   -2.752113678361844E-4    4.852310756441821E-5   -2.567331063971041E-4   -3.841994560001389E-1    3.139117165060955E-1
 1.000562278725000E+10  -4.997657426243695E-1    3.781708231133341E-2    7.526208147559595E-5   -2.423340897537382E-4    7.493073735678682E-5   -2.273286282536411E-4   -3.839302822310924E-1    3.144763638285749E-1
 1.000562934512500E+10  -4.997233652820420E-1    3.829734875948347E-2    4.710122446068814E-5   -1.998211186648168E-4    6.452607446561343E-5   -2.408058790432638E-4   -3.834811550007395E-1    3.149594603135913E-1
 1.000563590300000E+10  -4.995973214140699E-1    3.857944475150826E-2    4.078911935456653E-5   -2.552643586053432E-4    6.389505483263072E-5   -2.058113772469193E-4   -3.830279898123379E-1    3.152913861833636E-1
 1.000564246087500E+10  -4.997479028373306E-1    3.897756043991413E-2    7.491428071998047E-5   -2.374664834391566E-4    4.859596037466364E-5   -2.079142546742387E-4   -3.830373722542030E-1    3.155952783216674E-1
 1.000564901875000E+10  -4.996988182652558E-1    3.943822122100447E-2    6.295560336954279E-5   -2.349926364593155E-4    7.719917498552304E-5   -1.994260059228192E-4   -3.824669917593285E-1    3.159958246840913E-1
 1.000565557662500E+10  -4.997079273360871E-1    3.998455005734128E-2    8.370204414248244E-5   -2.302904669081712E-4    8.990626021301717E-5   -1.806269676088557E-4   -3.822822884618234E-1    3.163717174805408E-1
 1.000566213450000E+10  -4.997853539328707E-1    4.025908575537763E-2    7.548538381694158E-5   -1.909614950580905E-4    1.195856393230486E-4   -1.983117438852381E-4   -3.818008577860536E-1    3.168959212567695E-1
 1.000566869237500E+10  -4.996357303781994E-1    4.076758041493683E-2    8.259606260434160E-5   -2.167870772905713E-4    8.786799748652216E-5   -1.611835217515903E-4   -3.815109743563303E-1    3.174135134115545E-1
 1.000567525025000E+10  -4.995768427594200E-1    4.117394330442243E-2    1.000226316151092E-4   -1.831175911494057E-4    9.319173134858316E-5   -1.869944229705051E-4   -3.812449597680699E-1    3.177025455454265E-1
 1.000568180812500E+10  -4.997315169961100E-1    4.143055585421641E-2    1.201435114453612E-4   -1.807114116128257E-4    1.123729867388760E-4   -1.754769939419157E-4   -3.807257833595852E-1    3.181336071046870E-1
 1.000568836600000E+10  -4.996145157629287E-1    4.191086874301319E-2    1.033618638910410E-4   -1.819994730858318E-4    9.982690366121243E-5   -1.873540323073479E-4   -3.805071554940634E-1    3.185716467921238E-1
 1.000569492387500E+10  -4.995429191123654E-1    4.237126998747122E-2    1.266988479668877E-4   -1.509848754600694E-4    1.385158275467662E-4   -1.589882688328613E-4   -3.802651848424094E-1    3.189940460770683E-1
 1.000570148175000E+10  -4.994809450035352E-1    4.273657171398425E-2    1.536880121980164E-4   -1.330306149942065E-4    1.462055687123486E-4   -1.483624810262492E-4   -3.798740887399586E-1    3.194221819243197E-1
