#  HZ   S   RI   R     50.00 
! Rohde & Schwarz Vector Network Analyzer 
! Rohde-Schwarz,ZNB20-2Port,1311601062101988,3.16
! Created: UTC 3/20/2024, 11:55:46 AM
! freq[Hz]                re:S11                  im:S11                  re:S21                  im:S21                  re:S12                  im:S12                  re:S22                  im:S22
 1.000510727400000E+10  -5.002073955438261E-1    4.131357698149353E-3   -1.974443954705953E-4   -6.491666678862295E-4   -1.234131210733695E-4   -6.658558687379590E-4   -4.055601722172367E-1    2.837641793217744E-1
 1.000511385885000E+10  -5.002225835702824E-1    4.541628897192114E-3   -1.853997654465203E-4   -6.526745670673778E-4   -1.357176935216732E-4   -6.531049689414213E-4   -4.053342710614516E-1    2.841385900926083E-1
 1.000512044370000E+10  -5.002541083962561E-1    5.008711681058754E-3   -1.885055987686697E-4   -6.697857177112455E-4   -1.248904641137179E-4   -6.597696442206715E-4   -4.051451272158691E-1    2.845435128072853E-1
 1.000512702855000E+10  -5.002314135514393E-1    5.548655682627877E-3   -1.815074856322759E-4   -6.261740733752946E-4   -1.472447501594107E-4   -6.628332711171485E-4   -4.047258411463520E-1    2.848057315312805E-1
 1.000513361340000E+10  -5.002356897055585E-1    5.955856037422166E-3   -1.733344598385462E-4   -6.195023389273503E-4   -1.246461873756452E-4   -6.516759915085349E-4   -4.044972372345650E-1    2.852763935129135E-1
 1.000514019825000E+10  -5.001144806855184E-1    6.378740822543467E-3   -1.906658636308890E-4   -6.383826635488344E-4   -1.227416966300740E-4   -6.473846178759351E-4   -4.043678783773199E-1    2.856561894718128E-1
 1.000514678310000E+10  -5.002286284548927E-1    6.841018484304627E-3   -1.656561990537843E-4   -6.471734977597944E-4   -1.240749976528910E-4   -6.562178721825590E-4   -4.040444537081634E-1    2.860046051614507E-1
 1.000515336795000E+10  -5.002359938572245E-1    7.305303844314213E-3   -1.712021117290142E-4   -6.231916922477754E-4   -1.484159595198206E-4   -6.473625635643733E-4   -4.038313657868165E-1    2.865486338564626E-1
 1.000515995280000E+10  -5.001856855501720E-1    7.619351568240980E-3   -1.859874004755190E-4   -6.165007838016397E-4   -1.495130218548416E-4   -6.198974291894465E-4   -4.036152580490929E-1    2.868902764525993E-1
 1.000516653765000E+10  -5.002642533707686E-1    8.056099908353763E-3   -1.870655948991079E-4   -6.408101476368492E-4   -1.557972696849570E-4   -6.281833302290227E-4   -4.034078624010369E-1    2.872673562557580E-1
 1.000517312250000E+10  -5.002298128560789E-1    8.491144845939975E-3   -1.603548325759382E-4   -6.292900540185784E-4   -1.268631714691510E-4   -6.325607920111610E-4   -4.030463254851276E-1    2.875934766717674E-1
 1.000517970735000E+10  -5.003455430406794E-1    8.915734846422574E-3   -1.414397954640849E-4   -6.062262625251900E-4   -1.164511132439008E-4   -6.258423146123302E-4   -4.028101241274549E-1    2.879563668238452E-1
 1.000518629220000E+10  -5.003669774913460E-1    9.249990216880461E-3   -1.694334126235581E-4   -6.128120341386892E-4   -1.519046679385052E-4   -6.298525560082980E-4   -4.025324566038034E-1    2.883357079617787E-1
 1.000519287705000E+10  -5.003351493418540E-1    9.835552249529722E-3   -1.654017826674591E-4   -6.061774125027232E-4   -9.813663028203718E-5   -6.025161018555703E-4   -4.023006042784648E-1    2.887661513618104E-1
 1.000519946190000E+10  -5.002031994674589E-1    1.025151231525394E-2   -1.615799942332102E-4   -6.090095536079581E-4   -1.183663188072882E-4   -5.872294002728476E-4   -4.021043376099069E-1    2.892519354260082E-1
 1.000520604675000E+10  -5.004260968462630E-1    1.060791661986081E-2   -1.560775518004171E-4   -6.074676420770415E-4   -1.163372410180357E-4   -5.878947408294788E-4   -4.018450043173424E-1    2.894898037469786E-1
 1.000521263160000E+10  -5.002971895012263E-1    1.114698615788666E-2   -1.289809932674891E-4   -5.909614160359018E-4   -1.529611924998011E-4   -6.124808358624015E-4   -4.016147307163452E-1    2.898997193265732E-1
 1.000521921645000E+10  -5.003401587502370E-1    1.145522542335337E-2   -1.492723321640129E-4   -5.906051546026204E-4   -1.203510308782093E-4   -6.072332570047700E-4   -4.015012818597469E-1    2.903167942783088E-1
 1.000522580130000E+10  -5.002848527194561E-1    1.187256590933043E-2   -1.362220127370745E-4   -6.051965776088693E-4   -1.102779520759783E-4   -5.905450973748121E-4   -4.011095950939944E-1    2.907225965066808E-1
 1.000523238615000E+10  -5.003431038567171E-1    1.241861610541854E-2   -1.333762653662228E-4   -5.929443125700588E-4   -1.179517712709788E-4   -5.984986788462299E-4   -4.008943019669464E-1    2.909974621257776E-1
 1.000523897100000E+10  -5.003752145768000E-1    1.287180913291391E-2   -1.322875931578046E-4   -5.749429000832052E-4   -1.234422276052334E-4   -6.017117274223917E-4   -4.004528948664506E-1    2.915016981498290E-1
 1.000524555585000E+10  -5.004094220154196E-1    1.308615029165106E-2   -1.595762759094961E-4   -5.843422062852431E-4   -9.581964744360200E-5   -5.724179225905118E-4   -4.002566096294046E-1    2.918574163591711E-1
 1.000525214070000E+10  -5.003884673297866E-1    1.377780424794771E-2   -1.564033827234350E-4   -5.683579960754568E-4   -8.831412434690598E-5   -5.816570928227690E-4   -3.999931281054721E-1    2.922411581584009E-1
 1.000525872555000E+10  -5.003631097327107E-1    1.406914807429599E-2   -1.198760115019913E-4   -5.740889802543004E-4   -1.271267488227803E-4   -5.681633324024889E-4   -3.997145580222703E-1    2.926134353227601E-1
 1.000526531040000E+10  -5.004081499974424E-1    1.454283661115015E-2   -1.316490644287303E-4   -5.645066440652451E-4   -1.293679032167619E-4   -5.682753881627977E-4   -3.996570465223160E-1    2.930781106288526E-1
 1.000527189525000E+10  -5.003138764365942E-1    1.497952316737543E-2   -1.207509556600948E-4   -5.768751688958096E-4   -1.199711953206512E-4   -5.577691519011668E-4   -3.992675809868087E-1    2.935755916997550E-1
 1.000527848010000E+10  -5.002475867678019E-1    1.541853155518189E-2   -1.433419619080343E-4   -5.687106848667137E-4   -1.106120215581956E-4   -6.016432295364010E-4   -3.989663953724911E-1    2.938407191375238E-1
 1.000528506495000E+10  -5.003126687036277E-1    1.572531327398128E-2   -1.238306431701265E-4   -5.514742730005180E-4   -1.218414100735988E-4   -5.645079441501191E-4   -3.987036419008821E-1    2.940448430394442E-1
 1.000529164980000E+10  -5.002273244389479E-1    1.624749259266691E-2   -1.573870873419631E-4   -5.656788118904520E-4   -1.056429726036862E-4   -5.613412826804845E-4   -3.984760780385391E-1    2.946040936911040E-1
 1.000529823465000E+10  -5.002159483930887E-1    1.664123664810100E-2   -1.422882324784961E-4   -5.618409085249012E-4   -1.088226310302439E-4   -5.630879005631320E-4   -3.982927219010128E-1    2.948877995556186E-1
 1.000530481950000E+10  -5.003003965201892E-1    1.709459219572084E-2   -1.002393318623357E-4   -5.374674772691244E-4   -1.133888333483943E-4   -5.550803759106460E-4   -3.977783603572313E-1    2.953652252257103E-1
 1.000531140435000E+10  -5.004126151918230E-1    1.743623952736798E-2   -1.177710747960746E-4   -5.728473138670447E-4   -7.802518462975247E-5   -5.375958393864829E-4   -3.976589004534302E-1    2.957932248275014E-1
 1.000531798920000E+10  -5.002175993508881E-1    1.790514070214905E-2   -1.202469223072491E-4   -5.221995351797039E-4   -9.781827003313339E-5   -5.376380720061790E-4   -3.974340388602213E-1    2.960930299371365E-1
 1.000532457405000E+10  -5.002584453480033E-1    1.841500602256476E-2   -9.233302991713299E-5   -5.304608293609446E-4   -9.390531651661151E-5   -5.330387643842991E-4   -3.971604806726138E-1    2.964894400878904E-1
 1.000533115890000E+10  -5.002703813744173E-1    1.872025907510921E-2   -1.229251332366000E-4   -5.425081699067541E-4   -7.315718546196857E-5   -5.165504363016420E-4   -3.967879550451906E-1    2.968792761604396E-1
 1.000533774375000E+10  -5.003948122804287E-1    1.918203652405412E-2   -1.181939319310095E-4   -4.894084847822592E-4   -9.055812908444118E-5   -5.351499772240062E-4   -3.967326602697648E-1    2.974618504955898E-1
 1.000534432860000E+10  -5.002900709968926E-1    1.964449697172810E-2   -1.020071223213687E-4   -5.155664545967646E-4   -6.316185160004435E-5   -4.943123041717218E-4   -3.963356483981283E-1    2.977372598999291E-1
 1.000535091345000E+10  -5.002841585565294E-1    2.002493949023373E-2   -1.077988266544548E-4   -5.414388630850603E-4   -6.609851579935284E-5   -5.096059655992251E-4   -3.961382747295372E-1    2.981872431244959E-1
 1.000535749830000E+10  -5.004058372018545E-1    2.041436384712621E-2   -1.215775144002620E-4   -5.150379892580029E-4   -7.548019799257029E-5   -5.177722883035942E-4   -3.957614544508734E-1    2.984398396502118E-1
 1.000536408315000E+10  -5.001902324658921E-1    2.091877715219501E-2   -1.222118058503669E-4   -4.685276238228227E-4   -5.440757471149532E-5   -4.764880052571474E-4   -3.955934289760624E-1    2.988648925147726E-1
 1.000537066800000E+10  -5.003314178442128E-1    2.139850547104398E-2   -1.157529958804887E-4   -4.849734952721266E-4   -7.422478241533268E-5   -4.861387489170949E-4   -3.952360719771275E-1    2.994194084802884E-1
 1.000537725285000E+10  -5.002438472170032E-1    2.193055017182361E-2   -1.119077136510248E-4   -4.941724722868765E-4   -9.935820611296167E-5   -4.712886121876334E-4   -3.950252366732269E-1    2.996553720415823E-1
 1.000538383770000E+10  -5.003372421070243E-1    2.219716066174511E-2   -1.236378578144416E-4   -4.713723018315991E-4   -5.685194817819450E-5   -4.896151799461857E-4   -3.947407467148871E-1    3.000538391148295E-1
 1.000539042255000E+10  -5.004211821260729E-1    2.274888870197396E-2   -9.398385219487172E-5   -4.725589699226404E-4   -5.242732605114084E-5   -5.045501115996315E-4   -3.943449536588065E-1    3.004621671834154E-1
 1.000539700740000E+10  -5.004516047293008E-1    2.321919286984907E-2   -1.069269927628369E-4   -4.836107656234402E-4   -6.667271811788111E-5   -4.763320878689614E-4   -3.941043392983711E-1    3.008845148204938E-1
 1.000540359225000E+10  -5.002842012048314E-1    2.353779583847693E-2   -1.181448708946644E-4   -5.024883466789377E-4   -6.681029270508782E-5   -4.756380797645431E-4   -3.938491466228903E-1    3.011816915799379E-1
 1.000541017710000E+10  -5.001549408304503E-1    2.393623402791563E-2   -9.946673770713614E-5   -4.469485227829557E-4   -8.738931746184510E-5   -4.835245614931858E-4   -3.935649233937886E-1    3.016470466564065E-1
 1.000541676195000E+10  -5.001062684319061E-1    2.432240358483093E-2   -1.131242980647839E-4   -4.394348019400970E-4   -6.850941375406159E-5   -4.330557905512130E-4   -3.933428014873691E-1    3.019535676554491E-1
 1.000542334680000E+10  -5.002772607417419E-1    2.474999692351532E-2   -7.484128284143862E-5   -4.588733351595525E-4   -2.990460962918808E-5   -4.596991371590200E-4   -3.929312588561217E-1    3.023102618511197E-1
 1.000542993165000E+10  -5.002464938236429E-1    2.526575692040172E-2   -6.654252995599959E-5   -4.504318385047521E-4   -5.734135524223617E-5   -4.343502491206276E-4   -3.927228580717493E-1    3.028063297156230E-1
 1.000543651650000E+10  -5.002092377311170E-1    2.554643722991080E-2   -6.666668922191305E-5   -4.258986189538810E-4   -6.927696620516577E-5   -4.374508615512051E-4   -3.923695685623177E-1    3.030903236716322E-1
 1.000544310135000E+10  -5.003474532803148E-1    2.611529241536976E-2   -6.062196939585711E-5   -4.372576459271752E-4   -6.181827478119393E-5   -4.155772529175413E-4   -3.921515834352965E-1    3.035369266694317E-1
 1.000544968620000E+10  -5.002692912541028E-1    2.652601621831657E-2   -5.342618567061595E-5   -4.464162825765387E-4   -5.589317414254895E-5   -4.728472828569618E-4   -3.919278407148677E-1    3.041168116735894E-1
 1.000545627105000E+10  -5.001307802803779E-1    2.688075819402444E-2   -7.178239500765558E-5   -4.356308148038965E-4   -4.709997445336174E-5   -4.008036269816540E-4   -3.915270520562752E-1    3.043542487451186E-1
 1.000546285590000E+10  -5.002487642321841E-1    2.734021940201641E-2   -5.472841316821361E-5   -4.199942533243544E-4   -3.044680896951167E-5   -4.279996300811698E-4   -3.912419915124355E-1    3.046159151567209E-1
 1.000546944075000E+10  -5.001944916388059E-1    2.768464762962215E-2   -4.102788737683660E-5   -4.316147281183390E-4   -5.085237659960994E-5   -4.475035837165187E-4   -3.910897473568395E-1    3.051830464608080E-1
 1.000547602560000E+10  -5.002505378759363E-1    2.825652833127424E-2   -6.368738054116873E-5   -4.030770454228593E-4   -4.044396194005323E-5   -3.838469128090032E-4   -3.907103908785107E-1    3.055889075701415E-1
 1.000548261045000E+10  -5.002033586505861E-1    2.865364652411670E-2   -3.849252210766586E-5   -3.908607665617834E-4   -2.246962087621735E-5   -4.068626449453174E-4   -3.905293741659936E-1    3.059159743831691E-1
 1.000548919530000E+10  -5.001394710065896E-1    2.904669264982585E-2   -4.325148376542438E-5   -3.868133499214850E-4    3.491714775076893E-6   -3.871012851580057E-4   -3.900936849982249E-1    3.062702801907583E-1
 1.000549578015000E+10  -5.001697030236573E-1    2.942630373516347E-2   -5.563013375030792E-5   -3.983297914700859E-4   -7.336455468460033E-6   -3.728862833535791E-4   -3.898681073943209E-1    3.067546738009883E-1
 1.000550236500000E+10  -5.000747052670297E-1    2.978850311943514E-2   -3.289242878409003E-5   -3.773464446235083E-4   -1.972940881121216E-5   -3.898676845462984E-4   -3.894680259796649E-1    3.072268275486504E-1
 1.000550894985000E+10  -5.000684037616927E-1    3.041896864633107E-2   -3.441901858777026E-5   -4.012320448408387E-4   -2.022007454849562E-5   -3.605752595189943E-4   -3.891383363897097E-1    3.074153604138306E-1
 1.000551553470000E+10  -5.000200265312458E-1    3.082661678331485E-2   -1.144848351702049E-5   -3.688631144910677E-4   -4.357267862655820E-5   -3.666449845554300E-4   -3.889825247831409E-1    3.078870593526440E-1
 1.000552211955000E+10  -5.000833991470548E-1    3.118403175790134E-2   -3.716966214749667E-5   -3.814891746856587E-4    4.156177486121529E-7   -3.757356654999560E-4   -3.886632940524783E-1    3.084437874604050E-1
 1.000552870440000E+10  -5.001627764611696E-1    3.159163637580471E-2   -3.178651632637922E-5   -3.666361415156892E-4   -5.272581210260429E-7   -3.544928331799555E-4   -3.884155501974400E-1    3.085540489162044E-1
 1.000553528925000E+10  -5.000339490587282E-1    3.205979033239970E-2   -1.329933070931764E-5   -3.403672429563047E-4   -1.830895422960280E-5   -3.543671920564180E-4   -3.880323141022045E-1    3.091400195331072E-1
 1.000554187410000E+10  -5.000449157122484E-1    3.243631527470765E-2   -4.124683648134673E-5   -3.408681430372914E-4   -1.318459651613944E-5   -3.469113284474110E-4   -3.877359692646217E-1    3.094814342865688E-1
 1.000554845895000E+10  -4.998524419921521E-1    3.292965004977697E-2    1.727529852782959E-5   -3.369460898389939E-4    3.872711005788245E-5   -3.224548433145886E-4   -3.874556715020431E-1    3.098901099733072E-1
 1.000555504380000E+10  -4.999715008995348E-1    3.341811121881842E-2   -6.996221188310406E-6   -3.219788202944473E-4    2.822846257264782E-5   -3.387369810873769E-4   -3.870461714502273E-1    3.103416260029770E-1
 1.000556162865000E+10  -5.001306690230735E-1    3.381378171005758E-2   -6.089526894718726E-6   -3.289980551024001E-4    3.316337725663550E-6   -3.299828831242964E-4   -3.869404249368641E-1    3.107413564154247E-1
 1.000556821350000E+10  -4.999756782896957E-1    3.419387243038234E-2    9.647651937993659E-7   -3.340955748941222E-4    3.907920713904960E-5   -3.282999606590918E-4   -3.864504200946037E-1    3.109409988906195E-1
 1.000557479835000E+10  -5.000370355356276E-1    3.456746547879953E-2   -1.398914505136933E-6   -3.229285157373081E-4    2.156224115979613E-5   -2.989448643166104E-4   -3.862051409846086E-1    3.116026891852949E-1
 1.000558138320000E+10  -5.000313622257492E-1    3.502823327264282E-2    1.649171638801921E-5   -3.061873979837622E-4    1.970681115151782E-5   -2.783192647155154E-4   -3.858299154147790E-1    3.119482339403458E-1
 1.000558796805000E+10  -4.998933942577306E-1    3.550181290450905E-2    1.688132851385067E-5   -2.915205363142036E-4    3.904479350841963E-5   -2.980002331362484E-4   -3.854172025958433E-1    3.122658839350586E-1
 1.000559455290000E+10  -4.998258739536731E-1    3.594274281518129E-2    1.605275559918164E-5   -2.838288302229648E-4    7.300478350134581E-5   -2.593404303899213E-4   -3.851341111259735E-1    3.126408036562576E-1
 1.000560113775000E+10  -4.999960212618196E-1    3.646288317434527E-2    2.993151939933976E-5   -2.650715324545517E-4    2.241207501427438E-5   -2.790458700941169E-4   -3.848887662599448E-1    3.129866228424756E-1
 1.000560772260000E+10  -4.997919024374067E-1    3.686779704211534E-2    1.669496078177866E-5   -2.840462228734844E-4    3.429447094872469E-5   -2.824553988264022E-4   -3.846585186088797E-1    3.136174058255206E-1
 1.000561430745000E+10  -4.998849591547807E-1    3.728129393824215E-2    2.977719802623154E-5   -2.633596912381844E-4    8.288515232329863E-5   -2.587289967890610E-4   -3.844063347536530E-1    3.139116681740584E-1
 1.000562089230000E+10  -4.998386867011040E-1    3.757853728160245E-2    7.863836164044097E-5   -2.369453170496284E-4    4.519600341933500E-5   -2.041343385874989E-4   -3.839508369883636E-1    3.143195465276885E-1
 1.000562747715000E+10  -4.998104761784566E-1    3.809062060041425E-2    5.773192164696829E-5   -2.380019819360812E-4    1.009782193197270E-4   -2.195406797421476E-4   -3.837008163952636E-1    3.147763403479046E-1
 1.000563406200000E+10  -4.998734756716771E-1    3.838459115243754E-2    5.095966394293944E-5   -2.343905397708568E-4    7.020956739614586E-5   -2.291363218605327E-4   -3.833841512743851E-1    3.150445909343175E-1
 1.000564064685000E+10  -4.997454120882066E-1    3.895297101682644E-2    6.154785011286224E-5   -2.237156558711014E-4    9.164338304988743E-5   -2.052449834870246E-4   -3.830488042870609E-1    3.153655339145044E-1
 1.000564723170000E+10  -4.998078404706076E-1    3.932799640707561E-2    1.032902654057359E-4   -2.274376239528653E-4    7.237816324354561E-5   -2.076846901967815E-4   -3.825915627192923E-1    3.159545281032254E-1
 1.000565381655000E+10  -4.996416182265008E-1    3.977310297246741E-2    7.368157817660829E-5   -1.932579966692991E-4    1.070507118919267E-4   -2.194388061423992E-4   -3.821999955537322E-1    3.164183322079862E-1
 1.000566040140000E+10  -4.997761172148055E-1    4.026904585510910E-2    8.710249629033533E-5   -2.423387296352380E-4    6.599182350324290E-5   -2.004738380240843E-4   -3.820322695538751E-1    3.168438130568490E-1
 1.000566698625000E+10  -4.996354245859067E-1    4.053147456382668E-2    8.534068965523546E-5   -2.013753622428444E-4    1.016110654836420E-4   -1.887404865552224E-4   -3.816646574711038E-1    3.171870258298168E-1
 1.000567357110000E+10  -4.995697836112967E-1    4.105384779605232E-2    1.289830110500214E-4   -1.646158171585529E-4    1.169325329689607E-4   -2.014275321157549E-4   -3.812812019463213E-1    3.176848686702983E-1
 1.000568015595000E+10  -4.996790918596980E-1    4.157876977630461E-2    8.596148289421940E-5   -2.078938807358459E-4    1.120618149887452E-4   -1.692903235374871E-4   -3.809233089177692E-1    3.179864049603759E-1
 1.000568674080000E+10  -4.996377180857587E-1    4.194134547767217E-2    1.021807197612464E-4   -1.636376404980929E-4    1.037073195822103E-4   -1.469759449304688E-4   -3.805437705400949E-1    3.183948869349222E-1
 1.000569332565000E+10  -4.995885541271120E-1    4.228755180582820E-2    1.156936968172604E-4   -1.523141458906624E-4    1.215351129628205E-4   -1.291602899233324E-4   -3.802452441885665E-1    3.188543910351859E-1
 1.000569991050000E+10  -4.997568351556459E-1    4.270846581052083E-2    1.180562660455412E-4   -1.838073853578058E-4    1.365187670575724E-4   -1.234491293762511E-4   -3.798861757090926E-1    3.193111200501536E-1
