#  HZ   S   RI   R     50.00 
! Rohde & Schwarz Vector Network Analyzer 
! Rohde-Schwarz,ZNB20-2Port,1311601062101988,3.16
! Created: UTC 3/20/2024, 11:56:10 AM
! freq[Hz]                re:S11                  im:S11                  re:S21                  im:S21                  re:S12                  im:S12                  re:S22                  im:S22
 1.000514977900000E+10  -5.002914311259212E-1    7.024259494432764E-3   -1.812964645867593E-4   -6.501363071747383E-4   -1.583036513666672E-4   -6.510937626664254E-4   -4.040584801730245E-1    2.861311693296982E-1
 1.000515620577500E+10  -5.003026706251362E-1    7.386037015196030E-3   -1.810555452796439E-4   -6.244707726634807E-4   -1.218402032991903E-4   -6.094116631447713E-4   -4.038035571170023E-1    2.864277377527167E-1
 1.000516263255000E+10  -5.003056336058651E-1    7.800115572527670E-3   -1.688822164942650E-4   -6.504373456977850E-4   -1.364387690229439E-4   -6.322611203018383E-4   -4.034762975518570E-1    2.867891368492237E-1
 1.000516905932500E+10  -5.003668234293602E-1    8.256518853178246E-3   -1.748667534004013E-4   -6.219343283420182E-4   -1.249639217509828E-4   -6.235981486992743E-4   -4.032126706428797E-1    2.874075976609212E-1
 1.000517548610000E+10  -5.003294568505554E-1    8.560833468022841E-3   -1.834033706256406E-4   -6.237071090137886E-4   -9.891480994956768E-5   -6.318896099173648E-4   -4.030732411446835E-1    2.877133875634706E-1
 1.000518191287500E+10  -5.002791349563808E-1    9.060731794047048E-3   -1.783343620735098E-4   -6.660310599883602E-4   -1.564432721804953E-4   -6.567208396289748E-4   -4.028497850934207E-1    2.880804618390367E-1
 1.000518833965000E+10  -5.002838969106236E-1    9.442214317701288E-3   -1.729901513298225E-4   -6.230629755968307E-4   -1.203500239817296E-4   -6.194292149185320E-4   -4.028258590317558E-1    2.883474191274607E-1
 1.000519476642500E+10  -5.003983287261775E-1    9.885634402340488E-3   -1.625627200383867E-4   -6.117495720996922E-4   -1.418735637687383E-4   -6.233812868622838E-4   -4.024172146839751E-1    2.887631194417485E-1
 1.000520119320000E+10  -5.002648492672248E-1    1.028089571060972E-2   -1.792539589755140E-4   -6.175124421841101E-4   -1.199700387516319E-4   -6.284015018245295E-4   -4.021434526918790E-1    2.890712907186110E-1
 1.000520761997500E+10  -5.003308115541503E-1    1.072125457745438E-2   -1.777405078540356E-4   -5.980884377614936E-4   -1.223194103214748E-4   -6.132667577381036E-4   -4.019674508723589E-1    2.894669018996182E-1
 1.000521404675000E+10  -5.003857884955498E-1    1.119570683506253E-2   -1.821046893415485E-4   -5.905006682550878E-4   -1.319308961632522E-4   -5.895723475857146E-4   -4.016675184314623E-1    2.899612118323598E-1
 1.000522047352500E+10  -5.003076604823884E-1    1.161271185411104E-2   -1.496644976584153E-4   -6.121809615776811E-4   -1.136614771089994E-4   -5.940786785571520E-4   -4.013483070965729E-1    2.902781932445709E-1
 1.000522690030000E+10  -5.003068049952700E-1    1.198310131108353E-2   -1.487037250324372E-4   -5.987492219256388E-4   -1.119233586215455E-4   -5.972302778164294E-4   -4.011391992091375E-1    2.906338854158629E-1
 1.000523332707500E+10  -5.003274056938811E-1    1.213108835424591E-2   -1.457505420098128E-4   -6.315451944772322E-4   -1.361474924115640E-4   -6.080612792787916E-4   -4.009844694240061E-1    2.911066570298887E-1
 1.000523975385000E+10  -5.003085181813420E-1    1.288732478280722E-2   -1.547428564951857E-4   -5.890883726453920E-4   -1.346812957956333E-4   -6.034165933647452E-4   -4.006687727067099E-1    2.914516418017145E-1
 1.000524618062500E+10  -5.003265269337761E-1    1.327868065334229E-2   -1.686690260743908E-4   -5.790546694384712E-4   -1.106700919666940E-4   -6.018996526262395E-4   -4.003759898144905E-1    2.917615911014321E-1
 1.000525260740000E+10  -5.002811227125654E-1    1.350973024518690E-2   -1.626501717442961E-4   -5.918035682595381E-4   -1.308664551145281E-4   -5.987997285183896E-4   -4.002229402654485E-1    2.921789876262073E-1
 1.000525903417500E+10  -5.002785722912466E-1    1.400474355986655E-2   -1.525902651123893E-4   -5.857821278152499E-4   -9.889579226037607E-5   -5.742604994476198E-4   -3.998855374245834E-1    2.925492085492732E-1
 1.000526546095000E+10  -5.003246038921296E-1    1.457789907376191E-2   -1.491165297485574E-4   -5.759825340691875E-4   -1.275689764483336E-4   -5.976470833893025E-4   -3.997109693059217E-1    2.930521428587025E-1
 1.000527188772500E+10  -5.003237443030609E-1    1.494303512887571E-2   -1.303434148147888E-4   -5.818811776345707E-4   -1.296968201617271E-4   -5.581417538443466E-4   -3.992480306456297E-1    2.933567916760970E-1
 1.000527831450000E+10  -5.003494117347843E-1    1.536052298755427E-2   -1.609816993594654E-4   -5.433372705615684E-4   -1.142643170195659E-4   -5.687732159812724E-4   -3.991532534799945E-1    2.937900762311019E-1
 1.000528474127500E+10  -5.003274496240634E-1    1.574257293503425E-2   -1.283764114760321E-4   -5.603398150238014E-4   -1.061683060671187E-4   -5.599879941043388E-4   -3.988460903464293E-1    2.941177242881207E-1
 1.000529116805000E+10  -5.004656797575598E-1    1.615968178004107E-2   -1.140762101589095E-4   -5.585127273208657E-4   -7.549782064438291E-5   -5.405359403546716E-4   -3.986493317601759E-1    2.945604658199981E-1
 1.000529759482500E+10  -5.002235418174992E-1    1.664570763617657E-2   -1.320330648950284E-4   -5.576119897733134E-4   -1.041987695614796E-4   -5.344516932225953E-4   -3.984012365762296E-1    2.948148590939650E-1
 1.000530402160000E+10  -5.002825878433806E-1    1.692502888466417E-2   -1.146118276703269E-4   -5.477338390087062E-4   -1.086206428264810E-4   -5.326088694674511E-4   -3.982005002508165E-1    2.952410880722101E-1
 1.000531044837500E+10  -5.003452001096668E-1    1.734584260336359E-2   -1.460804881955693E-4   -5.638128792294038E-4   -1.170381137376577E-4   -5.581155048267026E-4   -3.977694387083622E-1    2.957847325028630E-1
 1.000531687515000E+10  -5.004192449036039E-1    1.789594890581985E-2   -1.444770371012927E-4   -5.482552981452744E-4   -1.155461948820743E-4   -5.347874344657149E-4   -3.976121969149237E-1    2.959942366876967E-1
 1.000532330192500E+10  -5.003270772043682E-1    1.832154872976442E-2   -1.086337911242536E-4   -5.676821805693648E-4   -1.039336274458354E-4   -5.236021845644314E-4   -3.972433909996235E-1    2.965162360280506E-1
 1.000532972870000E+10  -5.003491206407941E-1    1.866399548499324E-2   -1.239681158649542E-4   -5.224820736381404E-4   -1.091405541041828E-4   -5.455587398590273E-4   -3.969482147954085E-1    2.968363854479760E-1
 1.000533615547500E+10  -5.003812140993369E-1    1.906629023226353E-2   -1.230530006553254E-4   -5.423533164842212E-4   -9.992569752111932E-5   -5.433557179753544E-4   -3.968379205788779E-1    2.972283366155422E-1
 1.000534258225000E+10  -5.003431345079967E-1    1.948311081869198E-2   -1.193056864819021E-4   -5.251584357470574E-4   -1.102439837305197E-4   -5.518183203068284E-4   -3.965426086083219E-1    2.974442052178419E-1
 1.000534900902500E+10  -5.002564535502924E-1    1.995710469812371E-2   -1.132383638595371E-4   -5.045202313479017E-4   -1.053841380556171E-4   -5.299543311558287E-4   -3.961977579883296E-1    2.979326554960388E-1
 1.000535543580000E+10  -5.003050241234799E-1    2.025085596367305E-2   -1.099127450898393E-4   -5.074817503169794E-4   -8.619897847676376E-5   -5.161334534316731E-4   -3.959695146163004E-1    2.982753400676187E-1
 1.000536186257500E+10  -5.002397138381710E-1    2.071892027809061E-2   -9.687673987484334E-5   -4.981864742302035E-4   -9.258212234012805E-5   -4.912145444520085E-4   -3.956657574889123E-1    2.987620867879814E-1
 1.000536828935000E+10  -5.002730594270746E-1    2.113163526861205E-2   -8.268629808631380E-5   -5.240014426018005E-4   -8.469202344553250E-5   -5.259754681288736E-4   -3.953311793461630E-1    2.990598777961067E-1
 1.000537471612500E+10  -5.002553099156537E-1    2.157017649147618E-2   -1.156437897625151E-4   -4.952630321446535E-4   -7.040752479169493E-5   -4.829558009897920E-4   -3.951597203759883E-1    2.995413879339417E-1
 1.000538114290000E+10  -5.001923138822446E-1    2.196998620477037E-2   -9.235332821488606E-5   -4.878653890379717E-4   -6.294333507318489E-5   -5.083309181556332E-4   -3.949336265459237E-1    2.998131390089939E-1
 1.000538756967500E+10  -5.002889637377447E-1    2.247153309112146E-2   -1.081484306622810E-4   -4.776708889971534E-4   -9.944715329923839E-5   -5.028096984161534E-4   -3.945882030668475E-1    3.001541784047216E-1
 1.000539399645000E+10  -5.002062002405576E-1    2.284422052303548E-2   -1.107444878316677E-4   -4.824341475236371E-4   -6.777487949242594E-5   -4.861407759249050E-4   -3.942692669840011E-1    3.005817716663547E-1
 1.000540042322500E+10  -5.003382163586353E-1    2.330261159566129E-2   -8.328358754492619E-5   -5.045155635503421E-4   -9.364614501654119E-5   -4.785971634677295E-4   -3.941164070320964E-1    3.009319103092917E-1
 1.000540685000000E+10  -5.003129000878145E-1    2.364296675095603E-2   -9.464516929027152E-5   -4.714882612855894E-4   -6.559212356737171E-5   -4.820907496177259E-4   -3.936457071945085E-1    3.013505202307322E-1
 1.000541327677500E+10  -5.002926590690883E-1    2.434675964850774E-2   -1.119027423946458E-4   -4.669261740707127E-4   -8.730410953550595E-5   -5.021005915517082E-4   -3.936401194887776E-1    3.018428394004675E-1
 1.000541970355000E+10  -5.003033523711111E-1    2.454165475459089E-2   -1.106483772221038E-4   -4.703397394387301E-4   -5.127186990163495E-5   -4.665310665639385E-4   -3.932854006999884E-1    3.022381675622436E-1
 1.000542613032500E+10  -5.001900129879487E-1    2.507189517507544E-2   -9.426505908580962E-5   -4.850768761684727E-4   -6.596013704409246E-5   -4.705039302797513E-4   -3.930827455571230E-1    3.025168017190474E-1
 1.000543255710000E+10  -5.002809266831582E-1    2.549606047609903E-2   -8.416316821575253E-5   -4.602137910183092E-4   -9.152159498581040E-5   -4.529141955161430E-4   -3.927218052722097E-1    3.028843039846524E-1
 1.000543898387500E+10  -5.002525278699547E-1    2.590559641510285E-2   -8.478022352378374E-5   -4.600792828697092E-4   -3.699229017174820E-5   -4.382981104463963E-4   -3.924075783501684E-1    3.032377122955109E-1
 1.000544541065000E+10  -5.002060417525960E-1    2.617710520427335E-2   -7.361995436906033E-5   -4.537710020385689E-4   -4.413708554560275E-5   -4.733292327450254E-4   -3.922396734885433E-1    3.036721002801535E-1
 1.000545183742500E+10  -5.000788197337529E-1    2.670044333194026E-2   -1.013778270565145E-4   -4.762061925254350E-4   -5.098489124831689E-5   -4.224513498978544E-4   -3.918800154543314E-1    3.038729379843358E-1
 1.000545826420000E+10  -5.000559143739322E-1    2.708595454559854E-2   -6.177915352125881E-5   -4.250443354824483E-4   -6.674423898471266E-5   -4.213025174902732E-4   -3.916592018214639E-1    3.043151211589998E-1
 1.000546469097500E+10  -5.000689788048286E-1    2.751894483650819E-2   -7.293266664939141E-5   -4.438567407053686E-4   -4.729259230174692E-5   -4.189199554482180E-4   -3.911965543389579E-1    3.046052438153361E-1
 1.000547111775000E+10  -5.003291822721294E-1    2.784177904775156E-2   -4.432069068103969E-5   -4.274956631941553E-4   -5.473492839113925E-5   -4.303088094254291E-4   -3.911499631618816E-1    3.051538865432551E-1
 1.000547754452500E+10  -5.000881220273318E-1    2.827416646199881E-2   -5.476962320936998E-5   -4.297363634436651E-4   -7.679242656055786E-5   -4.114962805024800E-4   -3.908683756372313E-1    3.055219166527576E-1
 1.000548397130000E+10  -5.002380559666640E-1    2.859359852896558E-2   -4.654948613822550E-5   -4.028909206882432E-4   -2.586405641361041E-5   -3.985061684937478E-4   -3.904145812888851E-1    3.060148689417616E-1
 1.000549039807500E+10  -5.001820806485857E-1    2.916958023677526E-2   -3.220590103287847E-5   -4.325499432950254E-4   -2.228834096764209E-5   -4.199030115596718E-4   -3.902705332274033E-1    3.063686449959836E-1
 1.000549682485000E+10  -5.001235956742591E-1    2.945227885688543E-2   -5.056379169793357E-5   -3.858975659903804E-4   -1.614224303834516E-5   -4.256636176032555E-4   -3.899303222662879E-1    3.067895536694679E-1
 1.000550325162500E+10  -5.002160693851483E-1    2.988330051257666E-2   -6.370414962097689E-5   -3.815928124468305E-4   -2.183769585697052E-5   -3.988606075950460E-4   -3.897091204221301E-1    3.070961317737064E-1
 1.000550967840000E+10  -5.002043587975674E-1    3.027338156348702E-2   -5.680734491244703E-5   -3.619382571843867E-4   -3.333933082868422E-5   -4.160157476185838E-4   -3.893378213272738E-1    3.074841389151143E-1
 1.000551610517500E+10  -5.001547895409113E-1    3.077440893532049E-2   -3.832017135703381E-5   -3.680698980400329E-4   -2.666722777913041E-5   -3.726426072508703E-4   -3.889297643544324E-1    3.077657498245768E-1
 1.000552253195000E+10  -5.001262178909511E-1    3.122069858135075E-2   -1.570706693139211E-5   -3.866736769836296E-4   -1.595596161084933E-5   -3.752558211191444E-4   -3.887213278534240E-1    3.080519680486051E-1
 1.000552895872500E+10  -5.001697258721985E-1    3.160920803966186E-2   -2.663664084252702E-5   -3.499146848731964E-4   -1.063770467650930E-5   -3.329898794070350E-4   -3.884012292368816E-1    3.086568851950305E-1
 1.000553538550000E+10  -5.000089336698829E-1    3.215746105667699E-2   -5.069738802223852E-5   -3.695407714787673E-4   -1.277047222342284E-5   -3.496841695083804E-4   -3.880989254750163E-1    3.091318196518201E-1
 1.000554181227500E+10  -5.000075786486852E-1    3.244604278436105E-2   -4.603163841690554E-5   -3.483635813775136E-4    2.338012686766824E-5   -3.621161341661782E-4   -3.878787148461686E-1    3.094406423705278E-1
 1.000554823905000E+10  -5.000717870952247E-1    3.284145928606619E-2   -3.626270234873125E-5   -3.441027745232861E-4    8.460555299838513E-6   -3.540070210083706E-4   -3.875177779272087E-1    3.097216642152502E-1
 1.000555466582500E+10  -4.999934768820091E-1    3.332909117790969E-2   -2.643777386586011E-5   -3.534939843251535E-4    1.202918969438412E-5   -3.667558947055748E-4   -3.873767821943934E-1    3.101775989179630E-1
 1.000556109260000E+10  -4.999130177759162E-1    3.375914265804925E-2   -5.080306589447540E-6   -3.254712151483730E-4    3.560833102840286E-5   -3.248417969114930E-4   -3.870256008832783E-1    3.106818222886734E-1
 1.000556751937500E+10  -5.000376508456360E-1    3.412478504369511E-2   -2.934014988366994E-5   -3.306139155469235E-4   -3.700419097354209E-6   -3.160628092229953E-4   -3.867602410358966E-1    3.109377051594904E-1
 1.000557394615000E+10  -4.999908557837843E-1    3.460182865205844E-2   -4.771752457891309E-6   -3.150247336177140E-4    2.310265307904937E-7   -3.307199767659587E-4   -3.864108257310251E-1    3.113971604366194E-1
 1.000558037292500E+10  -4.999178822405489E-1    3.494844403564452E-2   -3.032314946274815E-6   -3.249208419714815E-4    1.706151322327011E-5   -3.143741069957330E-4   -3.860773143717899E-1    3.116485481492811E-1
 1.000558679970000E+10  -4.998901230458736E-1    3.532484385737690E-2   -1.368827812631981E-5   -3.232342700393712E-4    3.027311330159593E-5   -2.904814039647951E-4   -3.858295627524084E-1    3.121665972020288E-1
 1.000559322647500E+10  -4.999950125648289E-1    3.573689110555839E-2    4.148799367343590E-5   -3.199225432611122E-4    4.746674590071178E-5   -2.517900746899408E-4   -3.855547165552572E-1    3.125150125273103E-1
 1.000559965325000E+10  -4.998567185435269E-1    3.628700172506009E-2    9.780279351200291E-6   -2.978486816013773E-4    1.786473910060029E-5   -3.015124848114629E-4   -3.851340314986627E-1    3.129230904920511E-1
 1.000560608002500E+10  -4.998142318093006E-1    3.662821351044712E-2    4.024204770956363E-5   -2.994102733225397E-4    4.949035277133517E-5   -2.965346365762047E-4   -3.847651085701486E-1    3.133033321461561E-1
 1.000561250680000E+10  -4.997824729091381E-1    3.707684840207427E-2    2.336536831621494E-5   -2.788517475892482E-4    3.762776068900302E-5   -2.803773909122413E-4   -3.845677068238657E-1    3.137225498614866E-1
 1.000561893357500E+10  -4.998236277021588E-1    3.749752187074012E-2    3.824574009281699E-5   -2.723983293143922E-4    5.061705270712270E-5   -2.385450148464104E-4   -3.841685901993493E-1    3.139967391096101E-1
 1.000562536035000E+10  -4.998253885914996E-1    3.784747780729900E-2    7.194136039848453E-5   -2.567132882327949E-4    5.494081341528297E-5   -2.700581203318658E-4   -3.839457085465088E-1    3.145667644751592E-1
 1.000563178712500E+10  -4.998993627589116E-1    3.824481523039663E-2    3.798102630754939E-5   -2.648835524077555E-4    2.600338558909509E-5   -2.451900850933593E-4   -3.836278395505528E-1    3.149257642376260E-1
 1.000563821390000E+10  -4.997439273745960E-1    3.882704875347086E-2    4.476704023357271E-5   -2.681516210457575E-4    5.004454716062245E-5   -2.456545313562194E-4   -3.834165771587906E-1    3.153343673242532E-1
 1.000564464067500E+10  -4.996629442790402E-1    3.900074861801552E-2    6.222096231814903E-5   -2.365367866052929E-4    4.856501263290991E-5   -2.420532541645058E-4   -3.828560600569645E-1    3.156879286714537E-1
 1.000565106745000E+10  -4.996355891075096E-1    3.959483912297383E-2    3.688763382738571E-5   -2.202664935221091E-4    6.523271942679936E-5   -2.303621644886304E-4   -3.825672001245206E-1    3.161681157931124E-1
 1.000565749422500E+10  -4.996913789766556E-1    3.994632704968810E-2    7.356765676456243E-5   -2.287004696934273E-4    6.117411677057339E-5   -1.970569252714940E-4   -3.822433353489165E-1    3.165040858876993E-1
 1.000566392100000E+10  -4.996074236590338E-1    4.039452335976254E-2    8.869087216547995E-5   -2.039889126636649E-4    7.144936400197038E-5   -1.832838413335050E-4   -3.819158888340741E-1    3.168570281026140E-1
 1.000567034777500E+10  -4.997349053910115E-1    4.080455348202640E-2    7.969178488081691E-5   -2.162576530959491E-4    8.576501276759487E-5   -2.057882326045482E-4   -3.816631088104836E-1    3.173123403067684E-1
 1.000567677455000E+10  -4.996438057686906E-1    4.122686615894638E-2    1.019112273870404E-4   -2.169865747635615E-4    7.211420419999743E-5   -1.978112154995758E-4   -3.813912410743140E-1    3.175749136506297E-1
 1.000568320132500E+10  -4.997090885227328E-1    4.171762012679121E-2    1.152843250588152E-4   -1.624305487525076E-4    1.009788324730130E-4   -2.047778415669846E-4   -3.810214209808150E-1    3.180208037374361E-1
 1.000568962810000E+10  -4.996209353182993E-1    4.208593403985786E-2    8.723795133527719E-5   -2.016160679522526E-4    1.129602082646731E-4   -1.739402592587937E-4   -3.806851945643068E-1    3.184461070124281E-1
 1.000569605487500E+10  -4.995629606253034E-1    4.251255867450086E-2    1.395354099794789E-4   -1.625770327876505E-4    1.100889067504779E-4   -1.341279200887082E-4   -3.804245819822724E-1    3.188722924320855E-1
 1.000570248165000E+10  -4.994661978334148E-1    4.305990305276649E-2    1.115811832186909E-4   -1.800350901406723E-4    9.917095591006507E-5   -1.539767895913241E-4   -3.799733375066781E-1    3.193740353657132E-1
 1.000570890842500E+10  -4.995547655233534E-1    4.321855254904870E-2    1.393070670238323E-4   -1.517728995042281E-4    1.061452958920701E-4   -1.263438473407512E-4   -3.796388963762231E-1    3.197158138658178E-1
 1.000571533520000E+10  -4.994709543467323E-1    4.374586038603146E-2    1.077908145919379E-4   -1.620179776269133E-4    1.321737809193237E-4   -1.402169338835258E-4   -3.793636895915068E-1    3.200378196520158E-1
 1.000572176197500E+10  -4.994890451644686E-1    4.409160022624512E-2    1.120159769302196E-4   -1.361325275208130E-4    1.511661519585393E-4   -1.351225875525846E-4   -3.790404936097445E-1    3.205082196472198E-1
 1.000572818875000E+10  -4.994010325854615E-1    4.443396153368592E-2    1.238317708554317E-4   -1.173619458891262E-4    1.409051187999425E-4   -1.246427575162281E-4   -3.786898817862518E-1    3.207601839297063E-1
