#  HZ   S   RI   R     50.00 
! Rohde & Schwarz Vector Network Analyzer 
! Rohde-Schwarz,ZNB20-2Port,1311601062101988,3.16
! Created: UTC 3/20/2024, 11:38:02 AM
! freq[Hz]                re:S11                  im:S11                  re:S21                  im:S21                  re:S12                  im:S12                  re:S22                  im:S22
 1.000619120700000E+10  -4.963473531813680E-1    7.449311975320204E-2    4.053665837145566E-4    5.821642850930372E-4    3.666107701962061E-4    5.444255212856716E-4   -3.552416845164671E-1    3.509437550223581E-1
 1.000619337422500E+10  -4.962798361363505E-1    7.462846610052831E-2    4.297533057151157E-4    5.878894283957180E-4    3.775165298749900E-4    6.154215368287928E-4   -3.549811545268512E-1    3.511603026454377E-1
 1.000619554145000E+10  -4.962030392434452E-1    7.487746190098891E-2    3.986371074282274E-4    5.810653465261680E-4    3.738959927900747E-4    5.750479634650105E-4   -3.548037349620807E-1    3.514242697704009E-1
 1.000619770867500E+10  -4.963689798688764E-1    7.515997564524589E-2    4.347075040670495E-4    6.027566502877463E-4    3.923743505028297E-4    5.816080013820398E-4   -3.547740829306771E-1    3.515864964183966E-1
 1.000619987590000E+10  -4.962775138828185E-1    7.529144298317356E-2    4.334285365199210E-4    6.087595601364094E-4    3.795551184786419E-4    6.234701503039071E-4   -3.545817092620337E-1    3.518687820571070E-1
 1.000620204312500E+10  -4.961014310759301E-1    7.538190408821861E-2    4.419000983061776E-4    6.116137819683399E-4    3.973931436479843E-4    6.290133780140967E-4   -3.542757534031660E-1    3.519674346336359E-1
 1.000620421035000E+10  -4.963904166072808E-1    7.553043353228020E-2    4.591488461088949E-4    6.344492918708323E-4    3.938439131398171E-4    6.163847373910131E-4   -3.541026639535060E-1    3.520679638008497E-1
 1.000620637757500E+10  -4.961948807070768E-1    7.567292150309794E-2    4.483410685989076E-4    6.202701008143931E-4    4.254849930860923E-4    6.298593823943145E-4   -3.541088105856522E-1    3.522069052690100E-1
 1.000620854480000E+10  -4.961754074447484E-1    7.590788684831712E-2    4.565545972674461E-4    6.446804392196878E-4    4.394626154467099E-4    6.604385775405096E-4   -3.538364886259604E-1    3.524925250333670E-1
 1.000621071202500E+10  -4.962845968030661E-1    7.588809654096126E-2    4.631426744398042E-4    6.665043886332992E-4    4.188316348025420E-4    6.548778219018651E-4   -3.536322397279795E-1    3.527344721290896E-1
 1.000621287925000E+10  -4.961583221913003E-1    7.602916966309139E-2    4.562280526133013E-4    6.697215959790488E-4    4.126657216293196E-4    6.870886978528199E-4   -3.533557000445253E-1    3.528999062956777E-1
 1.000621504647500E+10  -4.961288454039880E-1    7.626064135219790E-2    5.031583161654863E-4    6.758756161248599E-4    4.428105384714804E-4    6.759624284899036E-4   -3.532834817217935E-1    3.529909828248585E-1
 1.000621721370000E+10  -4.959997272440273E-1    7.638710998007645E-2    4.872537900098413E-4    6.647877501555655E-4    4.431896099833616E-4    6.898595682578671E-4   -3.531033240693979E-1    3.531776236419235E-1
 1.000621938092500E+10  -4.960940540370652E-1    7.653184838297000E-2    5.114858744738289E-4    6.802001360827313E-4    4.728886772530774E-4    7.260600547230207E-4   -3.528364516360151E-1    3.533907903421024E-1
 1.000622154815000E+10  -4.960639948096552E-1    7.666808567044842E-2    4.861516557289860E-4    6.780233695619001E-4    4.632230080057884E-4    7.103692021488650E-4   -3.528127747780712E-1    3.534866789346819E-1
 1.000622371537500E+10  -4.960835993181817E-1    7.676877464140404E-2    5.040405553051816E-4    7.552084158076344E-4    4.513591546807391E-4    7.282195725245373E-4   -3.526446012767878E-1    3.537687280481113E-1
 1.000622588260000E+10  -4.961165619031461E-1    7.695924423589948E-2    5.095144370179000E-4    7.026888015979460E-4    4.799955473037748E-4    7.374976968652173E-4   -3.522815326668793E-1    3.538668612183082E-1
 1.000622804982500E+10  -4.961038930961590E-1    7.712311696587421E-2    5.030593500655906E-4    7.432659439335243E-4    4.692447187335708E-4    7.310254278697789E-4   -3.520099967487905E-1    3.542096895733781E-1
 1.000623021705000E+10  -4.958504710734327E-1    7.719306139427910E-2    5.090546319502842E-4    7.397339077356582E-4    5.071295348352535E-4    7.504620398014744E-4   -3.519749834653417E-1    3.543803391917936E-1
 1.000623238427500E+10  -4.960485181723852E-1    7.741993717194109E-2    5.242213058110925E-4    7.446221431560360E-4    4.828907890633116E-4    7.581669828880918E-4   -3.518833332274969E-1    3.543849392657297E-1
 1.000623455150000E+10  -4.959548919109455E-1    7.748938739296914E-2    5.174701580313604E-4    7.603316517384932E-4    4.894555350095166E-4    7.931742615769256E-4   -3.515223048025209E-1    3.546142760661583E-1
 1.000623671872500E+10  -4.959177535700737E-1    7.773379118683466E-2    5.692275961039077E-4    7.359367165037092E-4    4.976575404167710E-4    7.610069801488575E-4   -3.514468241756449E-1    3.549156445609377E-1
 1.000623888595000E+10  -4.959820129196476E-1    7.772939088394966E-2    5.509116569112842E-4    7.863068579144802E-4    5.046238586952841E-4    7.946234009034541E-4   -3.512533268779301E-1    3.550539110187441E-1
 1.000624105317500E+10  -4.959090701197683E-1    7.798999024890041E-2    5.791927662287434E-4    7.816957932936579E-4    5.337178874000849E-4    8.289585178170404E-4   -3.511145484377024E-1    3.552349206917220E-1
 1.000624322040000E+10  -4.958058833539131E-1    7.807959871097210E-2    5.713493621083183E-4    8.207646058834366E-4    5.248552386231146E-4    7.920796713484658E-4   -3.508223543025308E-1    3.554802471560753E-1
 1.000624538762500E+10  -4.958171530499647E-1    7.826566925279317E-2    5.842679938856383E-4    8.263442226753551E-4    5.456953247859360E-4    8.121565675974822E-4   -3.507282489180150E-1    3.555360194210128E-1
 1.000624755485000E+10  -4.958376967717189E-1    7.842565735608770E-2    5.863845947906998E-4    8.190072026630899E-4    5.296573296128327E-4    8.437841318046561E-4   -3.503748294088054E-1    3.558843623352185E-1
 1.000624972207500E+10  -4.958332518289775E-1    7.863092875857088E-2    6.052983479945069E-4    8.516402779578713E-4    5.557712793024730E-4    8.422172524000463E-4   -3.500814922275018E-1    3.559260450911775E-1
 1.000625188930000E+10  -4.957480892485721E-1    7.866634501773104E-2    5.784161684431082E-4    8.480342269772028E-4    5.859657967794272E-4    8.536854683169630E-4   -3.501202397753860E-1    3.562348896039575E-1
 1.000625405652500E+10  -4.957683099874402E-1    7.876328625753271E-2    6.042585239372011E-4    8.516837200973418E-4    5.690879769807019E-4    8.571886269602856E-4   -3.499505271173374E-1    3.563101100748081E-1
 1.000625622375000E+10  -4.958664168614715E-1    7.906065370456551E-2    6.093580604920528E-4    8.551627715998964E-4    5.737909630304079E-4    8.553327906803134E-4   -3.496103649123072E-1    3.564810921331583E-1
 1.000625839097500E+10  -4.957856366111987E-1    7.902047676345762E-2    6.377260993934634E-4    8.836485586257400E-4    5.976860777108482E-4    9.057373664963323E-4   -3.493796187166656E-1    3.567565463836902E-1
 1.000626055820000E+10  -4.956159116275037E-1    7.939180756261328E-2    6.620013028545987E-4    8.951403226151407E-4    5.947067183514772E-4    9.139374796187698E-4   -3.491107573405953E-1    3.568706454256924E-1
 1.000626272542500E+10  -4.957175013562885E-1    7.950497760811330E-2    6.722427637364551E-4    8.893574239652808E-4    5.981730694333802E-4    9.279560519935391E-4   -3.490480886432244E-1    3.571102338737607E-1
 1.000626489265000E+10  -4.957019329330390E-1    7.953925077772428E-2    6.492443899622219E-4    9.209881250623067E-4    6.093128450811928E-4    9.338782360687835E-4   -3.487360246468985E-1    3.572407782077532E-1
 1.000626705987500E+10  -4.956482992358728E-1    7.964565577115031E-2    6.645167265347733E-4    9.528259004575895E-4    6.052116305009861E-4    9.496830606815774E-4   -3.485147040846264E-1    3.576251514893540E-1
 1.000626922710000E+10  -4.956152109827373E-1    7.972379832957177E-2    6.913723008967334E-4    9.400024135137541E-4    6.385536470199164E-4    9.315524705612759E-4   -3.483087107639216E-1    3.577827436185285E-1
 1.000627139432500E+10  -4.955717512404209E-1    7.997661114754108E-2    6.688734996945179E-4    9.778612865281677E-4    6.394249010921376E-4    9.692621972387997E-4   -3.482514989880402E-1    3.579534245985006E-1
 1.000627356155000E+10  -4.956396831169012E-1    8.010019695683475E-2    7.164491142519433E-4    9.800264488342909E-4    6.601871023303361E-4    9.676630175966573E-4   -3.479202642871541E-1    3.580443915586264E-1
 1.000627572877500E+10  -4.956531803007970E-1    8.026028375457660E-2    7.269024067138898E-4    9.445387831304807E-4    6.593210044862303E-4    9.798834326877886E-4   -3.475338094569042E-1    3.583073715927662E-1
 1.000627789600000E+10  -4.955925607008281E-1    8.035894279797065E-2    7.336021977520320E-4    1.021489605923108E-3    6.859949680594637E-4    9.819302440160374E-4   -3.475453142125177E-1    3.584379626494393E-1
 1.000628006322500E+10  -4.954704146824420E-1    8.060687144294600E-2    7.672670741689261E-4    1.020221066751236E-3    6.657643363219987E-4    1.027231710823803E-3   -3.475086668773481E-1    3.587667087560792E-1
 1.000628223045000E+10  -4.955050031953023E-1    8.069778283417715E-2    7.590948521788603E-4    1.008182230328905E-3    6.834627905848655E-4    1.031337059852797E-3   -3.470625343588978E-1    3.587975311066491E-1
 1.000628439767500E+10  -4.954610349418114E-1    8.082958162473336E-2    7.445926958628935E-4    1.038463184903587E-3    6.818593431344288E-4    1.022316014330858E-3   -3.466832883113496E-1    3.590279700496292E-1
 1.000628656490000E+10  -4.954366120183354E-1    8.092736041133795E-2    7.840185860419716E-4    1.059691305445623E-3    6.852656526240190E-4    1.061658726934288E-3   -3.466169995702466E-1    3.592907721926220E-1
 1.000628873212500E+10  -4.955223750545177E-1    8.104711224641700E-2    7.915911402839080E-4    1.066440642470627E-3    7.271724161260274E-4    1.069937648828627E-3   -3.463311176438253E-1    3.596074063543658E-1
 1.000629089935000E+10  -4.955478012019207E-1    8.124020511162861E-2    7.779087277125762E-4    1.073968420419404E-3    7.213620000672495E-4    1.078754860910862E-3   -3.461396966374065E-1    3.597241532513858E-1
 1.000629306657500E+10  -4.953938711199725E-1    8.133269858328872E-2    7.950592802619344E-4    1.067975351425679E-3    7.588438202654684E-4    1.096592589697157E-3   -3.459663565939313E-1    3.599060442604766E-1
 1.000629523380000E+10  -4.954209396386869E-1    8.157010275748112E-2    8.155831139499361E-4    1.094548070286574E-3    7.273856573852126E-4    1.139827664011243E-3   -3.456021224247153E-1    3.601216169435181E-1
 1.000629740102500E+10  -4.953733356437173E-1    8.160881452026679E-2    8.063796924061048E-4    1.111331983276098E-3    7.544039392250723E-4    1.090027866587400E-3   -3.453861701891838E-1    3.603803148308085E-1
 1.000629956825000E+10  -4.952674489866583E-1    8.182861248393175E-2    8.631286597172732E-4    1.130055944577487E-3    7.715356895714878E-4    1.140697060662117E-3   -3.451827934404467E-1    3.606120290836047E-1
 1.000630173547500E+10  -4.952216812234019E-1    8.191256082160857E-2    8.582092265488423E-4    1.154863526364392E-3    7.772827123696364E-4    1.186394406993395E-3   -3.450013500261507E-1    3.608579226673987E-1
 1.000630390270000E+10  -4.954406276492889E-1    8.214318375182124E-2    8.885858292745822E-4    1.135079076759104E-3    8.275880120637044E-4    1.217076441419875E-3   -3.447275018771864E-1    3.609957706397594E-1
 1.000630606992500E+10  -4.952507155767771E-1    8.221907895725215E-2    8.787442362468347E-4    1.185707546733335E-3    7.875607821616041E-4    1.162904266266916E-3   -3.442966972227890E-1    3.611851496118175E-1
 1.000630823715000E+10  -4.952637405268895E-1    8.241012166786395E-2    9.108037726572607E-4    1.171448945662811E-3    8.011257956493504E-4    1.186192980802186E-3   -3.442621181559886E-1    3.615002979693978E-1
 1.000631040437500E+10  -4.952536985920694E-1    8.247374538561486E-2    8.891142906582029E-4    1.219728564763590E-3    8.312603612452539E-4    1.239764038254608E-3   -3.438579597104376E-1    3.617099807841785E-1
 1.000631257160000E+10  -4.952077133881838E-1    8.258695147681047E-2    9.073949982886828E-4    1.218215295647002E-3    8.551598608072070E-4    1.265610278471986E-3   -3.436368272923243E-1    3.619753074595400E-1
 1.000631473882500E+10  -4.951721533591051E-1    8.282753018528310E-2    9.393169403521096E-4    1.231653433512124E-3    8.403714302098709E-4    1.234041172370432E-3   -3.433868386660952E-1    3.620636521077217E-1
 1.000631690605000E+10  -4.952498534571537E-1    8.294372855721001E-2    9.261004673791442E-4    1.253838165519768E-3    8.446798387439099E-4    1.271883079118392E-3   -3.432473403569676E-1    3.624347017086308E-1
 1.000631907327500E+10  -4.953167246060426E-1    8.302822273510185E-2    9.332021197159745E-4    1.241449900468480E-3    8.634700466785921E-4    1.284924215648134E-3   -3.428954039974885E-1    3.625842764567421E-1
 1.000632124050000E+10  -4.951677990104688E-1    8.333793311400085E-2    9.497656198286375E-4    1.282536504478171E-3    8.991894742615285E-4    1.299239889796429E-3   -3.426379379623383E-1    3.628998839097355E-1
 1.000632340772500E+10  -4.951496001061686E-1    8.339833412951432E-2    9.484679839693697E-4    1.276855969119940E-3    8.970627671149016E-4    1.315962435746848E-3   -3.423347162741466E-1    3.629559559666113E-1
 1.000632557495000E+10  -4.950710151068936E-1    8.353488427300566E-2    1.014844353499764E-3    1.328845849321214E-3    9.005835165035644E-4    1.304793232674299E-3   -3.420472159949603E-1    3.632064695117766E-1
 1.000632774217500E+10  -4.951336214913041E-1    8.364481067011512E-2    1.040938738661166E-3    1.328835050514530E-3    9.184116401862970E-4    1.334187878843006E-3   -3.419006718212546E-1    3.634356688701171E-1
 1.000632990940000E+10  -4.949932628968641E-1    8.384411515991678E-2    1.019464866278625E-3    1.362553188770759E-3    9.380629526629467E-4    1.376826881709359E-3   -3.415758364886881E-1    3.637703940706801E-1
 1.000633207662500E+10  -4.951182987978675E-1    8.383458057022104E-2    1.047586405013198E-3    1.394943514145687E-3    9.799334121793023E-4    1.395876569604896E-3   -3.411915117473331E-1    3.639027649670215E-1
 1.000633424385000E+10  -4.950270543357855E-1    8.412304062352115E-2    1.060202845387024E-3    1.381749568918595E-3    1.003375785267821E-3    1.430688890501660E-3   -3.410156525641372E-1    3.641099611406085E-1
 1.000633641107500E+10  -4.949461416706903E-1    8.415050067573357E-2    1.071469414052256E-3    1.384818812354213E-3    9.817130020837439E-4    1.419264644472697E-3   -3.405851358512267E-1    3.643183322150834E-1
 1.000633857830000E+10  -4.949922761889717E-1    8.427230986155361E-2    1.106795965278785E-3    1.399656706667028E-3    1.022041931063326E-3    1.469386556870375E-3   -3.404956172141011E-1    3.647136758939497E-1
 1.000634074552500E+10  -4.949156370695358E-1    8.447707436589907E-2    1.128563066139790E-3    1.431915248443849E-3    1.009788268045412E-3    1.460046407763076E-3   -3.401411146526643E-1    3.649723336875946E-1
 1.000634291275000E+10  -4.950024674832740E-1    8.467736355034275E-2    1.125265913334460E-3    1.450461965503083E-3    1.052589976642645E-3    1.485470219286044E-3   -3.397235643449944E-1    3.651238635110863E-1
 1.000634507997500E+10  -4.948830523346531E-1    8.490746648698301E-2    1.143203397779775E-3    1.479834316031905E-3    1.053686419927435E-3    1.473845539749044E-3   -3.395872026353434E-1    3.653238856662007E-1
 1.000634724720000E+10  -4.949907536024972E-1    8.493929378968761E-2    1.175641051023061E-3    1.505385349294153E-3    1.036749121111885E-3    1.545796881308218E-3   -3.390197153531834E-1    3.655962694013933E-1
 1.000634941442500E+10  -4.950082874067648E-1    8.508752924840321E-2    1.162796586129579E-3    1.547484061342032E-3    1.080253460173885E-3    1.540512579325284E-3   -3.387719127682219E-1    3.656773904528791E-1
 1.000635158165000E+10  -4.948558986710915E-1    8.518210768491397E-2    1.210265159266679E-3    1.528702182003767E-3    1.101605422976764E-3    1.566616957458550E-3   -3.386714662236402E-1    3.660216105635347E-1
 1.000635374887500E+10  -4.948302899408756E-1    8.547084416997512E-2    1.216904484360948E-3    1.565063902425553E-3    1.141839727906480E-3    1.576472387704490E-3   -3.381524419906378E-1    3.663219123602502E-1
 1.000635591610000E+10  -4.949599463027775E-1    8.539370360571004E-2    1.259086519380908E-3    1.579720204039591E-3    1.143617836899325E-3    1.592328826883718E-3   -3.378819596752179E-1    3.665252258645410E-1
 1.000635808332500E+10  -4.947043394183778E-1    8.555055813398563E-2    1.257480543081136E-3    1.602893659289166E-3    1.151541456982627E-3    1.605861909275580E-3   -3.375849229417855E-1    3.668615346004088E-1
 1.000636025055000E+10  -4.947864845734197E-1    8.578838509317414E-2    1.301964208288995E-3    1.601003385607996E-3    1.190465277168164E-3    1.629262909540158E-3   -3.372813205757809E-1    3.670469235650925E-1
 1.000636241777500E+10  -4.947655138582939E-1    8.587719717366439E-2    1.298223752122016E-3    1.621089243293918E-3    1.175261167692425E-3    1.656717387923992E-3   -3.369488360242865E-1    3.673211546752859E-1
 1.000636458500000E+10  -4.947002331125966E-1    8.606333326692395E-2    1.337465448813755E-3    1.649326745517058E-3    1.214943555009181E-3    1.664474038395898E-3   -3.364803275023961E-1    3.676645083247344E-1
 1.000636675222500E+10  -4.946596522802423E-1    8.623612584474076E-2    1.351369039512461E-3    1.650413197882633E-3    1.263079543445338E-3    1.704356913281343E-3   -3.361819907871376E-1    3.677911606954675E-1
 1.000636891945000E+10  -4.947103784798356E-1    8.628597276015601E-2    1.362075466690009E-3    1.701471898570127E-3    1.270085360128277E-3    1.735268179120928E-3   -3.359581147958509E-1    3.680876112917147E-1
 1.000637108667500E+10  -4.946188599133889E-1    8.635471214928346E-2    1.366721651889322E-3    1.714325424741390E-3    1.275544356456706E-3    1.771878127129120E-3   -3.356243983726879E-1    3.683845348910683E-1
 1.000637325390000E+10  -4.946291558988816E-1    8.659567547396665E-2    1.397670651421996E-3    1.738177287062417E-3    1.279867301998211E-3    1.755705505065937E-3   -3.351589550226722E-1    3.685413915627653E-1
 1.000637542112500E+10  -4.946505669539996E-1    8.675053684958328E-2    1.437951719377587E-3    1.749948464725239E-3    1.292573249618560E-3    1.798115341338931E-3   -3.349784079725668E-1    3.688122945738928E-1
 1.000637758835000E+10  -4.946224380203708E-1    8.687289724820636E-2    1.420061968122713E-3    1.780629609023535E-3    1.336142449427558E-3    1.824280650607104E-3   -3.344689138233360E-1    3.690408671782963E-1
 1.000637975557500E+10  -4.945015530068404E-1    8.705139496226463E-2    1.472746031051397E-3    1.836399043003595E-3    1.386687196343395E-3    1.822858916931481E-3   -3.340048839595299E-1    3.694624676554008E-1
 1.000638192280000E+10  -4.947210064647775E-1    8.706512296298122E-2    1.498791216077069E-3    1.828589256216816E-3    1.397742450496957E-3    1.865242749324469E-3   -3.337854196409921E-1    3.697257613140055E-1
 1.000638409002500E+10  -4.945511208585697E-1    8.728805972759232E-2    1.552435675248572E-3    1.858409362149842E-3    1.374734098630687E-3    1.870724208193004E-3   -3.333029610540219E-1    3.699711305007500E-1
 1.000638625725000E+10  -4.946048274458923E-1    8.748957672494402E-2    1.516336974046175E-3    1.867955834167140E-3    1.445484911957074E-3    1.887968856740250E-3   -3.329398053133566E-1    3.702366238362952E-1
