#  HZ   S   RI   R     50.00 
! Rohde & Schwarz Vector Network Analyzer 
! Rohde-Schwarz,ZNB20-2Port,1311601062101988,3.16
! Created: UTC 3/20/2024, 11:57:05 AM
! freq[Hz]                re:S11                  im:S11                  re:S21                  im:S21                  re:S12                  im:S12                  re:S22                  im:S22
 1.000524310200000E+10  -5.008679972244449E-1    1.251204918716307E-2   -1.574621772759554E-4   -6.130348960644658E-4   -1.387963471539837E-4   -6.293185990479597E-4   -4.006522983271243E-1    2.914670137033544E-1
 1.000524918450000E+10  -5.008845584090055E-1    1.285493781850309E-2   -1.802008064049254E-4   -6.151822080560888E-4   -1.268830502254048E-4   -6.059048616105220E-4   -4.004948654858243E-1    2.921129819523943E-1
 1.000525526700000E+10  -5.008569841500440E-1    1.340866711213520E-2   -1.663491789513728E-4   -5.956265741692381E-4   -1.301193306523667E-4   -6.151154534414440E-4   -4.000179199283133E-1    2.923334724583914E-1
 1.000526134950000E+10  -5.008887841673690E-1    1.368544953411058E-2   -1.628551329904745E-4   -6.044347378811212E-4   -9.787921928250135E-5   -5.974108759387726E-4   -3.999827541000558E-1    2.924112592861833E-1
 1.000526743200000E+10  -5.008648984897279E-1    1.410567160880536E-2   -1.588715061118215E-4   -5.992204206647267E-4   -1.047817390620248E-4   -6.090139729885437E-4   -3.996537254649298E-1    2.929441457595995E-1
 1.000527351450000E+10  -5.007971607909630E-1    1.447418406061636E-2   -1.518944280130946E-4   -5.577113379237255E-4   -9.633368234291720E-5   -5.880922009012958E-4   -3.993855659908839E-1    2.932808283930710E-1
 1.000527959700000E+10  -5.007916331344917E-1    1.493845676070550E-2   -1.618291363533489E-4   -5.862547013587429E-4   -1.386370934812147E-4   -5.841761956299343E-4   -3.992014442565437E-1    2.937893557921436E-1
 1.000528567950000E+10  -5.008873084057196E-1    1.531895680594161E-2   -1.389843937051290E-4   -5.666962846404134E-4   -8.061904697827199E-5   -5.982886663569860E-4   -3.988727805418287E-1    2.939035555012666E-1
 1.000529176200000E+10  -5.009348331571158E-1    1.552760113964395E-2   -1.843913928611373E-4   -5.615754426215294E-4   -1.407062248235074E-4   -5.896218603741635E-4   -3.988293894670098E-1    2.945104219081449E-1
 1.000529784450000E+10  -5.007683108759606E-1    1.610899393127573E-2   -1.609288658915226E-4   -5.740604004702683E-4   -1.121672865189681E-4   -6.029326470707347E-4   -3.984656975367141E-1    2.947283164314908E-1
 1.000530392700000E+10  -5.008522624260149E-1    1.640913925296944E-2   -1.501664500037800E-4   -5.641674924980701E-4   -1.055048018248220E-4   -5.536816625343558E-4   -3.983714238967733E-1    2.951846498353571E-1
 1.000531000950000E+10  -5.007386080737806E-1    1.693663445133140E-2   -1.301608535964596E-4   -5.747097418246941E-4   -1.326009459949464E-4   -5.623412920461746E-4   -3.979901856903927E-1    2.957112160606477E-1
 1.000531609200000E+10  -5.007405505414051E-1    1.723014853131581E-2   -1.305229126148074E-4   -5.410898701008404E-4   -1.223414771951553E-4   -5.626963928011841E-4   -3.976456613160250E-1    2.958018163077006E-1
 1.000532217450000E+10  -5.008185016614345E-1    1.760919456078592E-2   -1.034943229220390E-4   -5.764715899271662E-4   -1.055064528656451E-4   -5.578593407588157E-4   -3.974762346309976E-1    2.962517090293357E-1
 1.000532825700000E+10  -5.007861755172960E-1    1.795335699886657E-2   -1.285252601409825E-4   -5.469753208884763E-4   -1.118521022909157E-4   -5.676259793541873E-4   -3.971994791244105E-1    2.965561102745283E-1
 1.000533433950000E+10  -5.008385191301422E-1    1.858095822064166E-2   -1.287711668012682E-4   -5.466779645239035E-4   -1.058678962791787E-4   -5.597885849916022E-4   -3.971676474264882E-1    2.969124517710254E-1
 1.000534042200000E+10  -5.007553967724724E-1    1.881987447898269E-2   -1.440377656599916E-4   -5.384139573601994E-4   -1.155562523590993E-4   -5.317797317768947E-4   -3.967109562960826E-1    2.973315744368057E-1
 1.000534650450000E+10  -5.009520262377920E-1    1.926226929655678E-2   -1.147165769178540E-4   -5.459877549195652E-4   -1.031553501119588E-4   -5.402546916811891E-4   -3.964130629440497E-1    2.976725673441305E-1
 1.000535258700000E+10  -5.008525262414804E-1    1.969413169768791E-2   -1.321519720470530E-4   -5.144851000791449E-4   -7.571335131869526E-5   -5.033052495890861E-4   -3.962472317210845E-1    2.980281688683277E-1
 1.000535866950000E+10  -5.007541349635356E-1    2.013355864326670E-2   -1.545552260483437E-4   -5.165750352122693E-4   -1.215364915517026E-4   -5.093165349670848E-4   -3.960237503790770E-1    2.983973632192249E-1
 1.000536475200000E+10  -5.008163116428636E-1    2.054526594890058E-2   -1.159113349623810E-4   -5.347282745234222E-4   -8.854131534459715E-5   -5.166896424136244E-4   -3.956893689883137E-1    2.987917494249535E-1
 1.000537083450000E+10  -5.007926624027078E-1    2.075288696876485E-2   -1.272565236660482E-4   -4.945575645501711E-4   -9.274451481312012E-5   -5.219091899567596E-4   -3.954082614384656E-1    2.991419982075716E-1
 1.000537691700000E+10  -5.008190206126210E-1    2.127014331619715E-2   -1.029922006785402E-4   -5.299988649261830E-4   -1.047521044391778E-4   -5.201645661965700E-4   -3.951972308235080E-1    2.994851570725803E-1
 1.000538299950000E+10  -5.008401678650110E-1    2.163229583824015E-2   -1.432353275179474E-4   -5.265310542599149E-4   -9.373986821160495E-5   -5.321988983597256E-4   -3.950255870096675E-1    2.997581183684062E-1
 1.000538908200000E+10  -5.008562343691276E-1    2.195613865825105E-2   -1.532644196869947E-4   -5.253755434909326E-4   -7.117986475904422E-5   -4.972484934369587E-4   -3.947397632674397E-1    3.000660562516209E-1
 1.000539516450000E+10  -5.007104408238592E-1    2.237789626755424E-2   -1.145280200274658E-4   -5.030605593160511E-4   -7.282242070369664E-5   -5.013353025304922E-4   -3.944975260126977E-1    3.005064557473788E-1
 1.000540124700000E+10  -5.008463061508523E-1    2.278619294213701E-2   -1.132226914012677E-4   -4.913285284910748E-4   -8.507595387452886E-5   -5.118196958683820E-4   -3.943533187350392E-1    3.009057356647036E-1
 1.000540732950000E+10  -5.007792369522533E-1    2.328140838841447E-2   -1.178600836071525E-4   -4.945565772201918E-4   -9.073244895916729E-5   -5.070648461160572E-4   -3.939681006614069E-1    3.011164300783329E-1
 1.000541341200000E+10  -5.007530767807458E-1    2.353519342075794E-2   -9.085102829963289E-5   -4.497794594676575E-4   -1.293831656070822E-4   -5.163122700811465E-4   -3.936058846196815E-1    3.015716647362207E-1
 1.000541949450000E+10  -5.007605155554917E-1    2.408739498165698E-2   -1.055935856134753E-4   -4.754665303413218E-4   -9.016991518833597E-5   -4.761476986024931E-4   -3.934379615286641E-1    3.020150800229528E-1
 1.000542557700000E+10  -5.008089103725638E-1    2.438695954394900E-2   -9.747402294262575E-5   -4.884547155603757E-4   -1.160896337416797E-4   -5.088597991455586E-4   -3.933155010646056E-1    3.022133111938139E-1
 1.000543165950000E+10  -5.006688616794381E-1    2.480451968183344E-2   -1.245915546326181E-4   -4.771731701299429E-4   -9.270682395400449E-5   -4.726477393190974E-4   -3.929151887342011E-1    3.026806443838362E-1
 1.000543774200000E+10  -5.007619597208994E-1    2.518281475425816E-2   -9.270860037824116E-5   -4.710541536211496E-4   -6.245127200858164E-5   -4.578989341287081E-4   -3.926944874264083E-1    3.030711701418638E-1
 1.000544382450000E+10  -5.007879419355479E-1    2.557863008615106E-2   -9.765612810504757E-5   -4.866194227398673E-4   -7.029095309015860E-5   -4.788637600418567E-4   -3.925082029014310E-1    3.033416620995006E-1
 1.000544990700000E+10  -5.007749347994114E-1    2.597016311507585E-2   -7.365120589848917E-5   -4.512465296413661E-4   -8.666498905147364E-5   -4.748416912187895E-4   -3.921844834073209E-1    3.036953776000013E-1
 1.000545598950000E+10  -5.006997273258679E-1    2.649742922642731E-2   -1.096812135611139E-4   -4.721558389292685E-4   -9.566293802837207E-5   -4.498022052480558E-4   -3.918251472295253E-1    3.042358833888533E-1
 1.000546207200000E+10  -5.008191237940492E-1    2.690746054737794E-2   -7.731541819369224E-5   -4.375370281912685E-4   -7.393970199002986E-5   -4.547148279209266E-4   -3.917288016920338E-1    3.046531355612074E-1
 1.000546815450000E+10  -5.007206544405784E-1    2.725057882487318E-2   -9.150906086550081E-5   -4.419392603358589E-4   -7.396269995360797E-5   -4.850383727926489E-4   -3.913957452323000E-1    3.048345208925127E-1
 1.000547423700000E+10  -5.007893421225273E-1    2.755521808448420E-2   -1.318385990753621E-4   -4.420396993368829E-4   -6.869766171799521E-5   -4.646403367479795E-4   -3.911567700679642E-1    3.053286952104555E-1
 1.000548031950000E+10  -5.006329945243623E-1    2.786031881574143E-2   -9.928482696999329E-5   -4.263430829971042E-4   -5.268050889585898E-5   -3.907405350966244E-4   -3.907623162704890E-1    3.055178163105711E-1
 1.000548640200000E+10  -5.007113791622149E-1    2.832819606818318E-2   -6.459340255848073E-5   -4.219253331566702E-4   -6.420659646447445E-5   -4.471974849478378E-4   -3.906955934663939E-1    3.059434132298138E-1
 1.000549248450000E+10  -5.006962002947604E-1    2.879248379060868E-2   -9.599768451129217E-5   -4.029983061718262E-4   -5.191132369604161E-5   -4.292419338978386E-4   -3.902879177824882E-1    3.064341887351751E-1
 1.000549856700000E+10  -5.006600404606427E-1    2.924984677646831E-2   -7.853003932591573E-5   -4.056166911953380E-4   -7.914326144671173E-5   -3.961170296140841E-4   -3.901107495555664E-1    3.067211704905363E-1
 1.000550464950000E+10  -5.005840347320671E-1    2.947724568329399E-2   -7.604099770044855E-5   -4.320974561625615E-4   -7.018224739557442E-5   -4.085434236610028E-4   -3.898006851392872E-1    3.068951479234021E-1
 1.000551073200000E+10  -5.005587976225820E-1    2.997757975913446E-2   -6.252251445486168E-5   -4.026510755359071E-4   -7.245083537225381E-5   -4.225635224775189E-4   -3.896165027400486E-1    3.074143455603029E-1
 1.000551681450000E+10  -5.004863465369223E-1    3.041996340214536E-2   -5.748873374252000E-5   -4.177311469969284E-4   -5.785731762361357E-5   -3.855859398211839E-4   -3.892710504782168E-1    3.076658027245848E-1
 1.000552289700000E+10  -5.005557332139581E-1    3.074330114742405E-2   -5.591071082986648E-5   -3.993688878467187E-4   -4.460579568668400E-5   -3.911796422471972E-4   -3.890814253439692E-1    3.082274864697684E-1
 1.000552897950000E+10  -5.005667995361843E-1    3.125580528780188E-2   -8.307138219066692E-5   -3.881574837097070E-4   -5.846169279810021E-5   -3.595234686598929E-4   -3.886627868813449E-1    3.084598087788896E-1
 1.000553506200000E+10  -5.006554754849463E-1    3.158153962986392E-2   -7.776832812662157E-5   -3.978623611304233E-4   -3.179328237216958E-5   -3.759391032053994E-4   -3.884372372971566E-1    3.088709293059674E-1
 1.000554114450000E+10  -5.006407268574935E-1    3.198081715545547E-2   -5.307522103750853E-5   -4.202614816566178E-4   -4.189687709713207E-5   -3.861629104349710E-4   -3.880482407893033E-1    3.092229192217550E-1
 1.000554722700000E+10  -5.004258712179486E-1    3.237457906537953E-2   -4.640811917499444E-5   -3.838200126650099E-4   -4.587689655443945E-5   -3.903810803341260E-4   -3.878755371991157E-1    3.096270836041992E-1
 1.000555330950000E+10  -5.006739139622158E-1    3.272569916321782E-2   -3.642507416170320E-5   -3.690241796268267E-4   -2.800105796280095E-6   -3.795434002749506E-4   -3.877701091114936E-1    3.098586832692984E-1
 1.000555939200000E+10  -5.004581400532871E-1    3.327083807811383E-2   -4.861832710321625E-5   -3.980407087560336E-4   -5.138893151959221E-5   -3.619754336054890E-4   -3.872314394299441E-1    3.103691476210337E-1
 1.000556547450000E+10  -5.006671103319421E-1    3.340483572153367E-2   -1.111665521424747E-5   -3.705488433534130E-4   -8.445177163154553E-6   -3.424436059567427E-4   -3.870368210444291E-1    3.106399836071788E-1
 1.000557155700000E+10  -5.005330031038490E-1    3.388052062601551E-2   -3.475011960563211E-5   -3.817707345701781E-4   -1.248814367612852E-5   -3.369661939377484E-4   -3.868182367987368E-1    3.112458856356509E-1
 1.000557763950000E+10  -5.005102068004381E-1    3.458314361035354E-2   -2.161960587704164E-5   -3.797838987501585E-4    4.197439386736298E-6   -3.373273479579290E-4   -3.863997974662270E-1    3.115073700975897E-1
 1.000558372200000E+10  -5.005643048899390E-1    3.463654065329109E-2   -2.672920599692722E-5   -3.345241928148967E-4    1.819322977024357E-5   -3.235374835334420E-4   -3.861642442911169E-1    3.118606614879083E-1
 1.000558980450000E+10  -5.004402344040666E-1    3.504119816367979E-2   -2.330225938367470E-5   -3.223026845477916E-4   -1.838440295332944E-6   -3.337132463939749E-4   -3.861018231628003E-1    3.120791317211928E-1
 1.000559588700000E+10  -5.006026717769911E-1    3.558614492362607E-2   -2.247293112422427E-5   -3.189613222528303E-4   -2.896460413939926E-5   -3.147788240737407E-4   -3.855600514570628E-1    3.124845745776137E-1
 1.000560196950000E+10  -5.005788189800850E-1    3.583045021970060E-2   -2.469549501059455E-5   -3.150927248842262E-4   -7.023959949198151E-6   -3.120503236260367E-4   -3.853449404337357E-1    3.129522337985663E-1
 1.000560805200000E+10  -5.004369429470751E-1    3.645937453297959E-2   -4.410941094358905E-5   -2.992551180788975E-4    6.672134107435886E-6   -3.221155031332938E-4   -3.851840347949442E-1    3.131841004369688E-1
 1.000561413450000E+10  -5.004041930330156E-1    3.681115767615618E-2   -5.318645003169684E-6   -3.131471959411573E-4    4.366189677849007E-5   -3.080490821405842E-4   -3.846821724209604E-1    3.135319935320763E-1
 1.000562021700000E+10  -5.002009855996637E-1    3.702408138356192E-2    1.371721264267055E-5   -2.967926668805375E-4    9.229651342541466E-6   -3.119696377056370E-4   -3.845249572027325E-1    3.139916419065432E-1
 1.000562629950000E+10  -5.002733849500266E-1    3.751875322996968E-2    5.095096942621885E-5   -3.008024441006142E-4    3.591568869598889E-5   -2.709607959038124E-4   -3.841954833343323E-1    3.143472429180468E-1
 1.000563238200000E+10  -5.003968038416050E-1    3.775667405103997E-2    1.736011572375291E-5   -2.930404914117257E-4    6.760163649321468E-6   -2.834992481014188E-4   -3.838584816924650E-1    3.147542935913625E-1
 1.000563846450000E+10  -5.001567417302727E-1    3.829888981661023E-2   -7.182868265280906E-6   -2.852122804015093E-4    1.056460964498251E-5   -2.740985621582555E-4   -3.836210440444800E-1    3.152410886564864E-1
 1.000564454700000E+10  -5.002978161328607E-1    3.872144610642851E-2    2.766358016372761E-5   -2.482949651617287E-4    2.657753068656861E-5   -2.436778116496350E-4   -3.831380629933214E-1    3.154873464514126E-1
 1.000565062950000E+10  -5.002390415281270E-1    3.903891306664367E-2    1.367421449648732E-5   -2.471429573197829E-4    4.950787699927844E-5   -2.371889076692333E-4   -3.829562512898924E-1    3.158997759289749E-1
 1.000565671200000E+10  -5.003540432999793E-1    3.947664193551146E-2    3.623777260491776E-5   -2.377589058204164E-4    1.283784219366800E-5   -2.326103845690692E-4   -3.827879384480150E-1    3.162054531621962E-1
 1.000566279450000E+10  -5.002563657504452E-1    3.975606830568217E-2    3.579151578201729E-5   -2.644428833475659E-4    5.491568169182496E-5   -1.982163276359063E-4   -3.823987562769409E-1    3.165314440668757E-1
 1.000566887700000E+10  -5.000866474182598E-1    4.023859924272366E-2    3.497184502877813E-5   -2.390013896786034E-4    6.710696100258395E-5   -2.123890730119885E-4   -3.821565527732058E-1    3.169042293884338E-1
 1.000567495950000E+10  -5.002301357429241E-1    4.067120675462117E-2    1.588980456118613E-5   -2.262536761946837E-4    8.386373153079505E-5   -1.870980799339279E-4   -3.817473510366826E-1    3.173281357694755E-1
 1.000568104200000E+10  -5.001476159110370E-1    4.106090509530457E-2    3.953093858560438E-5   -2.331120708946254E-4    5.797614054641980E-5   -2.474952822881629E-4   -3.814638697217834E-1    3.176873426290523E-1
 1.000568712450000E+10  -5.002044495050257E-1    4.140554476952991E-2    5.070362040234351E-5   -2.192002498743511E-4    7.927438266726685E-5   -2.296902872149286E-4   -3.811058509402435E-1    3.181478991719713E-1
 1.000569320700000E+10  -5.000541620107601E-1    4.181078307948539E-2    8.064982083540780E-5   -2.061250835595693E-4    7.652728556229325E-5   -1.920192235224972E-4   -3.808876941612861E-1    3.184515602638697E-1
 1.000569928950000E+10  -5.001232014033167E-1    4.210658177202137E-2    5.758511779441372E-5   -1.620968839193806E-4    6.287641985949663E-5   -1.731397859096960E-4   -3.805832759775296E-1    3.188832007655513E-1
 1.000570537200000E+10  -5.002471265256224E-1    4.265293874763982E-2    7.424677887680173E-5   -1.839156776338720E-4    8.905767576980555E-5   -1.638460198760258E-4   -3.802098565864004E-1    3.190783033290319E-1
 1.000571145450000E+10  -5.001262932109601E-1    4.309899820748390E-2    4.908951277130880E-5   -2.024276502375758E-4    9.090994529489216E-5   -1.842232552047951E-4   -3.799854700735598E-1    3.196970134151868E-1
 1.000571753700000E+10  -5.001329672530598E-1    4.346759276938434E-2    9.077406674372156E-5   -1.718148371312468E-4    9.004974853228900E-5   -1.854546596135147E-4   -3.795220975506400E-1    3.198912970788913E-1
 1.000572361950000E+10  -4.999153605393679E-1    4.372394738355972E-2    8.635229265081151E-5   -1.538213380842070E-4    1.341529983635893E-4   -1.931360319616608E-4   -3.793075369326059E-1    3.203789443001427E-1
 1.000572970200000E+10  -5.000443565521412E-1    4.416606967150229E-2    9.573856131966570E-5   -1.767953682121145E-4    7.482036620853837E-5   -1.622450298048400E-4   -3.789181731444844E-1    3.206553134691524E-1
 1.000573578450000E+10  -5.000830090834524E-1    4.459817179685972E-2    1.047116904249998E-4   -1.449451778124479E-4    8.965671274455387E-5   -1.336655683181043E-4   -3.788061887740545E-1    3.211390337121455E-1
 1.000574186700000E+10  -4.999326417789064E-1    4.496668580061064E-2    1.349349751993952E-4   -1.413120140045372E-4    1.206293150095601E-4   -1.425882296264829E-4   -3.782689681671478E-1    3.215267375204255E-1
 1.000574794950000E+10  -4.998867336697768E-1    4.528252604578437E-2    1.200246266486607E-4   -1.341610549204101E-4    1.424629133294489E-4   -8.503771784676920E-5   -3.781481641710802E-1    3.218923058581653E-1
 1.000575403200000E+10  -5.000061098555998E-1    4.584505490364976E-2    1.276671606787685E-4   -1.005681046167465E-4    1.674580670987831E-4   -1.144215512023991E-4   -3.777604578294843E-1    3.223155177579851E-1
 1.000576011450000E+10  -4.999048903501920E-1    4.627682848159124E-2    1.388294229090683E-4   -8.080881694351497E-5    1.277598288124513E-4   -1.002534346245863E-4   -3.773261259175946E-1    3.226986120502888E-1
 1.000576619700000E+10  -4.997899310561286E-1    4.660452709315072E-2    1.355026971437679E-4   -1.062594894167901E-4    1.026299568510659E-4   -1.398036213250408E-4   -3.770800459822842E-1    3.229722214834292E-1
 1.000577227950000E+10  -4.999651277046820E-1    4.690468462320263E-2    1.410691025862914E-4   -8.391404684776873E-5    1.717526218681054E-4   -8.456786641754110E-5   -3.767691127395544E-1    3.232660484765790E-1
 1.000577836200000E+10  -4.998541562572444E-1    4.728605531650781E-2    1.708121925836316E-4   -4.338686144080113E-5    1.384449986411958E-4   -5.971750197994874E-5   -3.764458486389294E-1    3.237077266897093E-1
 1.000578444450000E+10  -4.997443324718321E-1    4.776337521665309E-2    1.640882077449239E-4   -7.870150695500936E-5    1.876409054960286E-4   -7.422340487266484E-5   -3.761540162066915E-1    3.241998562334837E-1
 1.000579052700000E+10  -4.998491948469898E-1    4.828700282604882E-2    1.603017948666670E-4   -6.273443884608886E-5    1.982670146252086E-4   -1.942414139046896E-5   -3.755364763895320E-1    3.246693312913943E-1
