#  HZ   S   RI   R     50.00 
! Rohde & Schwarz Vector Network Analyzer 
! Rohde-Schwarz,ZNB20-2Port,1311601062101988,3.16
! Created: UTC 3/20/2024, 11:57:33 AM
! freq[Hz]                re:S11                  im:S11                  re:S21                  im:S21                  re:S12                  im:S12                  re:S22                  im:S22
 1.000529336500000E+10  -5.003907431514851E-1    1.607239730523357E-2   -1.798114247952078E-4   -5.970157060129749E-4   -1.325812648630394E-4   -5.959286100666564E-4   -3.987007280429468E-1    2.944345728110755E-1
 1.000529925155000E+10  -5.004046106416706E-1    1.638032975729955E-2   -1.551835214811406E-4   -5.827523172596506E-4   -1.406541358191081E-4   -5.600863882937119E-4   -3.984646470356217E-1    2.946958403967753E-1
 1.000530513810000E+10  -5.004735379426788E-1    1.678283721144079E-2   -1.610613159672880E-4   -5.870119270242187E-4   -1.281495861975342E-4   -6.042056138798192E-4   -3.982983454539621E-1    2.951033882702037E-1
 1.000531102465000E+10  -5.003918909754690E-1    1.720609984877809E-2   -1.718172699228972E-4   -5.844493902936868E-4   -1.084881942749645E-4   -6.113189190389059E-4   -3.980521455497911E-1    2.954351395682839E-1
 1.000531691120000E+10  -5.004232820458759E-1    1.746628169675814E-2   -1.458103885978201E-4   -5.706749413438270E-4   -1.536507940015566E-4   -5.580795734802669E-4   -3.978370070261394E-1    2.958484489401688E-1
 1.000532279775000E+10  -5.005520839815539E-1    1.803509187877834E-2   -1.553805659699878E-4   -5.762202581549883E-4   -1.390207244033626E-4   -5.571393081029881E-4   -3.975154875714934E-1    2.961413342378331E-1
 1.000532868430000E+10  -5.004035496904178E-1    1.839419503035153E-2   -1.765618075319924E-4   -5.707767478153973E-4   -1.221965191018892E-4   -5.630383586102566E-4   -3.972758478682149E-1    2.965177062238504E-1
 1.000533457085000E+10  -5.004586209639299E-1    1.879013669170001E-2   -1.417060304201126E-4   -5.540993821726498E-4   -1.507738743852656E-4   -5.386328428567728E-4   -3.970949524924836E-1    2.968652299550354E-1
 1.000534045740000E+10  -5.005186053011157E-1    1.917143729071338E-2   -1.488933531069871E-4   -5.898624105087501E-4   -1.391511345111941E-4   -5.427155837622578E-4   -3.968473199790148E-1    2.971835282510468E-1
 1.000534634395000E+10  -5.004283001012054E-1    1.948372623693889E-2   -1.392560574162502E-4   -5.737403215389582E-4   -1.251176885822677E-4   -5.552169947142503E-4   -3.965683904431741E-1    2.974730477029698E-1
 1.000535223050000E+10  -5.004231746053965E-1    1.998148380769137E-2   -1.413413136855218E-4   -5.605353655356734E-4   -1.214489549563365E-4   -5.826115200163892E-4   -3.964044308934059E-1    2.978328953393055E-1
 1.000535811705000E+10  -5.004986764324917E-1    2.024035912044601E-2   -1.313874739560128E-4   -5.707094488103614E-4   -1.121511706291647E-4   -5.469815805273903E-4   -3.962253627317912E-1    2.982712416365830E-1
 1.000536400360000E+10  -5.003878095450029E-1    2.065318146093787E-2   -1.413842432609039E-4   -5.302955841286888E-4   -9.479097813006356E-5   -5.703888988847412E-4   -3.959054958731792E-1    2.985984519179437E-1
 1.000536989015000E+10  -5.004178210841832E-1    2.101534252615322E-2   -1.517375682192164E-4   -5.388986875768932E-4   -1.279712790346381E-4   -5.351818715900774E-4   -3.957423178414867E-1    2.990492529977999E-1
 1.000537577670000E+10  -5.003766634430730E-1    2.143872120917339E-2   -1.222250524767124E-4   -5.206622697108558E-4   -1.055084116678125E-4   -5.513324614988818E-4   -3.953859449706444E-1    2.992581192261014E-1
 1.000538166325000E+10  -5.002953076952581E-1    2.186355366174506E-2   -1.338665178421271E-4   -5.093592727432485E-4   -1.429099389625437E-4   -5.201405493387351E-4   -3.953256671250682E-1    2.997784281418613E-1
 1.000538754980000E+10  -5.003264249238512E-1    2.224839890555946E-2   -1.316653394369375E-4   -5.282278491144776E-4   -1.065228742716198E-4   -5.431026019099372E-4   -3.948567788923977E-1    2.999094499951878E-1
 1.000539343635000E+10  -5.004053392512172E-1    2.257287295716503E-2   -1.374390242552800E-4   -5.399793220608695E-4   -5.336731726868549E-5   -5.203786025323418E-4   -3.947304256470725E-1    3.003572100913275E-1
 1.000539932290000E+10  -5.004271883873341E-1    2.311857298253992E-2   -1.590334696634528E-4   -4.995424842486275E-4   -9.910208250327005E-5   -5.158375093468103E-4   -3.945028875442285E-1    3.005130326273944E-1
 1.000540520945000E+10  -5.004911420677119E-1    2.326440978679931E-2   -1.254847896511070E-4   -4.928310420805627E-4   -1.034233721095487E-4   -5.067622578625680E-4   -3.942769220523977E-1    3.010060570692984E-1
 1.000541109600000E+10  -5.003709357850252E-1    2.379188758445835E-2   -1.343837763209943E-4   -5.032186912137493E-4   -7.320505807040183E-5   -4.905590875289653E-4   -3.937964890856703E-1    3.013107806534534E-1
 1.000541698255000E+10  -5.003583225609860E-1    2.418019760770847E-2   -1.234715900617487E-4   -4.813567354101150E-4   -1.059288294183857E-4   -4.943917567147529E-4   -3.935811151789789E-1    3.016096654279045E-1
 1.000542286910000E+10  -5.002853955954991E-1    2.461609679813410E-2   -1.134426716176143E-4   -4.953165797988472E-4   -9.288859879829049E-5   -4.812500212431448E-4   -3.933796429457790E-1    3.020602844453730E-1
 1.000542875565000E+10  -5.004010360989802E-1    2.490567066431127E-2   -1.138070246071044E-4   -4.794204682706091E-4   -8.982542108066409E-5   -4.966218981000428E-4   -3.932367583045159E-1    3.025038454732621E-1
 1.000543464220000E+10  -5.003259502378086E-1    2.529891948385917E-2   -1.220422445100505E-4   -4.999640699233362E-4   -9.982217976908016E-5   -4.869050054241182E-4   -3.929389365689798E-1    3.027939218802767E-1
 1.000544052875000E+10  -5.003585593116567E-1    2.560194681164438E-2   -1.208999720692470E-4   -4.901403476640225E-4   -1.113571713880134E-4   -4.858063116236243E-4   -3.927703368079651E-1    3.031546197887925E-1
 1.000544641530000E+10  -5.003120731268819E-1    2.622985882070835E-2   -1.138666943634222E-4   -4.741742089454303E-4   -7.506583288523773E-5   -5.073337871312138E-4   -3.924561514013808E-1    3.036052277781856E-1
 1.000545230185000E+10  -5.004102259322986E-1    2.656816595096582E-2   -1.189308601125297E-4   -4.702691154593546E-4   -1.082205591612072E-4   -4.727577415222439E-4   -3.924016549684446E-1    3.039513146941792E-1
 1.000545818840000E+10  -5.003014624863051E-1    2.687002866259878E-2   -1.143732953639147E-4   -4.598416827191124E-4   -7.182019436014896E-5   -4.452358871091408E-4   -3.918649405727024E-1    3.041991742507835E-1
 1.000546407495000E+10  -5.002786494256729E-1    2.715435821064993E-2   -1.063755175880322E-4   -4.800685375592898E-4   -8.851488912819089E-5   -4.611631461727197E-4   -3.917206254669399E-1    3.045092232093774E-1
 1.000546996150000E+10  -5.004011261519268E-1    2.776757828110422E-2   -8.321498691180890E-5   -4.566292714706553E-4   -7.612933973934643E-5   -4.657971839373220E-4   -3.913104020354216E-1    3.048169175980278E-1
 1.000547584805000E+10  -5.002969319145227E-1    2.810193344387790E-2   -1.220580725828150E-4   -4.527752340259705E-4   -7.274630009174137E-5   -4.680496480452717E-4   -3.911302789039421E-1    3.052267288861717E-1
 1.000548173460000E+10  -5.001885255918614E-1    2.833126822737202E-2   -8.814148189271938E-5   -4.423347043998140E-4   -8.507872716163271E-5   -4.579368905991447E-4   -3.909979388187935E-1    3.056282197290978E-1
 1.000548762115000E+10  -5.001588217510741E-1    2.873930446339048E-2   -1.069147999244250E-4   -4.421871264297615E-4   -5.921286075151706E-5   -4.295608942969875E-4   -3.907607596681085E-1    3.058930867208512E-1
 1.000549350770000E+10  -5.002377627757433E-1    2.915264579286856E-2   -1.067743761301626E-4   -4.454958469957620E-4   -4.380954268710460E-5   -4.494243407697572E-4   -3.904455853104328E-1    3.062801446595789E-1
 1.000549939425000E+10  -5.002193730256485E-1    2.952397016735775E-2   -9.600884759074731E-5   -4.225945092914220E-4   -5.201443970362622E-5   -4.179467586109386E-4   -3.901820504132170E-1    3.065962266643621E-1
 1.000550528080000E+10  -5.001410758377032E-1    2.994619644933822E-2   -7.208884274871015E-5   -4.118340135448572E-4   -7.585949798604246E-5   -4.012083310909835E-4   -3.898235495462947E-1    3.070526051333035E-1
 1.000551116735000E+10  -5.002121881561773E-1    3.018737289009494E-2   -6.535006380845906E-5   -4.167876655689600E-4   -5.252525167752274E-5   -4.207296753102135E-4   -3.897483272866638E-1    3.073729520932655E-1
 1.000551705390000E+10  -5.001232608571946E-1    3.066149100465092E-2   -5.859498575654584E-5   -4.089665980074407E-4   -7.364777307200347E-5   -4.223222379723085E-4   -3.894483514842219E-1    3.076238241756971E-1
 1.000552294045000E+10  -5.002505287768337E-1    3.098640614393879E-2   -8.243392391809593E-5   -3.946147742343450E-4   -4.588966071704468E-5   -4.138884243581866E-4   -3.890656538327432E-1    3.079459158330981E-1
 1.000552882700000E+10  -5.001610976494876E-1    3.144588029580874E-2   -7.271602440726972E-5   -4.034825263240921E-4   -8.327720896673832E-5   -4.037219851151864E-4   -3.889052791834865E-1    3.082944639860127E-1
 1.000553471355000E+10  -5.001316309991414E-1    3.181513464508124E-2   -7.434675719063538E-5   -4.242759046173828E-4   -5.712259546026285E-5   -4.060223793764201E-4   -3.887658420102220E-1    3.088114452976773E-1
 1.000554060010000E+10  -5.002494872400098E-1    3.224886334960414E-2   -5.516755236751991E-5   -4.090573787448385E-4   -3.149307309240683E-5   -3.891973842409619E-4   -3.883504643863728E-1    3.090663651424680E-1
 1.000554648665000E+10  -5.001593916862246E-1    3.254540646994210E-2   -5.333061006513118E-5   -3.709974803350643E-4   -2.926425401878489E-5   -4.034599380316919E-4   -3.880506055992716E-1    3.094647394530329E-1
 1.000555237320000E+10  -5.000927230328427E-1    3.302159961586136E-2   -6.058314234428068E-5   -3.693516640315010E-4   -2.464214689958293E-5   -3.644541266503067E-4   -3.877817397001590E-1    3.099037394212284E-1
 1.000555825975000E+10  -5.000425506600201E-1    3.334643598412815E-2   -5.259262533969795E-5   -3.924454001049310E-4   -3.606390976333464E-5   -3.533308405764162E-4   -3.875428655008299E-1    3.102365845474085E-1
 1.000556414630000E+10  -5.001214751281351E-1    3.382403151347584E-2   -5.801261720810409E-5   -3.737673058966390E-4   -3.967614892041524E-5   -4.027367281700827E-4   -3.873033118723052E-1    3.104306542860251E-1
 1.000557003285000E+10  -5.001266963387249E-1    3.408537731453050E-2   -5.619831384116033E-5   -3.782709319740951E-4   -2.450192804797634E-5   -3.578349695597129E-4   -3.870432814150718E-1    3.108228343094041E-1
 1.000557591940000E+10  -5.001336415813047E-1    3.454209490127290E-2   -4.792145774040818E-5   -3.839690367202569E-4   -1.483766812870509E-5   -3.256881404403327E-4   -3.868454563162859E-1    3.112699761685747E-1
 1.000558180595000E+10  -5.001104915391846E-1    3.491956680129728E-2   -4.940216207444370E-5   -3.508962123113698E-4   -6.454556473477718E-5   -3.671490596995967E-4   -3.865105338258706E-1    3.115793968232893E-1
 1.000558769250000E+10  -5.000164406670826E-1    3.533866377484817E-2   -7.615688848086866E-5   -3.396586298677661E-4   -5.532311318670907E-6   -3.415360327208126E-4   -3.860198612364293E-1    3.120184601299023E-1
 1.000559357905000E+10  -5.001006777769850E-1    3.557574175579199E-2   -3.242429485296531E-5   -3.435562778913550E-4   -4.894388838135868E-6   -3.513322017708772E-4   -3.858681311838436E-1    3.122568705384506E-1
 1.000559946560000E+10  -4.999885939151253E-1    3.611378907150067E-2   -3.861218036361759E-5   -3.389252013707027E-4   -1.101349935574858E-5   -3.224090163936537E-4   -3.858132250555367E-1    3.127067716022762E-1
 1.000560535215000E+10  -5.000045612183803E-1    3.639046601480524E-2    9.846856817057300E-7   -3.063207549649024E-4   -1.231108936251690E-5   -3.411747541799244E-4   -3.854899998373725E-1    3.129122108618601E-1
 1.000561123870000E+10  -4.999845765040702E-1    3.683786452273953E-2   -5.015600365842241E-5   -3.252143449260220E-4   -2.029063703220772E-5   -3.389806713785532E-4   -3.851242298838047E-1    3.133286023826554E-1
 1.000561712525000E+10  -4.999764543454228E-1    3.719377799418076E-2   -3.064624373061990E-6   -3.400900781027324E-4   -1.319529636005878E-5   -3.246887821052820E-4   -3.849034739196505E-1    3.137272655131748E-1
 1.000562301180000E+10  -4.998087548856601E-1    3.754651500298534E-2   -1.899433748632282E-5   -3.019414865996124E-4   -2.098937379144568E-5   -3.303433945465279E-4   -3.846300257242600E-1    3.141909510559576E-1
 1.000562889835000E+10  -4.998893450976509E-1    3.788477670723366E-2   -2.677896272040436E-5   -2.980701637709993E-4    1.241071355246339E-5   -2.967598714474057E-4   -3.842566000473621E-1    3.145706261374184E-1
 1.000563478490000E+10  -4.999033036766012E-1    3.848586290780607E-2    1.830732609044086E-5   -3.019575330255285E-4    1.647753107537901E-5   -3.131038597886184E-4   -3.840105286034536E-1    3.147213178330591E-1
 1.000564067145000E+10  -4.997973736376078E-1    3.867089340450784E-2   -1.940537372938282E-5   -2.965920941951698E-4    2.675865423160801E-5   -2.782765662590167E-4   -3.837014539026710E-1    3.151022018126510E-1
 1.000564655800000E+10  -4.998235576874742E-1    3.905979486377587E-2   -3.782383422651853E-6   -2.956811968374307E-4   -1.249306069600963E-5   -2.795852166752131E-4   -3.833346800871461E-1    3.154673439377282E-1
 1.000565244455000E+10  -4.999569296392922E-1    3.945454460561058E-2    1.494770717588119E-6   -2.729196610996794E-4    4.575614557860386E-6   -2.775957436142030E-4   -3.831774569591395E-1    3.157526567224555E-1
 1.000565833110000E+10  -4.997985725085136E-1    3.982432688612816E-2    1.945882457162197E-5   -2.569397743952111E-4    2.690221396300780E-5   -2.666573708460333E-4   -3.828414244979245E-1    3.161448639036168E-1
 1.000566421765000E+10  -4.997936773148454E-1    4.010530821907078E-2    2.786143825478887E-5   -2.425950499440577E-4    1.257865227860233E-5   -2.542866906496549E-4   -3.825785171072146E-1    3.165606713603908E-1
 1.000567010420000E+10  -4.996589582864814E-1    4.058447410437157E-2    1.408287219201779E-5   -2.637442144012736E-4    6.942068520195621E-5   -2.393676989979576E-4   -3.822492161491627E-1    3.170098445823387E-1
 1.000567599075000E+10  -4.996415071641505E-1    4.102950581039677E-2    3.326752287660810E-5   -2.473531941005293E-4    5.163940374499247E-5   -2.334539753672074E-4   -3.820477680447492E-1    3.172959168856408E-1
 1.000568187730000E+10  -4.997010516943282E-1    4.138910546576994E-2    1.009990472569603E-5   -2.307755029401958E-4    4.417931529037040E-5   -2.392934378254021E-4   -3.816869714824109E-1    3.177175726006421E-1
 1.000568776385000E+10  -4.996462782802774E-1    4.177622375585030E-2    3.283193159502540E-5   -2.232381513324370E-4    2.041594875233223E-5   -2.234356687789129E-4   -3.814308466606281E-1    3.180261717797573E-1
 1.000569365040000E+10  -4.995258735439263E-1    4.212903403816100E-2    6.079102520520926E-5   -2.226564016316874E-4    8.799262262561892E-5   -2.154576067594704E-4   -3.809506052752114E-1    3.183205261612700E-1
 1.000569953695000E+10  -4.997155572846581E-1    4.254525839361041E-2    6.329763125076325E-5   -1.783524991998031E-4    5.897696378951736E-5   -2.334069927918800E-4   -3.808285315509256E-1    3.186336703497402E-1
 1.000570542350000E+10  -4.994854489965917E-1    4.297657558927737E-2    5.719791690141516E-5   -1.963462241887543E-4    7.528055970276986E-5   -2.164705425211026E-4   -3.805931832973052E-1    3.190172532561402E-1
 1.000571131005000E+10  -4.996578914181134E-1    4.322755502161912E-2    4.014773586731782E-5   -1.807111605353622E-4    4.145888602060154E-5   -1.866154528565051E-4   -3.801402552852716E-1    3.194980134207399E-1
 1.000571719660000E+10  -4.996913579998504E-1    4.376988050641435E-2    4.394649576064450E-5   -2.120535794517190E-4    7.515692740884108E-5   -1.819683206651789E-4   -3.800170312231003E-1    3.197614009760961E-1
 1.000572308315000E+10  -4.995380328960451E-1    4.404656202976419E-2    3.314702726248870E-5   -1.688206051867738E-4    8.974342000424723E-5   -1.747873119260062E-4   -3.795724008336664E-1    3.200795376471493E-1
 1.000572896970000E+10  -4.996217632727502E-1    4.443076801692028E-2    9.539228209446351E-5   -1.764057878140033E-4    9.577084171235830E-5   -1.631417978261179E-4   -3.792912338830688E-1    3.205878186682062E-1
 1.000573485625000E+10  -4.995249734192148E-1    4.485103051701030E-2    8.688264579828930E-5   -1.530021109643674E-4    1.009336753955166E-4   -1.573274696425066E-4   -3.789734740090466E-1    3.209854111627272E-1
 1.000574074280000E+10  -4.996273396456251E-1    4.525084615037301E-2    1.083323583576750E-4   -1.829034592648085E-4    8.567676581931841E-5   -1.680369717330260E-4   -3.787083556927069E-1    3.213810783196741E-1
 1.000574662935000E+10  -4.994342969046418E-1    4.559519509597507E-2    8.556575423046207E-5   -1.446922031993854E-4    1.014889806253478E-4   -1.330390338621328E-4   -3.784549412742100E-1    3.216000353790383E-1
 1.000575251590000E+10  -4.994989814595411E-1    4.596504656562855E-2    1.388365064550509E-4   -1.337924260598292E-4    1.022928543525713E-4   -1.477517835117728E-4   -3.780902056345335E-1    3.219736677545014E-1
 1.000575840245000E+10  -4.994532448842287E-1    4.635491185950612E-2    1.269259441683172E-4   -1.149617376128106E-4    1.301182695072609E-4   -1.014673878190474E-4   -3.776500827661020E-1    3.222981627618741E-1
 1.000576428900000E+10  -4.993454669760510E-1    4.675525872492763E-2    1.143043411080151E-4   -1.163903732186520E-4    1.185871507559615E-4   -1.357089302992729E-4   -3.774971622915396E-1    3.227359714877063E-1
 1.000577017555000E+10  -4.993275236413079E-1    4.712438682096166E-2    1.277576121603532E-4   -1.284316281696327E-4    1.355257483747017E-4   -1.008903932111820E-4   -3.771389716257986E-1    3.231252973115668E-1
 1.000577606210000E+10  -4.994340591322050E-1    4.749816765087529E-2    1.113584138381872E-4   -8.406554678732111E-5    1.452670302227876E-4   -1.280402171588788E-4   -3.768344565028738E-1    3.236007450173555E-1
 1.000578194865000E+10  -4.993935241684041E-1    4.779927390893771E-2    1.517586934100830E-4   -6.557000895508241E-5    1.205915315541087E-4   -8.048411137850434E-5   -3.765454857658210E-1    3.239458031411148E-1
 1.000578783520000E+10  -4.993249992805537E-1    4.827822237731595E-2    1.398136476254043E-4   -8.103510163907994E-5    1.539286742626906E-4   -6.006668540742961E-5   -3.761665262350181E-1    3.241912412044686E-1
 1.000579372175000E+10  -4.993006830845684E-1    4.867722994964088E-2    1.925083386251444E-4   -8.329573505167541E-5    1.423887263621149E-4   -9.934546377250445E-5   -3.758470795184681E-1    3.245891081914267E-1
 1.000579960830000E+10  -4.992564855614732E-1    4.900685993447687E-2    1.937462433285232E-4   -4.370732509741435E-5    1.827387194816776E-4   -4.616359504446158E-5   -3.754709270929883E-1    3.249999896309290E-1
 1.000580549485000E+10  -4.994488705593682E-1    4.934845360685528E-2    1.800833858221622E-4   -6.993614030659638E-5    1.871958765702840E-4   -6.579295956391958E-5   -3.750742144748359E-1    3.252424067318018E-1
 1.000581138140000E+10  -4.992892443375672E-1    4.975128411699627E-2    1.991087451693308E-4    5.354422704708231E-6    1.780995604651153E-4   -3.760285064083153E-5   -3.749201523509743E-1    3.256999332329674E-1
 1.000581726795000E+10  -4.993091449682671E-1    5.010521297511675E-2    1.688641287795808E-4   -1.956934756740007E-5    1.860949292690348E-4   -1.479256847969818E-5   -3.747375841467686E-1    3.260168630965677E-1
 1.000582315450000E+10  -4.992143098300598E-1    5.040349945017850E-2    1.905400370120659E-4   -1.360678425934734E-5    1.911767612058684E-4   -1.289513961256799E-5   -3.741156145873664E-1    3.265478424851186E-1
