#  HZ   S   RI   R     50.00 
! Rohde & Schwarz Vector Network Analyzer 
! Rohde-Schwarz,ZNB20-2Port,1311601062101988,3.16
! Created: UTC 3/20/2024, 11:57:38 AM
! freq[Hz]                re:S11                  im:S11                  re:S21                  im:S21                  re:S12                  im:S12                  re:S22                  im:S22
 1.000529744500000E+10  -5.003975960065488E-1    1.633694457068896E-2   -1.708768152754979E-4   -5.922553755951172E-4   -1.083371286822637E-4   -5.832476937090493E-4   -3.985155767325482E-1    2.945901356607545E-1
 1.000530332985000E+10  -5.003409716202689E-1    1.658638804098811E-2   -1.676713447869917E-4   -5.509119686126756E-4   -1.129207801016382E-4   -6.103042393554236E-4   -3.982774796234508E-1    2.950514587922875E-1
 1.000530921470000E+10  -5.002331183691673E-1    1.711264510706245E-2   -1.255625689464399E-4   -5.727608081777641E-4   -1.126990536038732E-4   -6.036121156452537E-4   -3.982166210776401E-1    2.952539461957632E-1
 1.000531509955000E+10  -5.003999680484317E-1    1.747638467101677E-2   -1.649203213666219E-4   -5.968223833967887E-4   -1.419786979404989E-4   -5.470577931759152E-4   -3.979107624290807E-1    2.957459826346000E-1
 1.000532098440000E+10  -5.004205415997338E-1    1.781523591062580E-2   -1.731154159646196E-4   -5.836348984738669E-4   -9.144604463988538E-5   -5.689409673927533E-4   -3.976924400604482E-1    2.959351728923118E-1
 1.000532686925000E+10  -5.003393225704184E-1    1.822882688023430E-2   -1.793413937018123E-4   -5.659116100982202E-4   -1.269403682885723E-4   -5.738609350713224E-4   -3.973727809172546E-1    2.962447721046749E-1
 1.000533275410000E+10  -5.004464422437749E-1    1.857084171463229E-2   -1.250380626025812E-4   -5.375889640967206E-4   -1.383913313424796E-4   -5.812943337968089E-4   -3.970464714914934E-1    2.968172540927490E-1
 1.000533863895000E+10  -5.005955063225836E-1    1.892386540847382E-2   -1.496761206224533E-4   -5.444978424857295E-4   -1.190981986428747E-4   -5.647975669272565E-4   -3.968522643332052E-1    2.970409272244610E-1
 1.000534452380000E+10  -5.005137148570430E-1    1.951589858916490E-2   -1.343334085300609E-4   -5.246078234528114E-4   -9.600546742275068E-5   -5.392850615773626E-4   -3.967297779774185E-1    2.974882869777847E-1
 1.000535040865000E+10  -5.004251253798578E-1    1.982761426275822E-2   -1.443597115712224E-4   -5.535415596217026E-4   -1.019402914545511E-4   -5.709879629841573E-4   -3.965065824941643E-1    2.978244759800407E-1
 1.000535629350000E+10  -5.003971129009540E-1    2.014752723760985E-2   -1.514375240685688E-4   -5.451223438026284E-4   -1.087005997761968E-4   -5.170357269662125E-4   -3.962937401192708E-1    2.982334194948899E-1
 1.000536217835000E+10  -5.001903180544520E-1    2.061992368758826E-2   -1.389179258438762E-4   -5.496166873885000E-4   -1.202852034151502E-4   -5.367843335479681E-4   -3.959140747005059E-1    2.985023362902867E-1
 1.000536806320000E+10  -5.006035629300754E-1    2.104332000458108E-2   -1.218660524306230E-4   -5.259471683912298E-4   -1.069806010450684E-4   -5.508995402481687E-4   -3.958552367758815E-1    2.987897494235391E-1
 1.000537394805000E+10  -5.003303456145730E-1    2.130671210746353E-2   -1.408978374427359E-4   -5.569742805228970E-4   -1.003043383569454E-4   -5.342599402438673E-4   -3.954250307038970E-1    2.990818234501029E-1
 1.000537983290000E+10  -5.003407583406491E-1    2.174425074397340E-2   -1.325754149077129E-4   -5.398561123763510E-4   -1.121930337137499E-4   -5.027929862163802E-4   -3.953568523670860E-1    2.995893027078224E-1
 1.000538571775000E+10  -5.004152129916023E-1    2.194066540205123E-2   -1.457261647785108E-4   -5.257067239449232E-4   -8.588194032852281E-5   -5.045193651702946E-4   -3.950216996245414E-1    2.998127650037942E-1
 1.000539160260000E+10  -5.002632761884547E-1    2.243558945126532E-2   -1.377263513556143E-4   -5.260764119864274E-4   -1.002793641786576E-4   -5.184613867805695E-4   -3.946430569004231E-1    3.002073523282615E-1
 1.000539748745000E+10  -5.003646893787228E-1    2.287586099499581E-2   -1.388444322204401E-4   -5.198947330933010E-4   -8.988942876354574E-5   -5.217319620559777E-4   -3.943782066512256E-1    3.008034004244909E-1
 1.000540337230000E+10  -5.002678630297088E-1    2.320846568048688E-2   -1.182899323459738E-4   -5.408380921520136E-4   -1.026681364516695E-4   -5.099317307802470E-4   -3.942415111381528E-1    3.008857869016079E-1
 1.000540925715000E+10  -5.004538895837866E-1    2.360004564387512E-2   -1.232135571251109E-4   -5.276881576701528E-4   -9.571815874901108E-5   -5.175186861033691E-4   -3.939885943990799E-1    3.012463538467315E-1
 1.000541514200000E+10  -5.002528249616788E-1    2.410187899521702E-2   -1.268900290579849E-4   -4.754700843180263E-4   -9.062841036315576E-5   -4.790415315605999E-4   -3.938151559927256E-1    3.016261800086803E-1
 1.000542102685000E+10  -5.003152360027319E-1    2.444167379293826E-2   -1.110248077587835E-4   -5.183643462178733E-4   -9.605543189274962E-5   -4.901207238546009E-4   -3.935598441969071E-1    3.018462743419273E-1
 1.000542691170000E+10  -5.003377789990441E-1    2.490543820849902E-2   -6.440270274578535E-5   -5.091256689001997E-4   -7.465828509564482E-5   -4.801813063076672E-4   -3.933208615199891E-1    3.023653878714159E-1
 1.000543279655000E+10  -5.003146588620538E-1    2.516148547196772E-2   -8.940580530607213E-5   -5.132412174247045E-4   -8.161962009161506E-5   -5.146111782645473E-4   -3.930053969594746E-1    3.027345276441495E-1
 1.000543868140000E+10  -5.001844716297323E-1    2.551519234350892E-2   -1.029712434915855E-4   -4.942150204818167E-4   -1.040624319316453E-4   -4.814545104242517E-4   -3.927838835189767E-1    3.029936642388950E-1
 1.000544456625000E+10  -5.002067172943683E-1    2.598188866438876E-2   -1.236421822284614E-4   -4.830033152626626E-4   -6.951600896297547E-5   -4.788368524742473E-4   -3.927735660613934E-1    3.033661633311770E-1
 1.000545045110000E+10  -5.003656776367956E-1    2.622067417752612E-2   -8.182408217434674E-5   -4.946416757373441E-4   -9.043542504898308E-5   -4.777687877911224E-4   -3.922782292127661E-1    3.036543879298592E-1
 1.000545633595000E+10  -5.003162497903584E-1    2.677096210196151E-2   -1.228481352840045E-4   -4.620449875559827E-4   -8.754904675395445E-5   -4.744487797116622E-4   -3.920520249326560E-1    3.040176999461679E-1
 1.000546222080000E+10  -5.002077270563435E-1    2.703553326195288E-2   -1.317256050873143E-4   -4.384185902416113E-4   -9.186656986354455E-5   -4.368941787900854E-4   -3.917940501605180E-1    3.045629540050072E-1
 1.000546810565000E+10  -5.003439252121179E-1    2.739990922745969E-2   -8.625172698149610E-5   -4.562789387843045E-4   -6.524254216132560E-5   -4.497386626386753E-4   -3.915697030402849E-1    3.046596156484248E-1
 1.000547399050000E+10  -5.003682974149805E-1    2.782130021373080E-2   -7.799759948429756E-5   -4.493197723280411E-4   -1.037159626507700E-4   -4.543610569395791E-4   -3.912743127991974E-1    3.050650968869612E-1
 1.000547987535000E+10  -5.003148348122124E-1    2.812363738751460E-2   -1.034183581638319E-4   -4.585633111494828E-4   -6.453397243322612E-5   -4.385149539343861E-4   -3.910184438493164E-1    3.055154559441782E-1
 1.000548576020000E+10  -5.002937644900978E-1    2.851530076419784E-2   -9.359923620588772E-5   -4.669886840157596E-4   -1.151661695826638E-4   -4.327506440027985E-4   -3.908712870530935E-1    3.057984760655962E-1
 1.000549164505000E+10  -5.003312090111538E-1    2.901877769605641E-2   -1.118041474951521E-4   -4.362609481533871E-4   -8.811962254803874E-5   -4.306564042307696E-4   -3.905720002863886E-1    3.062347154811242E-1
 1.000549752990000E+10  -5.001391485302622E-1    2.929403416421371E-2   -8.108579641972715E-5   -4.266911419884909E-4   -7.835613422474119E-5   -4.301993504627247E-4   -3.903236905108374E-1    3.065380229526978E-1
 1.000550341475000E+10  -5.002066225973948E-1    2.975703106186426E-2   -5.281928628046481E-5   -4.345535173154113E-4   -4.694778928881416E-5   -4.044357006923009E-4   -3.899984135487292E-1    3.068910043808211E-1
 1.000550929960000E+10  -5.001054713113869E-1    3.010559069850721E-2   -7.724139972608992E-5   -4.248285097786003E-4   -5.331448369413184E-5   -4.343552969629461E-4   -3.897187985620338E-1    3.071445479710330E-1
 1.000551518445000E+10  -5.001941101388530E-1    3.056501203688389E-2   -7.870127820972222E-5   -4.411021773098365E-4   -5.148822274624539E-5   -4.170071659071860E-4   -3.894508077954466E-1    3.075570801170115E-1
 1.000552106930000E+10  -5.001784289376504E-1    3.081238433073929E-2   -8.638543684145805E-5   -4.197790600580094E-4   -3.474369185563012E-5   -4.178976960803311E-4   -3.891893485768709E-1    3.078925385909609E-1
 1.000552695415000E+10  -5.003057406602883E-1    3.124851312372201E-2   -7.822967701936890E-5   -3.991160521878876E-4   -5.142715620721757E-5   -4.231483080593741E-4   -3.890140646084393E-1    3.083012525036415E-1
 1.000553283900000E+10  -5.002413160797909E-1    3.165370636412773E-2   -6.527511731176555E-5   -3.920268957009417E-4   -7.442516214625396E-5   -3.823057868739762E-4   -3.887780580986406E-1    3.086677909008276E-1
 1.000553872385000E+10  -5.001250009061645E-1    3.208609808015017E-2   -6.579415928080458E-5   -3.947130000464316E-4   -4.487983863901598E-5   -3.847557167618554E-4   -3.884416023163267E-1    3.089053403510325E-1
 1.000554460870000E+10  -4.999067144084340E-1    3.241323527223399E-2   -1.024417771288414E-4   -3.694364158263771E-4   -4.555728709331034E-5   -3.729739746874892E-4   -3.881780590260855E-1    3.093114159364065E-1
 1.000555049355000E+10  -5.000084737785880E-1    3.272301906878694E-2   -5.857178316929958E-5   -3.941768335351652E-4   -4.861087100917423E-5   -4.040010639455326E-4   -3.879544733073568E-1    3.097325379476811E-1
 1.000555637840000E+10  -5.001870646955788E-1    3.323627048834435E-2   -2.066896518327598E-5   -3.814070480985680E-4   -5.301104030633425E-5   -3.917345045711158E-4   -3.876833624826870E-1    3.099776997020751E-1
 1.000556226325000E+10  -5.002006576154306E-1    3.358235445881419E-2   -5.494968760277348E-5   -3.793356719627542E-4   -1.376945652828223E-5   -3.693113453185012E-4   -3.874471594244649E-1    3.103896691555753E-1
 1.000556814810000E+10  -5.002067894774520E-1    3.397197142681447E-2   -4.813435697333840E-5   -3.711106189302481E-4   -8.769115015067056E-7   -3.622429483862137E-4   -3.870555689837494E-1    3.107867323458778E-1
 1.000557403295000E+10  -4.999363161289394E-1    3.441674748154500E-2   -2.623038088198549E-5   -3.503382099621857E-4   -3.433389944496185E-5   -3.592113438438474E-4   -3.868580395059157E-1    3.111269270546968E-1
 1.000557991780000E+10  -5.000521627258793E-1    3.480576203779548E-2   -7.157002474647553E-5   -3.419859922862135E-4   -2.572450132777995E-5   -3.452526148930884E-4   -3.866879316397915E-1    3.114666796485762E-1
 1.000558580265000E+10  -4.999571273366033E-1    3.519370451000147E-2   -3.258806715906131E-5   -3.505346121885335E-4   -1.872142257555501E-5   -3.370551216680750E-4   -3.863853181539517E-1    3.118464511533480E-1
 1.000559168750000E+10  -5.000386029416209E-1    3.552088139692416E-2   -1.777675377396976E-5   -3.429347393584954E-4   -1.139482710696849E-5   -3.558921477722228E-4   -3.859730818284595E-1    3.122375530214078E-1
 1.000559757235000E+10  -4.999712240171945E-1    3.578296286540927E-2   -4.265291369207268E-5   -3.459945390671898E-4   -3.981018594898287E-5   -3.393283368291805E-4   -3.858739386722962E-1    3.125652285787412E-1
 1.000560345720000E+10  -5.000178622393914E-1    3.624139457128358E-2   -2.863948521757001E-5   -3.363136201297980E-4   -2.408795696482299E-5   -3.533605575356536E-4   -3.855058382366491E-1    3.129593977989557E-1
 1.000560934205000E+10  -4.999767314252600E-1    3.658535687802251E-2   -2.252234049594664E-6   -3.075674314791167E-4   -3.439205263004840E-5   -3.023766557005081E-4   -3.852429113549059E-1    3.132452139391931E-1
 1.000561522690000E+10  -4.999392337066519E-1    3.704056767680358E-2   -1.537811668955262E-5   -3.348949087992785E-4   -6.020309484127839E-6   -3.215062538475955E-4   -3.849276951613226E-1    3.136179846243545E-1
 1.000562111175000E+10  -4.998971001578168E-1    3.741073896721022E-2   -2.402068255561321E-5   -2.875481694477344E-4    4.090301329507416E-6   -3.135219324757778E-4   -3.846441801119589E-1    3.140032352258260E-1
 1.000562699660000E+10  -4.999060381358122E-1    3.772628686655464E-2   -2.264725444703311E-5   -2.900283366064506E-4    2.037192247258799E-5   -2.950394060434627E-4   -3.844596356375260E-1    3.143995850297061E-1
 1.000563288145000E+10  -4.998247184027144E-1    3.820021033801158E-2   -1.598504889626072E-5   -2.942122657389347E-4    6.293675206590631E-6   -2.947141942702232E-4   -3.840392782188650E-1    3.147079958801626E-1
 1.000563876630000E+10  -4.998335351533560E-1    3.867617541044947E-2    9.868020581954628E-6   -2.604953321667926E-4    2.188077874272932E-5   -2.938640002070610E-4   -3.838377639890192E-1    3.149553291219119E-1
 1.000564465115000E+10  -4.998434259939276E-1    3.889634865819133E-2   -1.098469308218339E-5   -2.715041962145121E-4   -1.549253677434043E-6   -3.194364142896622E-4   -3.835952613221594E-1    3.153973050891446E-1
 1.000565053600000E+10  -4.998022843461880E-1    3.931068199509864E-2    8.974800375217406E-6   -2.777922166117780E-4    3.694115947625937E-5   -2.901624365509171E-4   -3.835259503244194E-1    3.157378835219015E-1
 1.000565642085000E+10  -4.998022957268853E-1    3.983221414011753E-2   -1.885363900059132E-5   -2.738030557268385E-4    1.533080837612009E-5   -2.788486073172566E-4   -3.829561067826555E-1    3.161214447681229E-1
 1.000566230570000E+10  -4.997243202453931E-1    3.996113104786014E-2    1.861306647725494E-5   -2.664591119699636E-4    2.890567249342891E-5   -2.680681429475328E-4   -3.825885510047505E-1    3.164099447684964E-1
 1.000566819055000E+10  -4.998043048583402E-1    4.042418181371294E-2    2.345371071354655E-5   -2.710694797201826E-4    5.145760761328535E-5   -2.565687873336327E-4   -3.823338139277664E-1    3.167056930892163E-1
 1.000567407540000E+10  -4.998160734863983E-1    4.078700601317933E-2    3.098825941644027E-5   -2.579367696160056E-4    2.508283560067328E-5   -2.725846285952206E-4   -3.821283740195671E-1    3.170485673329327E-1
 1.000567996025000E+10  -4.997102129290307E-1    4.128332780896614E-2    6.211531543920157E-5   -2.773162475691928E-4    3.371818952824660E-5   -2.531695878648322E-4   -3.819307581064899E-1    3.174624695045496E-1
 1.000568584510000E+10  -4.996704804221134E-1    4.162784903134649E-2    4.187546065357991E-5   -2.316856090070667E-4    2.862524407076539E-5   -2.267686837631253E-4   -3.816526127553981E-1    3.177836140444152E-1
 1.000569172995000E+10  -4.996790420070779E-1    4.204031114563004E-2    2.258268972093553E-5   -2.403621913139450E-4    5.430657239936915E-5   -2.492019423986366E-4   -3.811109393074091E-1    3.182672561236108E-1
 1.000569761480000E+10  -4.997923227985397E-1    4.236169247369126E-2    5.117243073089056E-5   -2.193562219191186E-4    5.330935334736512E-5   -2.124681551877959E-4   -3.808179215717707E-1    3.184817195553342E-1
 1.000570349965000E+10  -4.996061259651091E-1    4.278291537139306E-2    5.642540187940941E-5   -2.158482969531706E-4    5.425656047793790E-5   -1.917815111911715E-4   -3.807772227925295E-1    3.189213863367912E-1
 1.000570938450000E+10  -4.995936458693390E-1    4.306938386454840E-2    3.218805130182182E-5   -2.013797461492017E-4    5.951140473590379E-5   -2.010660198941417E-4   -3.803303365440071E-1    3.193185524993672E-1
 1.000571526935000E+10  -4.996304511922609E-1    4.345932859804987E-2    5.861008221292893E-5   -1.953757042445040E-4    5.417025826997299E-5   -2.003961106780008E-4   -3.800782731906614E-1    3.196906391272936E-1
 1.000572115420000E+10  -4.995336976417632E-1    4.401670991502070E-2    7.691865556131392E-5   -1.664422878234047E-4    8.757811680052146E-5   -1.671236036977739E-4   -3.797410944670803E-1    3.199839518498722E-1
 1.000572703905000E+10  -4.995853466890060E-1    4.433555214463901E-2    6.280533829621453E-5   -1.874251481902621E-4    1.132960828054155E-4   -1.687374332481034E-4   -3.794107109514159E-1    3.204625273443648E-1
 1.000573292390000E+10  -4.996229938866457E-1    4.472907633566680E-2    3.464123459090127E-5   -1.571421847582128E-4    8.376053194775155E-5   -1.643296510025821E-4   -3.793171764218858E-1    3.208038759927667E-1
 1.000573880875000E+10  -4.994720308881067E-1    4.505960743512216E-2    9.573661450158429E-5   -1.716711546240698E-4    9.864607307289924E-5   -1.538104358834688E-4   -3.788413672291900E-1    3.212134024991738E-1
 1.000574469360000E+10  -4.995919181318090E-1    4.548911447918018E-2    6.927992567509800E-5   -1.610635282622851E-4    1.034322193953350E-4   -1.620539582349294E-4   -3.785547487928148E-1    3.216176247293656E-1
 1.000575057845000E+10  -4.994601812652344E-1    4.571982665730030E-2    1.157123183212656E-4   -1.663305491556595E-4    1.110127265252983E-4   -1.189740621895656E-4   -3.783556187197280E-1    3.219189549140353E-1
 1.000575646330000E+10  -4.995350969183505E-1    4.613811522207907E-2    1.253794542740605E-4   -1.306030709964555E-4    1.279959795693555E-4   -1.173263015365397E-4   -3.779453543586183E-1    3.222779072974421E-1
 1.000576234815000E+10  -4.994071791053403E-1    4.663255973736804E-2    1.169503697738075E-4   -1.126182221176168E-4    1.269082547552972E-4   -1.217956806583374E-4   -3.775462603023081E-1    3.226345605019529E-1
 1.000576823300000E+10  -4.995301797362072E-1    4.696273441712946E-2    1.346001469772151E-4   -1.484508927624513E-4    1.053490511661992E-4   -1.145584759883482E-4   -3.772208557302473E-1    3.230104881285711E-1
 1.000577411785000E+10  -4.993667934545426E-1    4.739765595321976E-2    1.024356912501726E-4   -1.045099015530282E-4    1.454413792692740E-4   -1.223227875223631E-4   -3.770401727595799E-1    3.233420771437488E-1
 1.000578000270000E+10  -4.993864126229778E-1    4.775467765272259E-2    1.301846363015731E-4   -1.190287284494432E-4    1.284570763102593E-4   -7.663636986848206E-5   -3.766911505685744E-1    3.236881288097069E-1
 1.000578588755000E+10  -4.994452915473235E-1    4.805950354732166E-2    1.327186928769856E-4   -1.041076307405071E-4    1.208000346400551E-4   -6.331772163461989E-5   -3.763541199719935E-1    3.242088798937378E-1
 1.000579177240000E+10  -4.993768496625071E-1    4.856568704522116E-2    1.431236787892986E-4   -1.025127843540511E-4    1.341796960370275E-4   -6.329416605938983E-5   -3.760259564535943E-1    3.245719398337638E-1
 1.000579765725000E+10  -4.993105742108108E-1    4.888812511537657E-2    1.472587212414834E-4   -4.857925151886506E-5    1.208128520707328E-4   -5.397809966591820E-5   -3.756532086027868E-1    3.248534795291819E-1
 1.000580354210000E+10  -4.993106374138362E-1    4.923792803976213E-2    1.911749617231645E-4   -3.858565717318935E-5    1.698518930150020E-4   -8.795751790962724E-5   -3.753178781500845E-1    3.252297805685783E-1
 1.000580942695000E+10  -4.991246946388359E-1    4.966310526858186E-2    1.726452612190616E-4   -6.000618947341522E-5    1.520690582038055E-4   -5.088823034075973E-5   -3.749445140585238E-1    3.255782306394445E-1
 1.000581531180000E+10  -4.992173743525150E-1    5.003166171396486E-2    1.624279421247517E-4   -6.576407791623422E-5    2.131817444539260E-4   -5.744787665198313E-5   -3.747896960398648E-1    3.259536138532143E-1
 1.000582119665000E+10  -4.992923270217134E-1    5.041567021925934E-2    1.806854686493293E-4   -2.303516641202298E-6    1.891512270220128E-4   -4.811399184068287E-5   -3.742987877631977E-1    3.262557385820577E-1
 1.000582708150000E+10  -4.991700406359351E-1    5.084419635037845E-2    2.263164765431178E-4   -3.817170686908898E-6    1.933212730079514E-4   -1.741185443838167E-5   -3.740354560378377E-1    3.266578220790937E-1
