#  HZ   S   RI   R     50.00 
! Rohde & Schwarz Vector Network Analyzer 
! Rohde-Schwarz,ZNB20-2Port,1311601062101988,3.16
! Created: UTC 3/20/2024, 11:57:45 AM
! freq[Hz]                re:S11                  im:S11                  re:S21                  im:S21                  re:S12                  im:S12                  re:S22                  im:S22
 1.000532244700000E+10  -5.003770283013981E-1    1.793195918487429E-2   -1.470856332860982E-4   -5.495456605745126E-4   -1.111494343934611E-4   -5.822689956176962E-4   -3.975631383181077E-1    2.962254226936766E-1
 1.000532822005000E+10  -5.005492856169154E-1    1.836407824255288E-2   -1.359058124227110E-4   -5.507544770666651E-4   -9.681848505848647E-5   -5.518370673497792E-4   -3.972651676903425E-1    2.964100875803617E-1
 1.000533399310000E+10  -5.004340387646619E-1    1.879765138253275E-2   -1.435861855421422E-4   -5.702220339428288E-4   -1.261303833296100E-4   -5.391333092909120E-4   -3.971616882353737E-1    2.969377769356711E-1
 1.000533976615000E+10  -5.003146479585008E-1    1.914110705657704E-2   -1.254623105726133E-4   -5.754020341826373E-4   -1.186764865176873E-4   -5.720617081793328E-4   -3.971231623059828E-1    2.972172227133416E-1
 1.000534553920000E+10  -5.003291202730780E-1    1.951245984294056E-2   -1.506083496126817E-4   -5.498124070503960E-4   -1.021614487585009E-4   -5.574482725387886E-4   -3.967126847326347E-1    2.975566489598329E-1
 1.000535131225000E+10  -5.004441728241991E-1    1.985563858082952E-2   -1.311081516037977E-4   -5.612425754967989E-4   -1.341215424275535E-4   -5.552132976229307E-4   -3.964219263338171E-1    2.978638767043925E-1
 1.000535708530000E+10  -5.002378899089666E-1    2.028862256079805E-2   -1.460968508360308E-4   -5.549129195365960E-4   -1.243292392937497E-4   -5.521020158423501E-4   -3.961454443179107E-1    2.981607757748295E-1
 1.000536285835000E+10  -5.004726685759319E-1    2.065885332715260E-2   -1.297226704527417E-4   -5.576623188786749E-4   -1.277605584696956E-4   -5.310769312220618E-4   -3.958434737338520E-1    2.986143018765305E-1
 1.000536863140000E+10  -5.003234156900243E-1    2.098361067822715E-2   -1.457022791575120E-4   -5.303419497422873E-4   -1.011822905966361E-4   -5.255987448595302E-4   -3.957464189901916E-1    2.989371211493381E-1
 1.000537440445000E+10  -5.003895590789161E-1    2.140441648182551E-2   -1.565898414466782E-4   -5.501049919520438E-4   -1.325246178275613E-4   -5.212305316689961E-4   -3.954114996614884E-1    2.992829786182027E-1
 1.000538017750000E+10  -5.003639474698925E-1    2.171986120922228E-2   -1.482005284724177E-4   -5.247197539906858E-4   -1.134844401745171E-4   -5.143162008838950E-4   -3.951520481992195E-1    2.996663589019936E-1
 1.000538595055000E+10  -5.002581036124135E-1    2.218318640803671E-2   -1.218245653068755E-4   -5.248562407357063E-4   -1.145608648160088E-4   -5.361626616053484E-4   -3.950764463553437E-1    3.000045941351172E-1
 1.000539172360000E+10  -5.003870438516395E-1    2.236291646431491E-2   -1.416366398077666E-4   -5.283561541979002E-4   -9.361267545247689E-5   -5.250987861577492E-4   -3.948210438310819E-1    3.001766197189452E-1
 1.000539749665000E+10  -5.002716255944363E-1    2.292962610124323E-2   -1.169194360468875E-4   -5.340391829242420E-4   -1.110374808860661E-4   -5.203862075432653E-4   -3.945641161668534E-1    3.006182958731479E-1
 1.000540326970000E+10  -5.003026252068892E-1    2.314038009519705E-2   -1.237781497647016E-4   -5.083505591383018E-4   -1.040054911237300E-4   -5.042264408546648E-4   -3.943791447426886E-1    3.009619392560676E-1
 1.000540904275000E+10  -5.002789565905161E-1    2.363753249922297E-2   -1.184867611355795E-4   -4.970439400429447E-4   -1.218008994623239E-4   -5.192190090096010E-4   -3.940044226061100E-1    3.013803314919901E-1
 1.000541481580000E+10  -5.002411441497370E-1    2.404771052174393E-2   -1.198394876143866E-4   -4.913579650175020E-4   -9.539453996333770E-5   -5.089368490434565E-4   -3.938427751911745E-1    3.016668531947672E-1
 1.000542058885000E+10  -5.003217579633257E-1    2.435577604303410E-2   -1.068917698139054E-4   -4.911066787775003E-4   -1.048117074060204E-4   -5.035910225859444E-4   -3.935598927531500E-1    3.018769272368370E-1
 1.000542636190000E+10  -5.003686536636637E-1    2.475699176257663E-2   -1.073100276948799E-4   -4.872533800552292E-4   -1.206592847311870E-4   -4.695040447455600E-4   -3.934632500679171E-1    3.021996683774866E-1
 1.000543213495000E+10  -5.003629019504116E-1    2.517362633290121E-2   -1.268503647117522E-4   -4.874960892168739E-4   -8.491837848509380E-5   -4.828346205693565E-4   -3.930797129520237E-1    3.027190570040733E-1
 1.000543790800000E+10  -5.002703710911707E-1    2.550595295982837E-2   -1.166191033499429E-4   -5.073077043123318E-4   -8.911239766848761E-5   -4.965458762905574E-4   -3.928829226819041E-1    3.030038133395209E-1
 1.000544368105000E+10  -5.003142278657862E-1    2.590161065953641E-2   -9.529215727335520E-5   -4.768649671725918E-4   -9.715526799151273E-5   -4.978117197839821E-4   -3.926413963197584E-1    3.032732026579442E-1
 1.000544945410000E+10  -5.002231567163087E-1    2.629523617631485E-2   -9.979699316196087E-5   -4.734539604582505E-4   -1.034294263795634E-4   -4.607802003405696E-4   -3.924858443544857E-1    3.036300145351928E-1
 1.000545522715000E+10  -5.002128606833437E-1    2.660033105541282E-2   -1.192569940688570E-4   -4.943227793274593E-4   -7.526041828215995E-5   -4.692307725124527E-4   -3.921545902516481E-1    3.040162794914970E-1
 1.000546100020000E+10  -5.002240095148163E-1    2.707601845189972E-2   -1.064505337596529E-4   -4.966841042382299E-4   -7.392953398863814E-5   -4.613621823329004E-4   -3.917715146294636E-1    3.043904617451619E-1
 1.000546677325000E+10  -5.002939232155039E-1    2.744080271917463E-2   -1.031052795184615E-4   -4.668972534014441E-4   -9.971808377686858E-5   -4.585977112347011E-4   -3.915767689375375E-1    3.046707875902961E-1
 1.000547254630000E+10  -5.001122933018921E-1    2.777971337630095E-2   -1.216226872968545E-4   -4.533421621531285E-4   -6.633873779396778E-5   -4.760642597587127E-4   -3.913591323709529E-1    3.049482042964256E-1
 1.000547831935000E+10  -5.002357608263325E-1    2.818601865378163E-2   -1.042082869093694E-4   -4.610162512989210E-4   -8.116688918310151E-5   -4.629670889696165E-4   -3.910776357881478E-1    3.052108481441519E-1
 1.000548409240000E+10  -5.001462466426475E-1    2.849751142603500E-2   -9.457085691628478E-5   -4.540738654561164E-4   -9.892311170715682E-5   -4.604794001928735E-4   -3.908689871310796E-1    3.056482938818281E-1
 1.000548986545000E+10  -5.002508411269616E-1    2.899475601597677E-2   -1.011046326023567E-4   -4.529349669237937E-4   -6.779742206058612E-5   -4.270504219904612E-4   -3.904879882059643E-1    3.060967995517508E-1
 1.000549563850000E+10  -5.003426975711298E-1    2.924105229381190E-2   -8.421764816231265E-5   -4.371042877967014E-4   -9.185414145262825E-5   -4.116727577199890E-4   -3.904567894093146E-1    3.064327582031156E-1
 1.000550141155000E+10  -5.002255927277953E-1    2.956100369635400E-2   -1.047112243414076E-4   -4.441198642518165E-4   -6.442488937571850E-5   -4.383674566602725E-4   -3.899878694925126E-1    3.066893592323032E-1
 1.000550718460000E+10  -5.001233188543520E-1    3.005172770873026E-2   -6.510641252741788E-5   -4.406411847097770E-4   -5.151260516237807E-5   -4.593592026671194E-4   -3.899187093459260E-1    3.071587963810822E-1
 1.000551295765000E+10  -5.003063051874252E-1    3.049398558026164E-2   -1.095229411126324E-4   -4.205782207133720E-4   -4.633179361473421E-5   -4.466316216623562E-4   -3.895811931697439E-1    3.073361569908773E-1
 1.000551873070000E+10  -5.001557386898751E-1    3.090851709003078E-2   -7.835076579273778E-5   -4.562587412846746E-4   -4.980443696667813E-5   -4.267955156665150E-4   -3.893771733249201E-1    3.077794034644417E-1
 1.000552450375000E+10  -5.000854697776955E-1    3.109773745082639E-2   -8.310504105376904E-5   -4.227443779716853E-4   -4.442849370008119E-5   -4.450190099368043E-4   -3.891570870796388E-1    3.080579246426020E-1
 1.000553027680000E+10  -5.002022402021022E-1    3.156713104991826E-2   -8.961347887681048E-5   -4.295617778841059E-4   -6.105243705206873E-5   -4.135014910939025E-4   -3.888099971021592E-1    3.084558433292134E-1
 1.000553604985000E+10  -5.000753122827590E-1    3.203458230811593E-2   -8.997962992319134E-5   -4.108431808747908E-4   -2.301898704999069E-5   -3.746164994414730E-4   -3.885624623815883E-1    3.087766124632443E-1
 1.000554182290000E+10  -5.001693172175653E-1    3.226383427014132E-2   -8.707308794780808E-5   -3.686250823826833E-4   -2.723939017499088E-5   -3.855064748470496E-4   -3.882991103145720E-1    3.092678724680215E-1
 1.000554759595000E+10  -5.001276588402597E-1    3.270682513002603E-2   -8.849596904045783E-5   -3.852288433188646E-4   -4.508279110891155E-5   -3.841254056554685E-4   -3.880859957591071E-1    3.094981003618539E-1
 1.000555336900000E+10  -4.999688873919898E-1    3.304430342237692E-2   -5.574787061106014E-5   -3.661469212239081E-4   -7.550158931381623E-5   -4.055795404994733E-4   -3.877723782309816E-1    3.099036405861245E-1
 1.000555914205000E+10  -5.001160639100540E-1    3.340758172588832E-2   -6.258765788761410E-5   -3.852025673087545E-4   -1.523683526351783E-5   -4.169165162225163E-4   -3.875873602339807E-1    3.101342059845374E-1
 1.000556491510000E+10  -5.000323484131999E-1    3.383048687828940E-2   -2.955195243324356E-5   -3.649632211464660E-4   -2.407587719763653E-5   -3.546609027737383E-4   -3.874589931972622E-1    3.105007516392356E-1
 1.000557068815000E+10  -5.000289542441384E-1    3.421349036040959E-2   -4.870370823516593E-5   -3.674084880086633E-4   -8.801637718502755E-6   -3.434225049424694E-4   -3.869998462484995E-1    3.106342340568384E-1
 1.000557646120000E+10  -4.999949757358372E-1    3.448900550764109E-2   -6.573567011397335E-5   -3.686032269992759E-4   -3.034711815663530E-5   -3.920856713063315E-4   -3.868398754634888E-1    3.112802824770860E-1
 1.000558223425000E+10  -5.000076053298481E-1    3.491353253780543E-2   -1.611027702308007E-5   -3.622779640625193E-4   -3.548108410593422E-5   -3.742438081572486E-4   -3.864284879177220E-1    3.116755624096604E-1
 1.000558800730000E+10  -5.000016837293195E-1    3.537982400952745E-2   -5.762594598917870E-5   -3.723946037605800E-4   -1.646923742744729E-5   -3.521144459950144E-4   -3.862389923265223E-1    3.119245360319174E-1
 1.000559378035000E+10  -5.000063344577007E-1    3.560004716273795E-2   -4.032144725277950E-5   -3.245699441877378E-4   -1.666441159333090E-5   -3.479387704120276E-4   -3.859505382060583E-1    3.121372654172596E-1
 1.000559955340000E+10  -4.999734247742270E-1    3.605622379334731E-2   -3.840838507039744E-5   -3.311185111501067E-4   -9.919745015941559E-6   -3.239542859022307E-4   -3.857418054176575E-1    3.127530084775767E-1
 1.000560532645000E+10  -4.999174193444271E-1    3.644554606438578E-2   -2.485426257817259E-5   -3.375635897906316E-4   -5.493383569983351E-6   -3.298067535361057E-4   -3.854019931801227E-1    3.129374720557497E-1
 1.000561109950000E+10  -4.998825904021736E-1    3.694376167088930E-2   -2.335303177780266E-5   -3.316150777744704E-4   -3.813157485354751E-5   -3.318112427684872E-4   -3.852360918657454E-1    3.132960960280770E-1
 1.000561687255000E+10  -4.998845640001174E-1    3.708772889435723E-2   -2.592820678219844E-5   -3.036318714762530E-4   -1.429611885999706E-5   -3.230021483691618E-4   -3.849433583834427E-1    3.136922207901668E-1
 1.000562264560000E+10  -4.998630159753185E-1    3.751140591126934E-2   -9.141384370739218E-7   -3.142527428606483E-4   -1.743329078488103E-5   -3.220383308839884E-4   -3.845416423989075E-1    3.139870327180609E-1
 1.000562841865000E+10  -4.998801588933496E-1    3.794080935963738E-2   -1.368575807931611E-5   -3.460994284428348E-4    5.657366646315007E-7   -3.051894540555243E-4   -3.844601729844279E-1    3.144047453535971E-1
 1.000563419170000E+10  -4.998246814794918E-1    3.840420609633945E-2    2.632125617366760E-5   -2.911015695869108E-4   -7.321570563900379E-6   -3.303445037531282E-4   -3.841401456855070E-1    3.148509116222754E-1
 1.000563996475000E+10  -4.998414962738233E-1    3.869397193347839E-2    1.130108674852208E-5   -3.179217533530675E-4   -8.871677176052275E-6   -2.883451261014298E-4   -3.837469277367553E-1    3.150909899098762E-1
 1.000564573780000E+10  -4.998471640239969E-1    3.901498510764825E-2    1.060011289511165E-5   -2.672076674569658E-4   -1.555169838135395E-5   -3.114875002179031E-4   -3.835952909020898E-1    3.154154232643757E-1
 1.000565151085000E+10  -4.997741314129684E-1    3.941697377714808E-2    3.098283520005504E-5   -2.899447580197537E-4    2.137241924547185E-5   -3.027073514282617E-4   -3.832457245522786E-1    3.158009248545146E-1
 1.000565728390000E+10  -4.998106650868865E-1    3.984035913456024E-2   -2.937720523460298E-6   -2.839104931248706E-4    1.639628210302210E-5   -2.732259346425605E-4   -3.829150730834177E-1    3.160495761125379E-1
 1.000566305695000E+10  -4.997990246445150E-1    4.029253867587569E-2    3.846109559068964E-5   -2.751744354004578E-4    2.830839943991811E-5   -2.671603386327124E-4   -3.827279894175883E-1    3.164258143932319E-1
 1.000566883000000E+10  -4.997292319964285E-1    4.058919411723020E-2   -1.849349242230648E-5   -2.736964099156697E-4    5.660215896025248E-5   -2.534717602553438E-4   -3.824727090757480E-1    3.168602348452818E-1
 1.000567460305000E+10  -4.998363414144510E-1    4.097521953147733E-2    3.554119415304008E-5   -2.563931615274106E-4    3.543919342657827E-5   -2.425891855192970E-4   -3.820373704879259E-1    3.172632102963843E-1
 1.000568037610000E+10  -4.998142983655194E-1    4.123189094145846E-2    3.615700539036491E-5   -2.419953489005476E-4    2.509480455287237E-5   -2.433973234253465E-4   -3.819979566641921E-1    3.174081944129603E-1
 1.000568614915000E+10  -4.997034830681205E-1    4.168985817467807E-2   -7.080139107515042E-7   -2.499263105527282E-4    2.566680881380256E-5   -2.406277075513561E-4   -3.814685518565115E-1    3.180232335060671E-1
 1.000569192220000E+10  -4.996534608928269E-1    4.210647659865775E-2    4.859511210868347E-5   -2.408946116483925E-4    3.927926153765669E-5   -2.348604591136389E-4   -3.812873091184246E-1    3.182862311692752E-1
 1.000569769525000E+10  -4.995931900267080E-1    4.249821038585547E-2    2.784542362589989E-5   -2.254082215494485E-4    4.261792965745300E-5   -2.488886650219578E-4   -3.809226926053671E-1    3.186985181978073E-1
 1.000570346830000E+10  -4.996361965660648E-1    4.282131026757189E-2    5.004823415445320E-5   -2.349676326075305E-4    4.743097319705459E-5   -2.283089234039059E-4   -3.807684951340859E-1    3.188200678339840E-1
 1.000570924135000E+10  -4.995871439263204E-1    4.329008403223491E-2    5.881240498030881E-5   -2.345793161413998E-4    9.286021268064741E-5   -1.776968647363110E-4   -3.803354002827869E-1    3.192888948659089E-1
 1.000571501440000E+10  -4.997131032693507E-1    4.350181688890603E-2    7.533913189179958E-5   -1.987750441255776E-4    7.601723831554906E-5   -1.943511987895106E-4   -3.801842717977613E-1    3.197699912942272E-1
 1.000572078745000E+10  -4.994028236645043E-1    4.395368225681272E-2    3.995652185895376E-5   -1.786009988237856E-4    6.544972437605005E-5   -1.620017131184311E-4   -3.797711268666713E-1    3.199714593097632E-1
 1.000572656050000E+10  -4.995131045336529E-1    4.428988598698495E-2    7.273771118775455E-5   -1.790148043176363E-4    9.007580353268987E-5   -1.923231355700264E-4   -3.795411844423202E-1    3.203966434526599E-1
 1.000573233355000E+10  -4.994391879068814E-1    4.456005380975044E-2    7.661435199192711E-5   -1.777216607593198E-4    8.883163791546424E-5   -1.811399758060881E-4   -3.791750094197425E-1    3.208196852351772E-1
 1.000573810660000E+10  -4.995423857357936E-1    4.517700992692592E-2    6.427924169643739E-5   -1.824834452595202E-4    1.290191673756800E-4   -1.732820465987526E-4   -3.790186171166188E-1    3.210749242399586E-1
 1.000574387965000E+10  -4.995570209191606E-1    4.522615192147082E-2    8.745672506823151E-5   -1.728599237690498E-4    9.119881511058332E-5   -1.588877995726388E-4   -3.787065032669738E-1    3.215343023340675E-1
 1.000574965270000E+10  -4.994224930488224E-1    4.572383868844817E-2    9.304851066274102E-5   -1.477268456703493E-4    7.586748004111135E-5   -1.637800996938383E-4   -3.784135844823158E-1    3.218406586584403E-1
 1.000575542575000E+10  -4.993222088743344E-1    4.615738426285564E-2    6.188429264455872E-5   -1.358219363070744E-4    9.369400921859786E-5   -1.765934233800348E-4   -3.779509014037879E-1    3.221448607330409E-1
 1.000576119880000E+10  -4.993601740389608E-1    4.646473556481184E-2    1.088918282523690E-4   -1.363480731679191E-4    1.055812590848673E-4   -1.415506902072879E-4   -3.776611274500950E-1    3.225661011053729E-1
 1.000576697185000E+10  -4.995719874470984E-1    4.688096427323091E-2    9.966014678881700E-5   -1.514657296705577E-4    1.239151311387389E-4   -1.073001895438856E-4   -3.774165779162683E-1    3.228897574920407E-1
 1.000577274490000E+10  -4.993807458749673E-1    4.722706385108737E-2    1.288898538731079E-4   -1.183507125617215E-4    1.280248090229310E-4   -1.465303641230802E-4   -3.771792358168338E-1    3.232222997811497E-1
 1.000577851795000E+10  -4.993886365024082E-1    4.770172123009526E-2    8.988680362218440E-5   -1.053620565229539E-4    1.115657719595028E-4   -1.013131229099147E-4   -3.769205406143193E-1    3.235732982337478E-1
 1.000578429100000E+10  -4.993048790043648E-1    4.798512537248906E-2    1.328702895993626E-4   -1.035811927015952E-4    1.469467080093448E-4   -1.091368121178722E-4   -3.764127736708092E-1    3.240115364320473E-1
 1.000579006405000E+10  -4.993515611853999E-1    4.838519883375137E-2    1.600016585923126E-4   -8.740705468488986E-5    1.370163302072972E-4   -1.024260280708700E-4   -3.761216319316861E-1    3.243086515246413E-1
 1.000579583710000E+10  -4.993345657913064E-1    4.879622156387415E-2    1.602635684324026E-4   -1.117152787981191E-4    1.221549263247119E-4   -1.051645702672727E-4   -3.757226185238705E-1    3.247024230442213E-1
 1.000580161015000E+10  -4.990672185103415E-1    4.907656119101452E-2    1.674542688738109E-4   -7.025421657535403E-5    1.528135142727121E-4   -6.261341968594461E-5   -3.755178398560398E-1    3.250222909033851E-1
 1.000580738320000E+10  -4.992779111363144E-1    4.968517633956899E-2    1.755558159097879E-4   -7.984094792035539E-5    1.516751723575440E-4   -5.511199565257729E-5   -3.751968691441538E-1    3.253724167041262E-1
 1.000581315625000E+10  -4.992395239660735E-1    4.993447237780004E-2    1.633151856407404E-4   -3.497762754802079E-5    2.022773153043079E-4   -7.025612027786083E-5   -3.748300129335601E-1    3.256948853853144E-1
 1.000581892930000E+10  -4.990936874859837E-1    5.019579778453398E-2    2.050067185185968E-4   -3.205974540340121E-5    1.805067071743931E-4   -5.068079808014842E-5   -3.746138770225735E-1    3.262196640783943E-1
 1.000582470235000E+10  -4.991373712208696E-1    5.072952368450907E-2    1.927669991949559E-4   -3.172894633489697E-5    1.762387906536646E-4   -4.270368973991616E-5   -3.741801450622439E-1    3.264884469324164E-1
 1.000583047540000E+10  -4.992065806368133E-1    5.093884749173587E-2    2.066730618679339E-4    7.971016522807152E-6    1.812515991455468E-4   -3.255560363087653E-5   -3.739329139628451E-1    3.269090543904531E-1
 1.000583624845000E+10  -4.990659202431282E-1    5.132311734017796E-2    2.014771147670967E-4   -1.440306065887032E-5    1.851825360356180E-4   -2.156962199761801E-5   -3.736015806759621E-1    3.273530017910959E-1
 1.000584202150000E+10  -4.990040811087529E-1    5.174945039161759E-2    2.189683703977839E-4    9.073835052004039E-6    1.975739099368799E-4    7.704750568638535E-6   -3.731856492915039E-1    3.277007665523638E-1
