#  HZ   S   RI   R     50.00 
! Rohde & Schwarz Vector Network Analyzer 
! Rohde-Schwarz,ZNB20-2Port,1311601062101988,3.16
! Created: UTC 3/20/2024, 11:57:52 AM
! freq[Hz]                re:S11                  im:S11                  re:S21                  im:S21                  re:S12                  im:S12                  re:S22                  im:S22
 1.000533373900000E+10  -5.004845306621573E-1    1.874787596049027E-2   -1.782385820558676E-4   -5.429699577644729E-4   -9.408771548234314E-5   -5.875815311491657E-4   -3.971509884232211E-1    2.968265697961179E-1
 1.000533947265000E+10  -5.004979484345482E-1    1.903321575033793E-2   -1.430604193440833E-4   -5.532758308416680E-4   -1.167422579794456E-4   -5.577180823245226E-4   -3.970270183682619E-1    2.971483869578906E-1
 1.000534520630000E+10  -5.004883913561887E-1    1.942852803399645E-2   -1.651620358844509E-4   -5.959634760720418E-4   -1.171341266532139E-4   -5.500691912015147E-4   -3.967219485181391E-1    2.974273816416579E-1
 1.000535093995000E+10  -5.005656254242007E-1    1.981262324738869E-2   -1.702449894466618E-4   -5.789024492969813E-4   -1.198885503818810E-4   -5.482292780996091E-4   -3.964512559014682E-1    2.978488225091639E-1
 1.000535667360000E+10  -5.004410348569854E-1    2.011405314131613E-2   -1.730527623126992E-4   -5.306763750624312E-4   -1.364054006821412E-4   -5.449355936960564E-4   -3.963083269763119E-1    2.982049553553112E-1
 1.000536240725000E+10  -5.003034534446388E-1    2.046099394105071E-2   -1.530506620539809E-4   -5.388827558239506E-4   -1.015811865706127E-4   -5.337054124433712E-4   -3.959641582031970E-1    2.985355469022488E-1
 1.000536814090000E+10  -5.004286893332210E-1    2.092091806431987E-2   -1.343109152061537E-4   -5.607573472656973E-4   -1.328595266535353E-4   -5.371118757734250E-4   -3.958623275118945E-1    2.987217810265932E-1
 1.000537387455000E+10  -5.005215350421272E-1    2.129186305245668E-2   -1.473666610784041E-4   -5.313119824445177E-4   -8.815195204545750E-5   -5.182763704749132E-4   -3.954728509110756E-1    2.992153708619997E-1
 1.000537960820000E+10  -5.004474998193400E-1    2.152887900538549E-2   -1.430037153234719E-4   -5.378944452188605E-4   -1.272856482979767E-4   -5.466258871772374E-4   -3.955310030987694E-1    2.993145197378471E-1
 1.000538534185000E+10  -5.003794000479075E-1    2.199480911061480E-2   -1.199264906223286E-4   -5.325380796742913E-4   -1.197236412201054E-4   -5.190103844895371E-4   -3.951101195385235E-1    2.997115359785760E-1
 1.000539107550000E+10  -5.004483225107220E-1    2.237007885043330E-2   -1.372937904567686E-4   -4.995418406933297E-4   -1.306475781759331E-4   -5.238602129924799E-4   -3.949799550467779E-1    3.002843955160740E-1
 1.000539680915000E+10  -5.003133305650893E-1    2.283907713758315E-2   -1.475917759741040E-4   -5.350437659052327E-4   -9.478744337406095E-5   -5.161241491176597E-4   -3.944996261032657E-1    3.005770046598991E-1
 1.000540254280000E+10  -5.004344154459547E-1    2.309332103609359E-2   -1.100208902317239E-4   -5.388387087964494E-4   -1.131388750812035E-4   -5.106729585828450E-4   -3.943938464530878E-1    3.008800005809606E-1
 1.000540827645000E+10  -5.003837030105867E-1    2.357446865217929E-2   -1.171992342086392E-4   -5.287532290549160E-4   -1.289292719547448E-4   -4.943973558844530E-4   -3.942772704877377E-1    3.012148955437869E-1
 1.000541401010000E+10  -5.002857802918336E-1    2.395386942547058E-2   -1.212813591022093E-4   -5.164325564687519E-4   -1.173106798520985E-4   -5.127549925444927E-4   -3.938660927916791E-1    3.014240747778186E-1
 1.000541974375000E+10  -5.003612335630885E-1    2.419028441597318E-2   -1.401768292919710E-4   -4.934712990407043E-4   -9.982246211690363E-5   -5.121406472614989E-4   -3.936732577672590E-1    3.018997336793012E-1
 1.000542547740000E+10  -5.003609266615620E-1    2.472666026570905E-2   -1.238002040288212E-4   -4.706731583471384E-4   -9.362145697016393E-5   -5.130166869811561E-4   -3.933345303018967E-1    3.023855050130322E-1
 1.000543121105000E+10  -5.004364470257848E-1    2.514489527221768E-2   -1.314846424157840E-4   -5.231622066014773E-4   -8.684886613120691E-5   -4.803551034447514E-4   -3.933560725633902E-1    3.024385186234632E-1
 1.000543694470000E+10  -5.003211602030881E-1    2.544267324217254E-2   -1.063974949293221E-4   -5.106387541345754E-4   -8.547619133077015E-5   -4.925096736162365E-4   -3.929428369834946E-1    3.029094344143768E-1
 1.000544267835000E+10  -5.004329220634989E-1    2.563833442806782E-2   -1.283037517938882E-4   -4.892664877036427E-4   -9.035874235998809E-5   -4.631774622290956E-4   -3.927211762140358E-1    3.031877143219758E-1
 1.000544841200000E+10  -5.003091899587372E-1    2.609126160001887E-2   -1.176591034403554E-4   -4.561747808937786E-4   -8.854541061426885E-5   -4.768141761022991E-4   -3.923499602920040E-1    3.035103252024373E-1
 1.000545414565000E+10  -5.002915676375193E-1    2.650822447063918E-2   -1.419087266976565E-4   -4.633986035530036E-4   -1.019288435869519E-4   -4.773199383432808E-4   -3.921348376118254E-1    3.038656829521426E-1
 1.000545987930000E+10  -5.002713785263162E-1    2.683323274470722E-2   -1.099227148047512E-4   -4.671168226236483E-4   -8.142932065745722E-5   -4.623848354047389E-4   -3.920942497886260E-1    3.042824511827102E-1
 1.000546561295000E+10  -5.002810739984995E-1    2.730463698195126E-2   -1.116520388071220E-4   -4.705033512982030E-4   -9.653451597157377E-5   -4.651284492287904E-4   -3.917749019303712E-1    3.045979863660308E-1
 1.000547134660000E+10  -5.002871703522562E-1    2.763096018406204E-2   -1.136189953412378E-4   -4.546506218805154E-4   -8.584400117396318E-5   -4.545575767148309E-4   -3.914525707809254E-1    3.049734795949097E-1
 1.000547708025000E+10  -5.002744800264604E-1    2.797200322836471E-2   -1.095445169257871E-4   -4.605604690108554E-4   -6.982706795805865E-5   -4.300692282964170E-4   -3.913186500657427E-1    3.053198315144075E-1
 1.000548281390000E+10  -5.003559513573357E-1    2.840697503733385E-2   -7.434665468692111E-5   -4.715610513583915E-4   -6.885681821041726E-5   -4.492012758861852E-4   -3.909961763683941E-1    3.055434413131562E-1
 1.000548854755000E+10  -5.001875736761047E-1    2.876839206754257E-2   -9.463952960235990E-5   -4.499835103689267E-4   -5.913127116782996E-5   -4.561809449504710E-4   -3.906342862381093E-1    3.059799950038893E-1
 1.000549428120000E+10  -5.003271558511022E-1    2.916729205606382E-2   -8.405863537995717E-5   -4.547777886971922E-4   -8.628698120196482E-5   -4.360941669902225E-4   -3.904291374498934E-1    3.063090069939167E-1
 1.000550001485000E+10  -5.002738794220561E-1    2.936979933974985E-2   -1.133231573439263E-4   -4.373897748447366E-4   -9.876878081880333E-5   -4.541671960090911E-4   -3.902983911504626E-1    3.066830942371693E-1
 1.000550574850000E+10  -5.002646533737392E-1    2.990178112000500E-2   -9.833505820092970E-5   -4.393950796211931E-4   -6.584893091754571E-5   -4.297008087178673E-4   -3.899826294233912E-1    3.070297650065775E-1
 1.000551148215000E+10  -5.002012884659065E-1    3.029735182577872E-2   -4.093620044927049E-5   -4.327087579064341E-4   -6.082269815965079E-5   -4.335104160493859E-4   -3.896731944437125E-1    3.072824988041155E-1
 1.000551721580000E+10  -5.002033837039672E-1    3.061066853285539E-2   -7.742484524200655E-5   -4.142956954393014E-4   -8.249625518475403E-5   -4.436063376513069E-4   -3.894686765953234E-1    3.077005068121878E-1
 1.000552294945000E+10  -5.001909349073776E-1    3.096795937725856E-2   -7.502985854754498E-5   -4.116822446948368E-4   -2.028303643700782E-5   -4.209771331765372E-4   -3.891225428150215E-1    3.079724704013089E-1
 1.000552868310000E+10  -5.001113750594309E-1    3.147818606881706E-2   -8.765555219788674E-5   -4.353521727406026E-4   -7.592537362946182E-5   -3.896360867534990E-4   -3.890983574468663E-1    3.083229445062854E-1
 1.000553441675000E+10  -5.001476283220341E-1    3.166593637221153E-2   -7.442970910862612E-5   -4.187308840539297E-4   -7.514499667186865E-5   -4.073423340581846E-4   -3.887052401600454E-1    3.087517187486152E-1
 1.000554015040000E+10  -5.001621171269830E-1    3.215092307923679E-2   -8.621973716194407E-5   -3.995915698580658E-4   -3.419884177385034E-5   -3.710463126170637E-4   -3.884749676274610E-1    3.089111593579864E-1
 1.000554588405000E+10  -5.002319797387246E-1    3.250544502983478E-2   -5.593003991607533E-5   -4.011760477554097E-4   -7.410469978368694E-5   -3.935424896214122E-4   -3.882281706704578E-1    3.094077602596148E-1
 1.000555161770000E+10  -5.001539760099387E-1    3.285283171040269E-2   -7.694045092943731E-5   -3.620767827917633E-4   -5.799534676544770E-5   -4.022162847109036E-4   -3.880048069413203E-1    3.097663662767157E-1
 1.000555735135000E+10  -5.001111867650158E-1    3.330550220866401E-2   -4.923569309524794E-5   -4.260652609724311E-4   -5.546743163967129E-5   -3.671266066665528E-4   -3.877243877033825E-1    3.100938836632147E-1
 1.000556308500000E+10  -5.000720587664920E-1    3.359546673100538E-2   -8.482470325816768E-5   -3.833944241753713E-4   -1.863642986832907E-5   -3.602953908997531E-4   -3.874724560359549E-1    3.105906580850467E-1
 1.000556881865000E+10  -5.001204188166413E-1    3.402706405008419E-2   -6.667800376112729E-5   -3.572197121152506E-4   -2.142118633619265E-5   -3.506335087335219E-4   -3.871881308588218E-1    3.106507955580937E-1
 1.000557455230000E+10  -5.000218693603183E-1    3.424831945976608E-2   -6.685939193430781E-5   -3.744768110583752E-4   -5.298003948617446E-5   -3.969242928986281E-4   -3.868739471787235E-1    3.110900302827107E-1
 1.000558028595000E+10  -5.001595838580011E-1    3.468446286542707E-2   -3.675903116762928E-5   -3.664162741027497E-4   -3.630416501835136E-5   -3.568743353675977E-4   -3.867365921124853E-1    3.114025889714757E-1
 1.000558601960000E+10  -5.000095090301419E-1    3.516936712132000E-2   -4.639431691017114E-5   -3.401401047743076E-4   -3.465862396326818E-5   -3.821688077136357E-4   -3.863496414014711E-1    3.116733295731938E-1
 1.000559175325000E+10  -5.000903251004526E-1    3.538292038704452E-2   -4.526943811342224E-5   -3.685390609990133E-4   -1.637523392892786E-6   -3.267995059305085E-4   -3.861301946038108E-1    3.121486996661193E-1
 1.000559748690000E+10  -5.000203749344899E-1    3.580074662442657E-2   -4.008181564532918E-5   -3.289877970006942E-4   -6.120639805773480E-6   -3.555647380035297E-4   -3.859521403513248E-1    3.123078793610660E-1
 1.000560322055000E+10  -4.999759199163952E-1    3.620100115793153E-2   -5.319770388044409E-5   -3.621601546298055E-4    6.811370006331360E-6   -3.490114107134567E-4   -3.855636712272303E-1    3.128127328072572E-1
 1.000560895420000E+10  -5.000773921770681E-1    3.652153848937422E-2   -3.582335739152801E-5   -3.361172561711977E-4   -1.310814091169336E-5   -3.546044692045756E-4   -3.852249427521852E-1    3.131575989404705E-1
 1.000561468785000E+10  -5.000631179174087E-1    3.691311010713225E-2   -3.190831719044156E-5   -3.217928781490683E-4   -2.340570018243138E-5   -2.974970675967807E-4   -3.849091618515507E-1    3.136227312791909E-1
 1.000562042150000E+10  -5.000303650408136E-1    3.731893206410845E-2    6.879634226167699E-6   -3.344164091417090E-4   -1.180052458934938E-5   -3.418883998506099E-4   -3.847823106227710E-1    3.137887099570556E-1
 1.000562615515000E+10  -4.999232424121542E-1    3.783361357064175E-2   -3.003976941840941E-5   -3.050583308856650E-4    3.270012385602618E-6   -2.937807572128351E-4   -3.844316089579454E-1    3.142536659635189E-1
 1.000563188880000E+10  -4.999232205240335E-1    3.811059273514707E-2   -1.559317260857908E-5   -2.870516635645921E-4    1.181602574471949E-5   -3.216831245879837E-4   -3.843522408478749E-1    3.144770065031852E-1
 1.000563762245000E+10  -4.998872380463303E-1    3.838144406534107E-2   -1.515294596725266E-5   -2.948250178385896E-4   -1.011759882648765E-5   -2.989605287850609E-4   -3.839595955693338E-1    3.150693488647268E-1
 1.000564335610000E+10  -4.997986587836594E-1    3.884689939836645E-2   -8.318428289561298E-6   -3.437174631915389E-4    1.562807484236781E-5   -3.046571892723496E-4   -3.835837428210226E-1    3.152753198784484E-1
 1.000564908975000E+10  -4.999666996906136E-1    3.919943610582486E-2   -2.247570795608722E-5   -3.056216992209996E-4    7.581497753435543E-6   -3.005696611955995E-4   -3.833460574179213E-1    3.153902189421666E-1
 1.000565482340000E+10  -4.998969782308357E-1    3.948258168633964E-2    7.577699806558710E-6   -2.730473174034789E-4    3.323484544706315E-5   -2.733509448031269E-4   -3.831803228690391E-1    3.158640742411126E-1
 1.000566055705000E+10  -4.998370415629880E-1    3.990266104395417E-2    2.054347942115838E-5   -2.488898587921616E-4   -1.060950679995837E-5   -2.831378611499882E-4   -3.829123219693498E-1    3.162434126821720E-1
 1.000566629070000E+10  -4.998283042771618E-1    4.041753211131926E-2    2.463436142190810E-5   -2.545568574093749E-4    5.446494138565595E-7   -2.570801869214241E-4   -3.826834403842665E-1    3.165618235235099E-1
 1.000567202435000E+10  -4.997896575340402E-1    4.073928210157414E-2    1.443407883686877E-5   -2.899079274550041E-4    4.908976736942413E-5   -2.313399433253066E-4   -3.822819084833433E-1    3.169197514923492E-1
 1.000567775800000E+10  -4.997804424005752E-1    4.119728361096715E-2    2.660837280783423E-5   -2.615886722231464E-4    1.950713690921321E-5   -2.316378457446118E-4   -3.820902002942727E-1    3.172886435571918E-1
 1.000568349165000E+10  -4.997011488041402E-1    4.136050539440982E-2    1.263614398841804E-5   -2.539728752259481E-4    1.938489712631033E-5   -2.724226135627083E-4   -3.817771765802555E-1    3.176449015645156E-1
 1.000568922530000E+10  -4.996630611729224E-1    4.185474852725249E-2    4.363744132326239E-5   -1.842804632449897E-4    4.991490547253712E-5   -2.212348125439275E-4   -3.815020257988668E-1    3.180896932311073E-1
 1.000569495895000E+10  -4.999205457576500E-1    4.224279286894272E-2    1.867725773122319E-5   -2.229139266550377E-4    5.415042537203990E-5   -2.337756136371121E-4   -3.812016674458034E-1    3.184392664150193E-1
 1.000570069260000E+10  -4.996529525428069E-1    4.254727003374390E-2    2.679925590806799E-5   -2.109371645617620E-4    4.943876271220250E-5   -2.311643207019013E-4   -3.807767899397215E-1    3.187832163320334E-1
 1.000570642625000E+10  -4.997591290534186E-1    4.281700168944172E-2    4.047244786906634E-5   -2.328362875481576E-4    6.358430357641697E-5   -2.409545634510991E-4   -3.806084584380307E-1    3.189434045274130E-1
 1.000571215990000E+10  -4.996585492922038E-1    4.330981225377295E-2    4.752511028708901E-5   -2.002123091437853E-4    4.983650549701950E-5   -1.913476587055079E-4   -3.802125420059561E-1    3.193790001875705E-1
 1.000571789355000E+10  -4.997214742151362E-1    4.368463087190523E-2    4.808303437099975E-5   -2.172322511453209E-4    6.435568324596918E-5   -2.241569112666393E-4   -3.800409824203262E-1    3.197900641324485E-1
 1.000572362720000E+10  -4.996535413787644E-1    4.405156171673053E-2    4.490788437831366E-5   -1.932581330551145E-4    4.269943421897801E-5   -1.786214377705989E-4   -3.797467644830252E-1    3.202035908998371E-1
 1.000572936085000E+10  -4.997335149060690E-1    4.439263217882306E-2    5.246993943389702E-5   -1.986044865065219E-4    7.695628947875920E-5   -1.764562954124674E-4   -3.794153880806246E-1    3.205438343290601E-1
 1.000573509450000E+10  -4.996705134150006E-1    4.488798796824259E-2    5.988799975764490E-5   -1.670894488599963E-4    7.100485889376226E-5   -1.592899316782621E-4   -3.791614501908953E-1    3.208087279256701E-1
 1.000574082815000E+10  -4.996128601888841E-1    4.527509730183877E-2    6.058829928692564E-5   -1.497738978249627E-4    1.048533119264132E-4   -1.634736899682624E-4   -3.788428192914586E-1    3.213229364236830E-1
 1.000574656180000E+10  -4.994760128438288E-1    4.562784384329004E-2    9.630425975420495E-5   -1.449927691440505E-4    1.101291775113905E-4   -1.582208251344748E-4   -3.784981610148934E-1    3.214975213039397E-1
 1.000575229545000E+10  -4.994467646548119E-1    4.592664125781291E-2    8.384346342338086E-5   -1.569657274030898E-4    1.000374523881619E-4   -1.232406810999426E-4   -3.782901269787979E-1    3.219424533813358E-1
 1.000575802910000E+10  -4.994973239669616E-1    4.632244775407934E-2    1.086120662550255E-4   -1.664797190936862E-4    9.824799200207647E-5   -1.329788154946152E-4   -3.779429059367138E-1    3.223818510259147E-1
 1.000576376275000E+10  -4.995490080306889E-1    4.672823304876177E-2    8.664291119053459E-5   -9.559154093558495E-5    1.046023783581009E-4   -1.360834835848311E-4   -3.777689398649567E-1    3.226708726718123E-1
 1.000576949640000E+10  -4.994467479095327E-1    4.700054624896828E-2    8.056512720747860E-5   -1.429704395875622E-4    1.026787602794437E-4   -1.179358144109970E-4   -3.773771891490998E-1    3.229338807301269E-1
 1.000577523005000E+10  -4.995385830544376E-1    4.746979888509339E-2    1.108666773092450E-4   -1.273425688203434E-4    1.513579762085340E-4   -1.228615806153413E-4   -3.769814431836125E-1    3.234397269963394E-1
 1.000578096370000E+10  -4.993937659326452E-1    4.782460041001519E-2    9.931041233511567E-5   -8.788310530142827E-5    1.468030718494181E-4   -1.195910306490935E-4   -3.767265912708760E-1    3.237431119896423E-1
 1.000578669735000E+10  -4.993967550858653E-1    4.820201307993865E-2    9.533700655357382E-5   -1.163308916219849E-4    1.307007024065110E-4   -8.000541080151096E-5   -3.762711739212062E-1    3.240731516479222E-1
 1.000579243100000E+10  -4.993329159007996E-1    4.844879811624503E-2    1.378140828485579E-4   -1.027841748824701E-4    1.344661999336465E-4   -7.495827693401796E-5   -3.762289435124636E-1    3.244942307207113E-1
 1.000579816465000E+10  -4.993357893770768E-1    4.891109630515011E-2    1.581363787645409E-4   -1.023490068273435E-4    1.782496354215458E-4   -8.851997863422789E-5   -3.758498254798697E-1    3.247479529707461E-1
 1.000580389830000E+10  -4.991913212905235E-1    4.930463121190026E-2    1.721505724599376E-4   -6.632088324911815E-5    1.388631022773928E-4   -7.114928723148943E-5   -3.754539262732236E-1    3.251291389701966E-1
 1.000580963195000E+10  -4.993385238591926E-1    4.965178157165342E-2    1.501331736975567E-4   -3.557650280405916E-5    1.515703442614833E-4   -6.601268959133608E-5   -3.751020346276031E-1    3.255406492104895E-1
 1.000581536560000E+10  -4.992993156234249E-1    4.998227258177441E-2    1.578438682524270E-4   -4.515678284279595E-5    1.376590730415983E-4   -4.998684862466133E-5   -3.747202803425175E-1    3.260696092915047E-1
 1.000582109925000E+10  -4.992381715134241E-1    5.042656724029021E-2    1.724239216453929E-4   -4.819427245474176E-5    1.718179524744485E-4   -6.541249049265499E-5   -3.745211862574153E-1    3.262022822521111E-1
 1.000582683290000E+10  -4.992417570587774E-1    5.084061935968412E-2    2.147102424955161E-4   -3.249915836068406E-5    2.058883078058728E-4   -1.714622839901974E-5   -3.741842726798382E-1    3.267055151616213E-1
 1.000583256655000E+10  -4.990589942827178E-1    5.114513703865998E-2    2.215265706668772E-4   -5.775242281813958E-5    1.681673348049462E-4   -1.363833949427557E-5   -3.739063261244486E-1    3.270297306250912E-1
 1.000583830020000E+10  -4.992007581516452E-1    5.152483102295312E-2    2.023614132364145E-4   -2.016072207035973E-5    2.115751009668440E-4   -1.993194861905850E-5   -3.734731905627747E-1    3.273988015519037E-1
 1.000584403385000E+10  -4.991773180055238E-1    5.193834789365727E-2    2.176148721500891E-4   -1.467813002578990E-5    2.068013887603694E-4   -1.746953660635231E-5   -3.729499334469656E-1    3.277473392645759E-1
 1.000584976750000E+10  -4.991296438714921E-1    5.223586024157104E-2    2.365885879066063E-4   -1.181679806240303E-5    2.078546551699108E-4    2.665763703836676E-5   -3.728879544255745E-1    3.281137854408937E-1
