#  HZ   S   RI   R     50.00 
! Rohde & Schwarz Vector Network Analyzer 
! Rohde-Schwarz,ZNB20-2Port,1311601062101988,3.16
! Created: UTC 3/20/2024, 11:57:55 AM
! freq[Hz]                re:S11                  im:S11                  re:S21                  im:S21                  re:S12                  im:S12                  re:S22                  im:S22
 1.000533381600000E+10  -5.005306185819836E-1    1.863633921390158E-2   -1.519912290832562E-4   -5.753770632810517E-4   -1.226755324978061E-4   -5.656826557768974E-4   -3.971827983380374E-1    2.966687821923134E-1
 1.000533955620000E+10  -5.004805514014764E-1    1.904297621831573E-2   -1.554549031050256E-4   -5.877056490296385E-4   -1.080484959324005E-4   -5.433298600165963E-4   -3.969363877813063E-1    2.970822918220419E-1
 1.000534529640000E+10  -5.003808004101330E-1    1.927303187151716E-2   -1.476918589049364E-4   -5.557560715318547E-4   -1.181975880303181E-4   -5.527943951799522E-4   -3.967245975318963E-1    2.974428732654086E-1
 1.000535103660000E+10  -5.004505928482459E-1    1.973330597182116E-2   -1.433690680536308E-4   -5.882583027592616E-4   -1.285912937851634E-4   -5.695564435425612E-4   -3.965209263417141E-1    2.978085126901707E-1
 1.000535677680000E+10  -5.004650812557526E-1    2.024253209998288E-2   -1.481691952156200E-4   -5.463706071741704E-4   -1.294268205415709E-4   -5.596723019090200E-4   -3.962776077688879E-1    2.980583276264737E-1
 1.000536251700000E+10  -5.005107345262492E-1    2.057115928583859E-2   -1.533339004227339E-4   -5.355498813454984E-4   -1.130278523368594E-4   -5.632288961904280E-4   -3.960019058779538E-1    2.984552727162219E-1
 1.000536825720000E+10  -5.004183088170948E-1    2.079797676985081E-2   -1.257985581323680E-4   -5.315119147407131E-4   -1.072617870733114E-4   -5.526308488318912E-4   -3.957984992868961E-1    2.988239134089978E-1
 1.000537399740000E+10  -5.004951570367417E-1    2.111576312281099E-2   -1.272219036633132E-4   -5.176518241555570E-4   -1.182762741881659E-4   -5.438921416775218E-4   -3.954094099155383E-1    2.992552826939978E-1
 1.000537973760000E+10  -5.003552654242736E-1    2.170840552455431E-2   -1.563769281633799E-4   -5.146549685769800E-4   -1.059726333544322E-4   -5.484590080372320E-4   -3.953408766152018E-1    2.995673558478081E-1
 1.000538547780000E+10  -5.005270227164865E-1    2.197176320062864E-2   -1.489205182457955E-4   -5.189141902775117E-4   -1.097846718705759E-4   -5.035865743855944E-4   -3.950817607840263E-1    2.997536762391602E-1
 1.000539121800000E+10  -5.002425315033836E-1    2.238570843383484E-2   -1.469076536348651E-4   -5.295795277324407E-4   -1.086739143578648E-4   -5.167489652850833E-4   -3.948634982284567E-1    3.002778645083179E-1
 1.000539695820000E+10  -5.003922304226767E-1    2.275636242086239E-2   -1.318075555392273E-4   -5.338392712807525E-4   -1.061513244552794E-4   -5.189723561907381E-4   -3.945846790186121E-1    3.004806050194153E-1
 1.000540269840000E+10  -5.005318812338339E-1    2.315454155779913E-2   -1.194892284778324E-4   -5.204774289994929E-4   -1.051463510620791E-4   -5.187430915511896E-4   -3.943667408752005E-1    3.009653407241570E-1
 1.000540843860000E+10  -5.002832788496806E-1    2.359253380603798E-2   -1.166148943920378E-4   -5.120185953739344E-4   -1.065608211664344E-4   -4.961802542155101E-4   -3.941129689292981E-1    3.011925343785782E-1
 1.000541417880000E+10  -5.004461390040321E-1    2.386522305077128E-2   -1.393300137001510E-4   -5.122413611278398E-4   -9.917850474182512E-5   -5.012541580299287E-4   -3.938618903933853E-1    3.015164283202602E-1
 1.000541991900000E+10  -5.003482773023360E-1    2.431880945785118E-2   -1.197355007413893E-4   -5.038610066746294E-4   -7.308776815893463E-5   -5.218131286801260E-4   -3.936047103338328E-1    3.018520130393041E-1
 1.000542565920000E+10  -5.003484398381373E-1    2.443643360125600E-2   -1.179406343437416E-4   -5.192977523985162E-4   -1.050830966230178E-4   -4.867520654110940E-4   -3.934631434878714E-1    3.021886815573794E-1
 1.000543139940000E+10  -5.002827118693807E-1    2.508052950992826E-2   -1.271361114461958E-4   -5.013935433572676E-4   -1.005780596755999E-4   -4.726510485876304E-4   -3.932111006223679E-1    3.025377118419613E-1
 1.000543713960000E+10  -5.003970850675465E-1    2.538848564941183E-2   -8.559652298016580E-5   -4.864147722281969E-4   -1.194131387229867E-4   -4.936694558092347E-4   -3.928558505619443E-1    3.029870573748688E-1
 1.000544287980000E+10  -5.003595875492417E-1    2.585865327198635E-2   -1.173794589958269E-4   -4.794273846530095E-4   -1.036506045635759E-4   -4.878011791514326E-4   -3.927283763754054E-1    3.031883265710224E-1
 1.000544862000000E+10  -5.003032473861920E-1    2.603808688464916E-2   -7.885992248935365E-5   -4.747615938143158E-4   -1.005502873433424E-4   -4.875288412187892E-4   -3.923808381181060E-1    3.036813277841873E-1
 1.000545436020000E+10  -5.003242946780864E-1    2.637515200221687E-2   -1.255193765887846E-4   -4.731869844506095E-4   -8.313957237157089E-5   -5.017927018986230E-4   -3.921946715699987E-1    3.039300341103026E-1
 1.000546010040000E+10  -5.003510336594593E-1    2.700525198236845E-2   -1.109640587353467E-4   -4.749108590719561E-4   -9.135521284999233E-5   -4.646416769884761E-4   -3.920008568376295E-1    3.041896930337613E-1
 1.000546584060000E+10  -5.003627858685755E-1    2.722049976577226E-2   -1.059703559613299E-4   -4.744850511891765E-4   -9.841868384374616E-5   -4.619243952489032E-4   -3.917470228379007E-1    3.045709247031468E-1
 1.000547158080000E+10  -5.001874367830312E-1    2.767316788280951E-2   -1.152336903364066E-4   -4.681478884294960E-4   -8.446506123186120E-5   -4.300668659894437E-4   -3.915286947396840E-1    3.049037656684316E-1
 1.000547732100000E+10  -5.002439218266754E-1    2.802978238456559E-2   -1.087913164244096E-4   -4.743523196937408E-4   -7.384822225141659E-5   -4.407645689760110E-4   -3.911193369526949E-1    3.051274251387910E-1
 1.000548306120000E+10  -5.003096249948424E-1    2.847820026009978E-2   -1.143954868509770E-4   -4.500308916598686E-4   -7.503047582632384E-5   -4.636695253391917E-4   -3.909140678292925E-1    3.055807711255875E-1
 1.000548880140000E+10  -5.002806784735268E-1    2.882420628047211E-2   -9.691874246703335E-5   -4.246972749887792E-4   -9.172446113232761E-5   -4.515872558010032E-4   -3.907409619637009E-1    3.058482530869334E-1
 1.000549454160000E+10  -5.003847850388976E-1    2.918011411276956E-2   -8.501277506718233E-5   -4.518699243735810E-4   -9.077196913135915E-5   -4.763101459522236E-4   -3.904383011258148E-1    3.063832862342359E-1
 1.000550028180000E+10  -5.002137364065863E-1    2.946849396030710E-2   -6.797407913315386E-5   -4.503238815834610E-4   -5.924841056241410E-5   -4.469243378912927E-4   -3.902082936880913E-1    3.067089447765219E-1
 1.000550602200000E+10  -5.002935456180032E-1    2.985902123763517E-2   -8.408782630949328E-5   -4.053894275939001E-4   -5.335377601229966E-5   -4.021143417551972E-4   -3.900464197096336E-1    3.069807850196814E-1
 1.000551176220000E+10  -5.001789063629916E-1    3.030415453636995E-2   -1.019753859034281E-4   -4.399937813644370E-4   -6.244353613773643E-5   -4.221995437575375E-4   -3.897954276903138E-1    3.073394452338069E-1
 1.000551750240000E+10  -5.002534544025842E-1    3.060129666661432E-2   -9.270269025349623E-5   -4.297742300408262E-4   -7.358806662935462E-5   -4.328145831246909E-4   -3.894788475525914E-1    3.076052517977301E-1
 1.000552324260000E+10  -5.002366938590095E-1    3.097058222251989E-2   -5.700736969533288E-5   -4.062350678078606E-4   -4.341449989791962E-5   -4.224789303036098E-4   -3.892295998466336E-1    3.079116150252729E-1
 1.000552898280000E+10  -5.002024289526503E-1    3.139795440183187E-2   -8.304358872647494E-5   -4.328376313807314E-4   -3.951742832937424E-5   -3.956936164095780E-4   -3.889935323509426E-1    3.083108606501676E-1
 1.000553472300000E+10  -5.003273498206388E-1    3.171727356262215E-2   -6.437451241753843E-5   -3.791070741353238E-4   -7.525559373539665E-5   -4.274977325588364E-4   -3.886544368839733E-1    3.086905538333412E-1
 1.000554046320000E+10  -5.001959372213667E-1    3.205758833178579E-2   -8.475429015310394E-5   -4.070671854014184E-4   -1.963240798316442E-5   -4.167798577804927E-4   -3.884814435062741E-1    3.090238717901262E-1
 1.000554620340000E+10  -5.001254164417068E-1    3.246541646470004E-2   -7.486309753587905E-5   -3.942354479712326E-4   -6.552299981412716E-5   -4.012276412531897E-4   -3.882609735133147E-1    3.093043833482410E-1
 1.000555194360000E+10  -5.001626107397136E-1    3.291936661296727E-2   -6.812523414953107E-5   -4.232428490564044E-4   -4.424285999663151E-5   -4.065767441602954E-4   -3.879656423056942E-1    3.097094944701135E-1
 1.000555768380000E+10  -5.001843719412016E-1    3.321709001545843E-2   -7.254383275266350E-5   -4.237533974519257E-4   -4.296173545754565E-5   -3.692217002508461E-4   -3.876838637622599E-1    3.100541157934767E-1
 1.000556342400000E+10  -5.002034426029615E-1    3.362284412260356E-2   -7.040052450065016E-5   -3.735074056468406E-4   -1.503023207514887E-5   -3.987514660056195E-4   -3.875579014056504E-1    3.103261845728406E-1
 1.000556916420000E+10  -5.000709108302043E-1    3.406509063123388E-2   -6.078695022985957E-5   -3.892808967730361E-4   -2.585976323679270E-5   -3.627951299453843E-4   -3.872587247969251E-1    3.107323452150603E-1
 1.000557490440000E+10  -5.001349106637665E-1    3.445506878973582E-2   -8.948244790285766E-5   -3.605602914246347E-4   -2.500158536248559E-5   -3.850966953929427E-4   -3.869920688659295E-1    3.112378089224626E-1
 1.000558064460000E+10  -5.000970483112485E-1    3.464691465070651E-2   -4.147541941555255E-5   -3.960420345311123E-4   -3.378017903839229E-5   -3.817317259203340E-4   -3.866795789037166E-1    3.114014154813196E-1
 1.000558638480000E+10  -5.000682678588849E-1    3.519888714484958E-2   -4.212698630584410E-5   -3.752910069884885E-4   -1.090725874170585E-5   -3.469590767797821E-4   -3.864314288767149E-1    3.116678024146679E-1
 1.000559212500000E+10  -4.999772561697177E-1    3.549356124854722E-2   -2.621320806711215E-5   -3.578629691864178E-4   -3.426073285457653E-5   -3.344552648326419E-4   -3.860092078178385E-1    3.123002124589191E-1
 1.000559786520000E+10  -4.999691337764140E-1    3.580881841678388E-2   -5.487011061441719E-5   -3.533059224882877E-4   -2.344396213966199E-5   -3.557908769598641E-4   -3.858544847117003E-1    3.125586041133969E-1
 1.000560360540000E+10  -4.999976311558527E-1    3.622400623689150E-2   -1.897729462580388E-5   -3.373329825873841E-4   -2.289441271994895E-5   -3.213748205261228E-4   -3.856637955600322E-1    3.127895505673883E-1
 1.000560934560000E+10  -4.998468127496948E-1    3.660551927857997E-2   -1.390317027690598E-5   -3.250666418276670E-4   -2.060636471792038E-5   -3.124234829427186E-4   -3.854120098343834E-1    3.133505239811489E-1
 1.000561508580000E+10  -5.000654666087347E-1    3.703027759717355E-2   -3.826572213794358E-5   -3.140639981463623E-4   -1.240618379116981E-5   -3.137328966223234E-4   -3.851002446042828E-1    3.136262466516295E-1
 1.000562082600000E+10  -4.999569164796663E-1    3.738202883584286E-2   -3.551329157428163E-5   -3.125060522915739E-4   -1.798944673109242E-5   -3.246471298071872E-4   -3.848590787337118E-1    3.138506580427640E-1
 1.000562656620000E+10  -4.999124852491655E-1    3.772471481448299E-2   -7.218914797134862E-7   -3.205442970968649E-4   -1.498170087668357E-5   -3.091116311379414E-4   -3.844663157200161E-1    3.142112559624073E-1
 1.000563230640000E+10  -4.999119730022717E-1    3.816922374058616E-2   -3.490918435353918E-5   -3.193951519689789E-4    6.329846559640697E-6   -3.176485498826694E-4   -3.843352147143431E-1    3.145950777849368E-1
 1.000563804660000E+10  -5.000330818435785E-1    3.856881254361052E-2   -2.125525865456503E-5   -2.817091596260132E-4   -1.282427652345333E-5   -3.086788362888027E-4   -3.840210789224521E-1    3.149208715798582E-1
 1.000564378680000E+10  -4.998843109936004E-1    3.897428968123892E-2   -1.343759329060015E-5   -2.783431057774081E-4    1.518557955144905E-5   -2.935392323723312E-4   -3.836333110284325E-1    3.152703174762624E-1
 1.000564952700000E+10  -4.999102208558864E-1    3.922031885310973E-2   -1.223607065548813E-5   -3.268428742245310E-4    2.132382891471145E-5   -3.075108469469102E-4   -3.834610676868157E-1    3.157048257118947E-1
 1.000565526720000E+10  -4.998676986147829E-1    3.964631050251907E-2   -2.305120993617065E-5   -3.101348190897675E-4    1.143167538487520E-5   -2.779367388041464E-4   -3.832862121555021E-1    3.159502558245558E-1
 1.000566100740000E+10  -4.998422338965796E-1    4.006656456018053E-2    5.412701363491511E-6   -2.708527872726046E-4    4.868631758850672E-5   -2.901300360108556E-4   -3.829774498039431E-1    3.162408384017632E-1
 1.000566674760000E+10  -4.998620655589758E-1    4.033949912665089E-2   -6.221172894937460E-8   -2.623385165955278E-4    4.195768857779202E-5   -2.493782801647877E-4   -3.825006839528480E-1    3.166239771216089E-1
 1.000567248780000E+10  -4.997762569171482E-1    4.065469145827691E-2    1.527308444420501E-5   -2.571649338448248E-4    3.769448128785619E-5   -2.468495314731861E-4   -3.822919417293908E-1    3.170431063527834E-1
 1.000567822800000E+10  -4.999108742653725E-1    4.112817770291594E-2    3.006364368702246E-5   -2.423010015708440E-4    1.424997212468566E-5   -2.657758101116534E-4   -3.819393016266252E-1    3.173120167232293E-1
 1.000568396820000E+10  -4.996841857820585E-1    4.146983544146349E-2    1.570208453679882E-5   -2.476463336549348E-4    5.386425759886125E-5   -2.451060557268664E-4   -3.816644570815100E-1    3.177343956986849E-1
 1.000568970840000E+10  -4.999587016801152E-1    4.192442666464583E-2    2.252684996362731E-5   -2.540620902591807E-4    4.448488340046056E-5   -1.993141252268749E-4   -3.815127645902477E-1    3.181574136121709E-1
 1.000569544860000E+10  -4.997394457399412E-1    4.218783808225231E-2    4.033385173650238E-5   -2.240897715006961E-4    3.463689458405985E-5   -2.261672799788717E-4   -3.811932381410605E-1    3.184871663620079E-1
 1.000570118880000E+10  -4.996082548408628E-1    4.263908054328475E-2    4.144531636626629E-5   -2.519665135430673E-4    2.834788513567440E-5   -2.063468356770423E-4   -3.807856466328188E-1    3.189395699972859E-1
 1.000570692900000E+10  -4.997699823475011E-1    4.283425799813729E-2    8.423995561919134E-5   -2.214076793887322E-4    6.062539581449077E-5   -2.441862902618444E-4   -3.806138945935066E-1    3.191211824979442E-1
 1.000571266920000E+10  -4.996973513439273E-1    4.328961456666507E-2    6.729410744953447E-5   -2.274746935468326E-4    6.118011327112084E-5   -2.051171870922626E-4   -3.801541075307790E-1    3.194665332826034E-1
 1.000571840940000E+10  -4.996433470600665E-1    4.371701606024575E-2    6.872421580558270E-5   -2.274973211528593E-4    6.638233550900200E-5   -1.833179179127676E-4   -3.800225626465351E-1    3.197780601634553E-1
 1.000572414960000E+10  -4.995755028601991E-1    4.408690557657345E-2    7.996492412644013E-5   -1.705769850359128E-4    8.335926615415309E-5   -1.910905749024644E-4   -3.797587660469584E-1    3.202094179309230E-1
 1.000572988980000E+10  -4.996146183182227E-1    4.439609656653259E-2    6.715545678868450E-5   -1.786315592085625E-4    5.595167991496682E-5   -1.840892525543375E-4   -3.793938164367915E-1    3.205366809427350E-1
 1.000573563000000E+10  -4.996293256520525E-1    4.484414371466711E-2    1.152493064484254E-4   -1.847737079386409E-4    7.806166866125817E-5   -1.610781516303201E-4   -3.791625726199317E-1    3.208148972469530E-1
 1.000574137020000E+10  -4.995371021020220E-1    4.523055881610980E-2    7.310779439085901E-5   -1.570434047947881E-4    6.342101686929694E-5   -1.665915164234726E-4   -3.788768455702707E-1    3.212968208902074E-1
 1.000574711040000E+10  -4.995728095371722E-1    4.556520780313761E-2    6.290433153540963E-5   -1.852489508895487E-4    9.105521186090401E-5   -1.493836421713015E-4   -3.784727994963725E-1    3.215909174657293E-1
 1.000575285060000E+10  -4.995383907829169E-1    4.607735473813732E-2    6.631279255334210E-5   -1.592349227752572E-4    1.126637685797367E-4   -1.695188457052564E-4   -3.783840267954559E-1    3.218465412456572E-1
 1.000575859080000E+10  -4.994161763845335E-1    4.632312247607284E-2    9.897014574382372E-5   -1.428098881687837E-4    1.049670376843606E-4   -1.404053289015748E-4   -3.778957287000795E-1    3.221693821473729E-1
 1.000576433100000E+10  -4.994873114335649E-1    4.678475463655001E-2    9.816906192878969E-5   -1.368614572695373E-4    1.003324199643772E-4   -1.390476230138091E-4   -3.776247407214918E-1    3.226887806695383E-1
 1.000577007120000E+10  -4.993920917194713E-1    4.708637310996149E-2    1.126737887167339E-4   -1.465369663652633E-4    9.450577915620602E-5   -9.020908675606441E-5   -3.773631449809833E-1    3.229836864417120E-1
 1.000577581140000E+10  -4.995127106292507E-1    4.760535729761482E-2    1.277273527005391E-4   -1.378802765730067E-4    9.263005168061833E-5   -1.165978485899570E-4   -3.769012538724473E-1    3.234468847362283E-1
 1.000578155160000E+10  -4.993537354819255E-1    4.777891756665164E-2    8.770374285471506E-5   -1.361763814724191E-4    1.056919532546333E-4   -1.013381258206697E-4   -3.767928540914093E-1    3.237859900454577E-1
 1.000578729180000E+10  -4.993559098194844E-1    4.802388163920217E-2    1.586746758410558E-4   -9.731798327370218E-5    1.244937093943446E-4   -1.044681264155975E-4   -3.764804565260771E-1    3.242243028118017E-1
 1.000579303200000E+10  -4.995219904540454E-1    4.850957360165231E-2    1.150951820204816E-4   -9.758963594877232E-5    1.469141606130038E-4   -1.073771397940828E-4   -3.760688055142032E-1    3.244315756508557E-1
 1.000579877220000E+10  -4.993223809346920E-1    4.895984232587759E-2    1.425304717457521E-4   -7.540885941326315E-5    1.280698967262804E-4   -8.641634435772724E-5   -3.757314050874751E-1    3.247697050710036E-1
 1.000580451240000E+10  -4.992880825857753E-1    4.936372017836772E-2    1.399087025893845E-4   -6.733587447174956E-5    1.590925312286734E-4   -9.826951968329396E-5   -3.754589049158956E-1    3.252149486026158E-1
 1.000581025260000E+10  -4.992573916204910E-1    4.955213554593341E-2    1.461534137825946E-4   -7.077255100645310E-5    1.396641762755933E-4   -9.679529023493374E-5   -3.750785413985075E-1    3.255065201053711E-1
 1.000581599280000E+10  -4.991923227486454E-1    5.008075446154334E-2    1.589212951162000E-4   -6.500257067223268E-5    1.794558886972565E-4   -3.180723051408010E-5   -3.747596187647962E-1    3.259217829356132E-1
 1.000582173300000E+10  -4.991755835559634E-1    5.036924623958700E-2    1.829364054729324E-4   -5.750180655383207E-5    1.865767366987501E-4   -1.923953816049183E-5   -3.744130000403036E-1    3.263872348511104E-1
 1.000582747320000E+10  -4.990626430495965E-1    5.075697151862939E-2    1.763429399691881E-4   -3.800831622739920E-5    1.832058508074287E-4   -6.023995373385555E-5   -3.743177548206461E-1    3.267131812273312E-1
 1.000583321340000E+10  -4.990893770323812E-1    5.126405204923841E-2    1.955992195746985E-4   -5.594864188498480E-5    1.916204221362990E-4   -1.675855226795296E-5   -3.739288827007907E-1    3.268050451303859E-1
 1.000583895360000E+10  -4.991644141108175E-1    5.147882507127040E-2    2.354418345555272E-4   -3.540569872918902E-5    2.028659614360738E-4   -8.092346895070767E-6   -3.734243216594254E-1    3.274226510383672E-1
 1.000584469380000E+10  -4.990795865632593E-1    5.184303545444494E-2    1.952895516608177E-4   -1.507662790451941E-5    1.967388092587207E-4   -2.314267051213332E-5   -3.731306152676557E-1    3.275899646916585E-1
 1.000585043400000E+10  -4.990216277520526E-1    5.231340013557415E-2    2.154441692744276E-4    1.972386017554254E-5    2.344369973664635E-4    2.668779112694829E-5   -3.727709541121269E-1    3.281132594747806E-1
