#  HZ   S   RI   R     50.00 
! Rohde & Schwarz Vector Network Analyzer 
! Rohde-Schwarz,ZNB20-2Port,1311601062101988,3.16
! Created: UTC 3/20/2024, 11:36:10 AM
! freq[Hz]                re:S11                  im:S11                  re:S21                  im:S21                  re:S12                  im:S12                  re:S22                  im:S22
 1.000633215100000E+10  -4.952316305343967E-1    8.372005129180866E-2    7.567156697193374E-4    1.189703559969432E-3    7.270272911566236E-4    1.184370367823223E-3   -3.446809481158477E-1    3.626834761947070E-1
 1.000633378032500E+10  -4.953364621492699E-1    8.371225643455875E-2    7.865478447096318E-4    1.191809323357006E-3    7.256818243466608E-4    1.204486641694630E-3   -3.444116186577877E-1    3.626437748267953E-1
 1.000633540965000E+10  -4.954038682445044E-1    8.385647789062453E-2    7.952817865126637E-4    1.194436906381842E-3    7.141211411674520E-4    1.243965693646321E-3   -3.442852938627530E-1    3.629444550179831E-1
 1.000633703897500E+10  -4.953363027320417E-1    8.396228574776189E-2    7.962972518823675E-4    1.229518525708469E-3    7.050437045267068E-4    1.219828975347790E-3   -3.442142854683246E-1    3.630085319730458E-1
 1.000633866830000E+10  -4.953190179488540E-1    8.409147533465923E-2    7.873706149412568E-4    1.220919065563142E-3    7.197112849445265E-4    1.244668522408920E-3   -3.440113182223157E-1    3.633310650593391E-1
 1.000634029762500E+10  -4.952744718279405E-1    8.414527271867255E-2    8.196909265669318E-4    1.218510415189887E-3    7.195491120862385E-4    1.286195403195275E-3   -3.437298145916707E-1    3.634182451005052E-1
 1.000634192695000E+10  -4.951456132741657E-1    8.425963862194158E-2    8.013267986047783E-4    1.253631269073120E-3    7.386007903312710E-4    1.248648993111748E-3   -3.435151608176269E-1    3.636300824058097E-1
 1.000634355627500E+10  -4.953005081243289E-1    8.437250751001475E-2    8.213302818318238E-4    1.277235609937861E-3    7.464796638520128E-4    1.299348691394530E-3   -3.432529048891894E-1    3.637576419101467E-1
 1.000634518560000E+10  -4.951406159342808E-1    8.450809880055354E-2    8.491395368203174E-4    1.267582612573002E-3    7.651557688168296E-4    1.294342866184308E-3   -3.431577834172824E-1    3.639410313562003E-1
 1.000634681492500E+10  -4.952250224896453E-1    8.456770496998124E-2    8.337506470620572E-4    1.301013865238195E-3    7.418494898548880E-4    1.278259581612823E-3   -3.431597380323919E-1    3.642243283851236E-1
 1.000634844425000E+10  -4.951549294968912E-1    8.484167238550905E-2    8.557979361656673E-4    1.303795714830620E-3    7.115116011210691E-4    1.305829989897453E-3   -3.427626636532481E-1    3.642822738408491E-1
 1.000635007357500E+10  -4.952568627549208E-1    8.488312962826677E-2    8.653012808061308E-4    1.287460274148253E-3    7.520730792010465E-4    1.309904601404816E-3   -3.426306010593718E-1    3.644532194217719E-1
 1.000635170290000E+10  -4.950844188727451E-1    8.497029982485788E-2    8.753448714217247E-4    1.363741771226333E-3    7.838482968591919E-4    1.329786050804974E-3   -3.424710807665269E-1    3.647921285170961E-1
 1.000635333222500E+10  -4.951985384170692E-1    8.516361327027340E-2    8.855817350845790E-4    1.349124352547425E-3    7.870614105971852E-4    1.371256819722848E-3   -3.422166235645950E-1    3.649000875390346E-1
 1.000635496155000E+10  -4.951607673323170E-1    8.536672749787087E-2    8.927592344179153E-4    1.340221609198111E-3    8.167475371447417E-4    1.369930650670177E-3   -3.421231703277062E-1    3.649095306135775E-1
 1.000635659087500E+10  -4.950457812216589E-1    8.547768912428683E-2    9.052954676801907E-4    1.351209046781393E-3    7.900994570230206E-4    1.375182260584208E-3   -3.418301836032441E-1    3.651365027847262E-1
 1.000635822020000E+10  -4.952050493173399E-1    8.552671622745318E-2    8.862181655616063E-4    1.380011623040684E-3    8.442147855599096E-4    1.400086877889172E-3   -3.415959290554014E-1    3.653494001685770E-1
 1.000635984952500E+10  -4.952066505271600E-1    8.557720382362959E-2    9.389424171622720E-4    1.416746971608924E-3    8.502604756577183E-4    1.413780652552385E-3   -3.414331193287051E-1    3.655589550905392E-1
 1.000636147885000E+10  -4.949935814996121E-1    8.572217219438713E-2    9.679475138833116E-4    1.396133005609258E-3    8.451722048275319E-4    1.435120387542260E-3   -3.413295751220596E-1    3.656463666297612E-1
 1.000636310817500E+10  -4.949256318398368E-1    8.575068493516737E-2    9.321053424958756E-4    1.410320441253009E-3    8.724933959181367E-4    1.434129860054789E-3   -3.410751913331382E-1    3.657848074363039E-1
 1.000636473750000E+10  -4.951277959799290E-1    8.582441302040698E-2    9.670341991111568E-4    1.431295662185543E-3    8.435286424584799E-4    1.433103953512820E-3   -3.408821813233604E-1    3.660165288757194E-1
 1.000636636682500E+10  -4.950329233749625E-1    8.613932229830656E-2    9.697445555918529E-4    1.435445564769422E-3    8.715623430457511E-4    1.469814477796433E-3   -3.407205244086514E-1    3.662774515051123E-1
 1.000636799615000E+10  -4.949271265309779E-1    8.606567569641503E-2    9.733933985344536E-4    1.448571341883682E-3    8.832740290423438E-4    1.482068835298450E-3   -3.405238751831081E-1    3.663873285851713E-1
 1.000636962547500E+10  -4.950168456610436E-1    8.627319744047564E-2    9.979266200887470E-4    1.466213753458641E-3    9.174162133005058E-4    1.490485438650974E-3   -3.401505218163082E-1    3.665915208054603E-1
 1.000637125480000E+10  -4.948823512003868E-1    8.624961867588592E-2    1.028036831079495E-3    1.476124415541754E-3    8.749361605853146E-4    1.499095980483632E-3   -3.400200376797771E-1    3.667328997930923E-1
 1.000637288412500E+10  -4.948156823690542E-1    8.643660841897786E-2    1.017326881914583E-3    1.493997082120909E-3    9.056123947355245E-4    1.517621520377948E-3   -3.398371004009479E-1    3.668992566450307E-1
 1.000637451345000E+10  -4.947561257906086E-1    8.657531164875522E-2    1.012982855379134E-3    1.492104793474529E-3    9.506894394193838E-4    1.566466413485998E-3   -3.396111707883952E-1    3.671009695661676E-1
 1.000637614277500E+10  -4.949469108077058E-1    8.658344753774259E-2    1.016267050375145E-3    1.525686682931516E-3    9.410436936705258E-4    1.547047569005793E-3   -3.395286680752487E-1    3.673558228688721E-1
 1.000637777210000E+10  -4.948430317790226E-1    8.673356208055669E-2    1.043062099131294E-3    1.527643388773828E-3    9.625677987533656E-4    1.568719986959072E-3   -3.391360217016381E-1    3.675001512050144E-1
 1.000637940142500E+10  -4.949841461362098E-1    8.686273396681005E-2    1.043209069548396E-3    1.549175540604401E-3    9.720348286157550E-4    1.587509703861224E-3   -3.389377862715494E-1    3.676070304640199E-1
 1.000638103075000E+10  -4.948573156621237E-1    8.692625991736413E-2    1.052695760918829E-3    1.583517860494783E-3    9.619383168674913E-4    1.594491457670434E-3   -3.386906711679619E-1    3.678857062046543E-1
 1.000638266007500E+10  -4.947713119551348E-1    8.693407944210337E-2    1.084550598496944E-3    1.602873677878036E-3    1.008362111878024E-3    1.592024325364906E-3   -3.385856590856142E-1    3.680692218259423E-1
 1.000638428940000E+10  -4.946913480423653E-1    8.713966353918368E-2    1.092890073994603E-3    1.610707730461607E-3    9.804102680217306E-4    1.619710982271465E-3   -3.382164132060616E-1    3.682975009962639E-1
 1.000638591872500E+10  -4.947831199919992E-1    8.724187831805869E-2    1.128299801996992E-3    1.637513967310283E-3    1.032995240675531E-3    1.643941366689586E-3   -3.381050421401957E-1    3.685974681494951E-1
 1.000638754805000E+10  -4.948982620031347E-1    8.738069849958140E-2    1.125770052938418E-3    1.628287954118405E-3    1.024920260276761E-3    1.658986009494086E-3   -3.379752540115166E-1    3.687832616103000E-1
 1.000638917737500E+10  -4.947769273992036E-1    8.755268318489419E-2    1.122690804772405E-3    1.640429116057287E-3    1.028408927807651E-3    1.671093680553223E-3   -3.376654573784285E-1    3.689407665629190E-1
 1.000639080670000E+10  -4.948481029554718E-1    8.750078735781235E-2    1.153305963457907E-3    1.667351945813228E-3    1.035082353338482E-3    1.706471439148682E-3   -3.373553370762675E-1    3.691213760162140E-1
 1.000639243602500E+10  -4.946571891589968E-1    8.760795417237591E-2    1.170122023816875E-3    1.684704182750457E-3    1.046451983765971E-3    1.682769761305687E-3   -3.371554285821003E-1    3.692834604382766E-1
 1.000639406535000E+10  -4.947285957112149E-1    8.781977337688769E-2    1.171356690544620E-3    1.723600099646512E-3    1.070116633666436E-3    1.764002858791915E-3   -3.369220774005625E-1    3.695146203926352E-1
 1.000639569467500E+10  -4.947175339049981E-1    8.778778980685169E-2    1.210573199677999E-3    1.727674825793441E-3    1.107520844333440E-3    1.711499023987594E-3   -3.367080249014157E-1    3.697901297554437E-1
 1.000639732400000E+10  -4.947540300823781E-1    8.802498025737518E-2    1.221628343279481E-3    1.730621584741456E-3    1.097521205265965E-3    1.749311191865623E-3   -3.364152185184759E-1    3.699530599323639E-1
 1.000639895332500E+10  -4.947000260490774E-1    8.810785964261449E-2    1.225869297592263E-3    1.771412485338782E-3    1.084714003590144E-3    1.770637181514937E-3   -3.363499157147116E-1    3.700708893770285E-1
 1.000640058265000E+10  -4.947202632601391E-1    8.817845013208234E-2    1.231155454992435E-3    1.763913318882877E-3    1.139038488960499E-3    1.784600139345244E-3   -3.359874135370669E-1    3.703740388807129E-1
 1.000640221197500E+10  -4.945969714707744E-1    8.836177246470836E-2    1.249582421674203E-3    1.780314946193380E-3    1.131127526756098E-3    1.796960922573371E-3   -3.357678333304092E-1    3.705193809479544E-1
 1.000640384130000E+10  -4.945623502635367E-1    8.843016840681271E-2    1.255042598372102E-3    1.803007207577251E-3    1.152233166592198E-3    1.810326983254971E-3   -3.355045860820061E-1    3.707564952895950E-1
 1.000640547062500E+10  -4.946349617730920E-1    8.863267151704643E-2    1.279547968987035E-3    1.825351458930349E-3    1.171287305989785E-3    1.831495021081000E-3   -3.352276182527796E-1    3.709875396393104E-1
 1.000640709995000E+10  -4.946650788203525E-1    8.865282373236233E-2    1.255097358862878E-3    1.860870087421400E-3    1.142199505847742E-3    1.855071841127682E-3   -3.349562994296706E-1    3.711643195412418E-1
 1.000640872927500E+10  -4.946903096386024E-1    8.873018235630109E-2    1.313838026795275E-3    1.868706046411594E-3    1.201270292409144E-3    1.885651076803594E-3   -3.347372687550431E-1    3.713675946641721E-1
 1.000641035860000E+10  -4.945990445747125E-1    8.892945598701915E-2    1.281904007852251E-3    1.886282791429294E-3    1.182148898700243E-3    1.901529823156930E-3   -3.343115759480785E-1    3.716705636439318E-1
 1.000641198792500E+10  -4.945416178844539E-1    8.901948293600780E-2    1.311840465870344E-3    1.891805587538300E-3    1.251269434458690E-3    1.921008380111154E-3   -3.342132551274915E-1    3.717419597852964E-1
 1.000641361725000E+10  -4.945495574749098E-1    8.890234766707950E-2    1.334581103380880E-3    1.919391827357333E-3    1.243582325558565E-3    1.946894282006648E-3   -3.340293427049302E-1    3.719134610122065E-1
 1.000641524657500E+10  -4.944962469569803E-1    8.925529542389461E-2    1.381372821324862E-3    1.932702135177362E-3    1.212844261118222E-3    1.965705029479213E-3   -3.336324094034632E-1    3.722739097750429E-1
 1.000641687590000E+10  -4.944224021406321E-1    8.937132779470906E-2    1.379936472769890E-3    1.948671255277344E-3    1.262022108629306E-3    1.977608899178027E-3   -3.334221324597854E-1    3.723827189763063E-1
 1.000641850522500E+10  -4.943953768508356E-1    8.943165953315983E-2    1.382225662168272E-3    1.949673589798771E-3    1.238356510294480E-3    1.985261388311385E-3   -3.330419086222914E-1    3.725163672763631E-1
 1.000642013455000E+10  -4.944386483131852E-1    8.954263122594849E-2    1.401278533398873E-3    1.968773212436468E-3    1.294268803618367E-3    2.016971593066715E-3   -3.329275562062576E-1    3.729785672051986E-1
 1.000642176387500E+10  -4.946525053793315E-1    8.958059694340256E-2    1.436836550050631E-3    1.986816143256377E-3    1.305717649767924E-3    2.047472228803823E-3   -3.325857206820387E-1    3.730779503318598E-1
 1.000642339320000E+10  -4.944392622547526E-1    8.974995216493981E-2    1.453882470859854E-3    2.027076459741799E-3    1.319254701008502E-3    2.052840292446251E-3   -3.321183726608250E-1    3.734350808641157E-1
 1.000642502252500E+10  -4.943767144459968E-1    8.981515818256522E-2    1.469857689089595E-3    2.025562763900782E-3    1.336102020403575E-3    2.081050321079659E-3   -3.319587654380666E-1    3.736022244601019E-1
 1.000642665185000E+10  -4.942763885494880E-1    8.991058628266164E-2    1.461608360054508E-3    2.053038561921532E-3    1.342709388018584E-3    2.063189601884596E-3   -3.316608176979405E-1    3.737237374386882E-1
 1.000642828117500E+10  -4.943292514827360E-1    9.016798939343434E-2    1.488389002066919E-3    2.096453202942979E-3    1.382802584262747E-3    2.095725053578034E-3   -3.313336496142550E-1    3.739953104927165E-1
 1.000642991050000E+10  -4.943233877937884E-1    9.011075739661367E-2    1.515999355318471E-3    2.133615050639901E-3    1.390539230394655E-3    2.138951920217587E-3   -3.309722591580573E-1    3.742177928926581E-1
 1.000643153982500E+10  -4.943648715454023E-1    9.021220527227705E-2    1.524022323431751E-3    2.164053387046620E-3    1.414490025778830E-3    2.155609702363870E-3   -3.308237239883695E-1    3.744269781192450E-1
 1.000643316915000E+10  -4.943379128017421E-1    9.042470458025223E-2    1.569904589285949E-3    2.149393128744016E-3    1.437980963146263E-3    2.180104961425855E-3   -3.305469708757505E-1    3.748747396119416E-1
 1.000643479847500E+10  -4.943034882140802E-1    9.048523918640966E-2    1.601860680338413E-3    2.146353588229040E-3    1.432339239814325E-3    2.202674056045021E-3   -3.302143580320214E-1    3.749450911462237E-1
 1.000643642780000E+10  -4.943189597988784E-1    9.057993837498031E-2    1.603398421778961E-3    2.225413955161762E-3    1.481597003272447E-3    2.241976130601841E-3   -3.299468333600509E-1    3.750524768127221E-1
 1.000643805712500E+10  -4.942770963781114E-1    9.081919565253524E-2    1.640566297550644E-3    2.234567619860632E-3    1.501767025368623E-3    2.248300509861644E-3   -3.295292179741051E-1    3.753679531875670E-1
 1.000643968645000E+10  -4.941526079390768E-1    9.089251852504093E-2    1.670421007904748E-3    2.266028600331045E-3    1.516874887316139E-3    2.302383178246836E-3   -3.291118471515585E-1    3.755766579936859E-1
 1.000644131577500E+10  -4.942450477653508E-1    9.096868194922461E-2    1.676859619864542E-3    2.246286262695075E-3    1.512262207550665E-3    2.302944483458733E-3   -3.289177587996248E-1    3.757832994800132E-1
 1.000644294510000E+10  -4.941654738952787E-1    9.104483818455410E-2    1.712468188424485E-3    2.284055309789931E-3    1.559453152317054E-3    2.331539982225733E-3   -3.287257132430986E-1    3.761084099087568E-1
 1.000644457442500E+10  -4.942068375863639E-1    9.103555306810286E-2    1.699961310230702E-3    2.322935598464116E-3    1.537778599899365E-3    2.318609983533926E-3   -3.283182443271864E-1    3.762848543810841E-1
 1.000644620375000E+10  -4.941448488655143E-1    9.127001366241587E-2    1.741355220064193E-3    2.357139384903935E-3    1.576402129729309E-3    2.374059437039483E-3   -3.278582868767462E-1    3.766578881814610E-1
 1.000644783307500E+10  -4.941678860888613E-1    9.130477360243404E-2    1.763271467564581E-3    2.394152267456751E-3    1.618781152996540E-3    2.413122889803421E-3   -3.275232490167067E-1    3.769846606864610E-1
 1.000644946240000E+10  -4.939212083140584E-1    9.151745849776587E-2    1.777038702098661E-3    2.393800892206986E-3    1.639318711416662E-3    2.443505020370659E-3   -3.272306661477912E-1    3.771593667013890E-1
 1.000645109172500E+10  -4.941364073387584E-1    9.159250023680644E-2    1.833541859145972E-3    2.431173458337243E-3    1.645234388942675E-3    2.435979847512700E-3   -3.269170090741273E-1    3.774231877478431E-1
 1.000645272105000E+10  -4.940175620476280E-1    9.166905692037265E-2    1.832307936686435E-3    2.431165160300384E-3    1.676376115078784E-3    2.472473167846668E-3   -3.265571739819194E-1    3.776207106169368E-1
 1.000645435037500E+10  -4.940756025049279E-1    9.184462185164459E-2    1.844958105278828E-3    2.474054820333370E-3    1.687439953221920E-3    2.512303855928578E-3   -3.261431741019493E-1    3.781364864336866E-1
 1.000645597970000E+10  -4.941037005342601E-1    9.202745509895358E-2    1.893280867007521E-3    2.487733891034316E-3    1.738659156109751E-3    2.503902331819818E-3   -3.257005789153065E-1    3.781604710409273E-1
 1.000645760902500E+10  -4.941082344199775E-1    9.197017704146936E-2    1.913608587742099E-3    2.538990270328468E-3    1.725801340626284E-3    2.579293737874584E-3   -3.253094969196715E-1    3.783530459114930E-1
 1.000645923835000E+10  -4.939972024737092E-1    9.219460090787140E-2    1.935820093484219E-3    2.567857313755708E-3    1.758489733623505E-3    2.586986673281818E-3   -3.250089251235684E-1    3.785988185884894E-1
 1.000646086767500E+10  -4.940480985067784E-1    9.231274418426091E-2    1.965802271949731E-3    2.584138371275976E-3    1.787739052954766E-3    2.608310041744097E-3   -3.247507608323572E-1    3.790916221645430E-1
 1.000646249700000E+10  -4.939134631175001E-1    9.238733166881627E-2    1.996120561927996E-3    2.598565323035204E-3    1.819425968970086E-3    2.657074987164653E-3   -3.242322943977801E-1    3.793197704710307E-1
 1.000646412632500E+10  -4.940020412360431E-1    9.236216972957838E-2    2.008466317643653E-3    2.610617186478578E-3    1.849424655279698E-3    2.672390704062637E-3   -3.237764993069898E-1    3.794704121698577E-1
 1.000646575565000E+10  -4.939093633712238E-1    9.252649855803925E-2    2.031145868883102E-3    2.665370582514629E-3    1.864648589610977E-3    2.679160486186040E-3   -3.235476186483611E-1    3.798602989819829E-1
 1.000646738497500E+10  -4.940312760390146E-1    9.272209773279884E-2    2.071478429671182E-3    2.691775141882862E-3    1.895875446389294E-3    2.673606838458935E-3   -3.230271535173382E-1    3.800184527492009E-1
 1.000646901430000E+10  -4.938717277668254E-1    9.269754084450661E-2    2.093544855070523E-3    2.723772919368303E-3    1.937232345941861E-3    2.741430452508149E-3   -3.226366654036894E-1    3.803540431243119E-1
 1.000647064362500E+10  -4.940301394790805E-1    9.294078022159974E-2    2.137862134831209E-3    2.767707311542941E-3    1.954336447910019E-3    2.803881058907605E-3   -3.222429715868013E-1    3.806782830383894E-1
 1.000647227295000E+10  -4.938331074068866E-1    9.306785946467608E-2    2.136177688078149E-3    2.792254044443289E-3    1.973674869146935E-3    2.834153815121664E-3   -3.215829855772299E-1    3.808633539790204E-1
 1.000647390227500E+10  -4.938098726168529E-1    9.307881707211839E-2    2.175385389520913E-3    2.824615610267006E-3    1.993899820538513E-3    2.837164621225208E-3   -3.214216773194742E-1    3.812133433382103E-1
 1.000647553160000E+10  -4.938679699123030E-1    9.308629320331455E-2    2.217620504212617E-3    2.814044653091598E-3    2.008365016243821E-3    2.864696440944108E-3   -3.208065993237046E-1    3.814758587942030E-1
 1.000647716092500E+10  -4.936638853555769E-1    9.326785194051886E-2    2.277734188465112E-3    2.878628176129073E-3    2.093361845038523E-3    2.912654290289874E-3   -3.204417301865642E-1    3.817681799872796E-1
 1.000647879025000E+10  -4.938422838049452E-1    9.347960184332472E-2    2.303351632101022E-3    2.912520617880195E-3    2.112944577114469E-3    2.955089602643408E-3   -3.199996099392758E-1    3.821328130017211E-1
