#  HZ   S   RI   R     50.00 
! Rohde & Schwarz Vector Network Analyzer 
! Rohde-Schwarz,ZNB20-2Port,1311601062101988,3.16
! Created: UTC 3/20/2024, 11:58:32 AM
! freq[Hz]                re:S11                  im:S11                  re:S21                  im:S21                  re:S12                  im:S12                  re:S22                  im:S22
 1.000539579400000E+10  -5.002712033138746E-1    2.255553735347425E-2   -1.348695292564054E-4   -5.594437179178037E-4   -1.265482125657434E-4   -5.291273494768715E-4   -3.948503792607527E-1    3.003265924659924E-1
 1.000540130707500E+10  -5.004347851956478E-1    2.301145886885228E-2   -1.422344761545852E-4   -5.327738497171294E-4   -1.172932570214015E-4   -5.542973687503979E-4   -3.945883924337545E-1    3.006504019023569E-1
 1.000540682015000E+10  -5.002578177959438E-1    2.330138213519828E-2   -1.253164595488687E-4   -5.343571913857083E-4   -9.112105022637343E-5   -5.051391005855905E-4   -3.942829348598478E-1    3.010181863269724E-1
 1.000541233322500E+10  -5.004002766105824E-1    2.382505027284799E-2   -1.372222755492282E-4   -5.329826971335201E-4   -1.025017340385206E-4   -5.222090890828605E-4   -3.940506804950212E-1    3.013654995347215E-1
 1.000541784630000E+10  -5.003849560108699E-1    2.409899577187051E-2   -1.603791593226614E-4   -5.184714370636740E-4   -1.115672343212069E-4   -5.029344602958579E-4   -3.939094333289197E-1    3.016908471711429E-1
 1.000542335937500E+10  -5.003718417502141E-1    2.444238244587228E-2   -1.164854032771247E-4   -5.164051037661077E-4   -1.091100433252468E-4   -5.028097256957135E-4   -3.936552155551257E-1    3.021604004307437E-1
 1.000542887245000E+10  -5.003502607824809E-1    2.489709186700052E-2   -1.338796789766290E-4   -5.362277189959321E-4   -1.068933785718089E-4   -5.381145053881165E-4   -3.933945001189922E-1    3.021699686264313E-1
 1.000543438552500E+10  -5.003924566071581E-1    2.522044799143658E-2   -1.354781871056082E-4   -4.789045319639780E-4   -1.270782720724614E-4   -4.778637293456602E-4   -3.933969715973861E-1    3.026550774115994E-1
 1.000543989860000E+10  -5.002921578119387E-1    2.542810562241822E-2   -1.533605099094166E-4   -4.741309269739257E-4   -1.048374080901628E-4   -5.148017981184397E-4   -3.930238902900730E-1    3.030573145058936E-1
 1.000544541167500E+10  -5.002423869910326E-1    2.592714357121931E-2   -1.187234680140354E-4   -4.969268893089654E-4   -8.018695925729464E-5   -5.186045837657933E-4   -3.927067883426996E-1    3.032568219613427E-1
 1.000545092475000E+10  -5.001960633828019E-1    2.623738488424463E-2   -1.390311477331488E-4   -5.058595964253764E-4   -8.146994241998842E-5   -4.816443470473449E-4   -3.924742043664158E-1    3.035193475851500E-1
 1.000545643782500E+10  -5.002582120201939E-1    2.664586953752346E-2   -1.356020998457945E-4   -5.098416789040140E-4   -8.523865180051066E-5   -4.800618548747011E-4   -3.922573818555906E-1    3.038128129618528E-1
 1.000546195090000E+10  -5.003225642616791E-1    2.694568726127346E-2   -1.430309691049982E-4   -4.779315952512330E-4   -9.698794869261024E-5   -5.224591430188421E-4   -3.920228162515104E-1    3.042020521324302E-1
 1.000546746397500E+10  -5.002501485583539E-1    2.721688422859919E-2   -1.273112786596361E-4   -4.896838538276956E-4   -1.063622879819569E-4   -4.681947925974036E-4   -3.917780868939206E-1    3.045742318160995E-1
 1.000547297705000E+10  -5.002504594017979E-1    2.766055826500005E-2   -1.141553937708342E-4   -4.805117336878242E-4   -1.210887928460598E-4   -4.989726848737917E-4   -3.916752359837080E-1    3.048395225866541E-1
 1.000547849012500E+10  -5.002701183584722E-1    2.794382742036496E-2   -9.749562232176271E-5   -4.569287005273583E-4   -8.353883425066460E-5   -4.779819446258390E-4   -3.913815578340604E-1    3.050772802606859E-1
 1.000548400320000E+10  -5.001666437152732E-1    2.833849342569827E-2   -1.153947797390789E-4   -4.619213877746189E-4   -9.151318715590982E-5   -4.228171970225318E-4   -3.912048051971727E-1    3.054769739083012E-1
 1.000548951627500E+10  -5.002323564979788E-1    2.871364976316418E-2   -1.126525525830499E-4   -4.528622270195962E-4   -1.155809869545851E-4   -4.629327437870187E-4   -3.909114931522856E-1    3.057821186391335E-1
 1.000549502935000E+10  -5.003759991319192E-1    2.912037214729641E-2   -1.032036832196803E-4   -4.702813380540022E-4   -8.641830456119672E-5   -4.612617132576022E-4   -3.907151960998101E-1    3.062091852993223E-1
 1.000550054242500E+10  -5.002225218876420E-1    2.957767269754820E-2   -1.086761637383361E-4   -4.235211004524379E-4   -8.237095561404815E-5   -4.565158742326906E-4   -3.902844994471623E-1    3.065984838095703E-1
 1.000550605550000E+10  -5.002180226000760E-1    2.972874599562562E-2   -8.172474391841739E-5   -4.706161571625820E-4   -1.046681487020352E-4   -4.552758018738154E-4   -3.901608087937862E-1    3.068908883788930E-1
 1.000551156857500E+10  -5.001514624677275E-1    3.022357793000313E-2   -1.034436824619247E-4   -4.159723081505228E-4   -7.980947163935834E-5   -4.537618305931879E-4   -3.899471198089744E-1    3.070538972299436E-1
 1.000551708165000E+10  -5.001685692867258E-1    3.054385536421969E-2   -1.136179994135918E-4   -4.098017817860992E-4   -6.764094643637141E-5   -4.071370816959559E-4   -3.898085298255374E-1    3.074998978773956E-1
 1.000552259472500E+10  -5.002185748146348E-1    3.096984374698320E-2   -9.293698743906956E-5   -4.518645954230854E-4   -7.460978271733516E-5   -4.338026511538840E-4   -3.894288514893219E-1    3.077586410416203E-1
 1.000552810780000E+10  -5.002426316243146E-1    3.133886059645466E-2   -9.231243684805693E-5   -4.309092727318013E-4   -6.951819273274374E-5   -4.157775552880618E-4   -3.893005632088579E-1    3.081420494044825E-1
 1.000553362087500E+10  -5.000630374402079E-1    3.156148787714527E-2   -7.913742007453817E-5   -4.216953317418066E-4   -6.358273155138574E-5   -4.211062014550278E-4   -3.890120053592017E-1    3.084809908626581E-1
 1.000553913395000E+10  -5.000836809864182E-1    3.197352860559072E-2   -9.774280368300982E-5   -4.138439933996176E-4   -7.747259999160541E-5   -4.051725223121875E-4   -3.886850567766895E-1    3.088418640456952E-1
 1.000554464702500E+10  -5.000851270258385E-1    3.236869063822994E-2   -1.070161511652090E-4   -3.937336956299248E-4   -9.528979973197161E-5   -4.327707495215025E-4   -3.884618724727643E-1    3.090690684039246E-1
 1.000555016010000E+10  -5.001331257342829E-1    3.273855386289352E-2   -8.209932471492506E-5   -4.002467462432579E-4   -6.586700034905740E-5   -4.361193550573351E-4   -3.883024247130105E-1    3.095864290723237E-1
 1.000555567317500E+10  -5.001936681840499E-1    3.305874924409239E-2   -7.761036685198539E-5   -4.283674729129394E-4   -8.601968242677806E-5   -3.944249922676205E-4   -3.879648980844821E-1    3.097989030537887E-1
 1.000556118625000E+10  -5.001107343640721E-1    3.332330149263057E-2   -6.953664446816538E-5   -4.535106197041677E-4   -5.057804011153516E-5   -3.875176449761207E-4   -3.878656545413193E-1    3.100689850201619E-1
 1.000556669932500E+10  -5.001059532819929E-1    3.376127531938270E-2   -7.142074152486475E-5   -4.030012931478275E-4   -6.574128706756402E-5   -4.144669805271488E-4   -3.875855711028531E-1    3.104505183297921E-1
 1.000557221240000E+10  -5.001145900571331E-1    3.420193226810467E-2   -5.659263489791297E-5   -3.808982601335395E-4   -2.059263747622002E-5   -4.087748210537217E-4   -3.871723523996749E-1    3.107766067489602E-1
 1.000557772547500E+10  -5.000255584638954E-1    3.461957164029780E-2   -6.616521292160812E-5   -3.947244116156593E-4   -4.275349751730248E-5   -3.662972104231994E-4   -3.870772422369207E-1    3.111609772908147E-1
 1.000558323855000E+10  -5.001034431571885E-1    3.496994901289139E-2   -7.329444281732708E-5   -3.949419932137486E-4   -5.968299261933919E-5   -3.877047767229329E-4   -3.867674409069087E-1    3.113465870308694E-1
 1.000558875162500E+10  -5.000356393394786E-1    3.532085931386445E-2   -7.579847891823497E-5   -3.609474465502255E-4   -4.687489918526058E-5   -3.673472250037602E-4   -3.864494602406147E-1    3.117795065880214E-1
 1.000559426470000E+10  -5.000063895039695E-1    3.555488362820626E-2   -3.601739087321977E-5   -3.647896204052070E-4   -4.046133926398814E-5   -3.633076162463426E-4   -3.862262134255200E-1    3.121200088311321E-1
 1.000559977777500E+10  -4.998532501170080E-1    3.575984831614463E-2   -5.357098065386074E-5   -3.633979933465126E-4   -2.297776349542119E-5   -3.603853373087820E-4   -3.859749172946313E-1    3.124319601605767E-1
 1.000560529085000E+10  -4.999332203754139E-1    3.628378341304481E-2   -5.712027831756771E-5   -3.492019953087803E-4   -5.311527382619478E-5   -3.492560215865377E-4   -3.857997202774251E-1    3.126848786818168E-1
 1.000561080392500E+10  -5.000254942185891E-1    3.671504029463945E-2   -8.670573556720550E-5   -3.527013581668589E-4   -2.860177544795248E-5   -3.552629579603740E-4   -3.854779015475462E-1    3.130373818679456E-1
 1.000561631700000E+10  -4.999539728983281E-1    3.714685696838591E-2   -5.207913877170945E-5   -3.484679285219105E-4   -3.691260945894074E-5   -3.672315093754901E-4   -3.852347666040954E-1    3.133717852758837E-1
 1.000562183007500E+10  -4.999013563787444E-1    3.740934049082740E-2   -3.744557281138154E-5   -3.601129631935289E-4   -5.172129793383989E-5   -3.309716667458762E-4   -3.849513034395813E-1    3.137867448203334E-1
 1.000562734315000E+10  -4.998217680737193E-1    3.775526733847022E-2   -3.304460018896661E-5   -3.468006591112544E-4   -5.511168167305867E-5   -3.474316178902871E-4   -3.847789615605813E-1    3.140513844125259E-1
 1.000563285622500E+10  -4.999113757430972E-1    3.807499698223112E-2   -4.149088993454923E-5   -3.148322531340638E-4   -1.725722366640456E-5   -3.327775203549543E-4   -3.843600252175480E-1    3.145369239451094E-1
 1.000563836930000E+10  -4.999188831029697E-1    3.853108360248705E-2   -2.232091236798926E-5   -3.086176486335525E-4   -3.229032766987554E-5   -3.042867572599767E-4   -3.841796846256069E-1    3.148538543118935E-1
 1.000564388237500E+10  -4.999017558604533E-1    3.880998276129424E-2   -2.359348705828868E-5   -3.408290701431037E-4   -4.157005427303330E-5   -3.150744772086911E-4   -3.840266843536158E-1    3.152855762267328E-1
 1.000564939545000E+10  -4.998631288495620E-1    3.902919495639981E-2   -4.636252768075510E-5   -2.876876476465679E-4    3.650941466957674E-6   -3.370238877497217E-4   -3.839148939316857E-1    3.153738029739026E-1
 1.000565490852500E+10  -4.998928139294616E-1    3.957579956960270E-2   -3.290501742085499E-5   -3.274166969461951E-4   -2.720907749997419E-6   -3.153006643110320E-4   -3.835325047491553E-1    3.157856404496579E-1
 1.000566042160000E+10  -4.998178087616238E-1    3.991887484168798E-2   -2.682213181658062E-6   -3.051727995203116E-4   -4.924289930076419E-7   -3.206181145033805E-4   -3.829449716290540E-1    3.162498000420070E-1
 1.000566593467500E+10  -4.997474769961763E-1    4.030006610052830E-2   -3.675894530624931E-5   -2.998484143332216E-4   -2.571719719882893E-7   -3.161798656077031E-4   -3.828586726694738E-1    3.164463968980691E-1
 1.000567144775000E+10  -4.997882978100327E-1    4.057865717074055E-2   -5.849645347799504E-7   -2.876836874536832E-4    4.079562673062324E-6   -2.603021780203201E-4   -3.825592484446611E-1    3.168768062039920E-1
 1.000567696082500E+10  -4.996571834342640E-1    4.100445076261130E-2   -3.554328295926308E-6   -2.620568002514139E-4   -1.674499593368969E-5   -2.536874401943617E-4   -3.823953639668989E-1    3.171973230747533E-1
 1.000568247390000E+10  -4.997767737133828E-1    4.136377764845339E-2    1.949932533692909E-6   -2.895074190373582E-4    3.370895914658831E-5   -3.094925186439566E-4   -3.820698767509139E-1    3.173245749885755E-1
 1.000568798697500E+10  -4.996312032509977E-1    4.177197734548023E-2    3.156603295267647E-5   -2.787382394290494E-4    1.676401290411000E-5   -2.342956750382195E-4   -3.818755278204262E-1    3.177915657971607E-1
 1.000569350005000E+10  -4.995877901911177E-1    4.201318030711776E-2    4.331172317919621E-5   -2.665568566884125E-4    1.523949243563130E-5   -2.558249514381750E-4   -3.816161712015255E-1    3.181711585717037E-1
 1.000569901312500E+10  -4.997390777443715E-1    4.243561257037054E-2    1.761494072727497E-5   -2.494500559480391E-4    3.943905672847068E-5   -2.594579781119279E-4   -3.813899057451783E-1    3.184972059833586E-1
 1.000570452620000E+10  -4.996222145461914E-1    4.280126775514211E-2    5.053232993076233E-5   -2.370319886472744E-4    2.710695493105815E-5   -2.243626913203514E-4   -3.809411899429257E-1    3.187507687414651E-1
 1.000571003927500E+10  -4.997037465170091E-1    4.306553406406589E-2    1.851621821378293E-5   -2.580203170772285E-4    3.578389539647528E-5   -2.118616055562800E-4   -3.808938460186498E-1    3.190539557833753E-1
 1.000571555235000E+10  -4.997209502413805E-1    4.347067969151165E-2    1.764036030156055E-5   -2.050345605736688E-4    4.674631099753925E-5   -2.293157014276393E-4   -3.804371155876927E-1    3.194156773171484E-1
 1.000572106542500E+10  -4.995901455652566E-1    4.388272358879460E-2    2.098224256903162E-5   -2.239314753990342E-4    3.930280194257625E-5   -2.335659835146108E-4   -3.802319507438446E-1    3.197834947478666E-1
 1.000572657850000E+10  -4.995693078889306E-1    4.405714140019212E-2    3.981381671322177E-5   -2.222683921227249E-4    8.318999182599000E-5   -2.203227057491153E-4   -3.800062008087488E-1    3.201099861057567E-1
 1.000573209157500E+10  -4.995079807920487E-1    4.461713259642721E-2    5.158136337860332E-5   -2.215261090183960E-4    5.056558580346459E-5   -2.094234135216923E-4   -3.797110332135551E-1    3.205543385038154E-1
 1.000573760465000E+10  -4.995253082841749E-1    4.493868820618369E-2    6.864834800096123E-5   -1.924594130089966E-4    3.950443524557980E-5   -2.136600303471485E-4   -3.793673432424008E-1    3.208069704048268E-1
 1.000574311772500E+10  -4.995150441947840E-1    4.530336849814164E-2    4.653016211866737E-5   -2.240593281390369E-4    6.751558254234420E-5   -2.020573943944088E-4   -3.789774827795740E-1    3.211010384418445E-1
 1.000574863080000E+10  -4.994195097492408E-1    4.566818251078571E-2    4.506808266491313E-5   -1.669166429696454E-4    6.034479410364537E-5   -1.837041655385370E-4   -3.787701061475419E-1    3.215151860719888E-1
 1.000575414387500E+10  -4.995796555177293E-1    4.608142013942115E-2    5.973999333966731E-5   -1.995427139653294E-4    6.014011498506612E-5   -1.371820077536810E-4   -3.785912883082643E-1    3.218860277584060E-1
 1.000575965695000E+10  -4.992800760856473E-1    4.625517071230462E-2    5.189414803469744E-5   -1.994107439794274E-4    5.610294483237138E-5   -1.109951388881184E-4   -3.781815864883377E-1    3.222893276322484E-1
 1.000576517002500E+10  -4.993870552586572E-1    4.664955664813249E-2    7.911455576908271E-5   -1.368384595492080E-4    7.438816467288193E-5   -1.451713095200048E-4   -3.779764881697379E-1    3.226278974849675E-1
 1.000577068310000E+10  -4.994883371859311E-1    4.703449322157250E-2    7.900137656134597E-5   -1.362977623440795E-4    8.965488886466299E-5   -1.602888580097471E-4   -3.776307081895053E-1    3.229086810088281E-1
 1.000577619617500E+10  -4.993797970386720E-1    4.733780004373068E-2    9.025177279580819E-5   -1.459191504938670E-4    6.298789847867098E-5   -1.405529170980457E-4   -3.774934346636725E-1    3.232720707381687E-1
 1.000578170925000E+10  -4.993525261723197E-1    4.773735751783775E-2    1.049586696793294E-4   -1.254827392911569E-4    9.639641421602425E-5   -1.430841203902876E-4   -3.770839333099567E-1    3.235162700914185E-1
 1.000578722232500E+10  -4.992792283661454E-1    4.811605044651088E-2    1.112618717897195E-4   -1.303177895811154E-4    8.001669610313581E-5   -9.545347880060430E-5   -3.767580656188670E-1    3.238475621007277E-1
 1.000579273540000E+10  -4.992327588664265E-1    4.860411594854278E-2    1.071653991476526E-4   -1.240779249794831E-4    6.822228345709503E-5   -1.125217354776148E-4   -3.765030045968834E-1    3.242487925255054E-1
 1.000579824847500E+10  -4.993412000364563E-1    4.890231474564689E-2    1.263761857378376E-4   -9.734266940176333E-5    1.171740504339733E-4   -8.966512752486712E-5   -3.763193391400008E-1    3.246220315468401E-1
 1.000580376155000E+10  -4.991860548412566E-1    4.927779505704217E-2    1.185909867183390E-4   -8.288373905353930E-5    1.379356574728420E-4   -1.066477286954621E-4   -3.759226002550268E-1    3.249731721310400E-1
 1.000580927462500E+10  -4.991089833606715E-1    4.958877787332939E-2    1.284941931914757E-4   -9.579008939243802E-5    1.368419342977332E-4   -9.483780874185090E-5   -3.756078826758594E-1    3.252044072000169E-1
 1.000581478770000E+10  -4.992059455089752E-1    4.987911345551348E-2    1.053610856026014E-4   -6.491642057964006E-5    1.430860748057077E-4   -7.483627676078887E-5   -3.753926731490417E-1    3.256029662202619E-1
 1.000582030077500E+10  -4.992655580664259E-1    5.026255448341291E-2    1.167176315110794E-4   -5.120396868086910E-5    1.120032484377912E-4   -8.226625627987766E-5   -3.750475312672693E-1    3.260728087688565E-1
 1.000582581385000E+10  -4.991220819014782E-1    5.065553404767260E-2    1.436466054985893E-4   -9.024423888695201E-5    1.203499512345845E-4   -7.776596429759090E-5   -3.746557771337241E-1    3.262627615632162E-1
 1.000583132692500E+10  -4.990610447393533E-1    5.094483127833768E-2    1.085882669945982E-4   -7.225561433772454E-5    1.552785214090430E-4   -3.585185031831338E-5   -3.743941013538366E-1    3.266971068944474E-1
 1.000583684000000E+10  -4.991619495298903E-1    5.133300895298297E-2    2.022477930997687E-4   -5.358106996195563E-5    1.471589576246419E-4   -6.481118745357880E-5   -3.740288058731027E-1    3.270346645654678E-1
 1.000584235307500E+10  -4.990664867810875E-1    5.177425759182824E-2    1.677549552493628E-4   -4.741602137800726E-5    1.667273234209072E-4   -2.839287924838836E-5   -3.738094154267638E-1    3.274608704223113E-1
 1.000584786615000E+10  -4.988795174119420E-1    5.208625831702865E-2    1.691475432833060E-4   -6.411200090357654E-5    1.520994406560665E-4   -3.564563279627719E-5   -3.734159047884742E-1    3.278117439712348E-1
 1.000585337922500E+10  -4.990754157831785E-1    5.233023373212195E-2    1.788372241158365E-4   -4.458765382022882E-5    1.758242472897287E-4   -2.887360093803120E-5   -3.731411465884789E-1    3.280848517074596E-1
 1.000585889230000E+10  -4.990085207946350E-1    5.273063730550223E-2    1.756388404161441E-4   -1.704249324588781E-5    2.298289887101168E-4    3.078572472834001E-6   -3.726789582871309E-1    3.284481359390369E-1
 1.000586440537500E+10  -4.989429963545807E-1    5.308702069753980E-2    2.270051399116624E-4    5.340724305225995E-6    2.067708325161492E-4    7.690800347496999E-6   -3.726055600239439E-1    3.288096184612204E-1
 1.000586991845000E+10  -4.990684409021183E-1    5.360107448627266E-2    1.701101167588609E-4    2.573566889079257E-5    1.927034944261284E-4    4.540826019837742E-6   -3.723508553959248E-1    3.290760537426094E-1
 1.000587543152500E+10  -4.988607028414419E-1    5.398605819411213E-2    2.353757335592484E-4    2.115761357934475E-5    2.004647794644734E-4    2.261050559244695E-5   -3.718802988134043E-1    3.295087758665796E-1
 1.000588094460000E+10  -4.987721619772365E-1    5.433836556368067E-2    2.470741705549568E-4    4.586562548072555E-6    2.020420825544348E-4    7.199920762964395E-5   -3.716206658900859E-1    3.299084490524659E-1
 1.000588645767500E+10  -4.988256905975882E-1    5.445063986404504E-2    2.439523626989253E-4    2.889037323493391E-5    2.322426073959758E-4    2.946360497223472E-5   -3.712434585779953E-1    3.301607211812866E-1
 1.000589197075000E+10  -4.988365265896713E-1    5.492317997421994E-2    2.630376430726750E-4    3.839071641614520E-5    2.330181833602626E-4    8.706101893593881E-5   -3.707403626595883E-1    3.306814338255237E-1
