#  HZ   S   RI   R     50.00 
! Rohde & Schwarz Vector Network Analyzer 
! Rohde-Schwarz,ZNB20-2Port,1311601062101988,3.16
! Created: UTC 3/20/2024, 11:58:44 AM
! freq[Hz]                re:S11                  im:S11                  re:S21                  im:S21                  re:S12                  im:S12                  re:S22                  im:S22
 1.000542714400000E+10  -5.004502164752044E-1    2.460260477757165E-2   -1.238906345254483E-4   -5.360912143882981E-4   -1.127882127637558E-4   -5.025466732888977E-4   -3.935592305040786E-1    3.021982690754683E-1
 1.000543253040000E+10  -5.003562372959438E-1    2.498189530444906E-2   -1.385573465926556E-4   -5.479046947188672E-4   -1.067182996741144E-4   -5.201159661598241E-4   -3.932516808931332E-1    3.024541040517685E-1
 1.000543791680000E+10  -5.004174190646302E-1    2.518824147053538E-2   -1.311907390625373E-4   -5.340532489432742E-4   -1.012711820872353E-4   -4.921502709905828E-4   -3.931025285903451E-1    3.027133423326174E-1
 1.000544330320000E+10  -5.004131513782888E-1    2.566236944327371E-2   -1.091604203018165E-4   -4.979329984597035E-4   -9.577034199303946E-5   -5.088231365206197E-4   -3.929257525724192E-1    3.031461806884658E-1
 1.000544868960000E+10  -5.003517779101538E-1    2.601677581381894E-2   -1.502188440241596E-4   -4.986836700302045E-4   -9.841394667367510E-5   -5.239952565423063E-4   -3.926072709088306E-1    3.033092871536942E-1
 1.000545407600000E+10  -5.003138786883998E-1    2.622452312448196E-2   -1.325262445216688E-4   -4.917187412821195E-4   -1.139291669769180E-4   -5.151918825496888E-4   -3.923981930575308E-1    3.037652950220485E-1
 1.000545946240000E+10  -5.003927794460941E-1    2.677147726447929E-2   -1.134462535646337E-4   -4.934367852784792E-4   -1.094580740635254E-4   -5.008965114210445E-4   -3.921700209796758E-1    3.040158322735591E-1
 1.000546484880000E+10  -5.003628862342107E-1    2.701822076618634E-2   -1.629477752064920E-4   -4.617449659665610E-4   -9.832785616364472E-5   -5.287499067266046E-4   -3.920526662298445E-1    3.043914591609082E-1
 1.000547023520000E+10  -5.002442849091855E-1    2.735734126712241E-2   -1.208042346692154E-4   -4.910849993449905E-4   -1.144100518791893E-4   -5.106845953487821E-4   -3.916712407231720E-1    3.047612364678008E-1
 1.000547562160000E+10  -5.003029275655821E-1    2.776462382552665E-2   -1.105761832925663E-4   -4.724874188190621E-4   -1.225735461889132E-4   -4.705442441213408E-4   -3.916670485709959E-1    3.050760828688581E-1
 1.000548100800000E+10  -5.002881968868165E-1    2.803952494559470E-2   -1.341929851799890E-4   -4.755496891981435E-4   -1.120987082935348E-4   -4.779182477526361E-4   -3.913708534692516E-1    3.053223353411408E-1
 1.000548639440000E+10  -5.003457272123691E-1    2.830655514794218E-2   -1.270270361936273E-4   -4.872498785859291E-4   -1.249616103093418E-4   -4.933255305154483E-4   -3.910275501053613E-1    3.056391347837013E-1
 1.000549178080000E+10  -5.002072747482746E-1    2.874722332516173E-2   -1.227022824284299E-4   -4.685483832527951E-4   -9.145361777456061E-5   -4.655114048158920E-4   -3.910753640058426E-1    3.060502740615005E-1
 1.000549716720000E+10  -5.002732296027460E-1    2.916490445747617E-2   -1.133812495422642E-4   -4.827642183726219E-4   -9.262063423787631E-5   -4.504402626874893E-4   -3.905160151526020E-1    3.062166500914245E-1
 1.000550255360000E+10  -5.002970271959930E-1    2.943843017419651E-2   -9.173174101020896E-5   -4.631601709496909E-4   -1.070374214950895E-4   -4.616998407290637E-4   -3.904741214527835E-1    3.066572913091468E-1
 1.000550794000000E+10  -5.002388737759587E-1    2.982090323868476E-2   -9.717120415129806E-5   -4.747480923237699E-4   -7.849546503968410E-5   -4.490392104347418E-4   -3.901476925178728E-1    3.069174250702552E-1
 1.000551332640000E+10  -5.002273885282931E-1    3.016960333033492E-2   -9.467951664514799E-5   -4.766497928269599E-4   -4.995991926651082E-5   -4.718199195322483E-4   -3.899390702197706E-1    3.072888881192044E-1
 1.000551871280000E+10  -5.001274553760228E-1    3.048654889248226E-2   -1.069532988990108E-4   -4.603938031709237E-4   -1.022512701004972E-4   -4.417987682191979E-4   -3.895808409191019E-1    3.075975582564817E-1
 1.000552409920000E+10  -5.001811457946364E-1    3.081440656360581E-2   -9.115112245575652E-5   -4.329634066107048E-4   -7.657178735016834E-5   -4.353061881155339E-4   -3.894374877946907E-1    3.078654951127828E-1
 1.000552948560000E+10  -5.001363202619887E-1    3.127644082827472E-2   -6.016987873620787E-5   -4.182404604389590E-4   -8.839313623080247E-5   -4.100380623608101E-4   -3.891345185816802E-1    3.082449363866859E-1
 1.000553487200000E+10  -5.001453772685590E-1    3.155173086513128E-2   -1.215460423006401E-4   -4.421675339852266E-4   -6.034133054496259E-5   -4.126990053060870E-4   -3.888692681444878E-1    3.084894656149652E-1
 1.000554025840000E+10  -5.002167331573377E-1    3.175824768106056E-2   -1.049918135242033E-4   -4.277483583054431E-4   -7.088521280737148E-5   -4.123142340258448E-4   -3.886664586957075E-1    3.088487132099832E-1
 1.000554564480000E+10  -5.000742836175630E-1    3.231192784358198E-2   -1.024377695833196E-4   -4.194579797651584E-4   -4.395831513200854E-5   -4.128774726664918E-4   -3.885906204588755E-1    3.091017654511322E-1
 1.000555103120000E+10  -5.001012652473581E-1    3.266029451320396E-2   -9.079196579965655E-5   -4.496358738716644E-4   -7.130401405551400E-5   -4.380622186279967E-4   -3.882654065670451E-1    3.095195550031837E-1
 1.000555641760000E+10  -5.002141386085074E-1    3.302540411607196E-2   -1.022528665847217E-4   -4.014258613601313E-4   -8.236333596457071E-5   -4.159910755710799E-4   -3.880863093249384E-1    3.097567970644287E-1
 1.000556180400000E+10  -4.999703234328150E-1    3.345348884803702E-2   -8.621554765545133E-5   -3.865476178855050E-4   -9.061368671993136E-5   -4.339409573974269E-4   -3.878105825708193E-1    3.100713583566330E-1
 1.000556719040000E+10  -5.001824471129018E-1    3.383905368801717E-2   -8.343525114898914E-5   -4.160826666734749E-4   -6.866540278914983E-5   -4.072909919458344E-4   -3.874880943601468E-1    3.104136856877402E-1
 1.000557257680000E+10  -5.001708819600703E-1    3.409982633858002E-2   -1.197883587703206E-4   -4.129563288010955E-4   -4.030105800517341E-5   -4.114804259658045E-4   -3.872636314272827E-1    3.108105044914100E-1
 1.000557796320000E+10  -5.001161363597950E-1    3.443952216219778E-2   -7.897220974812129E-5   -3.971651759242156E-4   -4.351946855884696E-5   -3.823878420398957E-4   -3.870658270047228E-1    3.111548589514184E-1
 1.000558334960000E+10  -5.000853939965373E-1    3.475064987121148E-2   -6.852590845048020E-5   -3.787112591728414E-4   -5.657400590122445E-5   -3.581144778416596E-4   -3.867099148565305E-1    3.114271812329537E-1
 1.000558873600000E+10  -5.001038129665349E-1    3.515618219458637E-2   -6.315931696229084E-5   -3.864427217063343E-4   -4.952340035271489E-5   -3.626780213384680E-4   -3.866122542281062E-1    3.117099440774982E-1
 1.000559412240000E+10  -5.000538786092280E-1    3.542557561044435E-2   -5.685522270719254E-5   -3.717045510395820E-4   -5.669890516608617E-5   -3.497858403097363E-4   -3.863801270486537E-1    3.121977555748593E-1
 1.000559950880000E+10  -5.001228143961554E-1    3.576563537968475E-2   -8.082129282531334E-5   -3.753629471440008E-4   -2.841250641461181E-5   -3.757785933001359E-4   -3.862051854021013E-1    3.123000223876559E-1
 1.000560489520000E+10  -5.001140234299785E-1    3.623267826053926E-2   -7.844013567565328E-5   -3.660788100385428E-4   -5.772316481714903E-5   -3.469971905205054E-4   -3.857783081222579E-1    3.129138216570190E-1
 1.000561028160000E+10  -5.000831901750876E-1    3.652872501900697E-2   -4.918414091997990E-5   -3.511033961141439E-4   -3.084986645365863E-5   -3.255257611667995E-4   -3.855430468663108E-1    3.129843918159579E-1
 1.000561566800000E+10  -4.999693909093101E-1    3.688143962135443E-2   -6.015019182290827E-5   -3.578624366199874E-4   -3.125431053372381E-5   -3.394793745406134E-4   -3.853037242959267E-1    3.133980234889190E-1
 1.000562105440000E+10  -5.000278224041252E-1    3.716197482611677E-2   -4.652609445884759E-5   -3.674867119096959E-4   -3.077966631305466E-5   -3.500890911264373E-4   -3.850506871413472E-1    3.136235345864558E-1
 1.000562644080000E+10  -4.997701905272049E-1    3.749521619516880E-2   -6.172010223654184E-5   -3.423121569352840E-4   -3.474677095906642E-5   -3.374182392537078E-4   -3.847635053810510E-1    3.138054033335374E-1
 1.000563182720000E+10  -5.000384980765523E-1    3.802709828026119E-2   -3.508442617037865E-5   -3.287766191311351E-4   -4.598147114481507E-6   -3.254805431704400E-4   -3.846397728453823E-1    3.143003752152042E-1
 1.000563721360000E+10  -4.998961268981064E-1    3.831553721934813E-2   -6.097895993576629E-5   -3.464169799277681E-4   -2.132532924503759E-5   -3.300854139008696E-4   -3.844254803920819E-1    3.146295275335023E-1
 1.000564260000000E+10  -4.999022456135375E-1    3.859687772540051E-2   -3.110113802748297E-5   -3.315707994625834E-4   -6.620718760631032E-6   -3.095936456836977E-4   -3.841507924782907E-1    3.148637942682643E-1
 1.000564798640000E+10  -4.998316680847470E-1    3.906715007069916E-2   -3.695480829986495E-5   -3.411512303378711E-4   -3.221559028640040E-5   -3.425596688831685E-4   -3.837543382592864E-1    3.152268672268875E-1
 1.000565337280000E+10  -4.998988988624007E-1    3.929969101109643E-2    9.883379230244906E-7   -3.306767857661672E-4    1.008339444548874E-5   -3.269702087585362E-4   -3.836592167287278E-1    3.155349719835828E-1
 1.000565875920000E+10  -4.998143422841096E-1    3.961571078952976E-2   -2.248280045106025E-5   -3.225680355688758E-4   -2.701909242624478E-5   -3.167078161883886E-4   -3.834312432245899E-1    3.159415767988639E-1
 1.000566414560000E+10  -4.998806936983261E-1    3.991150970672063E-2   -1.690126846965536E-5   -3.087126941916493E-4    2.898651738291627E-5   -3.238006394245914E-4   -3.829082017375912E-1    3.162683931596958E-1
 1.000566953200000E+10  -4.997511912415885E-1    4.021372529511096E-2    6.501790398893714E-8   -3.057390837318149E-4   -1.354312917367322E-6   -3.091005220712328E-4   -3.828532031097805E-1    3.165201871177818E-1
 1.000567491840000E+10  -4.999186884551063E-1    4.062609083957074E-2    2.455841576460428E-5   -2.670497189714248E-4   -1.446812774659227E-6   -2.654954061603961E-4   -3.825800516640917E-1    3.169529179143437E-1
 1.000568030480000E+10  -4.997324438455483E-1    4.110900518179500E-2   -1.360713159025469E-5   -2.844369608402059E-4   -1.360944115603485E-6   -2.658975952524348E-4   -3.823570042721517E-1    3.172468505353785E-1
 1.000568569120000E+10  -4.998128882618209E-1    4.137722942987093E-2   -8.496318019645289E-6   -2.951814081894873E-4    2.222273986213546E-5   -2.815370829712318E-4   -3.820674445242250E-1    3.176106451501806E-1
 1.000569107760000E+10  -4.998047277793205E-1    4.168197751682220E-2    3.195558429351749E-6   -2.670909189772453E-4    2.044240219269700E-5   -2.673316279027751E-4   -3.817805927602145E-1    3.178342229242425E-1
 1.000569646400000E+10  -4.997085945484681E-1    4.203164017617440E-2   -2.322501248853105E-6   -2.565206334795935E-4    3.691323938124865E-5   -2.545032342978916E-4   -3.814185122989389E-1    3.182318086138941E-1
 1.000570185040000E+10  -4.996267377015531E-1    4.257928554194525E-2    3.510591771004467E-5   -2.276904202321697E-4   -2.510942627969186E-6   -2.419560970902839E-4   -3.811501026072169E-1    3.186470444753708E-1
 1.000570723680000E+10  -4.997724356472241E-1    4.287901524482289E-2   -6.003408872826492E-6   -2.414078517791775E-4    1.329552652730897E-5   -2.628238926813443E-4   -3.810552089824972E-1    3.188032977693285E-1
 1.000571262320000E+10  -4.997385899630017E-1    4.305112879842756E-2   -2.080453831428283E-5   -2.312056047745357E-4    5.012830539331088E-6   -2.492431773331177E-4   -3.807246455968282E-1    3.193120671066392E-1
 1.000571800960000E+10  -4.997435698794933E-1    4.360074073303086E-2    4.056521871515341E-5   -2.519435430945713E-4    2.547490349113001E-5   -2.192090122255270E-4   -3.804190729617494E-1    3.195827098901708E-1
 1.000572339600000E+10  -4.996904307914735E-1    4.391819148712717E-2    9.225915758555852E-6   -2.292445366604675E-4    8.240927078559832E-5   -2.153802000003194E-4   -3.802346637234974E-1    3.200090740965320E-1
 1.000572878240000E+10  -4.995809215208999E-1    4.412909004497022E-2    1.574037954945290E-5   -2.008364411062403E-4    3.691230385488227E-5   -2.279408608551906E-4   -3.798794805636259E-1    3.202558142212051E-1
 1.000573416880000E+10  -4.995014247848966E-1    4.455566291816124E-2    4.158980024544056E-5   -2.184275325635386E-4    7.970658566221343E-5   -2.421703129249192E-4   -3.795740049094182E-1    3.205038869093053E-1
 1.000573955520000E+10  -4.996681649901974E-1    4.496584183988053E-2    2.051756987745686E-5   -2.054570132375098E-4    6.280469123711917E-5   -1.758759021361066E-4   -3.793534804985116E-1    3.209513792348351E-1
 1.000574494160000E+10  -4.995266042153645E-1    4.537369884857802E-2    3.175009900441521E-5   -1.982455844519421E-4    3.022118551308168E-5   -1.854980568566246E-4   -3.789945183696856E-1    3.212720460836290E-1
 1.000575032800000E+10  -4.995439066957029E-1    4.565464051314683E-2    5.740891973791870E-5   -1.922492059213714E-4    7.351882549212657E-5   -1.652199802887658E-4   -3.788106090489196E-1    3.215791772198534E-1
 1.000575571440000E+10  -4.995164260168817E-1    4.601908419728193E-2    6.766316586565344E-5   -1.877321861097977E-4    6.009668042936235E-5   -1.977218330893904E-4   -3.786182013265380E-1    3.219195292839629E-1
 1.000576110080000E+10  -4.993796946299784E-1    4.629129422277524E-2    4.926327184011941E-5   -1.862878910764093E-4    8.871865980704492E-5   -1.627173449812350E-4   -3.783320609562486E-1    3.222612383562415E-1
 1.000576648720000E+10  -4.994679050325238E-1    4.673056738067351E-2    7.777944989834841E-5   -1.789529027195522E-4    8.724929757038382E-5   -1.692628499239287E-4   -3.779639788438236E-1    3.225856895621779E-1
 1.000577187360000E+10  -4.992891801730368E-1    4.706268100049533E-2    8.846334388293142E-5   -1.399918020463572E-4    7.844132410781797E-5   -1.832608178195650E-4   -3.775521965586066E-1    3.228928238419144E-1
 1.000577726000000E+10  -4.993887713928316E-1    4.743291226195320E-2    8.231226784262286E-5   -1.435817606067535E-4    7.886778957426326E-5   -1.538915304266826E-4   -3.772977087852857E-1    3.233708378142676E-1
 1.000578264640000E+10  -4.994234142156741E-1    4.766078330297787E-2    7.101707843099679E-5   -1.260567495791204E-4    1.193315663620822E-4   -1.583121476366510E-4   -3.771226557148610E-1    3.235556723793290E-1
 1.000578803280000E+10  -4.994351952770659E-1    4.797644569351181E-2    8.761810829878871E-5   -1.389416667152416E-4    7.103976540420261E-5   -1.422294187764783E-4   -3.767867028277327E-1    3.239112558497713E-1
 1.000579341920000E+10  -4.993828860255179E-1    4.850393043936974E-2    1.077265731660995E-4   -1.407332791531065E-4    9.168958777177973E-5   -1.426543414801632E-4   -3.766872924573614E-1    3.242462537805397E-1
 1.000579880560000E+10  -4.994108175511897E-1    4.863891555486553E-2    1.160345353147238E-4   -1.208838883298648E-4    1.287098307351670E-4   -9.417751853379324E-5   -3.761977437379651E-1    3.244426506374060E-1
 1.000580419200000E+10  -4.992166238613879E-1    4.906818767059508E-2    1.076164921000620E-4   -1.375544724590656E-4    8.889334438507726E-5   -1.103447217421961E-4   -3.759003723311204E-1    3.249006083118511E-1
 1.000580957840000E+10  -4.992880855276127E-1    4.940066421327189E-2    1.209499891727722E-4   -9.623878169854655E-5    1.464484402820940E-4   -1.054053816214555E-4   -3.756263438085957E-1    3.251339809662223E-1
 1.000581496480000E+10  -4.992386988024420E-1    4.984566363159836E-2    1.385671849240328E-4   -1.139754058083351E-4    1.292215701041735E-4   -7.020788460352554E-5   -3.753881238861488E-1    3.254727751156951E-1
 1.000582035120000E+10  -4.992695994406146E-1    5.017621135880720E-2    1.250333831132316E-4   -8.276960174520673E-5    1.409456161196329E-4   -1.078090545259529E-4   -3.752855287691262E-1    3.259655938829146E-1
 1.000582573760000E+10  -4.991895107155902E-1    5.056123824882202E-2    1.079134049745056E-4   -9.549560041140383E-5    1.453434244614391E-4   -1.065740825185186E-4   -3.748570718170494E-1    3.262152487892291E-1
 1.000583112400000E+10  -4.989996724977609E-1    5.082724173545279E-2    1.394249089464896E-4   -5.812774563707233E-5    1.307372813463789E-4   -3.346982016996041E-5   -3.744882040999123E-1    3.265985699884930E-1
 1.000583651040000E+10  -4.992142401238389E-1    5.129952632995056E-2    1.248506519993937E-4   -6.577310642014847E-5    1.329170625868301E-4   -3.517464453754956E-5   -3.741930431034184E-1    3.269376524063109E-1
 1.000584189680000E+10  -4.991548044050117E-1    5.155192952503338E-2    1.640096494786209E-4   -6.032396352972161E-5    1.402711042440986E-4   -5.669733542660685E-5   -3.738783552213551E-1    3.272865367009948E-1
 1.000584728320000E+10  -4.991717264448189E-1    5.184329195343628E-2    1.485624938405941E-4   -5.168173813125825E-5    1.773218137251021E-4   -4.273239592320127E-5   -3.736352259630021E-1    3.276931387474393E-1
 1.000585266960000E+10  -4.990375311379353E-1    5.230629096487124E-2    1.867433003954549E-4   -2.432650375582581E-5    1.955242115144335E-4   -4.491778340500107E-6   -3.732549772365615E-1    3.278744317798852E-1
 1.000585805600000E+10  -4.989187769529442E-1    5.255034003481587E-2    1.856117504325308E-4   -3.681715451960216E-5    1.667307939347443E-4   -1.427789161820895E-6   -3.730405184133271E-1    3.283254131207882E-1
 1.000586344240000E+10  -4.990640763392644E-1    5.298952907850551E-2    1.451063711328932E-4   -1.882299191748165E-5    1.731677598563674E-4   -2.078231344022289E-5   -3.726653543444660E-1    3.286497911555175E-1
 1.000586882880000E+10  -4.989935595300799E-1    5.334885472013651E-2    2.081921308051891E-4    5.149087224506568E-7    1.941987733804812E-4    1.138805600802828E-5   -3.723332618784700E-1    3.289895576500999E-1
 1.000587421520000E+10  -4.989806172966254E-1    5.361087525087901E-2    2.110875844364441E-4    8.355011311026502E-6    1.873419509218355E-4    1.767066493536551E-5   -3.720891622991111E-1    3.293167415021037E-1
 1.000587960160000E+10  -4.989413773897194E-1    5.396134425777773E-2    1.880404184273141E-4   -3.100990505576023E-6    2.227476531847004E-4    4.254381031186504E-5   -3.717080180300923E-1    3.295867927934927E-1
 1.000588498800000E+10  -4.990576740648395E-1    5.433289953554084E-2    1.893086024698358E-4    1.985879625266552E-5    2.282766938135605E-4    8.498679464149538E-6   -3.713485272356344E-1    3.301450039813842E-1
 1.000589037440000E+10  -4.989113642174696E-1    5.466711808584458E-2    1.915074155248221E-4    2.097561994788834E-5    2.286629154306979E-4    8.027626748113128E-6   -3.711442818824186E-1    3.303887679781168E-1
 1.000589576080000E+10  -4.990268620691123E-1    5.507832984106113E-2    2.346973271479633E-4    2.427648077819858E-5    2.383188096711269E-4    5.069930590351856E-5   -3.707997869531109E-1    3.308305397885558E-1
 1.000590114720000E+10  -4.988582300078696E-1    5.548446975161384E-2    2.412664172926425E-4    7.452839794582206E-5    2.581951172463979E-4    7.699455778120630E-5   -3.703731535358012E-1    3.312054613477776E-1
 1.000590653360000E+10  -4.987053639197658E-1    5.577037517142570E-2    2.529867080306337E-4    4.254874849699731E-5    2.622611534003782E-4    8.974843983109927E-5   -3.699919173649169E-1    3.315220135869833E-1
 1.000591192000000E+10  -4.987617454911652E-1    5.604033545148916E-2    2.663700400681678E-4    7.654277429061086E-5    2.579020437286889E-4    8.286708262776023E-5   -3.698325575577252E-1    3.318621498020966E-1
