#  HZ   S   RI   R     50.00 
! Rohde & Schwarz Vector Network Analyzer 
! Rohde-Schwarz,ZNB20-2Port,1311601062101988,3.16
! Created: UTC 3/20/2024, 11:59:01 AM
! freq[Hz]                re:S11                  im:S11                  re:S21                  im:S21                  re:S12                  im:S12                  re:S22                  im:S22
 1.000545234200000E+10  -5.004148882879200E-1    2.617755301652740E-2   -1.322544589677087E-4   -5.321852924542596E-4   -1.471188982020093E-4   -5.105738810938886E-4   -3.926547347012253E-1    3.036385157468091E-1
 1.000545763860000E+10  -5.003408466645055E-1    2.649919346018553E-2   -1.210103365703083E-4   -5.066151465678043E-4   -1.023062945463310E-4   -4.846571706754156E-4   -3.923615826451147E-1    3.039306450012805E-1
 1.000546293520000E+10  -5.004312599751258E-1    2.679359966610302E-2   -1.486874469599656E-4   -4.761034472811427E-4   -1.314347387592613E-4   -5.027617391303590E-4   -3.921544982418658E-1    3.041579965379171E-1
 1.000546823180000E+10  -5.002889996802702E-1    2.710929328863341E-2   -1.398843225399195E-4   -4.629047801243454E-4   -1.073924491053615E-4   -5.111813907684575E-4   -3.919979167512422E-1    3.044463597317743E-1
 1.000547352840000E+10  -5.003812672657069E-1    2.745131532098242E-2   -1.579937345943584E-4   -4.897210677411862E-4   -9.212868638921463E-5   -4.902185280462173E-4   -3.915729716021495E-1    3.048200549839821E-1
 1.000547882500000E+10  -5.002483436284884E-1    2.782732849706052E-2   -1.129236441546354E-4   -4.947065540993690E-4   -1.234893248381386E-4   -4.838149322269140E-4   -3.914318976741464E-1    3.051228664804215E-1
 1.000548412160000E+10  -5.004953456196477E-1    2.808925830439863E-2   -1.210605136092795E-4   -4.801002909170014E-4   -8.807911573120620E-5   -4.819406820020254E-4   -3.912397981434419E-1    3.053954728223859E-1
 1.000548941820000E+10  -5.004182857423211E-1    2.857401069690772E-2   -9.564402827637695E-5   -4.502967685343817E-4   -8.789881709564565E-5   -5.028015787808060E-4   -3.909341028292367E-1    3.056662728689771E-1
 1.000549471480000E+10  -5.004112299995456E-1    2.887939146926864E-2   -1.477737451489431E-4   -4.756373168951338E-4   -1.158869362517781E-4   -4.654109812131327E-4   -3.906926634680648E-1    3.060085565520084E-1
 1.000550001140000E+10  -5.003495838438190E-1    2.932468961014562E-2   -1.191922290424804E-4   -4.496354510872110E-4   -9.826433648947794E-5   -4.444457033184338E-4   -3.905137011866057E-1    3.064422558126097E-1
 1.000550530800000E+10  -5.003451283982193E-1    2.967264832179405E-2   -1.234809986325333E-4   -4.762323684440509E-4   -1.105948429848242E-4   -4.571458569624157E-4   -3.902425975849171E-1    3.067252580963452E-1
 1.000551060460000E+10  -5.002537158680019E-1    2.978936291807224E-2   -1.294163930665256E-4   -4.476019560990101E-4   -7.962912654977520E-5   -4.660623191653490E-4   -3.901823599557417E-1    3.070436228328554E-1
 1.000551590120000E+10  -5.004156374467392E-1    3.036203106236999E-2   -1.203457823188475E-4   -4.700451335150146E-4   -6.872767293843148E-5   -4.543569168075379E-4   -3.900470155590166E-1    3.074204242684003E-1
 1.000552119780000E+10  -5.002634542887529E-1    3.055360771587791E-2   -1.041158981530281E-4   -4.440606181925859E-4   -5.297781538055752E-5   -4.152433530669692E-4   -3.895881222750570E-1    3.076604143172397E-1
 1.000552649440000E+10  -5.002251136659157E-1    3.085797596787986E-2   -9.516592688974648E-5   -4.490307915595923E-4   -9.821169452123208E-5   -4.328882901435599E-4   -3.894395969610570E-1    3.080055700893674E-1
 1.000553179100000E+10  -5.002016058887581E-1    3.130236231486379E-2   -1.003693281116697E-4   -4.524836420313033E-4   -1.054412469096266E-4   -4.239598261928357E-4   -3.892485247741578E-1    3.083052907682997E-1
 1.000553708760000E+10  -5.002064143652146E-1    3.166685136394615E-2   -9.379929456705381E-5   -4.372297561325107E-4   -6.242509826795131E-5   -4.637982139207005E-4   -3.889744449623002E-1    3.085336096682174E-1
 1.000554238420000E+10  -5.001737901804690E-1    3.192079326658920E-2   -1.070686597550133E-4   -4.211324012444637E-4   -9.383244615026864E-5   -3.983593429405977E-4   -3.887952941920692E-1    3.089580159138360E-1
 1.000554768080000E+10  -5.001807738857894E-1    3.233791233754153E-2   -9.281645869589165E-5   -4.278957497495985E-4   -8.332950191156612E-5   -3.942212724638637E-4   -3.884549757387345E-1    3.091440972726717E-1
 1.000555297740000E+10  -5.002262720857713E-1    3.267350020507513E-2   -9.035796030868997E-5   -4.130653765962536E-4   -7.682956405239856E-5   -4.125852089043391E-4   -3.883691929656670E-1    3.094956822778352E-1
 1.000555827400000E+10  -5.002357074823878E-1    3.302532059346922E-2   -8.049589755190398E-5   -4.239586981896712E-4   -6.334917658760403E-5   -4.154379412423774E-4   -3.879798019575391E-1    3.097411534090070E-1
 1.000556357060000E+10  -5.000611405379455E-1    3.336836018195655E-2   -9.373156937299641E-5   -3.877731221557565E-4   -5.433672380168879E-5   -4.452372479997238E-4   -3.877008281930974E-1    3.101389015997747E-1
 1.000556886720000E+10  -5.001703903822234E-1    3.367126129206970E-2   -8.755392505088007E-5   -3.917128863482632E-4   -5.266337039589123E-5   -3.874175838350495E-4   -3.875120059845902E-1    3.104964459613144E-1
 1.000557416380000E+10  -5.000814739232712E-1    3.405074159296219E-2   -8.444877442160234E-5   -4.377430001568516E-4   -5.619801706494801E-5   -3.793929374102772E-4   -3.873682031320719E-1    3.107335057421373E-1
 1.000557946040000E+10  -5.000932393387575E-1    3.430655273496395E-2   -9.560585826943621E-5   -3.997753259598479E-4   -6.209743383096685E-5   -4.113785935062235E-4   -3.871558154749982E-1    3.110478051994906E-1
 1.000558475700000E+10  -5.001167878460370E-1    3.476948049375608E-2   -7.391535838871574E-5   -3.797473290150725E-4   -9.040315063067671E-5   -3.867106212710335E-4   -3.868850443102239E-1    3.114256676725980E-1
 1.000559005360000E+10  -5.000652359941555E-1    3.516486712913273E-2   -7.632177754953392E-5   -4.039766181920203E-4   -6.203536495289733E-5   -3.727574281310864E-4   -3.866446394702194E-1    3.116850177869340E-1
 1.000559535020000E+10  -5.000385565152826E-1    3.537894147872946E-2   -9.791818342355439E-5   -3.520821463721862E-4   -5.712919005544843E-5   -3.855790302496857E-4   -3.863737899035843E-1    3.121037487144090E-1
 1.000560064680000E+10  -5.000329158147790E-1    3.580989025257598E-2   -9.355126079036444E-5   -3.525638334940971E-4   -4.801625326807799E-5   -3.747763858752594E-4   -3.862151520510300E-1    3.125101232146596E-1
 1.000560594340000E+10  -4.999910937220784E-1    3.615785060390383E-2   -7.895519198742286E-5   -3.603121048095860E-4   -8.722893122659785E-5   -3.617529296303319E-4   -3.856653785238657E-1    3.126959562292143E-1
 1.000561124000000E+10  -5.000565864080375E-1    3.650774058838226E-2   -6.312644281515891E-5   -3.753171818055929E-4   -4.838778880564336E-5   -3.637706189592240E-4   -3.857730791381742E-1    3.130709676053458E-1
 1.000561653660000E+10  -4.998656057541160E-1    3.672506552300746E-2   -6.464690443175904E-5   -3.625833682477732E-4   -4.650278202962928E-5   -3.641290084681061E-4   -3.854731710662251E-1    3.131931018831013E-1
 1.000562183320000E+10  -4.999521091521372E-1    3.715257956767423E-2   -6.204922547011685E-5   -3.566132232291541E-4   -3.697532915141641E-5   -3.493119232293765E-4   -3.850762352886354E-1    3.136554397546633E-1
 1.000562712980000E+10  -5.000251593661253E-1    3.744665762430876E-2   -8.548811349422929E-5   -3.360085870703766E-4   -4.987093904314920E-5   -3.674877982884841E-4   -3.849664898479147E-1    3.138860718766673E-1
 1.000563242640000E+10  -4.999498603807481E-1    3.786216844972486E-2   -7.632780561297187E-5   -3.778899267940457E-4   -3.732825958845457E-5   -3.486982458305566E-4   -3.846230958161420E-1    3.141730715410314E-1
 1.000563772300000E+10  -4.999456643191593E-1    3.825422314380730E-2   -3.731260049579511E-5   -3.532351321161878E-4   -3.348401372049977E-5   -3.380072455132005E-4   -3.844960404392628E-1    3.146756397635703E-1
 1.000564301960000E+10  -5.000380175309362E-1    3.855029846298981E-2   -3.957635800563478E-5   -3.107466239093109E-4   -3.198438297194894E-5   -3.417560715505971E-4   -3.841570673417553E-1    3.149114870251313E-1
 1.000564831620000E+10  -5.000418672329834E-1    3.896580921049006E-2   -2.488068445685177E-5   -3.149164652359276E-4    5.282094636788616E-6   -3.218136027756673E-4   -3.838396176904507E-1    3.152661501594971E-1
 1.000565361280000E+10  -4.999601396327322E-1    3.930964345083608E-2   -5.481223587866892E-5   -3.142952220786295E-4   -2.302819728547456E-5   -2.961582557323952E-4   -3.836568174386767E-1    3.155840008962292E-1
 1.000565890940000E+10  -4.998530712378795E-1    3.953760933612843E-2   -1.717636975873400E-5   -3.008466256203966E-4    1.614304017580978E-5   -3.096522400151656E-4   -3.834222409562093E-1    3.157851282778894E-1
 1.000566420600000E+10  -4.999665816324209E-1    3.988084140561512E-2   -1.612550297782145E-5   -3.073435287963765E-4   -3.359876998460322E-5   -2.995233139015500E-4   -3.829887935204483E-1    3.161612137505252E-1
 1.000566950260000E+10  -4.999378355914513E-1    4.018924773003631E-2   -3.495699237363156E-5   -2.960917029599197E-4   -3.720532504370396E-5   -2.959977373966252E-4   -3.828192433340284E-1    3.165020929188260E-1
 1.000567479920000E+10  -4.998047829109696E-1    4.066380485456366E-2   -3.535749888574897E-5   -2.877096327492884E-4   -1.775666952855849E-6   -2.811436148280406E-4   -3.825759984189324E-1    3.167464701883884E-1
 1.000568009580000E+10  -4.998331199860007E-1    4.099568691966844E-2   -1.559637533457320E-5   -3.178568909329326E-4   -2.451189559935130E-5   -3.009637554478305E-4   -3.823775734725141E-1    3.171499993043724E-1
 1.000568539240000E+10  -4.998250737065676E-1    4.142789565163974E-2   -6.348500266792577E-6   -2.876517107644556E-4   -1.907461148019440E-5   -2.942671805574013E-4   -3.821064256951249E-1    3.176211459335282E-1
 1.000569068900000E+10  -4.998483160933007E-1    4.174758030054085E-2   -2.383968759846123E-5   -3.027166491436168E-4    1.353959454781386E-6   -2.474444149457622E-4   -3.820093088840238E-1    3.179400216744932E-1
 1.000569598560000E+10  -4.997804920486311E-1    4.211786737693033E-2    1.386671223890515E-6   -2.765143551205866E-4   -1.036754154826409E-5   -2.679040644275251E-4   -3.814842640960829E-1    3.180696791024172E-1
 1.000570128220000E+10  -4.998151845841072E-1    4.238495281716347E-2   -1.742173256505048E-5   -2.500753872438526E-4    3.561538099043652E-5   -2.395493042982931E-4   -3.813607495124323E-1    3.185025306509233E-1
 1.000570657880000E+10  -4.999059635430886E-1    4.271094563067300E-2    3.706801827036629E-6   -2.617378175392052E-4    3.974326264925494E-5   -2.776678214905736E-4   -3.811600443349643E-1    3.188095355649057E-1
 1.000571187540000E+10  -4.996669291471935E-1    4.307982424904699E-2    3.010434567774914E-6   -2.349006585251297E-4   -1.040582624790552E-5   -2.373805154109811E-4   -3.807667341194846E-1    3.190785453605454E-1
 1.000571717200000E+10  -4.996969197164740E-1    4.335783898004807E-2    2.779769935452442E-6   -2.641383330816185E-4    2.443126371892331E-5   -2.491757295229982E-4   -3.806705748647606E-1    3.193416866731983E-1
 1.000572246860000E+10  -4.997051454629795E-1    4.363104350543440E-2    7.156774935297383E-6   -2.441633322440348E-4    6.990018044016395E-6   -1.992704288092426E-4   -3.803367014245729E-1    3.198595759160991E-1
 1.000572776520000E+10  -4.998017768713280E-1    4.398663096396872E-2    7.666195975016111E-6   -2.264694708997181E-4    5.315692926661056E-5   -2.006376262014918E-4   -3.800525535936440E-1    3.202817162417472E-1
 1.000573306180000E+10  -4.996044414992713E-1    4.450851714389866E-2    4.017461881630097E-5   -2.304895826193747E-4    7.049197644557048E-5   -2.361480089668709E-4   -3.798031869521537E-1    3.204573524699101E-1
 1.000573835840000E+10  -4.996506287694050E-1    4.484983162264609E-2   -8.608011949891136E-6   -2.234425703471464E-4    4.163046194567245E-5   -2.279854303120205E-4   -3.795337856065406E-1    3.205810011232301E-1
 1.000574365500000E+10  -4.995761211923729E-1    4.512181587094074E-2    3.874344697175974E-5   -2.109075098977398E-4    4.394816878194257E-5   -2.263427256778372E-4   -3.792852375471657E-1    3.211276493169694E-1
 1.000574895160000E+10  -4.996770689666003E-1    4.537132787968508E-2    5.931200866646232E-5   -2.134417974226994E-4    6.775375749356746E-5   -1.891430743580426E-4   -3.790865345516568E-1    3.214040282634696E-1
 1.000575424820000E+10  -4.994767898528730E-1    4.576518070842800E-2    4.106899697508441E-5   -1.833375992130292E-4    6.167533708588047E-5   -1.854068816342543E-4   -3.789342842459637E-1    3.216410474728917E-1
 1.000575954480000E+10  -4.995572112091675E-1    4.607748616770167E-2    4.619388467332367E-5   -1.943847747064476E-4    4.314066024075615E-5   -1.853168323960038E-4   -3.784517197959787E-1    3.219704808872948E-1
 1.000576484140000E+10  -4.994205267059222E-1    4.646714767433628E-2    5.979901573928690E-5   -1.794475343808684E-4    6.066893835684799E-5   -1.865320040157573E-4   -3.782024572207210E-1    3.223648929098100E-1
 1.000577013800000E+10  -4.994691897950142E-1    4.680245069448595E-2    3.640585263385914E-5   -1.920027149864710E-4    8.078188049104460E-5   -1.813896645477159E-4   -3.778861532026772E-1    3.227232138835449E-1
 1.000577543460000E+10  -4.994666633440152E-1    4.716147008496386E-2    8.922546232839001E-5   -1.803807279711747E-4    6.596373426415231E-5   -1.591013300124372E-4   -3.777525967634322E-1    3.230289646114975E-1
 1.000578073120000E+10  -4.994175310167478E-1    4.740303556635304E-2    7.420673661624324E-5   -1.633940627015720E-4    9.159369305891541E-5   -1.826545141386621E-4   -3.774228011372079E-1    3.234907679776945E-1
 1.000578602780000E+10  -4.994518127248734E-1    4.786269532648686E-2    7.557638113220713E-5   -1.464698840930765E-4    7.091118412686691E-5   -1.376929555334485E-4   -3.772079106009981E-1    3.236818983220777E-1
 1.000579132440000E+10  -4.994622820060931E-1    4.806956690431629E-2    1.009843820349903E-4   -1.472791114246897E-4    1.060969959524615E-4   -1.418271115580684E-4   -3.770508178510217E-1    3.238638426498179E-1
 1.000579662100000E+10  -4.993311151323176E-1    4.852681488606622E-2    9.487749994280638E-5   -1.160736367932037E-4    5.042605694264437E-5   -1.005957393606735E-4   -3.764666768980844E-1    3.242265226779624E-1
 1.000580191760000E+10  -4.993230646841806E-1    4.881220511827978E-2    7.186614960619301E-5   -1.171949384500039E-4    9.188578575968298E-5   -1.173313203854016E-4   -3.762015096395149E-1    3.246775662935710E-1
 1.000580721420000E+10  -4.992769804630026E-1    4.933014501982735E-2    1.154037993295012E-4   -1.432414009829875E-4    1.260241355908642E-4   -8.970438666255563E-5   -3.760088195249927E-1    3.249789837785160E-1
 1.000581251080000E+10  -4.993744466061752E-1    4.960292396445108E-2    1.113741848959013E-4   -1.501526602955003E-4    8.577590110015007E-5   -7.675520002095049E-5   -3.758004807077727E-1    3.253633115566826E-1
 1.000581780740000E+10  -4.993998432730576E-1    4.995418758409506E-2    1.153157180079763E-4   -1.090078678950139E-4    1.217841753463153E-4   -9.381302138815538E-5   -3.754138187830957E-1    3.256946993319829E-1
 1.000582310400000E+10  -4.992162281508984E-1    5.009820668318854E-2    1.342713110753442E-4   -9.895416505960214E-5    9.200583035089749E-5   -4.365691589521552E-5   -3.751442732544319E-1    3.260887551141460E-1
 1.000582840060000E+10  -4.993608322996180E-1    5.044344895096786E-2    1.302577883108475E-4   -6.436345135405204E-5    1.115290310670762E-4   -8.563618423358121E-5   -3.748976083441140E-1    3.262593180089385E-1
 1.000583369720000E+10  -4.991227957836470E-1    5.096559624312341E-2    1.117527195707801E-4   -5.831399203723380E-5    1.669116496144497E-4   -9.124207047811895E-5   -3.746299452117076E-1    3.266037447164399E-1
 1.000583899380000E+10  -4.992954368936552E-1    5.134774076494947E-2    9.988949641067071E-5   -5.949376269429773E-5    1.371510157822751E-4   -7.175342704077101E-5   -3.742022929475283E-1    3.271476487092692E-1
 1.000584429040000E+10  -4.991200526084678E-1    5.165548918881369E-2    1.428471551421063E-4   -4.989941206316528E-5    1.652618246069236E-4   -6.234950085752395E-5   -3.740484276126053E-1    3.273781478240376E-1
 1.000584958700000E+10  -4.991507677925634E-1    5.196487411179417E-2    1.403957360607206E-4   -3.884614270078577E-5    1.701668580075262E-4   -3.311615747649618E-5   -3.737310295773050E-1    3.276596700691229E-1
 1.000585488360000E+10  -4.990177876082272E-1    5.232349416709786E-2    1.179409980977251E-4   -4.074393518387201E-5    1.728214836775516E-4   -2.982137443997830E-5   -3.733639004589317E-1    3.280495444401876E-1
 1.000586018020000E+10  -4.991483087800682E-1    5.277200958249535E-2    1.589943302952655E-4   -4.421230568268742E-5    1.998784511859730E-4   -4.416200069878325E-5   -3.729675958848084E-1    3.283796312476919E-1
 1.000586547680000E+10  -4.990407171566461E-1    5.298894608597523E-2    1.707666624830035E-4    2.818138171817132E-6    1.814515025547722E-4    6.519635193579306E-6   -3.727511776352047E-1    3.286285166903772E-1
 1.000587077340000E+10  -4.990238590757025E-1    5.332764899996668E-2    2.001250957636093E-4   -2.979595314327282E-5    1.536426276063512E-4   -3.060054759260797E-5   -3.724900377158897E-1    3.290182241995190E-1
 1.000587607000000E+10  -4.990276434266750E-1    5.360380386394951E-2    1.779146462657782E-4   -1.822796566323430E-5    1.875830710638122E-4    1.143297048996645E-5   -3.721700114283240E-1    3.293542965982306E-1
 1.000588136660000E+10  -4.990166375090564E-1    5.409175296596795E-2    2.001594367341495E-4   -1.444678507422687E-6    2.021393814702428E-4    2.063788997690891E-6   -3.718540826281912E-1    3.296779388260606E-1
 1.000588666320000E+10  -4.990539253239785E-1    5.431032794606360E-2    1.934558733143767E-4    1.846528645078826E-5    2.074137817522760E-4    8.099442185045134E-7   -3.714288158527604E-1    3.300110775546509E-1
 1.000589195980000E+10  -4.989748335468759E-1    5.466599799794920E-2    2.378157810974018E-4    9.935386253166264E-6    1.935442393401446E-4    5.702500014249255E-5   -3.711547057335286E-1    3.305029237685123E-1
 1.000589725640000E+10  -4.989223676121037E-1    5.516950681950621E-2    2.293760366384576E-4    2.594516997567281E-5    2.469880674307992E-4    5.274745341185953E-5   -3.709108389051299E-1    3.308317843162518E-1
 1.000590255300000E+10  -4.988746602374950E-1    5.538557038997861E-2    2.468051590398703E-4    4.862519771379913E-5    2.392645755627963E-4    5.248252695304449E-5   -3.704923105313294E-1    3.311829127178249E-1
 1.000590784960000E+10  -4.988004557468938E-1    5.572625158872595E-2    2.236702546086882E-4    7.468582352506736E-5    2.223532799666009E-4    9.312999263276741E-5   -3.702935227556032E-1    3.314701816393690E-1
 1.000591314620000E+10  -4.989029798956945E-1    5.618178309793707E-2    2.546561670392280E-4    9.029551892173730E-5    2.301433839897695E-4    9.280852297103816E-5   -3.699638150484792E-1    3.318432501222477E-1
 1.000591844280000E+10  -4.987987908008932E-1    5.639342047126771E-2    2.804236531610715E-4    6.583586575114940E-5    2.599412260469440E-4    7.458057820912089E-5   -3.696432064456355E-1    3.322304567833999E-1
 1.000592373940000E+10  -4.986921226707963E-1    5.671396016820810E-2    2.654457681737285E-4    1.069004115731956E-4    2.450470888705757E-4    7.763402080647613E-5   -3.692041540838294E-1    3.325327459367557E-1
 1.000592903600000E+10  -4.986846927608439E-1    5.712817722309740E-2    2.905287130049210E-4    9.100313656055174E-5    2.683362811956858E-4    1.111107444496858E-4   -3.690231413831825E-1    3.328508974966017E-1
