#  HZ   S   RI   R     50.00 
! Rohde & Schwarz Vector Network Analyzer 
! Rohde-Schwarz,ZNB20-2Port,1311601062101988,3.16
! Created: UTC 3/20/2024, 11:59:44 AM
! freq[Hz]                re:S11                  im:S11                  re:S21                  im:S21                  re:S12                  im:S12                  re:S22                  im:S22
 1.000554013600000E+10  -5.002894632361862E-1    3.168540771482911E-2   -1.148799695653595E-4   -4.311655369729805E-4   -9.154730322789068E-5   -4.413634577964579E-4   -3.890013552392753E-1    3.087910884407267E-1
 1.000554508495000E+10  -5.003009514115434E-1    3.203860377760380E-2   -1.003622579157702E-4   -4.572454033242555E-4   -7.734152986721817E-5   -4.352679610949635E-4   -3.887846171114839E-1    3.088903654190214E-1
 1.000555003390000E+10  -5.003802324387362E-1    3.247975464372649E-2   -1.161692115007145E-4   -4.319070125300760E-4   -7.970213545931465E-5   -4.074124325793057E-4   -3.884754064669563E-1    3.092065709194202E-1
 1.000555498285000E+10  -5.002352876056327E-1    3.271555979531889E-2   -1.057594352759859E-4   -4.551593074002548E-4   -4.946723399294795E-5   -4.200901104015874E-4   -3.884290953511943E-1    3.095613827250747E-1
 1.000555993180000E+10  -5.000820540834363E-1    3.300586636215881E-2   -1.273967810363515E-4   -4.211731380670768E-4   -1.123361770610523E-4   -4.230590421103312E-4   -3.880230555026961E-1    3.099068663600689E-1
 1.000556488075000E+10  -5.003247391040937E-1    3.328230049673094E-2   -1.285581028411775E-4   -4.253803932667390E-4   -6.437443082462735E-5   -4.066244473383984E-4   -3.878049729415809E-1    3.101389021541770E-1
 1.000556982970000E+10  -5.001609040307458E-1    3.368688265094319E-2   -8.893674788322390E-5   -4.271537606672263E-4   -7.654218872022577E-5   -4.049642484012747E-4   -3.876508042395519E-1    3.103881270830217E-1
 1.000557477865000E+10  -5.002318238040537E-1    3.393145574778144E-2   -9.086112265539281E-5   -4.219103976962523E-4   -8.643203963733752E-5   -4.507817555378161E-4   -3.875992517785130E-1    3.107768069356208E-1
 1.000557972760000E+10  -5.000533023269131E-1    3.434646697579065E-2   -1.110757075849821E-4   -4.042847626424344E-4   -8.982205051961557E-5   -4.129002359400564E-4   -3.873069243496275E-1    3.110488446979038E-1
 1.000558467655000E+10  -5.002093752263580E-1    3.457346268862549E-2   -1.070892315229197E-4   -3.864932393194521E-4   -5.356148636656022E-5   -4.051936710483124E-4   -3.869497330495133E-1    3.114757213211710E-1
 1.000558962550000E+10  -5.002265166120308E-1    3.493971092171243E-2   -1.000775162842529E-4   -3.896953922707418E-4   -9.228603416164158E-5   -4.258900805672127E-4   -3.868466811323472E-1    3.116272652308255E-1
 1.000559457445000E+10  -5.001926186360668E-1    3.520110976164906E-2   -8.240723031597368E-5   -4.402426957363678E-4   -6.016427089303194E-5   -4.000702443285661E-4   -3.865209609997878E-1    3.119477666931985E-1
 1.000559952340000E+10  -5.000245282922825E-1    3.561088917895305E-2   -8.082474936681365E-5   -4.046368657918367E-4   -7.210541336427933E-5   -3.974330784521231E-4   -3.863498023806735E-1    3.122851278032398E-1
 1.000560447235000E+10  -5.001223263207420E-1    3.597213667976586E-2   -9.899945420190119E-5   -4.105101427707748E-4   -4.947830846029505E-5   -3.976404091700018E-4   -3.861860072622108E-1    3.125110039348561E-1
 1.000560942130000E+10  -5.001406771012655E-1    3.626677703875379E-2   -6.991152801052146E-5   -3.795541264029484E-4   -7.201461190599819E-5   -3.849359708024474E-4   -3.858561889403517E-1    3.128489123531326E-1
 1.000561437025000E+10  -5.001217403601127E-1    3.646062622980391E-2   -6.806802133542761E-5   -3.694937771216197E-4   -6.791594497029345E-5   -4.004203168028871E-4   -3.856821385225899E-1    3.130850123998871E-1
 1.000561931920000E+10  -5.001485911151491E-1    3.690915769091752E-2   -6.452205888382127E-5   -3.709862668490366E-4   -4.732857285515821E-5   -3.558468873371584E-4   -3.854757837809202E-1    3.134399292878950E-1
 1.000562426815000E+10  -4.999629268616546E-1    3.717562495356437E-2   -6.248883258873717E-5   -3.636036016430072E-4   -5.888624717944810E-5   -4.124426707033462E-4   -3.852453533828331E-1    3.137164334645980E-1
 1.000562921710000E+10  -5.000501714319517E-1    3.766344779236516E-2   -5.591951141085131E-5   -3.299622196981863E-4   -3.306947410115099E-5   -3.775981635170209E-4   -3.850258471599429E-1    3.140104301197964E-1
 1.000563416605000E+10  -5.000639001705228E-1    3.791720189176125E-2   -4.606381228000768E-5   -3.562866254636311E-4   -5.803785009312764E-5   -3.971111971673385E-4   -3.848605493484979E-1    3.142346830672252E-1
 1.000563911500000E+10  -5.000191776353190E-1    3.818787901262807E-2   -7.320710110061412E-5   -3.556673450175855E-4   -2.672881444385195E-5   -3.703075640240368E-4   -3.846084321286919E-1    3.146873697495573E-1
 1.000564406395000E+10  -4.998830411024526E-1    3.856088364151828E-2   -5.776188594102157E-5   -3.242534422795187E-4   -5.760394938422100E-5   -3.535940596672443E-4   -3.843927512587982E-1    3.149534280155928E-1
 1.000564901290000E+10  -5.000062249253600E-1    3.870962531372067E-2   -8.331955778685720E-5   -3.684818807446508E-4   -2.377332693575952E-5   -3.621869037683336E-4   -3.840503608308184E-1    3.153086828131881E-1
 1.000565396185000E+10  -4.999015533786655E-1    3.907213946630843E-2   -6.243149706265807E-5   -3.471911321968285E-4   -3.989056117352112E-5   -3.255069245249321E-4   -3.839620633476072E-1    3.154753673675332E-1
 1.000565891080000E+10  -4.998679422808450E-1    3.950549711493290E-2   -7.092821365505076E-5   -3.384182462070952E-4   -3.903877199450423E-5   -3.182073375530098E-4   -3.837390544286619E-1    3.158839969033473E-1
 1.000566385975000E+10  -4.999134467001015E-1    3.967978834804494E-2   -5.163126910964386E-5   -3.233707979371035E-4   -4.680451528588732E-5   -3.158289611975026E-4   -3.834431410960211E-1    3.160900336218584E-1
 1.000566880870000E+10  -4.998726506347159E-1    4.010014120326937E-2   -4.820428550730425E-5   -3.277699311701924E-4   -4.707990884833761E-5   -2.949363660804779E-4   -3.832846990512220E-1    3.164418336131856E-1
 1.000567375765000E+10  -4.998896666712607E-1    4.045014995213485E-2   -3.653573883453914E-5   -3.283625350741021E-4   -8.251800602866823E-5   -3.067932927284262E-4   -3.828849437647950E-1    3.167390058153935E-1
 1.000567870660000E+10  -4.999361177468600E-1    4.085565489925928E-2   -4.458345910224944E-5   -2.884003252104907E-4   -1.916964342268234E-5   -3.110219162553235E-4   -3.825544899166245E-1    3.169815114377361E-1
 1.000568365555000E+10  -4.998769986295048E-1    4.113424170427003E-2   -4.240116846535965E-5   -3.124848128029711E-4   -1.704593323698975E-5   -3.123502162443164E-4   -3.823338883587945E-1    3.172623803071266E-1
 1.000568860450000E+10  -4.997417850944425E-1    4.149375792036247E-2   -3.113910576461871E-5   -3.156827257197849E-4   -2.275588680649952E-5   -2.931978479667581E-4   -3.822133231217583E-1    3.175796820807615E-1
 1.000569355345000E+10  -4.997037932434965E-1    4.179718533986446E-2   -1.166363561922488E-5   -3.066668779640258E-4   -1.295341957183316E-5   -2.885536021305412E-4   -3.820540277517751E-1    3.178381010615243E-1
 1.000569850240000E+10  -4.998627098940426E-1    4.207239745717072E-2   -1.632832267539186E-5   -2.907814035445675E-4   -3.238255641532741E-5   -2.793313673861723E-4   -3.817747260507602E-1    3.182323172652250E-1
 1.000570345135000E+10  -4.998112899440443E-1    4.229547794729515E-2   -1.723597249597961E-5   -2.842615737185250E-4    1.076357176667538E-5   -3.022257358349398E-4   -3.815581340323925E-1    3.184312100543726E-1
 1.000570840030000E+10  -4.998017538376140E-1    4.270604526843828E-2   -2.198818540144631E-5   -2.855717664351981E-4    3.635734126215507E-5   -2.847845571218411E-4   -3.814406109185809E-1    3.186877954986956E-1
 1.000571334925000E+10  -4.997144758415911E-1    4.307311482395093E-2   -1.468307147143197E-5   -2.943926881719336E-4   -2.319817553807757E-5   -2.786871435971236E-4   -3.811403089984493E-1    3.191115224152659E-1
 1.000571829820000E+10  -4.997945207336937E-1    4.334688606340818E-2   -1.356638474682240E-5   -2.680966355309779E-4   -1.002311826302624E-5   -2.999795770558935E-4   -3.807884121765759E-1    3.194058490606110E-1
 1.000572324715000E+10  -4.996873486118901E-1    4.374828378988465E-2   -4.321081396513495E-5   -2.601647345018451E-4    4.284559568045166E-6   -2.310725804405839E-4   -3.805339402534379E-1    3.196867343798108E-1
 1.000572819610000E+10  -4.996422517277891E-1    4.407932309045604E-2   -2.549219505125187E-5   -2.467343356391492E-4    4.152092004775637E-5   -2.284534003951607E-4   -3.802703598029187E-1    3.199263167535764E-1
 1.000573314505000E+10  -4.998263394592265E-1    4.435683974302133E-2   -7.628636603895134E-6   -2.409150213767822E-4   -6.467689015238683E-6   -2.411610859470452E-4   -3.800694741462147E-1    3.202041107163993E-1
 1.000573809400000E+10  -4.996329324185265E-1    4.472805795561154E-2   -7.674963673032236E-6   -2.262628744682958E-4    1.755906284240916E-5   -2.189285383580834E-4   -3.797981133577914E-1    3.206008272502294E-1
 1.000574304295000E+10  -4.997086631001481E-1    4.493696002421140E-2    8.946391475771334E-6   -2.480041878692334E-4   -2.418351581930249E-5   -2.248385955172108E-4   -3.795866061691217E-1    3.210379283718543E-1
 1.000574799190000E+10  -4.995635427867794E-1    4.525529160938125E-2    4.467556038961342E-6   -2.451890068857164E-4    3.552606710678065E-5   -2.178120681055392E-4   -3.794612951606151E-1    3.213464866362266E-1
 1.000575294085000E+10  -4.994598482581946E-1    4.566405064953073E-2    1.693757809459893E-5   -2.035225214459009E-4    2.558399668869807E-5   -2.273648031150428E-4   -3.790736942022152E-1    3.214322699355961E-1
 1.000575788980000E+10  -4.995703569339658E-1    4.596635171830903E-2    1.835991504210544E-6   -2.013592614046278E-4    8.169975145873212E-6   -1.857685236267278E-4   -3.787655144804071E-1    3.217714880169805E-1
 1.000576283875000E+10  -4.996358739093221E-1    4.630448542794993E-2    4.294922368304857E-5   -1.957293292443125E-4    3.645172238316867E-5   -2.148755295387895E-4   -3.785712709345616E-1    3.221149633611334E-1
 1.000576778770000E+10  -4.995119087327262E-1    4.651286206495025E-2    2.197243083661644E-5   -1.884071928049308E-4    3.431927978510721E-5   -1.857899945977267E-4   -3.783662793073294E-1    3.225137961599416E-1
 1.000577273665000E+10  -4.994294721357468E-1    4.688989466213431E-2    3.224719335448884E-5   -1.923585039394431E-4    1.947532509191745E-5   -2.063733982802711E-4   -3.781544495641307E-1    3.228189192862603E-1
 1.000577768560000E+10  -4.994782919469181E-1    4.721173332067606E-2    6.490713910354140E-5   -1.799225442676426E-4    4.956231590857089E-5   -1.822364191963532E-4   -3.778498561287726E-1    3.230063813406507E-1
 1.000578263455000E+10  -4.995787436781686E-1    4.746913500970585E-2    2.243010228794024E-5   -2.034564341288234E-4    3.648861375810636E-5   -1.829983761213930E-4   -3.775723543190833E-1    3.233703704250618E-1
 1.000578758350000E+10  -4.994645326481923E-1    4.798077619852863E-2    3.131403890663046E-5   -2.023834329954719E-4    6.844699872390492E-5   -1.448399753192840E-4   -3.773123179869060E-1    3.236351524661303E-1
 1.000579253245000E+10  -4.993127870491335E-1    4.811851269050862E-2    1.493005855688806E-5   -1.668407149695297E-4    3.279612169196604E-5   -1.702348939150821E-4   -3.770437884067529E-1    3.240957674765962E-1
 1.000579748140000E+10  -4.994363112747490E-1    4.852250862412518E-2    6.924973839991465E-5   -1.822477521855570E-4    4.815272788868594E-5   -1.481577710734516E-4   -3.767554715592425E-1    3.243574789855896E-1
 1.000580243035000E+10  -4.993452305818056E-1    4.874526820697829E-2    5.668093067973988E-5   -1.415937007255419E-4    3.683297330605235E-5   -1.604840030121498E-4   -3.766070823902385E-1    3.245558524628858E-1
 1.000580737930000E+10  -4.993370338857941E-1    4.924115649040451E-2    9.343491895770724E-5   -1.853704353321062E-4    6.023172022443170E-5   -1.581171531951139E-4   -3.763378599036692E-1    3.249168673156302E-1
 1.000581232825000E+10  -4.993874792818986E-1    4.947673335549634E-2    6.219818848149004E-5   -1.575331397872564E-4    5.142156495327829E-5   -1.472700795673549E-4   -3.760793886780202E-1    3.251556543817576E-1
 1.000581727720000E+10  -4.993649814746052E-1    4.982223406917972E-2    7.786637986956379E-5   -1.226782426671623E-4    8.812361749330754E-5   -1.366915420589521E-4   -3.756495144955346E-1    3.255814508722990E-1
 1.000582222615000E+10  -4.992247183830936E-1    5.009460754973168E-2    7.723530362042855E-5   -1.321736669185183E-4    9.547936469570700E-5   -1.143933319926467E-4   -3.755315586028998E-1    3.258298974278067E-1
 1.000582717510000E+10  -4.992278186350708E-1    5.043304287830581E-2    7.489250704074498E-5   -1.248677969563459E-4    7.858058042570812E-5   -1.369433141594647E-4   -3.752586404778460E-1    3.259891980044563E-1
 1.000583212405000E+10  -4.992513331985409E-1    5.080337580334596E-2    7.278951853695185E-5   -9.067699050277885E-5    1.032047790535941E-4   -1.365549942814979E-4   -3.748190981146346E-1    3.263859335954868E-1
 1.000583707300000E+10  -4.992342776702964E-1    5.115538643737737E-2    9.600037832234248E-5   -8.831794690914707E-5    8.110458886422030E-5   -1.112334351862906E-4   -3.748173980292828E-1    3.266838517419778E-1
 1.000584202195000E+10  -4.993121841500985E-1    5.139252735761498E-2    1.025068126180768E-4   -1.134861699014534E-4    1.256010418878235E-4   -6.544466393434474E-5   -3.743489026046629E-1    3.270693435740233E-1
 1.000584697090000E+10  -4.992359239549393E-1    5.172134354689081E-2    1.244166252533489E-4   -8.956108524357764E-5    9.591991712924790E-5   -8.834773587609145E-5   -3.742349715816552E-1    3.272150063589568E-1
 1.000585191985000E+10  -4.991006252870492E-1    5.208797451281191E-2    1.283984858478298E-4   -7.581817920405745E-5    7.522371784872711E-5   -6.138016321110369E-5   -3.739323456804419E-1    3.277389253117969E-1
 1.000585686880000E+10  -4.991497325089609E-1    5.233203067193481E-2    1.482246327456454E-4   -8.979508398098337E-5    1.486884636190590E-4   -6.170739147627553E-5   -3.735351759857495E-1    3.281116481663773E-1
 1.000586181775000E+10  -4.991219598798876E-1    5.267368868129148E-2    1.220631715179214E-4   -7.267646442476031E-5    9.634975116634453E-5   -5.797877072610753E-5   -3.732997371589143E-1    3.284398505989467E-1
 1.000586676670000E+10  -4.991224796254078E-1    5.289429418238899E-2    1.532568612727180E-4   -4.120554447153109E-5    1.427040211568597E-4   -4.902157398016721E-5   -3.730892074555751E-1    3.286942700594798E-1
 1.000587171565000E+10  -4.989920069387553E-1    5.346826717881358E-2    1.538590370645479E-4   -4.897780249682724E-5    1.253627538035933E-4   -6.267145102944517E-5   -3.728970313905653E-1    3.290418866583610E-1
 1.000587666460000E+10  -4.991170676536943E-1    5.370983138853123E-2    1.494065921795919E-4   -4.564775759628247E-5    1.433513771992303E-4   -5.905839070718080E-5   -3.726045556770063E-1    3.292151371982313E-1
 1.000588161355000E+10  -4.989688415299353E-1    5.406625484424865E-2    1.369268718162213E-4   -3.973586720248619E-5    1.574850161525626E-4   -6.193643298173401E-6   -3.723412368832033E-1    3.295846143442343E-1
 1.000588656250000E+10  -4.989356163686725E-1    5.423236078077000E-2    1.938397209218536E-4   -3.264556922903938E-5    1.516675112418215E-4    1.224823249525885E-5   -3.719776294658375E-1    3.298927864320612E-1
 1.000589151145000E+10  -4.990149401442648E-1    5.453863313216158E-2    1.687966103058998E-4    5.731059921119774E-6    1.787080178452983E-4    2.199527498345111E-5   -3.715949293315498E-1    3.301968562107384E-1
 1.000589646040000E+10  -4.987900105176167E-1    5.508333243917871E-2    1.763107117655503E-4    3.112500749153159E-6    1.628108347866185E-4   -8.016637669869501E-6   -3.713160754586732E-1    3.306485056636576E-1
 1.000590140935000E+10  -4.989323830415470E-1    5.530487254537092E-2    1.851005393098209E-4    2.257434328494872E-5    1.920960033525063E-4   -5.133633677204447E-7   -3.712202228760241E-1    3.309187246975935E-1
 1.000590635830000E+10  -4.988635491959894E-1    5.553257873797401E-2    1.880477766877277E-4    2.605675325140281E-5    1.888215932970885E-4    1.685187615650699E-5   -3.708563972610140E-1    3.312512417143561E-1
 1.000591130725000E+10  -4.988692629499361E-1    5.600249365119408E-2    1.878921897553085E-4    2.544725505214329E-5    1.888141297087509E-4    8.710713521983940E-6   -3.705115619721648E-1    3.315079099066512E-1
 1.000591625620000E+10  -4.989672057115720E-1    5.615007901375243E-2    2.262564345900480E-4    4.766631420618014E-5    1.990697839476524E-4    8.644390169216647E-5   -3.702581293882422E-1    3.318936213877268E-1
 1.000592120515000E+10  -4.986855648394328E-1    5.651117664777690E-2    2.042270367186930E-4    5.859348335362195E-5    2.128564036517355E-4    5.314079426577292E-5   -3.698287515149215E-1    3.321056948021128E-1
 1.000592615410000E+10  -4.988661335279629E-1    5.690331038992329E-2    2.377371947118587E-4    3.085766874901800E-5    2.459222034757380E-4    6.454921654904559E-5   -3.696022966484816E-1    3.323921212618073E-1
 1.000593110305000E+10  -4.987219813596471E-1    5.719603548735002E-2    2.408093973565924E-4    9.914223405909560E-5    2.216024631536051E-4    6.703938281320538E-5   -3.691745660032121E-1    3.328142818770790E-1
 1.000593605200000E+10  -4.987417172247147E-1    5.756646747172482E-2    2.385130103573029E-4    1.010025212993200E-4    2.122921805881233E-4    1.005899565471987E-4   -3.689750685262438E-1    3.331670900124939E-1
 1.000594100095000E+10  -4.986652765311555E-1    5.792866833433351E-2    2.412633521444976E-4    8.345686148177057E-5    2.254269529651706E-4    8.522685186391190E-5   -3.687402665317851E-1    3.334685951659237E-1
 1.000594594990000E+10  -4.986472137574284E-1    5.812177365664607E-2    2.371085208744364E-4    9.122304976489566E-5    2.514684610470628E-4    1.251852047036128E-4   -3.684655035793231E-1    3.338650174500598E-1
 1.000595089885000E+10  -4.986238758036961E-1    5.846379877752228E-2    2.609042777766828E-4    1.101034666373737E-4    2.521165371877113E-4    1.203734266091077E-4   -3.681067533035494E-1    3.341966574449965E-1
 1.000595584780000E+10  -4.986650702463702E-1    5.895545801160829E-2    2.933109715297253E-4    1.345716623500651E-4    2.642139276850625E-4    1.436196561692881E-4   -3.677988508952735E-1    3.344981662023002E-1
 1.000596079675000E+10  -4.985477437985408E-1    5.899486639790138E-2    2.904745067858933E-4    1.373406175034147E-4    2.845117603337440E-4    1.211791575023320E-4   -3.673302510015017E-1    3.346298910757651E-1
 1.000596574570000E+10  -4.985160181488488E-1    5.948503720015637E-2    2.819135709410654E-4    1.340658304747820E-4    2.635865152863209E-4    1.571708279808745E-4   -3.672619442420436E-1    3.351101698941965E-1
 1.000597069465000E+10  -4.984800889873348E-1    5.971845505314523E-2    3.113549540408911E-4    1.709530591528597E-4    2.895814353720012E-4    1.304094363738045E-4   -3.668315807930327E-1    3.354612842084042E-1
 1.000597564360000E+10  -4.985626244351596E-1    6.007767490566544E-2    3.187481006015585E-4    1.835548270363913E-4    3.133778042211283E-4    2.033469378104407E-4   -3.664471303979897E-1    3.357153604512197E-1
 1.000598059255000E+10  -4.985008528638278E-1    6.042795208031705E-2    3.409177916460659E-4    1.619866995074075E-4    3.236032644936024E-4    1.703903584133524E-4   -3.662104062297335E-1    3.360273026115380E-1
 1.000598554150000E+10  -4.983779523382220E-1    6.078395926509950E-2    3.248056241122871E-4    1.920090039282519E-4    3.304319198935223E-4    2.041606265089777E-4   -3.658196321347957E-1    3.364170662816433E-1
