#  HZ   S   RI   R     50.00 
! Rohde & Schwarz Vector Network Analyzer 
! Rohde-Schwarz,ZNB20-2Port,1311601062101988,3.16
! Created: UTC 3/20/2024, 11:38:19 AM
! freq[Hz]                re:S11                  im:S11                  re:S21                  im:S21                  re:S12                  im:S12                  re:S22                  im:S22
 1.000615466400000E+10  -4.965950172052693E-1    7.238183912985661E-2    3.544862990473893E-4    4.586491763314137E-4    3.218528478034403E-4    4.661760466337859E-4   -3.576787671241698E-1    3.484211879294152E-1
 1.000615697270000E+10  -4.964487014777808E-1    7.233651591852516E-2    3.622404635818803E-4    4.855733775895251E-4    3.291094236178889E-4    4.932452941504440E-4   -3.574157653002077E-1    3.485978387711564E-1
 1.000615928140000E+10  -4.965884575639398E-1    7.271024976005136E-2    3.642701058709212E-4    4.724897401327069E-4    3.409471689884474E-4    4.837888141711329E-4   -3.571866644229586E-1    3.488065599327279E-1
 1.000616159010000E+10  -4.966666469918014E-1    7.274239888164591E-2    3.514964778764628E-4    4.759223230233792E-4    3.094333323159372E-4    4.802652428787856E-4   -3.571707449829608E-1    3.489688823311761E-1
 1.000616389880000E+10  -4.964760892656055E-1    7.294883548274601E-2    3.947266810706310E-4    4.936960736068600E-4    3.801147919544042E-4    4.794790541334722E-4   -3.568752690615239E-1    3.491057486690259E-1
 1.000616620750000E+10  -4.965187859666738E-1    7.305750788984730E-2    3.661232362239626E-4    5.047260729656750E-4    3.654708762486881E-4    5.164290426888072E-4   -3.567515991600622E-1    3.493087906281579E-1
 1.000616851620000E+10  -4.965429791971265E-1    7.331946968330767E-2    3.828841478016576E-4    5.329244965128519E-4    3.393175601234130E-4    5.342904777494535E-4   -3.564364674310203E-1    3.494607959266319E-1
 1.000617082490000E+10  -4.964427800970402E-1    7.342254000022273E-2    3.738324461904432E-4    5.068804807893716E-4    3.608711020883676E-4    5.225558456577283E-4   -3.563241126393516E-1    3.496952656332938E-1
 1.000617313360000E+10  -4.965249129187734E-1    7.356369362669574E-2    3.893693062607995E-4    5.308971876883636E-4    3.520200667143406E-4    5.698351483763674E-4   -3.562409673776428E-1    3.497505285032305E-1
 1.000617544230000E+10  -4.964975634730442E-1    7.363378381064371E-2    3.934869518872055E-4    5.440307045308308E-4    3.502991359049118E-4    5.890593842059280E-4   -3.559269804312648E-1    3.500258946257403E-1
 1.000617775100000E+10  -4.964291583123456E-1    7.387036437810166E-2    4.107377110159550E-4    5.550255475546891E-4    3.409668201003910E-4    5.587123687042202E-4   -3.557565327697244E-1    3.501794000820163E-1
 1.000618005970000E+10  -4.964018366605211E-1    7.389386229786184E-2    4.103436173114540E-4    5.714651603729578E-4    3.751921271598816E-4    5.456082753474097E-4   -3.557242380459193E-1    3.502554873697701E-1
 1.000618236840000E+10  -4.963336006365007E-1    7.411577271666842E-2    4.019395382623826E-4    5.604955283653028E-4    3.884670290434633E-4    5.681910625677269E-4   -3.554366942328082E-1    3.506284451286577E-1
 1.000618467710000E+10  -4.963451522281310E-1    7.431800058441131E-2    4.101720692710666E-4    5.451609438500276E-4    4.013068041147431E-4    5.715517839831297E-4   -3.552259514292307E-1    3.506596659329327E-1
 1.000618698580000E+10  -4.962268120370249E-1    7.440856780119692E-2    4.407107667989805E-4    6.126396354715837E-4    4.123700859313904E-4    5.622414688373714E-4   -3.550268870517352E-1    3.508506551474963E-1
 1.000618929450000E+10  -4.962726952751270E-1    7.456876849371021E-2    4.403815768049126E-4    5.979097972955342E-4    4.109275652237369E-4    6.232921517903971E-4   -3.549094767354287E-1    3.510907624373488E-1
 1.000619160320000E+10  -4.962868563324496E-1    7.479441249355080E-2    4.362860056629688E-4    6.115604476305531E-4    4.100543197089726E-4    6.210127929272971E-4   -3.546155560463361E-1    3.512108237362014E-1
 1.000619391190000E+10  -4.961990024786493E-1    7.487970307036523E-2    4.583626141583738E-4    6.094627966138705E-4    4.251129975247102E-4    6.312184178312279E-4   -3.546096096282126E-1    3.514634651037269E-1
 1.000619622060000E+10  -4.962565260831288E-1    7.507288600912608E-2    4.668227856936665E-4    6.576327279730579E-4    4.439486702833503E-4    6.281626146516848E-4   -3.543669861159311E-1    3.516762029426550E-1
 1.000619852930000E+10  -4.962090301188047E-1    7.523814387732149E-2    4.796342654336842E-4    6.537992774355370E-4    4.134376200160368E-4    6.505712404628618E-4   -3.540931181339090E-1    3.518982211537753E-1
 1.000620083800000E+10  -4.962646174320078E-1    7.538356627968835E-2    4.735165390794976E-4    6.487939654659953E-4    4.552450773086125E-4    6.631307420507143E-4   -3.539010154329423E-1    3.520742969489020E-1
 1.000620314670000E+10  -4.962931696227296E-1    7.558710775031008E-2    4.858033887390255E-4    6.808622975788050E-4    4.373798754530254E-4    6.597911363175902E-4   -3.538350757758149E-1    3.521823124151993E-1
 1.000620545540000E+10  -4.961805336413698E-1    7.572304156276091E-2    5.075653426267309E-4    6.674524469472809E-4    4.655844004590956E-4    6.830178692909071E-4   -3.535711891810820E-1    3.524891842009984E-1
 1.000620776410000E+10  -4.962488780667406E-1    7.593598848336060E-2    4.982602356725408E-4    6.735542556014434E-4    4.601004359297825E-4    6.952015337516626E-4   -3.534101548690143E-1    3.526138001977678E-1
 1.000621007280000E+10  -4.962105634874435E-1    7.612891889530971E-2    4.994804298788179E-4    6.889859084929285E-4    4.863881873558793E-4    6.838741503814322E-4   -3.531761276186258E-1    3.529253753832546E-1
 1.000621238150000E+10  -4.960866271406725E-1    7.617238123488843E-2    5.182016237794336E-4    6.821168469281544E-4    4.881617003867548E-4    7.084058781598303E-4   -3.530572564111713E-1    3.530237044113032E-1
 1.000621469020000E+10  -4.961998410459151E-1    7.640222744901984E-2    5.192716196493609E-4    7.088087575144949E-4    4.667447491259707E-4    7.012336085986386E-4   -3.529057821949528E-1    3.531236492748244E-1
 1.000621699890000E+10  -4.960419833830953E-1    7.649514955753434E-2    5.545188435383447E-4    7.255075624393227E-4    4.986873770403643E-4    7.389615633636821E-4   -3.525351756002315E-1    3.533188542152215E-1
 1.000621930760000E+10  -4.959004707809936E-1    7.668809246532980E-2    5.623183532007628E-4    7.431938784505779E-4    5.007039201481550E-4    7.305148868470505E-4   -3.524168576786973E-1    3.535848543869028E-1
 1.000622161630000E+10  -4.960554006275473E-1    7.682170270645673E-2    5.587860174377939E-4    7.217376926895701E-4    4.843320814530729E-4    7.552590026013641E-4   -3.523703484461693E-1    3.536196868302748E-1
 1.000622392500000E+10  -4.962194106700474E-1    7.692197569473749E-2    5.606198497295918E-4    7.737759525768159E-4    5.043835942396159E-4    7.741924402524759E-4   -3.518575372593701E-1    3.539745447568754E-1
 1.000622623370000E+10  -4.960468899878221E-1    7.700281179046574E-2    5.422163446134849E-4    7.629618128654908E-4    5.447187683664111E-4    7.972392472462190E-4   -3.518173483389931E-1    3.542425445540459E-1
 1.000622854240000E+10  -4.959425346859702E-1    7.720782751635376E-2    5.754992137452589E-4    7.814026842965833E-4    5.227723185085640E-4    7.803520692168443E-4   -3.514901471875558E-1    3.544810186141988E-1
 1.000623085110000E+10  -4.960510229703057E-1    7.733106948787515E-2    5.976955739579103E-4    7.999947269026637E-4    5.321633487214457E-4    7.927811206814233E-4   -3.515064376827701E-1    3.545463347963719E-1
 1.000623315980000E+10  -4.959047331983966E-1    7.759294037042475E-2    5.757574555363994E-4    7.914270171644967E-4    5.509509022070026E-4    8.355158799883479E-4   -3.513383460636733E-1    3.548645770655793E-1
 1.000623546850000E+10  -4.960634916129408E-1    7.770880740816812E-2    5.967620846342004E-4    8.018816481375554E-4    5.646750302321625E-4    8.181029885068904E-4   -3.510402021045909E-1    3.550739224557773E-1
 1.000623777720000E+10  -4.957540386765082E-1    7.782528091800968E-2    6.004101725858956E-4    8.422145733641516E-4    5.665322958097416E-4    8.159256599785264E-4   -3.506719794199897E-1    3.551559601410064E-1
 1.000624008590000E+10  -4.959174725847665E-1    7.797890967246376E-2    6.189036544645327E-4    8.153503148552536E-4    5.443284879489953E-4    8.265800270916259E-4   -3.504574370566225E-1    3.553999497174711E-1
 1.000624239460000E+10  -4.958702115387944E-1    7.803209142956775E-2    6.248774338735886E-4    8.365082880311432E-4    5.602528163385125E-4    8.505770947046484E-4   -3.502954779705477E-1    3.555969251729656E-1
 1.000624470330000E+10  -4.958066861358013E-1    7.829777143488434E-2    6.383177203627956E-4    8.650718638223879E-4    5.916033037131519E-4    8.800555891009123E-4   -3.499189731112687E-1    3.556403243594261E-1
 1.000624701200000E+10  -4.958709881152617E-1    7.841097204113663E-2    6.547813650963998E-4    8.406354392553674E-4    5.977304584100890E-4    8.743945127110011E-4   -3.498380110573674E-1    3.559665303877486E-1
 1.000624932070000E+10  -4.958131265995511E-1    7.853301309288312E-2    6.580119867282934E-4    8.567124138877080E-4    6.106817911311803E-4    9.035253058388784E-4   -3.496071495206727E-1    3.563485366945958E-1
 1.000625162940000E+10  -4.958434841387483E-1    7.878632364619667E-2    6.671473850373326E-4    8.705536875914922E-4    6.142537109622682E-4    8.904158180101371E-4   -3.494644021965774E-1    3.561991406364137E-1
 1.000625393810000E+10  -4.957740757851261E-1    7.887562360965435E-2    7.057738795544239E-4    8.954858988942846E-4    5.859508916481248E-4    9.060735326151757E-4   -3.492005347464160E-1    3.566097342211782E-1
 1.000625624680000E+10  -4.956754200922082E-1    7.901095635462589E-2    6.634986730472192E-4    9.184965550238798E-4    6.407409753358403E-4    9.273097020647398E-4   -3.489399051743096E-1    3.568239648416590E-1
 1.000625855550000E+10  -4.956698814742087E-1    7.910679475639507E-2    6.978607647118766E-4    9.240231206544869E-4    6.475928140559052E-4    9.199665856352320E-4   -3.488497248055408E-1    3.571271358522522E-1
 1.000626086420000E+10  -4.956648252083063E-1    7.934964327155543E-2    7.307755114284036E-4    9.547925371794375E-4    6.600543457503939E-4    9.666236951482093E-4   -3.485432495650145E-1    3.572879818700570E-1
 1.000626317290000E+10  -4.957111705775565E-1    7.942485411007148E-2    7.164019966772594E-4    9.599866811537883E-4    6.661794058435530E-4    9.898311687130878E-4   -3.482868152295893E-1    3.574402912784545E-1
 1.000626548160000E+10  -4.956114294286125E-1    7.969723759788055E-2    7.263092610709483E-4    9.300621709390918E-4    6.762191614339596E-4    9.848391969990277E-4   -3.481577896671187E-1    3.576981063778803E-1
 1.000626779030000E+10  -4.956011430869379E-1    7.974248213375419E-2    7.325318374367108E-4    9.477461976530344E-4    6.784348329804930E-4    9.934097977058450E-4   -3.478800494847578E-1    3.579263382451316E-1
 1.000627009900000E+10  -4.956455271088582E-1    7.992331207802246E-2    7.355376398494713E-4    1.008666362991348E-3    6.992814356796886E-4    9.989029555539063E-4   -3.474905951284667E-1    3.580120949527282E-1
 1.000627240770000E+10  -4.955724919142469E-1    8.000479332470133E-2    7.716955598786115E-4    9.964847682334985E-4    6.967468043013609E-4    1.031673772709328E-3   -3.473566786314461E-1    3.582688408905950E-1
 1.000627471640000E+10  -4.956438599791343E-1    8.022178803343145E-2    7.718284827872056E-4    1.049940957991937E-3    7.314223539868414E-4    1.023503465447632E-3   -3.470588167769096E-1    3.585018659247720E-1
 1.000627702510000E+10  -4.955152670529691E-1    8.041310013965083E-2    8.051186197167404E-4    1.026125963046159E-3    7.106601574868714E-4    1.053853066454185E-3   -3.467383555573355E-1    3.586672676356604E-1
 1.000627933380000E+10  -4.955506961505332E-1    8.060819834095360E-2    8.077687515820124E-4    1.031333576743179E-3    7.214535744430306E-4    1.086843427673649E-3   -3.465927402708728E-1    3.588768730568855E-1
 1.000628164250000E+10  -4.955748622886189E-1    8.067928616771086E-2    8.229256875265103E-4    1.071882076437216E-3    7.426046923252995E-4    1.067874658045884E-3   -3.463560532825543E-1    3.590743912958686E-1
 1.000628395120000E+10  -4.955786978318855E-1    8.086743806264640E-2    8.285313205068688E-4    1.077474262353743E-3    7.613212497487801E-4    1.100843924292597E-3   -3.461567910436166E-1    3.593231372825440E-1
 1.000628625990000E+10  -4.955632408679130E-1    8.102750031906208E-2    8.289789946357897E-4    1.076246402828940E-3    7.824913179447725E-4    1.105457136363518E-3   -3.458460444158922E-1    3.595026460181870E-1
 1.000628856860000E+10  -4.954088026947756E-1    8.108378702097520E-2    8.657652948483394E-4    1.118870691657284E-3    7.728905767820755E-4    1.122784417777708E-3   -3.455778257025550E-1    3.598583377802090E-1
 1.000629087730000E+10  -4.953317024979684E-1    8.123390146571413E-2    8.781741264937666E-4    1.132261519864255E-3    8.012865193053086E-4    1.131001869548889E-3   -3.452354463577838E-1    3.601593953374871E-1
 1.000629318600000E+10  -4.953728904100462E-1    8.151930111242540E-2    8.796424577344593E-4    1.128426003807897E-3    8.069742567839021E-4    1.143334255942917E-3   -3.452062352616367E-1    3.601446352590689E-1
 1.000629549470000E+10  -4.954768733739227E-1    8.166676469839128E-2    8.853197118292437E-4    1.188159850941086E-3    8.007274353674656E-4    1.171218354736118E-3   -3.447631881415912E-1    3.603654160926399E-1
 1.000629780340000E+10  -4.954381819592197E-1    8.185391162999625E-2    9.349893696201698E-4    1.160122244854816E-3    8.343500109919169E-4    1.200017946115796E-3   -3.444921405473396E-1    3.606894317143203E-1
 1.000630011210000E+10  -4.953370271990811E-1    8.185324531091909E-2    8.973643300224215E-4    1.195587837948948E-3    8.411279496065966E-4    1.192707668675458E-3   -3.443103446653315E-1    3.608707145653731E-1
 1.000630242080000E+10  -4.953271316387321E-1    8.197730503022123E-2    9.233811383510791E-4    1.197523155537990E-3    9.085385408281306E-4    1.198643878110159E-3   -3.440032318694455E-1    3.611544849798318E-1
 1.000630472950000E+10  -4.953589766349213E-1    8.213402403196056E-2    9.612043530190153E-4    1.212232968362218E-3    8.916722276642773E-4    1.218122072234826E-3   -3.436853096252739E-1    3.613806613504891E-1
 1.000630703820000E+10  -4.953488588518440E-1    8.235866414608761E-2    9.847203377976634E-4    1.222475201477728E-3    9.048520388960252E-4    1.275296537846479E-3   -3.434694525021397E-1    3.614697447404986E-1
 1.000630934690000E+10  -4.953305452212857E-1    8.255967508354572E-2    9.698595930137032E-4    1.227748937463510E-3    9.240813045662435E-4    1.280232133287802E-3   -3.430388804786937E-1    3.618579168278920E-1
 1.000631165560000E+10  -4.953483863860220E-1    8.269481098076444E-2    1.016590784365151E-3    1.258485606942352E-3    8.995772550473953E-4    1.300515365187806E-3   -3.428420637311806E-1    3.620709177081116E-1
 1.000631396430000E+10  -4.952998922720163E-1    8.277347678881984E-2    1.011752926582612E-3    1.267321905839520E-3    9.278192831094720E-4    1.285178583300526E-3   -3.426186287724657E-1    3.623409922770992E-1
 1.000631627300000E+10  -4.952073973966947E-1    8.295735674314229E-2    1.039084165065195E-3    1.296354313256268E-3    9.530510530095078E-4    1.319783710002691E-3   -3.421497224211953E-1    3.625708114359046E-1
 1.000631858170000E+10  -4.952478036157960E-1    8.310506224431588E-2    1.054164227130491E-3    1.320566105797243E-3    9.707198952748156E-4    1.343429378225303E-3   -3.420086041979967E-1    3.628482312776596E-1
 1.000632089040000E+10  -4.952516970180054E-1    8.331881425271200E-2    1.038867316229964E-3    1.322778643252977E-3    9.540512209817740E-4    1.356933603218792E-3   -3.417576293238391E-1    3.630498507062317E-1
 1.000632319910000E+10  -4.951578315565475E-1    8.346012864393311E-2    1.059574477433221E-3    1.326705851893181E-3    9.747642105902086E-4    1.363221133610019E-3   -3.413712266661279E-1    3.632592734382765E-1
 1.000632550780000E+10  -4.950992236807925E-1    8.352736656150597E-2    1.102181350823863E-3    1.385144259494707E-3    1.017374752018747E-3    1.390376343272389E-3   -3.409832482718401E-1    3.636082065161818E-1
 1.000632781650000E+10  -4.950076326553571E-1    8.373359667413148E-2    1.120133581567968E-3    1.376945045391627E-3    1.028266132523683E-3    1.419720383143618E-3   -3.407914469108863E-1    3.636461158148634E-1
 1.000633012520000E+10  -4.950893711136739E-1    8.383665703938802E-2    1.100309990613572E-3    1.414638073876515E-3    1.037296818529347E-3    1.434716731061403E-3   -3.404713729567642E-1    3.638959728219340E-1
 1.000633243390000E+10  -4.949299237798990E-1    8.393873482441992E-2    1.115006803518030E-3    1.412652154874375E-3    1.067731880033008E-3    1.449579756013244E-3   -3.400915850354616E-1    3.643167366088038E-1
 1.000633474260000E+10  -4.949704862266507E-1    8.399603760318579E-2    1.196006832592808E-3    1.428921645473323E-3    1.067223439557955E-3    1.454694023205756E-3   -3.397225823478926E-1    3.644286612830222E-1
 1.000633705130000E+10  -4.949788091794201E-1    8.436080131791172E-2    1.194023108411134E-3    1.458609505416000E-3    1.118072308903640E-3    1.494802763017464E-3   -3.396216640834939E-1    3.646406340185545E-1
 1.000633936000000E+10  -4.949904082819775E-1    8.446818597115610E-2    1.220116533612439E-3    1.500692146512086E-3    1.103663318324269E-3    1.524081800976144E-3   -3.391580365941150E-1    3.649320725961123E-1
 1.000634166870000E+10  -4.948344178478956E-1    8.457920214944099E-2    1.227992490405948E-3    1.502622837082350E-3    1.154100748766310E-3    1.526370068742049E-3   -3.388280331384309E-1    3.652607073043258E-1
 1.000634397740000E+10  -4.947749391653922E-1    8.481018113327064E-2    1.232435460404276E-3    1.518810943064781E-3    1.127447163602483E-3    1.533839124832855E-3   -3.386201864842981E-1    3.654609477271780E-1
 1.000634628610000E+10  -4.948395458643574E-1    8.489954861606616E-2    1.267074004892723E-3    1.571364101170442E-3    1.180381488633557E-3    1.560617928243901E-3   -3.381053649069682E-1    3.657342839988473E-1
 1.000634859480000E+10  -4.948177603552696E-1    8.508388520260320E-2    1.278905033669583E-3    1.567851633347686E-3    1.208408146078820E-3    1.593012978532516E-3   -3.378074893172476E-1    3.660072785585376E-1
 1.000635090350000E+10  -4.948256453953154E-1    8.521823285558135E-2    1.335113685034126E-3    1.613133574609001E-3    1.207479577727743E-3    1.602596923393668E-3   -3.373232598424072E-1    3.662845758994902E-1
 1.000635321220000E+10  -4.947399563828395E-1    8.541404628117127E-2    1.344584177589080E-3    1.606637273755734E-3    1.220559688379652E-3    1.644755601062345E-3   -3.370608026172333E-1    3.665811190017450E-1
 1.000635552090000E+10  -4.948071930178481E-1    8.562086759770469E-2    1.367801664423194E-3    1.611027935484881E-3    1.276591169104508E-3    1.644980731919900E-3   -3.367404106162915E-1    3.668373291502614E-1
 1.000635782960000E+10  -4.947337500341882E-1    8.571894227566028E-2    1.358797111684697E-3    1.645750990514895E-3    1.279858627105468E-3    1.688356553227930E-3   -3.363401670117057E-1    3.671833012306773E-1
 1.000636013830000E+10  -4.947387884251599E-1    8.577231404118460E-2    1.358147179179414E-3    1.705235183794542E-3    1.311775342463786E-3    1.723176817253933E-3   -3.360328684894262E-1    3.674242108014824E-1
 1.000636244700000E+10  -4.945944923925820E-1    8.612959144077308E-2    1.437724186241518E-3    1.688927138599621E-3    1.345994201916836E-3    1.734463958361230E-3   -3.355724291619933E-1    3.675492359199132E-1
