#  HZ   S   RI   R     50.00 
! Rohde & Schwarz Vector Network Analyzer 
! Rohde-Schwarz,ZNB20-2Port,1311601062101988,3.16
! Created: UTC 3/20/2024, 11:59:53 AM
! freq[Hz]                re:S11                  im:S11                  re:S21                  im:S21                  re:S12                  im:S12                  re:S22                  im:S22
 1.000555757900000E+10  -5.002237285429807E-1    3.287833022838883E-2   -9.448360734976772E-5   -4.236173685321527E-4   -1.105590335833692E-4   -4.165533488718843E-4   -3.883932682813019E-1    3.097224277487213E-1
 1.000556246502500E+10  -5.001951549836888E-1    3.311954890795902E-2   -1.264279115929125E-4   -4.517053545843508E-4   -6.777472731978519E-5   -4.375400030723982E-4   -3.880634487988338E-1    3.100476994134536E-1
 1.000556735105000E+10  -5.001441564210086E-1    3.348244149518478E-2   -1.006601535503596E-4   -4.252944342157571E-4   -8.010887344849616E-5   -4.211613050833323E-4   -3.877877959842290E-1    3.104405411067100E-1
 1.000557223707500E+10  -5.003020541594786E-1    3.375700699352824E-2   -1.047566021672214E-4   -4.149509926153572E-4   -7.256288762082879E-5   -4.056709701598027E-4   -3.875671858151715E-1    3.105696916832696E-1
 1.000557712310000E+10  -5.001427948377523E-1    3.417658068892772E-2   -1.274763365498734E-4   -4.057028262886878E-4   -7.148709882136007E-5   -4.213710875156139E-4   -3.874758796753278E-1    3.109473153384237E-1
 1.000558200912500E+10  -5.001090023898301E-1    3.444790187288674E-2   -9.563778967843662E-5   -4.351693747286641E-4   -5.144071634566585E-5   -4.331787990551915E-4   -3.871215025738538E-1    3.112617602723229E-1
 1.000558689515000E+10  -5.000840699558597E-1    3.459380305422909E-2   -1.101747670956690E-4   -4.112250895118114E-4   -8.827051339164274E-5   -4.034651780911001E-4   -3.869904288888134E-1    3.114485291502719E-1
 1.000559178117500E+10  -5.001439932784952E-1    3.506763466555879E-2   -1.178200082682089E-4   -4.162295639510233E-4   -6.538590187523778E-5   -4.105311215477850E-4   -3.867533638281080E-1    3.117749869735880E-1
 1.000559666720000E+10  -5.000834253643452E-1    3.544971665321289E-2   -8.974468370041555E-5   -3.996528533035986E-4   -8.043881816663625E-5   -4.089758446052746E-4   -3.866197119706019E-1    3.119503970044057E-1
 1.000560155322500E+10  -5.000967460346866E-1    3.568316158468550E-2   -9.299693629570323E-5   -3.874008853279483E-4   -4.929244862212233E-5   -3.906029694510149E-4   -3.863174389131627E-1    3.122562395172038E-1
 1.000560643925000E+10  -5.001036150482122E-1    3.598684065936128E-2   -7.492692418127860E-5   -3.903260425970223E-4   -6.415950791516493E-5   -3.913802432891460E-4   -3.860922850552187E-1    3.127113533925562E-1
 1.000561132527500E+10  -5.001352835269560E-1    3.634661688480929E-2   -1.128476756442106E-4   -4.007553929489054E-4   -6.256149264140904E-5   -3.876816839716316E-4   -3.859805806850756E-1    3.128395398261654E-1
 1.000561621130000E+10  -5.001084539260446E-1    3.671244923173847E-2   -1.089533250638973E-4   -3.765293540208920E-4   -5.293726203792585E-5   -3.892805883793854E-4   -3.856416757593338E-1    3.131532059984193E-1
 1.000562109732500E+10  -5.000311442331880E-1    3.705351939122623E-2   -5.863622813388388E-5   -3.957797918241132E-4   -5.354392756083500E-5   -3.716820428871656E-4   -3.854809748429540E-1    3.133951132958405E-1
 1.000562598335000E+10  -5.001349971338676E-1    3.734001803068574E-2   -7.648718583956160E-5   -3.906804812564276E-4   -4.032164440990517E-5   -3.764579137618914E-4   -3.852831386056934E-1    3.137882786129279E-1
 1.000563086937500E+10  -4.999184630530450E-1    3.757359016158585E-2   -9.458126739453827E-5   -3.823621682508584E-4   -6.817712097516242E-5   -3.606721691546820E-4   -3.849515179389517E-1    3.141327352584943E-1
 1.000563575540000E+10  -5.002555227321843E-1    3.788458892958325E-2   -7.322317448821534E-5   -3.520486890094763E-4   -4.676245482835727E-5   -3.882219240459569E-4   -3.847409368865841E-1    3.143248210197738E-1
 1.000564064142500E+10  -4.999253031578084E-1    3.832537879330479E-2   -8.504149343111812E-5   -3.375994761814992E-4   -6.894716495059216E-5   -3.292711206962646E-4   -3.845047101896361E-1    3.147473717430595E-1
 1.000564552745000E+10  -4.999526325758158E-1    3.857575128512984E-2   -8.000500692266523E-5   -3.677673871528490E-4   -4.075991673503451E-5   -3.336990783563863E-4   -3.842742930083906E-1    3.149511916179684E-1
 1.000565041347500E+10  -4.999682930553190E-1    3.878478300475037E-2   -7.110493992023408E-5   -3.236386969844302E-4   -5.010500986992813E-5   -3.556994436030560E-4   -3.841009242611294E-1    3.153393980092897E-1
 1.000565529950000E+10  -5.000055349050134E-1    3.920058492673642E-2   -5.677217450285567E-5   -3.555547575044549E-4   -4.814756772494716E-5   -3.276784762739594E-4   -3.839890409372691E-1    3.155965661139846E-1
 1.000566018552500E+10  -4.998731712105925E-1    3.958014864661152E-2   -6.928512973510101E-5   -3.320784304330082E-4   -3.824517705457772E-5   -3.506552143488973E-4   -3.837023745721292E-1    3.158184239675445E-1
 1.000566507155000E+10  -4.998274531814049E-1    3.983875865752625E-2   -7.254796406299498E-5   -3.339106249995016E-4   -4.586601102866870E-5   -3.181365393608124E-4   -3.832923853821702E-1    3.159839280629123E-1
 1.000566995757500E+10  -4.998229679493793E-1    4.013058022637475E-2   -3.943921471513687E-5   -3.379729828110938E-4   -3.966595807304458E-5   -3.298608234493430E-4   -3.831897035427519E-1    3.164768811841606E-1
 1.000567484360000E+10  -4.999334656666901E-1    4.057344529750165E-2   -5.654623537676514E-5   -3.157258571278782E-4    1.523379970058093E-5   -3.265357457692136E-4   -3.829564651948266E-1    3.166401290042954E-1
 1.000567972962500E+10  -4.998389023244633E-1    4.082534657106420E-2   -4.848037506392695E-5   -3.187754347663676E-4   -2.034910649584101E-5   -3.160739765656657E-4   -3.827120021810050E-1    3.170531285922943E-1
 1.000568461565000E+10  -4.998286398195663E-1    4.097521245086893E-2   -5.715451601848092E-5   -3.117270338516905E-4   -9.460615966574295E-6   -3.217058324955446E-4   -3.823949231337593E-1    3.174582863030387E-1
 1.000568950167500E+10  -4.998857076354575E-1    4.133144316578023E-2   -4.290413894570885E-5   -3.018409113176282E-4   -1.722990365502562E-5   -3.029420160590398E-4   -3.822037975314282E-1    3.175394884676900E-1
 1.000569438770000E+10  -4.997532080876087E-1    4.179163782109760E-2   -4.054478950349133E-5   -3.034282288678145E-4   -1.114491150944913E-5   -2.883391372044526E-4   -3.820707722402559E-1    3.179249742996640E-1
 1.000569927372500E+10  -4.998113771379810E-1    4.216467539148579E-2   -3.616530802470918E-5   -3.007317293689842E-4   -1.739638774880056E-5   -3.224832824715485E-4   -3.818124527432804E-1    3.182123271796424E-1
 1.000570415975000E+10  -4.998066898561349E-1    4.243382542216071E-2   -4.556368595320116E-6   -2.639121104288518E-4    2.989643289037787E-6   -2.786658521932130E-4   -3.815507986593496E-1    3.185679181787510E-1
 1.000570904577500E+10  -4.998290151683325E-1    4.267319820000601E-2   -8.801703824874458E-6   -3.000641678781065E-4   -2.077236387821391E-5   -2.842803887892377E-4   -3.813368437189396E-1    3.188272263306645E-1
 1.000571393180000E+10  -4.996761938545121E-1    4.295103532971508E-2   -3.422142191000111E-5   -2.658662218909076E-4   -2.100075530965075E-5   -2.735148684999038E-4   -3.811004637020211E-1    3.190292749138348E-1
 1.000571881782500E+10  -4.996966686993042E-1    4.329648875515248E-2   -3.016310947473617E-5   -2.528695523129138E-4    5.577750898679069E-6   -2.461911295251023E-4   -3.808902115197619E-1    3.193498090930798E-1
 1.000572370385000E+10  -4.996538017747750E-1    4.363995099593856E-2   -1.362354281736185E-5   -2.549961997233618E-4   -6.319405914653958E-6   -2.470143052270399E-4   -3.805991151407536E-1    3.195863343336239E-1
 1.000572858987500E+10  -4.997108348757186E-1    4.392223020870959E-2   -2.118412170991880E-5   -2.580121483076173E-4   -1.075423514418779E-5   -2.533281955448915E-4   -3.804409561196757E-1    3.200764336429444E-1
 1.000573347590000E+10  -4.997092689704667E-1    4.442637980761724E-2   -3.038592343654868E-5   -2.580074188999892E-4    5.569731288395768E-6   -2.493471657315233E-4   -3.801743103856497E-1    3.203689758265878E-1
 1.000573836192500E+10  -4.996756007540655E-1    4.466574117388009E-2    7.099113350233520E-7   -2.544020358106284E-4    1.274263034990232E-5   -2.647886922148757E-4   -3.798848767928752E-1    3.205937820188281E-1
 1.000574324795000E+10  -4.997312330302329E-1    4.488507538483449E-2   -2.611628706017659E-5   -2.632532197264819E-4    1.355373783464492E-5   -2.680432009453719E-4   -3.796236323383830E-1    3.208709029724211E-1
 1.000574813397500E+10  -4.997045933700599E-1    4.524106429307348E-2    2.059831996383977E-5   -2.411275022079868E-4    3.261611617147425E-5   -2.235260484016022E-4   -3.793285007522595E-1    3.212586866338192E-1
 1.000575302000000E+10  -4.994969172753368E-1    4.562884766269216E-2   -2.126645554762625E-5   -2.262957893054091E-4    3.931574911187863E-5   -2.429749620754100E-4   -3.792048887526511E-1    3.215267487560515E-1
 1.000575790602500E+10  -4.996741540983170E-1    4.586664803209878E-2   -1.343909327034185E-5   -1.979678780083845E-4    3.320111706595878E-5   -2.575474491774046E-4   -3.790138612268973E-1    3.216927186442038E-1
 1.000576279205000E+10  -4.995305771913038E-1    4.622102353980567E-2    5.526765920060998E-5   -2.407362051787206E-4    4.084534993793956E-5   -2.238694230041158E-4   -3.786588181661474E-1    3.221106398129502E-1
 1.000576767807500E+10  -4.995630597779447E-1    4.658968655067474E-2    3.523774646226119E-5   -1.957405010302958E-4    4.994458163258418E-6   -1.922224617395712E-4   -3.783686696836218E-1    3.224299390509056E-1
 1.000577256410000E+10  -4.994820863075858E-1    4.687372651025312E-2    2.675583356934346E-5   -2.104474540865302E-4    5.346210671045271E-5   -1.911110123044008E-4   -3.781802214630798E-1    3.227372508550299E-1
 1.000577745012500E+10  -4.995722161417930E-1    4.721039570505908E-2    4.108441753303573E-5   -1.787798748760055E-4    6.749650951141318E-5   -2.026675922696936E-4   -3.778437830355023E-1    3.229739893984233E-1
 1.000578233615000E+10  -4.994748227674623E-1    4.747982918758874E-2    4.057112869740702E-5   -1.959371187983101E-4    5.402061384072690E-5   -2.192305088395734E-4   -3.777350309456471E-1    3.232655504360417E-1
 1.000578722217500E+10  -4.993629747650637E-1    4.780877610316353E-2    3.627751535909462E-5   -1.942940114440573E-4    4.232123660912975E-5   -1.522585350411401E-4   -3.775153444318185E-1    3.236457427979386E-1
 1.000579210820000E+10  -4.994766238554944E-1    4.810847866834345E-2    4.383642915214114E-5   -1.677268568585636E-4    4.791934567957715E-5   -1.703191241954708E-4   -3.772181925475898E-1    3.240022879014868E-1
 1.000579699422500E+10  -4.994434339833430E-1    4.819159466341761E-2    6.427202381356872E-5   -1.282825511479454E-4    3.149304748067686E-5   -1.632711712825375E-4   -3.770503894661617E-1    3.241974370127252E-1
 1.000580188025000E+10  -4.993177866756147E-1    4.876841688530646E-2    3.899808484268212E-5   -1.655721502930902E-4    4.909174585379840E-5   -1.429555683120793E-4   -3.765904638736088E-1    3.244062710055157E-1
 1.000580676627500E+10  -4.993596736565531E-1    4.912270116051757E-2    4.757671912218180E-5   -1.548591344533727E-4    4.944878565841383E-5   -1.600557774652063E-4   -3.764511395271986E-1    3.248159847346498E-1
 1.000581165230000E+10  -4.992991184792474E-1    4.942451513330477E-2    7.111476535121952E-5   -1.293374663308986E-4    7.748678862281706E-5   -1.615258300437913E-4   -3.760209935749095E-1    3.251067396125919E-1
 1.000581653832500E+10  -4.993482805829883E-1    4.985788542028969E-2    6.616495325688400E-5   -1.244833401961634E-4    7.582453848887907E-5   -1.298369699167127E-4   -3.758635417408044E-1    3.254810606074605E-1
 1.000582142435000E+10  -4.993521200120251E-1    5.009651614276509E-2    5.590718191017190E-5   -1.594037103964120E-4    9.588050233624135E-5   -1.342591626142060E-4   -3.756113567743648E-1    3.256968994549366E-1
 1.000582631037500E+10  -4.992956030724131E-1    5.028595571020821E-2    6.648856567633027E-5   -1.075456943438093E-4    1.000486156555521E-4   -1.107578458941374E-4   -3.753778086587573E-1    3.260239636875152E-1
 1.000583119640000E+10  -4.992779161422116E-1    5.074575594550605E-2    9.459482108086204E-5   -1.331668554247748E-4    8.316425195577701E-5   -1.109250267222796E-4   -3.752938287227554E-1    3.263839091031031E-1
 1.000583608242500E+10  -4.991972292810232E-1    5.096604922968166E-2    1.063629235143444E-4   -1.091449536518241E-4    7.042848445813234E-5   -1.066790910969612E-4   -3.749162626338034E-1    3.267186804203876E-1
 1.000584096845000E+10  -4.993664450684698E-1    5.121552532098150E-2    1.071589332234129E-4   -8.237613400623611E-5    1.053183361950297E-4   -7.170913658364855E-5   -3.745936201991707E-1    3.269132594535844E-1
 1.000584585447500E+10  -4.992559112135380E-1    5.160221370122645E-2    1.025797017938402E-4   -6.997630702864098E-5    1.217301960288276E-4   -1.006005936372959E-4   -3.742803664040398E-1    3.271957199239483E-1
 1.000585074050000E+10  -4.991672851972909E-1    5.194853947602573E-2    1.124202273756598E-4   -7.970763340791505E-5    9.759034237955380E-5   -9.636487747636568E-5   -3.742626588516119E-1    3.275188039255158E-1
 1.000585562652500E+10  -4.991851724913541E-1    5.215860207968392E-2    1.005916057371337E-4   -7.325777539206630E-5    1.323456160664498E-4   -6.999858606862076E-5   -3.737964337730967E-1    3.277752221213484E-1
 1.000586051255000E+10  -4.990982713961516E-1    5.250907619650864E-2    1.306288241028232E-4   -7.334489309327755E-5    1.534061208957636E-4   -7.500546687797972E-5   -3.735162785040019E-1    3.282486313896530E-1
 1.000586539857500E+10  -4.991069891935864E-1    5.283953133269579E-2    1.221227533417996E-4   -4.125226423456134E-5    1.180794119623522E-4   -2.727608234770340E-5   -3.733548008690170E-1    3.284135853022212E-1
 1.000587028460000E+10  -4.990632700411017E-1    5.323893882334373E-2    9.718273047526626E-5   -7.063762515491611E-5    1.505122917032146E-4   -5.593769109859030E-5   -3.729231652877550E-1    3.288785702671941E-1
 1.000587517062500E+10  -4.990391433838469E-1    5.359165166675817E-2    1.302935450102627E-4   -2.806873808976334E-5    1.543742109846042E-4   -6.787119439725203E-5   -3.727314723609332E-1    3.290848550093567E-1
 1.000588005665000E+10  -4.991140726088317E-1    5.378714923234543E-2    1.410710858314878E-4   -2.706904660879720E-5    1.479990825036351E-4   -2.114707715532942E-5   -3.724472560238823E-1    3.294473293201842E-1
 1.000588494267500E+10  -4.990379220380836E-1    5.407594835799093E-2    1.649215252775468E-4   -2.565556323037308E-5    1.372139492835037E-4   -4.271468398667268E-5   -3.721510504817700E-1    3.296698516421295E-1
 1.000588982870000E+10  -4.990184395026078E-1    5.453880792377149E-2    1.406996074982759E-4   -4.853443634000741E-5    1.785351450272812E-4   -1.006620662997523E-5   -3.718170885893013E-1    3.300789988664573E-1
 1.000589471472500E+10  -4.989400858262616E-1    5.495048244349045E-2    1.663572618800482E-4   -2.872297922175095E-5    1.386096717914412E-4    3.141557495816824E-5   -3.715426619977510E-1    3.303953853825293E-1
 1.000589960075000E+10  -4.990102007937748E-1    5.510238610924787E-2    1.577630169608286E-4   -2.224358447587084E-5    1.717100122770418E-4   -1.324400095290752E-5   -3.711942750595327E-1    3.308127844178540E-1
 1.000590448677500E+10  -4.989560619705992E-1    5.547453196823186E-2    1.766311830689586E-4    3.180903872400661E-5    1.677057017238382E-4    2.494196889452667E-5   -3.709541200474934E-1    3.308219272354794E-1
 1.000590937280000E+10  -4.988709859387709E-1    5.574685496847946E-2    1.768161863342730E-4    2.710660302302957E-5    1.879998319301740E-4    3.246756024384277E-5   -3.706473950543138E-1    3.312638202982489E-1
 1.000591425882500E+10  -4.988312852803773E-1    5.608948555890902E-2    1.599574309133706E-4    5.032283252908308E-5    1.860055342503193E-4    8.067005826368917E-6   -3.704976716536669E-1    3.317243661649828E-1
 1.000591914485000E+10  -4.987709254747297E-1    5.628429414386070E-2    2.082534818631853E-4    1.111513258344710E-5    1.866521025931062E-4    8.496447470412376E-5   -3.701276046325495E-1    3.317417396010957E-1
 1.000592403087500E+10  -4.989223923500875E-1    5.665209551368462E-2    2.404099492249440E-4    7.842291444996295E-5    1.977819868682241E-4    6.393545757848442E-5   -3.698670746419544E-1    3.324417135237457E-1
 1.000592891690000E+10  -4.988225701264369E-1    5.704249932038861E-2    2.356767192559395E-4    6.054397389243402E-5    2.028256166620042E-4    4.689855934195472E-5   -3.695276184349746E-1    3.324750004453021E-1
 1.000593380292500E+10  -4.987196114372245E-1    5.734471218394281E-2    2.217661580433991E-4    7.242283895083874E-5    2.335225018784586E-4    4.724877230141589E-5   -3.693179022525106E-1    3.329292013883888E-1
 1.000593868895000E+10  -4.987767669426696E-1    5.767673050958108E-2    2.411837252195378E-4    5.595137980826904E-5    2.338134308493346E-4    1.160744874168035E-4   -3.688807435226740E-1    3.332533894046523E-1
 1.000594357497500E+10  -4.985999492083819E-1    5.801936528067426E-2    2.614766318804186E-4    8.540901869628606E-5    2.268502359065592E-4    7.761934243090490E-5   -3.687059491183664E-1    3.335739010350344E-1
 1.000594846100000E+10  -4.988279289294864E-1    5.833868920713450E-2    2.380478144985865E-4    1.024864982787538E-4    2.495240733327132E-4    8.897721962110819E-5   -3.683454307377356E-1    3.338734179168503E-1
 1.000595334702500E+10  -4.986534216606618E-1    5.866431012676949E-2    2.522644407704422E-4    1.186193496194551E-4    2.474083660836941E-4    9.567451772513476E-5   -3.679847623676418E-1    3.342440279368544E-1
 1.000595823305000E+10  -4.986152395137503E-1    5.877730667094571E-2    2.823725209868893E-4    7.924868966268591E-5    2.006811415895572E-4    1.231774432819859E-4   -3.677309224797545E-1    3.344206375706668E-1
 1.000596311907500E+10  -4.986727594357605E-1    5.925161336650436E-2    2.705544975491461E-4    1.101466577779003E-4    2.596336992049004E-4    1.217156378236603E-4   -3.674479500668617E-1    3.349491077604504E-1
 1.000596800510000E+10  -4.985529974542470E-1    5.938331537437287E-2    2.971616954142055E-4    1.498678150367497E-4    2.614810280355094E-4    1.594238572102227E-4   -3.670497895052304E-1    3.351322449601805E-1
 1.000597289112500E+10  -4.983854749899988E-1    5.972336284494378E-2    3.275316007860905E-4    1.480933320108866E-4    2.621273462500196E-4    1.693544852266513E-4   -3.669082919299281E-1    3.354629289734779E-1
 1.000597777715000E+10  -4.984930779229139E-1    6.024297508726102E-2    3.008528281495332E-4    1.674531948399549E-4    2.990513700586728E-4    1.740051553113488E-4   -3.666377040968900E-1    3.357308568361516E-1
 1.000598266317500E+10  -4.986538156586601E-1    6.052134158369211E-2    3.200164466277561E-4    1.705099886735328E-4    3.209090789387884E-4    1.727779331370966E-4   -3.661675808563726E-1    3.361132368551974E-1
 1.000598754920000E+10  -4.984433936205417E-1    6.089485112013075E-2    3.323839974129983E-4    1.790237181619266E-4    3.055809469554379E-4    1.971013940375075E-4   -3.658930254892331E-1    3.364240772646532E-1
 1.000599243522500E+10  -4.984429004920912E-1    6.119398710362086E-2    3.281066793309032E-4    1.910061679808774E-4    3.248208507998722E-4    2.104484601020268E-4   -3.655170070583435E-1    3.369093054353673E-1
 1.000599732125000E+10  -4.983056463406132E-1    6.146123678503475E-2    3.374557161312660E-4    2.243444853851407E-4    3.182177673860442E-4    1.879723549912921E-4   -3.651823212334064E-1    3.371398536655505E-1
