#  HZ   S   RI   R     50.00 
! Rohde & Schwarz Vector Network Analyzer 
! Rohde-Schwarz,ZNB20-2Port,1311601062101988,3.16
! Created: UTC 3/20/2024, 12:00:01 PM
! freq[Hz]                re:S11                  im:S11                  re:S21                  im:S21                  re:S12                  im:S12                  re:S22                  im:S22
 1.000557122700000E+10  -5.001621411893735E-1    3.373531340276133E-2   -1.158700391219178E-4   -4.437179122091620E-4   -8.300795649750558E-5   -4.142862996528835E-4   -3.876708975612411E-1    3.105211908242349E-1
 1.000557605900000E+10  -5.001967358138111E-1    3.391480873690420E-2   -1.207697902012128E-4   -4.413358291314460E-4   -1.078711161817012E-4   -4.235254111708431E-4   -3.875951951126110E-1    3.107903883519377E-1
 1.000558089100000E+10  -5.000386883661518E-1    3.437719963918798E-2   -1.030711134389225E-4   -4.143370413529084E-4   -6.487119465884931E-5   -4.052821646008093E-4   -3.872841581315689E-1    3.111923051754422E-1
 1.000558572300000E+10  -4.999933641870398E-1    3.461992077674790E-2   -1.074865574407796E-4   -4.205047447350453E-4   -6.863827873797125E-5   -4.089390372887533E-4   -3.870759154059649E-1    3.113393068492137E-1
 1.000559055500000E+10  -5.000358333103192E-1    3.490243411181711E-2   -8.884355629932399E-5   -4.299524358952956E-4   -6.701169805210250E-5   -3.998851993270944E-4   -3.868310432456827E-1    3.116989255873075E-1
 1.000559538700000E+10  -5.000286406378125E-1    3.519114049953299E-2   -9.012957096193342E-5   -3.995623302999354E-4   -8.628716397704709E-5   -4.013378958910361E-4   -3.866850255973095E-1    3.118370485776640E-1
 1.000560021900000E+10  -5.001048397008975E-1    3.551887828716620E-2   -6.968045829608557E-5   -4.186135783223078E-4   -5.247291363417721E-5   -3.865315037379372E-4   -3.864621433371530E-1    3.121393078598337E-1
 1.000560505100000E+10  -5.001393437410088E-1    3.594756431289337E-2   -1.047725264418260E-4   -3.796141425128875E-4   -5.196736454730062E-5   -3.893843138983336E-4   -3.862670804183182E-1    3.125311289822562E-1
 1.000560988300000E+10  -5.000903368000656E-1    3.632860203380534E-2   -9.383086423742251E-5   -4.039047647758026E-4   -7.178344221519346E-5   -3.929384655654586E-4   -3.860378596812944E-1    3.129629349407834E-1
 1.000561471500000E+10  -5.000699218990325E-1    3.644708712685828E-2   -9.716830678093260E-5   -3.873141018367605E-4   -6.295963967467833E-5   -4.141499818186526E-4   -3.858189641470218E-1    3.130259665470193E-1
 1.000561954700000E+10  -4.999224476609892E-1    3.679722279500560E-2   -7.279714899590451E-5   -3.730595629669319E-4   -5.782059114512973E-5   -3.944529709291592E-4   -3.855967372365969E-1    3.132738686701544E-1
 1.000562437900000E+10  -4.999833062138022E-1    3.730003194702489E-2   -8.723275062775878E-5   -3.826410380921069E-4   -8.440630179354384E-5   -3.843990808815896E-4   -3.853112132299581E-1    3.135902044202813E-1
 1.000562921100000E+10  -5.000171226974005E-1    3.748061700734344E-2   -1.010542651167495E-4   -3.784219813702379E-4   -4.923203281470822E-5   -3.986357736647800E-4   -3.850113529058846E-1    3.138175114945256E-1
 1.000563404300000E+10  -4.999664494424165E-1    3.778010098583617E-2   -8.868411904337826E-5   -3.748084546189480E-4   -6.642647970836865E-5   -3.720916239761906E-4   -3.848155857596666E-1    3.142966173328264E-1
 1.000563887500000E+10  -4.999125987831424E-1    3.809012392306933E-2   -6.356717362660135E-5   -3.583222721671166E-4   -3.927430474780065E-5   -3.855729835621201E-4   -3.846869612204943E-1    3.145948869074678E-1
 1.000564370700000E+10  -4.999431990596857E-1    3.849143724505676E-2   -8.899020850960190E-5   -3.694783477511449E-4   -6.105281717388460E-5   -3.219218037708955E-4   -3.845400766705819E-1    3.148277591069872E-1
 1.000564853900000E+10  -4.998109797311834E-1    3.866882845004688E-2   -2.872672777641857E-5   -3.528988301939804E-4   -4.712554584878138E-5   -3.674065492830261E-4   -3.841612831229887E-1    3.150857847912763E-1
 1.000565337100000E+10  -4.999719313718765E-1    3.899256720241830E-2   -8.073599684422807E-5   -3.301802801701459E-4   -5.612364486255769E-5   -3.559467276853636E-4   -3.840691567414585E-1    3.154124764971828E-1
 1.000565820300000E+10  -4.999601884736601E-1    3.939196875087930E-2   -4.951089998951873E-5   -3.496815713260761E-4   -6.000438957356545E-5   -3.476682478120296E-4   -3.837877533906011E-1    3.158304414224596E-1
 1.000566303500000E+10  -4.998613249013227E-1    3.980700158479446E-2   -6.912241082992842E-5   -3.247754801940093E-4   -6.087913542438483E-5   -3.402612806779893E-4   -3.835421565051755E-1    3.159813247862946E-1
 1.000566786700000E+10  -4.999673265844829E-1    4.012625921760517E-2   -7.144249520768714E-5   -3.377019318681149E-4   -7.140318505051764E-5   -3.302230511962513E-4   -3.834256546237887E-1    3.161423438667021E-1
 1.000567269900000E+10  -4.997910378940402E-1    4.041880192208548E-2   -3.187920366216984E-5   -3.194205220750479E-4   -5.508939990008360E-5   -3.109118890558044E-4   -3.830543467579108E-1    3.165734502577188E-1
 1.000567753100000E+10  -4.999255250807646E-1    4.066483185383962E-2   -7.227740913600809E-5   -3.475726449946210E-4   -4.028104318324081E-5   -3.198047081941697E-4   -3.829693499307539E-1    3.168379851778692E-1
 1.000568236300000E+10  -4.998516154769485E-1    4.089387706629539E-2   -3.065967406346858E-5   -3.223312941885952E-4   -3.043760524859285E-5   -3.129390035924383E-4   -3.825807918012682E-1    3.171913534932454E-1
 1.000568719500000E+10  -4.997547093262477E-1    4.145342914847232E-2   -2.833167727491758E-5   -3.048641369232647E-4   -5.452142220349755E-6   -3.211385557801429E-4   -3.824702899624984E-1    3.174763974103408E-1
 1.000569202700000E+10  -4.998638496765764E-1    4.167075433796568E-2   -6.139386974694341E-5   -3.000176662323456E-4    1.349271215852647E-6   -2.959578044409043E-4   -3.821328868249891E-1    3.177615457441507E-1
 1.000569685900000E+10  -4.997501644649213E-1    4.187393995195912E-2   -3.176437274260990E-5   -2.985865759758462E-4   -2.561703448300717E-5   -2.975988772672884E-4   -3.818867878831377E-1    3.181625086700766E-1
 1.000570169100000E+10  -4.997562020487254E-1    4.226719055055853E-2   -2.978237473882718E-5   -2.799291339970253E-4   -2.438677680905290E-5   -2.841375554384276E-4   -3.817738858312918E-1    3.183112904774617E-1
 1.000570652300000E+10  -4.997378125446031E-1    4.248865029693047E-2   -3.347110676028396E-5   -3.141781386723863E-4   -7.399248766670456E-6   -2.770901520530368E-4   -3.815050298789235E-1    3.185930094850906E-1
 1.000571135500000E+10  -4.997397631262876E-1    4.284716037710917E-2   -4.406446161654710E-5   -2.658307336023576E-4   -2.716991027255835E-5   -2.863083722950717E-4   -3.812811916480535E-1    3.189113975040176E-1
 1.000571618700000E+10  -4.996565690097790E-1    4.324009142161037E-2   -2.316137636210530E-5   -2.930545342591224E-4   -4.304370750052849E-5   -2.736813904844422E-4   -3.811156171333210E-1    3.192921372388762E-1
 1.000572101900000E+10  -4.996248315449235E-1    4.346814957791029E-2   -3.300154753841218E-5   -2.784171506742046E-4   -1.068017199389692E-5   -2.707923541965137E-4   -3.808211304878272E-1    3.195295220417480E-1
 1.000572585100000E+10  -4.997689616166173E-1    4.375552549947054E-2   -1.088247562233048E-5   -2.702288812393278E-4   -6.343796145255957E-5   -2.690670395196834E-4   -3.806381580766071E-1    3.198202584824601E-1
 1.000573068300000E+10  -4.995510286083344E-1    4.407048978984703E-2   -2.044567395242150E-5   -2.651003117854025E-4    4.907084569717834E-6   -2.613230539826412E-4   -3.803539281347932E-1    3.201788250816894E-1
 1.000573551500000E+10  -4.996753857414094E-1    4.460803190341381E-2   -3.025227021180996E-5   -2.545632935046155E-4    3.115942812942276E-5   -2.638183078315756E-4   -3.802109906241435E-1    3.203600523973935E-1
 1.000574034700000E+10  -4.996792320472058E-1    4.489851439487478E-2   -4.618156227381349E-6   -2.614017640098619E-4   -2.218776501587190E-5   -2.099961854867075E-4   -3.797619996150428E-1    3.207110281791771E-1
 1.000574517900000E+10  -4.996992427668177E-1    4.504784010346797E-2    1.767191084280757E-5   -2.340231498323122E-4    3.128079062647509E-6   -1.908539979001635E-4   -3.796035834148582E-1    3.209980993568134E-1
 1.000575001100000E+10  -4.995670183311745E-1    4.539749912761473E-2   -1.379362306022691E-5   -2.294069882681941E-4    1.989200508293761E-5   -2.400009847347966E-4   -3.794853563299147E-1    3.213739088457854E-1
 1.000575484300000E+10  -4.996258313192177E-1    4.572530370048360E-2   -1.951145585411136E-5   -2.310153393546915E-4    3.898342750354225E-5   -2.103431014136081E-4   -3.791513238412269E-1    3.216011552822392E-1
 1.000575967500000E+10  -4.995839024094708E-1    4.593348080644834E-2    4.964585850034720E-6   -2.399819036353121E-4    4.239335916297984E-5   -2.364486299414517E-4   -3.790042612483822E-1    3.220189920788555E-1
 1.000576450700000E+10  -4.996210347106257E-1    4.633590073957721E-2    1.270601588750837E-5   -2.165335137209551E-4   -4.246429643747279E-6   -2.298045567424604E-4   -3.786412806993381E-1    3.223233301159737E-1
 1.000576933900000E+10  -4.995495956058046E-1    4.660438742024519E-2    1.417562737055994E-5   -2.014308725808387E-4    6.296385350712804E-6   -1.902149222342385E-4   -3.784743642344242E-1    3.225290128416932E-1
 1.000577417100000E+10  -4.994430245564506E-1    4.692319224080957E-2    2.548864884914909E-6   -2.011107666106715E-4    4.176690781704228E-5   -2.212972622503151E-4   -3.781907438803797E-1    3.227707409297583E-1
 1.000577900300000E+10  -4.994738084894019E-1    4.720121806838160E-2    4.335868352549089E-5   -1.982269684210760E-4    6.248257783830130E-5   -1.888943868282036E-4   -3.778002456869101E-1    3.231402857787856E-1
 1.000578383500000E+10  -4.995331449036401E-1    4.755550925072344E-2    2.552171033275052E-5   -1.886876782998003E-4    3.583940321850854E-5   -2.120993542577449E-4   -3.776274912813507E-1    3.233523400747909E-1
 1.000578866700000E+10  -4.994923745404700E-1    4.789916075928143E-2   -8.880425511842899E-7   -2.152460552311986E-4    4.761823209310330E-5   -1.771641121844787E-4   -3.774281798906654E-1    3.236609084168381E-1
 1.000579349900000E+10  -4.994484536673373E-1    4.828600530066697E-2    3.791860689348680E-5   -1.931349924710436E-4    7.740890281551479E-5   -1.204811270258955E-4   -3.770240875728963E-1    3.240095598864544E-1
 1.000579833100000E+10  -4.993918821836413E-1    4.857592073558820E-2    5.528963138359040E-5   -1.806467097784689E-4    1.110117139088804E-5   -1.688635389248816E-4   -3.769626495962833E-1    3.244099793447154E-1
 1.000580316300000E+10  -4.994316045198978E-1    4.900533497317715E-2    5.329707423742071E-5   -1.696154582438492E-4    4.980571452614872E-5   -1.364146587823806E-4   -3.767178701399366E-1    3.244884614654436E-1
 1.000580799500000E+10  -4.992417871354622E-1    4.924054350622673E-2    3.508294519517976E-5   -1.541284581446296E-4    3.325930968110714E-5   -1.599453156378042E-4   -3.764817994884989E-1    3.248473592848065E-1
 1.000581282700000E+10  -4.993744105170750E-1    4.941429807176551E-2    8.864203635071479E-5   -1.321976299370139E-4    5.704885091260126E-5   -1.296239686466629E-4   -3.761497686266420E-1    3.251077875870382E-1
 1.000581765900000E+10  -4.992943122435591E-1    4.984363276618978E-2    7.278020703523343E-5   -1.619254862753794E-4    7.456030289778876E-5   -1.798501674602088E-4   -3.759359522851601E-1    3.254604844862150E-1
 1.000582249100000E+10  -4.993385140151693E-1    5.000130302443635E-2    6.978542828159106E-5   -1.322737769552714E-4    8.397195965411175E-5   -1.303961647457835E-4   -3.756384126754801E-1    3.258956052872048E-1
 1.000582732300000E+10  -4.992239888665308E-1    5.039742907944987E-2    7.806131855855427E-5   -1.332093298277619E-4    6.717951726357376E-5   -1.165642173391023E-4   -3.753249319823542E-1    3.260633088791436E-1
 1.000583215500000E+10  -4.992703176411725E-1    5.080024981841164E-2    1.035094211387164E-4   -1.433876398415581E-4    9.116193722106374E-5   -1.301378154257191E-4   -3.749994238569676E-1    3.262934101873157E-1
 1.000583698700000E+10  -4.991849361315602E-1    5.109274255589553E-2    9.778879043382863E-5   -1.110910810211619E-4    6.375971235396421E-5   -1.128233137430669E-4   -3.750678944361787E-1    3.266172038319388E-1
 1.000584181900000E+10  -4.991565561978411E-1    5.135784505776785E-2    1.006858874212385E-4   -1.027792018614896E-4    8.385709947384224E-5   -9.653154317089378E-5   -3.746790102688156E-1    3.268824605420214E-1
 1.000584665100000E+10  -4.991197904798467E-1    5.174368457151143E-2    1.426091625942655E-4   -7.234283434459376E-5    9.375773812910015E-5   -8.949895296100528E-5   -3.743349764990790E-1    3.273754018755540E-1
 1.000585148300000E+10  -4.990395697694225E-1    5.212184726026246E-2    1.194475917001998E-4   -1.242609389881937E-4    9.483339203781218E-5   -4.502078826106451E-5   -3.741616940269561E-1    3.275209410912948E-1
 1.000585631500000E+10  -4.990949605117744E-1    5.225641249619773E-2    1.264378269869838E-4   -6.925458200455766E-5    1.262805488321598E-4   -7.520168048912734E-5   -3.738206998065759E-1    3.278865541113974E-1
 1.000586114700000E+10  -4.990396367339285E-1    5.267979370743898E-2    1.280040501358808E-4   -8.874254148113949E-5    1.185846470196623E-4   -3.527193173688067E-5   -3.735268358907192E-1    3.282201105342222E-1
 1.000586597900000E+10  -4.990461516728413E-1    5.301619558250345E-2    1.165399379908506E-4   -7.982935231756993E-5    1.473227561256008E-4   -4.842869270713549E-5   -3.731942401602350E-1    3.284417200045615E-1
 1.000587081100000E+10  -4.990327726928505E-1    5.332931060921950E-2    1.161875468042031E-4   -8.215383109765433E-5    1.106171734678142E-4   -4.817671557087245E-5   -3.731112231231783E-1    3.287802316687032E-1
 1.000587564300000E+10  -4.991069644424321E-1    5.369801460420962E-2    1.073139242344030E-4   -4.565777599215140E-5    1.196172954190894E-4   -1.442080259272651E-5   -3.727402449775425E-1    3.291529735664436E-1
 1.000588047500000E+10  -4.988883816614745E-1    5.388274102565578E-2    1.101373932018122E-4   -2.391843948305712E-5    1.256665830748546E-4   -2.007641555713522E-5   -3.725295237998825E-1    3.293458354551151E-1
 1.000588530700000E+10  -4.991039262693744E-1    5.420337238894881E-2    1.353885719326115E-4   -3.633732067674901E-5    1.418269769975948E-4   -2.239418373126158E-5   -3.722810018009385E-1    3.298504208496728E-1
 1.000589013900000E+10  -4.989204862345827E-1    5.459455445100883E-2    1.592642958628913E-4   -2.855577998473911E-5    1.564230979309526E-4    3.009783138099661E-5   -3.719634614148426E-1    3.299944006617855E-1
 1.000589497100000E+10  -4.989158795963402E-1    5.480593834957490E-2    1.428694718936175E-4   -1.497977447843149E-5    1.943603615888053E-4   -1.861096504256506E-5   -3.717207442412287E-1    3.304071088128656E-1
 1.000589980300000E+10  -4.988108756080075E-1    5.509458270563598E-2    1.304417624761545E-4   -2.374153700901060E-5    1.459807746930852E-4    9.832418999773198E-6   -3.713418601040422E-1    3.306585613944240E-1
 1.000590463500000E+10  -4.988849510072749E-1    5.556896129855237E-2    1.773768358152884E-4    8.286376721348676E-6    1.720565725002454E-4   -1.653952069607553E-5   -3.710058972355108E-1    3.309575057754803E-1
 1.000590946700000E+10  -4.989064072407328E-1    5.570302896426350E-2    1.689576579175103E-4    4.100434875538507E-5    1.821299116948524E-4    1.559072411819748E-5   -3.707490856981679E-1    3.313206531980199E-1
 1.000591429900000E+10  -4.989601711343067E-1    5.611310819483123E-2    1.573170155859804E-4    1.558777258384135E-5    1.735539436951257E-4    5.686145193896329E-5   -3.705418202836672E-1    3.316438471481177E-1
 1.000591913100000E+10  -4.988019135313350E-1    5.634419451680951E-2    1.965753998866104E-4    2.862276251679428E-5    2.065452953535668E-4    7.970237031317634E-5   -3.702833668134768E-1    3.319537197035964E-1
 1.000592396300000E+10  -4.987571867168080E-1    5.665046836321194E-2    2.145188960195889E-4    4.012756581931475E-5    2.050464596215186E-4    2.351864941704317E-5   -3.700078162900146E-1    3.321574282806722E-1
 1.000592879500000E+10  -4.987535556129295E-1    5.694095741102673E-2    2.077751853133093E-4    6.129361602770244E-5    1.894878848760823E-4    7.911039098856529E-5   -3.696310737269559E-1    3.325050090994124E-1
 1.000593362700000E+10  -4.987579421368140E-1    5.738460477177409E-2    1.985031940868810E-4    6.327256685794344E-5    1.957210773529896E-4    1.043091194585394E-4   -3.693386969102411E-1    3.328518819408332E-1
 1.000593845900000E+10  -4.986885726604376E-1    5.763112537744584E-2    2.178994273023320E-4    7.073694546690103E-5    2.035254978254606E-4    8.136405982660236E-5   -3.689506346568124E-1    3.330635547328156E-1
 1.000594329100000E+10  -4.986221860402602E-1    5.789002971296602E-2    2.114746605029762E-4    8.820653488163358E-5    2.259676056389956E-4    1.186113461753310E-4   -3.688666700354514E-1    3.336202607950877E-1
 1.000594812300000E+10  -4.985799977586498E-1    5.827604089764585E-2    2.527619043845496E-4    7.055294087488925E-5    2.562632555117311E-4    1.006154043451502E-4   -3.684963258633084E-1    3.338304543775186E-1
 1.000595295500000E+10  -4.986625343755797E-1    5.860637956377803E-2    2.383630150605129E-4    9.949267135994831E-5    2.501743538826453E-4    1.136894743872702E-4   -3.681891179702489E-1    3.341354319526608E-1
 1.000595778700000E+10  -4.986245200146693E-1    5.895594122726216E-2    2.603982675339594E-4    1.030529714256858E-4    2.614443071945232E-4    1.204262378600820E-4   -3.678638775609209E-1    3.344326159242312E-1
 1.000596261900000E+10  -4.985953859011300E-1    5.916893213065978E-2    2.446433969002049E-4    9.409407049139798E-5    2.514142592035859E-4    1.177167265929739E-4   -3.675850493262139E-1    3.347766483896892E-1
 1.000596745100000E+10  -4.986000642336112E-1    5.962246998888633E-2    2.832924226675321E-4    1.183272658338537E-4    2.799363706840257E-4    1.312512061374619E-4   -3.672429167436950E-1    3.350442001006028E-1
 1.000597228300000E+10  -4.985145414274576E-1    5.984815956261148E-2    2.773208455040726E-4    1.456215494964258E-4    2.601824875553922E-4    1.537273220707899E-4   -3.669971740139342E-1    3.354037927920062E-1
 1.000597711500000E+10  -4.984684707756878E-1    6.018803151078675E-2    3.196747262443865E-4    1.338471142810479E-4    2.755788604015364E-4    1.561176437576838E-4   -3.666761436437336E-1    3.357702230742695E-1
 1.000598194700000E+10  -4.984186421327260E-1    6.061377156087462E-2    3.286475875233790E-4    1.564127675225957E-4    3.075898583231752E-4    1.956062914831297E-4   -3.663304992648732E-1    3.360658453576968E-1
 1.000598677900000E+10  -4.984114880432702E-1    6.075381421138133E-2    3.316457513470656E-4    1.834781874399418E-4    2.871819425615885E-4    1.791198630299970E-4   -3.660308809045730E-1    3.363376922548503E-1
 1.000599161100000E+10  -4.983296530206471E-1    6.111287534029727E-2    3.518792639927367E-4    2.010514635115570E-4    3.288466993396146E-4    2.008907411926775E-4   -3.657209754178011E-1    3.366259329220827E-1
 1.000599644300000E+10  -4.983407495467839E-1    6.140634128445993E-2    3.122076126041752E-4    1.902843873955253E-4    3.012926583054677E-4    2.208272934904186E-4   -3.653217304860888E-1    3.370292736443970E-1
 1.000600127500000E+10  -4.983120188572610E-1    6.175891186227452E-2    3.356811950627838E-4    2.154239755200174E-4    3.441107967641749E-4    2.157183393491301E-4   -3.651775903839181E-1    3.372665781509146E-1
 1.000600610700000E+10  -4.984553945434930E-1    6.212969619230618E-2    4.049250771677157E-4    2.204113454391910E-4    3.471723440978439E-4    2.302919611517180E-4   -3.647101407235574E-1    3.376776448497819E-1
