#  HZ   S   RI   R     50.00 
! Rohde & Schwarz Vector Network Analyzer 
! Rohde-Schwarz,ZNB20-2Port,1311601062101988,3.16
! Created: UTC 3/20/2024, 12:00:40 PM
! freq[Hz]                re:S11                  im:S11                  re:S21                  im:S21                  re:S12                  im:S12                  re:S22                  im:S22
 1.000564029700000E+10  -5.001242821011587E-1    3.812116007643134E-2   -8.314424282330618E-5   -3.836527378411545E-4   -4.381765073404772E-5   -4.047429861936349E-4   -3.848655894838647E-1    3.145754957862108E-1
 1.000564487005000E+10  -5.001474277794143E-1    3.823172991636543E-2   -9.100776782030937E-5   -3.440790797712993E-4   -6.613522067118716E-5   -3.507166826564094E-4   -3.846279756686535E-1    3.148519427730433E-1
 1.000564944310000E+10  -4.998281364377532E-1    3.859756040889704E-2   -9.164995560212856E-5   -3.660638703852677E-4   -8.056374485233572E-5   -3.618232615253973E-4   -3.844155778752474E-1    3.150593366096651E-1
 1.000565401615000E+10  -4.999727241453095E-1    3.892034230342728E-2   -6.798185909124085E-5   -3.644157395048077E-4   -7.536532599850293E-5   -3.499747066555723E-4   -3.841526199247880E-1    3.153450370095688E-1
 1.000565858920000E+10  -5.001437629722070E-1    3.925061229461721E-2   -4.947940274737807E-5   -3.639885943417289E-4   -7.080367576284098E-5   -3.612671931355727E-4   -3.840269122812215E-1    3.156123972154984E-1
 1.000566316225000E+10  -4.999424259669228E-1    3.953895050211178E-2   -5.467108587792549E-5   -3.506822225665600E-4   -5.527150103492134E-5   -3.593972943013527E-4   -3.836596393626120E-1    3.158956548579694E-1
 1.000566773530000E+10  -5.001110002211627E-1    3.979056032678360E-2   -7.381218537381099E-5   -3.626635328042187E-4   -6.262349671849892E-5   -3.645175757861526E-4   -3.834224948269099E-1    3.162003777373113E-1
 1.000567230835000E+10  -4.999012448723688E-1    4.006934114973315E-2   -9.219749125903974E-5   -3.581652252034030E-4   -7.000070364596699E-5   -3.618400528679096E-4   -3.832964901535564E-1    3.164288043062237E-1
 1.000567688140000E+10  -4.999849202485813E-1    4.040151918248225E-2   -6.590388463052237E-5   -3.388409731445553E-4   -5.403421611270327E-5   -3.418616991907595E-4   -3.831452815091958E-1    3.166735204873226E-1
 1.000568145445000E+10  -4.999294401949434E-1    4.067563379880310E-2   -9.764685380591091E-5   -3.301115696433904E-4   -6.740728020733546E-5   -3.198903719647271E-4   -3.829103295727403E-1    3.169613500881145E-1
 1.000568602750000E+10  -5.000237953225091E-1    4.096033369465520E-2   -9.995953476779608E-5   -3.428378885911983E-4   -5.932274308349686E-5   -3.013048426948548E-4   -3.826944348587070E-1    3.172794283496931E-1
 1.000569060055000E+10  -5.000692074608439E-1    4.131973538952639E-2   -6.043725498214495E-5   -3.064567041853780E-4   -5.386899113146714E-5   -3.374726345069044E-4   -3.826111183592537E-1    3.175988561646738E-1
 1.000569517360000E+10  -4.997572518922499E-1    4.167948110996907E-2   -5.440523180424522E-5   -3.176213613550925E-4   -4.882386911187983E-5   -3.357053432735697E-4   -3.822442597863644E-1    3.178911749368913E-1
 1.000569974665000E+10  -5.000126033492427E-1    4.181820765622024E-2   -3.895907473915612E-5   -3.153402692295096E-4   -4.347102009697778E-5   -3.375852105708015E-4   -3.821307668599283E-1    3.179916841516030E-1
 1.000570431970000E+10  -4.999823724121447E-1    4.221646681925591E-2   -4.088338955886801E-5   -3.101398624614964E-4   -5.762670213569271E-5   -3.278083781926699E-4   -3.818401057074696E-1    3.183989328335690E-1
 1.000570889275000E+10  -4.999746005629536E-1    4.258640429384104E-2   -4.102439926367372E-5   -3.085558095331568E-4   -1.906544363988277E-5   -2.807638511208886E-4   -3.816564614620588E-1    3.188529384037014E-1
 1.000571346580000E+10  -4.998674945269253E-1    4.288180851169704E-2   -4.294743394932134E-5   -3.125453758219149E-4   -2.210212210040844E-5   -2.644447233652556E-4   -3.815070529527819E-1    3.188672118271101E-1
 1.000571803885000E+10  -4.998430594950881E-1    4.299860062970391E-2   -3.920434029124482E-5   -2.833517892440704E-4   -1.972109558739092E-5   -2.888899886677265E-4   -3.812866362066783E-1    3.192239233925675E-1
 1.000572261190000E+10  -4.998066358991271E-1    4.343799186811354E-2   -4.833238448065728E-5   -2.954044197691711E-4    4.360523943171258E-6   -2.803845246745510E-4   -3.809603283863452E-1    3.195015891478901E-1
 1.000572718495000E+10  -4.998193960431227E-1    4.381575604547213E-2   -3.029922246291169E-5   -2.516494282668542E-4   -3.646472816160523E-5   -2.814185300625388E-4   -3.807726833128769E-1    3.197222034828118E-1
 1.000573175800000E+10  -4.997263090564413E-1    4.408309000926632E-2   -4.082998811039921E-5   -2.762123842136735E-4   -2.667365319919903E-5   -2.484978360171593E-4   -3.806179669051244E-1    3.200312173343165E-1
 1.000573633105000E+10  -4.997226460887221E-1    4.432865797903184E-2   -3.064026819668782E-5   -3.000614981409250E-4   -2.900955443015964E-5   -2.612681185649287E-4   -3.802641970606725E-1    3.202830655647304E-1
 1.000574090410000E+10  -4.997548947774418E-1    4.472846407284982E-2   -1.826403077050016E-5   -2.576050635215266E-4   -2.094910855387115E-5   -2.511257873970550E-4   -3.801263235592509E-1    3.206045423352663E-1
 1.000574547715000E+10  -4.996283582571476E-1    4.503696330130445E-2   -3.689584579613139E-5   -2.315161140322570E-4   -8.501543066515269E-6   -2.455156975279032E-4   -3.800285916781808E-1    3.208943923098859E-1
 1.000575005020000E+10  -4.996859331312844E-1    4.526309527088199E-2   -8.337422980311743E-6   -2.558027729878684E-4    4.780283968722944E-6   -2.714971925282683E-4   -3.796737100468339E-1    3.210655350517416E-1
 1.000575462325000E+10  -4.998996011925046E-1    4.548550457920527E-2   -2.113956358759271E-5   -2.562415302847436E-4   -1.942809208937633E-5   -2.372365558493330E-4   -3.793661528109266E-1    3.214211169386703E-1
 1.000575919630000E+10  -4.997774178363405E-1    4.584480339462521E-2    1.026460773436407E-5   -2.573008946930618E-4    6.709354755732110E-6   -2.509301112714069E-4   -3.790680081350112E-1    3.216529688015969E-1
 1.000576376935000E+10  -4.996669176950224E-1    4.610667111382327E-2   -2.578709321581062E-5   -2.634599093335634E-4   -8.039290109831971E-6   -2.532568858806990E-4   -3.789960510274463E-1    3.220293615305881E-1
 1.000576834240000E+10  -4.995192688806362E-1    4.649858370475252E-2    7.567239434991106E-6   -2.431043295263143E-4    6.690246702651656E-6   -2.416956340362007E-4   -3.788375463860310E-1    3.223425165632016E-1
 1.000577291545000E+10  -4.995977991765665E-1    4.667273073691748E-2    2.705626354948247E-7   -2.159566540798552E-4   -3.161837271801735E-5   -2.045021743959424E-4   -3.785324404546113E-1    3.224906319116248E-1
 1.000577748850000E+10  -4.996076856531960E-1    4.706977723492808E-2   -3.183504750019165E-6   -2.380317188703113E-4    1.948940369747221E-6   -2.313982239911885E-4   -3.782764831559014E-1    3.228614845680449E-1
 1.000578206155000E+10  -4.996280375312449E-1    4.726080851852538E-2    4.210573884247377E-8   -2.304856096496741E-4    3.543576277923567E-5   -2.392822487050486E-4   -3.781701372375293E-1    3.231468044067634E-1
 1.000578663460000E+10  -4.995499671089889E-1    4.756854088780660E-2    2.057228108890537E-5   -1.991805664012845E-4    2.014799352791628E-5   -2.268919786004350E-4   -3.778670173068986E-1    3.233859588144996E-1
 1.000579120765000E+10  -4.996244265206791E-1    4.783855101340766E-2    2.631886631426846E-5   -2.037076440831200E-4    2.421296299819668E-5   -1.842893669835553E-4   -3.775578292425513E-1    3.236484939213440E-1
 1.000579578070000E+10  -4.994147719680999E-1    4.828559278237061E-2    1.408175873224302E-5   -2.079818833828309E-4    4.074590998004852E-5   -2.141135376482375E-4   -3.773884888658680E-1    3.239280944519585E-1
 1.000580035375000E+10  -4.996707705386379E-1    4.842970817410112E-2    2.179561820485998E-5   -2.130965892968434E-4    1.006218909330229E-5   -1.818782042341361E-4   -3.771326428543082E-1    3.242139169686992E-1
 1.000580492680000E+10  -4.994013845756964E-1    4.881479723017635E-2    1.155564147804756E-5   -1.997176381090135E-4    2.834572368560221E-5   -2.048048832582018E-4   -3.768747659385795E-1    3.245935007605200E-1
 1.000580949985000E+10  -4.995744512920143E-1    4.915972251654915E-2    3.605725514534477E-5   -1.589494081418599E-4    2.825792424717701E-5   -1.405364614373427E-4   -3.764928790507839E-1    3.246922603405606E-1
 1.000581407290000E+10  -4.994916417757594E-1    4.935012608191285E-2    2.965924094919477E-5   -1.758990704059291E-4    6.395763193859184E-5   -1.561355702895388E-4   -3.764257509400104E-1    3.250368181200040E-1
 1.000581864595000E+10  -4.993603018362442E-1    4.968171186474499E-2    3.097277512641580E-5   -1.572261670196976E-4    6.816929084241548E-5   -1.520808510720253E-4   -3.761590705817964E-1    3.253920442626350E-1
 1.000582321900000E+10  -4.995124232829079E-1    5.001731775097547E-2    1.493887556990638E-5   -1.738592779443029E-4    3.945821744477349E-5   -1.408056441351569E-4   -3.759560573391028E-1    3.256999941025777E-1
 1.000582779205000E+10  -4.992867864833138E-1    5.032668333988800E-2    5.545445325971652E-5   -1.657481538926625E-4    5.272936554230139E-5   -1.449707817733076E-4   -3.757314880151131E-1    3.260501532299611E-1
 1.000583236510000E+10  -4.993463896029462E-1    5.063750933264067E-2    3.957563561964952E-5   -1.193501424039641E-4    8.747214506834220E-5   -1.261918043329092E-4   -3.755673507947771E-1    3.263152528061656E-1
 1.000583693815000E+10  -4.993573840573534E-1    5.093277770723396E-2    6.431518647459165E-5   -1.352060156296717E-4    6.730041848102453E-5   -1.361390121559477E-4   -3.752324534335338E-1    3.264681384460801E-1
 1.000584151120000E+10  -4.993281338302825E-1    5.128442039220921E-2    7.720448493962166E-5   -1.475356882539410E-4    7.172143456708110E-5   -1.165285162958232E-4   -3.750016351014495E-1    3.268478987241664E-1
 1.000584608425000E+10  -4.992287597843422E-1    5.149685947634457E-2    5.678089358543414E-5   -1.351731509224172E-4    6.791901930446362E-5   -1.423485529764377E-4   -3.747037807554376E-1    3.270174837649328E-1
 1.000585065730000E+10  -4.992617565490257E-1    5.187554748968436E-2    9.076969195748924E-5   -8.531520476434034E-5    7.898927506460363E-5   -1.506516241246759E-4   -3.744946944673802E-1    3.274225579841579E-1
 1.000585523035000E+10  -4.992035073652296E-1    5.216306165111393E-2    5.965330365481233E-5   -1.056042071933061E-4    5.835918335667672E-5   -9.140467442600416E-5   -3.742809496061678E-1    3.275158439789294E-1
 1.000585980340000E+10  -4.992118510044830E-1    5.239267988597046E-2    8.909668875207317E-5   -8.534693397817889E-5    3.533483221996865E-5   -1.152111999083513E-4   -3.739482953274928E-1    3.279942776480604E-1
 1.000586437645000E+10  -4.991680983897916E-1    5.271078614720318E-2    8.854039450544885E-5   -9.646870918294602E-5    7.201033394744966E-5   -5.333563591531464E-5   -3.737539596459653E-1    3.283280367722154E-1
 1.000586894950000E+10  -4.991401381949682E-1    5.300936153935665E-2    8.164133661058461E-5   -1.071518361304250E-4    9.614174790069512E-5   -1.010889614703154E-4   -3.734431290230706E-1    3.286312090040422E-1
 1.000587352255000E+10  -4.990951633791603E-1    5.321259656224799E-2    7.755420069947197E-5   -9.942481350148594E-5    9.534700036664967E-5   -8.518415144463930E-5   -3.732401528472904E-1    3.287753544904914E-1
 1.000587809560000E+10  -4.991175601127844E-1    5.353394570902442E-2    1.015375843125328E-4   -7.535856402507779E-5    1.075371366279366E-4   -6.951884686569962E-5   -3.730953922768517E-1    3.290865088765408E-1
 1.000588266865000E+10  -4.990803894456999E-1    5.380364787016367E-2    9.869037791739159E-5   -8.439127899505418E-5    9.615956532071407E-5   -4.241031462750440E-5   -3.729683732362750E-1    3.294592338870762E-1
 1.000588724170000E+10  -4.990596755909540E-1    5.426737054117897E-2    1.121436556320358E-4   -7.389819145951766E-5    1.386743668595030E-4   -5.858950440701694E-5   -3.725547141742307E-1    3.297619145518501E-1
 1.000589181475000E+10  -4.990743023828015E-1    5.445567371545561E-2    1.317077756862234E-4   -5.612457878094064E-5    1.143381921248820E-4   -3.516866074305814E-5   -3.722702311512553E-1    3.300649215401817E-1
 1.000589638780000E+10  -4.989062283179602E-1    5.486555105797273E-2    1.098979623383348E-4   -5.506287219298953E-5    1.019101532719713E-4    4.860485532499540E-6   -3.719894635433443E-1    3.303851905721288E-1
 1.000590096085000E+10  -4.990259405503887E-1    5.505609276823777E-2    1.538132359408089E-4   -4.008668305211461E-5    1.253402649814099E-4   -4.096666903858427E-5   -3.717602325156760E-1    3.306091833783352E-1
 1.000590553390000E+10  -4.990782282807216E-1    5.536458134558216E-2    1.542920465905094E-4   -2.715997621507602E-6    1.372988644431106E-4   -2.019783612377214E-5   -3.715093416864232E-1    3.309612735291048E-1
 1.000591010695000E+10  -4.989231273220149E-1    5.565294353498570E-2    1.250653231560533E-4   -3.329921225697351E-5    1.249642801970416E-4   -1.753523186699049E-5   -3.712250415514519E-1    3.311789178853232E-1
 1.000591468000000E+10  -4.989043206359545E-1    5.607312017377658E-2    1.509831042121764E-4   -3.215886839402913E-5    1.540035288608110E-4   -1.750782011891590E-5   -3.710039014432257E-1    3.314734415070233E-1
 1.000591925305000E+10  -4.989002541853061E-1    5.615349592507193E-2    1.374207311743152E-4   -3.227597255915681E-5    1.747333891456843E-4    3.958355119443671E-6   -3.706148665265410E-1    3.317279867430959E-1
 1.000592382610000E+10  -4.987303514840494E-1    5.639582788291620E-2    1.311240973953082E-4   -5.342639945698092E-7    1.632545864409374E-4   -6.318357742299120E-6   -3.704539025094059E-1    3.320312054570868E-1
 1.000592839915000E+10  -4.989089496173003E-1    5.686531013793263E-2    1.624450825157049E-4    3.321007632650859E-5    1.748033741660312E-4    5.512271767055575E-5   -3.700800221585952E-1    3.323850918228315E-1
 1.000593297220000E+10  -4.987083580340775E-1    5.714790386263708E-2    1.511069967152603E-4    1.905399424849773E-5    1.336106310235085E-4    4.008192445512141E-5   -3.698390354694809E-1    3.325941984883652E-1
 1.000593754525000E+10  -4.988583889552729E-1    5.741353994944566E-2    1.828620261853452E-4    5.532664260897571E-5    1.763714171063390E-4    6.953335465936604E-5   -3.695579969181028E-1    3.329900487861910E-1
 1.000594211830000E+10  -4.988433879912961E-1    5.770320290396570E-2    1.924315641395298E-4    5.693639893610352E-5    1.929011033006406E-4    3.383443528461346E-5   -3.692890021749299E-1    3.333123551308643E-1
 1.000594669135000E+10  -4.986840123378622E-1    5.795440017534844E-2    2.296888886540249E-4    7.638960840341413E-5    1.556801131795658E-4    3.345234769039872E-5   -3.690083765495111E-1    3.334133548995807E-1
 1.000595126440000E+10  -4.987066242409474E-1    5.843024173690208E-2    1.776330840139433E-4    5.868531529566794E-5    1.850473624740993E-4    8.052570453732401E-5   -3.688895953074890E-1    3.338694007177951E-1
 1.000595583745000E+10  -4.987289163707760E-1    5.864677704330346E-2    2.065118088393125E-4    6.868468778039458E-5    2.288934639828401E-4    8.206083616737171E-5   -3.685220250472546E-1    3.340984563772534E-1
 1.000596041050000E+10  -4.986949835478080E-1    5.880598842510525E-2    2.229240664099094E-4    7.820743007496729E-5    2.011093465563292E-4    9.661208931309444E-5   -3.682497107124469E-1    3.346149806768090E-1
 1.000596498355000E+10  -4.987006070284339E-1    5.916206371875993E-2    2.201641474112705E-4    5.879007752006834E-5    2.382905595562678E-4    1.073078235290306E-4   -3.680024411582118E-1    3.345534314502137E-1
 1.000596955660000E+10  -4.987108111879471E-1    5.956340560561468E-2    2.399948227379636E-4    1.022189154675064E-4    2.321700425460675E-4    8.089698197291912E-5   -3.676837232128602E-1    3.350968642829573E-1
 1.000597412965000E+10  -4.986650518176262E-1    5.969846485110495E-2    2.151803560522352E-4    1.043495724208527E-4    2.113201208934946E-4    1.035463367418722E-4   -3.674039523969193E-1    3.353695235208483E-1
 1.000597870270000E+10  -4.985903611798148E-1    6.009560811041306E-2    2.739456352685151E-4    1.304416564168177E-4    2.267922191956031E-4    1.450454876691620E-4   -3.671508894473171E-1    3.356360205401486E-1
 1.000598327575000E+10  -4.986040477487575E-1    6.034820465314320E-2    2.676165837372014E-4    1.197635242183704E-4    2.399469281599444E-4    1.730215116401861E-4   -3.667069419836080E-1    3.360024374881484E-1
 1.000598784880000E+10  -4.985667479984991E-1    6.071484438883420E-2    2.826274238887706E-4    1.407136835006048E-4    2.510736674296393E-4    1.184262136735982E-4   -3.665576737006518E-1    3.362973894165411E-1
 1.000599242185000E+10  -4.984875624075741E-1    6.095708104795471E-2    2.951309863473468E-4    1.308039879140615E-4    2.917677009980866E-4    1.379257535886201E-4   -3.662954444732325E-1    3.365649274875920E-1
 1.000599699490000E+10  -4.985227005658970E-1    6.125139042760608E-2    2.628149362920802E-4    1.632593950626980E-4    2.710201894322558E-4    1.616418222843465E-4   -3.660491641278412E-1    3.368140787583992E-1
 1.000600156795000E+10  -4.984600960809744E-1    6.149581692832603E-2    2.978862197385312E-4    1.656036085168471E-4    2.534392069895734E-4    1.802112979034800E-4   -3.657445094264837E-1    3.372563358304499E-1
 1.000600614100000E+10  -4.984829810686058E-1    6.181976581740838E-2    3.221515669858556E-4    1.919391553784069E-4    2.938164457116226E-4    1.840275842422807E-4   -3.653339178908894E-1    3.374258085010337E-1
 1.000601071405000E+10  -4.984023716942708E-1    6.209670333817570E-2    3.191020718180193E-4    2.108271389054998E-4    3.038498863126647E-4    2.021452618494411E-4   -3.650659922718273E-1    3.378313158489432E-1
 1.000601528710000E+10  -4.983583156925672E-1    6.239847312157640E-2    3.393939711261499E-4    1.998120386867774E-4    3.127543122291367E-4    2.175924179746275E-4   -3.647098182212568E-1    3.381095112618013E-1
 1.000601986015000E+10  -4.983802528140737E-1    6.289111079686166E-2    3.154721538850147E-4    2.267590477265899E-4    3.025477635381900E-4    2.207399766753617E-4   -3.644635363210378E-1    3.382185844225329E-1
 1.000602443320000E+10  -4.983484064297845E-1    6.306523266308890E-2    3.673994035439585E-4    2.262623928922525E-4    3.091632741036734E-4    2.443894721345806E-4   -3.642481066707563E-1    3.387281097997389E-1
 1.000602900625000E+10  -4.982782783000210E-1    6.333689367558830E-2    3.638991947928872E-4    2.170116900719831E-4    3.414280962019767E-4    2.522824754471932E-4   -3.638407458761345E-1    3.390413933917920E-1
 1.000603357930000E+10  -4.982327649042715E-1    6.364685009383679E-2    3.554736143922162E-4    2.815074342347405E-4    3.497921141666857E-4    2.722181581214340E-4   -3.635156293770155E-1    3.393748017568272E-1
 1.000603815235000E+10  -4.981753037842851E-1    6.395333267827637E-2    3.654543492354480E-4    2.634786055981068E-4    3.606457628540612E-4    2.732857164047788E-4   -3.633044563216282E-1    3.396490945619390E-1
 1.000604272540000E+10  -4.982129078570783E-1    6.429184723826832E-2    3.892242809135809E-4    2.551523211109753E-4    3.630501087021762E-4    2.766475701705073E-4   -3.629557865121564E-1    3.400212271782083E-1
 1.000604729845000E+10  -4.982123189884957E-1    6.472540848091979E-2    3.759425005476006E-4    2.713490764931443E-4    3.769714244449005E-4    2.910030144401180E-4   -3.624360191324544E-1    3.402602602547941E-1
 1.000605187150000E+10  -4.980743923138472E-1    6.493705098866764E-2    3.825207623193894E-4    2.716651621737100E-4    4.037460573851853E-4    3.360686559586450E-4   -3.621983688511161E-1    3.408572439296905E-1
