#  HZ   S   RI   R     50.00 
! Rohde & Schwarz Vector Network Analyzer 
! Rohde-Schwarz,ZNB20-2Port,1311601062101988,3.16
! Created: UTC 3/20/2024, 12:00:45 PM
! freq[Hz]                re:S11                  im:S11                  re:S21                  im:S21                  re:S12                  im:S12                  re:S22                  im:S22
 1.000565105300000E+10  -5.002645673430011E-1    3.866726426651489E-2   -7.870451108448667E-5   -3.414222744439425E-4   -1.012612081513947E-4   -3.886705459724178E-4   -3.843128712222422E-1    3.150935719846583E-1
 1.000565558402500E+10  -5.000856086542705E-1    3.901333321222551E-2   -7.911319229617776E-5   -3.649098413151470E-4   -7.858976100832087E-5   -3.949537652353251E-4   -3.842108108469339E-1    3.154613174509199E-1
 1.000566011505000E+10  -5.000310516722033E-1    3.931561423275671E-2   -8.467395690782757E-5   -3.872315848422432E-4   -4.298782521751303E-5   -3.710967779834519E-4   -3.840885924511351E-1    3.157435694612346E-1
 1.000566464607500E+10  -5.001303462625751E-1    3.960327984951811E-2   -8.825413304525645E-5   -3.577972640448316E-4   -5.598471452256874E-5   -3.569216318535933E-4   -3.836668650357130E-1    3.159882516246431E-1
 1.000566917710000E+10  -5.000943193625944E-1    3.994535004520665E-2   -8.246799646690314E-5   -3.749578251754075E-4   -6.684980650403568E-5   -3.402035070981650E-4   -3.837210214347832E-1    3.161704422472854E-1
 1.000567370812500E+10  -5.000563056428827E-1    4.020157251561503E-2   -9.788778860242573E-5   -3.614391374301932E-4   -6.452380749125795E-5   -3.399251451330372E-4   -3.833400288262070E-1    3.164767194255172E-1
 1.000567823915000E+10  -4.999886572797140E-1    4.045021179447161E-2   -6.530908285107819E-5   -3.201421041460725E-4   -5.686571355852321E-5   -3.323065857812731E-4   -3.830534373285565E-1    3.168407814422557E-1
 1.000568277017500E+10  -4.999815612953522E-1    4.065958783147400E-2   -7.432303561434287E-5   -3.579539371886146E-4   -5.151430815500350E-5   -3.434792647560922E-4   -3.828465964131340E-1    3.170892025567844E-1
 1.000568730120000E+10  -4.999745587419135E-1    4.104722203017878E-2   -6.451079247628998E-5   -3.393971123630757E-4   -3.835042424015322E-5   -3.373068135867177E-4   -3.827282711454847E-1    3.173100484536751E-1
 1.000569183222500E+10  -4.998878362971594E-1    4.150731964711717E-2   -7.481369693096066E-5   -3.275861354409156E-4   -5.850319727240281E-5   -3.157153771914034E-4   -3.825441175816013E-1    3.176230206215984E-1
 1.000569636325000E+10  -4.998733300522035E-1    4.165220651750825E-2   -5.083694478185740E-5   -3.263185998418682E-4   -4.407133636147802E-5   -3.248848724706151E-4   -3.823409765382625E-1    3.179092146171911E-1
 1.000570089427500E+10  -4.999489327810029E-1    4.206452716578536E-2   -6.283155067298644E-5   -3.217402959889275E-4   -2.743266334944108E-5   -3.269343046559940E-4   -3.819450268441745E-1    3.181123462872004E-1
 1.000570542530000E+10  -4.999484745136754E-1    4.230365150303330E-2   -6.311338086368768E-5   -2.966104693784324E-4   -1.614708740457035E-5   -2.995105909914239E-4   -3.819244586995792E-1    3.183094154095277E-1
 1.000570995632500E+10  -4.999436995277943E-1    4.250531735351636E-2   -4.721348911296044E-5   -3.057037098560487E-4   -5.253708709036445E-5   -2.847622337205186E-4   -3.815843904489957E-1    3.188173683043024E-1
 1.000571448735000E+10  -4.998328001888702E-1    4.287415083783457E-2   -5.272491685594141E-5   -2.930884317384227E-4   -9.928618337323727E-6   -2.793024008462689E-4   -3.814126149014904E-1    3.189822569956397E-1
 1.000571901837500E+10  -4.997661661149596E-1    4.313380622370697E-2   -5.828122142159416E-5   -3.066634406374676E-4   -4.611057795672544E-5   -3.073576621053397E-4   -3.812774803307419E-1    3.193056000691323E-1
 1.000572354940000E+10  -4.997154516896614E-1    4.329659617922404E-2   -3.431727304801366E-5   -3.013815868429790E-4   -3.226151660872062E-5   -2.894032404432881E-4   -3.809923007036882E-1    3.194871864880546E-1
 1.000572808042500E+10  -4.998716828723326E-1    4.371676245442185E-2   -5.082623603549255E-5   -3.062844601359291E-4   -2.612186331229350E-5   -2.700442514074031E-4   -3.807163982113797E-1    3.196975083875101E-1
 1.000573261145000E+10  -4.998604559448173E-1    4.402369529753424E-2   -2.191206996407170E-5   -2.662650752643485E-4   -3.012100795072877E-5   -2.910776461437093E-4   -3.805504952083935E-1    3.199839405886337E-1
 1.000573714247500E+10  -4.998158803018583E-1    4.441339415503656E-2   -4.122233448831149E-5   -2.737367364146316E-4   -2.598801689441315E-5   -2.763806882942390E-4   -3.804269026096108E-1    3.202950696222496E-1
 1.000574167350000E+10  -4.996761281683244E-1    4.453841276880840E-2   -2.977195180910132E-5   -2.822825979366699E-4   -4.580712719897808E-6   -2.679381031773295E-4   -3.800319298233081E-1    3.206670259125667E-1
 1.000574620452500E+10  -4.997902860023913E-1    4.489660694755022E-2   -7.876246051531548E-6   -2.563094110268707E-4    3.875130072284793E-6   -2.514049852191286E-4   -3.797860146947526E-1    3.209872500430986E-1
 1.000575073555000E+10  -4.997394798449239E-1    4.528888000747614E-2   -5.592024777936452E-5   -2.385279718812911E-4    8.001926585556883E-6   -2.599527520809608E-4   -3.797338905848415E-1    3.211856183056609E-1
 1.000575526657500E+10  -4.996865087201312E-1    4.556811439201422E-2   -3.775826388403881E-5   -2.543350278843581E-4   -4.354303260185848E-5   -2.572494853810658E-4   -3.795381636619406E-1    3.214500406683981E-1
 1.000575979760000E+10  -4.996389571681399E-1    4.585091242981766E-2   -2.597794515172039E-5   -2.725809954451995E-4   -2.915792713904234E-5   -2.392665380286900E-4   -3.791899677240866E-1    3.216308554780026E-1
 1.000576432862500E+10  -4.997275494911223E-1    4.602283191246724E-2    1.235618882120236E-5   -2.337873651967964E-4   -1.302826829980908E-5   -2.343998257779078E-4   -3.790081538297691E-1    3.218899422734243E-1
 1.000576885965000E+10  -4.995450213446552E-1    4.642209424311807E-2   -1.958473365937200E-5   -2.389283239655406E-4   -1.451269412076920E-5   -2.341398094929222E-4   -3.788831926045181E-1    3.224494031301265E-1
 1.000577339067500E+10  -4.995096874736838E-1    4.674401666900881E-2    5.689672431183988E-6   -2.313981100283439E-4    5.229378455315520E-6   -2.158768885424884E-4   -3.785446641996068E-1    3.225508051778733E-1
 1.000577792170000E+10  -4.995698323881729E-1    4.700115097377219E-2   -1.035658158338823E-6   -2.414191590039101E-4   -3.197010127881799E-5   -2.326168768805105E-4   -3.781192855589681E-1    3.228134772016272E-1
 1.000578245272500E+10  -4.996293038756307E-1    4.719452458863558E-2    2.091296124127381E-5   -2.304488248285465E-4    2.293250647753496E-5   -2.147179381874938E-4   -3.779914579561351E-1    3.230471118615954E-1
 1.000578698375000E+10  -4.996078228744175E-1    4.754138061076468E-2   -1.301404037248770E-5   -2.263791231541053E-4    9.499102831723065E-6   -2.246988205990793E-4   -3.777183393662976E-1    3.234246164800448E-1
 1.000579151477500E+10  -4.996086607372834E-1    4.795365902636097E-2   -8.918728036316700E-6   -2.139330392655445E-4    1.267304592380267E-5   -1.850286689759179E-4   -3.775706121931713E-1    3.235482691201012E-1
 1.000579604580000E+10  -4.995701057312899E-1    4.820633491722114E-2    1.933344365444979E-5   -1.842930865420830E-4    1.444757969041750E-5   -1.876559893860966E-4   -3.773435057834220E-1    3.240375894748694E-1
 1.000580057682500E+10  -4.995475866209536E-1    4.850582441649498E-2   -9.402889514020977E-7   -1.771784755663393E-4   -1.000247106862307E-5   -1.772017947387430E-4   -3.771769956017547E-1    3.242671637689881E-1
 1.000580510785000E+10  -4.995505593079965E-1    4.880094302184624E-2    1.223489701295597E-5   -1.882446009269645E-4    3.461889105193676E-5   -1.917171776456261E-4   -3.769199134082207E-1    3.245300207283655E-1
 1.000580963887500E+10  -4.994601964847132E-1    4.907167394301915E-2    4.835504546179978E-5   -2.345686545153833E-4    1.814746242733190E-5   -1.687899947286553E-4   -3.766170512606129E-1    3.247272515743352E-1
 1.000581416990000E+10  -4.994292076231036E-1    4.932008518782834E-2    2.957154671816201E-5   -1.620799845659158E-4    3.346814989359470E-5   -2.281400224932700E-4   -3.763875585241237E-1    3.250597875909039E-1
 1.000581870092500E+10  -4.994116706858421E-1    4.963268850266874E-2    6.171838722334445E-5   -1.663472827208569E-4    2.910488248055523E-5   -1.518279338347266E-4   -3.763698889705578E-1    3.253213304620178E-1
 1.000582323195000E+10  -4.993856566388387E-1    4.995088054681744E-2    4.038847236186163E-5   -1.927208531502857E-4    1.913704259250192E-5   -1.787123105495428E-4   -3.759027607012524E-1    3.256180248607973E-1
 1.000582776297500E+10  -4.993778093325107E-1    5.025361155421902E-2    3.269747053688455E-5   -1.456841739767954E-4    2.700347821100543E-5   -1.590653260996920E-4   -3.758884174148055E-1    3.259532309722621E-1
 1.000583229400000E+10  -4.993955315629697E-1    5.055994787393742E-2    6.643564785888573E-5   -1.612025459643347E-4    6.897135648463250E-5   -1.311356405402776E-4   -3.755146715950689E-1    3.261551104033217E-1
 1.000583682502500E+10  -4.993884750320828E-1    5.085369005475880E-2    4.438128065284453E-5   -1.574691001234604E-4    7.472675478636645E-5   -1.607205329865418E-4   -3.753736930510826E-1    3.264541261498027E-1
 1.000584135605000E+10  -4.992852966378303E-1    5.107976838827345E-2    5.783421965074164E-5   -1.320457076456752E-4    6.042892081258818E-5   -1.605757220844698E-4   -3.750958216356368E-1    3.267776811925674E-1
 1.000584588707500E+10  -4.994382345870899E-1    5.151250634296881E-2    6.797539712204659E-5   -1.326912793009687E-4    5.481131276320392E-5   -1.151968095609078E-4   -3.748533706930257E-1    3.269682999998720E-1
 1.000585041810000E+10  -4.992287085944012E-1    5.177165123548108E-2    6.506615587858611E-5   -9.915671632162587E-5    5.678559795018809E-5   -1.278362459663438E-4   -3.746615346240970E-1    3.273272249598534E-1
 1.000585494912500E+10  -4.992788339870047E-1    5.202208593720128E-2    7.013433985739623E-5   -1.103728845559289E-4    5.649152497007732E-5   -1.442774942411260E-4   -3.743628084282120E-1    3.277278033579498E-1
 1.000585948015000E+10  -4.992990755713282E-1    5.227080758882748E-2    6.703058299165347E-5   -1.160928810915444E-4    1.176164465905220E-4   -6.949996722650827E-5   -3.740495741318366E-1    3.278284318154689E-1
 1.000586401117500E+10  -4.993695059600813E-1    5.266431857098593E-2    6.766810706610101E-5   -1.041579868241094E-4    4.266426300449677E-5   -7.914214117030973E-5   -3.739078515191006E-1    3.282889627804568E-1
 1.000586854220000E+10  -4.991238971745899E-1    5.304230546315622E-2    6.014597634962525E-5   -1.085989622624592E-4    1.148311535637245E-4   -8.985708549101445E-5   -3.735341544830572E-1    3.284003599893509E-1
 1.000587307322500E+10  -4.990314744766661E-1    5.326548053030965E-2    1.003392237819859E-4   -7.908246663960154E-5    6.737813174029514E-5   -7.457038074764249E-5   -3.732454318340518E-1    3.288245540685247E-1
 1.000587760425000E+10  -4.991140170591106E-1    5.356971120768383E-2    1.017198437458436E-4   -7.204178279018313E-5    9.157150090670608E-5   -7.976260666154153E-5   -3.732770733078747E-1    3.289376092880665E-1
 1.000588213527500E+10  -4.991330225746877E-1    5.382794244766332E-2    8.371370029466526E-5   -4.610651810531905E-5    7.983429685725935E-5   -5.788195975437583E-5   -3.728376530973169E-1    3.294360716583969E-1
 1.000588666630000E+10  -4.990756574904175E-1    5.394186045334474E-2    1.040828935256431E-4   -7.217597973286442E-5    7.584269456471465E-5   -7.519298929868818E-5   -3.724980693964541E-1    3.296631988970748E-1
 1.000589119732500E+10  -4.990385618063941E-1    5.443345428136998E-2    1.130598394492780E-4   -2.834120601692376E-5    1.314775881899488E-4   -7.368087464585063E-5   -3.723973591523194E-1    3.299745952977327E-1
 1.000589572835000E+10  -4.991402140999321E-1    5.475008775814932E-2    1.136471432401586E-4   -2.611940574906989E-5    1.077830612314160E-4   -4.835678354306863E-5   -3.720117918764473E-1    3.302705298746402E-1
 1.000590025937500E+10  -4.990961357951911E-1    5.484866316954627E-2    1.545688744844243E-4   -5.762116794123130E-5    1.159124413608869E-4   -3.407821883783199E-5   -3.717471017339345E-1    3.304092432612574E-1
 1.000590479040000E+10  -4.990499025649455E-1    5.517716171914844E-2    1.121885633774850E-4   -4.168149553808329E-5    1.382606270047610E-4   -1.524836533815255E-5   -3.716985575517017E-1    3.307112489701330E-1
 1.000590932142500E+10  -4.989161362204099E-1    5.554424288922168E-2    1.274975378784676E-4    8.722934226146137E-6    1.445414685923377E-4   -5.486455280554186E-5   -3.712601152075172E-1    3.311704415271055E-1
 1.000591385245000E+10  -4.988305412863270E-1    5.572484143665681E-2    1.523948758976104E-4   -4.693901950063558E-5    1.412254530360702E-4    7.455105483940888E-6   -3.711749363045123E-1    3.313799255027365E-1
 1.000591838347500E+10  -4.990394533205993E-1    5.611629104663201E-2    1.529317637620864E-4    3.512443362113611E-5    1.505850600397589E-4    2.777376642789616E-5   -3.706837348265849E-1    3.315970685786069E-1
 1.000592291450000E+10  -4.989407402180052E-1    5.646175434211418E-2    1.503498331953924E-4   -3.949480554312062E-6    1.454583952707167E-4    4.017505004587488E-5   -3.705512037249010E-1    3.318884146116332E-1
 1.000592744552500E+10  -4.988847216309814E-1    5.674342565295924E-2    1.289850658792184E-4    6.494660933412188E-6    1.534883916955464E-4    8.521613438334848E-6   -3.702675390207447E-1    3.322991757324370E-1
 1.000593197655000E+10  -4.988960532655879E-1    5.706495339950769E-2    1.871550982481592E-4    2.407885784470293E-5    1.127174110247133E-4    4.955640268257923E-5   -3.700470102197707E-1    3.325741411810557E-1
 1.000593650757500E+10  -4.987526003443942E-1    5.742189131257412E-2    1.643165052060897E-4    4.494891321439050E-5    1.474191883939282E-4    3.426725007091117E-5   -3.697513829147702E-1    3.328682547193211E-1
 1.000594103860000E+10  -4.988485974054158E-1    5.763558393729048E-2    1.802275328453898E-4    2.088955717500914E-5    2.048152020408459E-4    2.547381829514817E-5   -3.695169372857829E-1    3.330676874380946E-1
 1.000594556962500E+10  -4.988266822215621E-1    5.788778225828747E-2    2.063247518982158E-4    3.820691626821083E-5    1.927854741760817E-4    5.793157806106235E-5   -3.692488315164475E-1    3.334257836703248E-1
 1.000595010065000E+10  -4.986619514075553E-1    5.822268924628128E-2    1.902758537123864E-4    4.118448781116984E-5    1.498419805871204E-4    6.813241014348065E-5   -3.689374853627029E-1    3.337131273486723E-1
 1.000595463167500E+10  -4.987488887138565E-1    5.844756441098867E-2    2.178869050116302E-4    4.717680477397662E-5    1.898451648764038E-4    6.976529035724555E-5   -3.686781184043282E-1    3.340868594115183E-1
 1.000595916270000E+10  -4.988189784763060E-1    5.876515802910463E-2    2.495949821982049E-4    6.016659605828749E-5    2.202964842906933E-4    6.925724140157260E-5   -3.684054239118024E-1    3.343477930113498E-1
 1.000596369372500E+10  -4.986814315399222E-1    5.908168848646569E-2    2.304714093247594E-4    7.899049804234112E-5    2.114352831107100E-4    9.965050173595611E-5   -3.680230209363192E-1    3.345296741554921E-1
 1.000596822475000E+10  -4.985984993960816E-1    5.943604269479390E-2    2.077167953702581E-4    1.010075988472867E-4    2.284853752718198E-4    9.386582259683182E-5   -3.677962842856959E-1    3.349166594068994E-1
 1.000597275577500E+10  -4.984587666037376E-1    5.965593287570876E-2    2.443327735597895E-4    1.029637892308192E-4    2.490455702147421E-4    1.190980009855524E-4   -3.675839888757902E-1    3.353756107230011E-1
 1.000597728680000E+10  -4.986039865803012E-1    5.996777102172043E-2    2.488507253466430E-4    1.284019624426263E-4    2.300490422673481E-4    1.077351865907490E-4   -3.672378809911050E-1    3.354828867046970E-1
 1.000598181782500E+10  -4.984583560770204E-1    6.045822531941258E-2    2.680848581144049E-4    1.134175749714055E-4    2.333262008002018E-4    1.268202493292534E-4   -3.670111427287177E-1    3.359237462223493E-1
 1.000598634885000E+10  -4.986106487272434E-1    6.054609037386170E-2    2.543815181340051E-4    1.355259802508146E-4    2.543494644265768E-4    1.502127089928686E-4   -3.667717751307099E-1    3.361634690058055E-1
 1.000599087987500E+10  -4.986700788579414E-1    6.084474483454266E-2    2.644290928367539E-4    1.458205383118532E-4    2.662008737982050E-4    1.467146361690751E-4   -3.664183669388048E-1    3.364371655704015E-1
 1.000599541090000E+10  -4.984905618776050E-1    6.115074928773209E-2    2.740940235964724E-4    1.682939309995715E-4    2.528683926985151E-4    1.715990098600690E-4   -3.661422979130215E-1    3.366780210755055E-1
 1.000599994192500E+10  -4.984995599690231E-1    6.148903356257291E-2    2.762585142847121E-4    1.463778279180532E-4    2.757034656623707E-4    1.560183533942633E-4   -3.657353144782241E-1    3.370268981246156E-1
 1.000600447295000E+10  -4.983738450997692E-1    6.168010785137294E-2    3.172299609957698E-4    2.043869699597545E-4    2.661336572115638E-4    2.126825729310732E-4   -3.653986648779837E-1    3.373652481269629E-1
 1.000600900397500E+10  -4.984862998504013E-1    6.209532301764283E-2    2.898942174283329E-4    1.744552192868228E-4    2.931096547107826E-4    2.103175537486472E-4   -3.651816033283738E-1    3.377330212734238E-1
 1.000601353500000E+10  -4.985102471786059E-1    6.234247864477226E-2    2.866927464228696E-4    1.592561515910164E-4    3.018520952082987E-4    2.042924568240117E-4   -3.648755935423968E-1    3.379482420783156E-1
 1.000601806602500E+10  -4.983083860937238E-1    6.260303837839312E-2    3.344792391993362E-4    2.159605455126396E-4    2.945988775566054E-4    1.688704993377937E-4   -3.646112293183065E-1    3.383319669917013E-1
 1.000602259705000E+10  -4.983016800186715E-1    6.298456966378435E-2    3.296232957771255E-4    2.085462545743456E-4    3.290658414452217E-4    2.166590821472754E-4   -3.643443084789144E-1    3.384950728971437E-1
 1.000602712807500E+10  -4.982445973459559E-1    6.323117376003556E-2    3.445538446935478E-4    2.348902459175120E-4    3.199177552507235E-4    2.296968285059729E-4   -3.641322081925474E-1    3.388294925071334E-1
 1.000603165910000E+10  -4.983382800569088E-1    6.356742541280407E-2    3.899439609242159E-4    2.293242169421721E-4    3.087201142107000E-4    2.532248188146787E-4   -3.637523763629832E-1    3.393170420475958E-1
 1.000603619012500E+10  -4.981909734086911E-1    6.393001176009722E-2    3.630154047380959E-4    2.529132272623639E-4    3.684110783640352E-4    2.871990060855325E-4   -3.632986579709465E-1    3.394762112211868E-1
 1.000604072115000E+10  -4.982668786035687E-1    6.411569411989547E-2    3.629291590647716E-4    2.781423855151281E-4    3.648022787270872E-4    2.727354437834678E-4   -3.632527753083157E-1    3.398258526317512E-1
 1.000604525217500E+10  -4.981723737665292E-1    6.428283562206281E-2    3.863553513547930E-4    2.901016945958781E-4    3.561600257158558E-4    2.871506079107900E-4   -3.627450474104273E-1    3.400293412760412E-1
 1.000604978320000E+10  -4.980099095078040E-1    6.476133356942886E-2    4.135267762137101E-4    3.113315636462996E-4    3.713367833899790E-4    2.792789037903204E-4   -3.624089142433414E-1    3.403925841149791E-1
 1.000605431422500E+10  -4.982467384342646E-1    6.508537247286564E-2    3.992321047553661E-4    2.937967075591842E-4    3.664189339726194E-4    3.214312394635353E-4   -3.620195747780221E-1    3.407787899554997E-1
 1.000605884525000E+10  -4.981163816378614E-1    6.532524357871228E-2    4.188516446875959E-4    2.841936656881351E-4    4.156121362763980E-4    3.048382745918570E-4   -3.617847494388963E-1    3.411141373970426E-1
