#  HZ   S   RI   R     50.00 
! Rohde & Schwarz Vector Network Analyzer 
! Rohde-Schwarz,ZNB20-2Port,1311601062101988,3.16
! Created: UTC 3/20/2024, 12:00:50 PM
! freq[Hz]                re:S11                  im:S11                  re:S21                  im:S21                  re:S12                  im:S12                  re:S22                  im:S22
 1.000565913900000E+10  -5.000261456056085E-1    3.928114118940063E-2   -1.280708890362828E-4   -3.712772097516208E-4   -4.837627815789364E-5   -3.585600616207732E-4   -3.840835043688418E-1    3.156581925219142E-1
 1.000566363947500E+10  -5.000873425943693E-1    3.962186068292744E-2   -8.533214508941528E-5   -3.644400071318774E-4   -6.175306036524694E-5   -3.652949207891004E-4   -3.837540431356982E-1    3.157484790340099E-1
 1.000566813995000E+10  -5.000032993872922E-1    3.974616950418575E-2   -6.106406353954600E-5   -3.440822655570380E-4   -7.239619053277042E-5   -3.393632254483802E-4   -3.835644244977103E-1    3.161310399269862E-1
 1.000567264042500E+10  -5.001723750383179E-1    4.007726884067599E-2   -8.246727943646006E-5   -3.303781887836698E-4   -3.883243570018520E-5   -3.793312177187060E-4   -3.833331765342605E-1    3.164733901427261E-1
 1.000567714090000E+10  -4.999737071044737E-1    4.035162324012413E-2   -7.283722517144205E-5   -3.318047835767118E-4   -5.686271415638878E-5   -3.457439025253757E-4   -3.831891833157500E-1    3.167253504862515E-1
 1.000568164137500E+10  -4.998803360463900E-1    4.065666576613100E-2   -8.522486395064641E-5   -3.378015982075720E-4   -5.951749211086636E-5   -3.520347565347948E-4   -3.829627722737996E-1    3.170680906362158E-1
 1.000568614185000E+10  -5.000507457141385E-1    4.098851529716874E-2   -6.996606153969291E-5   -3.420193818155042E-4   -4.963061949290463E-5   -3.304982662231308E-4   -3.829060813584790E-1    3.172112071269306E-1
 1.000569064232500E+10  -4.999888862524451E-1    4.122916618975366E-2   -7.833833349496187E-5   -3.418877646494141E-4   -3.558749056399205E-5   -3.334081804353834E-4   -3.825524414642178E-1    3.174775253226494E-1
 1.000569514280000E+10  -5.000720091213429E-1    4.149951256730081E-2   -7.790774028002952E-5   -3.290117875400826E-4   -5.905528255837350E-5   -3.165539651098402E-4   -3.823051174793065E-1    3.177127005358198E-1
 1.000569964327500E+10  -4.999670203222005E-1    4.187061350187549E-2   -6.017621003028108E-5   -3.114274809529398E-4   -3.941398030705621E-5   -3.251498159356776E-4   -3.820251338074755E-1    3.181369523044794E-1
 1.000570414375000E+10  -4.999542547705698E-1    4.219805083614967E-2   -7.718256488107449E-5   -3.077902808306370E-4   -5.264132821701998E-5   -3.209353999612301E-4   -3.820370190525494E-1    3.184853848963716E-1
 1.000570864422500E+10  -4.997514000724422E-1    4.235390339470678E-2   -7.971358922094832E-5   -3.223540438991295E-4   -4.169424943606291E-5   -2.987604047731653E-4   -3.816482116270343E-1    3.186069884145692E-1
 1.000571314470000E+10  -4.998824628005475E-1    4.280131380640406E-2   -5.687197881608187E-5   -3.003076540791731E-4   -5.566217651076115E-5   -3.006395179208086E-4   -3.815009471407965E-1    3.188420487937069E-1
 1.000571764517500E+10  -4.998084428887805E-1    4.318939610553246E-2   -7.376487169044353E-5   -3.013869639202569E-4   -4.181506553377194E-5   -2.964208449876880E-4   -3.812779986642114E-1    3.191377771089840E-1
 1.000572214565000E+10  -4.998153031315771E-1    4.341231185422972E-2   -5.403865905502170E-5   -2.750402089442616E-4   -1.660850881006616E-5   -2.978956289884926E-4   -3.810415236372036E-1    3.195370667579113E-1
 1.000572664612500E+10  -4.998062544333259E-1    4.363674110164618E-2   -2.060497511886913E-5   -2.927426753598081E-4   -2.622173310738343E-5   -2.935405495826473E-4   -3.808575732310731E-1    3.196374397287869E-1
 1.000573114660000E+10  -4.997444597756439E-1    4.389986824625992E-2   -3.604605641203752E-5   -2.960374216315546E-4   -4.823440136751577E-5   -3.059157626721959E-4   -3.806106922843789E-1    3.198873359521209E-1
 1.000573564707500E+10  -4.997796025119201E-1    4.419009553265486E-2   -3.667224580447649E-5   -2.519988208689005E-4   -2.619905167804408E-5   -2.642017847417968E-4   -3.802278403236363E-1    3.202271341018306E-1
 1.000574014755000E+10  -4.998048896981017E-1    4.456262114484294E-2   -4.023681739158424E-5   -2.660351522396928E-4   -1.413981754631335E-5   -2.698686212267644E-4   -3.802573822586081E-1    3.204853411695051E-1
 1.000574464802500E+10  -4.998726722215070E-1    4.484865763649346E-2   -3.518110054706601E-5   -2.436420144695802E-4    1.670250242787570E-5   -2.380800989295198E-4   -3.799589384706939E-1    3.209666753156077E-1
 1.000574914850000E+10  -4.996770604739635E-1    4.521829241213928E-2   -4.955969952244957E-5   -2.335116175990114E-4   -2.772805266724557E-5   -2.344821966360336E-4   -3.798474618132250E-1    3.210144287947302E-1
 1.000575364897500E+10  -4.996487637293327E-1    4.532248140184823E-2   -4.532336953086186E-5   -2.596727303938573E-4   -3.613326225953031E-5   -2.158118707815808E-4   -3.795371778267608E-1    3.213701260897474E-1
 1.000575814945000E+10  -4.997010867451381E-1    4.582606968837313E-2   -3.164464979351538E-5   -2.271649148060493E-4   -1.860526544662314E-5   -2.371476797260725E-4   -3.793614933250425E-1    3.217380146763927E-1
 1.000576264992500E+10  -4.996663526815654E-1    4.602530282929539E-2    3.991338643600576E-6   -2.794078880400752E-4   -2.410517972251233E-5   -2.676087061746708E-4   -3.790187859300124E-1    3.219294610935148E-1
 1.000576715040000E+10  -4.996153354079755E-1    4.628209520237133E-2   -3.914823361742808E-5   -2.305715780862310E-4   -2.472263272861345E-5   -2.404030170339010E-4   -3.788674578012406E-1    3.221756081792969E-1
 1.000577165087500E+10  -4.996172479432553E-1    4.660217519178459E-2   -1.905366396226215E-5   -2.190344092568693E-4   -3.403295302239618E-5   -2.274945027925392E-4   -3.786833628666977E-1    3.224025269943017E-1
 1.000577615135000E+10  -4.996275506052555E-1    4.692718100550127E-2   -1.559021955524743E-5   -2.287706091491240E-4    1.690712779861801E-5   -2.290056679555679E-4   -3.784751950599487E-1    3.226528010398992E-1
 1.000578065182500E+10  -4.995967968030708E-1    4.711296777308574E-2    1.327492199093042E-5   -2.522441673618508E-4    1.603682811625803E-5   -2.452008363033476E-4   -3.782125427221313E-1    3.229142093798881E-1
 1.000578515230000E+10  -4.994888553396026E-1    4.742102984749370E-2    3.405896686018395E-7   -1.965041353646073E-4    2.077020741061176E-5   -2.107686081460900E-4   -3.780016178651762E-1    3.234402706652682E-1
 1.000578965277500E+10  -4.995796048493830E-1    4.779684151819182E-2    1.619747142328869E-6   -2.159872823722670E-4    1.238710240469064E-6   -1.913741725695359E-4   -3.777598431213373E-1    3.235372023760756E-1
 1.000579415325000E+10  -4.994583191137362E-1    4.812299764278623E-2   -7.454837285991822E-7   -2.064295755705116E-4    3.839747080678466E-5   -1.985127696785915E-4   -3.775388928239854E-1    3.238251837885490E-1
 1.000579865372500E+10  -4.995757136931204E-1    4.842641791010412E-2    1.793329518296862E-5   -2.084128827683132E-4    2.772689438358918E-5   -1.622180464037206E-4   -3.772455825272256E-1    3.241101663540799E-1
 1.000580315420000E+10  -4.993727039495399E-1    4.879217976123813E-2    3.032798685292898E-5   -1.968435787806796E-4    2.340344747999876E-5   -1.886511787929554E-4   -3.770972159867365E-1    3.244127374716507E-1
 1.000580765467500E+10  -4.994474813297257E-1    4.884961292880226E-2    3.485333396320348E-5   -1.900173082153945E-4    3.855618415776250E-5   -1.605628852495342E-4   -3.769184735553766E-1    3.245970078973217E-1
 1.000581215515000E+10  -4.995317901923105E-1    4.918197966084129E-2    1.387520460256487E-5   -1.822960899543579E-4    2.433859653375245E-5   -1.895077689039862E-4   -3.765924465246669E-1    3.250241924139713E-1
 1.000581665562500E+10  -4.995371115503492E-1    4.966943367109686E-2    1.372968994509168E-5   -2.020005117679994E-4    7.533735718202604E-5   -1.976545593479197E-4   -3.763782261805552E-1    3.251358136796560E-1
 1.000582115610000E+10  -4.995729445630188E-1    4.976717739950866E-2    1.670666583392175E-5   -1.650896176935750E-4    3.530681540228541E-5   -1.519161997793398E-4   -3.760786529512821E-1    3.255146936869219E-1
 1.000582565657500E+10  -4.993938435668772E-1    5.007181237624578E-2    4.513595554300293E-5   -1.686862925471660E-4    5.548962006122687E-5   -1.507505664555305E-4   -3.759269981472271E-1    3.257735134392162E-1
 1.000583015705000E+10  -4.994607204981930E-1    5.035008176646404E-2    3.323286748320403E-5   -1.520327424186019E-4    5.942343515288264E-5   -1.389304261097253E-4   -3.755418071328933E-1    3.261223808776889E-1
 1.000583465752500E+10  -4.993163011012162E-1    5.072624103442634E-2    6.113060649258420E-5   -1.451419743150927E-4    5.319578416826918E-5   -1.368653772876020E-4   -3.755511998813369E-1    3.262820433705706E-1
 1.000583915800000E+10  -4.993837602170675E-1    5.090881559819150E-2    3.975034302670055E-5   -1.479983113239371E-4    5.947818621298672E-5   -1.225071912405038E-4   -3.752559495304066E-1    3.266809886204717E-1
 1.000584365847500E+10  -4.993575085150017E-1    5.123746075969995E-2    5.682922348158106E-5   -1.317207157663360E-4    6.599796778440285E-5   -1.072044964582155E-4   -3.750506326329591E-1    3.267908486331055E-1
 1.000584815895000E+10  -4.991253570689340E-1    5.159326018762399E-2    5.289742689608493E-5   -1.283180020908170E-4    5.299476437125861E-5   -1.303424868230556E-4   -3.747820857226281E-1    3.272177683972373E-1
 1.000585265942500E+10  -4.992345434330608E-1    5.190101333813942E-2    4.305122322129899E-5   -1.311274264087270E-4    4.856089753715509E-5   -1.069699883357505E-4   -3.743992097572517E-1    3.275231273239925E-1
 1.000585715990000E+10  -4.992184253686194E-1    5.214550037545530E-2    5.870110729323681E-5   -1.181941146466929E-4    5.643764720216350E-5   -1.157941589399692E-4   -3.742468608228638E-1    3.277632014040570E-1
 1.000586166037500E+10  -4.992371598299259E-1    5.249802687772395E-2    6.971283998115170E-5   -1.045782523312618E-4    4.922789975332596E-5   -1.048480340363465E-4   -3.740623293516366E-1    3.280612447675497E-1
 1.000586616085000E+10  -4.990457895189315E-1    5.259496974239992E-2    8.648737373274411E-5   -7.802700698282278E-5    7.832192056077745E-5   -8.829664144686246E-5   -3.737976132179064E-1    3.283576797475662E-1
 1.000587066132500E+10  -4.991782964992635E-1    5.295322943882948E-2    1.088926772207103E-4   -8.216093798459817E-5    9.317786649286534E-5   -8.457560439619037E-5   -3.735887998022519E-1    3.286373519614286E-1
 1.000587516180000E+10  -4.992596503260364E-1    5.339808587485674E-2    7.697896294368390E-5   -9.485231006590667E-5    6.834760451989157E-5   -6.548612106826009E-5   -3.733637674800172E-1    3.289459222568699E-1
 1.000587966227500E+10  -4.990258822913626E-1    5.349938545693254E-2    9.640944251070472E-5   -9.663012147744865E-5    9.538803827396514E-5   -8.440614791534756E-5   -3.729897176018766E-1    3.291363187281962E-1
 1.000588416275000E+10  -4.992132148916564E-1    5.387319535758075E-2    1.036857699414315E-4   -9.092683658006063E-5    1.068333481280642E-4   -8.000027965316550E-5   -3.728683497638266E-1    3.293102659272313E-1
 1.000588866322500E+10  -4.989487807943634E-1    5.421044028651362E-2    1.033303221247980E-4   -6.565468593538205E-5    1.132113461212862E-4   -4.709482696560439E-5   -3.725926207693658E-1    3.298430640015039E-1
 1.000589316370000E+10  -4.990754770239352E-1    5.455504725154912E-2    9.711714150734021E-5   -6.842756183461555E-5    1.103422799258051E-4   -5.116108107676536E-5   -3.724328965590889E-1    3.300180635493258E-1
 1.000589766417500E+10  -4.990496605072905E-1    5.479240895986574E-2    1.049609770523770E-4   -7.097318795626453E-5    1.250988835751811E-4   -6.523302867470751E-5   -3.720456798489222E-1    3.302742570939122E-1
 1.000590216465000E+10  -4.989623790134115E-1    5.509438954186300E-2    1.436871142136263E-4   -3.305746518242254E-5    1.350545411242358E-4   -4.222846488668483E-5   -3.717079223248628E-1    3.304875606650963E-1
 1.000590666512500E+10  -4.988877365863150E-1    5.540854082701482E-2    1.466010359577326E-4   -2.113755153272761E-5    1.230406223526221E-4   -2.543656059335022E-5   -3.714857330794583E-1    3.310531445628244E-1
 1.000591116560000E+10  -4.989968642514117E-1    5.574284188550724E-2    1.502289800690126E-4   -3.249695577843896E-5    1.292757879911422E-4    2.977533543551995E-5   -3.714695836579877E-1    3.313038355622181E-1
 1.000591566607500E+10  -4.989560811075242E-1    5.603348950411885E-2    1.195630551457743E-4   -2.076716933523578E-5    1.583289739253996E-4   -1.826017161246987E-5   -3.710640560503496E-1    3.315580608527192E-1
 1.000592016655000E+10  -4.989415636589088E-1    5.622044575242734E-2    1.539917048357085E-4   -9.339915560428983E-6    1.500156496298237E-4    4.451871036904523E-6   -3.707012108144623E-1    3.317618630844021E-1
 1.000592466702500E+10  -4.988735192635161E-1    5.652205715734368E-2    1.614376111350511E-4    5.559192260208571E-7    1.391545823103650E-4   -1.125169731837726E-5   -3.704996348232219E-1    3.320840549077462E-1
 1.000592916750000E+10  -4.988287785993171E-1    5.689180560663756E-2    1.746080291349742E-4    1.595977896379452E-5    1.246190479516295E-4    2.310798679255894E-6   -3.702960682310279E-1    3.324459653297674E-1
 1.000593366797500E+10  -4.987116312744037E-1    5.702781844416171E-2    1.479381756676439E-4    1.326115996832823E-5    1.739573928508354E-4    3.393407205820193E-5   -3.698542361780451E-1    3.325634932663842E-1
 1.000593816845000E+10  -4.987757843167820E-1    5.738497188711472E-2    1.725107868650460E-4    4.958961491880755E-5    1.445309623455968E-4    6.210454070092720E-5   -3.697390264053722E-1    3.327692483330584E-1
 1.000594266892500E+10  -4.986881622839346E-1    5.768064934304511E-2    1.753155446478620E-4    1.735703052920766E-5    1.764855124216830E-4    3.100861717737883E-5   -3.694015149807277E-1    3.333699442850002E-1
 1.000594716940000E+10  -4.987516084913692E-1    5.794774930695523E-2    2.065691921195176E-4    5.743688980643936E-5    1.883555138566536E-4    4.720118118805106E-5   -3.692673418408249E-1    3.334114816744764E-1
 1.000595166987500E+10  -4.987297261210947E-1    5.831874306767126E-2    1.978657103353006E-4    6.047451479183004E-5    2.134321581909508E-4    2.536956496269427E-5   -3.688726924126938E-1    3.337989207803245E-1
 1.000595617035000E+10  -4.987387406992585E-1    5.861130591237934E-2    1.855151635446548E-4    7.445116004536538E-5    1.772683913053271E-4    6.447925721226709E-5   -3.685465037630452E-1    3.340944319312783E-1
 1.000596067082500E+10  -4.986369242512413E-1    5.872078254303935E-2    2.223016362935052E-4    5.647255178943918E-5    2.086501658246592E-4    1.015355993097544E-4   -3.683960488716156E-1    3.343857915616987E-1
 1.000596517130000E+10  -4.987029620021889E-1    5.926557625463937E-2    2.118528751257514E-4    9.724498423072771E-5    2.240029889072434E-4    1.023715262522094E-4   -3.681483785588349E-1    3.347213090992440E-1
 1.000596967177500E+10  -4.985597083162040E-1    5.956664983205109E-2    2.423875534832794E-4    7.422937451447427E-5    2.157190156872925E-4    1.023018243199085E-4   -3.677328048188271E-1    3.349712476761157E-1
 1.000597417225000E+10  -4.985674423471648E-1    5.983867529113586E-2    2.550983296171854E-4    1.299693050201675E-4    2.235474634424414E-4    1.223854887225231E-4   -3.675352296970760E-1    3.352093459655633E-1
 1.000597867272500E+10  -4.986084348712893E-1    6.015730707998452E-2    2.143790975847760E-4    9.420005329693834E-5    2.279815889788198E-4    1.348518278508250E-4   -3.672174980563710E-1    3.354948338440447E-1
 1.000598317320000E+10  -4.985446631990979E-1    6.047594370270121E-2    2.561273363119603E-4    1.465205121836879E-4    2.150511678356313E-4    1.100542421219527E-4   -3.669825995013000E-1    3.358989928698419E-1
 1.000598767367500E+10  -4.984655545504111E-1    6.061623466587108E-2    2.575381290619529E-4    1.019706568434441E-4    2.224516790419531E-4    1.341365983667155E-4   -3.668738697487432E-1    3.361227263596500E-1
 1.000599217415000E+10  -4.984919130731652E-1    6.070080634307169E-2    2.976696683709238E-4    1.524161019213401E-4    2.190663938886220E-4    1.787092034882616E-4   -3.664953725202535E-1    3.364610650892965E-1
 1.000599667462500E+10  -4.984656793076039E-1    6.118527003524699E-2    2.673751325979416E-4    1.633404461950286E-4    2.546717155833281E-4    1.740253455527385E-4   -3.661418982783423E-1    3.366156559943908E-1
 1.000600117510000E+10  -4.986129551556773E-1    6.151845719429173E-2    2.750529420170958E-4    1.359626686391175E-4    2.647950929417578E-4    1.402286583962277E-4   -3.659176563006664E-1    3.370985052036048E-1
 1.000600567557500E+10  -4.983028836332099E-1    6.187381779361237E-2    2.703054243195510E-4    1.713086658944672E-4    2.810870497343301E-4    1.787623369037016E-4   -3.656144932476824E-1    3.373139101318720E-1
 1.000601017605000E+10  -4.982668149474178E-1    6.209014471627163E-2    2.824313885758629E-4    1.647737663872635E-4    2.836164723022937E-4    1.983938885120744E-4   -3.652459000977506E-1    3.376743244531928E-1
 1.000601467652500E+10  -4.983743059671127E-1    6.260878104875287E-2    3.068127003470450E-4    1.983563520858103E-4    2.849166390929457E-4    1.970702979582304E-4   -3.649703883804106E-1    3.380352345648319E-1
 1.000601917700000E+10  -4.983219143663560E-1    6.263994112241140E-2    3.220162274846603E-4    2.042979919382772E-4    3.275484813305520E-4    2.167324061843932E-4   -3.646472968886020E-1    3.382581709350092E-1
 1.000602367747500E+10  -4.983021932584997E-1    6.297457189808589E-2    3.435457115274650E-4    2.414985293778776E-4    3.071595077192009E-4    2.405711975632518E-4   -3.643781842045922E-1    3.387221004908531E-1
 1.000602817795000E+10  -4.983005011882103E-1    6.309718645112444E-2    3.288204872361059E-4    2.262581611830461E-4    3.056214459055298E-4    2.383357288214681E-4   -3.642188825846940E-1    3.390031026846954E-1
 1.000603267842500E+10  -4.981485524013396E-1    6.356166200449739E-2    3.451158446871773E-4    2.357701079396175E-4    3.186658023996959E-4    2.554279313868264E-4   -3.637509723493337E-1    3.391293985535924E-1
 1.000603717890000E+10  -4.982067821124347E-1    6.382044191108083E-2    3.934458556167128E-4    2.667620812332696E-4    3.365076767307364E-4    2.506473654977268E-4   -3.634488346829481E-1    3.394830680803437E-1
 1.000604167937500E+10  -4.982466308199567E-1    6.411875547397138E-2    3.638592376529510E-4    2.718841885841910E-4    3.687830869266888E-4    2.769838245572286E-4   -3.632072869059933E-1    3.398859882946969E-1
 1.000604617985000E+10  -4.982175278250889E-1    6.442175177209036E-2    3.456034293070359E-4    2.665259494513291E-4    3.628812908375497E-4    2.938613151084838E-4   -3.627515235960968E-1    3.401057689839579E-1
 1.000605068032500E+10  -4.980354894332435E-1    6.466250346201537E-2    3.838859959774818E-4    2.803467789668065E-4    3.528712849309047E-4    2.986260309320045E-4   -3.624632876450986E-1    3.405818713297682E-1
 1.000605518080000E+10  -4.979679479727831E-1    6.501381786379661E-2    4.297537698730069E-4    2.859156576270296E-4    3.901317032693441E-4    3.134323748532902E-4   -3.621754355319550E-1    3.407706080323705E-1
 1.000605968127500E+10  -4.981825695177244E-1    6.535121997923637E-2    4.189206842534683E-4    3.158207871069127E-4    3.736406073666495E-4    3.260970506409369E-4   -3.618811686245813E-1    3.411502514470618E-1
 1.000606418175000E+10  -4.980151491738079E-1    6.554138346496820E-2    4.340070676002756E-4    3.326184318366646E-4    4.002632539176971E-4    3.567882098654400E-4   -3.615365325792700E-1    3.414314071291653E-1
