#  HZ   S   RI   R     50.00 
! Rohde & Schwarz Vector Network Analyzer 
! Rohde-Schwarz,ZNB20-2Port,1311601062101988,3.16
! Created: UTC 3/20/2024, 12:01:02 PM
! freq[Hz]                re:S11                  im:S11                  re:S21                  im:S21                  re:S12                  im:S12                  re:S22                  im:S22
 1.000567697000000E+10  -5.000460109204046E-1    4.031664476853041E-2   -9.052719282571557E-5   -3.602508353236157E-4   -7.505844921324172E-5   -3.562755225067616E-4   -3.831538315670129E-1    3.167388750347321E-1
 1.000568141025000E+10  -5.000725401048881E-1    4.057298499751266E-2   -9.894749008313937E-5   -3.777927013829353E-4   -5.047787885445626E-5   -3.523383628655173E-4   -3.830892797984720E-1    3.170640723661304E-1
 1.000568585050000E+10  -4.998787758342315E-1    4.083195870099026E-2   -6.481622111576090E-5   -3.651484899627523E-4   -2.536400033842711E-5   -3.484301449871185E-4   -3.827939199927242E-1    3.170053407149764E-1
 1.000569029075000E+10  -5.000321536586381E-1    4.108696603957024E-2   -4.613280271436414E-5   -3.334645168465934E-4   -8.496697588139842E-5   -3.208983552740641E-4   -3.825741337636458E-1    3.174820732748263E-1
 1.000569473100000E+10  -5.000143977790420E-1    4.146857020226332E-2   -7.627449629303532E-5   -3.331296565050578E-4   -7.018992925644191E-5   -3.520774839454676E-4   -3.823867866451247E-1    3.177255734279116E-1
 1.000569917125000E+10  -5.000781182094406E-1    4.173868915645493E-2   -7.933822375415097E-5   -3.329163184327979E-4   -5.021930857980161E-5   -3.378959483161949E-4   -3.821415512040462E-1    3.179953437386181E-1
 1.000570361150000E+10  -4.998784168075590E-1    4.200234151191917E-2   -6.510137466815665E-5   -3.028947356515053E-4   -6.401105886612837E-5   -2.895385217918509E-4   -3.819923370197897E-1    3.182661646340476E-1
 1.000570805175000E+10  -4.999720114540978E-1    4.239010137321294E-2   -5.791113175655578E-5   -3.371919557850470E-4   -5.196140432824087E-5   -3.070322492615575E-4   -3.816232779572554E-1    3.184813018725459E-1
 1.000571249200000E+10  -4.999460761305188E-1    4.246939735904482E-2   -5.791258189658742E-5   -3.437575161622372E-4   -4.643314883844973E-5   -3.266651347785211E-4   -3.816031904005364E-1    3.188374580193468E-1
 1.000571693225000E+10  -4.997776815824139E-1    4.290398961921764E-2   -4.858816587577631E-5   -3.135368778311957E-4   -3.407915457697418E-5   -3.065415525981832E-4   -3.814288629519578E-1    3.189317981059487E-1
 1.000572137250000E+10  -4.999302196995157E-1    4.332685553811672E-2   -4.149372916082344E-5   -3.089295539271283E-4   -4.177001089950346E-5   -3.103809977901908E-4   -3.812181525471821E-1    3.192971099067310E-1
 1.000572581275000E+10  -4.998238230498671E-1    4.345262351696583E-2   -3.659919708185911E-5   -3.041449420587059E-4   -4.807454550685876E-5   -2.936516159685191E-4   -3.809768089917890E-1    3.194931448108034E-1
 1.000573025300000E+10  -4.997906126382561E-1    4.371450020642189E-2   -5.539455495940350E-5   -2.860315760396097E-4   -5.266694297847774E-5   -3.215558096212479E-4   -3.808440645240740E-1    3.199498598602504E-1
 1.000573469325000E+10  -4.999337359342829E-1    4.407175611841922E-2   -5.004524554195327E-5   -2.807337971315931E-4   -4.076635369016307E-5   -3.004334935041960E-4   -3.806331356273188E-1    3.201677914265618E-1
 1.000573913350000E+10  -4.997803640491450E-1    4.444553442375050E-2   -3.640925727576314E-5   -2.910062731839479E-4    2.560295327216508E-6   -2.971728465731954E-4   -3.803357877650399E-1    3.204715163435822E-1
 1.000574357375000E+10  -4.998918043367350E-1    4.470455086750367E-2   -7.391723479605000E-5   -2.645981191956974E-4    5.616854181163345E-6   -2.724188704362344E-4   -3.801969240825051E-1    3.206788728539895E-1
 1.000574801400000E+10  -4.998609159984538E-1    4.505417707861087E-2   -5.347005342983659E-5   -2.772620744028211E-4   -2.462692194027206E-5   -2.771344795601714E-4   -3.799035314720097E-1    3.208056910102740E-1
 1.000575245425000E+10  -4.997430031995027E-1    4.520562036905282E-2   -5.529404630925147E-6   -2.801926745690766E-4   -2.172053063903388E-5   -2.417209154878281E-4   -3.798162175437934E-1    3.211590190154537E-1
 1.000575689450000E+10  -4.998871634722146E-1    4.553442811471786E-2   -3.207557846499960E-5   -2.766323830396015E-4    6.938075455288790E-6   -2.541486392762753E-4   -3.795800436869152E-1    3.214611391116619E-1
 1.000576133475000E+10  -4.996598865097044E-1    4.568989290932768E-2   -5.205080037973706E-6   -2.463287144117631E-4   -4.957223954776020E-6   -2.778366093948736E-4   -3.793531871620289E-1    3.217634557466637E-1
 1.000576577500000E+10  -4.997639946417054E-1    4.614519777660776E-2   -2.667325289951334E-5   -2.397479975522444E-4   -8.467014502999520E-6   -2.376126538918212E-4   -3.790090010941098E-1    3.219193426302145E-1
 1.000577021525000E+10  -4.996611359160746E-1    4.649836594547760E-2   -1.267976505879300E-5   -2.200058718926758E-4   -1.715528596130693E-5   -2.404433706112923E-4   -3.788633728911397E-1    3.221874671692415E-1
 1.000577465550000E+10  -4.997226935381905E-1    4.672133320599117E-2   -3.988383878387029E-5   -2.506913907809850E-4   -1.819848040195820E-5   -2.430199199030778E-4   -3.784891615192931E-1    3.225939065051250E-1
 1.000577909575000E+10  -4.996068617856815E-1    4.706208619864878E-2   -4.997104261715831E-5   -2.130417489165237E-4   -1.409625328173225E-5   -2.395159640377111E-4   -3.783460552662083E-1    3.229038220699378E-1
 1.000578353600000E+10  -4.997263369829817E-1    4.722066571558420E-2   -9.328189325587374E-6   -2.306186987757659E-4    2.340850718308919E-5   -2.209160740710721E-4   -3.782624872185926E-1    3.230813315893793E-1
 1.000578797625000E+10  -4.996744666587987E-1    4.754019201408326E-2   -1.429606565114437E-5   -2.292207246402003E-4   -2.358898032893007E-5   -2.112240702235629E-4   -3.779333693685971E-1    3.234423720731980E-1
 1.000579241650000E+10  -4.995238602107698E-1    4.785901851218900E-2   -9.175457863359661E-6   -2.110879146794402E-4    3.131024579512141E-5   -2.065694528460698E-4   -3.777025695578969E-1    3.237191927261583E-1
 1.000579685675000E+10  -4.995277881067590E-1    4.817091922455873E-2    4.638340701134677E-6   -2.015705177133125E-4    1.190568799738518E-5   -1.853259039312875E-4   -3.775236780150976E-1    3.239395798632418E-1
 1.000580129700000E+10  -4.997717688205380E-1    4.841597641176575E-2   -1.929564473546743E-5   -1.871221397911354E-4   -1.747091793600768E-5   -2.081020997067254E-4   -3.772848232036093E-1    3.241175434703967E-1
 1.000580573725000E+10  -4.995077129801146E-1    4.888129480141738E-2    1.486602682264544E-5   -2.038484795595499E-4    1.330117337653554E-5   -1.929158042620381E-4   -3.770338829099271E-1    3.243981229313466E-1
 1.000581017750000E+10  -4.994416334831193E-1    4.904587608700111E-2    2.864703610710546E-5   -1.961358843451089E-4    3.581234964846983E-6   -1.755309346035526E-4   -3.769353948466258E-1    3.247667866433529E-1
 1.000581461775000E+10  -4.995905923271031E-1    4.924972895881949E-2    2.913367370124938E-5   -2.008600721562966E-4    3.293999007626809E-6   -1.722377945065905E-4   -3.765951493613401E-1    3.251494529198273E-1
 1.000581905800000E+10  -4.993939216110300E-1    4.961397833454033E-2    3.005032786054066E-5   -1.851075161588190E-4    4.344269310660838E-5   -1.469519093740263E-4   -3.764271597323894E-1    3.253584729562911E-1
 1.000582349825000E+10  -4.996212687053310E-1    4.988172679281688E-2    2.460663610118116E-5   -1.584901851195916E-4   -1.841183383787424E-5   -1.486456531595562E-4   -3.762345041869645E-1    3.257654062395812E-1
 1.000582793850000E+10  -4.995106551976632E-1    5.021585893752349E-2    4.714563193884665E-5   -2.012488917065890E-4    6.147827165839582E-5   -1.428136771295075E-4   -3.758931706667622E-1    3.258872164615735E-1
 1.000583237875000E+10  -4.992691459680481E-1    5.051459640905766E-2    6.263672231977996E-5   -1.397344976179046E-4    4.097771504919770E-5   -1.531985033734560E-4   -3.757060177710289E-1    3.262522445792584E-1
 1.000583681900000E+10  -4.993992605781596E-1    5.091423577620955E-2    4.008260442054757E-5   -1.599049946210642E-4    2.930930872510772E-5   -1.601614692915912E-4   -3.755425128022043E-1    3.263553910696381E-1
 1.000584125925000E+10  -4.994068581600237E-1    5.115407151003331E-2    4.912013758359549E-5   -1.353889324884760E-4    4.457681419514211E-5   -1.494177815814274E-4   -3.753074731015931E-1    3.266709763297239E-1
 1.000584569950000E+10  -4.994792797670652E-1    5.145658806879668E-2    6.750804069377099E-5   -1.465007050756697E-4    7.813088416161130E-5   -1.752169869772576E-4   -3.749121051992430E-1    3.270394064300752E-1
 1.000585013975000E+10  -4.994707044492123E-1    5.166187286745033E-2    1.907047558048645E-5   -1.306822920229229E-4    5.715439187671265E-5   -1.428656535785472E-4   -3.747226208128828E-1    3.272707368160245E-1
 1.000585458000000E+10  -4.993174922087533E-1    5.180799319379417E-2    3.231614464757181E-5   -1.141501826658488E-4    6.072819509639451E-5   -1.094435352048909E-4   -3.744967314626469E-1    3.276899012093413E-1
 1.000585902025000E+10  -4.993351502404647E-1    5.225793769479452E-2    5.580272838961901E-5   -1.088276078950663E-4    3.731525095881107E-5   -1.237820018562791E-4   -3.742287680815869E-1    3.278052016536601E-1
 1.000586346050000E+10  -4.992779519871522E-1    5.248995370272456E-2    5.272476816580576E-5   -1.456459541226790E-4    4.835546231367539E-5   -1.214545093023430E-4   -3.741122547209915E-1    3.282809754248665E-1
 1.000586790075000E+10  -4.992242223986403E-1    5.284306229631818E-2    6.620183961058795E-5   -9.912975341586650E-5    9.698764894938476E-5   -9.713171384427853E-5   -3.737898019624564E-1    3.282954359086189E-1
 1.000587234100000E+10  -4.992174420315746E-1    5.302598715921169E-2    8.038174848575246E-5   -9.449883998378364E-5    8.996134792190857E-5   -9.903028785935300E-5   -3.736443559168864E-1    3.286589119677080E-1
 1.000587678125000E+10  -4.991206265512324E-1    5.347223661998322E-2    9.775657265624795E-5   -8.336992135330258E-5    8.749112684880337E-5   -1.190076796032718E-4   -3.732386664553757E-1    3.288856159409199E-1
 1.000588122150000E+10  -4.991974059116938E-1    5.365398014953821E-2    9.067402154979814E-5   -6.413438914773096E-5    7.417021700462589E-5   -8.391393736184649E-5   -3.731727188591294E-1    3.291887383702167E-1
 1.000588566175000E+10  -4.991651202178844E-1    5.393700612174437E-2    8.389679884640370E-5   -8.748255012680015E-5    1.089980382640318E-4   -6.415823482977186E-5   -3.728767610783757E-1    3.295276769276094E-1
 1.000589010200000E+10  -4.992152617704830E-1    5.414705288216820E-2    7.661417114273481E-5   -5.506734085822480E-5    1.123887908434148E-4   -3.821775359884179E-5   -3.726303191928703E-1    3.298427583413578E-1
 1.000589454225000E+10  -4.990798588303592E-1    5.466156115652054E-2    1.308968058045922E-4   -5.014128273020577E-5    9.508621611226852E-5   -5.992813510918202E-5   -3.722501792083249E-1    3.301518210039788E-1
 1.000589898250000E+10  -4.991843793261155E-1    5.484853610579162E-2    9.480429425385393E-5   -6.459002882868829E-5    8.198179960191296E-5   -4.384115316739767E-5   -3.720420654712547E-1    3.303389431139062E-1
 1.000590342275000E+10  -4.989886974761222E-1    5.512467434349420E-2    9.366534820894531E-5   -5.845848818523981E-5    8.841192457512912E-5   -3.153433381488060E-5   -3.718158513450288E-1    3.306256725422259E-1
 1.000590786300000E+10  -4.990443850755172E-1    5.535665647474217E-2    1.152493004914855E-4   -1.932458763132967E-5    1.155382677510176E-4   -5.707689096813230E-5   -3.717093296061491E-1    3.309181580363582E-1
 1.000591230325000E+10  -4.989034374166079E-1    5.560079769300551E-2    1.162658790980250E-4    8.910087166255902E-6    1.289278975254061E-4   -4.430014310999823E-5   -3.713695616267839E-1    3.313902213759415E-1
 1.000591674350000E+10  -4.989174658086258E-1    5.594615774281324E-2    1.524396741056424E-4   -2.270656327571542E-5    1.439335593603273E-4    5.915918858746035E-6   -3.710692505161268E-1    3.314275372926448E-1
 1.000592118375000E+10  -4.989656879132233E-1    5.626798124973352E-2    1.549950022044763E-4   -2.949447581484672E-5    1.441238501348217E-4   -1.368365419062762E-5   -3.707928439638025E-1    3.317837473534967E-1
 1.000592562400000E+10  -4.988767785394143E-1    5.653537829251279E-2    1.136411180806554E-4   -1.617828074964327E-5    1.417160880453295E-4   -4.809267594117215E-5   -3.706036635271030E-1    3.320919799982124E-1
 1.000593006425000E+10  -4.989119485498469E-1    5.697748742023397E-2    1.629679983251734E-4    1.430555979629343E-5    1.367464960002814E-4   -6.885426250291020E-6   -3.703092217549239E-1    3.323953490237349E-1
 1.000593450450000E+10  -4.988604312914196E-1    5.718989243800651E-2    1.519446428955514E-4    6.991916596000990E-6    1.716241391619725E-4   -1.997237057708906E-6   -3.701014647707298E-1    3.326934228478295E-1
 1.000593894475000E+10  -4.989723976811855E-1    5.747132740925075E-2    1.659010831234080E-4    4.275210573481400E-6    1.684503351985475E-4    6.234004701582823E-5   -3.697763002554717E-1    3.328975589216466E-1
 1.000594338500000E+10  -4.988928195009888E-1    5.765110015949226E-2    1.451178142482384E-4    5.633941604410304E-5    1.424489385698415E-4    2.138133724448415E-5   -3.695198915249638E-1    3.332292220651818E-1
 1.000594782525000E+10  -4.987774198029660E-1    5.800767397136217E-2    1.904391272573647E-4    6.205965067876118E-5    1.884329013015324E-4    5.572477622676973E-5   -3.692597868007293E-1    3.334565358634792E-1
 1.000595226550000E+10  -4.986873653453851E-1    5.828847278255364E-2    1.879207843977535E-4    3.244252742908677E-5    1.734428384144346E-4    8.038942792732959E-5   -3.690383208128919E-1    3.337356127260472E-1
 1.000595670575000E+10  -4.986558134900950E-1    5.862527430209442E-2    1.574622595479314E-4    6.972208896690607E-5    1.518080634250123E-4    6.251998190706743E-5   -3.687261930543942E-1    3.341370776247031E-1
 1.000596114600000E+10  -4.987439407218631E-1    5.877268327000180E-2    1.879040910115321E-4    5.894309105132729E-5    1.962854171163875E-4    1.051616067285961E-4   -3.686040745699694E-1    3.344342548895559E-1
 1.000596558625000E+10  -4.987150394148623E-1    5.920480192441185E-2    1.969249358663082E-4    7.002940752825157E-5    2.157327618234639E-4    9.368827639498199E-5   -3.683751165162371E-1    3.346663240629353E-1
 1.000597002650000E+10  -4.986803054081604E-1    5.945609262200241E-2    1.882258260062208E-4    7.725079738704902E-5    2.276731882775108E-4    6.318058611267211E-5   -3.679837549628879E-1    3.349414275487579E-1
 1.000597446675000E+10  -4.985626654753099E-1    5.977414969303257E-2    2.311952224695216E-4    7.542254940312188E-5    2.484380466873685E-4    1.029767522588796E-4   -3.677835470081706E-1    3.352296275519715E-1
 1.000597890700000E+10  -4.986358797584080E-1    5.999028748567584E-2    2.412758399339511E-4    9.295606756151172E-5    2.388101141383460E-4    1.311540988209998E-4   -3.673649075468691E-1    3.355657062957223E-1
 1.000598334725000E+10  -4.985299827855453E-1    6.029311354367671E-2    2.077189256319454E-4    1.121221374329210E-4    2.000223824924108E-4    9.664195189701350E-5   -3.672128593109644E-1    3.359321130600129E-1
 1.000598778750000E+10  -4.985058057648485E-1    6.063712641124530E-2    2.337306765160214E-4    1.302109181431360E-4    2.374328513793915E-4    1.390270739998970E-4   -3.668614945577842E-1    3.361497919943197E-1
 1.000599222775000E+10  -4.984993102863557E-1    6.082261330382065E-2    2.484353048070919E-4    1.223795728747610E-4    2.501420497267939E-4    1.343689160065812E-4   -3.664922703604085E-1    3.365051743994817E-1
 1.000599666800000E+10  -4.985743738521553E-1    6.124734109998852E-2    2.528326538579165E-4    1.577722635436793E-4    2.374955550941679E-4    1.455646645846241E-4   -3.663649495152255E-1    3.367016852426690E-1
 1.000600110825000E+10  -4.985067102643067E-1    6.154117422850284E-2    2.544450705850532E-4    1.638583380646544E-4    2.443431393505223E-4    1.731873114931990E-4   -3.660672377358284E-1    3.370118304745859E-1
 1.000600554850000E+10  -4.984448186094952E-1    6.177783156822868E-2    2.859738027418997E-4    1.576787843532579E-4    2.687270416766237E-4    1.554233037200402E-4   -3.658102547041767E-1    3.373992030273006E-1
 1.000600998875000E+10  -4.984708120251752E-1    6.220204733616540E-2    2.829254771038212E-4    1.688041951053861E-4    2.475819211918826E-4    2.125627165806368E-4   -3.654631857675817E-1    3.376719824177976E-1
 1.000601442900000E+10  -4.984081794222538E-1    6.216258392197684E-2    2.947724813970414E-4    1.738592633285970E-4    2.805409576551998E-4    2.291479993196051E-4   -3.651480248741745E-1    3.379273227558156E-1
 1.000601886925000E+10  -4.982601742126673E-1    6.253834814626780E-2    2.971461184063668E-4    1.798718913935659E-4    2.704971393863794E-4    1.972598457894872E-4   -3.648900179351377E-1    3.382828181110492E-1
 1.000602330950000E+10  -4.983674246817104E-1    6.291385559380756E-2    3.088754955633171E-4    1.794165881047853E-4    3.211230953952887E-4    2.209121410168279E-4   -3.644386538799307E-1    3.384863680901716E-1
 1.000602774975000E+10  -4.983659614023582E-1    6.318217677883681E-2    3.100610967930719E-4    2.146400170841212E-4    2.961051466405532E-4    2.312175682445140E-4   -3.644191974934546E-1    3.387696415594649E-1
 1.000603219000000E+10  -4.982309223639885E-1    6.352303985249561E-2    3.388361609421235E-4    2.196401390980644E-4    3.582056718551440E-4    2.301906240819272E-4   -3.639265018236680E-1    3.390905278254184E-1
 1.000603663025000E+10  -4.983622075795727E-1    6.370159529558207E-2    3.667232003296307E-4    2.241144205876617E-4    2.972655902542348E-4    2.733769689960318E-4   -3.636496836468502E-1    3.394447546147993E-1
 1.000604107050000E+10  -4.984101283403995E-1    6.402833834982545E-2    3.510056608204940E-4    2.326888662870008E-4    3.300662763663273E-4    2.488447671730286E-4   -3.634269392691261E-1    3.397243567322246E-1
 1.000604551075000E+10  -4.982577162096417E-1    6.420193991909610E-2    3.608240648923922E-4    2.562444586055496E-4    3.225560344289114E-4    2.636063257525919E-4   -3.630089370378472E-1    3.401071774507480E-1
 1.000604995100000E+10  -4.982430798588502E-1    6.465185207660717E-2    3.513199596969250E-4    2.654364182100973E-4    3.285667945236432E-4    3.014802543172618E-4   -3.628273275805995E-1    3.403216874289368E-1
 1.000605439125000E+10  -4.982866510433007E-1    6.493997632890249E-2    3.664186221498596E-4    2.716211972820121E-4    3.495574936645386E-4    2.879354892410047E-4   -3.624496000298079E-1    3.406558603054357E-1
 1.000605883150000E+10  -4.982030667159755E-1    6.516582758130487E-2    3.988857594109109E-4    3.180829375497600E-4    3.954994465079475E-4    3.121408163164822E-4   -3.621319145393613E-1    3.409292315369808E-1
 1.000606327175000E+10  -4.980876261961978E-1    6.547759826509510E-2    4.334878550654575E-4    3.142583009469506E-4    3.970034551434733E-4    3.158301772628117E-4   -3.619240978055402E-1    3.413705282394607E-1
 1.000606771200000E+10  -4.979427454646932E-1    6.583220099528250E-2    4.158984827482603E-4    3.069334682988965E-4    3.816532975521046E-4    3.206391382324521E-4   -3.615831066018122E-1    3.415986563882028E-1
 1.000607215225000E+10  -4.980476156069102E-1    6.601108919470947E-2    4.320806162960559E-4    3.445231681183433E-4    3.954186318994584E-4    3.576708378379532E-4   -3.611626437317988E-1    3.419887582581626E-1
 1.000607659250000E+10  -4.980402239196952E-1    6.634103588285309E-2    4.279957727086740E-4    3.286833785485282E-4    4.239384086718585E-4    3.750542284154293E-4   -3.608517163912913E-1    3.421424396235750E-1
