#  HZ   S   RI   R     50.00 
! Rohde & Schwarz Vector Network Analyzer 
! Rohde-Schwarz,ZNB20-2Port,1311601062101988,3.16
! Created: UTC 3/20/2024, 12:01:19 PM
! freq[Hz]                re:S11                  im:S11                  re:S21                  im:S21                  re:S12                  im:S12                  re:S22                  im:S22
 1.000571870200000E+10  -5.000984257994170E-1    4.285714429597792E-2   -7.138019675380656E-5   -3.073706809318973E-4   -5.319685233228166E-5   -3.444250260537270E-4   -3.813468240882390E-1    3.191064130721266E-1
 1.000572296907500E+10  -5.001187166885579E-1    4.318528087918275E-2   -7.326277847881887E-5   -3.133394249272862E-4   -6.731239857253826E-5   -3.039471002264407E-4   -3.811623395775289E-1    3.193893905646475E-1
 1.000572723615000E+10  -4.999859348455312E-1    4.337406922320570E-2   -5.307278686810177E-5   -3.202484666730199E-4   -5.191686405070545E-5   -2.781130669782264E-4   -3.810342961112157E-1    3.196459245242971E-1
 1.000573150322500E+10  -5.001066638108664E-1    4.370303435640057E-2   -5.227203637414635E-5   -2.810523541324687E-4   -2.013111542691713E-5   -3.044160269560088E-4   -3.807756112901083E-1    3.198784222628661E-1
 1.000573577030000E+10  -5.001286508875783E-1    4.393458364630151E-2   -7.675052401253685E-5   -2.919975026696990E-4   -3.794612264674430E-5   -2.691271394913448E-4   -3.806156659299800E-1    3.202050772085571E-1
 1.000574003737500E+10  -5.000977852002355E-1    4.422546836036702E-2   -6.230048774008104E-5   -2.853629014405306E-4   -3.873989426378897E-5   -2.753293388307856E-4   -3.802846583682093E-1    3.204602613982231E-1
 1.000574430445000E+10  -5.000819132011257E-1    4.454578493213272E-2   -4.893243424467374E-5   -2.956601269032057E-4   -3.679379716547554E-5   -3.039515192477830E-4   -3.801413252769051E-1    3.206152036816233E-1
 1.000574857152500E+10  -5.000280967161398E-1    4.472544718398625E-2   -6.527039481818294E-5   -2.817636752349952E-4   -5.023908729554088E-7   -3.145622793558013E-4   -3.798876848816556E-1    3.209475466133813E-1
 1.000575283860000E+10  -5.000188610076158E-1    4.512932982057061E-2   -4.067962964269169E-5   -2.821974502450915E-4   -3.003807450382247E-5   -2.567582862973012E-4   -3.797907071706878E-1    3.211800935756856E-1
 1.000575710567500E+10  -5.000293077296172E-1    4.546554721552713E-2   -1.734254413715912E-5   -2.886475094334787E-4   -2.697508684363197E-5   -2.897437193094648E-4   -3.795652231744059E-1    3.214463662299247E-1
 1.000576137275000E+10  -4.999665651633147E-1    4.578082183100501E-2   -5.424917027701244E-5   -2.832776279859789E-4    1.704014572758232E-5   -2.865775840351815E-4   -3.793374716696592E-1    3.216963127706433E-1
 1.000576563982500E+10  -4.998735555657414E-1    4.591604259893133E-2   -3.793469023245619E-5   -2.673257277270483E-4   -3.654795070448501E-5   -2.735864402328754E-4   -3.791134592416666E-1    3.219932158191561E-1
 1.000576990690000E+10  -4.999578422128087E-1    4.611022519246385E-2   -4.433948200320582E-5   -2.534504601006263E-4   -2.346024194225518E-5   -2.302754846390383E-4   -3.789412564852009E-1    3.222238399756147E-1
 1.000577417397500E+10  -4.998815128384245E-1    4.636992100377981E-2   -5.084912445102453E-5   -2.854925415776164E-4    7.464602003735549E-7   -2.434655453300061E-4   -3.787677065287661E-1    3.224868957254123E-1
 1.000577844105000E+10  -4.998423171476074E-1    4.681877584977378E-2    2.540930364348072E-6   -2.580317832170095E-4    1.958292562152357E-6   -2.604013373941490E-4   -3.785495889561573E-1    3.227972846050640E-1
 1.000578270812500E+10  -4.999131637888203E-1    4.699771359059808E-2   -3.707181975977181E-5   -2.229154306229968E-4   -7.010864647558668E-6   -2.041370729585080E-4   -3.784262910555676E-1    3.230260691345162E-1
 1.000578697520000E+10  -4.998994019114952E-1    4.735904148056676E-2   -4.818614041039312E-5   -2.511137649731959E-4   -2.566385853375011E-5   -2.349225337634788E-4   -3.781256952454531E-1    3.233486972050580E-1
 1.000579124227500E+10  -4.997712122950985E-1    4.762157250001998E-2   -1.253579115161701E-5   -2.368604552669991E-4    1.623772613510724E-5   -2.416028313670984E-4   -3.778261883820287E-1    3.235100532703489E-1
 1.000579550935000E+10  -4.999020338350734E-1    4.777320506927479E-2   -1.395767150729765E-5   -2.024071631466060E-4   -4.764026951132738E-6   -2.263011243444390E-4   -3.777142808161308E-1    3.238076772693390E-1
 1.000579977642500E+10  -4.998372378272279E-1    4.822460125260698E-2   -3.551566838241367E-5   -2.365724438166529E-4    1.368573739004070E-5   -2.015495590905309E-4   -3.775316909980228E-1    3.241853500165244E-1
 1.000580404350000E+10  -4.998451520750953E-1    4.846166398745173E-2    1.759312340591638E-5   -2.143104749225194E-4   -9.262588797540963E-6   -2.036622834985848E-4   -3.773180065693632E-1    3.242846341193075E-1
 1.000580831057500E+10  -4.999115446383545E-1    4.887734418723524E-2   -1.529835877844323E-5   -1.970239549019073E-4    3.257871200602799E-5   -2.056513574596866E-4   -3.770382831726785E-1    3.245559057891408E-1
 1.000581257765000E+10  -4.998450522243267E-1    4.904279282661092E-2    2.721723563650864E-6   -2.184147868395115E-4    3.812945396070219E-5   -2.050619138058254E-4   -3.767701167501221E-1    3.248914484996151E-1
 1.000581684472500E+10  -4.996581040331758E-1    4.932737043455673E-2    1.667384014875189E-5   -1.745909573971953E-4   -6.954819631625965E-6   -2.192732620426505E-4   -3.766143827837424E-1    3.251064621472772E-1
 1.000582111180000E+10  -4.997583647228105E-1    4.958602295826323E-2   -5.354623456912553E-6   -1.954257956144087E-4    1.517548888900216E-5   -1.410942435862755E-4   -3.763060000081680E-1    3.254351993490481E-1
 1.000582537887500E+10  -4.996271793350751E-1    4.987330923606208E-2    8.843620252611447E-6   -1.948632025921143E-4    2.468215893602479E-5   -1.646069796445029E-4   -3.760152697152465E-1    3.255560304350036E-1
 1.000582964595000E+10  -4.996352892975112E-1    5.014622913340486E-2    2.584844018378976E-5   -1.874989239617120E-4    2.319357282503555E-5   -1.439638148251234E-4   -3.759038941094875E-1    3.259780064313314E-1
 1.000583391302500E+10  -4.996177229972883E-1    5.038922037641597E-2    1.457538449469646E-7   -1.828373011249787E-4    4.801020147789133E-5   -1.820234039134382E-4   -3.756727390879150E-1    3.261764906662154E-1
 1.000583818010000E+10  -4.996041732783894E-1    5.071692790962980E-2    3.748176027901360E-5   -1.632798358456141E-4    5.447202884969098E-5   -1.884075492054601E-4   -3.755089884540040E-1    3.264592645334030E-1
 1.000584244717500E+10  -4.997226824822869E-1    5.098489002392366E-2    3.868144429277265E-5   -1.648992062419396E-4    4.552039647887996E-5   -1.597821963864433E-4   -3.753073314278040E-1    3.267032621540507E-1
 1.000584671425000E+10  -4.996398462323323E-1    5.117877980414624E-2    1.485372073515679E-5   -1.493735688271738E-4   -1.890573926235941E-5   -1.409643371455739E-4   -3.750612912258415E-1    3.270287384803736E-1
 1.000585098132500E+10  -4.995710468547184E-1    5.141957166685140E-2    5.011008161863842E-5   -1.472946851603148E-4    2.292965893478931E-5   -1.723870973579689E-4   -3.749362040933870E-1    3.273967332021588E-1
 1.000585524840000E+10  -4.995146352476696E-1    5.185484883865483E-2    5.175057524821160E-5   -1.635576895414781E-4    5.553139973283158E-5   -1.649983131806947E-4   -3.745392681074863E-1    3.275795497680807E-1
 1.000585951547500E+10  -4.995045755019821E-1    5.203055221146285E-2    5.668873374416360E-5   -1.601491195661584E-4    4.141094275475116E-5   -1.262891228726066E-4   -3.744099126094353E-1    3.278071450489732E-1
 1.000586378255000E+10  -4.994215847326197E-1    5.226385103836455E-2    5.462219331414074E-5   -1.121745953129169E-4    6.758875555626692E-5   -1.321174461603795E-4   -3.742583274292344E-1    3.281277780513538E-1
 1.000586804962500E+10  -4.994316598206185E-1    5.251384886872577E-2    5.720719567205631E-5   -1.305592358046026E-4    5.534908978914033E-5   -9.980298364237074E-5   -3.738936492678929E-1    3.282852440680251E-1
 1.000587231670000E+10  -4.993569374699952E-1    5.298243280150402E-2    4.201812664728231E-5   -8.529913880594440E-5    7.102704139503640E-5   -1.055290426603409E-4   -3.737913578522261E-1    3.285966002947791E-1
 1.000587658377500E+10  -4.993736779195183E-1    5.316612591786168E-2    6.995384469118679E-5   -7.934242207203047E-5    5.036374716687924E-5   -6.737716381366272E-5   -3.733747439438080E-1    3.288519219954983E-1
 1.000588085085000E+10  -4.994765521691698E-1    5.346621085169411E-2    6.987757250148365E-5   -8.472105787436293E-5    6.866718236719681E-5   -1.153605149158959E-4   -3.732821516678855E-1    3.291086967025157E-1
 1.000588511792500E+10  -4.994805599487820E-1    5.398502890755227E-2    4.801911919320547E-5   -6.484298005957015E-5    3.473394038071409E-5   -6.434518905264261E-5   -3.729966980456907E-1    3.294314007050988E-1
 1.000588938500000E+10  -4.994406350361043E-1    5.393929758471241E-2    1.025355197218160E-4   -9.042733707129871E-5    8.866870808305245E-5   -6.100087631262357E-5   -3.727050274551199E-1    3.296007724738351E-1
 1.000589365207500E+10  -4.992586688035854E-1    5.426926956256007E-2    8.706606082804563E-5   -8.481458632449440E-5    1.002659904030922E-4   -7.623683536961085E-5   -3.725845374731985E-1    3.298640248781122E-1
 1.000589791915000E+10  -4.992012650861328E-1    5.456403637649724E-2    8.091327956199609E-5   -5.227227653689758E-5    1.029999399766035E-4   -7.840933565506863E-5   -3.721888713523313E-1    3.301896004869528E-1
 1.000590218622500E+10  -4.993205488918923E-1    5.489679406065096E-2    7.189881373422204E-5   -7.254761040301929E-5    9.913234374726770E-5   -2.641193876211231E-5   -3.719682729309760E-1    3.304563671852727E-1
 1.000590645330000E+10  -4.992306918545801E-1    5.519921507025556E-2    1.018074643406512E-4   -6.702127335894325E-5    9.590032233942880E-5   -7.230296490678368E-5   -3.718528223480708E-1    3.307332269351903E-1
 1.000591072037500E+10  -4.992327720081040E-1    5.538764934964267E-2    1.274491995758439E-4   -5.595947283130591E-5    1.252944919654439E-4   -6.884134990885439E-5   -3.715793022549483E-1    3.309199151023790E-1
 1.000591498745000E+10  -4.992440108186970E-1    5.562041802406688E-2    1.108093542695395E-4   -5.526340455212164E-5    1.501348329496316E-4   -7.399183378498324E-5   -3.714889062839556E-1    3.313801878999645E-1
 1.000591925452500E+10  -4.993447735928667E-1    5.586473546016720E-2    1.231230963828428E-4   -4.711578085500866E-5    1.049552499930973E-4   -2.901889811895043E-5   -3.712005819320805E-1    3.315510496957352E-1
 1.000592352160000E+10  -4.991852521323245E-1    5.622734369973400E-2    1.525053573180065E-4   -1.358993265655656E-6    1.314783001810824E-4   -2.763337215299750E-5   -3.708665769927042E-1    3.319158976599136E-1
 1.000592778867500E+10  -4.992331568467704E-1    5.651878158605139E-2    1.207809019016046E-4   -4.517377191354167E-6    1.355659636284750E-4   -3.767108923581403E-6   -3.706846341045631E-1    3.320870255094631E-1
 1.000593205575000E+10  -4.991262267082364E-1    5.670201066675638E-2    1.624326370610719E-4    7.021704690052137E-6    9.518595325502445E-5   -8.052580316551645E-7   -3.705053061340039E-1    3.324824064112012E-1
 1.000593632282500E+10  -4.990566292829766E-1    5.700591145521963E-2    1.101602781923748E-4    1.788744507304743E-5    1.216859740600809E-4   -1.341109524143299E-5   -3.701887476503333E-1    3.326460724099015E-1
 1.000594058990000E+10  -4.989883033524747E-1    5.734383397393518E-2    1.447143666208375E-4    3.338974273059587E-6    1.520768378058353E-4    3.134779841490808E-5   -3.699791329203566E-1    3.328058912932811E-1
 1.000594485697500E+10  -4.991835512217652E-1    5.757862577010023E-2    1.449655492163129E-4    2.324535323837008E-6    1.551970900230415E-4    4.277749785422951E-5   -3.696312429618885E-1    3.332313817959959E-1
 1.000594912405000E+10  -4.989100075934239E-1    5.769035990528027E-2    1.738952319720890E-4    3.038853425550475E-6    1.358328863913005E-4    7.662003750737700E-5   -3.692369277923437E-1    3.336390530316820E-1
 1.000595339112500E+10  -4.991941693722285E-1    5.824187147351612E-2    1.360927947756486E-4    2.244996078704855E-5    1.777082980844511E-4    1.389001666013228E-5   -3.692410235017956E-1    3.339083453991163E-1
 1.000595765820000E+10  -4.989706568230010E-1    5.847506234789343E-2    1.673716361993346E-4    5.904602288406466E-5    1.395553687215528E-4    4.106950692451808E-5   -3.689291607162787E-1    3.340337237343383E-1
 1.000596192527500E+10  -4.989693185259726E-1    5.872465496979025E-2    1.973130646191149E-4    4.292360717031392E-5    1.453959065371311E-4    7.570253364057710E-5   -3.686913157731316E-1    3.344374842008095E-1
 1.000596619235000E+10  -4.988565641399393E-1    5.905269014059972E-2    1.651224686830867E-4    8.054733854151870E-5    1.918807561038535E-4    5.535276767069315E-5   -3.683673036446610E-1    3.345564395127149E-1
 1.000597045942500E+10  -4.990311340007200E-1    5.922240906899923E-2    1.974115380186563E-4    6.922679977635367E-5    1.629420594686292E-4    9.848760809034717E-5   -3.682224950918991E-1    3.349626904368573E-1
 1.000597472650000E+10  -4.988668371221734E-1    5.949726686857879E-2    1.834110126343345E-4    7.655058945015988E-5    1.691367143343396E-4    1.150379023127892E-4   -3.678601751088344E-1    3.352531568500277E-1
 1.000597899357500E+10  -4.988497055635847E-1    5.996807397599468E-2    1.883151638483658E-4    9.293292143578084E-5    1.724348442857960E-4    1.229291440024145E-4   -3.675055320446839E-1    3.354499223210287E-1
 1.000598326065000E+10  -4.988852810131856E-1    6.005705459528143E-2    2.282409059074743E-4    1.032146494478172E-4    1.847719839580772E-4    7.601932732734536E-5   -3.672817074364368E-1    3.356506454486378E-1
 1.000598752772500E+10  -4.987102931812785E-1    6.045976681405142E-2    2.133919112576102E-4    9.722353072986418E-5    2.277672518793413E-4    9.591322835061714E-5   -3.671457630611388E-1    3.360219218390571E-1
 1.000599179480000E+10  -4.987300411286041E-1    6.074029661136778E-2    2.151370042406225E-4    1.176834054652240E-4    2.516342624574125E-4    1.355334743144335E-4   -3.668868080933048E-1    3.364160663495429E-1
 1.000599606187500E+10  -4.988429496150573E-1    6.101793747019337E-2    2.336019772853753E-4    1.314718276421099E-4    2.334877630247640E-4    1.615650416206888E-4   -3.666685834336916E-1    3.366242150337220E-1
 1.000600032895000E+10  -4.988451405901463E-1    6.124922792589906E-2    2.387324468002012E-4    1.306928973679636E-4    2.185637630929726E-4    9.567102113909063E-5   -3.661710512216602E-1    3.369010929096187E-1
 1.000600459602500E+10  -4.987668614722895E-1    6.145143788234408E-2    2.381353227183733E-4    1.486905299147758E-4    2.602756082475856E-4    1.430645135494910E-4   -3.660351629774696E-1    3.370736791966758E-1
 1.000600886310000E+10  -4.986524600776436E-1    6.175045983382394E-2    2.448919044416213E-4    1.586975048073971E-4    2.558581805519169E-4    1.621966773991524E-4   -3.657735604878881E-1    3.374705365844330E-1
 1.000601313017500E+10  -4.986788630809915E-1    6.206826591213974E-2    2.824425233129050E-4    1.760858086516174E-4    2.109803208285759E-4    1.860685545588944E-4   -3.655782265819464E-1    3.376564576347734E-1
 1.000601739725000E+10  -4.986021906888893E-1    6.237682467210097E-2    2.578319156848693E-4    1.674420204037981E-4    2.672120813428964E-4    1.986962974095784E-4   -3.651953792273316E-1    3.380490506116009E-1
 1.000602166432500E+10  -4.987420240896287E-1    6.266163332883430E-2    2.900794381360734E-4    1.754167412056326E-4    2.942565609798310E-4    2.051037506478266E-4   -3.649499507257517E-1    3.382312236823942E-1
 1.000602593140000E+10  -4.985766244515786E-1    6.285588593755961E-2    3.046530106800927E-4    2.144644137624552E-4    2.687985885621754E-4    1.981620210801298E-4   -3.646559523565483E-1    3.385877623285126E-1
 1.000603019847500E+10  -4.984584885157501E-1    6.319266040335807E-2    2.865367795322586E-4    1.893087302625028E-4    2.574078546885419E-4    2.227716948231351E-4   -3.643404170832459E-1    3.389292741368863E-1
 1.000603446555000E+10  -4.985547654844811E-1    6.338482839609165E-2    3.155094795278841E-4    2.412688039564972E-4    2.850474249032218E-4    1.939717381227856E-4   -3.641408802736064E-1    3.391391264288238E-1
 1.000603873262500E+10  -4.985261452422503E-1    6.370429457004317E-2    3.061986701160560E-4    2.216632706587382E-4    2.737153215752660E-4    2.347470512220193E-4   -3.637880188740371E-1    3.395541818309660E-1
 1.000604299970000E+10  -4.983461778190735E-1    6.400621316382422E-2    3.258309177610854E-4    2.154752326520066E-4    2.983510460329460E-4    2.611701263032149E-4   -3.635641619557600E-1    3.398049045007180E-1
 1.000604726677500E+10  -4.985821267658956E-1    6.437931003446534E-2    3.465280820552226E-4    2.384835170153439E-4    2.971692525727504E-4    2.373664970585603E-4   -3.632784522584492E-1    3.401529028517100E-1
 1.000605153385000E+10  -4.985207788371767E-1    6.455446768503034E-2    3.523825646979205E-4    2.671208478236913E-4    3.480131758930079E-4    2.796212841896716E-4   -3.629183039409921E-1    3.400863170342516E-1
 1.000605580092500E+10  -4.983525227928532E-1    6.495565655731082E-2    3.648539303675024E-4    2.796064969022113E-4    3.081664672446879E-4    2.806047478534909E-4   -3.626700423781024E-1    3.406011229878924E-1
 1.000606006800000E+10  -4.982939452770842E-1    6.520759336292298E-2    3.730503051277824E-4    2.846491664021150E-4    3.243377990205751E-4    2.686789240847617E-4   -3.624156312924152E-1    3.409941724988552E-1
 1.000606433507500E+10  -4.984435224688954E-1    6.538576607458009E-2    3.726892485925771E-4    2.728377786602381E-4    3.773670122841772E-4    2.898599646518466E-4   -3.620635597917815E-1    3.412902596961537E-1
 1.000606860215000E+10  -4.982302272906936E-1    6.561010356330209E-2    3.925354136965593E-4    2.947325344134198E-4    3.497918460226407E-4    3.029719990421601E-4   -3.617399856572395E-1    3.416493861209043E-1
 1.000607286922500E+10  -4.982984199284433E-1    6.596627525202818E-2    4.024737738047555E-4    2.927391387496755E-4    3.695056281832063E-4    2.937138910694808E-4   -3.616657558237692E-1    3.418806028413707E-1
 1.000607713630000E+10  -4.983521311481922E-1    6.619781779023207E-2    3.891869547094777E-4    3.371871280582002E-4    4.154161483426159E-4    3.788263903194544E-4   -3.611796523325695E-1    3.421657389252691E-1
 1.000608140337500E+10  -4.981651672101840E-1    6.658144793298622E-2    4.170117304744571E-4    3.121570657185092E-4    4.221456850689680E-4    3.574977586491303E-4   -3.608825085047814E-1    3.424023792429967E-1
 1.000608567045000E+10  -4.981446574570584E-1    6.683718843934508E-2    4.110279023069020E-4    3.700086870709352E-4    4.098337092506439E-4    3.272277131044687E-4   -3.604275197981011E-1    3.428092587557324E-1
 1.000608993752500E+10  -4.982190519374332E-1    6.696570533691425E-2    4.225661278823382E-4    3.657894217853024E-4    3.920840985063901E-4    3.788645238240337E-4   -3.601887380750433E-1    3.430212688725375E-1
 1.000609420460000E+10  -4.980957293999063E-1    6.719410051307721E-2    4.695707078832938E-4    3.686163370131061E-4    3.966936949389576E-4    3.893268529873612E-4   -3.599956237202909E-1    3.434304603654320E-1
 1.000609847167500E+10  -4.981391945110830E-1    6.768131679110866E-2    4.692417950392098E-4    4.088251042228268E-4    4.276759450941508E-4    3.977290062670544E-4   -3.595206364793437E-1    3.436567496607871E-1
 1.000610273875000E+10  -4.980716581403046E-1    6.780549859829195E-2    4.932879361170370E-4    4.131088516189800E-4    4.306476620310494E-4    4.131566634842292E-4   -3.593534846336456E-1    3.438302281526928E-1
