#  HZ   S   RI   R     50.00 
! Rohde & Schwarz Vector Network Analyzer 
! Rohde-Schwarz,ZNB20-2Port,1311601062101988,3.16
! Created: UTC 3/20/2024, 11:38:35 AM
! freq[Hz]                re:S11                  im:S11                  re:S21                  im:S21                  re:S12                  im:S12                  re:S22                  im:S22
 1.000610408100000E+10  -4.969397196711094E-1    6.919558430549824E-2    2.705289704147162E-4    3.196594391661305E-4    2.151369199916562E-4    3.455595381230500E-4   -3.607417213418339E-1    3.447469918110663E-1
 1.000610660065000E+10  -4.969366288232734E-1    6.928357288636371E-2    2.534771166302333E-4    3.390802349936739E-4    2.458128655227389E-4    3.432357332206242E-4   -3.605913991880583E-1    3.450439462274837E-1
 1.000610912030000E+10  -4.969016289458469E-1    6.947897971125010E-2    2.897233429160346E-4    3.253672912938762E-4    2.512887210715472E-4    3.592102805138781E-4   -3.602568379336215E-1    3.451647361880323E-1
 1.000611163995000E+10  -4.969030419669319E-1    6.954723169967936E-2    2.803790519270496E-4    3.493018660108840E-4    2.822314664562021E-4    3.407577830584986E-4   -3.603725577146008E-1    3.453256539254385E-1
 1.000611415960000E+10  -4.968956167367694E-1    6.967658161806262E-2    2.795577491648074E-4    3.453845664058233E-4    2.571338657862123E-4    3.585451038403263E-4   -3.599440991545943E-1    3.455287749208513E-1
 1.000611667925000E+10  -4.968356298800106E-1    6.995096786896245E-2    2.959516619650700E-4    3.665399967773842E-4    2.657598321387845E-4    3.675609653993019E-4   -3.599574406695084E-1    3.456698377887639E-1
 1.000611919890000E+10  -4.969367455074170E-1    7.008202024445019E-2    3.033939548175227E-4    3.772337688276371E-4    2.847692643698154E-4    3.820534614556636E-4   -3.598821187809820E-1    3.460001065364003E-1
 1.000612171855000E+10  -4.968254621150971E-1    7.026646723629587E-2    3.058181993231753E-4    3.950234352149671E-4    2.605613856265102E-4    4.091038603980073E-4   -3.596034852718651E-1    3.461631349836859E-1
 1.000612423820000E+10  -4.968213473188930E-1    7.049655582956328E-2    3.156110245433934E-4    3.722952310956944E-4    2.665881352769786E-4    3.812108667177520E-4   -3.593405610333033E-1    3.462674475381369E-1
 1.000612675785000E+10  -4.968219736378525E-1    7.064807475190171E-2    3.300534182090087E-4    3.954726470750623E-4    2.821375390339599E-4    3.860300696771382E-4   -3.591861054419075E-1    3.464245951677343E-1
 1.000612927750000E+10  -4.968280208492349E-1    7.072475780913115E-2    3.277153277862960E-4    4.364732916945775E-4    2.922255976960169E-4    4.227561683680512E-4   -3.591729368856382E-1    3.466842954428166E-1
 1.000613179715000E+10  -4.967086932841891E-1    7.102081161953132E-2    3.294862646383941E-4    3.997077586593947E-4    2.744202196102703E-4    4.276877014584380E-4   -3.588068823560437E-1    3.467745945951551E-1
 1.000613431680000E+10  -4.967346582194835E-1    7.111628749472963E-2    3.175293175902511E-4    4.153753336942436E-4    2.786715648522093E-4    4.071561532808218E-4   -3.586622559489708E-1    3.470149969546584E-1
 1.000613683645000E+10  -4.967062753471453E-1    7.131401699388916E-2    3.361202489087782E-4    4.172218278430121E-4    3.317827187028208E-4    4.454241080690166E-4   -3.584207986245132E-1    3.472102170803614E-1
 1.000613935610000E+10  -4.966091546373305E-1    7.135016354842835E-2    3.491667678973108E-4    4.437918630015816E-4    3.067179613275263E-4    4.733233806123815E-4   -3.583470507954283E-1    3.472586665600056E-1
 1.000614187575000E+10  -4.966530976410735E-1    7.158658363546264E-2    3.487931662621393E-4    4.434090308969520E-4    3.294195126344091E-4    4.713457895053352E-4   -3.580933455431765E-1    3.475244767260474E-1
 1.000614439540000E+10  -4.966158408710152E-1    7.175145061457727E-2    3.511688995883184E-4    4.322992878235132E-4    3.089946551579684E-4    4.679129269440420E-4   -3.579762110929132E-1    3.477695719081033E-1
 1.000614691505000E+10  -4.966605283353651E-1    7.202029347210480E-2    3.759991822575193E-4    4.721595704047619E-4    3.582526571324712E-4    4.622891148079309E-4   -3.576390240781463E-1    3.478125931466461E-1
 1.000614943470000E+10  -4.964440360115600E-1    7.207720732027580E-2    3.482647499562662E-4    4.738978455253348E-4    3.571279313138256E-4    4.865015597431112E-4   -3.574433892408116E-1    3.482349500591462E-1
 1.000615195435000E+10  -4.966556960103156E-1    7.209721899573689E-2    3.641186470900847E-4    4.628101718712316E-4    3.482420114135971E-4    4.989727257352679E-4   -3.573873158342413E-1    3.483281222579619E-1
 1.000615447400000E+10  -4.965177141451830E-1    7.242067857647702E-2    3.856406975512186E-4    4.576686322409560E-4    3.389132807390987E-4    5.349249270936092E-4   -3.571683541299447E-1    3.485802339752455E-1
 1.000615699365000E+10  -4.965242245629908E-1    7.269610902920294E-2    3.831015465785907E-4    5.045754894908853E-4    3.521819887218355E-4    5.353639802635411E-4   -3.569825728184872E-1    3.488173005096453E-1
 1.000615951330000E+10  -4.964954310737121E-1    7.273707199294088E-2    3.940845033015213E-4    5.033336695177304E-4    3.722397533836446E-4    5.261947385344210E-4   -3.566445523706572E-1    3.490036216040534E-1
 1.000616203295000E+10  -4.964621711990793E-1    7.298014567083277E-2    3.856425416874449E-4    5.162338640817677E-4    3.505619747797167E-4    5.365930067280758E-4   -3.567507820968290E-1    3.490963391569816E-1
 1.000616455260000E+10  -4.964795352898771E-1    7.310670695522081E-2    3.793098972796233E-4    5.285370039199948E-4    3.820795268648058E-4    5.539420128110158E-4   -3.564984932699180E-1    3.493410627388615E-1
 1.000616707225000E+10  -4.964591149502555E-1    7.319600733092783E-2    3.804730531487491E-4    5.296479567828647E-4    4.040787080449213E-4    5.331586616589986E-4   -3.562841797237098E-1    3.495479838185834E-1
 1.000616959190000E+10  -4.964192136620175E-1    7.334339504764542E-2    4.504958064707548E-4    5.367559764472546E-4    4.111345715192691E-4    5.296219635535926E-4   -3.560139063522940E-1    3.496536522637818E-1
 1.000617211155000E+10  -4.963823017484941E-1    7.357545811882669E-2    4.566254299967019E-4    5.530258913785228E-4    3.810148767178754E-4    5.769311244701270E-4   -3.558149182597205E-1    3.500078688738590E-1
 1.000617463120000E+10  -4.964566734593436E-1    7.360397591295456E-2    4.198719576109394E-4    5.558617407728102E-4    3.881475727568027E-4    5.775713321468057E-4   -3.556417415723056E-1    3.501771275065236E-1
 1.000617715085000E+10  -4.963910856451708E-1    7.393575730462551E-2    4.294830219040173E-4    5.850660604662021E-4    4.236790739272970E-4    5.791010758829104E-4   -3.554109496415694E-1    3.503217757212974E-1
 1.000617967050000E+10  -4.963840198098780E-1    7.416992152722662E-2    4.838805361702848E-4    5.830079062589020E-4    4.132997334757145E-4    5.864097742761488E-4   -3.552984407170510E-1    3.505533739695792E-1
 1.000618219015000E+10  -4.961968856970591E-1    7.416559285991874E-2    4.321249647769572E-4    6.196899142327429E-4    4.180596313140316E-4    6.257642455346335E-4   -3.548972823242456E-1    3.507478209544894E-1
 1.000618470980000E+10  -4.962226070580529E-1    7.440185815050591E-2    4.828322272606112E-4    5.934605591325840E-4    4.204593162616680E-4    6.085105439528359E-4   -3.548507635555532E-1    3.509854574787254E-1
 1.000618722945000E+10  -4.962023254889052E-1    7.463334809065328E-2    4.871382672759354E-4    6.310383319409150E-4    4.637622144143789E-4    6.359652318634126E-4   -3.546032791370466E-1    3.512339926797774E-1
 1.000618974910000E+10  -4.962285150396240E-1    7.467389104371473E-2    4.886870439232341E-4    6.243759664142446E-4    4.621228278307662E-4    6.460841066093635E-4   -3.543833276325086E-1    3.513458513140833E-1
 1.000619226875000E+10  -4.962977457334901E-1    7.497425800782084E-2    4.917724017715421E-4    6.538027509846798E-4    4.727264076441569E-4    6.694657952547520E-4   -3.542296271638355E-1    3.514417860606137E-1
 1.000619478840000E+10  -4.962071633898902E-1    7.503618958482385E-2    4.875750676872811E-4    6.424515018467274E-4    4.601675100388628E-4    6.857371835600848E-4   -3.539423136450537E-1    3.515742851838614E-1
 1.000619730805000E+10  -4.962085020675976E-1    7.529405212873351E-2    5.035573658021435E-4    6.552614148168101E-4    4.551565052342242E-4    6.934721508569348E-4   -3.537449285297019E-1    3.520665272782356E-1
 1.000619982770000E+10  -4.961780470350839E-1    7.541398225364872E-2    5.243822402488205E-4    6.672603969204540E-4    4.849147713242942E-4    6.727646852777081E-4   -3.536798079990801E-1    3.521453939411385E-1
 1.000620234735000E+10  -4.961036138188304E-1    7.546039703381596E-2    5.316768236128917E-4    6.974706325419209E-4    4.913880080357118E-4    7.010869822138909E-4   -3.532489246140789E-1    3.524157324938620E-1
 1.000620486700000E+10  -4.961929808324500E-1    7.569062552564645E-2    5.461365561541667E-4    6.755721568125946E-4    4.901046649659261E-4    6.899570428344272E-4   -3.531421858403146E-1    3.525828603718734E-1
 1.000620738665000E+10  -4.961134852986483E-1    7.597129261199377E-2    5.406979301654490E-4    7.095216326937394E-4    4.803748345622151E-4    7.381047471471458E-4   -3.529491153168425E-1    3.529107996167886E-1
 1.000620990630000E+10  -4.961066095314688E-1    7.597568603096301E-2    5.596029133880201E-4    7.308550329969466E-4    4.881217115425603E-4    7.391661838423533E-4   -3.526659327416170E-1    3.529889809237136E-1
 1.000621242595000E+10  -4.961020155251947E-1    7.617634151561013E-2    5.595233167174392E-4    7.269940295801505E-4    5.293343173631966E-4    7.442927064078957E-4   -3.524501479590200E-1    3.532979284226534E-1
 1.000621494560000E+10  -4.960395653827576E-1    7.632562982940609E-2    5.588890325614884E-4    7.336660716960568E-4    5.428378586212675E-4    7.609898856239123E-4   -3.523355641425294E-1    3.534279743639374E-1
 1.000621746525000E+10  -4.959209971218316E-1    7.662934580045351E-2    5.900362742836843E-4    7.561568744436887E-4    5.540774031037399E-4    7.593536455587052E-4   -3.519781637416421E-1    3.536543805081935E-1
 1.000621998490000E+10  -4.959532998192785E-1    7.670897947078510E-2    5.913849728697559E-4    7.582532335859285E-4    5.247025802348136E-4    7.658830887381689E-4   -3.517854232282615E-1    3.538729577123738E-1
 1.000622250455000E+10  -4.959561873881589E-1    7.676635724892290E-2    5.860306021944852E-4    8.085981639568000E-4    5.571939341789788E-4    7.835661585476472E-4   -3.515436208037200E-1    3.540993304330484E-1
 1.000622502420000E+10  -4.960537603878031E-1    7.697669634774672E-2    6.168637115401811E-4    7.961344729616124E-4    5.642341964246165E-4    8.223837882323119E-4   -3.514105308679365E-1    3.542625789473893E-1
 1.000622754385000E+10  -4.958901150356958E-1    7.712957405904722E-2    6.155014175204980E-4    8.040835603128266E-4    6.019020997721033E-4    7.925397629463413E-4   -3.510599123799682E-1    3.544342532964592E-1
 1.000623006350000E+10  -4.958612949926937E-1    7.737553384895740E-2    6.100644531834154E-4    8.153212189598941E-4    5.788996286278621E-4    8.281116766087472E-4   -3.508443495938300E-1    3.547250275875993E-1
 1.000623258315000E+10  -4.958529291346175E-1    7.761945318685487E-2    6.248162035380788E-4    8.435554041848677E-4    5.915607690760153E-4    8.497449023943028E-4   -3.506509006488537E-1    3.549526852357944E-1
 1.000623510280000E+10  -4.958941262338268E-1    7.755168796041836E-2    6.689975540018488E-4    8.582885740496638E-4    5.973023437180393E-4    8.535096231538013E-4   -3.503553853924397E-1    3.551631432652069E-1
 1.000623762245000E+10  -4.958740103463789E-1    7.790912634989132E-2    6.819339322387099E-4    8.225707249039524E-4    6.078046181070574E-4    8.800280231035778E-4   -3.501511834587664E-1    3.553362475174843E-1
 1.000624014210000E+10  -4.958631519658707E-1    7.798610391763684E-2    6.748274460731958E-4    8.738406129816088E-4    6.084125694940649E-4    8.715289638335840E-4   -3.499543099838370E-1    3.556576622160479E-1
 1.000624266175000E+10  -4.957799988557650E-1    7.818781322029010E-2    6.754882348625149E-4    9.023228410266439E-4    6.333137868215109E-4    8.968344504537869E-4   -3.496790584358966E-1    3.557117834326734E-1
 1.000624518140000E+10  -4.958478957651551E-1    7.837431611822851E-2    6.836156578884978E-4    8.967635598286227E-4    6.156123713861706E-4    9.236960938307018E-4   -3.493577848063195E-1    3.561171624597819E-1
 1.000624770105000E+10  -4.956996284715795E-1    7.850235688276284E-2    6.893888468774320E-4    9.042699889444720E-4    6.308351913911116E-4    9.044388307891863E-4   -3.491830739167751E-1    3.563147984224598E-1
 1.000625022070000E+10  -4.956426240823588E-1    7.868994207007278E-2    7.119838166379330E-4    9.328009470755733E-4    6.748194871569076E-4    9.347008649692551E-4   -3.488567188656292E-1    3.565821286341958E-1
 1.000625274035000E+10  -4.957711572769312E-1    7.884182366644875E-2    7.333270558689020E-4    9.422767818354852E-4    6.871481050788958E-4    9.564862824187556E-4   -3.487352770503681E-1    3.567694945668957E-1
 1.000625526000000E+10  -4.956762944742072E-1    7.896111414927708E-2    7.748983686819288E-4    9.564677784684711E-4    6.885105677744799E-4    9.476616090585090E-4   -3.483916794317022E-1    3.570759917817573E-1
 1.000625777965000E+10  -4.957794777758719E-1    7.914908877267508E-2    7.671224966253702E-4    9.648681263906290E-4    6.871338707194191E-4    9.704283499477792E-4   -3.480231944922059E-1    3.571138562533119E-1
 1.000626029930000E+10  -4.957901078150862E-1    7.930888855635194E-2    7.771163430207186E-4    9.836474333285621E-4    6.945526342822505E-4    9.781211628846866E-4   -3.478294273706894E-1    3.573540223671468E-1
 1.000626281895000E+10  -4.956822443190240E-1    7.961761283017200E-2    7.733103631684710E-4    9.886901710407716E-4    7.420530902016594E-4    1.012731213093057E-3   -3.476746359358648E-1    3.576996466416507E-1
 1.000626533860000E+10  -4.956556294449876E-1    7.970947883010229E-2    8.076247360815682E-4    1.006595840224442E-3    7.546180960380903E-4    1.017529552965226E-3   -3.474475464484325E-1    3.578618899286429E-1
 1.000626785825000E+10  -4.955703222279649E-1    7.989761473781905E-2    8.066912100704637E-4    1.015357681800382E-3    7.501602545824502E-4    1.055470707189099E-3   -3.471741724535080E-1    3.581208484321949E-1
 1.000627037790000E+10  -4.955972688009249E-1    7.996979963188536E-2    8.326633449421212E-4    1.030524489724381E-3    7.459384605110589E-4    1.055747144407781E-3   -3.467498395117664E-1    3.583759580750683E-1
 1.000627289755000E+10  -4.957468206776811E-1    8.011466876647041E-2    8.626013849599636E-4    1.039535763929439E-3    7.922061559505724E-4    1.087627612616295E-3   -3.465023745503308E-1    3.585967644937113E-1
 1.000627541720000E+10  -4.953938344382691E-1    8.031267723540339E-2    8.531344295139257E-4    1.071431251501365E-3    7.575050477008531E-4    1.082001129918641E-3   -3.463455355056685E-1    3.589100746478464E-1
 1.000627793685000E+10  -4.954916759743526E-1    8.044028126931713E-2    8.527746585080685E-4    1.083216663779795E-3    8.011393131059423E-4    1.103987616430532E-3   -3.458766868318123E-1    3.590930576246580E-1
 1.000628045650000E+10  -4.954855664141585E-1    8.072661042404015E-2    8.665576122051876E-4    1.101088159859818E-3    8.052335924742124E-4    1.131560516606982E-3   -3.456791096747994E-1    3.593138018528966E-1
 1.000628297615000E+10  -4.955188628946026E-1    8.096995267573005E-2    8.722590104132468E-4    1.115852143989098E-3    8.093218277901108E-4    1.129101095948161E-3   -3.454273297080195E-1    3.594682461433598E-1
 1.000628549580000E+10  -4.954138572910889E-1    8.103428488527520E-2    8.883152915666068E-4    1.129213711749373E-3    8.325293169237983E-4    1.122312985286191E-3   -3.450879303262038E-1    3.598116441673307E-1
 1.000628801545000E+10  -4.954357258201139E-1    8.116880108983382E-2    9.238820157470725E-4    1.160142414003977E-3    8.376015608850670E-4    1.169795663975747E-3   -3.448957787923664E-1    3.600041653551664E-1
 1.000629053510000E+10  -4.953259372267386E-1    8.123817985519173E-2    9.417009612180186E-4    1.173520501415635E-3    8.773366608344704E-4    1.169601918578166E-3   -3.444581548581708E-1    3.603188230976199E-1
 1.000629305475000E+10  -4.954073144168473E-1    8.155393381386151E-2    9.526085849367092E-4    1.175561152643790E-3    8.973230795239024E-4    1.226496680323561E-3   -3.442406401101176E-1    3.604499747053150E-1
 1.000629557440000E+10  -4.954211498057352E-1    8.166575145367327E-2    9.548407638466077E-4    1.223988179726544E-3    8.744905776076382E-4    1.235819014103882E-3   -3.440141989948639E-1    3.607172853618615E-1
 1.000629809405000E+10  -4.953420488156637E-1    8.176947491417660E-2    9.834803545246274E-4    1.215217253008111E-3    9.023646929611915E-4    1.234648484084717E-3   -3.434807743159795E-1    3.609378513492584E-1
 1.000630061370000E+10  -4.952265754145180E-1    8.197926049395700E-2    9.987342490000712E-4    1.239027888732560E-3    9.308494758323064E-4    1.271159262082437E-3   -3.433965388958677E-1    3.612907180135887E-1
 1.000630313335000E+10  -4.952827953465941E-1    8.208404516568379E-2    1.003410467317933E-3    1.232762835545549E-3    9.363486515287999E-4    1.267134190880151E-3   -3.429848108541231E-1    3.615665796829488E-1
 1.000630565300000E+10  -4.953743521584688E-1    8.227127035239024E-2    1.033170619427343E-3    1.280269006669557E-3    9.630795394947667E-4    1.283210132415184E-3   -3.427855439502295E-1    3.616722998946850E-1
 1.000630817265000E+10  -4.951745173381351E-1    8.251446787064992E-2    1.083598407978890E-3    1.302721359196294E-3    9.358589617699482E-4    1.314279504363964E-3   -3.423033625980998E-1    3.620990912209098E-1
 1.000631069230000E+10  -4.951331424447463E-1    8.275023316355362E-2    1.071393988822312E-3    1.288893308750743E-3    9.878530388238386E-4    1.333374301566041E-3   -3.421043622892668E-1    3.623114734003078E-1
 1.000631321195000E+10  -4.952864732952960E-1    8.277677596599149E-2    1.115163555069280E-3    1.312553190297379E-3    1.011142462946629E-3    1.341138336816076E-3   -3.415755344963557E-1    3.625447936997576E-1
 1.000631573160000E+10  -4.951896276142251E-1    8.296110387646916E-2    1.152408885442382E-3    1.355607322562733E-3    1.023548460525004E-3    1.377060462074457E-3   -3.413822060866251E-1    3.628715642073705E-1
 1.000631825125000E+10  -4.951169471924922E-1    8.311302834601872E-2    1.152467631091184E-3    1.355061062548571E-3    1.052625034149278E-3    1.380104297430266E-3   -3.410939548935998E-1    3.629917585968839E-1
 1.000632077090000E+10  -4.950688416286982E-1    8.327956561302678E-2    1.147910691811513E-3    1.411467172147585E-3    1.078272003076461E-3    1.418998581942993E-3   -3.407130246898563E-1    3.633683566509456E-1
 1.000632329055000E+10  -4.950537365918657E-1    8.344623304207099E-2    1.194289771505588E-3    1.413593919528837E-3    1.084142331671126E-3    1.409439201411029E-3   -3.404354839553279E-1    3.635960888516011E-1
 1.000632581020000E+10  -4.951272254140635E-1    8.354562202288356E-2    1.189839383377158E-3    1.424754423213490E-3    1.077317743846166E-3    1.475083018213870E-3   -3.399358507739348E-1    3.637937441514804E-1
 1.000632832985000E+10  -4.950915339351432E-1    8.376969470528141E-2    1.226657114201292E-3    1.433857011001141E-3    1.089571894553047E-3    1.482233880231470E-3   -3.396249305025288E-1    3.640629411543285E-1
 1.000633084950000E+10  -4.948871903270518E-1    8.405089358145421E-2    1.248924050781482E-3    1.468689343096582E-3    1.165781707042494E-3    1.497102230383623E-3   -3.393508382101260E-1    3.644280235686018E-1
