#  HZ   S   RI   R     50.00 
! Rohde & Schwarz Vector Network Analyzer 
! Rohde-Schwarz,ZNB20-2Port,1311601062101988,3.16
! Created: UTC 3/20/2024, 12:02:32 PM
! freq[Hz]                re:S11                  im:S11                  re:S21                  im:S21                  re:S12                  im:S12                  re:S22                  im:S22
 1.000584804200000E+10  -4.996231006948101E-1    5.123198691591170E-2   -4.098920572301039E-5   -2.272082057939420E-4   -2.584727069981306E-5   -2.529971584894150E-4   -3.755846443620290E-1    3.267516410556381E-1
 1.000585182780000E+10  -4.995833525746505E-1    5.147802405491974E-2   -2.859756373484937E-5   -1.865348131306458E-4   -1.491989136522571E-5   -2.138826530018889E-4   -3.755873149464589E-1    3.269988763531411E-1
 1.000585561360000E+10  -4.995127266132976E-1    5.177324058432717E-2   -2.011599972350408E-5   -1.879852271809632E-4   -1.323923641891482E-5   -1.848920121756246E-4   -3.751902207388370E-1    3.270725048603096E-1
 1.000585939940000E+10  -4.994065814445857E-1    5.189743819410202E-2   -1.037642156045143E-5   -1.738787006229319E-4   -6.571465128272865E-6   -1.860098255022577E-4   -3.750822397649374E-1    3.275412170692744E-1
 1.000586318520000E+10  -4.995008306901656E-1    5.220001739099067E-2    4.389648078604845E-6   -2.062223928586859E-4   -4.694213361754652E-5   -1.369884297600081E-4   -3.748385302790015E-1    3.277428607936454E-1
 1.000586697100000E+10  -4.994863975561132E-1    5.239203287507477E-2    1.230982859053757E-5   -1.712734319184368E-4    1.094635981199040E-5   -1.774705153725783E-4   -3.745337785316003E-1    3.279998558311119E-1
 1.000587075680000E+10  -4.994240782302166E-1    5.271017422431571E-2   -1.361960020661911E-5   -1.608473051634450E-4    1.017472553747331E-5   -2.047615820248137E-4   -3.743662707474285E-1    3.282320465344825E-1
 1.000587454260000E+10  -4.994297987811080E-1    5.292736064911794E-2    1.623400841674648E-5   -1.479133035113111E-4    7.332427076838620E-6   -1.481124697641520E-4   -3.741073795427248E-1    3.284072076484627E-1
 1.000587832840000E+10  -4.995288569521606E-1    5.300948340762491E-2   -2.039767926398660E-6   -1.648339183053152E-4    3.316310462912817E-5   -1.229034034723115E-4   -3.740844326222638E-1    3.285328772192448E-1
 1.000588211420000E+10  -4.993552896529129E-1    5.339413352135954E-2    1.433155384819472E-5   -1.356582561901624E-4    1.571920319392858E-5   -1.416055145932638E-4   -3.736957716329865E-1    3.290204782491736E-1
 1.000588590000000E+10  -4.992192359563670E-1    5.363005941233214E-2    3.546051750239662E-5   -1.489864026568033E-4    3.668928515720583E-5   -9.923179136421504E-5   -3.736124051086976E-1    3.290796948692371E-1
 1.000588968580000E+10  -4.992501731196637E-1    5.389276780384844E-2    1.180023818368461E-5   -1.359891002950985E-4    3.378498983191302E-5   -1.429629307000014E-4   -3.733824862109923E-1    3.292778187986608E-1
 1.000589347160000E+10  -4.993634295794500E-1    5.420304082509578E-2    2.615436505570300E-5   -1.384924806869012E-4    2.518462696422145E-5   -1.350036883144305E-4   -3.733209188486243E-1    3.295489243221000E-1
 1.000589725740000E+10  -4.992140249555462E-1    5.434314155447786E-2    3.134333018299696E-5   -1.360073797920797E-4    3.935361995375148E-5   -1.400612224537112E-4   -3.729752992497280E-1    3.297203210711924E-1
 1.000590104320000E+10  -4.992676835292587E-1    5.461038073557156E-2    1.411590431450055E-5   -1.077351051672931E-4    3.715678111401064E-5   -1.272567080432723E-4   -3.729473805199811E-1    3.300732861866242E-1
 1.000590482900000E+10  -4.993294678912923E-1    5.480274034244176E-2    2.228133556715642E-5   -1.108341485808188E-4    5.270587933403526E-5   -1.150289624998422E-4   -3.727078424812016E-1    3.303452108144765E-1
 1.000590861480000E+10  -4.991288105173273E-1    5.522561319061824E-2    3.925707487408094E-5   -8.778076270909157E-5    4.391544833892001E-5   -1.142992318174644E-4   -3.725207494174846E-1    3.305582850430562E-1
 1.000591240060000E+10  -4.990927822860581E-1    5.544998859974421E-2    3.659431599068877E-5   -7.529407949223568E-5    5.735077296961351E-5   -8.761931098582450E-5   -3.722645822625973E-1    3.307624324412111E-1
 1.000591618640000E+10  -4.990599453859295E-1    5.569514127391652E-2    4.743777317963148E-5   -1.177077173652149E-4    5.853527391121025E-5   -4.726659459341573E-5   -3.720001909327643E-1    3.310192698985043E-1
 1.000591997220000E+10  -4.990445704706218E-1    5.589601022621922E-2    5.223910775456465E-5   -9.074056089186385E-5    1.437779587590150E-5   -7.530111015707952E-5   -3.718703046852197E-1    3.311588450501712E-1
 1.000592375800000E+10  -4.990951210464348E-1    5.611907943494283E-2    5.108067355920322E-5   -7.631182413483355E-5    5.162292525538381E-5   -1.067953345281154E-4   -3.717244483373366E-1    3.315073109762858E-1
 1.000592754380000E+10  -4.991702922422596E-1    5.640810568322272E-2    7.190344216582707E-5   -9.428716690207426E-5    3.825347387653206E-5   -4.317596626743007E-5   -3.714349299593491E-1    3.316097387192305E-1
 1.000593132960000E+10  -4.992034371592048E-1    5.664271734553634E-2    7.230357933939943E-5   -9.752080264726148E-5    6.748429706363631E-5   -7.118905010082145E-5   -3.713531927830168E-1    3.320343120948424E-1
 1.000593511540000E+10  -4.991011952402861E-1    5.698191106258823E-2    7.105499877756077E-5   -4.325031012074857E-5    5.086659323357211E-5   -5.093235482106138E-5   -3.709634158152202E-1    3.322058682994430E-1
 1.000593890120000E+10  -4.989471273289697E-1    5.711493753615834E-2    5.692750429216396E-5   -6.459499970445592E-5    1.074065476648353E-4   -7.860729871396822E-5   -3.708386445717022E-1    3.325777879439090E-1
 1.000594268700000E+10  -4.990081939822107E-1    5.745061075810214E-2    9.380919425396602E-5   -4.527660131711044E-5    6.626611742504802E-5   -2.900828709354295E-5   -3.706069062074027E-1    3.326098530605788E-1
 1.000594647280000E+10  -4.989475762036237E-1    5.775875503641513E-2    8.835369288930226E-5   -6.574407655029006E-5    5.635426470236045E-5   -7.205279471212753E-5   -3.704676666506991E-1    3.329733021190256E-1
 1.000595025860000E+10  -4.988322256433968E-1    5.792728424757076E-2    7.602664689035860E-5   -6.078322476798827E-5    1.005639559366880E-4   -4.222078011024814E-5   -3.702774960723750E-1    3.332806353725139E-1
 1.000595404440000E+10  -4.988460430048543E-1    5.810509640006709E-2    7.144797218331043E-5   -5.072735383699716E-5    1.132902987643828E-4   -1.814689503138434E-5   -3.699086347853575E-1    3.333988108568829E-1
 1.000595783020000E+10  -4.989979807883310E-1    5.825264824275240E-2    9.409040411612265E-5   -1.948264753464166E-5    7.166831987890705E-5   -1.788500893430148E-5   -3.699043710140558E-1    3.338276487162359E-1
 1.000596161600000E+10  -4.988030520320918E-1    5.861230556251099E-2    8.650185584229442E-5   -3.965254763598461E-5    9.629869821429026E-5   -1.319688332790208E-5   -3.695009492622963E-1    3.339993782202821E-1
 1.000596540180000E+10  -4.988980509141972E-1    5.893136008447147E-2    1.215960294329455E-4    4.519546317339301E-6    5.966755437509961E-5   -4.883407316791527E-6   -3.692182953036626E-1    3.341716999004299E-1
 1.000596918760000E+10  -4.988450651026194E-1    5.919431508217037E-2    1.005138539955887E-4    2.822899157095713E-5    1.093923057798263E-4    1.219692246372057E-5   -3.690702915079597E-1    3.342783605892188E-1
 1.000597297340000E+10  -4.987721431737579E-1    5.932929448192907E-2    1.340468875397836E-4    1.003379918386376E-5    1.298591440586340E-4    2.406430666982967E-5   -3.688776797757677E-1    3.346975930411520E-1
 1.000597675920000E+10  -4.989688414439969E-1    5.968445487357122E-2    1.018005981533950E-4   -1.153089868303532E-5    9.857992528288963E-5   -4.784987131151364E-6   -3.686989922666155E-1    3.348055890514469E-1
 1.000598054500000E+10  -4.986925737251847E-1    5.997319217419458E-2    1.060715431720443E-4    3.286769727915176E-5    1.295444261268801E-4    4.243034207161799E-5   -3.683809134532360E-1    3.352445920830410E-1
 1.000598433080000E+10  -4.987545037615028E-1    5.995240734462314E-2    1.395637171947053E-4    1.357716636476706E-5    1.394621094156763E-4    4.891331093027547E-5   -3.682575206739572E-1    3.352943036729183E-1
 1.000598811660000E+10  -4.987571628429611E-1    6.037524212131817E-2    1.419882938544270E-4    5.518228478956621E-5    1.157259937084671E-4    6.903452084024760E-5   -3.679885041995944E-1    3.356505150515178E-1
 1.000599190240000E+10  -4.986547608270092E-1    6.071202657222214E-2    1.235854893491984E-4    3.536075086161426E-5    1.542953542857541E-4    1.684943342873550E-5   -3.678746827165734E-1    3.357503023772623E-1
 1.000599568820000E+10  -4.987386443335592E-1    6.081532538603349E-2    1.154424440403835E-4    5.754173776009243E-5    1.248122576391920E-4    4.074529093100031E-5   -3.678212130733861E-1    3.361514429418502E-1
 1.000599947400000E+10  -4.987186034612582E-1    6.107918595513585E-2    1.292386023107576E-4    5.886092311707945E-5    1.138693577744496E-4    8.679676370375018E-5   -3.673588994634546E-1    3.363681971689624E-1
 1.000600325980000E+10  -4.987562088205924E-1    6.133124507793785E-2    1.501345134569372E-4    7.381221521990890E-5    1.511545947264536E-4    7.007472613819919E-5   -3.670140131609819E-1    3.365374485914956E-1
 1.000600704560000E+10  -4.986194669155001E-1    6.171410963234570E-2    1.406005287045166E-4    9.065548570568027E-5    1.444653424449096E-4    6.388095796013853E-5   -3.668391501830014E-1    3.369579294534716E-1
 1.000601083140000E+10  -4.986476580806901E-1    6.188118538601740E-2    1.714167818388462E-4    7.346013025050963E-5    1.763966524293876E-4    7.739402009869477E-5   -3.666941026378597E-1    3.371654242202602E-1
 1.000601461720000E+10  -4.985260896213980E-1    6.209677824242256E-2    1.949341682745393E-4    7.336268303521261E-5    1.815595089856591E-4    7.622889687959616E-5   -3.665093970652908E-1    3.374053889078429E-1
 1.000601840300000E+10  -4.985562684118664E-1    6.233699550009660E-2    1.951623044255319E-4    9.406456682644727E-5    1.372304300434255E-4    8.264819663890019E-5   -3.661941673309719E-1    3.377584616505593E-1
 1.000602218880000E+10  -4.984680322120610E-1    6.261232974824020E-2    1.648029158907079E-4    1.232585931789655E-4    1.827589371218987E-4    1.089042656356299E-4   -3.660719594552139E-1    3.378342907671214E-1
 1.000602597460000E+10  -4.985038858820383E-1    6.276443221782103E-2    1.776189264990221E-4    1.244895662086339E-4    1.465769514993574E-4    1.262591082119142E-4   -3.658204969427265E-1    3.382345660892783E-1
 1.000602976040000E+10  -4.983750323220231E-1    6.303466297999538E-2    1.981271204646501E-4    1.213727861821932E-4    1.825004536497309E-4    1.362472102439949E-4   -3.654000149380244E-1    3.383711794477282E-1
 1.000603354620000E+10  -4.983578680265858E-1    6.328915579558397E-2    1.896792474009285E-4    1.401408826253101E-4    1.557576507113005E-4    1.280045282960322E-4   -3.652707036989241E-1    3.386079225700068E-1
 1.000603733200000E+10  -4.984357920396691E-1    6.361282597546160E-2    2.049171145436287E-4    1.329483809192376E-4    1.966469111317664E-4    1.400309814800072E-4   -3.649987491149430E-1    3.389538883345428E-1
 1.000604111780000E+10  -4.984098157587410E-1    6.383863117263927E-2    2.096033844711940E-4    1.387084797267159E-4    2.021964311435399E-4    1.514306797276105E-4   -3.646995120965517E-1    3.391511752870172E-1
 1.000604490360000E+10  -4.984172608768856E-1    6.400293833413662E-2    2.258807969861636E-4    1.721195494334920E-4    1.875425427491859E-4    1.861245352067968E-4   -3.647291622625718E-1    3.394535281749822E-1
 1.000604868940000E+10  -4.982928627717924E-1    6.429968142718394E-2    2.293068972225058E-4    1.544817257460517E-4    2.437987161609525E-4    1.842982765892690E-4   -3.642607671646528E-1    3.396059137282952E-1
 1.000605247520000E+10  -4.983723287108948E-1    6.451840019205432E-2    2.462064638860464E-4    1.524561887624258E-4    2.052664131065755E-4    1.768447756116291E-4   -3.642735503960208E-1    3.398577840799044E-1
 1.000605626100000E+10  -4.983391293643213E-1    6.482924504377272E-2    2.699281454875045E-4    1.884442391043887E-4    2.218351486869273E-4    1.953378533566921E-4   -3.636823099178498E-1    3.402342173169315E-1
 1.000606004680000E+10  -4.983492260604613E-1    6.508471491085782E-2    2.584358107624669E-4    1.916935252929936E-4    2.390826995500085E-4    2.174388728246632E-4   -3.635947778522959E-1    3.404994936273957E-1
 1.000606383260000E+10  -4.983588238509528E-1    6.534257417595922E-2    2.384601713072540E-4    2.141566963623123E-4    2.608307961683750E-4    2.024810586172492E-4   -3.634131372399158E-1    3.407304254985284E-1
 1.000606761840000E+10  -4.984093808186014E-1    6.558699175564005E-2    2.548389508097478E-4    1.944066226109137E-4    2.510681581277901E-4    2.210326532339173E-4   -3.631723286348576E-1    3.409346728591710E-1
 1.000607140420000E+10  -4.981600239392286E-1    6.586444018814012E-2    2.459300543831003E-4    2.077620509548743E-4    2.396487836737625E-4    2.672565341267791E-4   -3.628439872422897E-1    3.412024969242957E-1
 1.000607519000000E+10  -4.982646149177380E-1    6.611086868989770E-2    3.017013512481361E-4    2.100621254351245E-4    2.713137918569077E-4    2.373386865067761E-4   -3.626439602038631E-1    3.415131941124672E-1
 1.000607897580000E+10  -4.980832674422403E-1    6.637336689646117E-2    2.695909981445141E-4    2.313745255546845E-4    2.819466268640940E-4    2.604120461235847E-4   -3.623681889705420E-1    3.418163820659797E-1
 1.000608276160000E+10  -4.980090211341046E-1    6.647881647447043E-2    2.899019628196486E-4    2.550243974935670E-4    2.853019356171625E-4    2.814078902946773E-4   -3.620796674282357E-1    3.419607148539797E-1
 1.000608654740000E+10  -4.981762166855660E-1    6.679539732382779E-2    3.108847030875795E-4    2.853196580868089E-4    2.961257906855750E-4    2.729255870783121E-4   -3.619613225226713E-1    3.421488126548857E-1
 1.000609033320000E+10  -4.980727362977619E-1    6.713497380339131E-2    3.166932427696398E-4    2.891736517123924E-4    2.957803375273636E-4    2.653492330452613E-4   -3.615854824472539E-1    3.425981941771246E-1
 1.000609411900000E+10  -4.980758651428685E-1    6.720428811341203E-2    3.218966780772237E-4    2.810012755969335E-4    3.231189071854835E-4    3.105551443030548E-4   -3.614359088100124E-1    3.426420960951482E-1
 1.000609790480000E+10  -4.979753050969914E-1    6.748375858309237E-2    3.273476143842967E-4    2.864128636989748E-4    3.009312342567847E-4    2.814985280220696E-4   -3.610893799378178E-1    3.429426447602122E-1
 1.000610169060000E+10  -4.979900628023762E-1    6.780377823226154E-2    3.291754266021665E-4    2.890627581173985E-4    2.847180590073594E-4    3.130207837459521E-4   -3.609339572276064E-1    3.431904847930027E-1
 1.000610547640000E+10  -4.980898331372147E-1    6.786054174480517E-2    3.561625002142401E-4    3.230759433315378E-4    3.056248967508476E-4    3.124945529539821E-4   -3.605368200673069E-1    3.435994727082565E-1
 1.000610926220000E+10  -4.980262226841221E-1    6.823184683845454E-2    3.604231293418243E-4    3.154412903763347E-4    3.257242293413304E-4    3.354536215921702E-4   -3.603816192235560E-1    3.438597534890606E-1
 1.000611304800000E+10  -4.978089244668514E-1    6.845149657334774E-2    3.486600844139402E-4    3.468769666344184E-4    3.132623440269911E-4    3.107841590942638E-4   -3.599958462527835E-1    3.440636498933470E-1
 1.000611683380000E+10  -4.979008501120125E-1    6.875750855523530E-2    3.745317243218635E-4    3.546699998554035E-4    3.608920862333660E-4    3.779418856839734E-4   -3.596921940600444E-1    3.444176994023170E-1
 1.000612061960000E+10  -4.979394872243929E-1    6.892722604245934E-2    3.821430250902187E-4    3.817765239969812E-4    3.808649680885966E-4    3.182828197607287E-4   -3.594968983921544E-1    3.446650519485050E-1
 1.000612440540000E+10  -4.978526748554946E-1    6.924334947574946E-2    4.119863821902142E-4    3.620035216375239E-4    3.773363729628732E-4    3.832473710070970E-4   -3.592794242719279E-1    3.449634530108365E-1
 1.000612819120000E+10  -4.978191573302945E-1    6.942604609746605E-2    4.173879190846848E-4    3.972363359811328E-4    3.722501938292475E-4    3.946749325923882E-4   -3.589536847067886E-1    3.452170715821575E-1
 1.000613197700000E+10  -4.979412219731992E-1    6.971962174677936E-2    4.074795933976618E-4    3.958572835256529E-4    3.722818935855301E-4    4.289621320010773E-4   -3.585865441643291E-1    3.455849175789923E-1
 1.000613576280000E+10  -4.978807042321923E-1    6.990897645753322E-2    4.192322130795697E-4    4.183776395265856E-4    3.914473260568200E-4    4.339652302835483E-4   -3.583135659524819E-1    3.458272834539765E-1
 1.000613954860000E+10  -4.977010739189557E-1    7.024310279632762E-2    4.294273290435490E-4    4.104068934426624E-4    3.998932982355315E-4    4.665067950657044E-4   -3.579266009791776E-1    3.460044133165592E-1
 1.000614333440000E+10  -4.978034940495798E-1    7.040188150457416E-2    4.408164916920409E-4    4.499308434708991E-4    4.221214014707114E-4    4.518553881067997E-4   -3.577004467500453E-1    3.463909525977427E-1
 1.000614712020000E+10  -4.976544118355178E-1    7.075994081355395E-2    4.718244875411487E-4    4.307832107429121E-4    4.582317347287687E-4    4.777259296514468E-4   -3.574302243674203E-1    3.464737285727773E-1
 1.000615090600000E+10  -4.975443541097861E-1    7.098642584087940E-2    4.691875400741232E-4    4.638192523989840E-4    4.340529892119893E-4    4.647941798841768E-4   -3.572236349073306E-1    3.468437345018287E-1
 1.000615469180000E+10  -4.976814130046938E-1    7.118178791293979E-2    4.641485876451153E-4    4.881336174338101E-4    4.711489533148995E-4    4.722161444558547E-4   -3.568848315417052E-1    3.471500926058923E-1
 1.000615847760000E+10  -4.975914021375050E-1    7.153927343747792E-2    4.806846391308869E-4    4.816782351337226E-4    4.826124963224861E-4    5.045374729528837E-4   -3.564799165294763E-1    3.474628609297368E-1
 1.000616226340000E+10  -4.975676195081371E-1    7.167636823991791E-2    4.789645823763709E-4    5.018172001471357E-4    4.182565456904488E-4    5.307981397539704E-4   -3.561767783107939E-1    3.477287374395426E-1
 1.000616604920000E+10  -4.976000802056272E-1    7.183198725618684E-2    5.238441159936271E-4    4.884919659565220E-4    4.707658727435227E-4    5.134426590722365E-4   -3.559235092005648E-1    3.479332066210767E-1
 1.000616983500000E+10  -4.974673685343063E-1    7.232896576361250E-2    5.339811577571356E-4    5.363174980315061E-4    4.761628802539135E-4    5.249951351798125E-4   -3.556683349504426E-1    3.483281758378505E-1
 1.000617362080000E+10  -4.975079838523213E-1    7.241491696097214E-2    5.439308557061585E-4    5.352730394816092E-4    5.238291855648913E-4    5.280677277248380E-4   -3.554364193044584E-1    3.484816640618587E-1
 1.000617740660000E+10  -4.973080971070558E-1    7.277462602528656E-2    5.581089925037322E-4    5.725455765876080E-4    5.141521665414507E-4    5.507649950443187E-4   -3.549813119512580E-1    3.488415228905902E-1
 1.000618119240000E+10  -4.973468133215205E-1    7.299592402446031E-2    5.695418390361591E-4    5.825803247381225E-4    4.910802288027228E-4    5.581573127825351E-4   -3.547875059642336E-1    3.491933896553729E-1
 1.000618497820000E+10  -4.973596784278600E-1    7.316454174443073E-2    5.702602183122955E-4    5.676434336158736E-4    5.354335302124711E-4    6.244929310272236E-4   -3.543989006581388E-1    3.495086508511653E-1
 1.000618876400000E+10  -4.974158456238148E-1    7.334301165811796E-2    5.948464315187959E-4    6.039187134977517E-4    5.553273526098984E-4    6.293367843488085E-4   -3.541300723895670E-1    3.497794064869352E-1
