#  HZ   S   RI   R     50.00 
! Rohde & Schwarz Vector Network Analyzer 
! Rohde-Schwarz,ZNB20-2Port,1311601062101988,3.16
! Created: UTC 3/20/2024, 12:02:34 PM
! freq[Hz]                re:S11                  im:S11                  re:S21                  im:S21                  re:S12                  im:S12                  re:S22                  im:S22
 1.000589259200000E+10  -4.994504681341845E-1    5.402125343151882E-2    1.082592631255796E-5   -1.631203739109899E-4    3.717897105378482E-5   -1.011771841274974E-4   -3.734582580853663E-1    3.294950585665293E-1
 1.000589617235000E+10  -4.994517061305677E-1    5.425427628422696E-2    4.234587631433213E-5   -1.199274826872819E-4   -9.765083176776926E-6   -1.214250168732313E-4   -3.731534820466619E-1    3.297744846884219E-1
 1.000589975270000E+10  -4.993386999627945E-1    5.455010604432373E-2    5.622160060874624E-6   -1.293868541985618E-4    1.951667521578632E-5   -1.218844467645319E-4   -3.730381368709344E-1    3.298870712344696E-1
 1.000590333305000E+10  -4.992797856269886E-1    5.480083375772238E-2    4.349452367223445E-5   -1.607071826555236E-4    1.580178750429372E-5   -1.080362487740033E-4   -3.727689591208196E-1    3.303535353455820E-1
 1.000590691340000E+10  -4.992844007536736E-1    5.496353421781462E-2    3.366076492582744E-5   -9.779366678980026E-5    6.550099596149377E-5   -1.177763430752257E-4   -3.726530796471761E-1    3.304319848393583E-1
 1.000591049375000E+10  -4.993567560327916E-1    5.513667356040868E-2    2.736746158978936E-5   -1.241386887554208E-4    5.117166298595304E-5   -1.068265897312479E-4   -3.725303704749608E-1    3.306996033557398E-1
 1.000591407410000E+10  -4.993443727090743E-1    5.544704274586247E-2    3.758544643755204E-5   -1.023688999764144E-4    6.887580203822523E-5   -1.201923873863505E-4   -3.722830274833146E-1    3.307381222253354E-1
 1.000591765445000E+10  -4.991728655506066E-1    5.561578459157077E-2    4.433838289160599E-5   -1.047744837210981E-4    2.301490668627042E-5   -1.291360230221223E-4   -3.719653855208545E-1    3.310974002929689E-1
 1.000592123480000E+10  -4.991203579361921E-1    5.586766120176635E-2    6.785124552359970E-5   -9.055760443994746E-5    7.666162244012669E-5   -7.340803467648823E-5   -3.717711616259112E-1    3.313992218851302E-1
 1.000592481515000E+10  -4.991717045851722E-1    5.623165759243985E-2    8.048397894826366E-5   -6.598033862041554E-5    9.156526525352656E-5   -9.938417397465069E-5   -3.715073084718035E-1    3.316116696006143E-1
 1.000592839550000E+10  -4.991484281124618E-1    5.636163067748975E-2    4.758630206758937E-5   -1.019451924797758E-4    5.023109923844269E-5   -1.013721094548131E-4   -3.714081600308257E-1    3.317656384056920E-1
 1.000593197585000E+10  -4.991339985419969E-1    5.655819614414620E-2    4.585642601294416E-5   -6.998274852093604E-5    5.001073222899109E-5   -6.740203531592599E-5   -3.713636852978077E-1    3.320087953782168E-1
 1.000593555620000E+10  -4.991841566221181E-1    5.698439840771322E-2    6.665573371892610E-5   -8.140542126851109E-5    3.242721159234639E-5   -3.163378785484691E-5   -3.710098812657889E-1    3.321874329117483E-1
 1.000593913655000E+10  -4.990845991572792E-1    5.707556427098322E-2    7.391831301695954E-5   -7.854745379697399E-5    5.517947941377662E-5   -5.636448513935939E-5   -3.708792432589977E-1    3.324526109742664E-1
 1.000594271690000E+10  -4.990647026455858E-1    5.726440059919966E-2    5.834702792719540E-5   -5.005137605398796E-5    8.913862940271014E-5   -1.031112667713103E-4   -3.707181979849201E-1    3.327843998263507E-1
 1.000594629725000E+10  -4.990279855908250E-1    5.757973482017360E-2    6.952349439851595E-5   -4.148808611790369E-5    5.088121458016702E-5   -7.732321683407429E-5   -3.704661161652194E-1    3.329076736650372E-1
 1.000594987760000E+10  -4.991359238334059E-1    5.787004754647409E-2    6.238026138304116E-5   -3.627935305717802E-5    9.644101323572573E-5   -5.956087159525395E-5   -3.703061206055657E-1    3.331711895667840E-1
 1.000595345795000E+10  -4.990412202542082E-1    5.800676702447428E-2    8.389156748275389E-5   -2.697763324647887E-5    9.705842482881933E-5   -2.036903049628811E-5   -3.699963660102532E-1    3.332728721873882E-1
 1.000595703830000E+10  -4.990755806233029E-1    5.829123970874941E-2    1.097277653688795E-4   -2.677648542488982E-5    8.072874321328358E-5   -3.740949731083303E-5   -3.697915168891915E-1    3.336704519941154E-1
 1.000596061865000E+10  -4.989383625874236E-1    5.847425451541832E-2    1.087182891842401E-4   -3.398384568978447E-5    1.018737362230767E-4   -1.900555113252232E-5   -3.696015680311363E-1    3.337194231535590E-1
 1.000596419900000E+10  -4.989460367730015E-1    5.868319536888150E-2    9.037096774332974E-5   -3.715491623790609E-5    1.048874162372889E-4    2.637305268959034E-5   -3.694562737225966E-1    3.340394651171697E-1
 1.000596777935000E+10  -4.989196740234050E-1    5.899775143600072E-2    9.385229576427338E-5   -1.759243775482152E-6    1.060316325914088E-4    2.252911234847156E-5   -3.692915157388046E-1    3.342252128770770E-1
 1.000597135970000E+10  -4.989570989005293E-1    5.912650470039124E-2    1.242823206686650E-4   -1.669584799980003E-5    1.128623862868907E-4   -1.527322412846882E-6   -3.690114697767016E-1    3.345411308319330E-1
 1.000597494005000E+10  -4.989340950352093E-1    5.928585801133409E-2    7.695251212430576E-5   -6.546316485885327E-6    1.248922492835244E-4    4.647251640171707E-5   -3.689975960251812E-1    3.346725286389894E-1
 1.000597852040000E+10  -4.988561689130968E-1    5.959374024979760E-2    1.079227059015452E-4    7.788989811272955E-6    1.177172606041386E-4   -1.717377921116639E-6   -3.686232492476093E-1    3.349913679949055E-1
 1.000598210075000E+10  -4.988055191941331E-1    5.997644414783451E-2    1.364903132311284E-4    2.507961652260794E-5    8.862955826218983E-5    3.545667486045892E-5   -3.685132375351363E-1    3.352943971374540E-1
 1.000598568110000E+10  -4.988825647384720E-1    6.008156769365221E-2    1.251559524378826E-4    1.366550113596336E-5    1.020458243453463E-4    7.431605638009171E-5   -3.682026081395309E-1    3.354779307870276E-1
 1.000598926145000E+10  -4.987049433384785E-1    6.040075394846681E-2    1.420941513614788E-4    4.051491794291818E-5    1.245338863890096E-4    4.851022432970839E-5   -3.680513924515633E-1    3.355865916794982E-1
 1.000599284180000E+10  -4.986886812175182E-1    6.063644500765487E-2    1.242623547623431E-4    4.349581563791504E-5    1.373302140806715E-4    7.001186899643155E-5   -3.678122466648223E-1    3.360025700503170E-1
 1.000599642215000E+10  -4.988320397669601E-1    6.091506788851285E-2    1.138503802698273E-4    4.879639104049433E-5    1.399108422611969E-4    3.514728722482331E-5   -3.675655360725122E-1    3.361167676177146E-1
 1.000600000250000E+10  -4.987956033961026E-1    6.111957200187162E-2    1.330132178459567E-4    3.995942930333101E-5    1.210954331035035E-4    4.255929314191117E-5   -3.673825800036011E-1    3.365164060526693E-1
 1.000600358285000E+10  -4.987828710260748E-1    6.131645625179160E-2    1.509962862022902E-4    5.614212470060549E-5    1.512777339938466E-4    7.585986094575998E-5   -3.672070639426122E-1    3.366891979197273E-1
 1.000600716320000E+10  -4.988561403576155E-1    6.150944149570653E-2    1.414344348847860E-4    6.627801321945365E-5    1.335543921026675E-4    5.234354622042176E-5   -3.669791293697039E-1    3.368443125638163E-1
 1.000601074355000E+10  -4.986231175201091E-1    6.178132053099580E-2    1.578470380768261E-4    6.934829019885277E-5    1.633357854921130E-4    1.042735294099780E-4   -3.666827941644147E-1    3.371336545074091E-1
 1.000601432390000E+10  -4.985923982698280E-1    6.205273804855317E-2    1.557937186497224E-4    9.228711649453679E-5    1.907144221920345E-4    1.207695803005896E-4   -3.665824258754361E-1    3.373745028184268E-1
 1.000601790425000E+10  -4.986009704544573E-1    6.226414601357737E-2    1.753857671895969E-4    8.459994021498754E-5    1.729539078060546E-4    9.225279925277176E-5   -3.661799175896943E-1    3.376020907041222E-1
 1.000602148460000E+10  -4.985279096781142E-1    6.256611994091807E-2    1.656797026486692E-4    1.068285929554755E-4    1.428156661555134E-4    1.207871221312851E-4   -3.660730645237701E-1    3.376732869778515E-1
 1.000602506495000E+10  -4.986638563598845E-1    6.269433533242023E-2    1.950221614242212E-4    9.774322966961287E-5    1.693716589818658E-4    1.241952306066494E-4   -3.659209917943272E-1    3.379165562433592E-1
 1.000602864530000E+10  -4.986150906368464E-1    6.284931509562591E-2    2.003247969410573E-4    1.003903302431277E-4    2.418711730304906E-4    1.540356453412429E-4   -3.656680354331557E-1    3.382485840190588E-1
 1.000603222565000E+10  -4.985506806829925E-1    6.313725911844012E-2    1.808757507612726E-4    1.217434567728649E-4    2.136361423727993E-4    1.139521216190194E-4   -3.652881437405840E-1    3.385728882719699E-1
 1.000603580600000E+10  -4.984530102155585E-1    6.346862713852863E-2    1.995882993232628E-4    1.520394836874013E-4    1.876339661699071E-4    1.102860399639990E-4   -3.651615165843653E-1    3.387073903982260E-1
 1.000603938635000E+10  -4.985439292494017E-1    6.358163381406416E-2    2.129537675654888E-4    1.381252839976310E-4    1.823450278335948E-4    1.714977347270054E-4   -3.650120906761737E-1    3.391412071550053E-1
 1.000604296670000E+10  -4.984773234054385E-1    6.392157602046644E-2    2.092002344238126E-4    1.572159741703532E-4    1.926033176996028E-4    1.511201106092477E-4   -3.647155101932152E-1    3.393637307317012E-1
 1.000604654705000E+10  -4.983775288429234E-1    6.423747755476933E-2    2.318506740163086E-4    1.728309228491521E-4    2.189843457826682E-4    1.718686517545301E-4   -3.644894936446227E-1    3.394772057516914E-1
 1.000605012740000E+10  -4.983629923632120E-1    6.432016254980311E-2    2.158361091202577E-4    1.474613044864323E-4    1.867529054409107E-4    1.490635287141553E-4   -3.642360772290845E-1    3.397044665708885E-1
 1.000605370775000E+10  -4.983703877222272E-1    6.456364381914081E-2    2.363119120309510E-4    1.763748399028200E-4    2.349046847529405E-4    1.749558766633352E-4   -3.640101662763105E-1    3.399791103294622E-1
 1.000605728810000E+10  -4.983820440332982E-1    6.465132954844277E-2    2.590950508265119E-4    1.957304004883913E-4    2.384030771674680E-4    1.808730499559710E-4   -3.638122960302070E-1    3.402156794046347E-1
 1.000606086845000E+10  -4.981544642991599E-1    6.507630341605883E-2    2.526919165252128E-4    1.988667675688847E-4    2.542713942477706E-4    1.900596249391413E-4   -3.635450858833464E-1    3.403915439908197E-1
 1.000606444880000E+10  -4.984088341152356E-1    6.539035502151989E-2    2.365897494565244E-4    2.198244411288511E-4    2.534444468121194E-4    2.336829650060913E-4   -3.632940126108447E-1    3.407855156148249E-1
 1.000606802915000E+10  -4.982847496209264E-1    6.548920943984358E-2    2.653255624274721E-4    2.042683583973509E-4    2.517538349775114E-4    2.012193531593398E-4   -3.632384889068590E-1    3.410853145465814E-1
 1.000607160950000E+10  -4.982298635091949E-1    6.563682612619225E-2    2.565340462620707E-4    2.624908428632811E-4    2.803952627249839E-4    2.306886797115586E-4   -3.627688197741268E-1    3.411382390208101E-1
 1.000607518985000E+10  -4.982773218675593E-1    6.586065727251511E-2    2.835537355727860E-4    2.103532642733714E-4    2.566138829145425E-4    2.371171721801101E-4   -3.627083213871795E-1    3.413451315758039E-1
 1.000607877020000E+10  -4.982560746377614E-1    6.625642143323121E-2    2.846894240884206E-4    2.369532992523651E-4    3.159345693390161E-4    2.660427786332486E-4   -3.625162168209792E-1    3.418049001975993E-1
 1.000608235055000E+10  -4.981529765265995E-1    6.649050934714547E-2    2.975384992851019E-4    2.595627948750190E-4    2.629689485774665E-4    2.519135130348704E-4   -3.621481864299326E-1    3.419892275613585E-1
 1.000608593090000E+10  -4.982047398409634E-1    6.671204500819511E-2    2.957096718431162E-4    2.300690241900134E-4    2.655393465125071E-4    2.838299242568463E-4   -3.618702304315990E-1    3.422108019064976E-1
 1.000608951125000E+10  -4.981524341126857E-1    6.688111329722707E-2    3.257741672991198E-4    2.742741405371234E-4    3.146166683726615E-4    2.675361558934236E-4   -3.616596644541939E-1    3.424075831407072E-1
 1.000609309160000E+10  -4.981538903140201E-1    6.720022703894869E-2    3.275326002104004E-4    2.621083931098274E-4    3.203458351296284E-4    2.934890208009290E-4   -3.615900397100644E-1    3.426828795688762E-1
 1.000609667195000E+10  -4.980780986338232E-1    6.736076078100443E-2    3.142921821133451E-4    2.908596610757171E-4    3.374682835074059E-4    3.175938890711980E-4   -3.613164133836726E-1    3.430080761842718E-1
 1.000610025230000E+10  -4.981065593885887E-1    6.758488596790534E-2    3.365438380311207E-4    2.802949765106466E-4    2.994674529868913E-4    3.267039270567922E-4   -3.610197955999216E-1    3.431829408415641E-1
 1.000610383265000E+10  -4.980759386610973E-1    6.794399722102019E-2    3.287847099166538E-4    3.189761077961139E-4    3.139039075562303E-4    3.004291560644028E-4   -3.608021926223111E-1    3.434582334672196E-1
 1.000610741300000E+10  -4.981048448617989E-1    6.798120226681739E-2    3.501065810958723E-4    3.215883633967070E-4    3.394794646090028E-4    3.265737154583165E-4   -3.604717591903595E-1    3.437374638745921E-1
 1.000611099335000E+10  -4.980562078542558E-1    6.833941833247625E-2    3.558397477522869E-4    3.287054915576472E-4    3.589749741909048E-4    3.385995690746541E-4   -3.602712898977365E-1    3.439902833110816E-1
 1.000611457370000E+10  -4.980039786311899E-1    6.870577187386834E-2    3.777334218617675E-4    3.225833186899679E-4    3.490860842043849E-4    3.478709581215250E-4   -3.599589191984494E-1    3.442591711963886E-1
 1.000611815405000E+10  -4.979433515695855E-1    6.882148449854289E-2    3.766448302735839E-4    3.389496529006633E-4    3.349614390684345E-4    3.813751564543088E-4   -3.596782636574659E-1    3.445407997675503E-1
 1.000612173440000E+10  -4.978707005133718E-1    6.896548192412773E-2    3.956802570170456E-4    3.683318109105773E-4    3.597729869549149E-4    3.944341231041358E-4   -3.594329295888337E-1    3.448639566006688E-1
 1.000612531475000E+10  -4.979883660959492E-1    6.915329100155999E-2    3.715645464657232E-4    3.864908228490503E-4    3.923629195587876E-4    3.919127358710593E-4   -3.592600149923105E-1    3.449863629598015E-1
 1.000612889510000E+10  -4.980130601368854E-1    6.952374305459096E-2    4.151173222484987E-4    3.804799337373068E-4    3.673823224844162E-4    3.728423928614485E-4   -3.589091779855646E-1    3.452839641049261E-1
 1.000613247545000E+10  -4.979293966352232E-1    6.967043254459317E-2    4.387455091868546E-4    4.155093050680979E-4    3.927413157250142E-4    4.131459362688374E-4   -3.584551527517250E-1    3.456235157125733E-1
 1.000613605580000E+10  -4.977908678371550E-1    6.993310227718447E-2    4.108751338659911E-4    3.864050874991193E-4    3.903703524994542E-4    3.737964026210925E-4   -3.584527768064507E-1    3.457922644287740E-1
 1.000613963615000E+10  -4.977498249452429E-1    7.010236015032546E-2    4.259733474417057E-4    4.156655407308892E-4    3.527124299296291E-4    4.274700289903831E-4   -3.582775684297053E-1    3.461078214060776E-1
 1.000614321650000E+10  -4.978140293605438E-1    7.042736741008825E-2    4.302974021477842E-4    4.103328414815743E-4    3.903310953026310E-4    4.359094324515965E-4   -3.578547667151650E-1    3.462940197695942E-1
 1.000614679685000E+10  -4.978217758305618E-1    7.057565592327807E-2    4.514544069442631E-4    4.548258463221182E-4    4.418381403809982E-4    4.373632928767344E-4   -3.575848431541390E-1    3.464614670825504E-1
 1.000615037720000E+10  -4.978556777627773E-1    7.093575154521604E-2    4.639562319619563E-4    4.517364111458173E-4    4.085796560781408E-4    4.657462128718833E-4   -3.573086663794337E-1    3.467995066861108E-1
 1.000615395755000E+10  -4.977557100320713E-1    7.119360773440150E-2    4.812314278803274E-4    4.574255387804973E-4    4.620927727692728E-4    4.790658596275516E-4   -3.570384770843056E-1    3.470688364284870E-1
 1.000615753790000E+10  -4.977689687828477E-1    7.136771407857087E-2    4.933923108993659E-4    4.818149255027063E-4    4.390075065213096E-4    5.139954905007076E-4   -3.567492241091074E-1    3.472492374524744E-1
 1.000616111825000E+10  -4.976376629706937E-1    7.158938130138956E-2    4.800800054997665E-4    4.631958352086218E-4    4.275626107387428E-4    4.773532155768893E-4   -3.562936083822699E-1    3.476493124398620E-1
 1.000616469860000E+10  -4.976087881011738E-1    7.175027256876698E-2    5.007645071995734E-4    5.250666229965820E-4    4.463592804654038E-4    5.257135252204287E-4   -3.560684004092936E-1    3.479854090565198E-1
 1.000616827895000E+10  -4.976088876522999E-1    7.202384450817854E-2    5.280590840358039E-4    5.093813171052040E-4    5.040751178536912E-4    5.334408724020041E-4   -3.558743901527876E-1    3.479898958036515E-1
 1.000617185930000E+10  -4.976587436392532E-1    7.224853337915985E-2    5.145740906070885E-4    5.355064932393898E-4    4.798930071800112E-4    5.354284840041019E-4   -3.553873552980660E-1    3.484281110562785E-1
 1.000617543965000E+10  -4.976008138813258E-1    7.246329158131729E-2    5.331828305411266E-4    5.639368509290154E-4    5.165164046751902E-4    5.427580877236957E-4   -3.552978483877863E-1    3.486490434574843E-1
 1.000617902000000E+10  -4.975371041126456E-1    7.276204391765186E-2    5.390624669820684E-4    5.696737030956072E-4    5.645684880131116E-4    5.549886733756613E-4   -3.549048003369457E-1    3.490798867524411E-1
 1.000618260035000E+10  -4.974940700722040E-1    7.306151102193875E-2    5.761324034905193E-4    5.774319125375579E-4    4.909124176970734E-4    5.602110187609603E-4   -3.547249659406145E-1    3.491694979672533E-1
 1.000618618070000E+10  -4.973388066121889E-1    7.330288036319860E-2    5.841225718250615E-4    5.929616201973148E-4    5.660818736427618E-4    5.743026052500828E-4   -3.544289892811350E-1    3.496004075089070E-1
 1.000618976105000E+10  -4.974904844206228E-1    7.345283046765654E-2    6.079199794984802E-4    5.977468872651557E-4    5.957078583986199E-4    6.208468204937207E-4   -3.540253864355537E-1    3.497897579296976E-1
 1.000619334140000E+10  -4.975332386098094E-1    7.381249889393472E-2    6.085531540249642E-4    6.157160053205005E-4    5.549302657608794E-4    6.115418693693753E-4   -3.538707255283344E-1    3.501323583233172E-1
 1.000619692175000E+10  -4.973569634926577E-1    7.391301630846922E-2    6.425444485786281E-4    6.354360962790503E-4    5.482661450858500E-4    6.229920192230634E-4   -3.534386160840510E-1    3.502502525729831E-1
 1.000620050210000E+10  -4.973292950418153E-1    7.408186558665888E-2    6.505637058200927E-4    6.388736591457281E-4    6.018391185540137E-4    6.382958914610190E-4   -3.531232127332157E-1    3.505338108471015E-1
 1.000620408245000E+10  -4.973042372508622E-1    7.433060202341651E-2    6.490131997037937E-4    6.555016696384876E-4    5.893835241985632E-4    6.711447275601226E-4   -3.527228339736230E-1    3.508310461552543E-1
 1.000620766280000E+10  -4.972903333736478E-1    7.463770607907068E-2    6.442065626909004E-4    6.476796065556003E-4    6.484916340415465E-4    6.509171333011975E-4   -3.524792215418044E-1    3.512761864613817E-1
 1.000621124315000E+10  -4.972375518916562E-1    7.488803979494674E-2    6.706450170435754E-4    6.801497671894986E-4    6.304581324042412E-4    6.999239911173185E-4   -3.522654767849835E-1    3.513838615006083E-1
 1.000621482350000E+10  -4.972795834729566E-1    7.499312849249770E-2    7.144145710125484E-4    6.805174019740008E-4    6.572759534105588E-4    7.106961446298154E-4   -3.518627182117455E-1    3.517453760441613E-1
