#  HZ   S   RI   R     50.00 
! Rohde & Schwarz Vector Network Analyzer 
! Rohde-Schwarz,ZNB20-2Port,1311601062101988,3.16
! Created: UTC 3/20/2024, 12:02:51 PM
! freq[Hz]                re:S11                  im:S11                  re:S21                  im:S21                  re:S12                  im:S12                  re:S22                  im:S22
 1.000590907700000E+10  -4.990350707903441E-1    5.528945573323447E-2    4.620114246590946E-5   -1.265517014885302E-4    3.261379032967867E-5   -1.148492431212138E-4   -3.726204593555313E-1    3.304746227988508E-1
 1.000591261712500E+10  -4.990117398313311E-1    5.541536570499039E-2    1.937545356587088E-5   -9.433114067412144E-5    1.977002128490946E-5   -1.019367552492774E-4   -3.724134458910610E-1    3.306407321363011E-1
 1.000591615725000E+10  -4.989793809507536E-1    5.580501793662937E-2    5.771074158074612E-5   -8.751224843789576E-5    1.278887986257172E-5   -1.376523848616525E-4   -3.723039374499396E-1    3.308367535053847E-1
 1.000591969737500E+10  -4.990745965910605E-1    5.597540031729774E-2    3.165126936536243E-5   -1.074086331265958E-4    5.368334548255715E-5   -8.387373427279151E-5   -3.721148654211420E-1    3.310950978958602E-1
 1.000592323750000E+10  -4.989690792974139E-1    5.623121293784974E-2    2.124780666718568E-5   -9.245069894273306E-5    3.128462270468483E-5   -1.161513055941275E-4   -3.719871198893510E-1    3.312380196700427E-1
 1.000592677762500E+10  -4.989495301931937E-1    5.652113549666976E-2    3.830416145738318E-5   -9.504087136117348E-5    6.557580060777470E-5   -7.551463440525069E-5   -3.716570361184665E-1    3.316623083244847E-1
 1.000593031775000E+10  -4.989838525954133E-1    5.655240005892968E-2    2.092685969312520E-5   -7.301406016110444E-5    3.751157456549735E-5   -8.407288921682626E-5   -3.714558225066219E-1    3.318377020978781E-1
 1.000593385787500E+10  -4.989375835119951E-1    5.679406867877394E-2    5.627944698327564E-5   -4.635803223568671E-5    1.915332043570512E-5   -8.114715315114244E-5   -3.712474469685854E-1    3.322066552983099E-1
 1.000593739800000E+10  -4.989805614647072E-1    5.711736328800446E-2    5.332203410067071E-5   -7.697161242504269E-5    8.404797363502150E-5   -5.043010027930157E-5   -3.710466261662602E-1    3.321812573561403E-1
 1.000594093812500E+10  -4.988344265765706E-1    5.731624067723415E-2    5.809695251580945E-5   -1.024988164946298E-4    5.467322003527055E-5   -4.022061647457886E-5   -3.709488074808127E-1    3.325696701388415E-1
 1.000594447825000E+10  -4.988628317591436E-1    5.760670423071221E-2    6.467699179784397E-5   -4.940680483597142E-5    9.198547414395519E-5   -8.431655097305941E-5   -3.706286310198979E-1    3.326941870991447E-1
 1.000594801837500E+10  -4.987177936195480E-1    5.795949127060195E-2    3.706602100555520E-5   -5.845758765565457E-5    5.158792243198974E-5   -4.691545310375948E-5   -3.704751422589780E-1    3.329161520783638E-1
 1.000595155850000E+10  -4.989005997895777E-1    5.806104195385431E-2    4.542854153014120E-5   -5.025441254057346E-5    7.284430470422963E-5   -6.849089873580991E-5   -3.703188656829934E-1    3.331900145472603E-1
 1.000595509862500E+10  -4.987203061282209E-1    5.829455357161901E-2    5.785206576846132E-5   -5.272948620141694E-5    7.109463590206036E-5   -1.354951267782553E-5   -3.701675382586779E-1    3.333865256000581E-1
 1.000595863875000E+10  -4.987434473003804E-1    5.859608130557211E-2    8.498955803440321E-5   -2.694784401247366E-5    9.265148032843113E-5   -2.064896077715632E-5   -3.700892073105330E-1    3.336796695052388E-1
 1.000596217887500E+10  -4.986865973424949E-1    5.876832785811941E-2    6.603641350320698E-5   -4.714613251303669E-6    6.941135115274682E-5   -6.049429629595520E-6   -3.697166166479821E-1    3.339357540522337E-1
 1.000596571900000E+10  -4.987055294859462E-1    5.890667361363162E-2    5.887969510124037E-5   -2.863351139931128E-5    1.183389678661998E-4   -1.221142532005728E-5   -3.694931931707879E-1    3.339313967959683E-1
 1.000596925912500E+10  -4.985622951353391E-1    5.916089774080762E-2    9.787167216301986E-5    1.026829126386021E-5    7.406138113814011E-5   -2.982158952101708E-5   -3.693612450475346E-1    3.344422364160226E-1
 1.000597279925000E+10  -4.987522928932613E-1    5.942707026914471E-2    1.127260818912412E-4   -2.033847559774554E-5    8.055212239243398E-5   -1.390160288309539E-5   -3.691177696291789E-1    3.346255412638584E-1
 1.000597633937500E+10  -4.986249347353017E-1    5.967877218703765E-2    9.300768837826936E-5    5.091368396709782E-6    6.918387714529446E-5    1.987251889376737E-5   -3.689628102186543E-1    3.347140704060190E-1
 1.000597987950000E+10  -4.986330025020960E-1    5.987425416938780E-2    1.198871596226388E-4    7.816948518477726E-7    8.212029169054029E-5    1.810816782676324E-6   -3.687460732576356E-1    3.350831318325012E-1
 1.000598341962500E+10  -4.986371033451629E-1    6.004879950602955E-2    1.170813852109560E-4   -1.705062649443390E-6    1.079924307631231E-4   -1.606345976825590E-6   -3.684801894248733E-1    3.351831832532369E-1
 1.000598695975000E+10  -4.986928912760774E-1    6.034323993416244E-2    1.217504006560418E-4    7.430111905554929E-6    1.163365792939616E-4    1.412362674369751E-5   -3.683872838049216E-1    3.353735545683127E-1
 1.000599049987500E+10  -4.985816906650190E-1    6.059735138306240E-2    1.123547102647133E-4    2.084371193654417E-5    9.080430830862409E-5    1.639080586130302E-5   -3.681971440226193E-1    3.356747208014936E-1
 1.000599404000000E+10  -4.986791456178204E-1    6.095320650368026E-2    1.139003766679452E-4    3.144556100975572E-5    1.018613064828885E-4    3.651058849042444E-5   -3.679557850603562E-1    3.358474606324002E-1
 1.000599758012500E+10  -4.986649744769820E-1    6.106564852469244E-2    1.411110232420730E-4    4.465895317961385E-5    1.557733013827072E-4    3.433256636611293E-5   -3.677634417851316E-1    3.361001124252671E-1
 1.000600112025000E+10  -4.986083343824320E-1    6.124868523814479E-2    1.256996021669908E-4    2.665622041582100E-5    1.086071843799708E-4    6.307544385779622E-5   -3.676185769180899E-1    3.363183905245441E-1
 1.000600466037500E+10  -4.984344990458512E-1    6.156072685795546E-2    1.484891359645803E-4    7.112896089078545E-5    1.207984890908346E-4    5.517468086021965E-5   -3.673747470239903E-1    3.364604606032768E-1
 1.000600820050000E+10  -4.986072985936334E-1    6.172704422213963E-2    1.324016127022834E-4    5.532779917978817E-5    1.136213826093305E-4    8.734136685254243E-5   -3.671932943136301E-1    3.367709947786824E-1
 1.000601174062500E+10  -4.984121124973172E-1    6.200928748249224E-2    1.522719067039905E-4    3.304501332113080E-5    1.314415038832268E-4    6.022160913380062E-5   -3.668423717579612E-1    3.371379877339417E-1
 1.000601528075000E+10  -4.983522207830193E-1    6.233694129552495E-2    1.603610005486075E-4    7.249350707659268E-5    1.638896596160850E-4    8.738334408427113E-5   -3.666666106055054E-1    3.373061566035482E-1
 1.000601882087500E+10  -4.983722960759971E-1    6.249696811626124E-2    1.583763345516103E-4    5.675386234534309E-5    1.360452862209656E-4    1.140981351334815E-4   -3.665861889032100E-1    3.375573542875383E-1
 1.000602236100000E+10  -4.985575654053347E-1    6.279964872022090E-2    1.844962933899262E-4    8.550669262039287E-5    1.483977232271079E-4    1.059354590638296E-4   -3.661874035339338E-1    3.378592337317913E-1
 1.000602590112500E+10  -4.983076775911298E-1    6.302993096049742E-2    1.869861948883924E-4    8.869018425710815E-5    1.603991580891587E-4    1.161634727727928E-4   -3.660948341219984E-1    3.381138857072458E-1
 1.000602944125000E+10  -4.983681794574111E-1    6.324239491321448E-2    1.856855027523100E-4    1.253912552745847E-4    1.681781749082434E-4    1.359423367900817E-4   -3.657719948609473E-1    3.382384625387501E-1
 1.000603298137500E+10  -4.982171265977773E-1    6.340418281628407E-2    1.818084424232878E-4    1.031232842968753E-4    1.398113175728791E-4    1.181590520104762E-4   -3.656999762195267E-1    3.385486494404623E-1
 1.000603652150000E+10  -4.983633620078260E-1    6.371638471092361E-2    1.803525274460936E-4    1.260938192708643E-4    1.473195911567073E-4    1.302287229733155E-4   -3.654285275301236E-1    3.387752887991644E-1
 1.000604006162500E+10  -4.981376401201057E-1    6.385327992570521E-2    1.676761883545857E-4    1.157473324412395E-4    1.760958680898507E-4    1.415763350225810E-4   -3.651458302980172E-1    3.390090515172501E-1
 1.000604360175000E+10  -4.982906866321725E-1    6.406534342930710E-2    2.121888009993408E-4    1.399857650037106E-4    1.976577928559043E-4    1.787697533913151E-4   -3.649419186464521E-1    3.391397828262473E-1
 1.000604714187500E+10  -4.982183176708476E-1    6.425471671736852E-2    1.936033393103548E-4    1.638908741118595E-4    1.911574869358095E-4    1.586524696242301E-4   -3.647398485218887E-1    3.393155056098178E-1
 1.000605068200000E+10  -4.983270482768798E-1    6.450996904498640E-2    2.372631501365707E-4    1.550506475773927E-4    2.089054156620884E-4    1.696560091688065E-4   -3.646149383368309E-1    3.396500066584234E-1
 1.000605422212500E+10  -4.982091220622853E-1    6.477812866343276E-2    2.157995007233613E-4    1.532762103200949E-4    1.925848202308805E-4    1.329469704301391E-4   -3.643250520590258E-1    3.398820421601708E-1
 1.000605776225000E+10  -4.983263511122504E-1    6.501181822146751E-2    2.178511279202973E-4    1.649938083363197E-4    2.062320850146524E-4    1.925324465133876E-4   -3.641517599696701E-1    3.401641184923468E-1
 1.000606130237500E+10  -4.981639613229629E-1    6.518505358878801E-2    2.362024644918967E-4    1.772198158566518E-4    2.218723009453424E-4    1.873440137550535E-4   -3.637312224396430E-1    3.403859371059815E-1
 1.000606484250000E+10  -4.981056966671027E-1    6.544402045019301E-2    2.387215882408396E-4    1.882498158076127E-4    2.063661922478697E-4    1.972791369538037E-4   -3.636538619226983E-1    3.406385972043545E-1
 1.000606838262500E+10  -4.981530645971320E-1    6.567282208767679E-2    2.391477148074903E-4    2.000207895007721E-4    2.163888041394441E-4    1.940833012984443E-4   -3.634490027337977E-1    3.409368629282860E-1
 1.000607192275000E+10  -4.979302729317151E-1    6.599841507102540E-2    2.477410613085373E-4    1.922457908670406E-4    2.407751651439878E-4    2.256194497332789E-4   -3.631478213123119E-1    3.409764150674531E-1
 1.000607546287500E+10  -4.981092178174356E-1    6.618701803411946E-2    2.422785244054285E-4    2.249170530117586E-4    2.088365694257766E-4    2.404035893098883E-4   -3.629049953625575E-1    3.412688972434271E-1
 1.000607900300000E+10  -4.978907867677589E-1    6.636934807275352E-2    2.712991085035210E-4    2.246610737396630E-4    2.480320945235422E-4    2.494807207860711E-4   -3.626934371193289E-1    3.415651354403721E-1
 1.000608254312500E+10  -4.980611829570378E-1    6.667249070909298E-2    2.564201533479037E-4    2.476139570417120E-4    2.315973483934896E-4    2.544495029095775E-4   -3.624722611106488E-1    3.417487977640540E-1
 1.000608608325000E+10  -4.979660365030769E-1    6.695305046687522E-2    2.682395926813937E-4    2.338970671049814E-4    2.407971799690183E-4    2.323277600220493E-4   -3.622499674189686E-1    3.420693639790640E-1
 1.000608962337500E+10  -4.978753312105308E-1    6.707976881699412E-2    2.954863863810772E-4    2.487746607182661E-4    2.876866657405396E-4    2.482163396470849E-4   -3.620846421117347E-1    3.423956428038145E-1
 1.000609316350000E+10  -4.979301848698365E-1    6.729647113527200E-2    2.814362718364616E-4    2.540288788443831E-4    3.005730064544725E-4    2.608098262095434E-4   -3.618957550058168E-1    3.426523257163566E-1
 1.000609670362500E+10  -4.978582224211806E-1    6.743714163712758E-2    2.840977020008179E-4    2.837501820305919E-4    2.959800710703042E-4    2.816174780498827E-4   -3.615590855137380E-1    3.427249369260071E-1
 1.000610024375000E+10  -4.978749587781593E-1    6.772479409137269E-2    3.085151785855519E-4    2.823800379936575E-4    3.081783046075835E-4    2.649013243137275E-4   -3.612939796387071E-1    3.430547102330496E-1
 1.000610378387500E+10  -4.978318715164012E-1    6.816226626615281E-2    2.949758205081744E-4    2.635808315824271E-4    2.865861704621464E-4    2.810512566788593E-4   -3.610051027910144E-1    3.432066272039141E-1
 1.000610732400000E+10  -4.978264207224698E-1    6.819206232123554E-2    3.297914872498582E-4    3.105086015884763E-4    2.811220827429167E-4    3.450269389265881E-4   -3.607748903871624E-1    3.435774005982737E-1
 1.000611086412500E+10  -4.979662533629208E-1    6.850904931894226E-2    3.402522916653966E-4    3.032308608401562E-4    3.114364290892720E-4    3.407813053556307E-4   -3.605920155013926E-1    3.439117956069146E-1
 1.000611440425000E+10  -4.975934665886374E-1    6.859166746283832E-2    3.513354268152800E-4    3.374337054274867E-4    3.107721683719794E-4    3.297389934626527E-4   -3.603776501465904E-1    3.440551537774167E-1
 1.000611794437500E+10  -4.977495654780426E-1    6.883868157245635E-2    3.287339414108935E-4    3.326609578792851E-4    3.650971589667739E-4    3.361430819298995E-4   -3.600898240363916E-1    3.443076407137721E-1
 1.000612148450000E+10  -4.977602683612808E-1    6.897186732550042E-2    3.960511397522934E-4    3.509957252014817E-4    3.370028080111098E-4    3.517021208637287E-4   -3.597323726242503E-1    3.444959737725113E-1
 1.000612502462500E+10  -4.976440396469576E-1    6.935247178489130E-2    3.629989089702169E-4    3.402661473762320E-4    3.376102945836282E-4    3.437681623297078E-4   -3.595831116137683E-1    3.448629089567707E-1
 1.000612856475000E+10  -4.976446238253277E-1    6.963087364709439E-2    3.793389115129914E-4    3.445811157799175E-4    3.470834461632341E-4    3.778619933132906E-4   -3.593672667494703E-1    3.451705565381722E-1
 1.000613210487500E+10  -4.975540005912144E-1    6.990329917620768E-2    3.615264311434108E-4    3.523103620725842E-4    3.838344501221162E-4    3.669823630329398E-4   -3.589697098681804E-1    3.454175246564504E-1
 1.000613564500000E+10  -4.975017870399775E-1    7.000233260587266E-2    4.000753059587200E-4    3.567478752244949E-4    3.714701297859180E-4    4.007298802650326E-4   -3.587758041535465E-1    3.454857424989362E-1
 1.000613918512500E+10  -4.976190543902450E-1    7.034752577902516E-2    4.128829025624928E-4    3.937848106191987E-4    3.645837488443703E-4    4.301478086660875E-4   -3.585909582137151E-1    3.459945096255921E-1
 1.000614272525000E+10  -4.976524570780216E-1    7.052249129604558E-2    4.040747099682615E-4    3.749983476398119E-4    3.614005534204134E-4    4.182348661468148E-4   -3.581579796607707E-1    3.460849259285304E-1
 1.000614626537500E+10  -4.975273094886213E-1    7.072943438091604E-2    4.155475201529434E-4    4.290775056845634E-4    3.913658540470898E-4    4.226909555955840E-4   -3.579242158711454E-1    3.464948381522340E-1
 1.000614980550000E+10  -4.975075420852355E-1    7.094083168787174E-2    4.186461310583716E-4    4.259028661127557E-4    3.987630994468965E-4    4.445939926713248E-4   -3.578006870374024E-1    3.466441282995701E-1
 1.000615334562500E+10  -4.975971392923870E-1    7.118642780264209E-2    4.409637629251240E-4    4.534925250985404E-4    4.230711537717541E-4    4.604620625967866E-4   -3.574778784627461E-1    3.469141208238677E-1
 1.000615688575000E+10  -4.975081083137500E-1    7.138954997774907E-2    4.343714982921898E-4    4.409646790068960E-4    4.063507747308431E-4    4.804081395819684E-4   -3.572715417767489E-1    3.470281400194069E-1
 1.000616042587500E+10  -4.974459427761959E-1    7.155717144466962E-2    4.431791233627237E-4    4.497564237565766E-4    4.382131151578903E-4    4.449241331427847E-4   -3.567964350726208E-1    3.473991792217131E-1
 1.000616396600000E+10  -4.973123481018238E-1    7.200263989565403E-2    4.499188611407461E-4    4.682413001248956E-4    4.206397277371467E-4    4.764574430541305E-4   -3.567027051020575E-1    3.475668147244952E-1
 1.000616750612500E+10  -4.973630407863077E-1    7.208937384519012E-2    4.788112800570367E-4    4.717485635925052E-4    4.280370418223178E-4    5.178727107944714E-4   -3.564241320894445E-1    3.479752745838806E-1
 1.000617104625000E+10  -4.972967365927661E-1    7.231305828479857E-2    4.918220815181502E-4    4.825845621707284E-4    4.493683730846894E-4    4.984338698143873E-4   -3.561633162305387E-1    3.482752958552197E-1
 1.000617458637500E+10  -4.974155717328075E-1    7.250329653455594E-2    5.008019317866198E-4    5.175698140825759E-4    4.588395487781352E-4    5.373653406371596E-4   -3.558006297385315E-1    3.485479487345001E-1
 1.000617812650000E+10  -4.972435842239510E-1    7.277571950730248E-2    5.022584476202561E-4    5.178215724209786E-4    4.680442598630001E-4    5.649166236842110E-4   -3.554233099718206E-1    3.487952756237482E-1
 1.000618166662500E+10  -4.972658299925501E-1    7.298732573271521E-2    5.131296749735778E-4    5.252394897571708E-4    5.057458414677252E-4    5.496275323639661E-4   -3.552087509017944E-1    3.488835542162760E-1
 1.000618520675000E+10  -4.972114447549969E-1    7.324381233952354E-2    5.395919746860810E-4    5.437337092736262E-4    5.060201286183057E-4    5.509310830239618E-4   -3.549990344987287E-1    3.493091648152260E-1
 1.000618874687500E+10  -4.971598525683185E-1    7.355822292483817E-2    5.380103050833709E-4    5.839095066311600E-4    5.231981159808233E-4    5.768835537136170E-4   -3.544939769284236E-1    3.495216681218125E-1
 1.000619228700000E+10  -4.970932296980541E-1    7.385869952236000E-2    5.617792895217975E-4    5.821338441565874E-4    5.528878487322528E-4    6.056374070064438E-4   -3.542348777118857E-1    3.498403397848817E-1
 1.000619582712500E+10  -4.971816606070285E-1    7.408802364613089E-2    5.652103041451163E-4    5.991695315624111E-4    5.294294589868487E-4    6.013502969526229E-4   -3.539547434228261E-1    3.501668987648228E-1
 1.000619936725000E+10  -4.971742628604774E-1    7.421182408567471E-2    5.986409436798281E-4    5.673348448074718E-4    5.370354732979401E-4    6.220016662511693E-4   -3.537235403970349E-1    3.503316938161790E-1
 1.000620290737500E+10  -4.970918353962009E-1    7.439246229792428E-2    5.926250756118201E-4    6.440115499544526E-4    5.341644120779982E-4    6.408211703305270E-4   -3.535263489153382E-1    3.506219989656979E-1
 1.000620644750000E+10  -4.971213343443751E-1    7.468498471216993E-2    6.303618237647701E-4    6.097784062440382E-4    5.771765433693499E-4    6.525645488528465E-4   -3.532239962733573E-1    3.509156036977238E-1
 1.000620998762500E+10  -4.971651903426029E-1    7.494328115786097E-2    6.227794664244695E-4    6.635532671638501E-4    6.018141902052992E-4    6.607947680463733E-4   -3.528505235245448E-1    3.512612321184941E-1
 1.000621352775000E+10  -4.969360291623436E-1    7.517642356783197E-2    6.255402791781132E-4    6.408701783997618E-4    5.899575201595642E-4    6.725442599927050E-4   -3.524613730041590E-1    3.514967251435540E-1
 1.000621706787500E+10  -4.969904812157804E-1    7.532495309722034E-2    6.453188235262963E-4    6.539959525170851E-4    6.386934321088875E-4    7.106211069678272E-4   -3.521224567575437E-1    3.517876505948427E-1
 1.000622060800000E+10  -4.969510868208552E-1    7.539749657011952E-2    6.786452059525074E-4    6.764495169891331E-4    6.326541791105252E-4    7.080435561757243E-4   -3.519018469944866E-1    3.522131059298488E-1
 1.000622414812500E+10  -4.969203486848868E-1    7.579138072785836E-2    6.723086638043285E-4    7.012800344113700E-4    6.583461662876112E-4    7.294915858721751E-4   -3.516411157130408E-1    3.523779564688840E-1
 1.000622768825000E+10  -4.968631631591449E-1    7.615873665904009E-2    6.876434626454151E-4    6.953926842192342E-4    6.458622533368232E-4    7.302968997070689E-4   -3.511968786892982E-1    3.526483673768352E-1
