#  HZ   S   RI   R     50.00 
! Rohde & Schwarz Vector Network Analyzer 
! Rohde-Schwarz,ZNB20-2Port,1311601062101988,3.16
! Created: UTC 3/20/2024, 12:03:03 PM
! freq[Hz]                re:S11                  im:S11                  re:S21                  im:S21                  re:S12                  im:S12                  re:S22                  im:S22
 1.000594454200000E+10  -4.992406642536001E-1    5.729625508973677E-2    5.090455027446785E-5   -6.897164376232061E-5    3.745799089768548E-5   -5.680818105430864E-5   -3.710063922736550E-1    3.326472371203784E-1
 1.000594792945000E+10  -4.992887578987572E-1    5.751916074247527E-2    6.076114823771816E-5   -5.080817460550146E-5    5.452765338340239E-5   -4.954798986593873E-5   -3.706075430805525E-1    3.329267273180814E-1
 1.000595131690000E+10  -4.991332935378833E-1    5.760595765673143E-2    4.882902873712606E-5   -4.623030618722517E-5    7.744633483877374E-5   -7.613360182770581E-5   -3.706281450222207E-1    3.330349339746375E-1
 1.000595470435000E+10  -4.992046359166109E-1    5.800691127818221E-2    4.950789146545474E-5   -3.527733399342503E-5    6.355326370778005E-5   -6.116103331536835E-5   -3.703241492792440E-1    3.333774556285225E-1
 1.000595809180000E+10  -4.990924407351914E-1    5.818792620762080E-2    4.915252175910851E-5   -4.087617674787160E-5    7.627577847557386E-5   -7.647855608011339E-5   -3.699682056528663E-1    3.334365276129983E-1
 1.000596147925000E+10  -4.990776182339368E-1    5.833277446788260E-2    6.291941605385140E-5   -3.653864977570151E-5    5.066514818089539E-5   -4.853528372133857E-5   -3.698724902325499E-1    3.337484705164139E-1
 1.000596486670000E+10  -4.990256057513411E-1    5.858537846055353E-2    7.886759045520416E-5   -6.739661952167225E-5    6.529004112935679E-5   -4.562397345669127E-5   -3.698058932030162E-1    3.339626549443503E-1
 1.000596825415000E+10  -4.990096348320091E-1    5.886224035033445E-2    7.691273075724540E-5   -6.156149666749975E-5    6.023709712783363E-5   -2.145544112250125E-5   -3.694046465704806E-1    3.341633154561778E-1
 1.000597164160000E+10  -4.989279065072879E-1    5.908513109768933E-2    9.017794257037363E-5   -4.052150006671953E-5    5.140936097250071E-5    2.387312577961194E-5   -3.694126120232722E-1    3.344219184687150E-1
 1.000597502905000E+10  -4.989218544309394E-1    5.932702466919242E-2    7.551973491711049E-5   -4.381587963502409E-5    7.525531932558298E-5   -1.777395750820742E-5   -3.690989972904670E-1    3.346376486930473E-1
 1.000597841650000E+10  -4.988231195252668E-1    5.954333274662485E-2    9.081682324866523E-5   -2.983111423465948E-6    1.267618318733943E-4    3.189719325927151E-6   -3.689724134030180E-1    3.349272409857745E-1
 1.000598180395000E+10  -4.990021623795769E-1    5.972446631778386E-2    1.143022459469120E-4    2.345409749921704E-5    1.012458689300159E-4    2.411750175178402E-5   -3.687660471087350E-1    3.351683514385913E-1
 1.000598519140000E+10  -4.989138981488908E-1    5.991924548722930E-2    9.036105407990437E-5    1.196265381227739E-5    9.049622355498948E-5    2.463182744087300E-5   -3.685783497574566E-1    3.352347479645646E-1
 1.000598857885000E+10  -4.988988015214357E-1    6.014376025466407E-2    8.587976077630324E-5    9.394155309771495E-6    9.483878155477178E-5    6.484137202244335E-5   -3.684282648185804E-1    3.354866932453905E-1
 1.000599196630000E+10  -4.988983673470921E-1    6.033437192255154E-2    1.111761173228983E-4    2.396327192762325E-5    9.551391682833841E-5    1.446990436743038E-5   -3.680960126413194E-1    3.357057904712667E-1
 1.000599535375000E+10  -4.989162429989807E-1    6.057850358510469E-2    1.201946287818864E-4    3.439489595553934E-6    1.069053681762389E-4   -9.967138917290629E-6   -3.680512047225639E-1    3.359392133185654E-1
 1.000599874120000E+10  -4.989312081659267E-1    6.082491565619453E-2    1.065542526972017E-4    4.027718706510748E-5    1.413690446582263E-4    7.296221553134655E-5   -3.678670834171284E-1    3.360457039413430E-1
 1.000600212865000E+10  -4.988303735412326E-1    6.107253134153821E-2    1.415747489418537E-4    4.449630779565943E-5    9.919695129060346E-5    4.843496490643449E-5   -3.675699765673000E-1    3.363669791894501E-1
 1.000600551610000E+10  -4.988490660195442E-1    6.131529261815565E-2    1.099111159754622E-4    2.791792147391632E-5    1.220147050577095E-4    3.083548853866000E-5   -3.674488975245189E-1    3.366403452426153E-1
 1.000600890355000E+10  -4.987502483578613E-1    6.145939190645179E-2    1.350798886178674E-4    3.139450287025586E-5    1.258979379050076E-4    3.971400667888293E-5   -3.671247125541965E-1    3.368742702820733E-1
 1.000601229100000E+10  -4.988326110253442E-1    6.171294828356751E-2    1.471782124711966E-4    6.269931161848207E-5    1.419574310938698E-4    6.663579828497521E-5   -3.670506366539265E-1    3.371569526754770E-1
 1.000601567845000E+10  -4.987617355630327E-1    6.198346612542104E-2    1.252573087436114E-4    4.728991497730691E-5    1.232584567971158E-4    5.748198699697287E-5   -3.668652971914024E-1    3.374120540054866E-1
 1.000601906590000E+10  -4.986716404976304E-1    6.222004229771220E-2    1.553688572351686E-4    9.229557294122938E-5    1.174256071488499E-4    7.822385850455961E-5   -3.666177368420181E-1    3.375422087250919E-1
 1.000602245335000E+10  -4.986621881596514E-1    6.224648238671691E-2    1.402577098954247E-4    4.919280565676747E-5    1.047912445024500E-4    9.478065809247107E-5   -3.664455950920997E-1    3.375943507165985E-1
 1.000602584080000E+10  -4.985801265563111E-1    6.259331468488358E-2    1.830320067564185E-4    5.447756761381472E-5    1.877642991858727E-4    9.138538085162548E-5   -3.662531616185468E-1    3.379728124984830E-1
 1.000602922825000E+10  -4.986091263739633E-1    6.280903030353209E-2    1.585339108130729E-4    9.059922405251048E-5    1.774867104984373E-4    1.185769084467304E-4   -3.658392705551007E-1    3.381999108319092E-1
 1.000603261570000E+10  -4.987062927784909E-1    6.294757508202006E-2    1.428383093207026E-4    9.634558186241152E-5    1.629001357273308E-4    1.201338765664588E-4   -3.656869749077224E-1    3.383557537029259E-1
 1.000603600315000E+10  -4.986463892984740E-1    6.340664351946690E-2    1.662615939161213E-4    6.944649770527417E-5    1.505711620375681E-4    1.243091655499264E-4   -3.656253442501874E-1    3.387202007886109E-1
 1.000603939060000E+10  -4.985534984684271E-1    6.352363556968828E-2    1.478077042994650E-4    1.196097695655462E-4    1.602209939774771E-4    1.307905416128467E-4   -3.653497322680517E-1    3.389177955247624E-1
 1.000604277805000E+10  -4.987028903002530E-1    6.378673740105684E-2    1.675458953526329E-4    9.712209978185534E-5    1.888661566510219E-4    1.173983559053743E-4   -3.651648064240577E-1    3.390337189638050E-1
 1.000604616550000E+10  -4.985024403903346E-1    6.393851303760317E-2    1.870462524459756E-4    1.183184275698805E-4    1.292027635922061E-4    1.233317354849404E-4   -3.649129604750316E-1    3.392643366368228E-1
 1.000604955295000E+10  -4.984272677684698E-1    6.418767633769701E-2    1.830040929814422E-4    1.264542559439152E-4    2.050816210493177E-4    1.477815106619712E-4   -3.646590430163119E-1    3.394970839913423E-1
 1.000605294040000E+10  -4.984480204450452E-1    6.433255585532117E-2    1.825926096350349E-4    1.495828240060593E-4    1.399077426229749E-4    1.378805321683628E-4   -3.645497231159338E-1    3.396121474305806E-1
 1.000605632785000E+10  -4.983988294315804E-1    6.452056886484336E-2    2.220673703183180E-4    1.642162931039990E-4    1.907665983340909E-4    1.958630925433236E-4   -3.641918975072122E-1    3.400238666371792E-1
 1.000605971530000E+10  -4.983098039743941E-1    6.481508934685458E-2    1.729141110962006E-4    1.593098395699250E-4    1.747524318142456E-4    2.008909992506211E-4   -3.641098976496511E-1    3.401991439634104E-1
 1.000606310275000E+10  -4.984243441398912E-1    6.513180627328366E-2    1.842049112614975E-4    1.841513892131700E-4    1.903625538482953E-4    1.811164397164051E-4   -3.637746453465858E-1    3.404164739175506E-1
 1.000606649020000E+10  -4.983297994846092E-1    6.529439956996658E-2    2.232176928971796E-4    1.674579310461524E-4    2.189699548634358E-4    1.651094869277792E-4   -3.637041233886778E-1    3.407134182009687E-1
 1.000606987765000E+10  -4.983220774655738E-1    6.544592262594104E-2    2.077661102494336E-4    2.014182784820666E-4    2.191227287483128E-4    1.905538144957376E-4   -3.634595823767814E-1    3.409567123126305E-1
 1.000607326510000E+10  -4.984513385051774E-1    6.568534095053762E-2    2.228203001343248E-4    1.985451096959076E-4    2.257178196739331E-4    1.996262784792298E-4   -3.632302913561855E-1    3.412320761446977E-1
 1.000607665255000E+10  -4.983998425855148E-1    6.586735530153280E-2    2.596219592033782E-4    2.157500270662007E-4    2.137504287120612E-4    2.337443747615132E-4   -3.629483749326210E-1    3.414393286783032E-1
 1.000608004000000E+10  -4.982477094091146E-1    6.613537591903776E-2    2.332149585338299E-4    2.112491729828873E-4    2.406733296558107E-4    1.977351009132647E-4   -3.629220646744500E-1    3.416399273599589E-1
 1.000608342745000E+10  -4.983131075349536E-1    6.637818007514591E-2    2.634278417611349E-4    2.099616977550939E-4    2.371506391824563E-4    2.041170957235934E-4   -3.626078999644049E-1    3.417937785295195E-1
 1.000608681490000E+10  -4.983108110121235E-1    6.668247949322541E-2    2.290360283906800E-4    2.287331374986678E-4    2.110608480479648E-4    2.235676440608268E-4   -3.624220138527675E-1    3.420570117742052E-1
 1.000609020235000E+10  -4.982554769854300E-1    6.686803670102254E-2    2.549834481865822E-4    2.356594863348199E-4    2.331337436055548E-4    2.302600695900710E-4   -3.620152984396396E-1    3.422638980616096E-1
 1.000609358980000E+10  -4.981924196284797E-1    6.712726259356111E-2    2.806377548189652E-4    2.411912190575252E-4    2.810582650068984E-4    2.477634987852651E-4   -3.618312721016597E-1    3.425817875238899E-1
 1.000609697725000E+10  -4.981701517404580E-1    6.732347587694824E-2    2.996640492693746E-4    2.530813455240312E-4    2.687266456828350E-4    2.563003425014673E-4   -3.617369130038753E-1    3.427829769147550E-1
 1.000610036470000E+10  -4.983169630609980E-1    6.755872309415450E-2    2.931625705542337E-4    2.366507440258846E-4    2.731136607146802E-4    2.532605600742101E-4   -3.615812929595781E-1    3.431295817549494E-1
 1.000610375215000E+10  -4.981008456801267E-1    6.761779762623009E-2    2.825664005063532E-4    2.537683605679454E-4    2.751349824621039E-4    2.634807925969571E-4   -3.612977877008060E-1    3.433970900308435E-1
 1.000610713960000E+10  -4.982285290662992E-1    6.787496901779962E-2    3.127444708769135E-4    2.709766043422537E-4    2.740671955011021E-4    2.795191040360037E-4   -3.610632076797005E-1    3.435909140200358E-1
 1.000611052705000E+10  -4.980620093187978E-1    6.815232853677730E-2    2.913265453747802E-4    2.966388909837489E-4    2.701758858802377E-4    2.989250650793644E-4   -3.607883409103934E-1    3.436755684409084E-1
 1.000611391450000E+10  -4.980241527573093E-1    6.839138713629185E-2    3.117086029257947E-4    3.276221225991891E-4    2.907794530122540E-4    3.181126811288338E-4   -3.605160604419461E-1    3.440879721628712E-1
 1.000611730195000E+10  -4.980995243523418E-1    6.844566132036856E-2    3.128708704383861E-4    3.289878426623569E-4    2.831974056882173E-4    3.429172103187932E-4   -3.603117021831586E-1    3.442861746332213E-1
 1.000612068940000E+10  -4.980826395862251E-1    6.890080475634344E-2    3.236808582352871E-4    3.360156508197545E-4    2.937709140583448E-4    3.440811327574217E-4   -3.601335462445061E-1    3.444458305193568E-1
 1.000612407685000E+10  -4.980627090341121E-1    6.892527357568490E-2    3.447076567038888E-4    3.417216802198904E-4    3.143962123579648E-4    3.555385846668587E-4   -3.598897792976887E-1    3.446997385161447E-1
 1.000612746430000E+10  -4.979748002007518E-1    6.925307467046768E-2    3.561518154272367E-4    3.379013678829761E-4    3.098984302266565E-4    3.403448141379257E-4   -3.597770438798169E-1    3.449939250464769E-1
 1.000613085175000E+10  -4.978848113003483E-1    6.944681243346129E-2    4.032224733936965E-4    3.499189186837818E-4    3.166354743691091E-4    3.626610903510777E-4   -3.594730144814957E-1    3.451434113743039E-1
 1.000613423920000E+10  -4.978625739247709E-1    6.966763007200101E-2    3.871415689999152E-4    3.579679189770498E-4    3.353189894211117E-4    3.685158004093355E-4   -3.591899825302039E-1    3.454172952589531E-1
 1.000613762665000E+10  -4.979187043497408E-1    6.990631183735067E-2    3.487203519422465E-4    3.791589458701924E-4    3.608125349730254E-4    3.520498787426636E-4   -3.588959544737148E-1    3.455613358911104E-1
 1.000614101410000E+10  -4.977845209598949E-1    7.005930393553057E-2    3.716434708881763E-4    3.949439208375320E-4    3.410157830647244E-4    3.869497066516312E-4   -3.585194200220137E-1    3.458570363726042E-1
 1.000614440155000E+10  -4.979112961126285E-1    7.040166151489018E-2    4.134609594964728E-4    4.142980919765593E-4    3.380862261006972E-4    4.211391782791177E-4   -3.584692391506819E-1    3.460237952507757E-1
 1.000614778900000E+10  -4.978456527274098E-1    7.067602877795758E-2    4.311736798493715E-4    4.124055787803624E-4    3.921061537103561E-4    4.096688696462759E-4   -3.581305715283880E-1    3.463640545403447E-1
 1.000615117645000E+10  -4.978491938911815E-1    7.085562595651029E-2    4.251865087238445E-4    4.053070378473757E-4    4.104157058821535E-4    4.155154210104848E-4   -3.579292693556789E-1    3.466528971307383E-1
 1.000615456390000E+10  -4.979091750319936E-1    7.099338582658181E-2    4.114848042720998E-4    4.094974489565614E-4    3.787719124064362E-4    4.699239170502322E-4   -3.576741094104951E-1    3.469357497823345E-1
 1.000615795135000E+10  -4.978122041634055E-1    7.116245993180570E-2    4.155453692842198E-4    4.299119730952171E-4    4.181917566912638E-4    4.473345268465217E-4   -3.573652482401500E-1    3.470796852760154E-1
 1.000616133880000E+10  -4.976448962797256E-1    7.148400283645000E-2    4.306251585995911E-4    4.652212108526109E-4    3.929278491419453E-4    4.458449359118615E-4   -3.571657036785537E-1    3.473656021330330E-1
 1.000616472625000E+10  -4.977492161145818E-1    7.167148778522404E-2    4.773805381464545E-4    4.641400263522596E-4    4.078656408753622E-4    4.569533950817467E-4   -3.568095175963602E-1    3.476959310826170E-1
 1.000616811370000E+10  -4.977082197921093E-1    7.200455289633688E-2    4.774677651721938E-4    4.823696286582074E-4    4.544873178790378E-4    4.723273524059596E-4   -3.565829656306283E-1    3.480042501523108E-1
 1.000617150115000E+10  -4.976430595981959E-1    7.208323303167168E-2    4.510712875531823E-4    4.684505866448539E-4    4.275168445034513E-4    4.783533477061286E-4   -3.565057231973529E-1    3.481103009909471E-1
 1.000617488860000E+10  -4.976723154181365E-1    7.225937459799435E-2    4.924903869162156E-4    5.046959762252147E-4    4.732996600041713E-4    4.916382233425201E-4   -3.560316259891105E-1    3.483881367632230E-1
 1.000617827605000E+10  -4.975374232688795E-1    7.269492587395396E-2    4.790992956693755E-4    5.099258976392111E-4    4.381339496330627E-4    5.608201222897100E-4   -3.558275035852049E-1    3.486883770929759E-1
 1.000618166350000E+10  -4.975896674136439E-1    7.284202782811426E-2    5.011552434837631E-4    5.216877379027442E-4    4.532845571332450E-4    5.390704513648734E-4   -3.554945728914077E-1    3.489240813246717E-1
 1.000618505095000E+10  -4.976091332206949E-1    7.304272414917916E-2    5.074271209483941E-4    4.977938045123947E-4    4.671050442758473E-4    5.838267011549563E-4   -3.553829677334950E-1    3.492334562584719E-1
 1.000618843840000E+10  -4.976355722909039E-1    7.315613648419768E-2    4.918593017353774E-4    5.167475332599420E-4    4.593403744173453E-4    5.512798833070115E-4   -3.551188063024163E-1    3.493507111242340E-1
 1.000619182585000E+10  -4.974112834436084E-1    7.346067607330262E-2    5.245488510409639E-4    5.375646765239502E-4    4.833034743315164E-4    5.428456251022512E-4   -3.547758417416159E-1    3.496052250038461E-1
 1.000619521330000E+10  -4.973944187497364E-1    7.362706921042221E-2    5.359225646748772E-4    5.694086912310368E-4    4.936409392393145E-4    5.633958421579810E-4   -3.542118983106370E-1    3.501621103489009E-1
 1.000619860075000E+10  -4.973604731281805E-1    7.397591164388387E-2    5.240661449981900E-4    5.995772299489107E-4    5.222330546957049E-4    5.641337824364160E-4   -3.540910824225809E-1    3.502417329469191E-1
 1.000620198820000E+10  -4.975518801748043E-1    7.401109836760669E-2    5.349757259913347E-4    6.038895524769641E-4    5.123541374543845E-4    6.251466448428823E-4   -3.537172190955744E-1    3.503964061719838E-1
 1.000620537565000E+10  -4.973620473400544E-1    7.442463134033672E-2    5.677393471129491E-4    5.998212284233183E-4    5.426151074941480E-4    6.317942984242228E-4   -3.535715291129127E-1    3.507689252664013E-1
 1.000620876310000E+10  -4.972772671116806E-1    7.441503152940107E-2    6.072080504919873E-4    6.565519586002615E-4    5.569992631453376E-4    6.327228681205505E-4   -3.531731426236611E-1    3.509930016100680E-1
 1.000621215055000E+10  -4.973788549118384E-1    7.478962616793047E-2    5.977386548133895E-4    6.226939450805387E-4    5.819688199527873E-4    6.904678416584655E-4   -3.528721028973432E-1    3.513330135176372E-1
 1.000621553800000E+10  -4.972512905520781E-1    7.494984247833812E-2    6.024264727327617E-4    6.504571368401933E-4    5.417400575929825E-4    6.265754750410600E-4   -3.526456610355131E-1    3.514747264297171E-1
 1.000621892545000E+10  -4.972556172900674E-1    7.531391904369113E-2    6.220354067605562E-4    6.504929996992159E-4    6.220427014377417E-4    6.665137155855079E-4   -3.524522126990978E-1    3.517916740053837E-1
 1.000622231290000E+10  -4.972405517722086E-1    7.541065287437521E-2    6.655537565834081E-4    6.982757334219425E-4    6.167422315323820E-4    6.915430777527625E-4   -3.522343826187520E-1    3.520235861788270E-1
 1.000622570035000E+10  -4.971468311060998E-1    7.568537167525835E-2    6.639292835069211E-4    6.877377417843179E-4    5.915247372527370E-4    6.978121377500356E-4   -3.517035851296364E-1    3.522717616161700E-1
 1.000622908780000E+10  -4.973892600855608E-1    7.588730229070625E-2    6.900144230899079E-4    7.134301227631169E-4    6.115386051770378E-4    7.331147445639209E-4   -3.514701045207509E-1    3.526442871977272E-1
 1.000623247525000E+10  -4.971077428106045E-1    7.611408276537715E-2    6.836716299168991E-4    7.383126647205881E-4    6.339390588068313E-4    7.561236357357712E-4   -3.511824489277690E-1    3.528894165449538E-1
 1.000623586270000E+10  -4.970970826523756E-1    7.636379126748136E-2    6.681017835165875E-4    7.383089384662311E-4    6.264995457607625E-4    7.384802780652135E-4   -3.507702372842583E-1    3.531942748418319E-1
 1.000623925015000E+10  -4.971413760560942E-1    7.656072139820663E-2    7.081749052288785E-4    7.802683077068454E-4    6.635849627588207E-4    7.191532316070167E-4   -3.504959887627171E-1    3.534352954054027E-1
 1.000624263760000E+10  -4.971130733577749E-1    7.677568772252341E-2    7.054391763871939E-4    7.634630160208312E-4    6.640105108379062E-4    7.788510324505093E-4   -3.501222460899974E-1    3.536778358273435E-1
 1.000624602505000E+10  -4.970457271235791E-1    7.693607812243329E-2    7.366065812162607E-4    7.806485694401116E-4    7.026847514130873E-4    8.386946556184666E-4   -3.497593167010558E-1    3.539889972230154E-1
 1.000624941250000E+10  -4.970151566934249E-1    7.725193630179857E-2    7.557656928792427E-4    7.946405897392701E-4    7.142206911885626E-4    8.150370145323272E-4   -3.494185727213747E-1    3.544471700366699E-1
