#  HZ   S   RI   R     50.00 
! Rohde & Schwarz Vector Network Analyzer 
! Rohde-Schwarz,ZNB20-2Port,1311601062101988,3.16
! Created: UTC 3/20/2024, 12:03:31 PM
! freq[Hz]                re:S11                  im:S11                  re:S21                  im:S21                  re:S12                  im:S12                  re:S22                  im:S22
 1.000599800100000E+10  -4.993704004879730E-1    6.041522960298074E-2    6.076342887683072E-5   -4.328565289750693E-6    6.650184216709898E-5    9.962160781102267E-6   -3.681794518049625E-1    3.359327632016057E-1
 1.000600117422500E+10  -4.993608743867103E-1    6.062563227797678E-2    1.149910944728627E-4    1.456749923898999E-8    1.066889175900090E-4    4.082517786933421E-5   -3.680437699175718E-1    3.359791553523255E-1
 1.000600434745000E+10  -4.992198956930500E-1    6.074043050289099E-2    1.052196797596190E-4    1.695572270499572E-5    1.136513378174098E-4    3.182504877155431E-5   -3.677134528630507E-1    3.363246481517110E-1
 1.000600752067500E+10  -4.993489903166115E-1    6.103024312261113E-2    9.774997570917937E-5    5.012847931907610E-5    1.056107281465952E-4    2.698793539444104E-5   -3.675510194948977E-1    3.366425321811742E-1
 1.000601069390000E+10  -4.993066585755315E-1    6.116439277220509E-2    8.629493062365789E-5    3.344620784448190E-5    8.630757573624164E-5   -4.087882614744222E-6   -3.674060143178842E-1    3.367243322589406E-1
 1.000601386712500E+10  -4.993013862101039E-1    6.151614013012802E-2    1.039728182684274E-4    5.666884593581039E-5    9.452097041544819E-5    2.593061907588350E-5   -3.673216809591492E-1    3.368984584621790E-1
 1.000601704035000E+10  -4.992061911103691E-1    6.156205262360782E-2    1.196721072299793E-4    5.287479962313425E-5    1.059805829613445E-4    3.036879379554264E-5   -3.671327001386832E-1    3.372776569588279E-1
 1.000602021357500E+10  -4.992643957006015E-1    6.182363556871685E-2    1.177160118554063E-4    7.027691742907084E-5    1.425560512201203E-4    6.759299266672863E-5   -3.670109809302879E-1    3.375037621937018E-1
 1.000602338680000E+10  -4.992238883893565E-1    6.211945086334382E-2    1.441995338885835E-4    6.304144609170589E-5    1.014255719456628E-4    8.163915070491859E-5   -3.667531291998104E-1    3.377110713749422E-1
 1.000602656002500E+10  -4.992287272586961E-1    6.224834505041581E-2    1.504968269349781E-4    3.051494141701270E-5    1.145155413751415E-4    5.749026607973055E-5   -3.666703431955097E-1    3.377683838774680E-1
 1.000602973325000E+10  -4.992281062067684E-1    6.248487730455922E-2    1.524773871869190E-4    6.191047191342755E-5    1.196210113535430E-4    8.574838515888911E-5   -3.662758649385771E-1    3.381576784653311E-1
 1.000603290647500E+10  -4.991765965426062E-1    6.275275936623373E-2    1.253767574857059E-4    9.309782418543722E-5    1.245909656403162E-4    1.239604610714919E-4   -3.660863878323776E-1    3.382332433689577E-1
 1.000603607970000E+10  -4.990849866090377E-1    6.274968280492953E-2    1.632756246357126E-4    6.596384120005143E-5    9.800169594919732E-5    8.648050131216096E-5   -3.659938768051708E-1    3.383654744948938E-1
 1.000603925292500E+10  -4.988960866399724E-1    6.308001842403993E-2    1.195495499879235E-4    1.047681580113628E-4    1.317614515896403E-4    1.198899372589519E-4   -3.658229942336940E-1    3.387998302067767E-1
 1.000604242615000E+10  -4.990436908944844E-1    6.323390518847183E-2    1.496217635198331E-4    7.604099142890537E-5    1.740756777003376E-4    7.774674832798482E-5   -3.655956362585213E-1    3.388416369947318E-1
 1.000604559937500E+10  -4.990685409135119E-1    6.353364108722068E-2    1.521441298222851E-4    1.270137435317624E-4    1.534686350130429E-4    1.114774753324599E-4   -3.652886901114383E-1    3.390813120143585E-1
 1.000604877260000E+10  -4.990150563990677E-1    6.375696186864224E-2    1.822523235937010E-4    9.797055112876862E-5    1.573497341529503E-4    1.336560076276243E-4   -3.651449155550631E-1    3.393590909801010E-1
 1.000605194582500E+10  -4.990758452801271E-1    6.408216499658867E-2    1.678092962486260E-4    1.175523228964304E-4    1.753076873548658E-4    1.544525251502337E-4   -3.650613998235034E-1    3.394617979875923E-1
 1.000605511905000E+10  -4.990685804716506E-1    6.417099383076283E-2    1.689140898349993E-4    1.110281998441896E-4    1.713517257762085E-4    1.237127017483006E-4   -3.647183397044421E-1    3.397118120690370E-1
 1.000605829227500E+10  -4.989406570316062E-1    6.433717498064982E-2    1.419412316886073E-4    1.469089875017998E-4    1.564291117774778E-4    1.832183078322063E-4   -3.645590097753837E-1    3.400339825599302E-1
 1.000606146550000E+10  -4.988314543811734E-1    6.463639348241296E-2    1.655880949210403E-4    1.520410112355688E-4    1.381016993099732E-4    1.545388026657650E-4   -3.644020643594930E-1    3.402791164149689E-1
 1.000606463872500E+10  -4.989404627452182E-1    6.477988724185217E-2    1.977997795072597E-4    1.221814663983698E-4    1.617361864098283E-4    1.793976406067423E-4   -3.642629955788697E-1    3.403781850627056E-1
 1.000606781195000E+10  -4.990284450016255E-1    6.494869834382415E-2    1.446977851558679E-4    1.567029070463297E-4    1.538086745768234E-4    1.348558371329108E-4   -3.639570999373331E-1    3.405765552749870E-1
 1.000607098517500E+10  -4.988231472126212E-1    6.523400191549696E-2    2.080854551839916E-4    1.713253345421790E-4    1.727891920011377E-4    1.515354013085060E-4   -3.638885040077020E-1    3.408579999212584E-1
 1.000607415840000E+10  -4.987676868277716E-1    6.551016196519031E-2    2.046232583354501E-4    1.661752830529543E-4    1.855574671420813E-4    1.794411532925211E-4   -3.637023520101533E-1    3.409287792825368E-1
 1.000607733162500E+10  -4.987222714128150E-1    6.559538141531721E-2    2.105932780211008E-4    1.687653570529240E-4    2.017069300005622E-4    1.801919109211953E-4   -3.634200571507304E-1    3.412139774991346E-1
 1.000608050485000E+10  -4.987824150286870E-1    6.567934797620441E-2    1.992769245152755E-4    1.706499911623615E-4    2.000100330565473E-4    1.719396369955103E-4   -3.631078085276292E-1    3.413785306934644E-1
 1.000608367807500E+10  -4.988842709835954E-1    6.589796911296696E-2    2.220167276845429E-4    2.080005443053026E-4    1.944766410654822E-4    1.945011962767520E-4   -3.630003540648061E-1    3.418211610412187E-1
 1.000608685130000E+10  -4.988158718646358E-1    6.622986321391991E-2    2.231040621355449E-4    1.874384363555011E-4    2.312583962967824E-4    1.860138691511735E-4   -3.627645059425675E-1    3.418240424469717E-1
 1.000609002452500E+10  -4.986640326713459E-1    6.648134303182308E-2    2.267900340558475E-4    2.353583407140449E-4    2.105604181407952E-4    2.114573425358860E-4   -3.625216935131238E-1    3.421495528783787E-1
 1.000609319775000E+10  -4.987984512885247E-1    6.669039753053671E-2    2.553511689124671E-4    2.097622746055693E-4    1.956946035134377E-4    2.455213306395619E-4   -3.623675566867996E-1    3.423229095533759E-1
 1.000609637097500E+10  -4.986385796375373E-1    6.697661659542185E-2    2.179158320603876E-4    2.051790101300405E-4    2.315210890942462E-4    2.027255160668603E-4   -3.623358782346938E-1    3.425054646339433E-1
 1.000609954420000E+10  -4.986443495031119E-1    6.711626534650036E-2    2.218275556439580E-4    2.062369724129868E-4    2.314251043498416E-4    2.558369377807317E-4   -3.620842692059316E-1    3.428152110203214E-1
 1.000610271742500E+10  -4.985712843613638E-1    6.721240402931859E-2    2.452255754613387E-4    2.304804619073328E-4    2.596654512040412E-4    2.525153806533278E-4   -3.617683282515374E-1    3.430577141498503E-1
 1.000610589065000E+10  -4.986518248882971E-1    6.746797010591096E-2    2.363965158792448E-4    2.473960637036329E-4    2.366613497702920E-4    2.762498919333605E-4   -3.615303092154074E-1    3.433005077541707E-1
 1.000610906387500E+10  -4.985597954056639E-1    6.772134482440498E-2    2.548767781906826E-4    2.583257953155424E-4    2.326546585796239E-4    2.822487038827320E-4   -3.613826633952315E-1    3.435100016760318E-1
 1.000611223710000E+10  -4.984940851563541E-1    6.786614978415993E-2    2.647545456445942E-4    2.772174626197990E-4    2.292204790300582E-4    2.802770784897150E-4   -3.611709512644324E-1    3.436596476687250E-1
 1.000611541032500E+10  -4.984676168242939E-1    6.826371173366129E-2    2.698833297472904E-4    2.356034250753895E-4    2.098305484073548E-4    2.652306473094003E-4   -3.610232240768751E-1    3.438570692048084E-1
 1.000611858355000E+10  -4.984986376182285E-1    6.831318276684173E-2    2.705859277101282E-4    2.751940650829411E-4    2.696540629330473E-4    3.053447986402264E-4   -3.607753759203876E-1    3.441355760770040E-1
 1.000612175677500E+10  -4.985659207485560E-1    6.859337226277586E-2    2.556366050084191E-4    2.784153018588292E-4    2.941761143471039E-4    3.199200685773378E-4   -3.605852830942717E-1    3.443776658388050E-1
 1.000612493000000E+10  -4.985245782240170E-1    6.873965634597007E-2    3.137431275410875E-4    2.700531440874193E-4    2.773242939226837E-4    3.247708788362280E-4   -3.603647263213509E-1    3.445483118893168E-1
 1.000612810322500E+10  -4.984326309069239E-1    6.896096517405874E-2    3.097138244939735E-4    3.075809479350132E-4    2.680355576489510E-4    3.118513391316063E-4   -3.601036510841082E-1    3.448286727470133E-1
 1.000613127645000E+10  -4.983484075599032E-1    6.908393432134537E-2    3.223019195714154E-4    3.306743159458592E-4    2.843765098383211E-4    3.253330659514504E-4   -3.598471073607432E-1    3.449152552563740E-1
 1.000613444967500E+10  -4.984492056759116E-1    6.930608057962927E-2    3.118437505795176E-4    3.272107171683809E-4    3.049144215464346E-4    3.356420777765954E-4   -3.597309505242817E-1    3.450834218624996E-1
 1.000613762290000E+10  -4.984076009866208E-1    6.959353433374310E-2    3.118132870621534E-4    3.479662023094365E-4    2.771202193371423E-4    3.436265761597068E-4   -3.594125750587213E-1    3.454711920054242E-1
 1.000614079612500E+10  -4.983441179991360E-1    6.988726343648308E-2    3.185283663066594E-4    3.703264259159354E-4    3.216598665835973E-4    3.298966815346878E-4   -3.592533190252662E-1    3.456142884164125E-1
 1.000614396935000E+10  -4.983780903136853E-1    6.990812672669473E-2    3.708815173122443E-4    3.361964470701483E-4    2.993900982162545E-4    3.679539262301246E-4   -3.589786941517233E-1    3.457909386334276E-1
 1.000614714257500E+10  -4.983135766431237E-1    7.019568055417656E-2    3.438366798364069E-4    3.727507742739078E-4    3.613513743276422E-4    3.830338454474764E-4   -3.587350557267374E-1    3.461500534416450E-1
 1.000615031580000E+10  -4.982187158992500E-1    7.035041284070000E-2    3.430163191452442E-4    3.621001390438813E-4    3.290480826719143E-4    3.899584076656994E-4   -3.585134625696523E-1    3.464180031597022E-1
 1.000615348902500E+10  -4.981647614866085E-1    7.059319354590783E-2    3.628131167628238E-4    4.017761676038316E-4    3.170324532134633E-4    3.733153996442039E-4   -3.582531867810065E-1    3.465618319648647E-1
 1.000615666225000E+10  -4.981540482857625E-1    7.075791100916835E-2    3.674141846654828E-4    3.969468583536734E-4    3.455962826453609E-4    4.382695288794350E-4   -3.580251530267551E-1    3.467730189299101E-1
 1.000615983547500E+10  -4.982673980089028E-1    7.109102538604012E-2    3.779075858493925E-4    3.859095307140813E-4    3.720246715503205E-4    4.096740236672080E-4   -3.578967299919122E-1    3.469932897863977E-1
 1.000616300870000E+10  -4.981720512604768E-1    7.115378965313231E-2    4.014073317541686E-4    3.914549976564035E-4    3.560790509904070E-4    4.152502764198216E-4   -3.576193738949256E-1    3.473437233208835E-1
 1.000616618192500E+10  -4.981357052777572E-1    7.137191648309123E-2    4.370864048300079E-4    4.021735221647071E-4    3.231266708326165E-4    4.356413464541383E-4   -3.572985004846848E-1    3.475460664125740E-1
 1.000616935515000E+10  -4.982302961017454E-1    7.153228464247417E-2    4.199092678615746E-4    4.463249639614393E-4    3.760863256875048E-4    4.397313526512569E-4   -3.572019740345593E-1    3.477931541323446E-1
 1.000617252837500E+10  -4.981458191736802E-1    7.199438229424740E-2    4.139516218017859E-4    4.327021502118530E-4    3.763012142089310E-4    4.052122239156278E-4   -3.568652443167944E-1    3.480460455955419E-1
 1.000617570160000E+10  -4.980608002846601E-1    7.200579623605827E-2    4.134586479309462E-4    4.351369585627887E-4    3.865424943226606E-4    4.673493943552640E-4   -3.566522284065912E-1    3.483301333132140E-1
 1.000617887482500E+10  -4.981641201715714E-1    7.220127800864538E-2    4.085257258700160E-4    4.783781672670159E-4    3.732895693301035E-4    5.049619061449443E-4   -3.563623611074823E-1    3.483769498595569E-1
 1.000618204805000E+10  -4.980715105407146E-1    7.249476969952676E-2    4.353339536184640E-4    4.511514765542624E-4    4.142186178230164E-4    4.579648805669863E-4   -3.560764671058954E-1    3.486115274159723E-1
 1.000618522127500E+10  -4.980155271613350E-1    7.265816371463406E-2    4.527101469872266E-4    4.586803578891252E-4    4.232432733968769E-4    5.267717787291856E-4   -3.557840562321449E-1    3.488974347042454E-1
 1.000618839450000E+10  -4.979847272527656E-1    7.286471304094853E-2    4.625415925121120E-4    4.775021469058216E-4    4.209089441428350E-4    5.067287532877334E-4   -3.556633366624323E-1    3.491503833628222E-1
 1.000619156772500E+10  -4.980555334983617E-1    7.318714870700370E-2    4.596448727172249E-4    5.036904327791045E-4    4.325315592802951E-4    5.401099211212678E-4   -3.553459306722745E-1    3.494211856603386E-1
 1.000619474095000E+10  -4.980072374193053E-1    7.324058728486153E-2    4.708638711230474E-4    5.394940013240325E-4    4.386406395784904E-4    5.542594167692383E-4   -3.551956964610581E-1    3.495414602503200E-1
 1.000619791417500E+10  -4.978256749944157E-1    7.344167466494773E-2    4.864004625492815E-4    5.238966698262634E-4    4.762561843202284E-4    5.530041438294248E-4   -3.548969073274925E-1    3.500271487028858E-1
 1.000620108740000E+10  -4.979915280399827E-1    7.355816307204303E-2    4.900668947386147E-4    5.453242614092719E-4    4.807277277742712E-4    5.547203135337752E-4   -3.547395675476146E-1    3.500820260557068E-1
 1.000620426062500E+10  -4.979245816955110E-1    7.378862403410426E-2    4.728087904876156E-4    5.544777373611292E-4    4.638711506601261E-4    5.843703183949763E-4   -3.543521572706267E-1    3.503569856987147E-1
 1.000620743385000E+10  -4.978256107010351E-1    7.405651338942411E-2    5.331676973727416E-4    5.690023821703397E-4    4.748179595977278E-4    5.966036999981539E-4   -3.541102946684548E-1    3.507297050587173E-1
 1.000621060707500E+10  -4.977708910088480E-1    7.427577418373209E-2    5.614356966257682E-4    6.283375287074068E-4    4.922457925370766E-4    5.961867060406644E-4   -3.537471865377533E-1    3.509943417783588E-1
 1.000621378030000E+10  -4.978431046832553E-1    7.455144621118362E-2    5.275369854307771E-4    5.723065912638573E-4    5.323333356642100E-4    6.016161300964240E-4   -3.536109641344215E-1    3.510824134622101E-1
 1.000621695352500E+10  -4.978054530325732E-1    7.479685318390344E-2    5.539278934820011E-4    5.938788474345472E-4    4.919946571969818E-4    6.177216175176153E-4   -3.532860375153498E-1    3.513858561905391E-1
 1.000622012675000E+10  -4.977223616567908E-1    7.501335000675603E-2    5.483897750302315E-4    6.201977775683725E-4    5.435650170766735E-4    6.226781113983622E-4   -3.530952284611511E-1    3.515407716856305E-1
 1.000622329997500E+10  -4.977341182547719E-1    7.523230956741195E-2    6.052153877152195E-4    6.262626619211690E-4    5.305099227900204E-4    6.700197490953370E-4   -3.528325960099435E-1    3.519773185789559E-1
 1.000622647320000E+10  -4.978265907653728E-1    7.540833388975178E-2    6.121136536709983E-4    6.330145277556657E-4    5.678542649625422E-4    6.794167459014255E-4   -3.524702645231498E-1    3.522023958981920E-1
 1.000622964642500E+10  -4.977458554964448E-1    7.557613907718920E-2    5.978552121181752E-4    6.624920673005466E-4    5.366821848040998E-4    6.656600886412458E-4   -3.522912514527942E-1    3.522762893607955E-1
 1.000623281965000E+10  -4.975977741992285E-1    7.567649051203787E-2    6.163356169249050E-4    6.896125993363932E-4    5.530455090719906E-4    7.189792954374616E-4   -3.519918851649946E-1    3.527303910790818E-1
 1.000623599287500E+10  -4.977310470252844E-1    7.592480746713187E-2    6.012803058506749E-4    6.946905702296416E-4    5.769256212352535E-4    7.022948496205950E-4   -3.516929318174997E-1    3.528395343674846E-1
 1.000623916610000E+10  -4.976209706766654E-1    7.619459923004127E-2    6.109125298321672E-4    7.209392472183053E-4    6.111531139863874E-4    7.266813774909315E-4   -3.513703994123190E-1    3.531819359090244E-1
 1.000624233932500E+10  -4.976586931818408E-1    7.639527603651931E-2    6.532301212117137E-4    7.099677085931961E-4    6.452119760993575E-4    7.359774605196147E-4   -3.510269442243995E-1    3.533697868420760E-1
 1.000624551255000E+10  -4.975523537954832E-1    7.641372841285446E-2    6.643084118257969E-4    7.139467730867458E-4    6.177349915317975E-4    7.490717283488809E-4   -3.508753079522553E-1    3.536280695032671E-1
 1.000624868577500E+10  -4.974278003554615E-1    7.669660019302110E-2    6.878638375343569E-4    7.490258492962612E-4    6.407920339926997E-4    7.640272993778123E-4   -3.504177988527690E-1    3.540171348139046E-1
 1.000625185900000E+10  -4.975600932679564E-1    7.701263073413067E-2    7.137594324754486E-4    7.640526733871951E-4    6.514558448496829E-4    7.806170042376371E-4   -3.501738263773702E-1    3.541882540729678E-1
 1.000625503222500E+10  -4.974042271826875E-1    7.731323324970768E-2    7.115477021002800E-4    7.960389600679316E-4    6.344800925711937E-4    7.862540944366677E-4   -3.498702866828557E-1    3.545193308020280E-1
 1.000625820545000E+10  -4.973883592713413E-1    7.737136216680029E-2    7.201024570675759E-4    7.590448653226596E-4    6.571740920995748E-4    8.226252327379241E-4   -3.496165484946014E-1    3.547563815337229E-1
 1.000626137867500E+10  -4.973184746015709E-1    7.774392773066131E-2    7.142007119642833E-4    8.204986770664414E-4    6.725736427316501E-4    8.103049751118554E-4   -3.494157835186332E-1    3.549244699168373E-1
 1.000626455190000E+10  -4.974524720424446E-1    7.779990175188865E-2    7.364589892678177E-4    8.211036892505372E-4    6.949702570476365E-4    8.401194254425050E-4   -3.490403277593936E-1    3.551535606917171E-1
 1.000626772512500E+10  -4.972925040880594E-1    7.800339094432657E-2    7.467554791698587E-4    8.183659668690074E-4    6.613965172548641E-4    8.747377542658644E-4   -3.487312097438533E-1    3.553461039163928E-1
 1.000627089835000E+10  -4.972776512455739E-1    7.827821637914698E-2    7.877223108882707E-4    8.583337863622494E-4    7.490439300008804E-4    9.072125696634267E-4   -3.484626057110524E-1    3.558614542982793E-1
 1.000627407157500E+10  -4.974617370477659E-1    7.844406424295415E-2    7.621562201297451E-4    8.735955049091987E-4    7.457196721668649E-4    9.307272039891377E-4   -3.479853829459544E-1    3.559591769142685E-1
 1.000627724480000E+10  -4.972961141148954E-1    7.866292113537686E-2    7.923833954968613E-4    9.380811653542504E-4    7.600364403134928E-4    8.922463698874045E-4   -3.476720053334200E-1    3.561981839971096E-1
 1.000628041802500E+10  -4.972567616935707E-1    7.879323486809051E-2    8.196976435943257E-4    8.998394151661969E-4    7.923228100985817E-4    8.893884632703642E-4   -3.474655634268443E-1    3.566453958270175E-1
 1.000628359125000E+10  -4.973048227923749E-1    7.892833178476168E-2    8.196078765329917E-4    9.076114881501718E-4    7.782624384992352E-4    9.244082210127111E-4   -3.470614988424343E-1    3.567784803468709E-1
