#  HZ   S   RI   R     50.00 
! Rohde & Schwarz Vector Network Analyzer 
! Rohde-Schwarz,ZNB20-2Port,1311601062101988,3.16
! Created: UTC 3/20/2024, 12:03:38 PM
! freq[Hz]                re:S11                  im:S11                  re:S21                  im:S21                  re:S12                  im:S12                  re:S22                  im:S22
 1.000601474900000E+10  -4.991949114332888E-1    6.135938320350467E-2    9.395558741339878E-5    1.987643210687430E-5    1.005381071667948E-4    3.907018575769491E-5   -3.673366800259362E-1    3.371428723677661E-1
 1.000601787260000E+10  -4.992193010690698E-1    6.162405981479927E-2    9.941363695902427E-5    4.180823028861219E-5    1.111894006776523E-4    4.458669642961735E-5   -3.671260839161005E-1    3.373431004710383E-1
 1.000602099620000E+10  -4.992879282511720E-1    6.192243541013664E-2    1.150377472548671E-4    6.308878558821136E-5    1.247974578642177E-4    6.825449997442189E-5   -3.669638058477252E-1    3.373921943586258E-1
 1.000602411980000E+10  -4.992316499700041E-1    6.207939317311977E-2    1.180051954582402E-4    3.970404151080669E-5    1.238832525376333E-4    6.631787389554543E-5   -3.668132843957950E-1    3.376006201862548E-1
 1.000602724340000E+10  -4.991919281744965E-1    6.225791696380140E-2    1.371327790329989E-4    3.800572575987767E-5    1.386432469350637E-4    2.808854635732811E-5   -3.666856229005298E-1    3.378814723232483E-1
 1.000603036700000E+10  -4.991751006342658E-1    6.253399686229470E-2    1.177773460451779E-4    7.470848941809147E-5    8.508376025000425E-5    7.509129480311638E-5   -3.663645060097905E-1    3.380994815818685E-1
 1.000603349060000E+10  -4.991612226963303E-1    6.273833741913049E-2    1.274557692404409E-4    8.831323950450185E-5    1.205176713992960E-4    4.109045193730156E-5   -3.661928937942065E-1    3.383430258397806E-1
 1.000603661420000E+10  -4.990500981447814E-1    6.296741009994609E-2    1.328172593596754E-4    7.728649789599636E-5    1.323281449081101E-4    6.076043263821310E-5   -3.659285665996727E-1    3.385758917786206E-1
 1.000603973780000E+10  -4.992158210278479E-1    6.308916185646765E-2    1.322036983388841E-4    7.309153070721921E-5    1.496759018929187E-4    7.254957714360857E-5   -3.658548939625982E-1    3.386325647422387E-1
 1.000604286140000E+10  -4.991256109737258E-1    6.331998922602373E-2    1.499464610801747E-4    8.305947401969443E-5    1.228577984455282E-4    1.046151494569525E-4   -3.654998106293421E-1    3.389240234648627E-1
 1.000604598500000E+10  -4.990556495815601E-1    6.346518011505335E-2    1.404344727148863E-4    9.061407369771590E-5    1.398669063732975E-4    1.013671376356650E-4   -3.653290165377404E-1    3.390099072063689E-1
 1.000604910860000E+10  -4.990439604319898E-1    6.373003896277886E-2    9.542406027648052E-5    8.410214801016133E-5    1.668814460998851E-4    7.743778672170168E-5   -3.651848691060871E-1    3.391313650911638E-1
 1.000605223220000E+10  -4.989891620500152E-1    6.395493919274586E-2    1.423915770290037E-4    1.086640038597946E-4    1.862960783193967E-4    1.136056124126276E-4   -3.651416205174747E-1    3.395422409950140E-1
 1.000605535580000E+10  -4.990080394577268E-1    6.404789851717906E-2    1.629845611043168E-4    1.112987175004350E-4    1.602534325107003E-4    1.304733395537819E-4   -3.648692437982141E-1    3.397127729522345E-1
 1.000605847940000E+10  -4.989239535338238E-1    6.424447068808956E-2    1.692999414278634E-4    1.289500522873625E-4    1.312953525340981E-4    1.361667296270411E-4   -3.648180297417578E-1    3.399177459421593E-1
 1.000606160300000E+10  -4.989142918477593E-1    6.446976138481804E-2    1.472363239081270E-4    1.073343952253636E-4    1.837205575569670E-4    1.138870884173769E-4   -3.645291228282216E-1    3.400968842591460E-1
 1.000606472660000E+10  -4.988062197880934E-1    6.474190034597234E-2    1.465294974337697E-4    1.531765089500346E-4    9.971883690501985E-5    1.327670717994466E-4   -3.643963769985363E-1    3.404317595285357E-1
 1.000606785020000E+10  -4.989629068041680E-1    6.488829598452503E-2    1.745702293413565E-4    1.311210385290720E-4    1.838330774142257E-4    1.511929298982365E-4   -3.640613208009744E-1    3.405713469225116E-1
 1.000607097380000E+10  -4.989603261495466E-1    6.516902170217061E-2    1.434719255837091E-4    1.338682165645484E-4    1.648533945021293E-4    1.662406747039651E-4   -3.638363530999136E-1    3.406379536444570E-1
 1.000607409740000E+10  -4.988501754697481E-1    6.540891133478700E-2    2.139444566355594E-4    1.408963334076121E-4    1.607647054002989E-4    1.480698313700452E-4   -3.637009040992169E-1    3.410173414579726E-1
 1.000607722100000E+10  -4.988279960237500E-1    6.546696616733756E-2    1.904105639694764E-4    1.657972600472128E-4    1.710106568286444E-4    1.706202563617120E-4   -3.635596193113295E-1    3.412359255135255E-1
 1.000608034460000E+10  -4.989007611780731E-1    6.568769133836275E-2    1.725697429728468E-4    1.864450762070506E-4    1.471307534521822E-4    2.176771600975597E-4   -3.634054397687622E-1    3.413888527808154E-1
 1.000608346820000E+10  -4.989137058582577E-1    6.592546341369092E-2    2.229236732740533E-4    1.628146335461624E-4    1.963195146810383E-4    1.915574150877528E-4   -3.631032013548748E-1    3.416544161914488E-1
 1.000608659180000E+10  -4.987694240680796E-1    6.617183757016966E-2    1.894269666000777E-4    1.811798572654269E-4    2.049740559285942E-4    1.868587000695573E-4   -3.629121575471990E-1    3.417797553746179E-1
 1.000608971540000E+10  -4.988082735978665E-1    6.645018181588060E-2    2.116909563083942E-4    1.475197040296579E-4    2.239490683899530E-4    2.237325924421724E-4   -3.628567058586982E-1    3.419630666836725E-1
 1.000609283900000E+10  -4.986955798114580E-1    6.656801649945994E-2    2.033481813008133E-4    2.027452931177594E-4    1.989193378239610E-4    2.156107731528329E-4   -3.626063286144666E-1    3.423718201665064E-1
 1.000609596260000E+10  -4.987159784265439E-1    6.679159902305704E-2    2.488705243961888E-4    1.976510665266238E-4    2.050650096394241E-4    2.062073190496565E-4   -3.623817837764989E-1    3.425783285782603E-1
 1.000609908620000E+10  -4.987579372530589E-1    6.696239656063077E-2    2.312066343617365E-4    2.356315716381372E-4    2.199944028357379E-4    2.042279334187960E-4   -3.621572663000173E-1    3.428252465206378E-1
 1.000610220980000E+10  -4.987386505620310E-1    6.706621612720601E-2    2.461400745455758E-4    2.328463450203267E-4    2.400151672245358E-4    2.069331521706837E-4   -3.619257006472330E-1    3.429060760171934E-1
 1.000610533340000E+10  -4.986290467064095E-1    6.728989560681460E-2    2.262835221608495E-4    2.506611383149399E-4    2.047319293927646E-4    2.200997801316289E-4   -3.617345819988301E-1    3.430206039878904E-1
 1.000610845700000E+10  -4.986007260346408E-1    6.757751497757726E-2    2.596095983928997E-4    2.483128457865963E-4    2.413780891469107E-4    2.712309142978520E-4   -3.614582475280894E-1    3.432655908163347E-1
 1.000611158060000E+10  -4.986792697453671E-1    6.773686619280488E-2    2.538676830612692E-4    2.408074693595244E-4    2.115100584410023E-4    2.864501474459930E-4   -3.613971966380742E-1    3.435982912608354E-1
 1.000611470420000E+10  -4.985207742443543E-1    6.798834321720766E-2    2.613311823530293E-4    2.629055460521146E-4    2.366938586852205E-4    2.797345657415793E-4   -3.612032845914042E-1    3.438763557565745E-1
 1.000611782780000E+10  -4.985255428418341E-1    6.818078782696246E-2    2.897246671833680E-4    2.486647602064573E-4    2.511264122669110E-4    2.493355392589346E-4   -3.610011426280920E-1    3.439479520492097E-1
 1.000612095140000E+10  -4.986284761148683E-1    6.835555538389314E-2    2.715388919118374E-4    2.720136682234549E-4    2.506044680057105E-4    2.913261897787827E-4   -3.606320634425004E-1    3.441156354897579E-1
 1.000612407500000E+10  -4.984942800253005E-1    6.863894007508643E-2    2.940539691979173E-4    2.725589898291828E-4    2.499956209499739E-4    2.901259188805586E-4   -3.605205289977980E-1    3.443859477797580E-1
 1.000612719860000E+10  -4.985297091548766E-1    6.887725781370062E-2    2.868094421360854E-4    2.791598196360990E-4    2.759341407461117E-4    2.929120272542317E-4   -3.603059244504761E-1    3.446199367072755E-1
 1.000613032220000E+10  -4.985256807856712E-1    6.915399388114055E-2    2.956759268745859E-4    3.100449474558105E-4    2.398037690583302E-4    3.159171501946611E-4   -3.600063583544595E-1    3.447724413142504E-1
 1.000613344580000E+10  -4.984318215440893E-1    6.921436750594981E-2    3.167668821730039E-4    3.555535444220796E-4    2.745483727729892E-4    3.210982167580090E-4   -3.598005524431742E-1    3.450950960833190E-1
 1.000613656940000E+10  -4.983823573708621E-1    6.947396016935938E-2    2.938195297247646E-4    3.200043743597896E-4    2.835958705824482E-4    3.406132500218402E-4   -3.597031845893334E-1    3.454662055210222E-1
 1.000613969300000E+10  -4.984175019581462E-1    6.954880125980201E-2    2.930495912177918E-4    3.449770543109512E-4    2.949783916292112E-4    3.587178890408230E-4   -3.593790202849296E-1    3.455202255762870E-1
 1.000614281660000E+10  -4.983742758202893E-1    6.984744671929834E-2    3.207661302651046E-4    3.712330683806266E-4    2.952145249760108E-4    3.585300255003992E-4   -3.592429352089359E-1    3.457504025754625E-1
 1.000614594020000E+10  -4.982557967256074E-1    7.000571134190565E-2    3.433989991793666E-4    3.584298175335370E-4    2.898930928410264E-4    3.541846726499070E-4   -3.589080149588597E-1    3.459072049700810E-1
 1.000614906380000E+10  -4.982652354876483E-1    7.018025502343701E-2    3.620668473895321E-4    3.574009079371309E-4    3.038686149374774E-4    3.598002572389988E-4   -3.589115823548455E-1    3.462431977781348E-1
 1.000615218740000E+10  -4.982777501204191E-1    7.043494491942248E-2    3.457341362865857E-4    3.407433223467908E-4    3.612212925636001E-4    3.668208125713154E-4   -3.585515261150423E-1    3.463708017507084E-1
 1.000615531100000E+10  -4.981540910594438E-1    7.067766466332069E-2    3.454491014096284E-4    3.900493726358028E-4    3.215509668967606E-4    4.016317682287990E-4   -3.583896117452389E-1    3.467167995867788E-1
 1.000615843460000E+10  -4.982652830828078E-1    7.088136710727160E-2    3.435260714708670E-4    3.816278751701420E-4    3.349844932729320E-4    4.246617427453635E-4   -3.581435971039231E-1    3.469886364099817E-1
 1.000616155820000E+10  -4.982477849853227E-1    7.102331926167681E-2    3.677722548333170E-4    3.914008754913438E-4    3.367689062537414E-4    3.787283091316227E-4   -3.579106817563626E-1    3.472374078569751E-1
 1.000616468180000E+10  -4.982497145334042E-1    7.122319377228369E-2    3.926476668694800E-4    4.167385376541571E-4    3.723348491904331E-4    4.291516821910247E-4   -3.576958178392255E-1    3.473666922929029E-1
 1.000616780540000E+10  -4.980591725726114E-1    7.154671906185957E-2    3.824373107709632E-4    4.165936130442969E-4    3.652687645762334E-4    4.343270453450512E-4   -3.574524400489940E-1    3.475666783392587E-1
 1.000617092900000E+10  -4.981717438955244E-1    7.172681618863214E-2    4.021423217111394E-4    4.334535383188542E-4    3.430723459227857E-4    4.303303556377826E-4   -3.570755491091014E-1    3.477933834252949E-1
 1.000617405260000E+10  -4.980935617374991E-1    7.190092215735443E-2    3.807954563275857E-4    4.331573194984157E-4    3.726911240614793E-4    4.363807826691514E-4   -3.570402197481260E-1    3.479725017151790E-1
 1.000617717620000E+10  -4.981878524432151E-1    7.213761537998066E-2    3.856896673541877E-4    4.454554774243993E-4    3.713678849362081E-4    4.682693332902464E-4   -3.567371455898301E-1    3.482900666210284E-1
 1.000618029980000E+10  -4.980618579544333E-1    7.231737403520462E-2    4.345788032054174E-4    4.758900878713447E-4    3.910962783026102E-4    5.040423912010875E-4   -3.565063594028089E-1    3.484665015325388E-1
 1.000618342340000E+10  -4.981396823346692E-1    7.264133267929018E-2    4.326667021868873E-4    4.667801150357509E-4    3.969078759782810E-4    4.838725790746299E-4   -3.563323309317036E-1    3.486997897473805E-1
 1.000618654700000E+10  -4.980359620790790E-1    7.269305729450375E-2    4.523186955979944E-4    4.794652525593107E-4    4.079508736917828E-4    4.801544969065684E-4   -3.559148981933095E-1    3.488990585357353E-1
 1.000618967060000E+10  -4.981199943492154E-1    7.286310595201163E-2    4.389318214950301E-4    4.882844448088536E-4    4.294025378483250E-4    5.183545160361514E-4   -3.557474681325163E-1    3.491221687269428E-1
 1.000619279420000E+10  -4.979968140084367E-1    7.303608670541448E-2    4.480809484565095E-4    4.909386121282661E-4    4.204074030524415E-4    5.007089275901895E-4   -3.554928279000253E-1    3.494281438782084E-1
 1.000619591780000E+10  -4.980754917877070E-1    7.336350799463522E-2    4.363765483515604E-4    5.099651854774430E-4    4.434959834862870E-4    5.385415207804611E-4   -3.553031320529509E-1    3.496685673723832E-1
 1.000619904140000E+10  -4.979927053818928E-1    7.354902680240374E-2    4.691393889303641E-4    5.219863880192944E-4    3.970517366890532E-4    5.640203473650529E-4   -3.550608149404739E-1    3.499512201539992E-1
 1.000620216500000E+10  -4.979274585438935E-1    7.373002226128773E-2    4.923429096840795E-4    5.719215539176728E-4    4.289224531239756E-4    5.661800029460012E-4   -3.547052946185080E-1    3.502646504934220E-1
 1.000620528860000E+10  -4.977950311763445E-1    7.389813865348896E-2    4.928950038288146E-4    5.320127487291863E-4    4.509239869337598E-4    5.695960467208454E-4   -3.545681011773766E-1    3.502956183659714E-1
 1.000620841220000E+10  -4.978797440472897E-1    7.405024832856338E-2    4.913745268284356E-4    5.404108205734942E-4    4.571831832914180E-4    5.784987847257452E-4   -3.542348234766048E-1    3.506618725827904E-1
 1.000621153580000E+10  -4.977642380662701E-1    7.438459316907622E-2    5.097132486805117E-4    5.828772751863205E-4    4.507952588240961E-4    5.874841940326437E-4   -3.541054790465972E-1    3.508542799676467E-1
 1.000621465940000E+10  -4.977496942371857E-1    7.447750728538324E-2    4.890450432267662E-4    5.834915352928809E-4    4.733910593938846E-4    5.591130900886677E-4   -3.536568892624259E-1    3.511305585540376E-1
 1.000621778300000E+10  -4.978579820336715E-1    7.471038599098662E-2    5.562419804126376E-4    5.980810802153656E-4    5.079024037046466E-4    6.008856578735168E-4   -3.534890801030557E-1    3.513740684332633E-1
 1.000622090660000E+10  -4.977151063822966E-1    7.478269181031964E-2    5.164988433459049E-4    6.079375197473898E-4    4.757794241383379E-4    6.216906845669390E-4   -3.533285539965240E-1    3.515721440878827E-1
 1.000622403020000E+10  -4.976735677864143E-1    7.510650269765386E-2    5.306101433001484E-4    6.414680197870135E-4    4.918595599562370E-4    6.607250012059357E-4   -3.529505944964687E-1    3.518903212154315E-1
 1.000622715380000E+10  -4.976343772687222E-1    7.520843784345452E-2    5.496122747821649E-4    6.414962896454838E-4    5.310474997719880E-4    6.594739579126510E-4   -3.526517862774131E-1    3.521631653600266E-1
 1.000623027740000E+10  -4.976735511106294E-1    7.555537262643741E-2    5.667302193373160E-4    6.300919820472116E-4    5.147512152369977E-4    6.724579121715850E-4   -3.524650715874423E-1    3.523762056957261E-1
 1.000623340100000E+10  -4.975868633979169E-1    7.587121762180590E-2    5.882491450771622E-4    6.678314991776988E-4    5.413230687500228E-4    6.939317787531975E-4   -3.520922447399394E-1    3.526529072406486E-1
 1.000623652460000E+10  -4.975378710884909E-1    7.591677875461231E-2    5.810907400744932E-4    6.860748977939537E-4    5.727855845708352E-4    6.615331441687572E-4   -3.518654893458278E-1    3.528326067362668E-1
 1.000623964820000E+10  -4.976834008198557E-1    7.619494184488393E-2    6.090840403404263E-4    6.931936487837277E-4    5.632268772708211E-4    6.903709694738402E-4   -3.515850714628682E-1    3.530913205890345E-1
 1.000624277180000E+10  -4.975022096061583E-1    7.635634028136518E-2    6.213711641664712E-4    7.357414456726390E-4    6.053463722223782E-4    6.847358565273793E-4   -3.512597600762346E-1    3.532404224730429E-1
 1.000624589540000E+10  -4.976092866200824E-1    7.671449927954407E-2    6.234598563939086E-4    7.079544501930061E-4    5.789932084480261E-4    6.978583006252051E-4   -3.509868750085774E-1    3.535380382125832E-1
 1.000624901900000E+10  -4.976039346253448E-1    7.679853857929521E-2    6.572105454979958E-4    7.263045617706146E-4    6.059431605851503E-4    7.444095871456787E-4   -3.507323600676257E-1    3.537716003728152E-1
 1.000625214260000E+10  -4.974724443825141E-1    7.698064598822695E-2    6.469904640500892E-4    7.395510753542451E-4    6.156141919074163E-4    7.704558961371858E-4   -3.505879515867129E-1    3.541314400646171E-1
 1.000625526620000E+10  -4.975080441180130E-1    7.728248234000758E-2    6.753391839120790E-4    7.586513152077234E-4    6.216538980122312E-4    7.859051313342435E-4   -3.502180680172695E-1    3.543336515296163E-1
 1.000625838980000E+10  -4.975124543513845E-1    7.733616821567722E-2    6.858624673816129E-4    7.817618775900634E-4    6.246379819012740E-4    7.792644417625228E-4   -3.499590612521188E-1    3.545324498596945E-1
 1.000626151340000E+10  -4.975508795254126E-1    7.764622456311447E-2    7.105132206608141E-4    7.790004327796373E-4    6.318715367559319E-4    8.061722849839304E-4   -3.495244460303116E-1    3.549661760071536E-1
 1.000626463700000E+10  -4.974340624656856E-1    7.782826957891899E-2    7.247179250057731E-4    8.039954899076835E-4    6.846945614575565E-4    8.154591191948628E-4   -3.492303320378978E-1    3.551396101054036E-1
 1.000626776060000E+10  -4.972801753969475E-1    7.794400686155956E-2    7.289984683925776E-4    8.205621631992347E-4    6.786823652624555E-4    8.032596246301653E-4   -3.490099419318922E-1    3.553963176892208E-1
 1.000627088420000E+10  -4.974429151211993E-1    7.817762341027669E-2    7.270910289536261E-4    8.071523054146197E-4    6.786953940623259E-4    8.905519700592337E-4   -3.487178267566035E-1    3.556575568276266E-1
 1.000627400780000E+10  -4.972255743780568E-1    7.836495045749312E-2    7.642811598742367E-4    8.463638261546906E-4    6.854627511258701E-4    8.671794455486953E-4   -3.482360952167731E-1    3.558989221743465E-1
 1.000627713140000E+10  -4.972961898477831E-1    7.855699697780069E-2    7.596587003529358E-4    8.641312958009139E-4    7.500589355409943E-4    8.993829992812538E-4   -3.480146102800454E-1    3.561993483286944E-1
 1.000628025500000E+10  -4.973488633739483E-1    7.878612015111593E-2    8.025779996925120E-4    8.731504389352852E-4    7.319311964337872E-4    9.066729666614654E-4   -3.477712458830207E-1    3.562903471950657E-1
 1.000628337860000E+10  -4.973380837128122E-1    7.900527997361913E-2    8.076662396690804E-4    9.052715181250234E-4    7.146013289613275E-4    9.206747398396658E-4   -3.474064052273035E-1    3.565858913167294E-1
 1.000628650220000E+10  -4.972846106264253E-1    7.919348518716304E-2    8.086492032652688E-4    9.098015152897413E-4    7.672522534575403E-4    9.197980211709488E-4   -3.471471645585939E-1    3.570280403455299E-1
 1.000628962580000E+10  -4.971550598322871E-1    7.944143672251607E-2    8.231398250808182E-4    9.412728293359463E-4    7.897975861377045E-4    9.482759963913161E-4   -3.467989462870559E-1    3.572065215801274E-1
 1.000629274940000E+10  -4.971583255321334E-1    7.962615621517355E-2    8.862957473661046E-4    9.525895361098077E-4    7.892020839189341E-4    9.677139774149590E-4   -3.465442178788888E-1    3.575922364798435E-1
 1.000629587300000E+10  -4.970680033039309E-1    7.981178633488738E-2    8.901035197465252E-4    9.861576702688813E-4    8.386906789837088E-4    9.720673169065379E-4   -3.461377661197677E-1    3.577630027256063E-1
