#  HZ   S   RI   R     50.00 
! Rohde & Schwarz Vector Network Analyzer 
! Rohde-Schwarz,ZNB20-2Port,1311601062101988,3.16
! Created: UTC 3/20/2024, 12:04:15 PM
! freq[Hz]                re:S11                  im:S11                  re:S21                  im:S21                  re:S12                  im:S12                  re:S22                  im:S22
 1.000608938600000E+10  -4.988734617035279E-1    6.604721504435686E-2    1.572666152041456E-4    1.694672327140586E-4    1.512481639090173E-4    1.287148220601921E-4   -3.634642070946581E-1    3.416965235083141E-1
 1.000609222015000E+10  -4.988207715567167E-1    6.621750514561942E-2    1.365296438223511E-4    1.554622984561337E-4    1.693389947741491E-4    1.751852087861676E-4   -3.630444994540757E-1    3.419515977471450E-1
 1.000609505430000E+10  -4.987655052058132E-1    6.653804545204457E-2    1.680970080771983E-4    1.950877439976839E-4    1.891498571097075E-4    1.764293353404121E-4   -3.629919930624560E-1    3.421948719246988E-1
 1.000609788845000E+10  -4.988518746977583E-1    6.665158289780419E-2    1.751514076922966E-4    1.754955892547197E-4    1.626269379367203E-4    1.990991629845338E-4   -3.628188474258254E-1    3.422838656592204E-1
 1.000610072260000E+10  -4.987069284222569E-1    6.680431917665443E-2    2.040286542644959E-4    1.715065612837800E-4    1.667890046637506E-4    1.628143033274080E-4   -3.626466889283327E-1    3.425217964187903E-1
 1.000610355675000E+10  -4.988385199411419E-1    6.697018259941023E-2    1.913033702887815E-4    2.011237126269118E-4    1.594371165534209E-4    2.301865158046120E-4   -3.624579716080241E-1    3.427606916620806E-1
 1.000610639090000E+10  -4.987495954576170E-1    6.714908221251542E-2    2.055772022048245E-4    1.695778792368008E-4    1.842739939497876E-4    2.214541180118466E-4   -3.622381847557323E-1    3.428909369733681E-1
 1.000610922505000E+10  -4.987225415253694E-1    6.746954385317702E-2    2.043325514869745E-4    2.010600299073054E-4    1.896674206859621E-4    2.269809021246031E-4   -3.621451820402594E-1    3.429661057418671E-1
 1.000611205920000E+10  -4.985896924945338E-1    6.762093764791111E-2    2.065769728339208E-4    2.142247498459245E-4    1.944351327703487E-4    2.118060850426854E-4   -3.620488783902979E-1    3.432047019374344E-1
 1.000611489335000E+10  -4.985779839552703E-1    6.788807070890078E-2    2.070213029660729E-4    2.304914062472220E-4    1.987106478193894E-4    2.359130758919557E-4   -3.615526288886503E-1    3.435557458600830E-1
 1.000611772750000E+10  -4.985747166999043E-1    6.796998037740676E-2    2.169638805000781E-4    2.331531205932803E-4    2.089364468717012E-4    2.409402106030890E-4   -3.616386010461086E-1    3.439207208030736E-1
 1.000612056165000E+10  -4.988112416332234E-1    6.812223559743896E-2    2.203654813928011E-4    2.383338707709515E-4    2.244964233545373E-4    2.548661632134325E-4   -3.614108438062899E-1    3.438681575221296E-1
 1.000612339580000E+10  -4.987404726305427E-1    6.829878169427087E-2    2.230758502879412E-4    2.167106613172721E-4    1.776287977731349E-4    2.098467516259239E-4   -3.612614169787947E-1    3.440836711221843E-1
 1.000612622995000E+10  -4.986332941258187E-1    6.860906779934764E-2    2.292984710135143E-4    2.704120731633552E-4    1.798015202812929E-4    2.563082978390542E-4   -3.611351771224584E-1    3.441400811714951E-1
 1.000612906410000E+10  -4.985732950503270E-1    6.877211847425134E-2    2.321409495631534E-4    2.521720151361632E-4    2.141925950410943E-4    2.709242570833888E-4   -3.609320298369298E-1    3.444548152376420E-1
 1.000613189825000E+10  -4.985062420527595E-1    6.872557877864455E-2    2.361267767841654E-4    2.365995788550681E-4    2.457393556558649E-4    2.507411444150696E-4   -3.605812486057026E-1    3.448101112007157E-1
 1.000613473240000E+10  -4.984538747120988E-1    6.905398615021562E-2    2.231204825961873E-4    2.811040254256886E-4    1.876062414070139E-4    2.922629201274161E-4   -3.604293286203778E-1    3.449299068189172E-1
 1.000613756655000E+10  -4.986126535573697E-1    6.925078448592153E-2    2.651430863113617E-4    2.891473773569487E-4    2.578742230115449E-4    2.773088041177558E-4   -3.603724338789572E-1    3.452220284957599E-1
 1.000614040070000E+10  -4.984583495442727E-1    6.948467603836815E-2    2.708694403851724E-4    2.821484867293800E-4    2.243705330039575E-4    2.825526250873936E-4   -3.601413268208363E-1    3.452837364592346E-1
 1.000614323485000E+10  -4.985260728514628E-1    6.955144374507259E-2    2.335805390926091E-4    3.047625038090665E-4    2.224439672482162E-4    3.174281098646727E-4   -3.599112311597049E-1    3.456980054583410E-1
 1.000614606900000E+10  -4.984025723106888E-1    6.980589766896549E-2    2.881744109570150E-4    2.952388591412171E-4    2.375780963091549E-4    2.948542530752063E-4   -3.597813986853926E-1    3.455679575097719E-1
 1.000614890315000E+10  -4.984418534631641E-1    7.004358308346609E-2    2.853095497938747E-4    3.242344853606701E-4    2.543831342859304E-4    3.178734733990228E-4   -3.594799045306737E-1    3.459332012605172E-1
 1.000615173730000E+10  -4.983752846732812E-1    7.013429889546793E-2    2.715475591471368E-4    3.039890376190676E-4    2.504809950214669E-4    3.038587475759437E-4   -3.594460073190187E-1    3.461927111545006E-1
 1.000615457145000E+10  -4.984694613674460E-1    7.044431181910921E-2    2.918872367675231E-4    3.093425018814515E-4    2.711523528983022E-4    3.530959031662980E-4   -3.592563615857934E-1    3.463239153524957E-1
 1.000615740560000E+10  -4.983269279780043E-1    7.056945439143569E-2    2.829175335636247E-4    2.859674522409223E-4    2.469918191123997E-4    3.380555711196628E-4   -3.588836551806580E-1    3.464889220505789E-1
 1.000616023975000E+10  -4.984011851766798E-1    7.062641304145933E-2    3.144964282573421E-4    3.319983795464411E-4    2.711061265595529E-4    3.738691960485618E-4   -3.586966904984097E-1    3.468389838860942E-1
 1.000616307390000E+10  -4.982606261743265E-1    7.100696801340707E-2    3.229291260961566E-4    3.588307577900763E-4    2.911567009719400E-4    3.632258375260056E-4   -3.586319467715185E-1    3.469223251407540E-1
 1.000616590805000E+10  -4.982556081941634E-1    7.110782324439593E-2    3.031675834217202E-4    3.946879025674758E-4    2.566654894698213E-4    3.649108203435835E-4   -3.584028519121691E-1    3.473459113318517E-1
 1.000616874220000E+10  -4.983226584234915E-1    7.138150146156426E-2    3.190063451261417E-4    3.877254054091694E-4    2.968795343086905E-4    3.861712170821284E-4   -3.582901381684648E-1    3.474378936336560E-1
 1.000617157635000E+10  -4.980985827412399E-1    7.150921388553684E-2    3.221610066079006E-4    3.971810500969306E-4    3.102534661250711E-4    3.962658592457574E-4   -3.579375793863654E-1    3.476274717431118E-1
 1.000617441050000E+10  -4.981736726244461E-1    7.166507726833501E-2    3.260447342942445E-4    3.833507519947884E-4    3.134395210729417E-4    3.927434255551869E-4   -3.576440265846731E-1    3.478494987307418E-1
 1.000617724465000E+10  -4.982452782965141E-1    7.171572040168980E-2    3.072192954459479E-4    4.189727198960494E-4    3.181944024097154E-4    4.144700462576427E-4   -3.575561289208541E-1    3.479070822947984E-1
 1.000618007880000E+10  -4.982922217930142E-1    7.205326097946650E-2    3.459094780812107E-4    4.081022849521964E-4    3.011750111957029E-4    4.101180336346069E-4   -3.572828168648883E-1    3.483050564600505E-1
 1.000618291295000E+10  -4.981647049810082E-1    7.221857276847080E-2    3.250756718317983E-4    4.173346803077554E-4    3.466090882281978E-4    4.123427616853128E-4   -3.571262587072217E-1    3.484050125664493E-1
 1.000618574710000E+10  -4.983093289448981E-1    7.235842899715202E-2    3.388569564500188E-4    4.301813999061529E-4    3.291352824139463E-4    4.430812031667822E-4   -3.570257123874627E-1    3.485413775549221E-1
 1.000618858125000E+10  -4.981941100389807E-1    7.256419059088516E-2    3.844688965663111E-4    4.120161316584846E-4    3.175489524124061E-4    4.435995432664376E-4   -3.567735012062043E-1    3.488202099994819E-1
 1.000619141540000E+10  -4.981775507575680E-1    7.278900950325533E-2    3.781227651287204E-4    4.344703660880925E-4    3.341520222441229E-4    4.528006132520626E-4   -3.564763094906884E-1    3.490203500033731E-1
 1.000619424955000E+10  -4.981126344086046E-1    7.297330716364572E-2    4.113370973701180E-4    4.691257066543522E-4    3.364465415481763E-4    4.652150449345949E-4   -3.562664717366703E-1    3.491988743890808E-1
 1.000619708370000E+10  -4.981185180034058E-1    7.322641274920960E-2    4.001156368117914E-4    4.844554203896203E-4    3.410385864217310E-4    4.712585191596251E-4   -3.559438471980875E-1    3.493711967109900E-1
 1.000619991785000E+10  -4.981372661724823E-1    7.323483127836555E-2    4.074975586033381E-4    4.487193528541159E-4    3.717594394566681E-4    4.754299409403361E-4   -3.558201076521559E-1    3.495996501309657E-1
 1.000620275200000E+10  -4.981112308503555E-1    7.354770595748410E-2    4.171781247690505E-4    4.815835630470752E-4    3.662094166775259E-4    5.086170529135451E-4   -3.555978893528515E-1    3.500142536831987E-1
 1.000620558615000E+10  -4.979597347836813E-1    7.377601052369108E-2    4.249751708985371E-4    4.850239706274616E-4    3.483042238445239E-4    4.892363105013954E-4   -3.553610424523727E-1    3.501582986898212E-1
 1.000620842030000E+10  -4.979571289686978E-1    7.381347798843682E-2    4.246713546428697E-4    5.233838887798847E-4    3.928994509642465E-4    5.164223829354787E-4   -3.551901889415874E-1    3.502562987060648E-1
 1.000621125445000E+10  -4.980342462612958E-1    7.405210693432972E-2    4.277690382954393E-4    5.327468597094181E-4    3.863233496653041E-4    5.288251048509254E-4   -3.550803768330769E-1    3.505234663296024E-1
 1.000621408860000E+10  -4.979846330937073E-1    7.417754992596079E-2    4.475929865469977E-4    5.299894240842891E-4    4.035516167926665E-4    5.432157845603648E-4   -3.546889120377958E-1    3.507488706087025E-1
 1.000621692275000E+10  -4.979021111170154E-1    7.443433401141668E-2    4.511857925103649E-4    5.450295331878913E-4    4.090842830444582E-4    5.590350542111832E-4   -3.545433712510914E-1    3.509851202651824E-1
 1.000621975690000E+10  -4.978084266126449E-1    7.466805787559394E-2    4.670276460743206E-4    5.296231615927822E-4    4.334168657784145E-4    5.377948732249904E-4   -3.544470254440951E-1    3.511153106632432E-1
 1.000622259105000E+10  -4.978523462816685E-1    7.489756540857806E-2    4.606615790304289E-4    5.686966487151680E-4    4.441554806052934E-4    5.586053527990217E-4   -3.542838527714386E-1    3.512708495487476E-1
 1.000622542520000E+10  -4.979698145049702E-1    7.507660200332583E-2    4.897424000520579E-4    5.527508623459883E-4    4.101864781794579E-4    5.894198098746529E-4   -3.539087929610721E-1    3.516139366075620E-1
 1.000622825935000E+10  -4.979481864581154E-1    7.518109059683191E-2    4.669367079468663E-4    5.709613747931688E-4    4.554256415599653E-4    5.886647716851518E-4   -3.536966237655209E-1    3.518745381261836E-1
 1.000623109350000E+10  -4.978220140057469E-1    7.541375746585997E-2    4.858413290485365E-4    6.178134102737123E-4    4.524322276262339E-4    6.236360680720980E-4   -3.534518258040525E-1    3.520416550286594E-1
 1.000623392765000E+10  -4.977462173816899E-1    7.545142530910028E-2    4.763355550273213E-4    6.049907460293924E-4    4.661297232076866E-4    6.304290453938425E-4   -3.532468027205460E-1    3.522977849530893E-1
 1.000623676180000E+10  -4.976663843301337E-1    7.579921959312920E-2    5.122477371093853E-4    6.309752045867131E-4    4.500228723295026E-4    6.247706106148499E-4   -3.529071748335681E-1    3.525044712351108E-1
 1.000623959595000E+10  -4.977105956455569E-1    7.589451436463701E-2    5.295671605175351E-4    6.253895507582201E-4    4.914321164635983E-4    6.396394010455939E-4   -3.526543172692393E-1    3.527641704839593E-1
 1.000624243010000E+10  -4.977557351398539E-1    7.621792836381332E-2    5.289429742159826E-4    6.229898532255988E-4    4.831763355542850E-4    6.484290844762167E-4   -3.525735969449285E-1    3.529586575192083E-1
 1.000624526425000E+10  -4.977291746069971E-1    7.627017896902663E-2    5.577121800933377E-4    6.436668021867110E-4    4.916340450451221E-4    6.874276685557339E-4   -3.524146153203667E-1    3.532116275093434E-1
 1.000624809840000E+10  -4.976638616122336E-1    7.649968211679511E-2    5.287192693859106E-4    6.557269110166179E-4    5.079125214763045E-4    6.657658049481332E-4   -3.519594407616672E-1    3.533064940782571E-1
 1.000625093255000E+10  -4.976043443832447E-1    7.669941226468076E-2    5.470729391351905E-4    6.666749846655819E-4    4.830744096282393E-4    7.042869791888930E-4   -3.518531523313292E-1    3.536936665620062E-1
 1.000625376670000E+10  -4.977201604064797E-1    7.699157077998822E-2    5.486688129305762E-4    6.747467776617306E-4    5.253360587429975E-4    6.829025928431333E-4   -3.516174315288510E-1    3.538026086233169E-1
 1.000625660085000E+10  -4.975705848642287E-1    7.706062546708348E-2    6.045588181887079E-4    6.905697504907266E-4    5.473656474130911E-4    7.202833686508173E-4   -3.512303029187056E-1    3.541051114539718E-1
 1.000625943500000E+10  -4.975565385516098E-1    7.724075494901179E-2    6.069975219954372E-4    7.238830752851044E-4    5.116775649118043E-4    7.149561445045780E-4   -3.509581869645846E-1    3.543589945128985E-1
 1.000626226915000E+10  -4.974999358681376E-1    7.746342345837028E-2    6.167916274566827E-4    7.037766751441646E-4    5.299344625977819E-4    7.588867186437503E-4   -3.506806999629070E-1    3.544714830978866E-1
 1.000626510330000E+10  -4.974376317109114E-1    7.774858080679740E-2    6.230977749765668E-4    7.305942748168378E-4    5.403769344163610E-4    7.635696869658411E-4   -3.505163708881542E-1    3.547330557857021E-1
 1.000626793745000E+10  -4.974396749435401E-1    7.769415550593452E-2    6.326950521667679E-4    7.541901094066851E-4    5.514300826635105E-4    7.775742994558522E-4   -3.502188151556424E-1    3.550514607784542E-1
 1.000627077160000E+10  -4.975082421129938E-1    7.789909908211232E-2    6.409600056834459E-4    7.739628263720640E-4    6.023259906301735E-4    7.575757610567028E-4   -3.500677039963117E-1    3.551314298612664E-1
 1.000627360575000E+10  -4.974391892397477E-1    7.812886436931221E-2    6.347383073708160E-4    7.720868660737274E-4    5.695897711920474E-4    7.582573724101527E-4   -3.496848146401343E-1    3.555243995977529E-1
 1.000627643990000E+10  -4.974126156710583E-1    7.835983111105708E-2    6.755866986943024E-4    7.862416521273609E-4    6.193753754895510E-4    7.906742849113365E-4   -3.494337853792799E-1    3.557611609559005E-1
 1.000627927405000E+10  -4.973968827416219E-1    7.853996946776737E-2    6.799697901033205E-4    7.880794509085341E-4    6.208922155789629E-4    8.206344512417996E-4   -3.492252778739502E-1    3.559484090569394E-1
 1.000628210820000E+10  -4.974583248770557E-1    7.867786573378481E-2    6.731698755684668E-4    8.218549573491184E-4    6.198187789309053E-4    8.128183081311041E-4   -3.489395551732873E-1    3.562936107470054E-1
 1.000628494235000E+10  -4.972951669309630E-1    7.885942611180041E-2    7.022725809824360E-4    8.181266911823197E-4    6.561964475142246E-4    8.863374109980778E-4   -3.487277734119395E-1    3.564887779178429E-1
 1.000628777650000E+10  -4.973536644916483E-1    7.911098844459845E-2    7.043564715585921E-4    8.461559072983902E-4    6.354542460394808E-4    8.510810334526949E-4   -3.483298755908228E-1    3.566624807225313E-1
 1.000629061065000E+10  -4.972371790494202E-1    7.925632046008926E-2    7.014581179402499E-4    8.457589834397919E-4    6.912891899898206E-4    9.044047541213617E-4   -3.481520182381897E-1    3.569007739298916E-1
 1.000629344480000E+10  -4.973486461824624E-1    7.947563976547110E-2    7.268741428346800E-4    8.776972930637097E-4    6.612925328737319E-4    9.042490085859511E-4   -3.477813720581910E-1    3.570780570411081E-1
 1.000629627895000E+10  -4.971688634796121E-1    7.957603285141007E-2    7.488302922308756E-4    8.800135890257102E-4    6.764860316088128E-4    9.508497182327014E-4   -3.475858498158936E-1    3.574185157378931E-1
 1.000629911310000E+10  -4.971921021335560E-1    7.988026595458374E-2    7.729435650564241E-4    8.898244957496332E-4    6.951147719148028E-4    9.074425252311851E-4   -3.472786477761272E-1    3.576630444187032E-1
 1.000630194725000E+10  -4.972058202997274E-1    7.999077135796182E-2    7.843111852646891E-4    9.081004574287562E-4    7.172526503621104E-4    9.400345204871020E-4   -3.469032306180648E-1    3.580244805718693E-1
 1.000630478140000E+10  -4.972149741670960E-1    8.024340300776402E-2    8.093028191747440E-4    9.244101824229989E-4    7.336022953453417E-4    9.378250154670674E-4   -3.467980970698323E-1    3.581716284000867E-1
 1.000630761555000E+10  -4.971651716871328E-1    8.040941712317390E-2    7.958443891140123E-4    9.650615055688294E-4    7.396494938176802E-4    9.492058014718264E-4   -3.463987798671183E-1    3.584736179164571E-1
 1.000631044970000E+10  -4.972080508802730E-1    8.050783410421537E-2    8.304298484886788E-4    9.409821535102570E-4    7.485999210578979E-4    9.852545210881779E-4   -3.460696233407354E-1    3.586276812674177E-1
 1.000631328385000E+10  -4.971262046013185E-1    8.081481782129565E-2    8.504365681870345E-4    9.889717670057661E-4    7.489795720580819E-4    1.013273393684668E-3   -3.457798994462911E-1    3.590346526147438E-1
 1.000631611800000E+10  -4.971268251560026E-1    8.099977271974089E-2    8.804798743902023E-4    1.009328170692424E-3    7.581898663877848E-4    1.023135271335994E-3   -3.454602316916232E-1    3.591078248748062E-1
 1.000631895215000E+10  -4.970345262740294E-1    8.111828254031267E-2    8.466362296746617E-4    1.017879781911163E-3    7.993797344315816E-4    1.061198683350233E-3   -3.451244219326466E-1    3.593713777375277E-1
 1.000632178630000E+10  -4.969734617485537E-1    8.134686931005757E-2    8.863583212373654E-4    1.026085818735200E-3    8.177192414201684E-4    1.056767457181161E-3   -3.448730966485352E-1    3.597089380905947E-1
 1.000632462045000E+10  -4.971224345993507E-1    8.159242955830895E-2    9.093708336215262E-4    1.067062775651971E-3    8.121098344827344E-4    1.034087260911443E-3   -3.446197281894485E-1    3.599918955115911E-1
 1.000632745460000E+10  -4.969355467317561E-1    8.172425713903310E-2    9.243224306976449E-4    1.084282465290929E-3    8.396853006393531E-4    1.110454059810878E-3   -3.442130593268765E-1    3.601890469055876E-1
 1.000633028875000E+10  -4.969623067353749E-1    8.178098109022057E-2    9.436518395902737E-4    1.087483696448691E-3    8.259092534459735E-4    1.105342820780368E-3   -3.439618550734502E-1    3.604139063240219E-1
 1.000633312290000E+10  -4.968938804998720E-1    8.196404864861608E-2    9.557610805705832E-4    1.078056174503197E-3    8.890278085484214E-4    1.125385300756229E-3   -3.435278846489145E-1    3.608145711097552E-1
 1.000633595705000E+10  -4.968434701766695E-1    8.222792106049703E-2    9.342663992265122E-4    1.137737938746422E-3    8.988334836829578E-4    1.145384869222132E-3   -3.431860832699247E-1    3.608463336908819E-1
 1.000633879120000E+10  -4.968109646730229E-1    8.234147768233903E-2    9.873755869332999E-4    1.171803117602666E-3    9.234587452286939E-4    1.177230901087469E-3   -3.428160966863914E-1    3.613083226193215E-1
 1.000634162535000E+10  -4.968174425760677E-1    8.258607713778800E-2    9.964446000823022E-4    1.150662410043716E-3    9.347302407609123E-4    1.182672413455514E-3   -3.425751053690299E-1    3.614517485341727E-1
 1.000634445950000E+10  -4.968776539124664E-1    8.277796692315086E-2    1.008703528275410E-3    1.168238463347911E-3    9.653798297156835E-4    1.236920143415795E-3   -3.420549825312190E-1    3.618688442208465E-1
