#  HZ   S   RI   R     50.00 
! Rohde & Schwarz Vector Network Analyzer 
! Rohde-Schwarz,ZNB20-2Port,1311601062101988,3.16
! Created: UTC 3/20/2024, 12:04:22 PM
! freq[Hz]                re:S11                  im:S11                  re:S21                  im:S21                  re:S12                  im:S12                  re:S22                  im:S22
 1.000610818900000E+10  -4.988308848581120E-1    6.737380960993251E-2    1.807503074689458E-4    1.829440965586531E-4    1.839850315092529E-4    2.140554431749834E-4   -3.623413968075738E-1    3.429237162067420E-1
 1.000611094247500E+10  -4.987301936554837E-1    6.743473617878556E-2    2.089923122527478E-4    1.990022768189548E-4    1.810383621860314E-4    2.134434854965588E-4   -3.621809902355221E-1    3.432288198865858E-1
 1.000611369595000E+10  -4.987861463515851E-1    6.769196139007691E-2    2.140371588387153E-4    1.928653237144839E-4    1.780521940797194E-4    2.178616663818161E-4   -3.619539861494001E-1    3.434414880651348E-1
 1.000611644942500E+10  -4.986405936429354E-1    6.776617504612006E-2    1.858306245243521E-4    1.906419985849255E-4    1.697331533863126E-4    2.288237857886985E-4   -3.616869691764041E-1    3.435529640377403E-1
 1.000611920290000E+10  -4.987528084677646E-1    6.796183452362207E-2    2.140688299264958E-4    2.071198472420380E-4    2.003423193834669E-4    2.351200206223959E-4   -3.616008196792694E-1    3.438272578950319E-1
 1.000612195637500E+10  -4.987110319797047E-1    6.815951345184965E-2    1.971094734785422E-4    2.360304400021077E-4    1.868953978297016E-4    2.534544675437123E-4   -3.614249780004696E-1    3.438906938449948E-1
 1.000612470985000E+10  -4.985840216170512E-1    6.837733985527036E-2    2.081010183292994E-4    2.326800853310357E-4    1.780914260654810E-4    2.488004789696031E-4   -3.612158003108173E-1    3.441957432239119E-1
 1.000612746332500E+10  -4.986161310652806E-1    6.855198786665567E-2    2.104986279483244E-4    2.569483467314941E-4    1.899679084341202E-4    2.393379449174724E-4   -3.610551846970435E-1    3.442061117119397E-1
 1.000613021680000E+10  -4.986819551478325E-1    6.878052608511337E-2    2.660427343294579E-4    2.314134502693703E-4    2.320059702535338E-4    2.434874120485569E-4   -3.610196852333122E-1    3.444350799496407E-1
 1.000613297027500E+10  -4.987239346420794E-1    6.884744475645417E-2    2.392885129918487E-4    2.694553605522498E-4    2.183068859734176E-4    2.441334186542535E-4   -3.606250335884392E-1    3.447278203566392E-1
 1.000613572375000E+10  -4.986248217099762E-1    6.898116034523745E-2    2.420030629438360E-4    2.299551888746877E-4    2.472670936726369E-4    3.036781442058026E-4   -3.605171647198694E-1    3.448453209738604E-1
 1.000613847722500E+10  -4.985876565221675E-1    6.927837808397459E-2    2.607761511345686E-4    2.639396957712931E-4    2.107823463852446E-4    2.776780823330372E-4   -3.603728341873036E-1    3.450563558155369E-1
 1.000614123070000E+10  -4.986133143733414E-1    6.956033622900765E-2    2.831282170076479E-4    2.649288928785270E-4    2.216872883165056E-4    2.732468950148101E-4   -3.600959297605159E-1    3.452156354722472E-1
 1.000614398417500E+10  -4.986641165555666E-1    6.959602304741623E-2    2.617274415816518E-4    2.696089372492604E-4    2.212653375557225E-4    2.882966863255986E-4   -3.600115258395827E-1    3.456147429235729E-1
 1.000614673765000E+10  -4.984892022522971E-1    6.987402616044461E-2    2.549302601161892E-4    2.870544611188989E-4    2.608425715907804E-4    3.111133130650497E-4   -3.598633666414998E-1    3.456261978387047E-1
 1.000614949112500E+10  -4.984425139737537E-1    7.008129762922488E-2    2.537222592456348E-4    3.108084552060611E-4    2.298050394516050E-4    3.315439919570147E-4   -3.596183532124650E-1    3.459141951810629E-1
 1.000615224460000E+10  -4.983990793585579E-1    7.015113118439495E-2    2.917914017676931E-4    3.449693633916188E-4    2.309491099439708E-4    3.142188531650454E-4   -3.594605192738555E-1    3.462180581884540E-1
 1.000615499807500E+10  -4.985113443610554E-1    7.045628005713808E-2    2.707303267237243E-4    3.365460295523724E-4    2.447840530173205E-4    3.140226359345653E-4   -3.592832230489619E-1    3.463111096489633E-1
 1.000615775155000E+10  -4.985181852285547E-1    7.058639909182121E-2    2.771368202129008E-4    3.155735498527904E-4    2.402637580192836E-4    3.781315082849695E-4   -3.591209684683989E-1    3.464751476896876E-1
 1.000616050502500E+10  -4.984929611695083E-1    7.071678031114971E-2    2.486570924855844E-4    3.609709022076758E-4    2.012770859613307E-4    3.359777838796666E-4   -3.588360193812662E-1    3.465870240951676E-1
 1.000616325850000E+10  -4.983029878840038E-1    7.082792556127995E-2    2.784718077676682E-4    3.528940136025631E-4    2.715220002919180E-4    3.803426777267407E-4   -3.586788253368060E-1    3.469287639544551E-1
 1.000616601197500E+10  -4.982313818238391E-1    7.119345711459935E-2    2.918476521285831E-4    3.388016227810620E-4    2.691364676509294E-4    3.731981585813012E-4   -3.585638627009856E-1    3.470760007586570E-1
 1.000616876545000E+10  -4.983134942948775E-1    7.122381382460402E-2    3.066567553464402E-4    3.665309243840034E-4    2.962819796393058E-4    3.605911693112587E-4   -3.583242149135782E-1    3.473188792800399E-1
 1.000617151892500E+10  -4.981626329785354E-1    7.141954391116449E-2    3.117811051744695E-4    3.892629084714539E-4    2.926636227776965E-4    3.735290235696161E-4   -3.579883445673573E-1    3.474780646679638E-1
 1.000617427240000E+10  -4.983966955243876E-1    7.164448574002578E-2    3.022323334825347E-4    3.728376079885849E-4    3.118209973072575E-4    3.843362351174130E-4   -3.579618437202082E-1    3.477744945431231E-1
 1.000617702587500E+10  -4.981977681498732E-1    7.178057474482236E-2    3.547619316747944E-4    4.188577999791826E-4    2.930757769216875E-4    4.227373491108955E-4   -3.576863388704812E-1    3.479078626162488E-1
 1.000617977935000E+10  -4.980932751756805E-1    7.191280281250394E-2    3.152690278921139E-4    3.790024066578005E-4    3.178407280219293E-4    3.975032458609310E-4   -3.575132483462342E-1    3.480262212003200E-1
 1.000618253282500E+10  -4.982806535759554E-1    7.215123387965944E-2    3.450539411051527E-4    4.001993987311356E-4    2.969163253338751E-4    4.365431360216543E-4   -3.572819602671383E-1    3.483439565739018E-1
 1.000618528630000E+10  -4.981820901390075E-1    7.229009278010634E-2    3.419185754990167E-4    4.173129000568873E-4    3.106905143196553E-4    4.095651028271224E-4   -3.570313145640570E-1    3.484852520383627E-1
 1.000618803977500E+10  -4.982299924034600E-1    7.260525467784067E-2    3.525236835306581E-4    4.277256672865902E-4    2.892893990979403E-4    4.505789312864742E-4   -3.568921751067121E-1    3.486855013923295E-1
 1.000619079325000E+10  -4.981519426898376E-1    7.264665741111243E-2    3.689648077105722E-4    4.421631081984128E-4    3.051817320192140E-4    4.459193552113837E-4   -3.566876073288231E-1    3.489860101891122E-1
 1.000619354672500E+10  -4.981334450971203E-1    7.275260783221300E-2    3.605315973716550E-4    4.323647943130161E-4    3.280189466893439E-4    4.581184742809632E-4   -3.564858645119567E-1    3.491715945847728E-1
 1.000619630020000E+10  -4.981105295343081E-1    7.317683129890205E-2    3.706959108485553E-4    4.591817694982544E-4    3.534025919280903E-4    4.454962042396514E-4   -3.562478277441681E-1    3.492461017949397E-1
 1.000619905367500E+10  -4.981645752814508E-1    7.330409818897504E-2    3.724317477214563E-4    4.971146669360825E-4    3.499547182431666E-4    4.719001561274819E-4   -3.561236287801502E-1    3.495821613926263E-1
 1.000620180715000E+10  -4.980722279624339E-1    7.334681016322092E-2    3.765230617600724E-4    4.683384037051186E-4    3.605506758600868E-4    4.751867359590086E-4   -3.559037764125406E-1    3.496922791919695E-1
 1.000620456062500E+10  -4.980633929035079E-1    7.364643563519971E-2    4.082378971422787E-4    4.746071893325709E-4    3.758670403120192E-4    5.154604622194990E-4   -3.557278172595953E-1    3.498681109150918E-1
 1.000620731410000E+10  -4.981091976901940E-1    7.384696380331142E-2    4.375647833553644E-4    5.128217646875631E-4    3.707146975888897E-4    5.116401534317899E-4   -3.554914179156985E-1    3.499979428119736E-1
 1.000621006757500E+10  -4.980007910092371E-1    7.389720119276762E-2    4.135545918444093E-4    5.037111433229956E-4    3.497752985501731E-4    5.117550569520026E-4   -3.551388315914209E-1    3.502955971306402E-1
 1.000621282105000E+10  -4.980284700261915E-1    7.413510967431231E-2    4.247015236141796E-4    5.089070294493225E-4    3.647145468345675E-4    5.112240279446448E-4   -3.551000561475529E-1    3.506971331744418E-1
 1.000621557452500E+10  -4.978850547834711E-1    7.442291556636599E-2    4.310299212043046E-4    5.223637218023405E-4    3.893667759911640E-4    5.335116801283211E-4   -3.548947410597769E-1    3.506371655579915E-1
 1.000621832800000E+10  -4.979451506016985E-1    7.436764856522370E-2    4.443329503609165E-4    5.238933849819153E-4    3.868260827186644E-4    5.508569178846816E-4   -3.546479810959686E-1    3.510383266605899E-1
 1.000622108147500E+10  -4.979957412457036E-1    7.468285916993943E-2    4.412023924274416E-4    5.699369862208193E-4    4.003221739625875E-4    5.650557172865422E-4   -3.544612006927142E-1    3.512359986975651E-1
 1.000622383495000E+10  -4.980491404788934E-1    7.493532491620580E-2    4.147642750468115E-4    5.557185794683368E-4    4.069531497339985E-4    5.491797578064619E-4   -3.541729986056941E-1    3.514342213658401E-1
 1.000622658842500E+10  -4.978720088974753E-1    7.505598991328212E-2    4.929020918341151E-4    5.688738347202445E-4    4.187401489503346E-4    6.007488020126941E-4   -3.540746357338909E-1    3.516258459797359E-1
 1.000622934190000E+10  -4.978351680949947E-1    7.519900017743690E-2    4.680847953447869E-4    5.554992813974143E-4    4.455935684105322E-4    5.837249566258628E-4   -3.537051320027689E-1    3.519174760477811E-1
 1.000623209537500E+10  -4.978105671048872E-1    7.542493782986497E-2    4.680136635096366E-4    5.661667913179644E-4    4.203664117410358E-4    5.841722772511477E-4   -3.536070879901813E-1    3.520992135611948E-1
 1.000623484885000E+10  -4.977926379127507E-1    7.566255325106554E-2    4.866422358804179E-4    5.697767049780679E-4    4.397398479415532E-4    6.067263470006267E-4   -3.533434728204480E-1    3.522597817561067E-1
 1.000623760232500E+10  -4.977210464147009E-1    7.562988966989656E-2    4.821401448661407E-4    6.320524006839790E-4    4.702542107396472E-4    6.302994618949054E-4   -3.529548269581888E-1    3.524889054718967E-1
 1.000624035580000E+10  -4.975952349266770E-1    7.601504097783830E-2    4.903755285958235E-4    6.194641931142068E-4    4.903480628067289E-4    6.375055602106293E-4   -3.528068199552768E-1    3.527855418187335E-1
 1.000624310927500E+10  -4.977527275035104E-1    7.615186611793749E-2    4.867326870544673E-4    6.059434326768443E-4    4.916388884550590E-4    6.228168855732101E-4   -3.526152958479257E-1    3.527939757885677E-1
 1.000624586275000E+10  -4.977004797658360E-1    7.628337762329533E-2    5.070658660572927E-4    6.573936503351631E-4    4.818468235593223E-4    6.606396312185535E-4   -3.523751353654107E-1    3.531593283822129E-1
 1.000624861622500E+10  -4.976772622381713E-1    7.641343481507254E-2    5.573284480030438E-4    6.556350013426598E-4    4.661661783553796E-4    6.688217237004439E-4   -3.521134053482652E-1    3.532421466955309E-1
 1.000625136970000E+10  -4.977449941740639E-1    7.667038238591789E-2    5.323153102773173E-4    6.745611233963672E-4    5.255927295258414E-4    6.798353485666781E-4   -3.519506087070465E-1    3.537042729627025E-1
 1.000625412317500E+10  -4.976309460773862E-1    7.677180185188880E-2    5.288446499549987E-4    6.395041341277437E-4    4.930805536783968E-4    6.766081388042314E-4   -3.517757203652531E-1    3.538665807207921E-1
 1.000625687665000E+10  -4.975586601100642E-1    7.712138308432338E-2    5.705939716326495E-4    6.603485401790786E-4    5.338471604862602E-4    7.016451983013557E-4   -3.514262213234887E-1    3.540918525142375E-1
 1.000625963012500E+10  -4.976622855199304E-1    7.728616064872983E-2    5.654714178903944E-4    7.037308784284401E-4    5.240487849568997E-4    7.124230633460118E-4   -3.511297942095039E-1    3.541960601392476E-1
 1.000626238360000E+10  -4.976772958245142E-1    7.745754487674211E-2    5.904925972782368E-4    6.860965180674662E-4    5.184278893415955E-4    7.063781691431048E-4   -3.510856421144541E-1    3.545957897531618E-1
 1.000626513707500E+10  -4.976399879358662E-1    7.755196220311299E-2    5.765456642446575E-4    7.034763996489092E-4    5.495570707310933E-4    7.494199666842258E-4   -3.507323649732451E-1    3.547384038289633E-1
 1.000626789055000E+10  -4.974677770242305E-1    7.772274994397350E-2    5.752022636849448E-4    7.695361641495391E-4    5.374937602840941E-4    7.710821460372206E-4   -3.504243405974150E-1    3.549262451616428E-1
 1.000627064402500E+10  -4.974091989212020E-1    7.797523097508292E-2    5.839846607844153E-4    7.641628445634042E-4    5.746596286570649E-4    7.563720979894151E-4   -3.502220123844718E-1    3.550401587391483E-1
 1.000627339750000E+10  -4.975952985640992E-1    7.809297275462251E-2    6.202577101680219E-4    7.587647090371158E-4    5.962827829931173E-4    7.786151622496806E-4   -3.500915233854239E-1    3.555119480376786E-1
 1.000627615097500E+10  -4.974270980589989E-1    7.821814675080216E-2    6.195507844179258E-4    7.897167542448958E-4    5.904584672146448E-4    8.101319299846791E-4   -3.498119286193027E-1    3.555922933240267E-1
 1.000627890445000E+10  -4.974018878666035E-1    7.851839786499849E-2    6.493933651370508E-4    7.778042275067738E-4    6.005055798438482E-4    8.157841398545174E-4   -3.494943184082687E-1    3.557701932871054E-1
 1.000628165792500E+10  -4.973851958784778E-1    7.872394818870806E-2    6.716221628130541E-4    8.004537064802143E-4    6.038342118470235E-4    7.888769297830922E-4   -3.491691309469133E-1    3.559724240945608E-1
 1.000628441140000E+10  -4.973813734648150E-1    7.887508664814413E-2    6.409738145902321E-4    8.149740169749995E-4    5.875867919557860E-4    8.417129602055905E-4   -3.488892102808320E-1    3.563664956403937E-1
 1.000628716487500E+10  -4.972379080874757E-1    7.892917968016436E-2    6.886693829915386E-4    8.198680234846521E-4    6.317376050233334E-4    8.829146354171039E-4   -3.486522397538614E-1    3.565032781158423E-1
 1.000628991835000E+10  -4.973604553073764E-1    7.902321755231836E-2    6.909921598833987E-4    8.506752155051933E-4    6.284663763062405E-4    8.923168442577808E-4   -3.484578136660754E-1    3.568383354485368E-1
 1.000629267182500E+10  -4.973034936854898E-1    7.936369971804647E-2    7.095912047381067E-4    8.815846018840380E-4    6.231387616137640E-4    8.944664557915550E-4   -3.482762265953734E-1    3.571448001342346E-1
 1.000629542530000E+10  -4.972959544698015E-1    7.949045131024804E-2    7.080501700332845E-4    8.730339775119330E-4    6.675111883135372E-4    8.980932954478940E-4   -3.479007444350952E-1    3.573284530275659E-1
 1.000629817877500E+10  -4.973222942591660E-1    7.978854739455261E-2    7.312296908050534E-4    8.821003330367360E-4    6.885541945165397E-4    9.114852037457598E-4   -3.477885941547263E-1    3.575487991114347E-1
 1.000630093225000E+10  -4.973499534978864E-1    7.997550500866187E-2    7.431249210959802E-4    8.953904414616028E-4    6.899809382353101E-4    9.462208016809265E-4   -3.473054028956640E-1    3.577241877995411E-1
 1.000630368572500E+10  -4.972942792741069E-1    8.019952209710404E-2    7.429541184599264E-4    9.295042004562351E-4    7.029728602411595E-4    9.419458697247043E-4   -3.470426910099474E-1    3.579818615942594E-1
 1.000630643920000E+10  -4.970691076024706E-1    8.021138832079949E-2    7.469731641869308E-4    8.992836855178438E-4    7.100335861136639E-4    9.428478470865837E-4   -3.467281733464876E-1    3.581582593139547E-1
 1.000630919267500E+10  -4.972445760484644E-1    8.051140494598770E-2    7.749008738764587E-4    9.421443823143636E-4    7.023163783527243E-4    9.541604413193068E-4   -3.463761768392822E-1    3.584781998255629E-1
 1.000631194615000E+10  -4.971738108505797E-1    8.058053812452581E-2    8.016600954750381E-4    9.697886988772246E-4    7.130808808202174E-4    9.785407350299249E-4   -3.462290119138047E-1    3.586635023290793E-1
 1.000631469962500E+10  -4.972419730331240E-1    8.094827471142582E-2    7.898248511382899E-4    9.796337376592526E-4    7.350136268194066E-4    1.016913838271460E-3   -3.460561204003880E-1    3.588668639778230E-1
 1.000631745310000E+10  -4.972599451281369E-1    8.109697627820471E-2    8.424337458420245E-4    1.018401083249902E-3    7.522697360760294E-4    1.003809008296048E-3   -3.456816473104719E-1    3.591027711941301E-1
 1.000632020657500E+10  -4.970003251388435E-1    8.118422007142760E-2    8.461893377457307E-4    9.917137382356824E-4    7.608003871900585E-4    1.033533692395135E-3   -3.454916971714702E-1    3.594347449482538E-1
 1.000632296005000E+10  -4.970623806480423E-1    8.133019639539713E-2    8.667918048853496E-4    1.031859400410136E-3    7.852796334614763E-4    1.047812656352452E-3   -3.450866623293541E-1    3.597765354566682E-1
 1.000632571352500E+10  -4.970003975083545E-1    8.146620992253396E-2    8.805044781485861E-4    1.028562700586547E-3    8.346733145733093E-4    1.069357765307062E-3   -3.447806599393155E-1    3.598184892054872E-1
 1.000632846700000E+10  -4.969484139499195E-1    8.158194247243554E-2    9.018840983508805E-4    1.053795951271438E-3    8.320349226046269E-4    1.071966922177399E-3   -3.445783267831784E-1    3.602665601033084E-1
 1.000633122047500E+10  -4.969867369778296E-1    8.183082138988892E-2    9.265797570337818E-4    1.076387371557020E-3    8.393116328587109E-4    1.073738725567868E-3   -3.441967010283982E-1    3.604645231995710E-1
 1.000633397395000E+10  -4.969589732449410E-1    8.207090656031850E-2    9.231845858910979E-4    1.125772820322906E-3    8.680978263663087E-4    1.100325197879663E-3   -3.438499080164129E-1    3.606152935672323E-1
 1.000633672742500E+10  -4.969852473791715E-1    8.219604132169936E-2    9.535616337766122E-4    1.091404214933705E-3    8.668051758234526E-4    1.143677695768981E-3   -3.434631427082956E-1    3.609818320308930E-1
 1.000633948090000E+10  -4.970584264859090E-1    8.243748276295447E-2    9.509157640946859E-4    1.116338725249022E-3    8.656984611499443E-4    1.155843454620330E-3   -3.430440315997272E-1    3.612817166298569E-1
 1.000634223437500E+10  -4.969258224441799E-1    8.261855048754708E-2    9.839352091161866E-4    1.142572105279779E-3    9.022639181561884E-4    1.185379408449624E-3   -3.427704497091396E-1    3.615550833000251E-1
 1.000634498785000E+10  -4.969146899985413E-1    8.276621306201727E-2    1.001618069083613E-3    1.142782564460775E-3    8.979953001339774E-4    1.160263607888575E-3   -3.424895470381935E-1    3.618471909458154E-1
 1.000634774132500E+10  -4.968397821248051E-1    8.286057704765551E-2    1.016676495176142E-3    1.184450230621800E-3    9.074720315463347E-4    1.213330565080494E-3   -3.421667530384444E-1    3.621024380461759E-1
 1.000635049480000E+10  -4.967399554252392E-1    8.320781809719165E-2    1.045574836920572E-3    1.195851688244164E-3    9.395709696922616E-4    1.220218304898930E-3   -3.418996546329518E-1    3.623376042599148E-1
 1.000635324827500E+10  -4.969241271812451E-1    8.338915062572091E-2    1.040977443911399E-3    1.230927830830042E-3    9.880476235163865E-4    1.263505497468275E-3   -3.414753895795714E-1    3.625332704493769E-1
 1.000635600175000E+10  -4.968204841398058E-1    8.349200533638494E-2    1.060542274553777E-3    1.254680754063085E-3    1.013840155034731E-3    1.251838838170487E-3   -3.411121104498224E-1    3.628525217471197E-1
