#  HZ   S   RI   R     50.00 
! Rohde & Schwarz Vector Network Analyzer 
! Rohde-Schwarz,ZNB20-2Port,1311601062101988,3.16
! Created: UTC 3/20/2024, 12:04:45 PM
! freq[Hz]                re:S11                  im:S11                  re:S21                  im:S21                  re:S12                  im:S12                  re:S22                  im:S22
 1.000616911800000E+10  -4.983764267900537E-1    7.117554094328420E-2    2.714407223378691E-4    3.400868592449631E-4    2.259213494179830E-4    3.323387320477917E-4   -3.587359086911183E-1    3.471626076765096E-1
 1.000617161837500E+10  -4.982823069329097E-1    7.125963796121344E-2    2.838610405995449E-4    3.678322052274856E-4    2.304096377181376E-4    3.658264741021756E-4   -3.585586888666726E-1    3.473185477156275E-1
 1.000617411875000E+10  -4.983017897639560E-1    7.130386367755397E-2    2.843702357354483E-4    3.520904259421083E-4    2.747891797253664E-4    3.654197511131433E-4   -3.583568957348358E-1    3.475036478243500E-1
 1.000617661912500E+10  -4.983526118877257E-1    7.169325733443907E-2    2.867941448821930E-4    3.587876536208639E-4    2.574596186083539E-4    3.542860190930226E-4   -3.581786132274212E-1    3.478467514420572E-1
 1.000617911950000E+10  -4.982904821814017E-1    7.180042611276133E-2    2.839548058814994E-4    3.747307700200150E-4    2.550721800061347E-4    3.858140307266222E-4   -3.580001530050647E-1    3.477395653919472E-1
 1.000618161987500E+10  -4.983656817635444E-1    7.209396807795562E-2    2.958267952306602E-4    3.542430722528722E-4    2.393934913090415E-4    3.389401861678323E-4   -3.579178276466853E-1    3.479332763529119E-1
 1.000618412025000E+10  -4.982679109539355E-1    7.214758965011317E-2    3.113082027534548E-4    3.781435392094474E-4    2.929486844837033E-4    3.561512613911431E-4   -3.576116991863249E-1    3.481735169759644E-1
 1.000618662062500E+10  -4.982589085364610E-1    7.236286272651853E-2    3.040453319849301E-4    3.903733454138397E-4    2.785613968365798E-4    4.037308000330540E-4   -3.573627415782282E-1    3.484563499763265E-1
 1.000618912100000E+10  -4.981909686178579E-1    7.253368498469084E-2    3.343038619404370E-4    3.970705006081031E-4    2.927867651341669E-4    3.796924145181913E-4   -3.573333027895984E-1    3.486380913274985E-1
 1.000619162137500E+10  -4.982312881629654E-1    7.270408324553827E-2    3.269306926408157E-4    3.832444862172633E-4    2.905130830987797E-4    4.241351247343504E-4   -3.571237636951065E-1    3.488621891944562E-1
 1.000619412175000E+10  -4.981086941693288E-1    7.287855751056477E-2    3.380207227150962E-4    4.059135078211620E-4    2.882465540326099E-4    4.081825887623880E-4   -3.569247283765254E-1    3.489916990848051E-1
 1.000619662212500E+10  -4.982395965071805E-1    7.295574802573120E-2    3.426559243908792E-4    4.042166993839124E-4    2.788066979970473E-4    4.382032529613207E-4   -3.567077691710648E-1    3.491390610824998E-1
 1.000619912250000E+10  -4.980688194410235E-1    7.321754204541669E-2    3.075734266518099E-4    4.421101847152883E-4    2.973535624055227E-4    4.368632466590789E-4   -3.565991598302584E-1    3.494460440495292E-1
 1.000620162287500E+10  -4.980873124930040E-1    7.314809610855277E-2    3.076339857244215E-4    4.403050879736885E-4    2.778998547554734E-4    4.038860074975644E-4   -3.564812498615169E-1    3.495043663658736E-1
 1.000620412325000E+10  -4.981313268952222E-1    7.350958873906792E-2    3.427374362259059E-4    4.269658965264634E-4    3.205379807758427E-4    4.349607851078209E-4   -3.562183419068932E-1    3.497568481738799E-1
 1.000620662362500E+10  -4.981444728255893E-1    7.360014643362038E-2    3.593740763276917E-4    4.290324066821958E-4    3.361248090119301E-4    4.363625056364509E-4   -3.561737595698406E-1    3.499384983728012E-1
 1.000620912400000E+10  -4.979375169985339E-1    7.381296454871852E-2    3.766940091190303E-4    4.682232598560313E-4    3.183280886847167E-4    4.684972677757394E-4   -3.558065112364890E-1    3.501147629027557E-1
 1.000621162437500E+10  -4.980266070636457E-1    7.402756500294592E-2    3.634470759049306E-4    4.826672180291686E-4    3.182555783373139E-4    4.618194370081988E-4   -3.556425108883809E-1    3.503865156028934E-1
 1.000621412475000E+10  -4.980221421739069E-1    7.415322958900625E-2    3.903750605104207E-4    4.920441120101992E-4    3.633258302057834E-4    4.599254876058307E-4   -3.554444725246873E-1    3.504581696351287E-1
 1.000621662512500E+10  -4.980437908055052E-1    7.427415385832165E-2    4.081647277362961E-4    4.803760862009629E-4    3.293558213084405E-4    5.052598797381157E-4   -3.553853409219111E-1    3.506487767763621E-1
 1.000621912550000E+10  -4.979949815342377E-1    7.454566227928340E-2    4.015709028468829E-4    4.763650064260643E-4    3.343322603066488E-4    5.243628666677853E-4   -3.551726634392469E-1    3.508552788622510E-1
 1.000622162587500E+10  -4.979843036561588E-1    7.460801271686009E-2    4.128683145405869E-4    5.252471790312283E-4    3.549251187234086E-4    5.069585035406552E-4   -3.548743051916938E-1    3.510072553500781E-1
 1.000622412625000E+10  -4.978939646506930E-1    7.469389311925000E-2    4.090036625840789E-4    5.279114812066734E-4    3.854803749855581E-4    5.105686447231670E-4   -3.547367913555429E-1    3.511334342991300E-1
 1.000622662662500E+10  -4.979806804257283E-1    7.491948688805355E-2    3.964183512421859E-4    5.312759939727538E-4    3.586991735845541E-4    5.107006557363394E-4   -3.544630880609552E-1    3.512744977149946E-1
 1.000622912700000E+10  -4.979445364862544E-1    7.508823908120944E-2    4.283932958453552E-4    5.505617527642129E-4    3.743976283449123E-4    5.418135169838116E-4   -3.543936476863381E-1    3.516217067882789E-1
 1.000623162737500E+10  -4.978073623308386E-1    7.542870202641522E-2    4.400823748039130E-4    5.334397834091286E-4    3.804167412275831E-4    5.753883306179746E-4   -3.541934822138546E-1    3.517645804825539E-1
 1.000623412775000E+10  -4.979094989504582E-1    7.552524580353173E-2    4.165696331010363E-4    5.636948021747127E-4    3.727726578709987E-4    5.695205688472039E-4   -3.539940168905543E-1    3.519693338449271E-1
 1.000623662812500E+10  -4.977648862157970E-1    7.570539547662336E-2    4.179598953233498E-4    5.788421777375154E-4    3.996745095693121E-4    5.799077617666410E-4   -3.537944776389768E-1    3.522191067081932E-1
 1.000623912850000E+10  -4.977828149563528E-1    7.571859885828675E-2    4.242711841984616E-4    5.691673517948348E-4    4.294151841604893E-4    6.057694446414890E-4   -3.536243318438511E-1    3.523738692399068E-1
 1.000624162887500E+10  -4.977630446324605E-1    7.597893447801735E-2    4.397995202120526E-4    6.010488622000475E-4    4.103417024976392E-4    6.046935551669327E-4   -3.532639774719546E-1    3.526172562395887E-1
 1.000624412925000E+10  -4.978055680420695E-1    7.605078523440932E-2    4.376563945803777E-4    5.679756853065402E-4    4.469269826378342E-4    5.886429111358649E-4   -3.531678528369406E-1    3.526973696338360E-1
 1.000624662962500E+10  -4.977396318167717E-1    7.632734896064509E-2    4.318931440410159E-4    6.126685242070051E-4    4.291827018642225E-4    6.386207299498153E-4   -3.529716520770169E-1    3.529620920189773E-1
 1.000624913000000E+10  -4.976999697170487E-1    7.637872170267544E-2    4.706477109839478E-4    6.136635224818243E-4    4.356661485703242E-4    6.128844004062148E-4   -3.528286974795482E-1    3.531456171994016E-1
 1.000625163037500E+10  -4.976691323881440E-1    7.660078587153737E-2    4.620908723173849E-4    5.991412033687016E-4    4.273081086225191E-4    6.495271280919995E-4   -3.525826925123935E-1    3.533341173372083E-1
 1.000625413075000E+10  -4.976750605918825E-1    7.683209260405725E-2    5.148798669778863E-4    5.959197433657887E-4    4.121466971116628E-4    6.793515912988202E-4   -3.524014245512446E-1    3.534578409907729E-1
 1.000625663112500E+10  -4.976112978318230E-1    7.696013527082121E-2    4.898736380338866E-4    6.781853638512010E-4    4.580822360942806E-4    6.412659264964734E-4   -3.523389884309085E-1    3.537366835229788E-1
 1.000625913150000E+10  -4.977639471360351E-1    7.716260876065072E-2    5.413114870017038E-4    6.839486524205307E-4    4.491914557668823E-4    6.758285180492431E-4   -3.519117863032774E-1    3.540098465003745E-1
 1.000626163187500E+10  -4.975605766324993E-1    7.732273398524850E-2    5.159462633883728E-4    6.486321730512948E-4    5.037579130646044E-4    6.741340629108010E-4   -3.518506184571779E-1    3.541417871911380E-1
 1.000626413225000E+10  -4.976781605022276E-1    7.729169556098768E-2    5.161197476797969E-4    6.764610025734080E-4    4.364679528140399E-4    7.032922255699055E-4   -3.516617591365444E-1    3.544208210466591E-1
 1.000626663262500E+10  -4.975470930480866E-1    7.756097092830226E-2    5.335963557374066E-4    6.885844076990548E-4    4.550138446932102E-4    6.970780890146793E-4   -3.513301509183511E-1    3.546560549694577E-1
 1.000626913300000E+10  -4.976042206023383E-1    7.766497571280026E-2    5.517701950528838E-4    6.967562989200660E-4    5.030535890399285E-4    7.030608380263230E-4   -3.510743553628668E-1    3.548149296004984E-1
 1.000627163337500E+10  -4.975042002011480E-1    7.791048425375524E-2    5.501753490751463E-4    7.097707074618754E-4    5.060030892593447E-4    7.192504590245209E-4   -3.508541288021680E-1    3.551586819349213E-1
 1.000627413375000E+10  -4.976228165174315E-1    7.800050653999924E-2    5.459783721644009E-4    7.230067376468840E-4    4.938490999747945E-4    7.422267660832492E-4   -3.506507720582620E-1    3.552069086112559E-1
 1.000627663412500E+10  -4.974929681521064E-1    7.825187386672140E-2    5.853171340409559E-4    7.277564298834236E-4    5.098587793771479E-4    7.429984856822196E-4   -3.505718088679440E-1    3.554346779811388E-1
 1.000627913450000E+10  -4.975776437652730E-1    7.847049030442864E-2    5.995944296462585E-4    7.495872451006404E-4    5.240808195597719E-4    7.384769113536523E-4   -3.502830444711780E-1    3.557490450998074E-1
 1.000628163487500E+10  -4.974918418027446E-1    7.859649403650977E-2    5.865661288936675E-4    7.484663377107389E-4    5.052374270441172E-4    7.711316459733371E-4   -3.500038149539170E-1    3.557848922438589E-1
 1.000628413525000E+10  -4.975096138182787E-1    7.859645287451021E-2    5.812712585498498E-4    7.730054613255204E-4    5.340373689758306E-4    7.762460708122269E-4   -3.496254112877972E-1    3.562060497183969E-1
 1.000628663562500E+10  -4.974279880334357E-1    7.898590655573785E-2    6.053009708899983E-4    7.834021739849847E-4    5.531573665722205E-4    7.588255833161325E-4   -3.495614018160985E-1    3.562390311332471E-1
 1.000628913600000E+10  -4.974594059861141E-1    7.910951006140170E-2    5.761380023202861E-4    8.007908316389120E-4    5.653451091671251E-4    7.423125603032867E-4   -3.492545670209219E-1    3.564258977745297E-1
 1.000629163637500E+10  -4.973518206248707E-1    7.922579522778059E-2    6.399588728552997E-4    8.285184209014116E-4    5.796727761772124E-4    8.370737170981706E-4   -3.491673248474139E-1    3.567446349170507E-1
 1.000629413675000E+10  -4.973750568616218E-1    7.947706288537067E-2    6.134133289398279E-4    8.320096166657125E-4    5.811493110461335E-4    8.503034401275525E-4   -3.487920712625909E-1    3.569271931273754E-1
 1.000629663712500E+10  -4.974400529261693E-1    7.948193115835167E-2    6.417389048596758E-4    8.428544713205789E-4    5.935637416312057E-4    8.391758426037581E-4   -3.486018089880087E-1    3.571511689714686E-1
 1.000629913750000E+10  -4.974601729952604E-1    7.970278197015518E-2    6.421260557960090E-4    8.422192215436383E-4    6.291562687076854E-4    8.779451601042454E-4   -3.483944058453256E-1    3.573002478346098E-1
 1.000630163787500E+10  -4.973692904618204E-1    7.975699233400325E-2    6.564455568783448E-4    8.369546002526249E-4    6.077935070023191E-4    8.843258994255772E-4   -3.481334651102262E-1    3.576365929760401E-1
 1.000630413825000E+10  -4.972913359478520E-1    7.996279690339600E-2    6.821803861351479E-4    8.775755746679327E-4    6.302437478430094E-4    8.864381936539369E-4   -3.479033210211756E-1    3.576735983541270E-1
 1.000630663862500E+10  -4.974006126104358E-1    8.004971622520253E-2    6.910413515819095E-4    8.693635276333629E-4    6.349265853117723E-4    8.882629681492587E-4   -3.476855035603184E-1    3.579693411399869E-1
 1.000630913900000E+10  -4.972771127775264E-1    8.032588002380189E-2    7.213164267099031E-4    8.616015566279044E-4    6.336025822625211E-4    8.565705604927803E-4   -3.473845002866866E-1    3.581448890296394E-1
 1.000631163937500E+10  -4.972301522255844E-1    8.048907490165051E-2    7.072631713400586E-4    9.113444339057458E-4    6.369777161197562E-4    9.125911070041881E-4   -3.472202405819422E-1    3.583820082168143E-1
 1.000631413975000E+10  -4.972092529583407E-1    8.074168392062167E-2    7.143769076309362E-4    8.962717564871414E-4    6.675897732370706E-4    9.407786929407505E-4   -3.468971028781693E-1    3.586014847317976E-1
 1.000631664012500E+10  -4.972293718874563E-1    8.085949872516605E-2    7.079380089710891E-4    9.221268583271252E-4    6.699693039502804E-4    9.613589320261329E-4   -3.466049472172356E-1    3.588131543031985E-1
 1.000631914050000E+10  -4.972312359681844E-1    8.104776837258493E-2    7.664198371914782E-4    9.418152057881418E-4    7.025115923406569E-4    9.826558720145975E-4   -3.463980902107290E-1    3.590192110109974E-1
 1.000632164087500E+10  -4.971350878810344E-1    8.115947497878732E-2    7.692471114037705E-4    9.563834925913957E-4    7.065334229101923E-4    9.804471655969701E-4   -3.462116834614918E-1    3.593526404998174E-1
 1.000632414125000E+10  -4.970483273178214E-1    8.130751326946561E-2    7.737522795646837E-4    9.726698197611762E-4    7.136273726936975E-4    1.008805161912085E-3   -3.459291803124383E-1    3.596229574780775E-1
 1.000632664162500E+10  -4.970478488895981E-1    8.148527176443633E-2    8.004738164932023E-4    1.004970283361249E-3    7.264758656145631E-4    1.032066486805399E-3   -3.457147253015619E-1    3.597659509401844E-1
 1.000632914200000E+10  -4.970668579504537E-1    8.181676187533543E-2    7.985759381892293E-4    1.014545705615690E-3    7.583161038787303E-4    1.041867784825932E-3   -3.453455918494430E-1    3.599634862390230E-1
 1.000633164237500E+10  -4.970297584843079E-1    8.182677236818026E-2    8.082375241186857E-4    1.016782319353361E-3    7.273185772400284E-4    1.032520660485276E-3   -3.449918582493874E-1    3.602190161531417E-1
 1.000633414275000E+10  -4.969860071491545E-1    8.193903485731215E-2    8.114254629411487E-4    1.018587754599064E-3    7.705010395501020E-4    1.072203650866875E-3   -3.448289667702063E-1    3.604802012936877E-1
 1.000633664312500E+10  -4.969144686188095E-1    8.220345879333221E-2    8.457958641155600E-4    1.067247600766128E-3    7.711277176120933E-4    1.081733946899547E-3   -3.444175422025922E-1    3.605972226419593E-1
 1.000633914350000E+10  -4.968801316458914E-1    8.238565676527880E-2    8.488206966978786E-4    1.062556647960953E-3    7.735488189625609E-4    1.107531329793626E-3   -3.442477223598580E-1    3.608955376643530E-1
 1.000634164387500E+10  -4.969140801578655E-1    8.249572378029216E-2    8.792367626253494E-4    1.085254004425727E-3    7.627044259129171E-4    1.079695396875756E-3   -3.440646547620521E-1    3.612358028176325E-1
 1.000634414425000E+10  -4.969190287896802E-1    8.265365176921517E-2    8.835906706315368E-4    1.099180933770585E-3    7.993643372368526E-4    1.121704926033251E-3   -3.436886681012523E-1    3.614620812076257E-1
 1.000634664462500E+10  -4.969410873029138E-1    8.277686085468776E-2    8.896006845627333E-4    1.124589430583176E-3    8.150356971176226E-4    1.156194819186260E-3   -3.432651983815743E-1    3.616284807722860E-1
 1.000634914500000E+10  -4.968879229273683E-1    8.296504438235537E-2    8.820195568043281E-4    1.120000386088988E-3    8.494457533877715E-4    1.191505919923658E-3   -3.430323838024611E-1    3.619126909571567E-1
 1.000635164537500E+10  -4.967667307489637E-1    8.320665326564786E-2    8.979654032441340E-4    1.160299909887540E-3    8.759637282209910E-4    1.146279598730936E-3   -3.427898965618649E-1    3.622527735926876E-1
 1.000635414575000E+10  -4.969220710424634E-1    8.332095052613160E-2    9.591363889515488E-4    1.170779024424013E-3    8.936751377234017E-4    1.187697455770579E-3   -3.426298050370044E-1    3.624285731015529E-1
 1.000635664612500E+10  -4.968491084741842E-1    8.330720526657959E-2    9.503205556765321E-4    1.201612973628112E-3    8.545441827146069E-4    1.208767491195570E-3   -3.422730688054599E-1    3.626120329541515E-1
 1.000635914650000E+10  -4.968318581210903E-1    8.373517261634475E-2    9.706522968054415E-4    1.195703278092908E-3    8.909478612208124E-4    1.238219992742754E-3   -3.418609415393241E-1    3.628415683252705E-1
 1.000636164687500E+10  -4.966976864996258E-1    8.387690715221235E-2    9.986381934056522E-4    1.234613746239908E-3    9.290236172252949E-4    1.247210019767909E-3   -3.417652054027537E-1    3.630105680584328E-1
 1.000636414725000E+10  -4.967854474160404E-1    8.391459966147534E-2    9.981955982213220E-4    1.229057564136711E-3    9.323875927183981E-4    1.265269383320574E-3   -3.413135082420181E-1    3.632269788782421E-1
 1.000636664762500E+10  -4.966585286282961E-1    8.417628971999312E-2    1.033198733899302E-3    1.231209804179647E-3    9.325614304815378E-4    1.298707151850467E-3   -3.411460465301557E-1    3.637221005437924E-1
 1.000636914800000E+10  -4.967408119078539E-1    8.425926625732139E-2    1.056371264724024E-3    1.289412613505815E-3    9.610021578507755E-4    1.265980334104217E-3   -3.406707451509564E-1    3.637882645957206E-1
 1.000637164837500E+10  -4.967564399412733E-1    8.451347055065471E-2    1.091369141385021E-3    1.276663136072189E-3    1.001216911816048E-3    1.324320072261421E-3   -3.404830073049672E-1    3.640599442004739E-1
 1.000637414875000E+10  -4.966733629977302E-1    8.470696512299757E-2    1.081336321812556E-3    1.305197153663499E-3    9.955548039995549E-4    1.369704791141798E-3   -3.400773371045832E-1    3.643169134574440E-1
 1.000637664912500E+10  -4.965188966527074E-1    8.480688794453066E-2    1.090098712926946E-3    1.328073957135324E-3    1.011064909348981E-3    1.350617237390118E-3   -3.397495682182173E-1    3.645642348412043E-1
 1.000637914950000E+10  -4.966098389943927E-1    8.490091063748784E-2    1.103515830911268E-3    1.329503327565398E-3    1.019691379840146E-3    1.373286076882324E-3   -3.394537728320714E-1    3.649774063193462E-1
 1.000638164987500E+10  -4.965693785469630E-1    8.509193739888597E-2    1.138282028922310E-3    1.365486344637113E-3    1.059423472385492E-3    1.379207597053139E-3   -3.392132058960426E-1    3.652224991287062E-1
 1.000638415025000E+10  -4.965973403078162E-1    8.520370758300234E-2    1.169657114357865E-3    1.367190697932253E-3    1.083641173123040E-3    1.396508523733423E-3   -3.386411345747147E-1    3.655739033939041E-1
 1.000638665062500E+10  -4.965482537172990E-1    8.539393773373231E-2    1.170166893458123E-3    1.414293345914364E-3    1.100456009235773E-3    1.406481520450670E-3   -3.384155976126638E-1    3.655934684179442E-1
 1.000638915100000E+10  -4.965276305531131E-1    8.563662783235620E-2    1.197999477394372E-3    1.450894839559828E-3    1.124035963667419E-3    1.444345080057361E-3   -3.380464022360683E-1    3.657941220769841E-1
 1.000639165137500E+10  -4.964410074336356E-1    8.582894517935052E-2    1.211964702281094E-3    1.430377836666439E-3    1.092893821459490E-3    1.453641002141899E-3   -3.377017095677806E-1    3.660212784791701E-1
 1.000639415175000E+10  -4.965249781208159E-1    8.604550173406748E-2    1.220953779035536E-3    1.456135586201450E-3    1.115279229258682E-3    1.508878562270343E-3   -3.373247915742711E-1    3.664337690352234E-1
