#  HZ   S   RI   R     50.00 
! Rohde & Schwarz Vector Network Analyzer 
! Rohde-Schwarz,ZNB20-2Port,1311601062101988,3.16
! Created: UTC 3/20/2024, 12:05:14 PM
! freq[Hz]                re:S11                  im:S11                  re:S21                  im:S21                  re:S12                  im:S12                  re:S22                  im:S22
 1.000623333000000E+10  -4.981236267655498E-1    7.523006066567116E-2    3.833442116289113E-4    4.971587710411056E-4    3.322109896860803E-4    5.083821810951157E-4   -3.548728961537753E-1    3.516898224098787E-1
 1.000623557732500E+10  -4.978878351546861E-1    7.525179809384840E-2    3.533634799370687E-4    4.852878964819616E-4    3.684125453730018E-4    5.044093729112272E-4   -3.545244147896423E-1    3.516394482194554E-1
 1.000623782465000E+10  -4.978105471159200E-1    7.541995036331786E-2    3.723195881589574E-4    5.141040179673788E-4    3.430141122947278E-4    5.559834903906392E-4   -3.542770938021850E-1    3.518820245266540E-1
 1.000624007197500E+10  -4.979894488356847E-1    7.564313975869701E-2    3.705235441543088E-4    5.533831268542182E-4    3.396373547684945E-4    5.349627763565262E-4   -3.539700969597074E-1    3.521739382849081E-1
 1.000624231930000E+10  -4.979935676922725E-1    7.579945004451137E-2    3.963350570748980E-4    5.371710108886613E-4    3.516214054944953E-4    5.596533825647266E-4   -3.540109904497061E-1    3.523887176719664E-1
 1.000624456662500E+10  -4.979127396399741E-1    7.590662666693843E-2    3.990069250088498E-4    5.326600281985264E-4    3.417877014461478E-4    5.743697828478992E-4   -3.538505363873143E-1    3.526357046226194E-1
 1.000624681395000E+10  -4.978609629862316E-1    7.607702597423627E-2    4.176508542078017E-4    5.513503388561795E-4    3.735023450141793E-4    5.464948805996779E-4   -3.537959598437815E-1    3.526859553822753E-1
 1.000624906127500E+10  -4.979037281095552E-1    7.620778848957027E-2    4.226219477713732E-4    5.390316205224221E-4    3.505198831428826E-4    5.929657351850958E-4   -3.535085413941519E-1    3.529390543942412E-1
 1.000625130860000E+10  -4.979275802940210E-1    7.623412223909778E-2    4.133636802813445E-4    5.607522011200606E-4    3.942039993076931E-4    5.650614813074847E-4   -3.534315006717862E-1    3.531202376322983E-1
 1.000625355592500E+10  -4.979000045901230E-1    7.649699785747111E-2    4.527391621071238E-4    5.852319414832292E-4    3.723349567768586E-4    5.959281278152759E-4   -3.530065218680316E-1    3.532481947184499E-1
 1.000625580325000E+10  -4.977480516588278E-1    7.668764646197897E-2    4.229824782572800E-4    5.939080970301524E-4    4.046279173953223E-4    6.162899265375257E-4   -3.529551189718225E-1    3.533916391186437E-1
 1.000625805057500E+10  -4.975445680738884E-1    7.675054619752802E-2    4.287458457261269E-4    6.047480123749751E-4    4.107533877719208E-4    6.234903062310831E-4   -3.528518827244699E-1    3.536394136382135E-1
 1.000626029790000E+10  -4.977014103983562E-1    7.711096436150164E-2    4.311435623944450E-4    6.206314867575724E-4    3.711854690419429E-4    5.980334513441840E-4   -3.526981576058156E-1    3.539425220603852E-1
 1.000626254522500E+10  -4.977941402498806E-1    7.716213407052094E-2    4.685736271782627E-4    6.139078045559613E-4    4.195248336582471E-4    6.271687310037985E-4   -3.524516287659377E-1    3.540319398012989E-1
 1.000626479255000E+10  -4.977642820462137E-1    7.731474205412420E-2    4.460775593584068E-4    6.623815785628162E-4    4.051600159029694E-4    6.378936364569005E-4   -3.521803357708552E-1    3.541353302610594E-1
 1.000626703987500E+10  -4.976537373256718E-1    7.742749420538667E-2    4.560083115848371E-4    6.346754838011074E-4    4.139343596240642E-4    6.278482036784438E-4   -3.521821054422410E-1    3.543941469227480E-1
 1.000626928720000E+10  -4.977584675754629E-1    7.755166550866213E-2    4.415576932823232E-4    6.262719975877041E-4    4.213657912752116E-4    6.838492709591018E-4   -3.519178550052064E-1    3.545012695274442E-1
 1.000627153452500E+10  -4.976661683251974E-1    7.772372385918119E-2    4.785899759482884E-4    6.388800703171091E-4    4.122906615222815E-4    6.555647830600119E-4   -3.516359604822745E-1    3.545805145675734E-1
 1.000627378185000E+10  -4.976737869516195E-1    7.788816891516358E-2    4.653156113358573E-4    6.569031258839801E-4    4.504610104457662E-4    6.661468992159605E-4   -3.514749219019312E-1    3.549026173751192E-1
 1.000627602917500E+10  -4.975609445998665E-1    7.795524526498489E-2    4.920224192805483E-4    6.786863207178898E-4    4.424208582430421E-4    6.754595791781311E-4   -3.512512511642236E-1    3.549897623146889E-1
 1.000627827650000E+10  -4.975852391796425E-1    7.821060449409009E-2    4.958980761636555E-4    6.462703677794168E-4    4.512552535826376E-4    7.008566120292701E-4   -3.509556752239360E-1    3.552695122853604E-1
 1.000628052382500E+10  -4.976928956680344E-1    7.834352947421412E-2    5.112235302330864E-4    6.987380116110853E-4    4.353069843952966E-4    7.129560703917214E-4   -3.510122012034335E-1    3.555855522598498E-1
 1.000628277115000E+10  -4.975610874586406E-1    7.839724859466946E-2    5.228379485362419E-4    7.284003910622937E-4    4.975621891901184E-4    7.329873337619335E-4   -3.506865473355354E-1    3.557621687449259E-1
 1.000628501847500E+10  -4.975059084785506E-1    7.860564323568575E-2    5.246325362095232E-4    7.288221557163299E-4    4.654734223445625E-4    7.011779283997633E-4   -3.504959520048757E-1    3.558990787371268E-1
 1.000628726580000E+10  -4.975003031840752E-1    7.875698186471196E-2    5.404940201010203E-4    7.036231088377061E-4    4.869273129226005E-4    7.578345190188758E-4   -3.504084533003273E-1    3.560029021417052E-1
 1.000628951312500E+10  -4.975681187424367E-1    7.895293380667380E-2    5.478687841336868E-4    7.083506934894909E-4    4.677654414990265E-4    7.366913658194055E-4   -3.502404110232134E-1    3.561498253002596E-1
 1.000629176045000E+10  -4.974673811532282E-1    7.906673068037835E-2    5.121376729967824E-4    7.499893650728407E-4    5.152861049456098E-4    7.516760253177753E-4   -3.500087679492716E-1    3.564081439335292E-1
 1.000629400777500E+10  -4.974547974816700E-1    7.937871167450858E-2    5.679101224906081E-4    7.270693329299382E-4    4.538747847183941E-4    7.560341613096241E-4   -3.497964370196838E-1    3.566050200954766E-1
 1.000629625510000E+10  -4.975109458730950E-1    7.922929915488351E-2    5.829540920687240E-4    7.738526951247881E-4    5.172259371438228E-4    7.770305731549452E-4   -3.495114520886627E-1    3.567861185343926E-1
 1.000629850242500E+10  -4.975621478658366E-1    7.958930682502061E-2    5.840270072199551E-4    7.964329628681806E-4    4.875724368841740E-4    7.741801559239343E-4   -3.493477295808496E-1    3.569568412185566E-1
 1.000630074975000E+10  -4.975290009617780E-1    7.961358101084245E-2    5.915797260983145E-4    8.062741272104964E-4    5.189446127194827E-4    8.218421476761560E-4   -3.491193097563573E-1    3.570446000756345E-1
 1.000630299707500E+10  -4.973845913154553E-1    7.967080053267771E-2    6.019753000424229E-4    8.092056452397091E-4    5.204002510312927E-4    8.600107962724679E-4   -3.489552568790228E-1    3.574603574748290E-1
 1.000630524440000E+10  -4.975086924351901E-1    7.980495880928082E-2    5.915405695747615E-4    8.060877697496988E-4    5.195282211891915E-4    8.171618085353080E-4   -3.487595802255944E-1    3.575817659561312E-1
 1.000630749172500E+10  -4.973275905975527E-1    8.028078949304997E-2    5.749590840420507E-4    8.269592807949429E-4    5.239082918841143E-4    8.499355697202842E-4   -3.485708548117970E-1    3.577323092684091E-1
 1.000630973905000E+10  -4.972099634701554E-1    8.012475101660199E-2    6.240659801880408E-4    8.524242758687294E-4    5.360715176951972E-4    8.330603653347458E-4   -3.483755210948279E-1    3.579455280468842E-1
 1.000631198637500E+10  -4.973096513399874E-1    8.027899299425122E-2    6.069148910505326E-4    8.529740390442554E-4    5.848571989514030E-4    8.651756024337543E-4   -3.481724853379102E-1    3.580303987285091E-1
 1.000631423370000E+10  -4.971678473176502E-1    8.050238449991298E-2    6.440578192538279E-4    8.505722059817861E-4    5.601794859159226E-4    8.640481035266682E-4   -3.479346137880200E-1    3.583747463500262E-1
 1.000631648102500E+10  -4.972747656385363E-1    8.069784852945772E-2    6.253159460530699E-4    8.721593929538811E-4    5.823362167756667E-4    8.699328470874202E-4   -3.477542154582684E-1    3.583438613334102E-1
 1.000631872835000E+10  -4.973425245594283E-1    8.089349970587430E-2    6.800992467262937E-4    9.182318158047603E-4    5.743521217432204E-4    8.779530019136101E-4   -3.475123637061037E-1    3.587062842087981E-1
 1.000632097567500E+10  -4.971139823746020E-1    8.099374991236818E-2    6.297485723207746E-4    8.913659368013296E-4    5.992965862811982E-4    9.483446756792470E-4   -3.473276540681398E-1    3.589867015564699E-1
 1.000632322300000E+10  -4.971265088965600E-1    8.104913234937916E-2    6.759685578713689E-4    9.248585324387535E-4    6.262881599857788E-4    9.609606934065673E-4   -3.471381821538577E-1    3.591170421831215E-1
 1.000632547032500E+10  -4.972404438278022E-1    8.141886684912869E-2    6.689911343499658E-4    9.512159525833505E-4    6.071822521366729E-4    9.092350333385972E-4   -3.468859377574391E-1    3.592789141376280E-1
 1.000632771765000E+10  -4.972400484346369E-1    8.147107494083819E-2    6.893642209612647E-4    9.325077645901976E-4    6.135966233852311E-4    9.330367216289743E-4   -3.466232750837798E-1    3.594865207590738E-1
 1.000632996497500E+10  -4.971470358112732E-1    8.149896654371659E-2    7.115911593170517E-4    9.541146693543581E-4    6.541964150083243E-4    9.560265963374550E-4   -3.464161330474350E-1    3.596497554187565E-1
 1.000633221230000E+10  -4.971196190828001E-1    8.169577119253979E-2    7.127131896565934E-4    9.425878187602743E-4    6.332291178323690E-4    1.028761723171906E-3   -3.462398018117838E-1    3.598329622621614E-1
 1.000633445962500E+10  -4.971271222677223E-1    8.173429548308199E-2    7.033317532547484E-4    9.673802854854728E-4    6.580401859839733E-4    9.995631752769626E-4   -3.459222287687757E-1    3.602232967265905E-1
 1.000633670695000E+10  -4.971830482625501E-1    8.187482765508187E-2    7.320124301180518E-4    9.701186338561224E-4    6.418950962570750E-4    9.898051575382642E-4   -3.458358518993642E-1    3.602583756303249E-1
 1.000633895427500E+10  -4.970238192722118E-1    8.203384367712711E-2    7.788502561572140E-4    9.895505870335026E-4    6.990422651540544E-4    1.019166615739073E-3   -3.455351655259462E-1    3.604944634438536E-1
 1.000634120160000E+10  -4.970972005739909E-1    8.224451008356157E-2    7.621944625657432E-4    9.991128133165672E-4    6.837352352665594E-4    1.032449982736710E-3   -3.453210263319662E-1    3.606936717409744E-1
 1.000634344892500E+10  -4.970779248057465E-1    8.245702706128476E-2    7.861874271587334E-4    1.025361631348951E-3    6.871046902309141E-4    1.064299230423534E-3   -3.450824633203025E-1    3.609078142217883E-1
 1.000634569625000E+10  -4.969554553327629E-1    8.265474030190029E-2    7.812477478041845E-4    1.052713695087591E-3    7.054223460909694E-4    1.083492208815840E-3   -3.447710142422853E-1    3.611659687706708E-1
 1.000634794357500E+10  -4.970480553289371E-1    8.268337085383524E-2    7.643331357998430E-4    1.047693285151963E-3    7.234299811153407E-4    1.082811022297366E-3   -3.445616948301957E-1    3.612506182800904E-1
 1.000635019090000E+10  -4.969773367347016E-1    8.297572357312327E-2    8.094364785332722E-4    1.090635501695894E-3    7.161036284009119E-4    1.070968146378882E-3   -3.443206399877991E-1    3.615275223011254E-1
 1.000635243822500E+10  -4.969798131472736E-1    8.306911937707082E-2    8.019608611172725E-4    1.067896795082200E-3    7.561394546087659E-4    1.117174472291701E-3   -3.441080186486558E-1    3.617634027819141E-1
 1.000635468555000E+10  -4.967611904817342E-1    8.325696867655011E-2    8.151448031332252E-4    1.078329021561632E-3    7.409556237105992E-4    1.122401949201112E-3   -3.437617043006121E-1    3.621269676077377E-1
 1.000635693287500E+10  -4.970441226076299E-1    8.337185228210242E-2    8.537631797903949E-4    1.108245501073925E-3    7.611789449100317E-4    1.121257231143296E-3   -3.435888731762098E-1    3.621009472127258E-1
 1.000635918020000E+10  -4.968222911667845E-1    8.353874248539545E-2    8.577023533563853E-4    1.113487328093126E-3    7.425749516001083E-4    1.151133182860899E-3   -3.431582918037853E-1    3.625352581253721E-1
 1.000636142752500E+10  -4.968920410703160E-1    8.367058118670942E-2    8.777051797761995E-4    1.136654537670102E-3    7.894881600468453E-4    1.150338510362645E-3   -3.431406389029943E-1    3.627277299273586E-1
 1.000636367485000E+10  -4.968299302904332E-1    8.381289543596257E-2    8.707784107380994E-4    1.145578722079654E-3    8.261262116175835E-4    1.159485330852760E-3   -3.427436336562538E-1    3.629919176808345E-1
 1.000636592217500E+10  -4.968524313839325E-1    8.393618782582275E-2    8.780934918914883E-4    1.162044145203294E-3    8.074507200910571E-4    1.186499691335304E-3   -3.424042745422374E-1    3.630952066789589E-1
 1.000636816950000E+10  -4.967019006784518E-1    8.398832900758910E-2    9.137734970353125E-4    1.183792714762805E-3    7.933889286010690E-4    1.179845624716168E-3   -3.423440828390638E-1    3.632624909022778E-1
 1.000637041682500E+10  -4.967967961354171E-1    8.423183987167375E-2    9.058613140722487E-4    1.213076128224626E-3    8.262824993122049E-4    1.253450308683534E-3   -3.421054629966537E-1    3.634890015999430E-1
 1.000637266415000E+10  -4.966828738146237E-1    8.448315266044214E-2    9.344208071610812E-4    1.226367048483635E-3    8.569143602059955E-4    1.244883419495148E-3   -3.417550817700087E-1    3.638457962193301E-1
 1.000637491147500E+10  -4.966452430760517E-1    8.453392582025690E-2    9.585360224974059E-4    1.233752552061533E-3    8.482870992112074E-4    1.261813108281300E-3   -3.415578515559544E-1    3.641328336117226E-1
 1.000637715880000E+10  -4.966310226447319E-1    8.461596597849326E-2    9.710380651173115E-4    1.235608923240826E-3    8.860084371673402E-4    1.295336562312211E-3   -3.412929861189538E-1    3.643660557304287E-1
 1.000637940612500E+10  -4.966351742360552E-1    8.487103023199301E-2    9.813399812919701E-4    1.281875624475820E-3    8.921798561069460E-4    1.280143240004625E-3   -3.408357370383066E-1    3.644907337913688E-1
 1.000638165345000E+10  -4.966414378981991E-1    8.498549321449297E-2    1.010850389733097E-3    1.266473384873397E-3    8.645662938730519E-4    1.327612423617718E-3   -3.406160690353499E-1    3.648293388469872E-1
 1.000638390077500E+10  -4.966826896536101E-1    8.516342126352380E-2    1.016840225692240E-3    1.287753664013280E-3    9.312917099424102E-4    1.289997651992991E-3   -3.403523458189066E-1    3.650002856879173E-1
 1.000638614810000E+10  -4.966471030506723E-1    8.525079717590291E-2    1.018863001756430E-3    1.332812923767451E-3    9.225474960478583E-4    1.345725754613534E-3   -3.401953651072255E-1    3.651529032387366E-1
 1.000638839542500E+10  -4.966163845246559E-1    8.553412994435013E-2    1.016740640099446E-3    1.316975279174485E-3    9.513031241420251E-4    1.348839841190455E-3   -3.397893113278764E-1    3.654611083863955E-1
 1.000639064275000E+10  -4.966746217509085E-1    8.554043082031412E-2    1.063222884792609E-3    1.342803507507680E-3    9.591807972037998E-4    1.355714223834728E-3   -3.395495194236133E-1    3.657533757279982E-1
 1.000639289007500E+10  -4.965729119794077E-1    8.583809105856927E-2    1.062672983552803E-3    1.353208349529400E-3    9.969988821706282E-4    1.397085561207817E-3   -3.392315122012657E-1    3.658449938242526E-1
 1.000639513740000E+10  -4.966062054302772E-1    8.583854268719995E-2    1.075781541965120E-3    1.401217845425218E-3    1.003782941615931E-3    1.401449166084258E-3   -3.389242611419137E-1    3.660321120482284E-1
 1.000639738472500E+10  -4.965071866685136E-1    8.602969753369868E-2    1.068065025007945E-3    1.403013632902027E-3    1.011913738925713E-3    1.437233705957095E-3   -3.387397934424801E-1    3.663634615272759E-1
 1.000639963205000E+10  -4.964744946897566E-1    8.612774477768345E-2    1.112741692943213E-3    1.430705899231045E-3    1.026821226522049E-3    1.428096825190885E-3   -3.383091960822355E-1    3.665719469250633E-1
 1.000640187937500E+10  -4.965324325425154E-1    8.624869853544448E-2    1.154983407303389E-3    1.459542236047943E-3    1.031424598657650E-3    1.492693110155098E-3   -3.380029817715205E-1    3.668569500902302E-1
 1.000640412670000E+10  -4.964910250464667E-1    8.646458349171073E-2    1.155746243525519E-3    1.454740141597454E-3    1.052679807345905E-3    1.468862867031674E-3   -3.377565465183034E-1    3.672197482404751E-1
 1.000640637402500E+10  -4.963664311538317E-1    8.661659825240325E-2    1.154608141032160E-3    1.484235911211108E-3    1.070843019290969E-3    1.489824328992676E-3   -3.373274304010304E-1    3.674015334964216E-1
 1.000640862135000E+10  -4.964770991979457E-1    8.665392589066058E-2    1.215097572337402E-3    1.508018850140440E-3    1.122391465285863E-3    1.529279123478839E-3   -3.370791239927665E-1    3.676482993288427E-1
 1.000641086867500E+10  -4.963375240807402E-1    8.692556925403822E-2    1.227970353393010E-3    1.524356204713860E-3    1.094619347789057E-3    1.566508064803786E-3   -3.367338433364512E-1    3.680418484126571E-1
 1.000641311600000E+10  -4.963079332978285E-1    8.699487373219279E-2    1.217328838926002E-3    1.552645108541381E-3    1.122818289724154E-3    1.574565987670054E-3   -3.364299310310908E-1    3.681065529493999E-1
 1.000641536332500E+10  -4.963732734982260E-1    8.707680889974104E-2    1.270742583975843E-3    1.558674585074238E-3    1.151188239409190E-3    1.565319257134815E-3   -3.360956652310823E-1    3.683483523528805E-1
 1.000641761065000E+10  -4.963689416544519E-1    8.741836274371219E-2    1.256776812526469E-3    1.547924726780904E-3    1.147263464568282E-3    1.612621257958867E-3   -3.358111743429859E-1    3.687121585800326E-1
 1.000641985797500E+10  -4.964506396568448E-1    8.745506963659966E-2    1.296312778393270E-3    1.593042067805452E-3    1.208243681644560E-3    1.599691569020226E-3   -3.355196920660691E-1    3.687564909780992E-1
 1.000642210530000E+10  -4.962747363667747E-1    8.750190210218049E-2    1.319767803795754E-3    1.621034472336337E-3    1.198315933484417E-3    1.662773146581191E-3   -3.351337386758429E-1    3.690110827121773E-1
 1.000642435262500E+10  -4.963428734460538E-1    8.785744012398278E-2    1.333262535586935E-3    1.656193912397572E-3    1.187432849668566E-3    1.658797685890370E-3   -3.347879034745518E-1    3.693759383992061E-1
 1.000642659995000E+10  -4.962863796480784E-1    8.785561742755893E-2    1.375356665069478E-3    1.658367055568573E-3    1.240309942208907E-3    1.700216139911870E-3   -3.343778128099892E-1    3.697407813606198E-1
 1.000642884727500E+10  -4.961934333535328E-1    8.822373584016362E-2    1.386561167884167E-3    1.696598346528760E-3    1.278288477587478E-3    1.749796599986476E-3   -3.339874038346838E-1    3.699234120816118E-1
 1.000643109460000E+10  -4.962298804868188E-1    8.833595575592688E-2    1.391341163745751E-3    1.704089400750257E-3    1.317697753407746E-3    1.743927662432553E-3   -3.336720790425486E-1    3.701222570232651E-1
 1.000643334192500E+10  -4.961779075369637E-1    8.842142999975354E-2    1.437448313946710E-3    1.728851792908248E-3    1.288686552776219E-3    1.770648636095834E-3   -3.332597193056633E-1    3.703096880545474E-1
 1.000643558925000E+10  -4.961043771825605E-1    8.854707822764164E-2    1.473028878301230E-3    1.763232685917585E-3    1.357796115906789E-3    1.810658190995964E-3   -3.329463599421484E-1    3.706117227762424E-1
