#  HZ   S   RI   R     50.00 
! Rohde & Schwarz Vector Network Analyzer 
! Rohde-Schwarz,ZNB20-2Port,1311601062101988,3.16
! Created: UTC 3/20/2024, 12:06:16 PM
! freq[Hz]                re:S11                  im:S11                  re:S21                  im:S21                  re:S12                  im:S12                  re:S22                  im:S22
 1.000634155100000E+10  -4.972629001390137E-1    8.200569644236949E-2    5.783206757040087E-4    7.918033097062007E-4    5.014682237484098E-4    8.457828058842170E-4   -3.476902897138994E-1    3.593585000339382E-1
 1.000634345030000E+10  -4.972888688566822E-1    8.212281686972919E-2    5.745200549812585E-4    8.313162467583260E-4    4.958394930237021E-4    8.678645770219149E-4   -3.475706325355218E-1    3.594765657272966E-1
 1.000634534960000E+10  -4.972033894610431E-1    8.228985255446404E-2    5.671391822214049E-4    8.463824526304790E-4    5.088597891363637E-4    8.645156379542467E-4   -3.472231010056565E-1    3.595888779433419E-1
 1.000634724890000E+10  -4.972859561283162E-1    8.234999189600624E-2    5.718516075794993E-4    8.266374056592448E-4    4.946597365611035E-4    8.564466618476345E-4   -3.471971780322373E-1    3.598583767288692E-1
 1.000634914820000E+10  -4.971244722857356E-1    8.250589957758263E-2    5.838251383475190E-4    8.441173396915916E-4    5.036470205907075E-4    8.817739204678540E-4   -3.471014442488567E-1    3.600204610604165E-1
 1.000635104750000E+10  -4.972093678867270E-1    8.271815862006100E-2    6.257905343507644E-4    8.664271871834918E-4    5.572882117456706E-4    8.480468043529231E-4   -3.469071263906626E-1    3.602331267965892E-1
 1.000635294680000E+10  -4.970374236345683E-1    8.289426040051794E-2    6.025998333593477E-4    8.723184039562835E-4    5.070133476311025E-4    8.883665508679013E-4   -3.466649269002270E-1    3.604076171511406E-1
 1.000635484610000E+10  -4.971448594246905E-1    8.290000518905520E-2    6.309356725715241E-4    9.123545576973235E-4    5.397500842327302E-4    9.290544323463980E-4   -3.465284843471740E-1    3.605374985486322E-1
 1.000635674540000E+10  -4.970448834705786E-1    8.299967927287377E-2    6.214543322032091E-4    8.911013063576933E-4    5.498442430429737E-4    9.041059338615364E-4   -3.463125926420032E-1    3.607274498831326E-1
 1.000635864470000E+10  -4.970086039752600E-1    8.304857054159347E-2    6.316291177246094E-4    8.939893564626190E-4    5.530985432535552E-4    9.040476180247883E-4   -3.462188866228942E-1    3.608367002903251E-1
 1.000636054400000E+10  -4.971155486801279E-1    8.327572421680329E-2    6.272382974159951E-4    9.314312321153371E-4    5.113524117800037E-4    9.465161170843326E-4   -3.459350700256436E-1    3.609190376893969E-1
 1.000636244330000E+10  -4.969559338742229E-1    8.339381359071794E-2    6.401543592654595E-4    9.469056102044342E-4    5.989066052764491E-4    9.628958079319814E-4   -3.458105449178616E-1    3.611981229108766E-1
 1.000636434260000E+10  -4.970070602633851E-1    8.351834186650471E-2    6.422453703653240E-4    9.407472868055441E-4    5.711928838488115E-4    9.586995625369003E-4   -3.454995660713988E-1    3.613790646569418E-1
 1.000636624190000E+10  -4.969571668791992E-1    8.363255078304603E-2    6.370349071980736E-4    9.624902675864095E-4    6.070184240502379E-4    9.631198251821298E-4   -3.453374651104014E-1    3.615999104781865E-1
 1.000636814120000E+10  -4.970028842216727E-1    8.377552349364645E-2    6.571177513761992E-4    9.792434826000969E-4    6.019897260750648E-4    1.005454003254429E-3   -3.452149069055789E-1    3.617794907020715E-1
 1.000637004050000E+10  -4.969896218344229E-1    8.388785639153533E-2    6.746217650612121E-4    9.769430358282597E-4    5.701028342611325E-4    1.033495725308460E-3   -3.449736119583605E-1    3.619224224484094E-1
 1.000637193980000E+10  -4.969814926474862E-1    8.402167089166973E-2    6.862535430230399E-4    1.001498234297123E-3    5.919226040869183E-4    1.031101805717759E-3   -3.449010312262478E-1    3.621307573501762E-1
 1.000637383910000E+10  -4.969456058142148E-1    8.429010950153273E-2    6.827714097572273E-4    1.002481977666945E-3    5.819744121942885E-4    1.021622448959638E-3   -3.444340881295539E-1    3.622478772804405E-1
 1.000637573840000E+10  -4.969564613995805E-1    8.432725252605498E-2    6.807431931092484E-4    1.014958955359909E-3    6.331129987998455E-4    1.029136918846853E-3   -3.443405796202431E-1    3.625151205259746E-1
 1.000637763770000E+10  -4.968667361502442E-1    8.456064219581957E-2    7.075163608014810E-4    1.004644491519128E-3    6.239975432048701E-4    1.038259433585789E-3   -3.442830082350111E-1    3.627429869679569E-1
 1.000637953700000E+10  -4.968953327964688E-1    8.446163817192825E-2    7.147026747606739E-4    9.953749219180944E-4    6.358060237027887E-4    1.044871948566365E-3   -3.440193212564602E-1    3.627717571483453E-1
 1.000638143630000E+10  -4.968428514601356E-1    8.467584785690584E-2    7.236146041547755E-4    1.059572532573844E-3    6.235370503271032E-4    1.054808435449117E-3   -3.437930492122935E-1    3.629208768090250E-1
 1.000638333560000E+10  -4.968768532256959E-1    8.490978504430444E-2    7.447421339987951E-4    1.050526561768420E-3    6.467983110128098E-4    1.054880769919774E-3   -3.436715731688806E-1    3.630886545110066E-1
 1.000638523490000E+10  -4.968480217399011E-1    8.496789497087422E-2    7.333087324997133E-4    1.045779360499629E-3    6.762582020435309E-4    1.106792689358698E-3   -3.435722628136935E-1    3.633678309825854E-1
 1.000638713420000E+10  -4.968068644760377E-1    8.508478923160459E-2    7.285486101865357E-4    1.087714845800080E-3    6.975184478490154E-4    1.099268265802255E-3   -3.433019438248803E-1    3.634734988987589E-1
 1.000638903350000E+10  -4.968624166778492E-1    8.528075829351549E-2    7.678707411183124E-4    1.089490208929473E-3    6.945063624889872E-4    1.093339677831871E-3   -3.431926689334241E-1    3.636484443431136E-1
 1.000639093280000E+10  -4.967678585839368E-1    8.534358038129791E-2    7.675486803957539E-4    1.094718368150496E-3    6.984620087591658E-4    1.121493014985918E-3   -3.428019652307677E-1    3.639631641104885E-1
 1.000639283210000E+10  -4.967563054315669E-1    8.551323573019623E-2    7.989133228174039E-4    1.105361019010611E-3    6.933370004485647E-4    1.136804145284623E-3   -3.425212737052531E-1    3.640496975849838E-1
 1.000639473140000E+10  -4.967029604348782E-1    8.556050913709724E-2    7.654916193793343E-4    1.124199801455508E-3    6.986435023149416E-4    1.125821664825712E-3   -3.424353624163758E-1    3.643406495551752E-1
 1.000639663070000E+10  -4.967410534677836E-1    8.569610203671496E-2    8.025375744609717E-4    1.159758767926679E-3    7.274467615828619E-4    1.196498892324129E-3   -3.422501999010354E-1    3.645615002232772E-1
 1.000639853000000E+10  -4.967034096630076E-1    8.587205471098902E-2    8.066477500159139E-4    1.163415832253192E-3    7.431910957504840E-4    1.154328571114282E-3   -3.420230678871477E-1    3.646015731794714E-1
 1.000640042930000E+10  -4.966119405418613E-1    8.598648157526691E-2    7.939015142300074E-4    1.170615131311238E-3    7.416909381420148E-4    1.198269489502695E-3   -3.418206909392483E-1    3.647301705218308E-1
 1.000640232860000E+10  -4.966370994117394E-1    8.606226047895611E-2    8.208089178094084E-4    1.176603552865323E-3    7.299312480927753E-4    1.192794030584505E-3   -3.416916999340232E-1    3.650275098476088E-1
 1.000640422790000E+10  -4.966194946343294E-1    8.627935875424186E-2    7.971250900107663E-4    1.210718994258051E-3    7.421305195211552E-4    1.245815583590701E-3   -3.415016935483975E-1    3.652633315814330E-1
 1.000640612720000E+10  -4.965584621069636E-1    8.639807314954914E-2    8.211098756460733E-4    1.210146013980145E-3    7.522347045360102E-4    1.213031948935676E-3   -3.411955207164114E-1    3.654933456361197E-1
 1.000640802650000E+10  -4.965735360712929E-1    8.647139353183678E-2    8.642145063004633E-4    1.231225482063586E-3    7.520269967973467E-4    1.225449290865507E-3   -3.410238359383655E-1    3.657038803816609E-1
 1.000640992580000E+10  -4.965785697767223E-1    8.664146329803241E-2    8.853338013305808E-4    1.227155459152660E-3    7.735718553080038E-4    1.255419825732734E-3   -3.407579527467360E-1    3.657552937329272E-1
 1.000641182510000E+10  -4.965908309862624E-1    8.674343443234067E-2    8.955635531053257E-4    1.244884780457378E-3    8.125619671283555E-4    1.286707757239321E-3   -3.405019721628404E-1    3.660818057624050E-1
 1.000641372440000E+10  -4.965815591306291E-1    8.690325411296029E-2    8.970865550017168E-4    1.256297073850426E-3    8.564270163998192E-4    1.281257105205333E-3   -3.404123511522292E-1    3.660914411202303E-1
 1.000641562370000E+10  -4.964956294552113E-1    8.696073371000405E-2    9.145287365596924E-4    1.282859171900924E-3    8.370983544421656E-4    1.301064697650088E-3   -3.400852825069793E-1    3.662522909818769E-1
 1.000641752300000E+10  -4.964917713184640E-1    8.707480961596281E-2    9.088592445942290E-4    1.288541141103750E-3    8.312558986412436E-4    1.360074742651161E-3   -3.399019506606950E-1    3.665620060134650E-1
 1.000641942230000E+10  -4.963938696897399E-1    8.704651425233377E-2    9.465397042689248E-4    1.291122511442890E-3    8.338213109284763E-4    1.325246146489150E-3   -3.396301651492358E-1    3.666967443063684E-1
 1.000642132160000E+10  -4.963662517622720E-1    8.724839569491269E-2    9.413351968710914E-4    1.308213921121809E-3    8.501950969854873E-4    1.346631543343737E-3   -3.393401786967910E-1    3.669587585086760E-1
 1.000642322090000E+10  -4.963927874813302E-1    8.745508939503358E-2    9.530280180153244E-4    1.333347522026278E-3    8.804523643431118E-4    1.360446027473754E-3   -3.392316964623945E-1    3.672072075617596E-1
 1.000642512020000E+10  -4.964726457879551E-1    8.768678152134572E-2    9.602872876078470E-4    1.353467359587855E-3    8.681099640946389E-4    1.361530055737667E-3   -3.388638108256977E-1    3.672781054666940E-1
 1.000642701950000E+10  -4.963378469355647E-1    8.783213660210215E-2    9.710037056584085E-4    1.371608195282830E-3    8.665828686595368E-4    1.390557624579453E-3   -3.386522233641757E-1    3.676313621600755E-1
 1.000642891880000E+10  -4.963709623202833E-1    8.779385077157140E-2    9.724039973633311E-4    1.365984165705105E-3    8.993748130715674E-4    1.380808081579191E-3   -3.384227488790030E-1    3.678187768829514E-1
 1.000643081810000E+10  -4.963348291149613E-1    8.799911251801502E-2    1.002665316258104E-3    1.396953567179226E-3    8.983379174608116E-4    1.427074749911316E-3   -3.381306800339519E-1    3.679563793926659E-1
 1.000643271740000E+10  -4.962544983046785E-1    8.814017239163544E-2    9.953188215290722E-4    1.398800950734087E-3    9.228788059115400E-4    1.415795885734708E-3   -3.379578893677403E-1    3.681365992167110E-1
 1.000643461670000E+10  -4.963901850888638E-1    8.834136847250619E-2    1.024964227732263E-3    1.411510251714890E-3    9.594654088515956E-4    1.471183241437657E-3   -3.377504829380373E-1    3.684022048031649E-1
 1.000643651600000E+10  -4.962794843303427E-1    8.838967101464366E-2    1.037082457093919E-3    1.441064305211565E-3    9.521467242555970E-4    1.439956651626773E-3   -3.375504546271065E-1    3.685541248454730E-1
 1.000643841530000E+10  -4.962762524573092E-1    8.848483979974169E-2    1.060503803524350E-3    1.435572590577119E-3    9.360197642315818E-4    1.482537139072899E-3   -3.372597091467584E-1    3.688711520217602E-1
 1.000644031460000E+10  -4.962674291398517E-1    8.851826058947843E-2    1.086913450937059E-3    1.473479138368189E-3    9.705539599878950E-4    1.497821846465207E-3   -3.368099851436404E-1    3.690212006543804E-1
 1.000644221390000E+10  -4.961893602066209E-1    8.868187159590972E-2    1.074265564602332E-3    1.493277295998870E-3    1.005628857713363E-3    1.497098549991094E-3   -3.367675690321504E-1    3.692914235226628E-1
 1.000644411320000E+10  -4.960791494080299E-1    8.878749285828344E-2    1.091867298666444E-3    1.507371754532476E-3    9.662033360507997E-4    1.544892936496828E-3   -3.364108168940922E-1    3.693571709348888E-1
 1.000644601250000E+10  -4.962599275459232E-1    8.884020186871792E-2    1.095092176396545E-3    1.522682746196860E-3    1.036508247401190E-3    1.571050616966592E-3   -3.362327593311802E-1    3.696557834243215E-1
 1.000644791180000E+10  -4.961822245871238E-1    8.916854077054734E-2    1.135159418440489E-3    1.564218739677497E-3    1.007935048244973E-3    1.581641734399347E-3   -3.359169305427902E-1    3.699095058095333E-1
 1.000644981110000E+10  -4.961336539735891E-1    8.920685321052224E-2    1.162572381668035E-3    1.553796790409294E-3    1.069313608767487E-3    1.574480276225819E-3   -3.357312625136897E-1    3.700998519543174E-1
 1.000645171040000E+10  -4.961473697354739E-1    8.930142207879539E-2    1.138874674081257E-3    1.581351890698115E-3    1.065956498195552E-3    1.599036485279909E-3   -3.352588808782499E-1    3.704191548101238E-1
 1.000645360970000E+10  -4.960765628364592E-1    8.946939445689951E-2    1.170748892458084E-3    1.597466850302621E-3    1.078173483509964E-3    1.619773451957482E-3   -3.350597440789359E-1    3.706739332518991E-1
 1.000645550900000E+10  -4.960806900128538E-1    8.962845687874496E-2    1.169953673189209E-3    1.630511762957967E-3    1.076467339022819E-3    1.600216800302766E-3   -3.348449903471126E-1    3.706970554244434E-1
 1.000645740830000E+10  -4.960792236460060E-1    8.972840379763274E-2    1.227752524396851E-3    1.636730400481278E-3    1.101464251758551E-3    1.661918928794776E-3   -3.345927903078589E-1    3.709288505598404E-1
 1.000645930760000E+10  -4.960914477320522E-1    8.984426608699883E-2    1.209179756184129E-3    1.646791509520206E-3    1.157323144711361E-3    1.672012168573407E-3   -3.343676334081108E-1    3.711910459934467E-1
 1.000646120690000E+10  -4.960513823518801E-1    8.988595950733559E-2    1.238980422584045E-3    1.676906300339936E-3    1.163916647369391E-3    1.689191581600219E-3   -3.340827317652001E-1    3.714655556402788E-1
 1.000646310620000E+10  -4.959319099301367E-1    8.998834854356039E-2    1.278835135734008E-3    1.690566535515265E-3    1.139680238485727E-3    1.713348675471015E-3   -3.337034060062093E-1    3.716945782250074E-1
 1.000646500550000E+10  -4.960191496222910E-1    9.018436092614027E-2    1.279684544062354E-3    1.700189509634124E-3    1.147019744004687E-3    1.746999367567947E-3   -3.334637004158703E-1    3.720455411550347E-1
 1.000646690480000E+10  -4.959495785148565E-1    9.031815040726777E-2    1.316448996708996E-3    1.723392011569461E-3    1.185739425480514E-3    1.739489665724485E-3   -3.332437361642315E-1    3.720531327334053E-1
 1.000646880410000E+10  -4.959719101353657E-1    9.046615318828637E-2    1.327017254119467E-3    1.743459804129719E-3    1.165883709541700E-3    1.766818808714674E-3   -3.329366757170023E-1    3.725139190105355E-1
 1.000647070340000E+10  -4.957798293877644E-1    9.065349121782795E-2    1.359533345824185E-3    1.738159380692273E-3    1.196664129643097E-3    1.815302977104943E-3   -3.325640722675445E-1    3.724709506422824E-1
 1.000647260270000E+10  -4.959424483384268E-1    9.080028273575923E-2    1.361570096104120E-3    1.746925479254128E-3    1.233661239313922E-3    1.808776390767515E-3   -3.322663628702418E-1    3.728292801340961E-1
 1.000647450200000E+10  -4.958107973875409E-1    9.074755713748857E-2    1.346438462238227E-3    1.795725952710236E-3    1.267545891646569E-3    1.833077846541951E-3   -3.318968974026512E-1    3.730979491583418E-1
 1.000647640130000E+10  -4.958583717001751E-1    9.102742403506757E-2    1.411005453844174E-3    1.845199887281579E-3    1.289367722492423E-3    1.849826116544846E-3   -3.315984660671531E-1    3.732999322151314E-1
 1.000647830060000E+10  -4.958017669811827E-1    9.118813429715988E-2    1.417263240746487E-3    1.840179620689916E-3    1.276103820412833E-3    1.898826182075075E-3   -3.312879618793804E-1    3.735014115699650E-1
 1.000648019990000E+10  -4.957879969904117E-1    9.119464672792896E-2    1.420889636859481E-3    1.867966512964477E-3    1.319064169102470E-3    1.897199187871686E-3   -3.308347849419802E-1    3.738835588946801E-1
 1.000648209920000E+10  -4.959176820971437E-1    9.124436405245188E-2    1.442046257156859E-3    1.900837148830758E-3    1.309526881970297E-3    1.908061066180244E-3   -3.306787577986687E-1    3.740722223210642E-1
 1.000648399850000E+10  -4.958234292784629E-1    9.147483426071577E-2    1.466519801306392E-3    1.938399616274873E-3    1.353453823667091E-3    1.918317486733570E-3   -3.303133516766081E-1    3.742564696579564E-1
 1.000648589780000E+10  -4.957125178528913E-1    9.162227429346474E-2    1.491981608849425E-3    1.928915757145224E-3    1.349661408836761E-3    1.980497755603855E-3   -3.299911908245118E-1    3.744622596514554E-1
 1.000648779710000E+10  -4.956771261303584E-1    9.167624866037806E-2    1.518467979004805E-3    1.965555578042764E-3    1.412893498865961E-3    1.982025426196072E-3   -3.295974342858559E-1    3.748324973619406E-1
 1.000648969640000E+10  -4.957102964178495E-1    9.190053423546443E-2    1.535632478601019E-3    1.966968933920656E-3    1.410725950229969E-3    2.030709685097729E-3   -3.292698306195764E-1    3.749726644597112E-1
 1.000649159570000E+10  -4.956830157540362E-1    9.192338887804892E-2    1.587032688166198E-3    1.971792596451114E-3    1.458654569362990E-3    1.989691380474080E-3   -3.289520779258862E-1    3.753469886950982E-1
 1.000649349500000E+10  -4.956404827122396E-1    9.207683737649507E-2    1.577037869096807E-3    2.028873654470038E-3    1.441911664033435E-3    2.057142908379703E-3   -3.285960506464484E-1    3.755149148834302E-1
 1.000649539430000E+10  -4.957557647780273E-1    9.231463640880884E-2    1.608783365328756E-3    2.051980153246865E-3    1.491129340453390E-3    2.073156874689676E-3   -3.282523806281731E-1    3.757234242936944E-1
 1.000649729360000E+10  -4.956553631134074E-1    9.243960313789854E-2    1.651382435463733E-3    2.092932811608931E-3    1.481811798051812E-3    2.144684718026758E-3   -3.277982933121090E-1    3.760650203023295E-1
 1.000649919290000E+10  -4.955464844553994E-1    9.249587682525319E-2    1.628824755425733E-3    2.094604402724979E-3    1.515176514849218E-3    2.124356306554516E-3   -3.274190629291496E-1    3.763797576396236E-1
 1.000650109220000E+10  -4.957606359703406E-1    9.252913491681503E-2    1.687949210568445E-3    2.087753185607924E-3    1.552540309237866E-3    2.189362662049935E-3   -3.270410509976239E-1    3.765639814520709E-1
 1.000650299150000E+10  -4.956525347971918E-1    9.268568551226097E-2    1.715139805135797E-3    2.136724011180681E-3    1.517066862617528E-3    2.161026157395206E-3   -3.268120346459779E-1    3.768326604958182E-1
 1.000650489080000E+10  -4.955524855725724E-1    9.290481696455985E-2    1.718445819236295E-3    2.189957694052555E-3    1.586691210325321E-3    2.219160927357547E-3   -3.263591755960944E-1    3.770911284479820E-1
 1.000650679010000E+10  -4.954967043215032E-1    9.290389037006125E-2    1.757674740789994E-3    2.227755843576964E-3    1.633189400348842E-3    2.212164565801309E-3   -3.260089249501413E-1    3.773054179859381E-1
 1.000650868940000E+10  -4.955666667927248E-1    9.313751486489984E-2    1.790314568569979E-3    2.233736837971452E-3    1.629901493822447E-3    2.256710267680238E-3   -3.257123704346117E-1    3.776174072749416E-1
 1.000651058870000E+10  -4.954820438908410E-1    9.327523663723218E-2    1.777712670513613E-3    2.257071010567323E-3    1.681143768090527E-3    2.301465632227597E-3   -3.252054852217404E-1    3.778920921396707E-1
 1.000651248800000E+10  -4.955112804434877E-1    9.339027138308403E-2    1.816943625700154E-3    2.299430436166715E-3    1.694868307263881E-3    2.288122785856008E-3   -3.247040401770703E-1    3.781021686266460E-1
