#  HZ   S   RI   R     50.00 
! Rohde & Schwarz Vector Network Analyzer 
! Rohde-Schwarz,ZNB20-2Port,1311601062101988,3.16
! Created: UTC 3/20/2024, 11:39:06 AM
! freq[Hz]                re:S11                  im:S11                  re:S21                  im:S21                  re:S12                  im:S12                  re:S22                  im:S22
 1.000602963700000E+10  -4.977145540415123E-1    6.430063939654854E-2    1.753670060061446E-4    1.669381379302033E-4    1.747516588813822E-4    1.887576852208062E-4   -3.649968060603660E-1    3.398003482811722E-1
 1.000603244995000E+10  -4.975625452820290E-1    6.444776954936336E-2    1.836460174982606E-4    1.909448462821770E-4    1.527287724163401E-4    1.768685014434026E-4   -3.645643508511689E-1    3.400403006445301E-1
 1.000603526290000E+10  -4.974708960993267E-1    6.461688911040578E-2    1.553492874030915E-4    1.884260173779838E-4    1.599416240132429E-4    1.821546372067636E-4   -3.648090375917269E-1    3.401390947593551E-1
 1.000603807585000E+10  -4.976302709191882E-1    6.476467738380481E-2    1.863760196394108E-4    1.732062688209476E-4    1.817642148499905E-4    2.074068343864026E-4   -3.644870565376502E-1    3.405700343789366E-1
 1.000604088880000E+10  -4.975706311785514E-1    6.488945325398755E-2    2.261031594886356E-4    1.969176466206570E-4    1.680845828484220E-4    2.036031568417056E-4   -3.640391919035094E-1    3.407016810625625E-1
 1.000604370175000E+10  -4.974237938475589E-1    6.520787596520265E-2    1.822112153887478E-4    2.134756743979862E-4    2.133773238449183E-4    2.024482984990135E-4   -3.640593120023590E-1    3.409296232370233E-1
 1.000604651470000E+10  -4.974938754763382E-1    6.531789556303136E-2    1.741517500464059E-4    2.007557109242463E-4    1.991983280989069E-4    2.057190904908340E-4   -3.639635114170256E-1    3.409966767274880E-1
 1.000604932765000E+10  -4.975544482288234E-1    6.541124896806449E-2    2.257150613259659E-4    1.907400939101442E-4    2.018009391870978E-4    2.328386604590395E-4   -3.637968855874548E-1    3.412561443914469E-1
 1.000605214060000E+10  -4.975658949387141E-1    6.574251327524414E-2    2.056119504076278E-4    2.027105229934734E-4    1.886229226951328E-4    2.216006210429041E-4   -3.637010181770865E-1    3.414424533542640E-1
 1.000605495355000E+10  -4.974983286214947E-1    6.583233275985491E-2    2.094032244254211E-4    2.257406181865971E-4    1.921879772494538E-4    2.297571365364024E-4   -3.633623347333265E-1    3.416523006521014E-1
 1.000605776650000E+10  -4.974469279993773E-1    6.609148724897189E-2    2.391724002108604E-4    2.612276571422903E-4    2.244239065565890E-4    2.349899923249012E-4   -3.632132251317013E-1    3.417657216714421E-1
 1.000606057945000E+10  -4.973493547084066E-1    6.624770150644201E-2    2.300359194030209E-4    2.508949816705997E-4    1.826724487826821E-4    2.677121718943964E-4   -3.630793130313509E-1    3.419230069329144E-1
 1.000606339240000E+10  -4.973650116822216E-1    6.645065116610051E-2    2.306756204983057E-4    2.713686641328211E-4    2.217866994317179E-4    2.601948000791088E-4   -3.628494794381656E-1    3.421333543932170E-1
 1.000606620535000E+10  -4.973777555654701E-1    6.657776345263108E-2    2.437142233116810E-4    2.366383108975238E-4    2.622346161874196E-4    2.801752109781994E-4   -3.625959923165619E-1    3.422616556330501E-1
 1.000606901830000E+10  -4.972513627882051E-1    6.682328448849004E-2    2.443520184360253E-4    2.794182633504104E-4    1.855807538221055E-4    2.749772628906122E-4   -3.624327943560313E-1    3.425955441531821E-1
 1.000607183125000E+10  -4.972365732740011E-1    6.696960379306215E-2    2.537472594444495E-4    2.717792157771090E-4    2.245213555266170E-4    2.745878179438736E-4   -3.623756236267032E-1    3.428149862258119E-1
 1.000607464420000E+10  -4.973532535233484E-1    6.725111554530916E-2    2.466198132601034E-4    2.929607698291233E-4    2.513628053665312E-4    3.068656506412096E-4   -3.620366068831152E-1    3.429798140390319E-1
 1.000607745715000E+10  -4.972717929422560E-1    6.733950348837313E-2    2.332153103316393E-4    2.971142829320126E-4    2.517377827023759E-4    3.057003560740396E-4   -3.618766552580675E-1    3.431888796034843E-1
 1.000608027010000E+10  -4.972212437664231E-1    6.754712116623005E-2    2.717380262459251E-4    3.049270895566349E-4    2.690750425286952E-4    3.097420495816476E-4   -3.617562350380142E-1    3.434088541408332E-1
 1.000608308305000E+10  -4.972526965185057E-1    6.781513063572379E-2    2.678180741879933E-4    3.195451093615907E-4    2.693441754358419E-4    2.934480865527415E-4   -3.614542660478902E-1    3.434809484473896E-1
 1.000608589600000E+10  -4.970925816619084E-1    6.791507479175243E-2    2.340308914165275E-4    2.829193805700516E-4    2.538869845173810E-4    3.050961943089053E-4   -3.613565633225979E-1    3.438417221146797E-1
 1.000608870895000E+10  -4.972401346209370E-1    6.807416837103381E-2    2.853222084996950E-4    3.342074121830507E-4    2.572848528148140E-4    3.248418233013865E-4   -3.610968408300624E-1    3.440568861207191E-1
 1.000609152190000E+10  -4.971693089595574E-1    6.819839555470329E-2    3.035879466424824E-4    3.342478053936089E-4    2.658438371578537E-4    3.203491403275767E-4   -3.610491535767998E-1    3.442352321109147E-1
 1.000609433485000E+10  -4.971602959476271E-1    6.845982177660155E-2    2.760410490509384E-4    3.482059926053244E-4    2.901854932469097E-4    3.512546778733742E-4   -3.608877785622023E-1    3.444524307099275E-1
 1.000609714780000E+10  -4.971143886910159E-1    6.871893700291880E-2    3.097074982626406E-4    3.666301363478668E-4    3.242945948746039E-4    3.639460590402660E-4   -3.606920073837463E-1    3.445930040027537E-1
 1.000609996075000E+10  -4.970426625754393E-1    6.867269352558229E-2    3.130044942735658E-4    3.656649765247215E-4    2.688358936639457E-4    3.672945772298200E-4   -3.603340624698294E-1    3.447286781447955E-1
 1.000610277370000E+10  -4.972723194367668E-1    6.911900068356333E-2    3.153267017714010E-4    3.612105752689855E-4    2.841917605337573E-4    3.781942833655519E-4   -3.602235029860597E-1    3.449778507684856E-1
 1.000610558665000E+10  -4.970984400586205E-1    6.919137458340660E-2    3.263276569325826E-4    4.076448254548569E-4    3.027424181144211E-4    4.007989171655671E-4   -3.601212282015932E-1    3.452040808110675E-1
 1.000610839960000E+10  -4.970105473111588E-1    6.942690956304927E-2    3.350429989301766E-4    3.858408611483970E-4    2.991700255319896E-4    3.945975159437387E-4   -3.597485043079798E-1    3.454163398962288E-1
 1.000611121255000E+10  -4.971040949888655E-1    6.948568721305788E-2    3.512103465574962E-4    3.879998705458691E-4    3.226314552231204E-4    4.130878446106858E-4   -3.596305838171221E-1    3.456525861772962E-1
 1.000611402550000E+10  -4.969469642688029E-1    6.973780063027883E-2    3.200669136278347E-4    4.126197261593634E-4    3.355810491274071E-4    4.131582627123633E-4   -3.594430261431024E-1    3.458853067744011E-1
 1.000611683845000E+10  -4.968785583800998E-1    6.993462394009987E-2    3.480282928521518E-4    4.041728224164381E-4    3.304234886488036E-4    4.075546655442106E-4   -3.591754380219965E-1    3.460431235492782E-1
 1.000611965140000E+10  -4.968577619270796E-1    7.014400259143332E-2    3.507813326249571E-4    4.343223461749951E-4    3.011809025767291E-4    4.196088832402630E-4   -3.588913473424016E-1    3.464075458953414E-1
 1.000612246435000E+10  -4.969449007383639E-1    7.038085302319627E-2    3.766594610577250E-4    4.220090782878505E-4    3.461957026149313E-4    4.724829016543056E-4   -3.588381885178831E-1    3.464806037170912E-1
 1.000612527730000E+10  -4.967336580501907E-1    7.042611310496280E-2    3.713054519012024E-4    4.503568060687214E-4    3.272986470737532E-4    4.400985587073653E-4   -3.585493047067154E-1    3.465785180487121E-1
 1.000612809025000E+10  -4.970332294777960E-1    7.073304820214182E-2    3.927666371302426E-4    4.637624952869520E-4    3.467360862500650E-4    4.737206001450541E-4   -3.582732169573135E-1    3.469944327945057E-1
 1.000613090320000E+10  -4.968146849984801E-1    7.085612371399891E-2    3.835677749000373E-4    4.711052714843773E-4    3.513508491111490E-4    4.559470844863281E-4   -3.580603423909592E-1    3.471183146384604E-1
 1.000613371615000E+10  -4.968820327129084E-1    7.099633441028108E-2    3.496549625899556E-4    4.469670883157045E-4    3.463859649628413E-4    4.862134632900305E-4   -3.578787070708396E-1    3.474123541038813E-1
 1.000613652910000E+10  -4.969035770791869E-1    7.113659041000150E-2    4.044047080511149E-4    4.751612283982644E-4    3.809941810329685E-4    4.816231694543214E-4   -3.576228919276001E-1    3.475831666629467E-1
 1.000613934205000E+10  -4.966308390442972E-1    7.147622696456306E-2    4.187585468471835E-4    5.010282263117059E-4    3.571539708357755E-4    4.970085473894823E-4   -3.575539551467661E-1    3.478204095196488E-1
 1.000614215500000E+10  -4.967931360179356E-1    7.159871347432831E-2    4.153469878427839E-4    4.863124370571529E-4    3.968119198810720E-4    5.052933299334430E-4   -3.572156686317473E-1    3.481583734030638E-1
 1.000614496795000E+10  -4.967095507790358E-1    7.180653077215857E-2    4.364854982805632E-4    5.272004723598114E-4    3.882059578476490E-4    5.222948860881978E-4   -3.569417107878582E-1    3.480302749954607E-1
 1.000614778090000E+10  -4.967017413547037E-1    7.193999160452136E-2    4.232009755581127E-4    5.271556119385642E-4    3.800461378295688E-4    5.064933403173069E-4   -3.568613987949397E-1    3.483729199110263E-1
 1.000615059385000E+10  -4.967126032917319E-1    7.207198843113322E-2    4.577406685394293E-4    5.584491366288685E-4    4.022714343332722E-4    5.641427935449049E-4   -3.565593874739386E-1    3.487131294635367E-1
 1.000615340680000E+10  -4.967284600348216E-1    7.235188278325984E-2    4.611810566517285E-4    5.173387005052615E-4    4.253469187415940E-4    5.519334223000286E-4   -3.563840178991927E-1    3.488964123022332E-1
 1.000615621975000E+10  -4.966217173620475E-1    7.259404138389242E-2    4.337536084566063E-4    5.515600016543647E-4    4.301887874464917E-4    5.491614980377692E-4   -3.560800025545314E-1    3.490803448465147E-1
 1.000615903270000E+10  -4.968181970111176E-1    7.266163085271955E-2    4.648460878785017E-4    5.752764567462812E-4    4.213438194420245E-4    5.750571832337702E-4   -3.559242876462017E-1    3.492265638176936E-1
 1.000616184565000E+10  -4.965488359878857E-1    7.279107041188995E-2    4.567232976920897E-4    5.558065908249677E-4    4.251356731892938E-4    5.784308742313437E-4   -3.557430710408075E-1    3.495511386412238E-1
 1.000616465860000E+10  -4.966301330054129E-1    7.307977632663805E-2    4.793495261029643E-4    5.780109462571535E-4    4.559191728185640E-4    6.095966362472978E-4   -3.554416168761467E-1    3.496922873861389E-1
 1.000616747155000E+10  -4.966199439545539E-1    7.324098198537844E-2    4.753697750655891E-4    5.966329310784214E-4    4.470536393108262E-4    6.183402604432183E-4   -3.551798357497352E-1    3.500494055355168E-1
 1.000617028450000E+10  -4.966693441205345E-1    7.340087664312932E-2    5.179805612916142E-4    5.785673048197696E-4    4.904799098410129E-4    5.842108345188436E-4   -3.551217251069956E-1    3.502708511816933E-1
 1.000617309745000E+10  -4.965003369945921E-1    7.367679891807134E-2    5.280380540531933E-4    6.097386335637325E-4    4.538352991301772E-4    6.276403498320505E-4   -3.546997492210660E-1    3.504201180678062E-1
 1.000617591040000E+10  -4.964723284989191E-1    7.375350854342889E-2    5.357442231311424E-4    6.298323077190498E-4    4.804098581529364E-4    6.457429762088191E-4   -3.545438960486939E-1    3.505960516986519E-1
 1.000617872335000E+10  -4.965760253509528E-1    7.402557149426132E-2    5.419136177681995E-4    6.522047796931190E-4    4.656795213721970E-4    6.530375291447280E-4   -3.544207373360875E-1    3.506999494709188E-1
 1.000618153630000E+10  -4.964073016542355E-1    7.413438741367086E-2    5.531763977459826E-4    6.571057657112216E-4    5.272215122644740E-4    6.538698774217246E-4   -3.541100308033793E-1    3.511421795532418E-1
 1.000618434925000E+10  -4.964433580312187E-1    7.438610996914913E-2    5.735532441081632E-4    6.418276489930280E-4    5.123491058968530E-4    6.607143319299774E-4   -3.538296631870269E-1    3.512643528078606E-1
 1.000618716220000E+10  -4.965269895884364E-1    7.456045578746941E-2    5.485367187928296E-4    6.994038468660233E-4    5.101576515797533E-4    7.194926066784996E-4   -3.536300157581017E-1    3.515775790846258E-1
 1.000618997515000E+10  -4.963821548147555E-1    7.474116224268457E-2    5.780461473168303E-4    6.627720980779297E-4    5.174889562040875E-4    7.060176405693416E-4   -3.533604818790865E-1    3.517382887237721E-1
 1.000619278810000E+10  -4.963075525553078E-1    7.490796930243886E-2    5.908139177842861E-4    7.032023950225361E-4    5.539004604579093E-4    7.072416987862476E-4   -3.530349670687407E-1    3.520232671660563E-1
 1.000619560105000E+10  -4.963683635942382E-1    7.508362463553281E-2    5.742651828072748E-4    7.372956287814253E-4    5.537158611935141E-4    7.170070258562962E-4   -3.528558568751946E-1    3.522329411350222E-1
 1.000619841400000E+10  -4.962432641397955E-1    7.535982606354494E-2    6.128562246583579E-4    7.309253768470626E-4    5.667781459350336E-4    7.415952891337784E-4   -3.526319325816822E-1    3.525060446661182E-1
 1.000620122695000E+10  -4.962343058692130E-1    7.539909424708800E-2    5.973889787352201E-4    7.436314685383368E-4    5.775116958817274E-4    7.137394377536700E-4   -3.523858232304031E-1    3.527963199672760E-1
 1.000620403990000E+10  -4.963780110843518E-1    7.558246517937446E-2    6.523651053980025E-4    7.592588716818059E-4    5.792153560813393E-4    7.633651057343999E-4   -3.520186965302586E-1    3.528582278581660E-1
 1.000620685285000E+10  -4.963378383443646E-1    7.584035238002101E-2    6.390341178931930E-4    7.831301568210567E-4    5.921113211964523E-4    7.825067077539480E-4   -3.519066738071237E-1    3.531288355134342E-1
 1.000620966580000E+10  -4.962773536739352E-1    7.596550180049311E-2    6.535644729009788E-4    7.677131302476727E-4    6.135603793819073E-4    8.078621118848322E-4   -3.516270100718327E-1    3.534087323354800E-1
 1.000621247875000E+10  -4.962635204912277E-1    7.609702548275601E-2    6.580682682197904E-4    8.177741004928151E-4    6.323031166481166E-4    8.072924122591801E-4   -3.512616308880992E-1    3.536513960108734E-1
 1.000621529170000E+10  -4.962428005653240E-1    7.638621114054639E-2    6.570196763609820E-4    8.041372670708232E-4    6.395738450507166E-4    8.312935773550909E-4   -3.509775491872927E-1    3.539040456483258E-1
 1.000621810465000E+10  -4.962530786300768E-1    7.644808714527518E-2    6.408464542128948E-4    8.308522931337338E-4    6.334184750430425E-4    8.236179395050202E-4   -3.506701376885292E-1    3.542003145105220E-1
 1.000622091760000E+10  -4.961227173271048E-1    7.674746969895552E-2    6.892616295347847E-4    8.357775878444708E-4    6.503216765901274E-4    8.551757046790062E-4   -3.504444899894050E-1    3.542792478932384E-1
 1.000622373055000E+10  -4.961792672846327E-1    7.691206976382316E-2    6.862356171634433E-4    8.488351887015913E-4    6.742675578513996E-4    8.572963632928498E-4   -3.502130904092221E-1    3.545836370455961E-1
 1.000622654350000E+10  -4.961039620420574E-1    7.709064808556258E-2    7.362613538641602E-4    8.652310202498683E-4    6.635068891323885E-4    8.623125438336471E-4   -3.498775354777515E-1    3.548117884176234E-1
 1.000622935645000E+10  -4.961204824005161E-1    7.727483827744096E-2    7.139917177284259E-4    8.822473634378038E-4    6.729919909617332E-4    9.006342998252256E-4   -3.496803137948220E-1    3.550164273945829E-1
 1.000623216940000E+10  -4.960130102844683E-1    7.743650021302163E-2    7.201376203546123E-4    8.765951463679703E-4    7.074362984814457E-4    9.121445472184506E-4   -3.494208864532545E-1    3.554045752173662E-1
 1.000623498235000E+10  -4.959678315048943E-1    7.773557582911059E-2    7.579524203208660E-4    8.905948768690621E-4    7.126635132394208E-4    9.260500856426600E-4   -3.491025888209957E-1    3.556211247935968E-1
 1.000623779530000E+10  -4.959718890903383E-1    7.786857432463509E-2    7.704503314082422E-4    9.220081158977280E-4    7.213571203465157E-4    9.326132827739864E-4   -3.487951012533385E-1    3.558741515528076E-1
 1.000624060825000E+10  -4.959580499822014E-1    7.796556124365041E-2    7.786223364324058E-4    9.376208896915632E-4    7.340946207955888E-4    9.487895435271643E-4   -3.484526923119465E-1    3.560686035269199E-1
 1.000624342120000E+10  -4.960478524069978E-1    7.821718658611085E-2    8.021262691221724E-4    9.626078605562147E-4    7.418454378337790E-4    9.537642363975123E-4   -3.481385264043302E-1    3.563375457193745E-1
 1.000624623415000E+10  -4.959289828477514E-1    7.839080864051012E-2    8.335321154067947E-4    9.704131311870337E-4    7.835126377932632E-4    9.702185234862038E-4   -3.479776217354239E-1    3.565908881615529E-1
 1.000624904710000E+10  -4.958900581455301E-1    7.852045316337712E-2    8.259855751900015E-4    9.662837951617435E-4    7.634544036900496E-4    1.010246486336847E-3   -3.477518549405710E-1    3.569058427749968E-1
 1.000625186005000E+10  -4.958873638846467E-1    7.873550216584203E-2    8.436109406951385E-4    9.917571014579694E-4    7.572455829524274E-4    1.014689074825259E-3   -3.474092102145683E-1    3.570996962552357E-1
 1.000625467300000E+10  -4.958423794623280E-1    7.899688883229625E-2    8.594013975698275E-4    1.033762965919797E-3    7.933511080809438E-4    1.043651843711573E-3   -3.469963649509060E-1    3.573196698049124E-1
 1.000625748595000E+10  -4.958217815380947E-1    7.915031353802619E-2    8.597989072949879E-4    1.031139759451264E-3    8.232662851821622E-4    1.053532088896281E-3   -3.467978615027000E-1    3.575143406027142E-1
 1.000626029890000E+10  -4.958088131007770E-1    7.922454533980254E-2    9.091155058065730E-4    1.042281759970887E-3    8.668839856796221E-4    1.049064876652597E-3   -3.464089060387417E-1    3.578157530248348E-1
 1.000626311185000E+10  -4.957333010211657E-1    7.950959616290805E-2    9.112802202843105E-4    1.063068218249711E-3    8.664322226336342E-4    1.085335662480329E-3   -3.460704178277470E-1    3.580920053357096E-1
 1.000626592480000E+10  -4.958355243508963E-1    7.967766282442934E-2    9.422507535346519E-4    1.074320322994614E-3    8.509558778444250E-4    1.118520065714812E-3   -3.456488511496021E-1    3.583727147497772E-1
 1.000626873775000E+10  -4.956556404929356E-1    7.978152475116790E-2    9.560613593305100E-4    1.105804468301220E-3    9.104276154693083E-4    1.152711599690834E-3   -3.454160956239691E-1    3.587084010823417E-1
 1.000627155070000E+10  -4.957581882926235E-1    7.999148199368253E-2    9.972374386595267E-4    1.133345312059323E-3    8.741437498424452E-4    1.149037814571987E-3   -3.451056344880880E-1    3.589121212499807E-1
 1.000627436365000E+10  -4.956790357206204E-1    8.014472189840645E-2    9.903254022652127E-4    1.158602321280547E-3    8.839010592879355E-4    1.162891098077349E-3   -3.447580167295506E-1    3.591945825083739E-1
 1.000627717660000E+10  -4.956674683272664E-1    8.033252774875108E-2    1.020281661957538E-3    1.136611242566606E-3    9.207801027428724E-4    1.196068939264549E-3   -3.443694534270957E-1    3.594754856475044E-1
 1.000627998955000E+10  -4.956420537764619E-1    8.073298837666384E-2    1.027939434468028E-3    1.188705973273103E-3    9.535619113172678E-4    1.194568375734287E-3   -3.439441936832553E-1    3.596986313538256E-1
 1.000628280250000E+10  -4.956027083169356E-1    8.077899867001205E-2    1.018458813337750E-3    1.210537656722925E-3    9.829010421720222E-4    1.227799922851782E-3   -3.437207005708854E-1    3.599645085087484E-1
