#  HZ   S   RI   R     50.00 
! Rohde & Schwarz Vector Network Analyzer 
! Rohde-Schwarz,ZNB20-2Port,1311601062101988,3.16
! Created: UTC 3/20/2024, 11:39:34 AM
! freq[Hz]                re:S11                  im:S11                  re:S21                  im:S21                  re:S12                  im:S12                  re:S22                  im:S22
 1.000596587800000E+10  -4.979323217057188E-1    6.024391402237608E-2    1.018885838919679E-4    6.932067650185057E-5    1.039245601828153E-4    7.082536876755715E-5   -3.683336438844574E-1    3.358025600245353E-1
 1.000596894845000E+10  -4.978775693927325E-1    6.041942472393567E-2    1.070284971646581E-4    6.058383773053864E-5    1.015776352817274E-4    8.772954666381912E-5   -3.681120268080092E-1    3.360683201283146E-1
 1.000597201890000E+10  -4.978383510209330E-1    6.072783894642588E-2    1.347792411041067E-4    5.778367304101216E-5    7.904204052844196E-5    6.060983245070027E-5   -3.679907567436940E-1    3.360983667093136E-1
 1.000597508935000E+10  -4.977993642054777E-1    6.081384356331475E-2    1.351904375699226E-4    7.223809930941849E-5    1.200633679684162E-4    5.566758928563182E-5   -3.678673595660514E-1    3.364638943340019E-1
 1.000597815980000E+10  -4.978558567718723E-1    6.117310258198600E-2    1.334390578373088E-4    6.459402338799990E-5    1.091035131223964E-4    1.158738832518504E-4   -3.674907246233295E-1    3.365520728162333E-1
 1.000598123025000E+10  -4.977792931483643E-1    6.118410775863007E-2    1.195379899588022E-4    1.024697024256692E-4    9.681707226573867E-5    1.044225853750215E-4   -3.674931604300872E-1    3.367637601770459E-1
 1.000598430070000E+10  -4.977458537450679E-1    6.134502011144291E-2    1.531346089859964E-4    6.782872427750119E-5    1.342961708389496E-4    1.336697179879257E-4   -3.672193002479996E-1    3.370282301256124E-1
 1.000598737115000E+10  -4.978595741705389E-1    6.163438945438170E-2    1.424306989415063E-4    1.040689443772749E-4    1.273271804296052E-4    1.252249160284267E-4   -3.668380186901781E-1    3.371915352090614E-1
 1.000599044160000E+10  -4.977986249829108E-1    6.181836694101114E-2    1.457956756850011E-4    1.144275826739815E-4    1.351668794873069E-4    9.024386483664808E-5   -3.669851957224668E-1    3.374109005575107E-1
 1.000599351205000E+10  -4.976159105006715E-1    6.205248612538477E-2    1.480773349467562E-4    1.030873348919595E-4    1.332011866712315E-4    1.134556647213790E-4   -3.666675579245767E-1    3.378000632459644E-1
 1.000599658250000E+10  -4.976502024173149E-1    6.219403761678331E-2    1.537077655432580E-4    9.954470538607910E-5    1.469732672427544E-4    1.380578972675080E-4   -3.665846555544813E-1    3.377910077644484E-1
 1.000599965295000E+10  -4.978123633513248E-1    6.241957537942232E-2    1.680502177777610E-4    1.078652401867417E-4    1.530515787574483E-4    1.224396637722628E-4   -3.664508356656777E-1    3.380871453733819E-1
 1.000600272340000E+10  -4.977489986853951E-1    6.251718046402878E-2    1.510709293870639E-4    1.351642450359374E-4    1.506343065008482E-4    1.324708963597270E-4   -3.662211228396327E-1    3.380905087098675E-1
 1.000600579385000E+10  -4.976543240457125E-1    6.277601432866892E-2    1.849812157765448E-4    1.305637555225079E-4    1.643501926498206E-4    1.574447039944835E-4   -3.659439759897977E-1    3.383666938353670E-1
 1.000600886430000E+10  -4.976860700357272E-1    6.312285189748262E-2    1.817702690501266E-4    1.522452765496868E-4    1.305854747536964E-4    1.560310455772244E-4   -3.658550115813339E-1    3.386734118844686E-1
 1.000601193475000E+10  -4.976212940972052E-1    6.329739181459978E-2    1.847744402067812E-4    1.503033529329821E-4    1.923878015800900E-4    1.555006953027281E-4   -3.655753448404830E-1    3.388848555904891E-1
 1.000601500520000E+10  -4.976393646164055E-1    6.336394844423532E-2    1.797187885768031E-4    1.788160031579985E-4    1.827170938338082E-4    1.487778163536514E-4   -3.652869232767398E-1    3.391747176205585E-1
 1.000601807565000E+10  -4.975154734486318E-1    6.363872342118894E-2    2.103159462896351E-4    1.922051258904082E-4    1.793566889364862E-4    1.704596705153527E-4   -3.651965872493345E-1    3.394653393715082E-1
 1.000602114610000E+10  -4.974766344537934E-1    6.370913589731095E-2    2.023266007412729E-4    1.613666408814176E-4    1.834881249486717E-4    1.590062351288828E-4   -3.651623409863372E-1    3.395007243265485E-1
 1.000602421655000E+10  -4.976519013509768E-1    6.399351219374316E-2    1.979909906732862E-4    1.843585536471707E-4    2.019393521163002E-4    1.718555718533942E-4   -3.649055959172920E-1    3.396763727374917E-1
 1.000602728700000E+10  -4.975205939687747E-1    6.425065377153341E-2    2.104988153260381E-4    1.953248536049457E-4    1.714782749915278E-4    1.818943284250746E-4   -3.647168298671455E-1    3.398231876619426E-1
 1.000603035745000E+10  -4.974528574670574E-1    6.441947734264705E-2    2.190696829485771E-4    2.029667855588842E-4    2.032627528913500E-4    2.071769565851597E-4   -3.644583590882015E-1    3.400239596016665E-1
 1.000603342790000E+10  -4.975415258080124E-1    6.466880574679787E-2    2.119151413008775E-4    1.973406863805897E-4    1.923691263834773E-4    2.257749024543709E-4   -3.642900384228126E-1    3.404490799422271E-1
 1.000603649835000E+10  -4.975002357795562E-1    6.490639504280014E-2    2.388969838872495E-4    2.006277353467653E-4    2.076791202698673E-4    2.151070227160216E-4   -3.640409037163950E-1    3.406327767168062E-1
 1.000603956880000E+10  -4.974896025238321E-1    6.496973319118721E-2    2.343475905329398E-4    2.030440752625605E-4    2.333893146490887E-4    2.263564538871085E-4   -3.638191093686173E-1    3.408082903708570E-1
 1.000604263925000E+10  -4.974291142079103E-1    6.534716289599840E-2    2.221812709764763E-4    2.424909063695626E-4    2.266751883958258E-4    2.536300610985814E-4   -3.636726692368731E-1    3.410128072716979E-1
 1.000604570970000E+10  -4.973774725020253E-1    6.542319017262906E-2    2.280939897057173E-4    2.317772708856786E-4    2.283274125692153E-4    2.653673238198752E-4   -3.634691526122137E-1    3.411814165299608E-1
 1.000604878015000E+10  -4.973734304070142E-1    6.565332118583495E-2    2.299578898416974E-4    2.464288468944765E-4    2.389807085361210E-4    2.716207455364853E-4   -3.632329498944036E-1    3.413505086255855E-1
 1.000605185060000E+10  -4.974697168613105E-1    6.593001007129999E-2    2.723858085898593E-4    2.662771161395333E-4    2.458025569211058E-4    2.958920375229611E-4   -3.631444180035508E-1    3.415345939936513E-1
 1.000605492105000E+10  -4.973423460396306E-1    6.599791937316295E-2    2.736256645681164E-4    2.412016846542908E-4    2.569784390436160E-4    2.299214833309478E-4   -3.629423281691381E-1    3.417976367250699E-1
 1.000605799150000E+10  -4.973443761654834E-1    6.619740326743549E-2    2.787840812326178E-4    2.854299566903796E-4    2.542956507104401E-4    2.609850845962983E-4   -3.627064982874800E-1    3.420266085884388E-1
 1.000606106195000E+10  -4.972938566836447E-1    6.645677541630150E-2    2.609342752362097E-4    2.689157062206756E-4    2.349017080916972E-4    2.933119997131654E-4   -3.624261262298538E-1    3.423465601113039E-1
 1.000606413240000E+10  -4.973175870154519E-1    6.661314056621247E-2    2.818913676167699E-4    2.938291386711394E-4    2.449706618143342E-4    2.688473242370385E-4   -3.622201730055888E-1    3.424812730885362E-1
 1.000606720285000E+10  -4.972698791841280E-1    6.686163877316015E-2    2.784056785932269E-4    3.038544283565168E-4    2.848165392970804E-4    2.980559601184917E-4   -3.621281308737680E-1    3.428538801907037E-1
 1.000607027330000E+10  -4.971378575311142E-1    6.724200398463066E-2    2.865055071880343E-4    2.838558232075767E-4    2.686069648466365E-4    3.057801510362832E-4   -3.618859313670204E-1    3.429837774947866E-1
 1.000607334375000E+10  -4.971795147357398E-1    6.724777779764937E-2    3.086275774011010E-4    3.195985666008603E-4    2.918966263696157E-4    3.413410165795321E-4   -3.616053659341235E-1    3.432374000672209E-1
 1.000607641420000E+10  -4.972714653440639E-1    6.734632962940998E-2    3.363145241815334E-4    3.176735723224737E-4    3.137001358884133E-4    3.465246563301322E-4   -3.614369204562191E-1    3.433597029097836E-1
 1.000607948465000E+10  -4.971622593418177E-1    6.759999021251241E-2    2.987211811300461E-4    3.165697877478269E-4    2.987786776125550E-4    3.660816388231467E-4   -3.613815148723532E-1    3.435584709120179E-1
 1.000608255510000E+10  -4.971892411459996E-1    6.782164474188913E-2    3.299663486705399E-4    3.808597864769683E-4    3.204031754176402E-4    3.435858934163417E-4   -3.609122096533097E-1    3.439634458734563E-1
 1.000608562555000E+10  -4.970125458735268E-1    6.808065910322078E-2    3.054540254303256E-4    3.534897863721172E-4    3.131128353036894E-4    3.577244893580788E-4   -3.607053788567957E-1    3.438729341852085E-1
 1.000608869600000E+10  -4.971612512649874E-1    6.823071562807057E-2    3.446715710989166E-4    3.851620202520736E-4    3.137929405223595E-4    3.569397653547232E-4   -3.604715755197212E-1    3.442155714991555E-1
 1.000609176645000E+10  -4.970472767436142E-1    6.854499885436832E-2    3.217830777170500E-4    3.427489267189055E-4    3.134367983350064E-4    3.909703819412535E-4   -3.602565493067423E-1    3.445192034183226E-1
 1.000609483690000E+10  -4.969256090105402E-1    6.873248612009510E-2    3.522354635998536E-4    3.785558251725838E-4    3.242360418081601E-4    4.027028842379398E-4   -3.599793517531650E-1    3.448817484705692E-1
 1.000609790735000E+10  -4.970827354357327E-1    6.883474774462447E-2    3.624951240295000E-4    3.860485517302995E-4    2.955472831250587E-4    4.085311520599328E-4   -3.599106127742993E-1    3.448557309063181E-1
 1.000610097780000E+10  -4.970558028407791E-1    6.906131728384066E-2    3.850445718451222E-4    3.870163511099114E-4    3.395555965423819E-4    4.076258093585475E-4   -3.596894797471354E-1    3.451649679171457E-1
 1.000610404825000E+10  -4.969522381881494E-1    6.923544043674144E-2    3.779072552633331E-4    3.987432949441941E-4    3.435914276445451E-4    4.169157408515470E-4   -3.594236284292134E-1    3.453718797692085E-1
 1.000610711870000E+10  -4.968970141636412E-1    6.938930014736200E-2    3.749745921056369E-4    4.306986774976810E-4    3.474885502425859E-4    4.209728686896482E-4   -3.592368083128515E-1    3.456903181692039E-1
 1.000611018915000E+10  -4.968820353897325E-1    6.973769884613953E-2    4.025297744650423E-4    4.618133006109341E-4    3.548414967766794E-4    4.302956210798542E-4   -3.589661237611751E-1    3.458552217498018E-1
 1.000611325960000E+10  -4.969620379195258E-1    6.985109903200631E-2    4.224764579612014E-4    4.278957615835717E-4    3.694507664412901E-4    4.333930771199162E-4   -3.587482833161083E-1    3.461710098549035E-1
 1.000611633005000E+10  -4.969449761385391E-1    7.004830695730056E-2    4.480340890654124E-4    4.560839250858309E-4    3.658049074673265E-4    4.686896807812261E-4   -3.585758125682632E-1    3.464241866872814E-1
 1.000611940050000E+10  -4.969354388342098E-1    7.027496298953324E-2    4.190213439333376E-4    4.432126160012164E-4    3.864066800182618E-4    4.929715142699000E-4   -3.583924546379488E-1    3.466728333230009E-1
 1.000612247095000E+10  -4.968400454042277E-1    7.048756663455572E-2    4.059525909044905E-4    4.868232401256855E-4    3.522089692873350E-4    4.756842827126426E-4   -3.580392566479507E-1    3.467696557825663E-1
 1.000612554140000E+10  -4.968890711308960E-1    7.062764244448785E-2    4.342937952645981E-4    4.743644911555214E-4    4.052048544904599E-4    4.927794020971173E-4   -3.577421207206818E-1    3.469824120190158E-1
 1.000612861185000E+10  -4.968142633484066E-1    7.091151538156747E-2    4.503853655165374E-4    5.035542395193840E-4    3.930111104163349E-4    5.199598277983386E-4   -3.574928881860821E-1    3.472821714458403E-1
 1.000613168230000E+10  -4.968139856429021E-1    7.094903182104062E-2    4.035017816713102E-4    5.166875888992102E-4    3.901449283580654E-4    4.951544475205362E-4   -3.573023290656961E-1    3.475719137653366E-1
 1.000613475275000E+10  -4.967679136898525E-1    7.119051277790270E-2    4.753312146922718E-4    5.029815858607045E-4    4.087193180211687E-4    5.353685707020629E-4   -3.570677237755407E-1    3.477768878750280E-1
 1.000613782320000E+10  -4.968338732950961E-1    7.154029560536168E-2    4.477056761708004E-4    5.157128829517337E-4    4.263444895616775E-4    5.450462919791482E-4   -3.567341996620763E-1    3.478994705024495E-1
 1.000614089365000E+10  -4.967062156735463E-1    7.163739660385078E-2    4.757101764854076E-4    5.449930465296780E-4    4.331544967649750E-4    5.362343696333151E-4   -3.565514895849962E-1    3.481769822166244E-1
 1.000614396410000E+10  -4.967040006898597E-1    7.185321373474179E-2    4.983772557625857E-4    5.194360558194683E-4    4.720443191836702E-4    5.684561105468118E-4   -3.561497129269270E-1    3.484659834340915E-1
 1.000614703455000E+10  -4.966436834415541E-1    7.207922921197367E-2    4.599887833714509E-4    5.836787407876590E-4    4.708374234343952E-4    5.717789262788114E-4   -3.560711875078537E-1    3.486377060694086E-1
 1.000615010500000E+10  -4.966919364479546E-1    7.226919107808438E-2    5.174353429603572E-4    5.792343989406254E-4    4.802495657673239E-4    5.727383170061855E-4   -3.558725104720826E-1    3.488091415599101E-1
 1.000615317545000E+10  -4.965816374109907E-1    7.239356654219246E-2    5.143657759321226E-4    5.894572376336967E-4    4.943298905250244E-4    6.120936652276109E-4   -3.555604195863715E-1    3.491772799583805E-1
 1.000615624590000E+10  -4.965860141620763E-1    7.271078141832216E-2    5.620984566818218E-4    6.032461368454073E-4    4.723149728584811E-4    6.023786246950928E-4   -3.552516876577678E-1    3.493862609524501E-1
 1.000615931635000E+10  -4.966388922482030E-1    7.285993449751343E-2    5.406594044453410E-4    5.956002646331485E-4    4.789324684124375E-4    6.378318565173343E-4   -3.552257347568515E-1    3.495766896755409E-1
 1.000616238680000E+10  -4.967240470512171E-1    7.295191340092354E-2    5.604033658824894E-4    5.943155426349526E-4    4.923064683008937E-4    6.396741393639142E-4   -3.548361272942604E-1    3.498691570619241E-1
 1.000616545725000E+10  -4.966026945214237E-1    7.328456320897356E-2    5.576565557615612E-4    6.051153074524400E-4    5.198631566303057E-4    6.259764459791263E-4   -3.546031405209052E-1    3.501729691917522E-1
 1.000616852770000E+10  -4.965413375950862E-1    7.339033635643044E-2    5.521461873198934E-4    6.500538985811609E-4    5.046178861082473E-4    6.818918581631930E-4   -3.542268198409411E-1    3.503574853610688E-1
 1.000617159815000E+10  -4.964439032421562E-1    7.363046415403408E-2    5.960981571050705E-4    6.395183912800908E-4    5.324111099342549E-4    6.951057532123840E-4   -3.540369547854687E-1    3.505715709193651E-1
 1.000617466860000E+10  -4.963566262830710E-1    7.386127299759519E-2    5.959447279365944E-4    6.776213203768079E-4    5.634015475166983E-4    6.915408956863090E-4   -3.537292403668548E-1    3.508684824609325E-1
 1.000617773905000E+10  -4.964371448204005E-1    7.416712164266599E-2    6.080320511236756E-4    6.772311575423321E-4    5.451190899035983E-4    6.832648595038472E-4   -3.535352196955179E-1    3.511385822985463E-1
 1.000618080950000E+10  -4.963100027045898E-1    7.422674237898898E-2    6.088538503417550E-4    7.164606996745202E-4    5.787703992052385E-4    6.889419783678479E-4   -3.532151025913353E-1    3.512997313658847E-1
 1.000618387995000E+10  -4.964386364436312E-1    7.443933054646809E-2    6.222505882707653E-4    7.185307825214433E-4    5.988172384886873E-4    7.172144926223693E-4   -3.530731233122811E-1    3.515715727753363E-1
 1.000618695040000E+10  -4.962976268307317E-1    7.475564130485034E-2    6.277906299266808E-4    7.225438817403761E-4    5.934423416177607E-4    7.434846458016918E-4   -3.525960381407807E-1    3.519996048550103E-1
 1.000619002085000E+10  -4.963276281646507E-1    7.491847793121859E-2    6.508197454018212E-4    7.361977547379344E-4    6.044054561041909E-4    7.629821453110546E-4   -3.524550722881734E-1    3.521433587555346E-1
 1.000619309130000E+10  -4.964564832950028E-1    7.518515902655379E-2    6.764172631878681E-4    7.454900398502770E-4    5.934365401842851E-4    7.805344107593757E-4   -3.520619435419518E-1    3.524403575136593E-1
 1.000619616175000E+10  -4.962142599246385E-1    7.528472226860033E-2    6.647428850298108E-4    7.852832518708329E-4    6.708417775630057E-4    7.918328010930546E-4   -3.518879822719966E-1    3.526600566897722E-1
 1.000619923220000E+10  -4.961700184972448E-1    7.551218428805062E-2    6.816532275053060E-4    7.864696820834473E-4    6.288157707890339E-4    8.064539148192591E-4   -3.514752041388661E-1    3.527433050099471E-1
 1.000620230265000E+10  -4.961181997233233E-1    7.561271806338234E-2    6.913668353838441E-4    8.015707746657760E-4    6.402727687805735E-4    8.072475728613177E-4   -3.512881752966130E-1    3.532200934712632E-1
 1.000620537310000E+10  -4.961436117514620E-1    7.584426245975470E-2    7.122226445647956E-4    8.198680139191965E-4    6.635641427163233E-4    8.301980831373161E-4   -3.508933573469001E-1    3.533405910162389E-1
 1.000620844355000E+10  -4.962044759712158E-1    7.609596335151994E-2    7.351664053595116E-4    8.109152247633503E-4    6.934735074888215E-4    8.426402647161946E-4   -3.506421578860151E-1    3.537126089916647E-1
 1.000621151400000E+10  -4.961909954394688E-1    7.623270678846002E-2    7.601185131515629E-4    8.504641093369298E-4    6.784011806722031E-4    8.691586343681526E-4   -3.503626853600270E-1    3.538946736205694E-1
 1.000621458445000E+10  -4.960525200791743E-1    7.637492218517224E-2    7.793585795873985E-4    8.505117791498942E-4    6.898159208600069E-4    8.990981109423539E-4   -3.499375659846126E-1    3.541911791492941E-1
 1.000621765490000E+10  -4.960937076375296E-1    7.664777773349656E-2    7.731244345771151E-4    9.042127735957232E-4    7.368055365865938E-4    8.952244348822177E-4   -3.497678886113131E-1    3.543378858292297E-1
 1.000622072535000E+10  -4.961204192452605E-1    7.704823558175244E-2    7.926487895109239E-4    8.818241603393941E-4    7.415845146439439E-4    9.245343535198385E-4   -3.494130817311694E-1    3.546127153868113E-1
 1.000622379580000E+10  -4.961134080511934E-1    7.709573568372974E-2    7.956721484476551E-4    9.056475900812180E-4    7.573978602793322E-4    9.097609823286753E-4   -3.490691636218402E-1    3.549160759754378E-1
 1.000622686625000E+10  -4.960647878363921E-1    7.727770157248612E-2    8.394389571647717E-4    9.121742880180692E-4    8.058045959294335E-4    9.273729246468209E-4   -3.487830690814252E-1    3.551882311066727E-1
 1.000622993670000E+10  -4.959132505824672E-1    7.735211762593300E-2    8.477031169335873E-4    9.547702677511083E-4    7.720058043321589E-4    9.702579776685972E-4   -3.485971560005192E-1    3.554853655495477E-1
 1.000623300715000E+10  -4.960566766484073E-1    7.766328769316062E-2    8.450812970128748E-4    9.515593344848283E-4    7.952008047416284E-4    9.940442194963212E-4   -3.480491823572552E-1    3.556918083521252E-1
 1.000623607760000E+10  -4.959339373326016E-1    7.782901108698530E-2    8.522875953745884E-4    9.876888819747632E-4    8.162858800107839E-4    9.917849722642120E-4   -3.479043975566695E-1    3.561344472967827E-1
 1.000623914805000E+10  -4.960349740730821E-1    7.809323615660869E-2    8.881747109486616E-4    9.900816580426565E-4    8.175495524415520E-4    9.879046727529304E-4   -3.474880840260418E-1    3.562497777500277E-1
 1.000624221850000E+10  -4.959147637717684E-1    7.829039620608487E-2    9.209373295738433E-4    1.004236026291987E-3    8.241944502149369E-4    1.038402818299043E-3   -3.470755530194617E-1    3.565989596882514E-1
