#  HZ   S   RI   R     50.00 
! Rohde & Schwarz Vector Network Analyzer 
! Rohde-Schwarz,ZNB20-2Port,1311601062101988,3.16
! Created: UTC 3/20/2024, 11:40:23 AM
! freq[Hz]                re:S11                  im:S11                  re:S21                  im:S21                  re:S12                  im:S12                  re:S22                  im:S22
 1.000585139800000E+10  -4.985569209888962E-1    5.294604077732470E-2    3.305387400678307E-5   -1.498808589396006E-4    6.614620239589772E-6   -9.889630400510712E-5   -3.741862429649476E-1    3.285737172539560E-1
 1.000585493017500E+10  -4.984419896970206E-1    5.315321711347708E-2    4.310631729341915E-5   -1.208281172274440E-4    4.090742202852690E-5   -1.010272264383945E-4   -3.738413724554577E-1    3.288607690176004E-1
 1.000585846235000E+10  -4.984800118119239E-1    5.333276427582484E-2    4.426304292618163E-5   -1.170117441076598E-4    3.960289805743636E-5   -8.337465039468356E-5   -3.737704828441124E-1    3.291262158712926E-1
 1.000586199452500E+10  -4.984424961161811E-1    5.353838762683878E-2   -2.290386582970623E-6   -9.214419252264638E-5    3.542996918975368E-5   -9.718558206867452E-5   -3.735178022121361E-1    3.292537910993521E-1
 1.000586552670000E+10  -4.985132087218568E-1    5.383329984742893E-2    1.670281707745016E-5   -1.099594101670545E-4    6.675751741824348E-5   -8.886434023793152E-5   -3.733239212399773E-1    3.294309592608830E-1
 1.000586905887500E+10  -4.984241395202335E-1    5.405114620598247E-2    3.989417851589968E-5   -8.039575880245676E-5    1.001174508788381E-5   -9.153763938179565E-5   -3.732750938369279E-1    3.296476602057898E-1
 1.000587259105000E+10  -4.983882488005131E-1    5.430322737458704E-2    2.627510456499480E-5   -5.980807256293107E-5    4.818411841160290E-5   -6.178983401571111E-5   -3.729261749825069E-1    3.300076862959554E-1
 1.000587612322500E+10  -4.982906629649801E-1    5.450562002004685E-2    5.944794844771029E-5   -8.705756364905349E-5    5.488685755528333E-5   -7.834995440020668E-5   -3.728236911258952E-1    3.301273036158083E-1
 1.000587965540000E+10  -4.983336473390356E-1    5.478717481467051E-2    2.768091601774481E-5   -6.089584067642824E-5    6.641742314027485E-5   -5.628291583664902E-5   -3.726323173888966E-1    3.304250278211466E-1
 1.000588318757500E+10  -4.983041881285640E-1    5.495273167956793E-2    5.568155038473357E-5   -5.718462802996767E-5    4.271481704008441E-5   -6.560834751131431E-5   -3.723584045811058E-1    3.305998855539628E-1
 1.000588671975000E+10  -4.982301908693896E-1    5.524849522188869E-2    5.702764784440106E-5   -5.316184495231058E-5    6.886153871722863E-5   -6.890948163601021E-5   -3.722930195437558E-1    3.309564157309540E-1
 1.000589025192500E+10  -4.983980642441079E-1    5.545521223782066E-2    7.341606827448425E-5   -5.321936708856679E-5    5.606115920761986E-5   -4.947095721086959E-5   -3.720603296940846E-1    3.310050139122044E-1
 1.000589378410000E+10  -4.983351832274043E-1    5.577030509251641E-2    6.118940858560545E-5   -5.717077089468565E-5    7.824555520416619E-5   -1.619919783736426E-5   -3.718790198055334E-1    3.312656680382107E-1
 1.000589731627500E+10  -4.983055860594580E-1    5.588278112322741E-2    9.313612030094820E-5   -1.582634846816633E-5    6.123830792596606E-5   -3.672698596695961E-5   -3.716462463210543E-1    3.314325756745037E-1
 1.000590084845000E+10  -4.981781385667411E-1    5.619312888881377E-2    9.243463053827719E-5   -2.000109049787488E-5    8.198891908930441E-5   -6.023385355868299E-6   -3.714944716302950E-1    3.317998237883443E-1
 1.000590438062500E+10  -4.981509325637284E-1    5.644924011156081E-2    8.854730774624678E-5   -2.488912302560806E-5    1.128403144229689E-4   -2.356968099327547E-5   -3.712780573915678E-1    3.319034235631707E-1
 1.000590791280000E+10  -4.981621125146146E-1    5.668859720758716E-2    7.613385985770577E-5   -1.914383580176539E-5    8.145689786091687E-5   -1.295873702197575E-5   -3.710694488727618E-1    3.321299537444196E-1
 1.000591144497500E+10  -4.981137400757214E-1    5.675348041919823E-2    9.070563692530642E-5   -4.463420542987071E-5    1.016798395036981E-4   -2.675618642487943E-5   -3.708088247904713E-1    3.325259596701373E-1
 1.000591497715000E+10  -4.981450369308901E-1    5.721144152029185E-2    7.162231302196622E-5   -1.495098513507816E-5    8.418918426624631E-5    3.124796838644478E-6   -3.707491941956287E-1    3.327332511647746E-1
 1.000591850932500E+10  -4.980879613176495E-1    5.738563119082992E-2    1.000110863311278E-4   -1.543795717825471E-5    1.118989649828233E-4    2.456707040436151E-5   -3.705278437464040E-1    3.329475488001330E-1
 1.000592204150000E+10  -4.980785770960454E-1    5.758276241911036E-2    1.088492231575732E-4    2.435259237963734E-5    1.260877521062170E-4   -2.550759137954577E-6   -3.702916806990506E-1    3.332418845281446E-1
 1.000592557367500E+10  -4.979763034390175E-1    5.770151524283601E-2    9.539324793258828E-5    2.697021952722597E-5    9.293269504743693E-5    7.352796469690602E-6   -3.700471637667626E-1    3.334483460200152E-1
 1.000592910585000E+10  -4.980873405705233E-1    5.799999787426614E-2    1.011955270098608E-4    1.746204368251441E-5    1.115912990552238E-4    1.155118742793862E-5   -3.698640956000213E-1    3.336226220803115E-1
 1.000593263802500E+10  -4.979861400019923E-1    5.824520694476386E-2    1.111734661804490E-4    1.284050384959412E-5    1.084814585302662E-4    3.356445999333364E-5   -3.697693651139147E-1    3.338236951791292E-1
 1.000593617020000E+10  -4.980507696148385E-1    5.833424888876040E-2    1.183351680686301E-4    1.650917757025145E-5    8.858294462564210E-5    3.892699004645547E-5   -3.694178664073310E-1    3.341782011342375E-1
 1.000593970237500E+10  -4.980264459595645E-1    5.860339248997409E-2    1.721169225368601E-4    6.565104180892698E-5    1.266153147504427E-4    4.242187074355182E-5   -3.692822182972432E-1    3.343609778568005E-1
 1.000594323455000E+10  -4.978537900386490E-1    5.899609019486123E-2    1.218494826651354E-4    3.312143939443177E-5    1.337487359433412E-4    6.327837686508803E-5   -3.690388778967132E-1    3.345137210583813E-1
 1.000594676672500E+10  -4.979661992220645E-1    5.922339053436292E-2    1.188830458622735E-4    4.032400714231502E-5    1.181241293371093E-4    7.844694417951880E-5   -3.688154412952777E-1    3.348196966440317E-1
 1.000595029890000E+10  -4.978464572953171E-1    5.933288540188645E-2    1.409041253465015E-4    3.831392437352396E-5    1.547249384848123E-4    7.513653101930621E-5   -3.686743976248598E-1    3.350253657928421E-1
 1.000595383107500E+10  -4.978857443979711E-1    5.962357314577393E-2    1.492369241186947E-4    8.430692858174993E-5    1.364360833674744E-4    6.693846650342571E-5   -3.683761498974930E-1    3.352166360253547E-1
 1.000595736325000E+10  -4.979248529610675E-1    6.000094804546270E-2    1.673957126373980E-4    8.078088967928711E-5    1.228205899847410E-4    9.381766783507107E-5   -3.683485409567593E-1    3.353356381344982E-1
 1.000596089542500E+10  -4.978379373308806E-1    5.990114697661691E-2    1.298798058097378E-4    8.104877572974465E-5    1.542184084654401E-4    6.181648980745973E-5   -3.680026946697753E-1    3.357363093488496E-1
 1.000596442760000E+10  -4.978675897924222E-1    6.040411537606745E-2    1.379894084513737E-4    1.002089046517813E-4    1.342862450662833E-4    9.896770017175145E-5   -3.676638310471201E-1    3.359055425773397E-1
 1.000596795977500E+10  -4.977804862418587E-1    6.061079075136211E-2    1.797894551724457E-4    1.151387729007086E-4    1.567285265340615E-4    1.127340920263669E-4   -3.675556785556819E-1    3.361388569789596E-1
 1.000597149195000E+10  -4.978176616063242E-1    6.087482026810278E-2    1.710787285352222E-4    1.010214755425799E-4    1.811915440278487E-4    9.738762315560877E-5   -3.673451387650529E-1    3.364593070887018E-1
 1.000597502412500E+10  -4.977705994654503E-1    6.089698540440442E-2    1.951604590933949E-4    9.796835058954228E-5    1.609377883125260E-4    1.445132935521100E-4   -3.671514344207217E-1    3.365888171826050E-1
 1.000597855630000E+10  -4.978133985069903E-1    6.130648504988003E-2    1.919210789022662E-4    1.232383348179672E-4    1.661093736753540E-4    1.091701928203110E-4   -3.669421559508201E-1    3.369009665863081E-1
 1.000598208847500E+10  -4.977868271762345E-1    6.155865811132075E-2    2.154516492564587E-4    1.524915611726876E-4    1.907888991651637E-4    1.582686538780114E-4   -3.667532941979617E-1    3.370915210420926E-1
 1.000598562065000E+10  -4.978587390927260E-1    6.182864786282371E-2    2.018720629407687E-4    9.813730819251006E-5    1.806125874380537E-4    1.199139392599350E-4   -3.665002921123363E-1    3.374123697515524E-1
 1.000598915282500E+10  -4.977340926044623E-1    6.203613670592655E-2    1.975258652751914E-4    1.498359907381157E-4    2.119407744612901E-4    1.626880473909737E-4   -3.663149655936597E-1    3.376766195128937E-1
 1.000599268500000E+10  -4.978291359004515E-1    6.222279552386063E-2    2.239549879405681E-4    1.506392337798053E-4    1.955249564400889E-4    1.819361313355132E-4   -3.660245834396125E-1    3.378782296588154E-1
 1.000599621717500E+10  -4.975864191643665E-1    6.241092310667813E-2    2.005820623110940E-4    1.536307447914250E-4    2.137728110109011E-4    1.550970174028020E-4   -3.658800463212527E-1    3.380034672660990E-1
 1.000599974935000E+10  -4.976219421020243E-1    6.252598509372292E-2    2.200357552244948E-4    1.801646727724510E-4    1.880628969509905E-4    1.883916306906672E-4   -3.656233766704690E-1    3.382139887439342E-1
 1.000600328152500E+10  -4.975820624023756E-1    6.282779270646391E-2    2.269840295987550E-4    1.570458602053731E-4    2.183280725263295E-4    1.898507189739645E-4   -3.654955942864137E-1    3.385153346116746E-1
 1.000600681370000E+10  -4.976229324051288E-1    6.304781060596551E-2    2.329885299317227E-4    1.415348194338847E-4    2.037069912513387E-4    2.246900605783183E-4   -3.652412724003223E-1    3.387820944669372E-1
 1.000601034587500E+10  -4.975106542304358E-1    6.325703066850824E-2    2.270487447995318E-4    2.236924797628375E-4    2.213952288293508E-4    2.202798118976423E-4   -3.649873381731977E-1    3.389978958203554E-1
 1.000601387805000E+10  -4.974079382529789E-1    6.355077722422221E-2    2.456256330997726E-4    1.928591049479872E-4    2.525703737666989E-4    2.325449818378326E-4   -3.646068920083760E-1    3.394256862942260E-1
 1.000601741022500E+10  -4.975263549026065E-1    6.382873196762037E-2    2.421954440142545E-4    2.162519628871312E-4    2.444532530921268E-4    2.202622452434802E-4   -3.644504205209055E-1    3.395655240621713E-1
 1.000602094240000E+10  -4.974863189790303E-1    6.386941747856685E-2    2.639296029506297E-4    2.304942407561080E-4    2.588126847985276E-4    2.303070425404148E-4   -3.642212633547736E-1    3.398985805769674E-1
 1.000602447457500E+10  -4.974774881120437E-1    6.419511077709276E-2    2.672712256820827E-4    2.295595312557458E-4    2.429524216310317E-4    2.671380854866794E-4   -3.639973021985381E-1    3.399281724951112E-1
 1.000602800675000E+10  -4.974199486774857E-1    6.447079698309366E-2    2.600902240854263E-4    2.510611316110147E-4    2.501976344134137E-4    2.643915541765842E-4   -3.638377777899923E-1    3.400730825195242E-1
 1.000603153892500E+10  -4.973961896170874E-1    6.461945851963358E-2    3.332053627561130E-4    2.468158477615530E-4    2.581267647572915E-4    2.839452496926039E-4   -3.635886796543207E-1    3.405350433078268E-1
 1.000603507110000E+10  -4.974404234631464E-1    6.496609790953249E-2    2.838956708810853E-4    2.398052070189827E-4    2.700892169247655E-4    2.802128204729721E-4   -3.632863676088888E-1    3.408070058505458E-1
 1.000603860327500E+10  -4.973426674125481E-1    6.505196212046238E-2    2.877731696107699E-4    2.869034502147510E-4    2.614513332797709E-4    2.612577703450558E-4   -3.631362811666783E-1    3.410224491529348E-1
 1.000604213545000E+10  -4.974049444451248E-1    6.550294287851482E-2    3.116409445172207E-4    2.952457450293199E-4    3.033378623677009E-4    3.105491468353515E-4   -3.629273739195668E-1    3.411992144944434E-1
 1.000604566762500E+10  -4.973252386702189E-1    6.554246209176562E-2    3.151670817419158E-4    3.127407831400347E-4    3.048337804789077E-4    3.212255054727161E-4   -3.626094777623615E-1    3.416175541973751E-1
 1.000604919980000E+10  -4.973496566710326E-1    6.580163399152239E-2    3.219471396602604E-4    3.077471771631101E-4    2.922193618261526E-4    3.048889451068510E-4   -3.623179979515036E-1    3.417027231860122E-1
 1.000605273197500E+10  -4.973020962914511E-1    6.605611750523631E-2    3.467051459072994E-4    3.458266508216951E-4    2.797267090235416E-4    3.342027960367032E-4   -3.620975054404030E-1    3.421010945580287E-1
 1.000605626415000E+10  -4.972087995421578E-1    6.630454848133042E-2    3.486267195455920E-4    3.255009681920491E-4    3.518904227755677E-4    3.197662219136717E-4   -3.617916025011207E-1    3.423867280255594E-1
 1.000605979632500E+10  -4.971806362575369E-1    6.643018174546511E-2    3.409566106144629E-4    3.522538969720504E-4    3.477367908258432E-4    3.258168468009537E-4   -3.615914509318183E-1    3.425757986971175E-1
 1.000606332850000E+10  -4.972861754160386E-1    6.672336422833977E-2    3.616874817090469E-4    3.394501337529497E-4    3.371055188109559E-4    3.390559743230971E-4   -3.612825884226323E-1    3.428199171131054E-1
 1.000606686067500E+10  -4.972383801574073E-1    6.710689630815965E-2    3.900541534463441E-4    3.729370740922027E-4    3.656131422076963E-4    3.582797626460093E-4   -3.611829460205797E-1    3.429994204234894E-1
 1.000607039285000E+10  -4.970976754015400E-1    6.717337582254797E-2    3.697956211255470E-4    3.632175008249051E-4    3.479173867571256E-4    4.000029608255540E-4   -3.608696926079349E-1    3.433560853202308E-1
 1.000607392502500E+10  -4.972115758353384E-1    6.747328407904922E-2    3.887489020249742E-4    3.731350587768999E-4    3.635950150794299E-4    4.003483000181836E-4   -3.604665833384492E-1    3.436567016189028E-1
 1.000607745720000E+10  -4.970479470373875E-1    6.773524330158752E-2    3.633419641482155E-4    3.761188517789059E-4    3.683187655806482E-4    4.127781433412930E-4   -3.603776692470728E-1    3.438061967953672E-1
 1.000608098937500E+10  -4.970896922979893E-1    6.784467179527588E-2    4.119447464093539E-4    4.118795957823598E-4    3.656828890798940E-4    4.077765396037357E-4   -3.600988712835774E-1    3.440335791462896E-1
 1.000608452155000E+10  -4.970281925926395E-1    6.813362602103369E-2    4.195802512227959E-4    4.028412413538901E-4    3.892022384618459E-4    4.393333552153188E-4   -3.598085424250086E-1    3.443221737883819E-1
 1.000608805372500E+10  -4.971145368775957E-1    6.837265824374683E-2    4.229346873961976E-4    4.194408753742359E-4    3.807642740433358E-4    4.425940329102204E-4   -3.594416921742040E-1    3.446714550813509E-1
 1.000609158590000E+10  -4.969889514856879E-1    6.859250385133407E-2    4.455882433204534E-4    4.462807874038824E-4    4.191110146145832E-4    4.540125605594422E-4   -3.591724370339540E-1    3.448938607235695E-1
 1.000609511807500E+10  -4.970376117144440E-1    6.889345826196637E-2    4.467653693639265E-4    4.349338419201211E-4    4.041633251251420E-4    4.619822051903258E-4   -3.590500448471826E-1    3.451914410782920E-1
 1.000609865025000E+10  -4.970133904271733E-1    6.900441579299306E-2    4.814369279555440E-4    4.618909744393134E-4    4.355847954187227E-4    4.774876876531217E-4   -3.587381355481784E-1    3.454641845617212E-1
 1.000610218242500E+10  -4.970193559318418E-1    6.926399986088737E-2    4.792099918101792E-4    4.858205681839082E-4    4.386471232241630E-4    4.817020532184828E-4   -3.584045180318826E-1    3.456797947652986E-1
 1.000610571460000E+10  -4.968438249248825E-1    6.947100757893518E-2    4.809573718480512E-4    4.839487262790747E-4    4.411028098453625E-4    4.887505418298340E-4   -3.583266443682764E-1    3.459163644981780E-1
 1.000610924677500E+10  -4.969235270401546E-1    6.975207029565723E-2    4.719208985598676E-4    4.926143726521056E-4    4.483180879286187E-4    5.158263022679169E-4   -3.579976597907962E-1    3.462134258464231E-1
 1.000611277895000E+10  -4.969095356022999E-1    6.990090549938917E-2    4.845962895714528E-4    4.936955617241627E-4    4.670769091222519E-4    5.125421166677498E-4   -3.576071206280597E-1    3.465536251590222E-1
 1.000611631112500E+10  -4.968650868382062E-1    7.016947695759033E-2    5.003509301904957E-4    5.297301068185649E-4    4.588472362242521E-4    5.423160903944116E-4   -3.573307240502186E-1    3.467205686171438E-1
 1.000611984330000E+10  -4.967745760094051E-1    7.040595394284148E-2    5.306284919962249E-4    5.242459385734744E-4    4.825336194347671E-4    5.527911112253914E-4   -3.570001908521825E-1    3.470410185259702E-1
 1.000612337547500E+10  -4.967922489375858E-1    7.073811477285015E-2    5.343047371702803E-4    5.528967996464516E-4    5.049283269830300E-4    5.658637159058418E-4   -3.567853179181078E-1    3.473991187853850E-1
 1.000612690765000E+10  -4.968455598743655E-1    7.095252649170880E-2    5.493702378345770E-4    5.632580445445874E-4    4.989104658318365E-4    5.706973874301955E-4   -3.564317728457968E-1    3.475874809703946E-1
 1.000613043982500E+10  -4.967388346496175E-1    7.120041658975784E-2    5.531460181678311E-4    5.970226789647035E-4    4.848472513165883E-4    5.952710381793644E-4   -3.561693373127397E-1    3.477094297312952E-1
 1.000613397200000E+10  -4.968831121127216E-1    7.125646556835112E-2    5.847735458891675E-4    6.225272430916766E-4    5.341739867226617E-4    5.955890325020491E-4   -3.558376695607789E-1    3.480866880957060E-1
 1.000613750417500E+10  -4.966057558703283E-1    7.153857094708278E-2    5.587053378769870E-4    5.952851769658241E-4    5.214161245987330E-4    6.142361054809995E-4   -3.556503221110030E-1    3.482725154797135E-1
 1.000614103635000E+10  -4.965191826153634E-1    7.178489707203232E-2    6.146935495049256E-4    6.174977260836015E-4    5.810487860387862E-4    6.242472084713028E-4   -3.553969983500105E-1    3.485808243970829E-1
 1.000614456852500E+10  -4.965340503074523E-1    7.205050952165568E-2    6.009716853547835E-4    6.236698968516708E-4    5.475456964039649E-4    6.370500952406321E-4   -3.549892033281581E-1    3.488944818052312E-1
 1.000614810070000E+10  -4.966207322402046E-1    7.223475882052446E-2    6.391666067597588E-4    6.248024713513647E-4    5.898440476805241E-4    6.792773197269637E-4   -3.545056748718174E-1    3.491789649569805E-1
 1.000615163287500E+10  -4.966498871868044E-1    7.247122362540774E-2    6.475617222172118E-4    6.940473477732675E-4    5.832098026059103E-4    6.817384767529669E-4   -3.542228197245060E-1    3.494325718059521E-1
 1.000615516505000E+10  -4.965822155454232E-1    7.268837344279154E-2    6.724247221886393E-4    6.724342081057637E-4    5.975842228813092E-4    6.731490038868781E-4   -3.540740108401219E-1    3.497443349833227E-1
 1.000615869722500E+10  -4.963630148579210E-1    7.300005820761223E-2    6.659479305449232E-4    6.963628018174513E-4    6.295088052325920E-4    7.071411129833596E-4   -3.537583212432859E-1    3.499371100889365E-1
 1.000616222940000E+10  -4.965187498827687E-1    7.318843622952892E-2    6.857245951159590E-4    6.876313760141052E-4    6.725635107425200E-4    7.407848140018406E-4   -3.533934203606469E-1    3.505021711002873E-1
 1.000616576157500E+10  -4.965601114065293E-1    7.331903781670408E-2    6.963956960866916E-4    7.189127332843109E-4    6.495428826866586E-4    7.175069789193545E-4   -3.530563488008243E-1    3.505463905457619E-1
 1.000616929375000E+10  -4.964006316934599E-1    7.372847798292660E-2    7.149559772838792E-4    7.299818542461252E-4    6.592924095201920E-4    7.291575264728253E-4   -3.525665777278550E-1    3.509292119952828E-1
