#  HZ   S   RI   R     50.00 
! Rohde & Schwarz Vector Network Analyzer 
! Rohde-Schwarz,ZNB20-2Port,1311601062101988,3.16
! Created: UTC 3/20/2024, 5:03:43 PM
! freq[Hz]                re:S11                  im:S11                  re:S21                  im:S21                  re:S12                  im:S12                  re:S22                  im:S22
 8.149982261000000E9    -1.607794605141851E-2    5.236621267817958E-1   -2.931259099127786E-3    2.536123207305290E-4   -2.933807842020525E-3    2.929239621076818E-4    1.356518510162943E-1    4.887500097264497E-1
 8.150196886675000E9    -1.510818373113803E-3    5.244515058053881E-1   -2.914972380917939E-3    3.509583037443974E-4   -2.912736008540696E-3    3.684840617437297E-4    1.488537852322913E-1    4.848743836041222E-1
 8.150411512350000E9     1.310607817712205E-2    5.245391065171869E-1   -2.897744965707294E-3    4.198478604112662E-4   -2.885744040274269E-3    4.567526651840269E-4    1.618537192317516E-1    4.804556216366180E-1
 8.150626138025000E9     2.764280181246759E-2    5.244908454456139E-1   -2.873419398417810E-3    4.712050915163355E-4   -2.885114456711107E-3    5.783526888022012E-4    1.747754509934867E-1    4.756538844671009E-1
 8.150840763700000E9     4.219922623536055E-2    5.239514846930594E-1   -2.841485993653848E-3    5.833170592012648E-4   -2.849830091436365E-3    6.290713990735163E-4    1.875090546195256E-1    4.707012073877956E-1
 8.151055389375000E9     5.679580522666218E-2    5.227730794431722E-1   -2.801487286891085E-3    6.631870722289011E-4   -2.817504378145659E-3    7.248959202480927E-4    1.999585350871599E-1    4.651920859007187E-1
 8.151270015050000E9     7.113609742992615E-2    5.215637917293853E-1   -2.771736079991018E-3    7.237874742402106E-4   -2.803132617545750E-3    8.130090273282110E-4    2.124770826993118E-1    4.594163721789131E-1
 8.151484640725000E9     8.550112170000050E-2    5.197362439566349E-1   -2.750677557450623E-3    8.234401661571675E-4   -2.762879254457976E-3    8.686348119010951E-4    2.247969768484269E-1    4.533857151698953E-1
 8.151699266400000E9     9.997941026125970E-2    5.174107955598145E-1   -2.726561469740530E-3    8.995586918989366E-4   -2.737375163825350E-3    9.515831656958911E-4    2.366948496302824E-1    4.469113074360345E-1
 8.151913892075000E9     1.142880716216738E-1    5.149334620068218E-1   -2.718370290413301E-3    9.770710904233851E-4   -2.698658555858287E-3    1.033501178067238E-3    2.486968400536515E-1    4.402222645183500E-1
 8.152128517750000E9     1.283562890517017E-1    5.119884144017428E-1   -2.655406015873357E-3    1.034360853638582E-3   -2.658648572184166E-3    1.091366726040908E-3    2.604011741468241E-1    4.331444781352885E-1
 8.152343143425000E9     1.423745325140985E-1    5.084913961455428E-1   -2.614723865786826E-3    1.122118134634565E-3   -2.615786984820160E-3    1.166917731621361E-3    2.717076136827042E-1    4.259226847694463E-1
 8.152557769100000E9     1.565331178613808E-1    5.048021114596440E-1   -2.589201656758956E-3    1.177171412729001E-3   -2.574994584512354E-3    1.232567979151726E-3    2.829815980198723E-1    4.182316318330574E-1
 8.152772394775000E9     1.703988367151055E-1    5.005992958569665E-1   -2.518144207192252E-3    1.266804716285530E-3   -2.511560126526475E-3    1.313520109891806E-3    2.940306832706095E-1    4.103248453765652E-1
 8.152987020450000E9     1.842666539252297E-1    4.961532988692005E-1   -2.529436540007621E-3    1.343254497756083E-3   -2.492600185528580E-3    1.381148648504320E-3    3.048791281863117E-1    4.021338093805113E-1
 8.153201646125000E9     1.978244244172305E-1    4.913042164028263E-1   -2.443168149283217E-3    1.399915615952574E-3   -2.401508112853365E-3    1.418240724030954E-3    3.152279787724708E-1    3.935872684547425E-1
 8.153416271800000E9     2.112402349457375E-1    4.858562899907295E-1   -2.421424518511988E-3    1.445773263895623E-3   -2.406641093424574E-3    1.496912505432060E-3    3.256621598833559E-1    3.847432521429471E-1
 8.153630897475000E9     2.247257798603975E-1    4.802413928526534E-1   -2.353205351598939E-3    1.530698367086143E-3   -2.336961213961476E-3    1.546586100883857E-3    3.356324950598041E-1    3.756282365497831E-1
 8.153845523150000E9     2.377758651320740E-1    4.744095322973770E-1   -2.306174880058433E-3    1.572998790152371E-3   -2.306152990221679E-3    1.628311157052187E-3    3.454097566759720E-1    3.663623857216807E-1
 8.154060148825000E9     2.506927311456608E-1    4.680382324173052E-1   -2.264883848070402E-3    1.648164055605008E-3   -2.236771855576802E-3    1.670251250014899E-3    3.548852177687420E-1    3.568439329339393E-1
 8.154274774500000E9     2.636393041922677E-1    4.613200919102140E-1   -2.181453744369529E-3    1.701391461328957E-3   -2.162325071532424E-3    1.724797718569981E-3    3.642151560888899E-1    3.471957923072850E-1
 8.154489400175000E9     2.761333829855565E-1    4.540896045504162E-1   -2.153689629702672E-3    1.766754128481189E-3   -2.114916186733776E-3    1.797155503912485E-3    3.729860948512002E-1    3.371351347189157E-1
 8.154704025850000E9     2.886060951565223E-1    4.468422106898792E-1   -2.088179303120527E-3    1.800660983604719E-3   -2.074767868697497E-3    1.829821242450200E-3    3.817925418940873E-1    3.268166083259297E-1
 8.154918651525000E9     3.008743798681124E-1    4.390363236573584E-1   -2.017916188338896E-3    1.877603197689275E-3   -2.032792239011387E-3    1.919109565943570E-3    3.900945145517424E-1    3.162779183758063E-1
 8.155133277200000E9     3.127638127024781E-1    4.309537421448469E-1   -1.951162686370511E-3    1.929131368336901E-3   -1.944134535729385E-3    1.931241665274876E-3    3.982949600974451E-1    3.056746605718464E-1
 8.155347902875000E9     3.244267819077505E-1    4.224927887688226E-1   -1.892207835877052E-3    1.954492986792859E-3   -1.913201278990912E-3    2.000863568593127E-3    4.059598354183723E-1    2.947392403271107E-1
 8.155562528550000E9     3.359329768315026E-1    4.138953720304023E-1   -1.875579436823704E-3    2.008160735421085E-3   -1.836022165020711E-3    2.020047543842490E-3    4.135306463891864E-1    2.837770988822709E-1
 8.155777154225000E9     3.472196123627131E-1    4.048322557798574E-1   -1.798392186084300E-3    2.059459815533086E-3   -1.751161605804177E-3    2.076337218224434E-3    4.205967210346395E-1    2.724436274542079E-1
 8.155991779900000E9     3.583769247903309E-1    3.955841455443794E-1   -1.703413385588333E-3    2.086819987224983E-3   -1.682980643296678E-3    2.123127398658537E-3    4.273906738197116E-1    2.610695069959315E-1
 8.156206405575000E9     3.690840645649287E-1    3.859167723519664E-1   -1.636788669425278E-3    2.143189414205663E-3   -1.641630064123496E-3    2.167738392401408E-3    4.340624562319482E-1    2.493310709620461E-1
 8.156421031250000E9     3.795485596136732E-1    3.759050703991473E-1   -1.580967431632904E-3    2.190043074654294E-3   -1.591598796662253E-3    2.224201079487330E-3    4.403672765723939E-1    2.376463734590366E-1
 8.156635656925000E9     3.898194485937003E-1    3.658533775926134E-1   -1.533691521728483E-3    2.223846501993494E-3   -1.516789346907107E-3    2.244028602248941E-3    4.461183647084052E-1    2.258322786884427E-1
 8.156850282600000E9     3.998016624947775E-1    3.553060091620158E-1   -1.449971294419403E-3    2.262478073953242E-3   -1.429981717669299E-3    2.283760155036281E-3    4.517511821984080E-1    2.138258493532403E-1
 8.157064908275000E9     4.092692365962668E-1    3.446610320115405E-1   -1.370236249578743E-3    2.276462802452267E-3   -1.372938722385512E-3    2.318851597750681E-3    4.569554330111767E-1    2.016041541419336E-1
 8.157279533950000E9     4.186350432274435E-1    3.336386994337354E-1   -1.333665658632961E-3    2.325479372151966E-3   -1.318177683131668E-3    2.346129210299429E-3    4.617851100719352E-1    1.894458877708081E-1
 8.157494159625000E9     4.277270840854746E-1    3.225021300587787E-1   -1.236697550498025E-3    2.342305961580672E-3   -1.256901057803734E-3    2.332815299051457E-3    4.663714312024490E-1    1.768418497619288E-1
 8.157708785300000E9     4.364268004325837E-1    3.109520519884673E-1   -1.158217980493261E-3    2.376325711922404E-3   -1.181910420882012E-3    2.400041114278496E-3    4.706472497998843E-1    1.643088376186032E-1
 8.157923410975000E9     4.449106823023862E-1    2.992308010955876E-1   -1.103437730952713E-3    2.393468928141098E-3   -1.124555606971347E-3    2.412231134509394E-3    4.745378546422209E-1    1.519377091746930E-1
 8.158138036650000E9     4.529422396373088E-1    2.873896618034474E-1   -1.037808491806007E-3    2.423933758158998E-3   -1.038596860749974E-3    2.449281802060960E-3    4.781865339349714E-1    1.390550525737409E-1
 8.158352662325000E9     4.607130130498506E-1    2.751944066314615E-1   -9.575046209595948E-4    2.445621793102698E-3   -9.590385821933435E-4    2.482517345386438E-3    4.812890860553992E-1    1.261767066813145E-1
 8.158567288000000E9     4.681643993463015E-1    2.628607972667886E-1   -8.858828260507059E-4    2.470749994117697E-3   -9.063745531870330E-4    2.491773967790939E-3    4.840939234264563E-1    1.134657569702714E-1
 8.158781913675000E9     4.751262336603047E-1    2.503373391104423E-1   -7.998202137082512E-4    2.497755776822902E-3   -8.276152282523178E-4    2.491420299125957E-3    4.867649577658957E-1    1.005172435653270E-1
 8.158996539350000E9     4.820762340952706E-1    2.375925247597176E-1   -7.464104838481703E-4    2.519540512662603E-3   -7.419460360379972E-4    2.518033659645519E-3    4.887350466902901E-1    8.771437571498990E-2
 8.159211165025000E9     4.884276509697014E-1    2.247585458777238E-1   -6.770647482601925E-4    2.515418036565348E-3   -6.914459413059670E-4    2.510699883817351E-3    4.907081744777773E-1    7.475355931209549E-2
 8.159425790700000E9     4.942680406029389E-1    2.116871915751589E-1   -6.091388988425044E-4    2.559469288675916E-3   -6.182633624496700E-4    2.545442265465550E-3    4.921347878745877E-1    6.153166962356969E-2
 8.159640416375000E9     5.001762989203865E-1    1.984485913858349E-1   -5.149363231239205E-4    2.560860202686227E-3   -5.504187703187854E-4    2.536564620171970E-3    4.933604327819076E-1    4.851889184848110E-2
 8.159855042050000E9     5.054580185532405E-1    1.851880641742770E-1   -4.453702281360170E-4    2.550369841782166E-3   -4.481987608145691E-4    2.559837950200804E-3    4.941156330809250E-1    3.555104257461244E-2
 8.160069667725000E9     5.104718514594582E-1    1.715185533008453E-1   -3.951270971107290E-4    2.537081972756687E-3   -3.770207952906096E-4    2.545981090800556E-3    4.943936688544692E-1    2.253086035855869E-2
 8.160284293400000E9     5.150596633852402E-1    1.577869889090243E-1   -3.404055379654759E-4    2.554677676782355E-3   -3.236139358171348E-4    2.535963684915060E-3    4.946356046791716E-1    9.516033351142469E-3
 8.160498919075000E9     5.193236327547675E-1    1.440853500956363E-1   -2.403136277848279E-4    2.548889150618971E-3   -2.442849664220298E-4    2.543477821256824E-3    4.943925214726376E-1   -3.500554716770836E-3
 8.160713544750000E9     5.230665346295387E-1    1.302457877101494E-1   -1.904433646112415E-4    2.546967716877260E-3   -1.808127581778046E-4    2.590144956759049E-3    4.938092258668159E-1   -1.647642610022533E-2
 8.160928170425000E9     5.267533416727549E-1    1.163096749158077E-1   -9.475270953559025E-5    2.542820074956939E-3   -1.410315409402600E-4    2.570707322225830E-3    4.929227151471254E-1   -2.963920898912273E-2
 8.161142796100000E9     5.297906058677705E-1    1.020874544263821E-1   -2.367265816249851E-5    2.539304414972493E-3   -1.794493089303954E-5    2.524898953112397E-3    4.916082850281693E-1   -4.219713315515363E-2
 8.161357421775000E9     5.325161992217949E-1    8.801504919727472E-2    2.601227628928998E-5    2.544073778216135E-3    1.918948429531170E-5    2.539399859256539E-3    4.900377567598069E-1   -5.526986075456917E-2
 8.161572047450000E9     5.347489032093203E-1    7.373482892995072E-2    9.953910819518669E-5    2.506791654621000E-3    9.096064848938247E-5    2.533696650084817E-3    4.880198886250804E-1   -6.793988978271155E-2
 8.161786673125000E9     5.368544829502695E-1    5.961405282424060E-2    1.652520618736974E-4    2.515134233900937E-3    1.746460934907154E-4    2.546496812630595E-3    4.858915926910478E-1   -8.057790509932558E-2
 8.162001298800000E9     5.383416390102305E-1    4.512054289967767E-2    2.266613199127241E-4    2.494210291184466E-3    2.281807289655935E-4    2.529210897205191E-3    4.831914214452906E-1   -9.331807344203850E-2
 8.162215924475000E9     5.395613671621791E-1    3.092803031058343E-2    3.217810642291899E-4    2.487701046027976E-3    3.098489877333887E-4    2.504879985399086E-3    4.803387509225172E-1   -1.059391824719065E-1
 8.162430550150000E9     5.403518208433700E-1    1.644970898195299E-2    4.004483019805061E-4    2.470232297014572E-3    3.759496361173953E-4    2.491704419143829E-3    4.769231292494208E-1   -1.182931026297057E-1
 8.162645175825000E9     5.407314501992064E-1    2.023522034832858E-3    4.360664341669416E-4    2.453186085182900E-3    4.186679441420020E-4    2.476351229891632E-3    4.734693719265174E-1   -1.306733727315290E-1
 8.162859801500000E9     5.407825785668949E-1   -1.247181888465698E-2    5.217157084510919E-4    2.412353232630876E-3    4.971121928992755E-4    2.487141982947650E-3    4.695491081622216E-1   -1.430320187599153E-1
 8.163074427175000E9     5.404527478996114E-1   -2.687409269209442E-2    5.936376632316543E-4    2.417503074469134E-3    5.516483918471981E-4    2.443891137239425E-3    4.652811683569881E-1   -1.550361291127941E-1
 8.163289052850000E9     5.397527463169336E-1   -4.122822350821046E-2    6.627712208121868E-4    2.406275144199638E-3    6.494852177913727E-4    2.411464752841341E-3    4.606534438024159E-1   -1.671330009366699E-1
 8.163503678525000E9     5.385230658312881E-1   -5.569305627077580E-2    7.127793631507847E-4    2.386758285968365E-3    7.116775749596126E-4    2.410372173461467E-3    4.560534714251045E-1   -1.789221741558829E-1
 8.163718304200000E9     5.370336032270921E-1   -7.000305732021207E-2    7.665218411606660E-4    2.349841498071587E-3    7.463858593922708E-4    2.341980760041751E-3    4.507520124709873E-1   -1.906206102737872E-1
 8.163932929875000E9     5.351665139207570E-1   -8.423259671745192E-2    8.159339335637386E-4    2.293667754528014E-3    8.216194804318155E-4    2.349924778308038E-3    4.452483886663814E-1   -2.021493889028907E-1
 8.164147555550000E9     5.327409386463593E-1   -9.863466127753259E-2    8.823103040879614E-4    2.271606488982402E-3    8.979546506709383E-4    2.311772342346784E-3    4.396638615410025E-1   -2.136621780456104E-1
 8.164362181225000E9     5.300675394612407E-1   -1.127415991189040E-1    9.684963637136619E-4    2.246608896144078E-3    9.308690097971034E-4    2.278178409228857E-3    4.336574356617992E-1   -2.248669370865382E-1
 8.164576806900000E9     5.270075123939044E-1   -1.268279854691601E-1    9.951501654245317E-4    2.235210996627110E-3    1.004388858382492E-3    2.254723683975197E-3    4.271951906015706E-1   -2.360058932564513E-1
 8.164791432575000E9     5.235797159810356E-1   -1.407205977957940E-1    1.061803050306966E-3    2.168026028683080E-3    1.051189795138821E-3    2.218356510425291E-3    4.207135115258404E-1   -2.470301312267791E-1
 8.165006058250000E9     5.197695638939537E-1   -1.547347760694137E-1    1.117322254754051E-3    2.139812921334791E-3    1.128792446975004E-3    2.203578437848007E-3    4.138338418554948E-1   -2.577238566768262E-1
 8.165220683925000E9     5.156156610693308E-1   -1.684768262501819E-1    1.190012181429354E-3    2.124874714131544E-3    1.204326425450855E-3    2.180449834137121E-3    4.066666168219831E-1   -2.681439436491226E-1
 8.165435309600000E9     5.110976567915505E-1   -1.822709252183866E-1    1.227698818280689E-3    2.079262094692669E-3    1.246612594026430E-3    2.119579491209304E-3    3.992717656022308E-1   -2.784448600134708E-1
 8.165649935275000E9     5.060785469497278E-1   -1.958897253917610E-1    1.271134224234991E-3    2.061180725494990E-3    1.282069666840990E-3    2.096323503602421E-3    3.916761829186087E-1   -2.884773051376173E-1
 8.165864560950000E9     5.007952298385997E-1   -2.093185547965233E-1    1.320882547473359E-3    2.023470748242780E-3    1.343659031173027E-3    2.036097464517255E-3    3.837771950015755E-1   -2.984263422516278E-1
 8.166079186625000E9     4.950476217112934E-1   -2.225651417460427E-1    1.375495553416728E-3    1.962544766242727E-3    1.392609647563463E-3    2.008417919805833E-3    3.756434662126942E-1   -3.081654250675583E-1
 8.166293812300000E9     4.891473647549114E-1   -2.357747968787610E-1    1.432191816534057E-3    1.906979912309906E-3    1.433693956290758E-3    1.983772713017893E-3    3.671306205013170E-1   -3.176391590652159E-1
 8.166508437975000E9     4.827315534800748E-1   -2.487178649641216E-1    1.464584106821370E-3    1.854189853535148E-3    1.501709266118163E-3    1.910711553261631E-3    3.585636268889457E-1   -3.268078451522777E-1
 8.166723063650000E9     4.758982611600408E-1   -2.616564932992825E-1    1.524994830412448E-3    1.834308889248024E-3    1.535501553395250E-3    1.887665119697860E-3    3.496471397876194E-1   -3.357578748502154E-1
 8.166937689325000E9     4.689067373848132E-1   -2.742670636664372E-1    1.579163988250651E-3    1.777228183495161E-3    1.563186105827547E-3    1.826834940548836E-3    3.406137144243267E-1   -3.445173005866582E-1
 8.167152315000000E9     4.615129707086897E-1   -2.866274144146462E-1    1.604737560851627E-3    1.761599857730012E-3    1.652661691451305E-3    1.808614569530355E-3    3.314177843676043E-1   -3.530543870385340E-1
 8.167366940675000E9     4.537627996812429E-1   -2.989219655853505E-1    1.626294374868062E-3    1.690718015613776E-3    1.668980079842646E-3    1.755840598008649E-3    3.216760704995320E-1   -3.613977542781389E-1
 8.167581566350000E9     4.458412210693650E-1   -3.108792681719610E-1    1.702500758560297E-3    1.672385041893507E-3    1.696073779531221E-3    1.704471062562634E-3    3.119847345590479E-1   -3.694825885273318E-1
 8.167796192025000E9     4.373565805951758E-1   -3.227232270288746E-1    1.730059012109277E-3    1.599093161998587E-3    1.782767111025080E-3    1.632741707336302E-3    3.021225080815708E-1   -3.770877972963064E-1
 8.168010817700000E9     4.285366259634871E-1   -3.343020430275731E-1    1.796234036759966E-3    1.559444518133149E-3    1.793469899558849E-3    1.613263292940217E-3    2.919805586046745E-1   -3.844411038915284E-1
 8.168225443375000E9     4.195413958615395E-1   -3.457097875709115E-1    1.811859169111773E-3    1.497682799964459E-3    1.813040177064813E-3    1.506510607776150E-3    2.816821580210683E-1   -3.916449490935609E-1
 8.168440069050000E9     4.102524571351551E-1   -3.567976533249521E-1    1.879284870354051E-3    1.456095095920646E-3    1.867319466689849E-3    1.497479473322269E-3    2.712589645425815E-1   -3.986396438554099E-1
 8.168654694725000E9     4.006436489074736E-1   -3.677485126164719E-1    1.905164724295675E-3    1.387251423533859E-3    1.898929232034464E-3    1.415251407780865E-3    2.606898704491409E-1   -4.052132703732185E-1
 8.168869320400000E9     3.907555053295382E-1   -3.783637296531137E-1    1.930850903124973E-3    1.334851099135381E-3    1.975968840237112E-3    1.395638464891376E-3    2.498248827869352E-1   -4.115200291353021E-1
 8.169083946075000E9     3.804701630803347E-1   -3.887528978926706E-1    1.927623480320613E-3    1.307084998836762E-3    1.976572941335373E-3    1.349160974140757E-3    2.389124070816363E-1   -4.175850855463472E-1
 8.169298571750000E9     3.699879998675030E-1   -3.988234965860672E-1    1.964432959325931E-3    1.250484259798580E-3    2.059497734901532E-3    1.264249792529546E-3    2.278128968114414E-1   -4.234328760616643E-1
