#  HZ   S   RI   R     50.00 
! Rohde & Schwarz Vector Network Analyzer 
! Rohde-Schwarz,ZNB20-2Port,1311601062101988,3.16
! Created: UTC 3/20/2024, 5:08:17 PM
! freq[Hz]                re:S11                  im:S11                  re:S21                  im:S21                  re:S12                  im:S12                  re:S22                  im:S22
 8.186767968000000E9    -5.388280034974335E-1   -5.880314255070765E-2    2.515536771299829E-6   -2.330368895989558E-3   -4.819665739059976E-5   -2.434288539831412E-3   -4.596259338039275E-1    1.888361498980366E-2
 8.186815929675000E9    -5.391757331351900E-1   -5.551281918508329E-2   -7.499871801566959E-6   -2.334426161746744E-3   -4.866088003140258E-5   -2.417602183875881E-3   -4.594021541308987E-1    2.164082546831339E-2
 8.186863891350000E9    -5.394509253191969E-1   -5.206866979313489E-2   -3.337522084216727E-5   -2.318660775453589E-3   -5.607906495596866E-5   -2.457256110285397E-3   -4.592420815994820E-1    2.428597198780969E-2
 8.186911853025000E9    -5.398361504637690E-1   -4.874696242479955E-2   -4.476959418602616E-5   -2.340628528021738E-3   -9.803224373223681E-5   -2.384353557873748E-3   -4.589990245290551E-1    2.693278422098197E-2
 8.186959814700000E9    -5.401180195438292E-1   -4.555724208615044E-2   -6.625718213775885E-5   -2.344575783058967E-3   -9.179377041228753E-5   -2.404496525414814E-3   -4.589265219695948E-1    2.954135859785716E-2
 8.187007776375000E9    -5.403942946705808E-1   -4.212197458161027E-2   -4.678001617732133E-5   -2.301377618722176E-3   -1.120601609538083E-4   -2.410185223636950E-3   -4.586651711799743E-1    3.220893905344411E-2
 8.187055738050000E9    -5.406317360806256E-1   -3.870951148267026E-2   -7.452173602580218E-5   -2.338193508093438E-3   -1.257621582911701E-4   -2.453768551948228E-3   -4.583900874146615E-1    3.486289779653168E-2
 8.187103699725000E9    -5.408904460058203E-1   -3.543624689571145E-2   -9.279376807430926E-5   -2.302920349767314E-3   -1.328726495846021E-4   -2.402887741449784E-3   -4.581713778645096E-1    3.765477615547170E-2
 8.187151661400000E9    -5.410200605551486E-1   -3.198901135516920E-2   -1.191114598621091E-4   -2.331691966648658E-3   -1.569229807672478E-4   -2.418986359194879E-3   -4.577824808708089E-1    4.018012736079452E-2
 8.187199623075000E9    -5.412444463482547E-1   -2.874198487094529E-2   -1.069770920741497E-4   -2.327886266091458E-3   -1.714000026931868E-4   -2.412517306045107E-3   -4.575800676199934E-1    4.297097932090898E-2
 8.187247584750000E9    -5.413756213129707E-1   -2.540935554576975E-2   -1.275261765618645E-4   -2.336831553175049E-3   -1.896681685726444E-4   -2.403045322409565E-3   -4.572407556697411E-1    4.562171674370938E-2
 8.187295546425000E9    -5.415127083700275E-1   -2.199959475443780E-2   -1.233218011424278E-4   -2.316327242900633E-3   -2.092894836783842E-4   -2.387515388080692E-3   -4.570121954402254E-1    4.825922005685213E-2
 8.187343508100000E9    -5.415265054292322E-1   -1.860031533592007E-2   -1.412767020508469E-4   -2.334325613262834E-3   -2.071716052363520E-4   -2.413506080033028E-3   -4.565126253207099E-1    5.077897957849188E-2
 8.187391469775000E9    -5.417313140309291E-1   -1.537405119929368E-2   -1.652709140529091E-4   -2.337063793597244E-3   -2.587057957473035E-4   -2.424721080641521E-3   -4.562324750171899E-1    5.359717305304220E-2
 8.187439431450000E9    -5.419291680451497E-1   -1.195100276175818E-2   -1.687475559819285E-4   -2.297135795322196E-3   -2.326155119066326E-4   -2.412115469345306E-3   -4.557736315968930E-1    5.603633581495241E-2
 8.187487393125000E9    -5.418603745646757E-1   -8.610798082424929E-3   -1.789844693580608E-4   -2.317860656171024E-3   -2.346886620672697E-4   -2.441119709973280E-3   -4.556283996867502E-1    5.867169049956514E-2
 8.187535354800000E9    -5.418924014207874E-1   -5.161270021362321E-3   -2.077713004876627E-4   -2.325274400999017E-3   -2.542902274731900E-4   -2.412285429840931E-3   -4.550043251934640E-1    6.138571571928386E-2
 8.187583316475000E9    -5.416454075554716E-1   -1.846793532513992E-3   -2.136299941001311E-4   -2.306218095707165E-3   -2.842207396787709E-4   -2.393766603338557E-3   -4.547055040371294E-1    6.406348859681819E-2
 8.187631278150000E9    -5.418856305394167E-1    1.558590347834664E-3   -2.447962005394788E-4   -2.343666120023280E-3   -3.063926306390407E-4   -2.401004418065226E-3   -4.541037447602593E-1    6.667025724829348E-2
 8.187679239825000E9    -5.417883195649988E-1    4.793651160254082E-3   -2.462151442674287E-4   -2.327707251720186E-3   -3.233823579865088E-4   -2.406161500030227E-3   -4.538706941063347E-1    6.955685157172080E-2
 8.187727201500000E9    -5.417025238732835E-1    8.112017352495959E-3   -2.889736124705828E-4   -2.339232855383233E-3   -2.876419687215424E-4   -2.401891751642264E-3   -4.535173450377379E-1    7.190153813351359E-2
 8.187775163175000E9    -5.414842817754600E-1    1.154304836670927E-2   -2.961815647751590E-4   -2.321929873641475E-3   -3.597653295355232E-4   -2.401103628394925E-3   -4.528193112696099E-1    7.457317867543224E-2
 8.187823124850000E9    -5.415371144278019E-1    1.494578406641077E-2   -2.920494908367976E-4   -2.311353914481183E-3   -3.508299209973671E-4   -2.380550289376684E-3   -4.523189543035374E-1    7.730975208057959E-2
 8.187871086525000E9    -5.414313555674481E-1    1.821036017791842E-2   -2.999103520635104E-4   -2.344205110431707E-3   -3.592575714750035E-4   -2.435144671553784E-3   -4.519230240006501E-1    7.964126682593184E-2
 8.187919048200000E9    -5.412492368468449E-1    2.148455182171713E-2   -3.316665435360168E-4   -2.342412996677859E-3   -3.820345859463976E-4   -2.401104610845920E-3   -4.514276364536104E-1    8.229760066684273E-2
 8.187967009875000E9    -5.411382735893335E-1    2.502253614955159E-2   -3.477451630873542E-4   -2.303618128051718E-3   -3.830025528727749E-4   -2.398810281545396E-3   -4.508509526443339E-1    8.500277434986050E-2
 8.188014971550000E9    -5.409581917852109E-1    2.820020289675202E-2   -3.779949046667853E-4   -2.308789499805629E-3   -3.934674537674200E-4   -2.421556910768843E-3   -4.502862284806006E-1    8.744857968471660E-2
 8.188062933225000E9    -5.407133998137421E-1    3.162072010837218E-2   -3.665953670638742E-4   -2.329647519561232E-3   -4.107685284699105E-4   -2.411742084381402E-3   -4.497241991402921E-1    9.028816964489846E-2
 8.188110894900000E9    -5.404559950884080E-1    3.498363983158231E-2   -3.624085948452382E-4   -2.339683302470618E-3   -4.660481776542415E-4   -2.392303916379291E-3   -4.490393553642834E-1    9.290722439175284E-2
 8.188158856575000E9    -5.404399997605689E-1    3.836277152190837E-2   -4.019554118712485E-4   -2.317983455972129E-3   -4.446747160959932E-4   -2.437541788986473E-3   -4.484970082324795E-1    9.533338447401876E-2
 8.188206818250000E9    -5.399993274275066E-1    4.164445549169519E-2   -4.286358035505878E-4   -2.318220850007067E-3   -4.782979444620367E-4   -2.367810327787151E-3   -4.478359067517794E-1    9.801529680110518E-2
 8.188254779925000E9    -5.396799481417499E-1    4.500369676735354E-2   -4.404155261487060E-4   -2.334660193343598E-3   -4.812887231645697E-4   -2.394580182446818E-3   -4.472687965933483E-1    1.006345341862978E-1
 8.188302741600000E9    -5.394075453745625E-1    4.829328883111222E-2   -4.542181278754030E-4   -2.317067407160635E-3   -4.931137127580856E-4   -2.390519043412728E-3   -4.466359133711280E-1    1.032474852942290E-1
 8.188350703275000E9    -5.391127935454748E-1    5.168226360579927E-2   -4.732306815151343E-4   -2.308405011699939E-3   -4.801434741789982E-4   -2.404609759528086E-3   -4.459626118339208E-1    1.058943604764503E-1
 8.188398664950000E9    -5.385741351112673E-1    5.502517293796846E-2   -4.571066771892460E-4   -2.290938283814304E-3   -5.328567803555597E-4   -2.384026674537842E-3   -4.452282896041283E-1    1.084044682505439E-1
 8.188446626625000E9    -5.383459350182638E-1    5.834188851219878E-2   -4.824185672702558E-4   -2.307078077673259E-3   -5.660352117431077E-4   -2.390920436432681E-3   -4.445797075055349E-1    1.109076286092488E-1
 8.188494588300000E9    -5.380465697251039E-1    6.177631305065313E-2   -5.081773294936667E-4   -2.300006715872244E-3   -5.665261540510304E-4   -2.371592016392823E-3   -4.439498012104895E-1    1.136676408381502E-1
 8.188542549975000E9    -5.374847923426265E-1    6.491194862778840E-2   -4.922008425029249E-4   -2.319138660518035E-3   -5.643236784617263E-4   -2.372583123918543E-3   -4.431465390224799E-1    1.160306235763203E-1
 8.188590511650000E9    -5.370602104590670E-1    6.833316114898431E-2   -5.365010921309669E-4   -2.306718274302104E-3   -5.821055764691842E-4   -2.352813988606641E-3   -4.425237075630946E-1    1.186411726183920E-1
 8.188638473325000E9    -5.367900715899845E-1    7.175720381057543E-2   -5.168380898789898E-4   -2.318240149535012E-3   -6.408409499436946E-4   -2.400999502553962E-3   -4.417945257987371E-1    1.211243185400547E-1
 8.188686435000000E9    -5.362698966919306E-1    7.496327275922035E-2   -5.611600224040369E-4   -2.276636479886363E-3   -6.306166688458107E-4   -2.386395221415647E-3   -4.409448572909220E-1    1.236943349383300E-1
 8.188734396675000E9    -5.357018262907633E-1    7.836932958242164E-2   -5.576335562040845E-4   -2.309987143467785E-3   -6.793795099637887E-4   -2.369644464044999E-3   -4.401697991529189E-1    1.262384283972686E-1
 8.188782358350000E9    -5.351327247344770E-1    8.160743189682201E-2   -5.643230480957856E-4   -2.300078789899499E-3   -6.631219875280176E-4   -2.355218282569699E-3   -4.394454889840586E-1    1.288835205575419E-1
 8.188830320025000E9    -5.345984187999334E-1    8.494316935505797E-2   -5.747274300056992E-4   -2.281185368009962E-3   -6.675408716625065E-4   -2.346321930349800E-3   -4.384341704618335E-1    1.313800344736926E-1
 8.188878281700000E9    -5.339216172192435E-1    8.827262121757705E-2   -6.053802398019302E-4   -2.294639791080461E-3   -6.810652984221771E-4   -2.382278738273287E-3   -4.377977253500274E-1    1.340329992452640E-1
 8.188926243375000E9    -5.335201575147898E-1    9.155624398283826E-2   -6.182788069967179E-4   -2.311799315171497E-3   -7.165122661390368E-4   -2.379331753608800E-3   -4.369318147629263E-1    1.364821046021646E-1
 8.188974205050000E9    -5.328221973400251E-1    9.485919780427220E-2   -6.342839726058945E-4   -2.275965055141952E-3   -7.090289403384584E-4   -2.358704604971297E-3   -4.358994501555547E-1    1.391237545776083E-1
 8.189022166725000E9    -5.323911099016897E-1    9.821563754416131E-2   -6.601156564076567E-4   -2.270109862342165E-3   -7.000834652758444E-4   -2.389828384240195E-3   -4.352397739245984E-1    1.415295779133886E-1
 8.189070128400000E9    -5.316230475697888E-1    1.014900462175027E-1   -6.771676946644648E-4   -2.267132783975866E-3   -7.537992596684063E-4   -2.355327785843587E-3   -4.343297154923682E-1    1.441537234367442E-1
 8.189118090075000E9    -5.310430755184256E-1    1.047581115522821E-1   -6.772254917928095E-4   -2.306459813182484E-3   -7.477511202334706E-4   -2.369565947348892E-3   -4.333655923441021E-1    1.464762743955327E-1
 8.189166051750000E9    -5.303536414725607E-1    1.080977782402588E-1   -6.903813233054567E-4   -2.275356748459924E-3   -7.771742221375556E-4   -2.345773086665208E-3   -4.323727167728341E-1    1.490980014994230E-1
 8.189214013425000E9    -5.296510562387845E-1    1.114265783023802E-1   -6.985040953455310E-4   -2.302554479821788E-3   -7.754601146586589E-4   -2.328338215413859E-3   -4.315918764263059E-1    1.512817551985266E-1
 8.189261975100000E9    -5.289132870149374E-1    1.146118492434727E-1   -7.247943760383792E-4   -2.270828841523770E-3   -7.819493950131671E-4   -2.344446327064134E-3   -4.305160821283899E-1    1.541918723050447E-1
 8.189309936775000E9    -5.281557100163792E-1    1.178770917442392E-1   -7.345754940732326E-4   -2.276273729441100E-3   -8.212609293837285E-4   -2.346951438936268E-3   -4.295386639493300E-1    1.564974156270309E-1
 8.189357898450000E9    -5.273541235435337E-1    1.210897854464827E-1   -7.513257068683018E-4   -2.256312460079780E-3   -8.460429321259748E-4   -2.347452417898585E-3   -4.286186905476469E-1    1.590118864073443E-1
 8.189405860125000E9    -5.266256915466313E-1    1.245284584463099E-1   -7.715421918694610E-4   -2.275556063184104E-3   -8.381710181418492E-4   -2.338038879067029E-3   -4.276264807177785E-1    1.615411417110388E-1
 8.189453821800000E9    -5.257810942271254E-1    1.276901457541660E-1   -7.387017890647613E-4   -2.249042204377814E-3   -8.741893676083118E-4   -2.347274849363017E-3   -4.266626838464583E-1    1.639812269354291E-1
 8.189501783475000E9    -5.249201738754093E-1    1.310084783415033E-1   -7.855750968351865E-4   -2.240807897120898E-3   -8.480186790436132E-4   -2.317869872493110E-3   -4.255831150094849E-1    1.664090976849650E-1
 8.189549745150000E9    -5.240446248048324E-1    1.341165786001390E-1   -8.114845721824777E-4   -2.294455343280850E-3   -8.651311865199605E-4   -2.353305820478784E-3   -4.246331735503518E-1    1.690008699248355E-1
 8.189597706825000E9    -5.232177834116997E-1    1.375211724320612E-1   -8.061043144675320E-4   -2.256412908718536E-3   -9.048236324047490E-4   -2.310231877942813E-3   -4.236883163550649E-1    1.712735719792493E-1
 8.189645668500000E9    -5.224937607342659E-1    1.408337928617955E-1   -8.589204218209395E-4   -2.240459407510777E-3   -9.274198897984797E-4   -2.296868414429427E-3   -4.224368341285268E-1    1.737891449991278E-1
 8.189693630175000E9    -5.214544250591024E-1    1.439208205612178E-1   -8.459601668269374E-4   -2.239736914238668E-3   -9.110271610771355E-4   -2.277440638463212E-3   -4.214988840776371E-1    1.763114526244431E-1
 8.189741591850000E9    -5.205169080821960E-1    1.472204854155678E-1   -8.508992270494076E-4   -2.235527831117605E-3   -9.540629677971468E-4   -2.326164052501893E-3   -4.203578670851433E-1    1.787150944841632E-1
 8.189789553525000E9    -5.196264392692288E-1    1.503763842390954E-1   -8.667453611248692E-4   -2.209517357697978E-3   -9.481415315927636E-4   -2.300837640112112E-3   -4.192837261536489E-1    1.809854094229243E-1
 8.189837515200000E9    -5.186699072202388E-1    1.536274896504523E-1   -9.000606451597106E-4   -2.230491662265261E-3   -9.515657694774400E-4   -2.277762974465315E-3   -4.181641518574394E-1    1.834845806465834E-1
 8.189885476875000E9    -5.176185939049758E-1    1.568195326982289E-1   -8.888468528759188E-4   -2.214978322805103E-3   -9.774979390055401E-4   -2.298666862994053E-3   -4.170808749636976E-1    1.858392166937306E-1
 8.189933438550000E9    -5.166667378115483E-1    1.599924528406545E-1   -9.159161049796750E-4   -2.221336518864674E-3   -9.958388191863891E-4   -2.270158836034805E-3   -4.159321189673579E-1    1.884165569800683E-1
 8.189981400225000E9    -5.156923324471659E-1    1.632545687796761E-1   -9.210614048574387E-4   -2.210025453998749E-3   -9.999081257631196E-4   -2.250355541118177E-3   -4.148014258613109E-1    1.906994236531657E-1
 8.190029361900000E9    -5.145515499468712E-1    1.665284333499693E-1   -9.304156693472103E-4   -2.196501264222645E-3   -1.029830280554265E-3   -2.258393524092579E-3   -4.134829218150569E-1    1.931065259665941E-1
 8.190077323575000E9    -5.134655251730761E-1    1.697012638700535E-1   -9.414107045525011E-4   -2.228161456546247E-3   -1.027059356733553E-3   -2.275612115893454E-3   -4.123885242209795E-1    1.957320908597781E-1
 8.190125285250000E9    -5.125013140569838E-1    1.727918257070515E-1   -9.829994564672926E-4   -2.211966816045569E-3   -1.070301451561714E-3   -2.249205041080250E-3   -4.111253461965772E-1    1.978941939777506E-1
 8.190173246925000E9    -5.112859423046371E-1    1.759996526707702E-1   -9.862652967427357E-4   -2.198196867883790E-3   -1.062585170292867E-3   -2.289544074578347E-3   -4.098607197449120E-1    2.003905265128048E-1
 8.190221208600000E9    -5.102189335205244E-1    1.792058713962860E-1   -1.010132707247862E-3   -2.192531688166180E-3   -1.098920675980009E-3   -2.221400685683867E-3   -4.088151679832634E-1    2.027137890747417E-1
 8.190269170275000E9    -5.090789240315211E-1    1.823443416814786E-1   -9.985798880978803E-4   -2.193904583817896E-3   -1.124728090955260E-3   -2.236511533084050E-3   -4.074918700597295E-1    2.050560251478218E-1
 8.190317131950000E9    -5.078538348204322E-1    1.854010951721080E-1   -1.012895421303131E-3   -2.194748297622175E-3   -1.133920982863581E-3   -2.230426446535250E-3   -4.062674443188345E-1    2.075767123658280E-1
 8.190365093625000E9    -5.066580442853623E-1    1.887061034361373E-1   -1.027192378073269E-3   -2.186562819930725E-3   -1.172206849761347E-3   -2.248822231247744E-3   -4.049320374948728E-1    2.097334630103089E-1
 8.190413055300000E9    -5.054574862944312E-1    1.918707094772582E-1   -1.064879033740726E-3   -2.181286105362828E-3   -1.138914609648989E-3   -2.255262543007313E-3   -4.036900209697828E-1    2.120191536724997E-1
 8.190461016975000E9    -5.043245706826135E-1    1.948560567908836E-1   -1.057027749498759E-3   -2.193265015557180E-3   -1.152240305620243E-3   -2.180947009252517E-3   -4.022772792058930E-1    2.143235337826896E-1
 8.190508978650000E9    -5.030624323169486E-1    1.980970065234624E-1   -1.051660177064091E-3   -2.155261566999912E-3   -1.160278519407880E-3   -2.189490178480219E-3   -4.011049763099743E-1    2.166868884920086E-1
 8.190556940325000E9    -5.016339354936380E-1    2.011672117211637E-1   -1.097634659898125E-3   -2.165464121729200E-3   -1.210363782147835E-3   -2.181137960217219E-3   -3.996542039324595E-1    2.190396441810935E-1
 8.190604902000000E9    -5.005224324611913E-1    2.042199031686818E-1   -1.108901023798501E-3   -2.169558466247989E-3   -1.175153456879668E-3   -2.190886294028828E-3   -3.983178616545697E-1    2.213822476509844E-1
 8.190652863675000E9    -4.992658161585390E-1    2.072656253966254E-1   -1.120029000325432E-3   -2.134075164473435E-3   -1.220853126096504E-3   -2.216515211195633E-3   -3.969231008178057E-1    2.237122752437390E-1
 8.190700825350000E9    -4.978359241134202E-1    2.103348422058726E-1   -1.130502523636077E-3   -2.132259105767230E-3   -1.236805288691091E-3   -2.199581147722220E-3   -3.957037148403083E-1    2.258922939302407E-1
 8.190748787025000E9    -4.965321133050387E-1    2.135425416713067E-1   -1.112031151430772E-3   -2.137042347106348E-3   -1.250826432777793E-3   -2.199502601233535E-3   -3.942993819687676E-1    2.282337892103947E-1
 8.190796748700000E9    -4.952648176099159E-1    2.165984004638923E-1   -1.155380815790751E-3   -2.128158749345330E-3   -1.267727887293313E-3   -2.171976118249162E-3   -3.929502656903479E-1    2.305044803456714E-1
 8.190844710375000E9    -4.938281555949925E-1    2.195873970605257E-1   -1.170584488975647E-3   -2.127430845687713E-3   -1.250131268821939E-3   -2.153692890807254E-3   -3.916106240907758E-1    2.326995645022510E-1
 8.190892672050000E9    -4.924215979131576E-1    2.227261258481073E-1   -1.171966717799195E-3   -2.107855173823086E-3   -1.290953272686588E-3   -2.141669473033052E-3   -3.901080580568334E-1    2.351454585773498E-1
 8.190940633725000E9    -4.910021115049797E-1    2.258437012061925E-1   -1.220263673773373E-3   -2.115460279754035E-3   -1.328461533501056E-3   -2.137799493307835E-3   -3.886405869858445E-1    2.372689372363243E-1
 8.190988595400000E9    -4.894532913330073E-1    2.288488655778396E-1   -1.220639336546179E-3   -2.125128106415600E-3   -1.325062574217966E-3   -2.131391474365218E-3   -3.872436084338198E-1    2.396374492587020E-1
 8.191036557075000E9    -4.881033426651890E-1    2.318136600794672E-1   -1.243549062676198E-3   -2.076747792954445E-3   -1.324516995646583E-3   -2.135011517456849E-3   -3.856966749063803E-1    2.417517200759458E-1
 8.191084518750000E9    -4.865106862266327E-1    2.348873338980182E-1   -1.234428422341582E-3   -2.069746409832451E-3   -1.368254469055782E-3   -2.115469210142325E-3   -3.843380932247432E-1    2.439081124686822E-1
