#  HZ   S   RI   R     50.00 
! Rohde & Schwarz Vector Network Analyzer 
! Rohde-Schwarz,ZNB20-2Port,1311601062101988,3.16
! Created: UTC 3/20/2024, 5:08:19 PM
! freq[Hz]                re:S11                  im:S11                  re:S21                  im:S21                  re:S12                  im:S12                  re:S22                  im:S22
 8.187930559000000E9    -5.412470638791705E-1    2.231733040084713E-2   -3.146656422704403E-4   -2.333211701686048E-3   -3.819891719904163E-4   -2.421583193629580E-3   -4.512277033257591E-1    8.309430576125561E-2
 8.187973226750000E9    -5.410677187005453E-1    2.512108663509725E-2   -3.564672764250880E-4   -2.329243665472505E-3   -4.123536957029001E-4   -2.414165623091684E-3   -4.506329790052936E-1    8.552466653838169E-2
 8.188015894500000E9    -5.408528657953610E-1    2.819908907714588E-2   -3.684818128642694E-4   -2.311148036186745E-3   -4.167255393563162E-4   -2.393459972884091E-3   -4.503040651383330E-1    8.772475324085631E-2
 8.188058562250000E9    -5.408081639749267E-1    3.117613405387879E-2   -3.775874579153798E-4   -2.339463180899690E-3   -4.346877008810652E-4   -2.375129731504457E-3   -4.496426715444192E-1    8.997471592226566E-2
 8.188101230000000E9    -5.406662629942310E-1    3.413642089272063E-2   -3.427914739749185E-4   -2.313122724324381E-3   -4.237984734383451E-4   -2.402693961464005E-3   -4.491210096259052E-1    9.228616015503291E-2
 8.188143897750000E9    -5.403359256480554E-1    3.718185781016899E-2   -3.908272115491218E-4   -2.293399331221102E-3   -4.865788731122735E-4   -2.392524511584838E-3   -4.486975691568670E-1    9.455643272587436E-2
 8.188186565500000E9    -5.400675683379070E-1    4.011120958135282E-2   -4.050721820507943E-4   -2.326401139097771E-3   -4.650740937253384E-4   -2.387930275176448E-3   -4.481098923671493E-1    9.696845088181093E-2
 8.188229233250000E9    -5.399290062385029E-1    4.315014756086118E-2   -4.353295235818310E-4   -2.337965037004315E-3   -4.373532003051378E-4   -2.388430486727895E-3   -4.476026318571971E-1    9.921813503123604E-2
 8.188271901000000E9    -5.395268858962479E-1    4.622522710295839E-2   -4.042255907026429E-4   -2.297162934646487E-3   -5.121604086540914E-4   -2.380013221920128E-3   -4.469027883586641E-1    1.017070964980194E-1
 8.188314568750000E9    -5.392449719836570E-1    4.911867167683454E-2   -4.384669572005285E-4   -2.326595948453733E-3   -5.148175311301463E-4   -2.390694657145939E-3   -4.465097924105115E-1    1.037936698097977E-1
 8.188357236500000E9    -5.390946721179820E-1    5.203792716687052E-2   -4.751059846941121E-4   -2.298540978875411E-3   -5.466581067402288E-4   -2.400533531084979E-3   -4.458912024044225E-1    1.060599614665365E-1
 8.188399904250000E9    -5.386641095047616E-1    5.500776600148254E-2   -4.859651753100020E-4   -2.317678093837571E-3   -5.209784564481418E-4   -2.399071557322486E-3   -4.452295995683645E-1    1.084886172992088E-1
 8.188442572000000E9    -5.383532424433167E-1    5.799131635930084E-2   -4.839701588444607E-4   -2.330874169456883E-3   -5.325319184494474E-4   -2.360579908882589E-3   -4.446050229035664E-1    1.106849241365588E-1
 8.188485239750000E9    -5.381354927755736E-1    6.090500265148151E-2   -5.023649097184679E-4   -2.327709064009637E-3   -5.600492449523035E-4   -2.385304197464991E-3   -4.440064559751057E-1    1.129548100599110E-1
 8.188527907500000E9    -5.377511191876355E-1    6.387699442331200E-2   -5.090259271791527E-4   -2.322002461316084E-3   -5.759765694068422E-4   -2.403969160942333E-3   -4.435442955764008E-1    1.154029095097398E-1
 8.188570575250000E9    -5.373127347084710E-1    6.689727048406202E-2   -5.112511110170595E-4   -2.332749075725790E-3   -6.086199539898695E-4   -2.399542499601177E-3   -4.427824832969424E-1    1.176745082438199E-1
 8.188613243000000E9    -5.369013261748452E-1    6.985715146355440E-2   -5.195120251045552E-4   -2.319229116139888E-3   -5.905150699797087E-4   -2.345924127642373E-3   -4.420979721899908E-1    1.199119220717093E-1
 8.188655910750000E9    -5.366120835451436E-1    7.282024305626898E-2   -5.088307831548550E-4   -2.311952104605021E-3   -6.255811106956264E-4   -2.375777831544319E-3   -4.415372858760402E-1    1.221971727661269E-1
 8.188698578500000E9    -5.360565466785474E-1    7.577342584565330E-2   -5.445152569987511E-4   -2.302955736247626E-3   -6.239102765288080E-4   -2.382406529366345E-3   -4.407811706033238E-1    1.245529767353603E-1
 8.188741246250000E9    -5.356164170930622E-1    7.874058772675843E-2   -5.169782029087130E-4   -2.315957261284952E-3   -6.428515276994274E-4   -2.317451347294291E-3   -4.400348990023696E-1    1.267636991894332E-1
 8.188783914000000E9    -5.352052451812822E-1    8.173143446069300E-2   -5.858967447868395E-4   -2.279402927894991E-3   -6.608611190722024E-4   -2.345705970342702E-3   -4.392556653877336E-1    1.289007503882741E-1
 8.188826581750000E9    -5.347047322607420E-1    8.468121393547885E-2   -5.693113296561264E-4   -2.320477120851683E-3   -6.740495547720339E-4   -2.344618593491312E-3   -4.385878885340658E-1    1.312568717505361E-1
 8.188869249500000E9    -5.342867934757575E-1    8.756509478850080E-2   -5.890023190092442E-4   -2.315548966711789E-3   -6.416026932571069E-4   -2.359540250990581E-3   -4.379241792022427E-1    1.334770243409720E-1
 8.188911917250000E9    -5.337078671963620E-1    9.050947275708887E-2   -6.124531771277048E-4   -2.285885518715896E-3   -7.131151959043977E-4   -2.355969707904242E-3   -4.371213649957567E-1    1.357723818690844E-1
 8.188954585000000E9    -5.331609679650399E-1    9.355853445716783E-2   -6.182987611182119E-4   -2.308120306202443E-3   -6.828010435706407E-4   -2.408610355138680E-3   -4.363226036678506E-1    1.380018842557815E-1
 8.188997252750000E9    -5.326732238722747E-1    9.628767978122758E-2   -6.319446548593077E-4   -2.314483656450779E-3   -7.419689344327935E-4   -2.351965075497089E-3   -4.357405916410197E-1    1.402191589986155E-1
 8.189039920500000E9    -5.321487346682671E-1    9.926362094001920E-2   -6.564232659331571E-4   -2.282196332224872E-3   -7.067418456801990E-4   -2.362403415678812E-3   -4.347908265425282E-1    1.424086909348935E-1
 8.189082588250000E9    -5.315367381245790E-1    1.024013926769017E-1   -6.970049624494048E-4   -2.273919196023185E-3   -7.498476546877234E-4   -2.345169047433671E-3   -4.340396461485693E-1    1.447104362511126E-1
 8.189125256000000E9    -5.309263576805099E-1    1.052327514164471E-1   -6.855951057431538E-4   -2.278331364857089E-3   -7.738582377793438E-4   -2.349317620381778E-3   -4.331823177729569E-1    1.470110132819187E-1
 8.189167923750000E9    -5.301670933358283E-1    1.081789027426988E-1   -6.816676705463054E-4   -2.265674572265051E-3   -7.498194076873611E-4   -2.344062836919980E-3   -4.323950860020765E-1    1.491825318754458E-1
 8.189210591500000E9    -5.297409507187947E-1    1.111287409314552E-1   -6.851879021009273E-4   -2.269277113327224E-3   -7.896365042911020E-4   -2.346803106213451E-3   -4.315281129267491E-1    1.513376412408615E-1
 8.189253259250000E9    -5.290458926004583E-1    1.140902973425391E-1   -7.084033563594410E-4   -2.253592551442861E-3   -7.999579178320230E-4   -2.328736913268047E-3   -4.307442941891565E-1    1.535083757865061E-1
 8.189295927000000E9    -5.284158421082459E-1    1.169288804276508E-1   -7.349395332418581E-4   -2.270249208009414E-3   -8.365084965150511E-4   -2.296691984018675E-3   -4.297720037772710E-1    1.558773450373130E-1
 8.189338594750000E9    -5.276348913317966E-1    1.198110105306406E-1   -7.064372848609335E-4   -2.264483696036431E-3   -8.283030390889600E-4   -2.374409220287537E-3   -4.291451567101160E-1    1.579952338133573E-1
 8.189381262500000E9    -5.270082497723896E-1    1.227865493360705E-1   -7.537395175637884E-4   -2.265797191009332E-3   -8.450616873021954E-4   -2.339623536045343E-3   -4.281540918431084E-1    1.601435416223044E-1
 8.189423930250000E9    -5.262249061297086E-1    1.255621312281555E-1   -7.467479427115117E-4   -2.266687740172528E-3   -8.485470465172674E-4   -2.336495349473929E-3   -4.273268226869578E-1    1.624239495158722E-1
 8.189466598000000E9    -5.255700145230801E-1    1.284568006886901E-1   -7.713437210195283E-4   -2.261582390367481E-3   -8.663922907933666E-4   -2.352657545246958E-3   -4.264463455923492E-1    1.645913564913939E-1
 8.189509265750000E9    -5.247436565795787E-1    1.314291158727403E-1   -7.802525571183588E-4   -2.234737567442214E-3   -8.699531262845534E-4   -2.311063703645763E-3   -4.255343922154471E-1    1.667238252513005E-1
 8.189551933500000E9    -5.240983231853700E-1    1.343244844662481E-1   -8.204154873794976E-4   -2.264692522124044E-3   -9.081707409676067E-4   -2.306412949505822E-3   -4.245542700120901E-1    1.690144516609368E-1
 8.189594601250000E9    -5.233050327357198E-1    1.372139310572118E-1   -8.176305196058398E-4   -2.269875589882332E-3   -9.180804560691621E-4   -2.254294770183156E-3   -4.236339932836004E-1    1.710997763289683E-1
 8.189637269000000E9    -5.226516696241624E-1    1.399883131291467E-1   -8.542851945334355E-4   -2.246970487168421E-3   -8.778036107934797E-4   -2.320529741998320E-3   -4.226997388298153E-1    1.734246827706750E-1
 8.189679936750000E9    -5.217612585403536E-1    1.430155463260816E-1   -8.110379026022866E-4   -2.256950133488876E-3   -9.123968893290901E-4   -2.290551529244503E-3   -4.217749543977833E-1    1.756455555169045E-1
 8.189722604500000E9    -5.209322574618678E-1    1.459375797085299E-1   -8.612991123208528E-4   -2.220477078896047E-3   -9.329416329109060E-4   -2.292337266259401E-3   -4.208277363947020E-1    1.778448149730566E-1
 8.189765272250000E9    -5.201857339087165E-1    1.487441207656884E-1   -8.756548063210008E-4   -2.225353469820249E-3   -9.394112398639089E-4   -2.290814908167861E-3   -4.198821121984458E-1    1.799709200478989E-1
 8.189807940000000E9    -5.191509901766624E-1    1.515198026011154E-1   -8.484744168010005E-4   -2.225964978265744E-3   -9.817715731482504E-4   -2.291561077833320E-3   -4.189113188937820E-1    1.821622804616838E-1
 8.189850607750000E9    -5.183632137758237E-1    1.545463788156126E-1   -8.872482788906164E-4   -2.247048132865117E-3   -9.841716641503552E-4   -2.299219736141182E-3   -4.177535903970860E-1    1.841035016673562E-1
 8.189893275500000E9    -5.176084256677344E-1    1.573384287170793E-1   -8.937835272369585E-4   -2.245340569865705E-3   -9.891145194180473E-4   -2.268237034388090E-3   -4.168654647443987E-1    1.862796694473365E-1
 8.189935943250000E9    -5.166365658660043E-1    1.601917084959389E-1   -9.120786074214266E-4   -2.231634605473772E-3   -9.872733880625273E-4   -2.264426071987530E-3   -4.158158309147461E-1    1.883977210023605E-1
 8.189978611000000E9    -5.156347964746479E-1    1.630563822791997E-1   -9.195716851850104E-4   -2.237096176973013E-3   -9.969544377679432E-4   -2.243175373124712E-3   -4.147595633551371E-1    1.906705982063175E-1
 8.190021278750000E9    -5.146881669513561E-1    1.658307520462861E-1   -9.459334309578478E-4   -2.232970509407036E-3   -1.037212895860222E-3   -2.250442479904007E-3   -4.137736814609763E-1    1.926565772860674E-1
 8.190063946500000E9    -5.138131141393087E-1    1.687385552847839E-1   -9.594665112869563E-4   -2.208450533867150E-3   -1.017690048121360E-3   -2.268757614597000E-3   -4.127717250476468E-1    1.949859944604779E-1
 8.190106614250000E9    -5.128553943506075E-1    1.715460597044773E-1   -9.536176169312725E-4   -2.202928228398235E-3   -1.044404487613421E-3   -2.288050616626628E-3   -4.115308602712065E-1    1.971852588995121E-1
 8.190149282000000E9    -5.119020898592431E-1    1.744066579880051E-1   -9.516009144874731E-4   -2.203514356643805E-3   -1.082881278299258E-3   -2.242603416695433E-3   -4.105539870676853E-1    1.992201450560888E-1
 8.190191949750000E9    -5.109699380454170E-1    1.772078119541429E-1   -9.901281657013926E-4   -2.173488856288340E-3   -1.117358004705401E-3   -2.271959773151558E-3   -4.093542872459379E-1    2.012012634762302E-1
 8.190234617500000E9    -5.098748577487200E-1    1.799838391113492E-1   -9.818115159948276E-4   -2.205391732090088E-3   -1.109808082098633E-3   -2.241582753331556E-3   -4.083533283001241E-1    2.033699569506474E-1
 8.190277285250000E9    -5.089332868662699E-1    1.827625349725819E-1   -1.010299378454695E-3   -2.186752064239939E-3   -1.093316648831333E-3   -2.233844950338878E-3   -4.072491569522285E-1    2.054043131017636E-1
 8.190319953000000E9    -5.078090795595382E-1    1.856255735707897E-1   -1.035019325741636E-3   -2.213763736764282E-3   -1.111469460235916E-3   -2.254088532199628E-3   -4.061695955098000E-1    2.075735899083960E-1
 8.190362620750000E9    -5.067598804733573E-1    1.883819974561247E-1   -1.035555369361809E-3   -2.176307120600137E-3   -1.127448305581989E-3   -2.249149257360540E-3   -4.049597323344982E-1    2.095953309740353E-1
 8.190405288500000E9    -5.057513506268903E-1    1.912335743281060E-1   -1.022870226258561E-3   -2.176983239772009E-3   -1.146109632265828E-3   -2.235727981170311E-3   -4.038288128396527E-1    2.117695009532111E-1
 8.190447956250000E9    -5.045822338461605E-1    1.940097375980714E-1   -1.056433428967672E-3   -2.183937756280239E-3   -1.138759335667271E-3   -2.219822349196536E-3   -4.026564735629980E-1    2.137634445858957E-1
 8.190490624000000E9    -5.035766355243140E-1    1.966786611147295E-1   -1.085506018590973E-3   -2.155465994629652E-3   -1.151607888920700E-3   -2.238079443828464E-3   -4.015167612986747E-1    2.157913113985040E-1
 8.190533291750000E9    -5.023810396658043E-1    1.995328019273474E-1   -1.087137077653824E-3   -2.158924751244819E-3   -1.151952530425649E-3   -2.185137750251730E-3   -4.004056859114918E-1    2.180296934243706E-1
 8.190575959500000E9    -5.012153997324889E-1    2.023647216172322E-1   -1.092830006652892E-3   -2.167214132097415E-3   -1.180255795289531E-3   -2.230702560644693E-3   -3.993140102603682E-1    2.200705386843404E-1
 8.190618627250000E9    -5.001577729947690E-1    2.051304534304537E-1   -1.086596868453152E-3   -2.172616486602314E-3   -1.208741774025896E-3   -2.195398959237988E-3   -3.980168315398765E-1    2.220616882084794E-1
 8.190661295000000E9    -4.989079643711083E-1    2.078542638144266E-1   -1.132314568605011E-3   -2.143785761162480E-3   -1.241853115407936E-3   -2.177914801084534E-3   -3.968530141672949E-1    2.240697956502904E-1
 8.190703962750000E9    -4.978117730927421E-1    2.105623945373959E-1   -1.125707993797644E-3   -2.137818448905780E-3   -1.207223260324960E-3   -2.180136444648421E-3   -3.957029652339860E-1    2.260788771907348E-1
 8.190746630500000E9    -4.966155734255446E-1    2.134490598834520E-1   -1.137401227892377E-3   -2.130445789120449E-3   -1.244651951249034E-3   -2.189393771651288E-3   -3.942368242926182E-1    2.281687527020573E-1
 8.190789298250000E9    -4.953396976888066E-1    2.161297774639726E-1   -1.140721272816966E-3   -2.128862976548249E-3   -1.281823162672949E-3   -2.176988414441226E-3   -3.932079391264993E-1    2.302549431007561E-1
 8.190831966000000E9    -4.942017286531399E-1    2.188202194608523E-1   -1.170170536143466E-3   -2.119437564401618E-3   -1.266208670700772E-3   -2.173749392467750E-3   -3.917381490234256E-1    2.322297781919072E-1
 8.190874633750000E9    -4.928925993649800E-1    2.215359900010864E-1   -1.182371174271292E-3   -2.147946458443576E-3   -1.254465020248510E-3   -2.167213670803790E-3   -3.906136473561167E-1    2.341665977416293E-1
 8.190917301500000E9    -4.915238021510138E-1    2.241792308577050E-1   -1.199123499238975E-3   -2.107404657294584E-3   -1.292041403632630E-3   -2.135681496267916E-3   -3.892563061335674E-1    2.362079643834949E-1
 8.190959969250000E9    -4.903814733389380E-1    2.270068990135613E-1   -1.202980137600331E-3   -2.118973876696450E-3   -1.323787786673057E-3   -2.138771453034565E-3   -3.880886733174779E-1    2.381365875386805E-1
 8.191002637000000E9    -4.891467769595401E-1    2.296053515575257E-1   -1.241943608544883E-3   -2.112886938008240E-3   -1.316361415803174E-3   -2.165329661947910E-3   -3.868162183373371E-1    2.401227978095015E-1
 8.191045304750000E9    -4.879210200222688E-1    2.323863050299466E-1   -1.223254975018901E-3   -2.137697011195106E-3   -1.358703206281850E-3   -2.146707266371378E-3   -3.855190616475458E-1    2.420982429754212E-1
 8.191087972500000E9    -4.865929957489413E-1    2.351042842130145E-1   -1.259154121193476E-3   -2.099225414028259E-3   -1.314162264824505E-3   -2.157783849637182E-3   -3.841880018817038E-1    2.442112728457351E-1
 8.191130640250000E9    -4.851741183624206E-1    2.377439075778715E-1   -1.261824064155064E-3   -2.087783632988679E-3   -1.333060272030403E-3   -2.111716161781731E-3   -3.829107581397631E-1    2.460332937225923E-1
 8.191173308000000E9    -4.837640212298925E-1    2.404040784396959E-1   -1.273842437418225E-3   -2.088289567448190E-3   -1.370340158780488E-3   -2.139842812549978E-3   -3.815709987566026E-1    2.481157358165765E-1
 8.191215975750000E9    -4.823982998596815E-1    2.430601828711047E-1   -1.286022912902634E-3   -2.087288021545693E-3   -1.399563929562520E-3   -2.093151154578234E-3   -3.801652394984476E-1    2.499464693125541E-1
 8.191258643500000E9    -4.810048243375139E-1    2.457236112438830E-1   -1.296911514936799E-3   -2.086620818631400E-3   -1.403632613592394E-3   -2.093336384757282E-3   -3.787232807105353E-1    2.518926907741284E-1
 8.191301311250000E9    -4.796485587283574E-1    2.483611381946256E-1   -1.309612489338118E-3   -2.071897704473338E-3   -1.428688303037600E-3   -2.068534412908154E-3   -3.775352755253759E-1    2.539330972888565E-1
 8.191343979000000E9    -4.782853784618276E-1    2.510094945947001E-1   -1.320095885750012E-3   -2.080756345498981E-3   -1.431289015854668E-3   -2.088441030845257E-3   -3.760490382466061E-1    2.558800715654359E-1
 8.191386646750000E9    -4.770206011548974E-1    2.537215660492027E-1   -1.325237181162983E-3   -2.050373550168847E-3   -1.464304029232162E-3   -2.093583918344287E-3   -3.746487743604861E-1    2.578401334091076E-1
 8.191429314500000E9    -4.754953186763851E-1    2.562896019574592E-1   -1.340649791771312E-3   -2.067865883961093E-3   -1.444077897998332E-3   -2.064449379656825E-3   -3.733808817176053E-1    2.597541687104092E-1
 8.191471982250000E9    -4.739848570503076E-1    2.589119937791864E-1   -1.334636844673876E-3   -2.046817353238106E-3   -1.447989961004265E-3   -2.070487867367787E-3   -3.719057514788290E-1    2.617767749539781E-1
 8.191514650000000E9    -4.725569994391902E-1    2.615410380766443E-1   -1.384281563191986E-3   -2.037774867802935E-3   -1.491514758020071E-3   -2.044407823535264E-3   -3.705327388103464E-1    2.635391440556306E-1
 8.191557317750000E9    -4.711176649797085E-1    2.643091804573843E-1   -1.386038272302187E-3   -2.043557882707436E-3   -1.468399878547258E-3   -2.072577250315009E-3   -3.689365312821948E-1    2.654064836657797E-1
 8.191599985500000E9    -4.695332506149515E-1    2.667706654204613E-1   -1.370713278549651E-3   -2.022809202327460E-3   -1.489560108042691E-3   -2.049447493498640E-3   -3.676708701353473E-1    2.673753086754002E-1
 8.191642653250000E9    -4.680679631760104E-1    2.694484829688099E-1   -1.391980275497704E-3   -2.001846748049878E-3   -1.509557984808736E-3   -2.063569536672182E-3   -3.661075591778424E-1    2.693700770668588E-1
 8.191685321000000E9    -4.664469160663557E-1    2.718811262571642E-1   -1.421117602456070E-3   -1.999562910508695E-3   -1.495569302272168E-3   -2.041059122978079E-3   -3.647254681796380E-1    2.710578788412910E-1
 8.191727988750000E9    -4.651350050335283E-1    2.744294109582770E-1   -1.432679742156287E-3   -2.006454537697623E-3   -1.489326081056390E-3   -2.040160867997301E-3   -3.632826096566414E-1    2.729361881506411E-1
 8.191770656500000E9    -4.634687978444673E-1    2.770310217198522E-1   -1.438625188058833E-3   -1.982053652081835E-3   -1.542277142958885E-3   -2.014673549593228E-3   -3.617588701721913E-1    2.748807478728483E-1
