#  HZ   S   RI   R     50.00 
! Rohde & Schwarz Vector Network Analyzer 
! Rohde-Schwarz,ZNB20-2Port,1311601062101988,3.16
! Created: UTC 3/20/2024, 4:53:16 PM
! freq[Hz]                re:S11                  im:S11                  re:S21                  im:S21                  re:S12                  im:S12                  re:S22                  im:S22
 8.193271537000000E9    -4.001783222695163E-1    3.614981657652523E-1   -1.830593215984888E-3   -1.713584350382534E-3   -1.946689247899817E-3   -1.718595594171499E-3   -3.011143333925207E-1    3.347956274029709E-1
 8.193290011750000E9    -3.990942721634264E-1    3.625570540450069E-1   -1.859313907263804E-3   -1.746893638637656E-3   -1.966722701079262E-3   -1.737802625744276E-3   -3.002030807416591E-1    3.354542608410386E-1
 8.193308486500000E9    -3.981596174032767E-1    3.634851747771284E-1   -1.833883256021436E-3   -1.708719274592254E-3   -1.937980284477144E-3   -1.733574209666422E-3   -2.995048396577582E-1    3.360932369778147E-1
 8.193326961250000E9    -3.973608019710005E-1    3.645119358081905E-1   -1.863588298144231E-3   -1.738305043010219E-3   -1.962774022835996E-3   -1.708773316580587E-3   -2.988104399176207E-1    3.367449755863386E-1
 8.193345436000000E9    -3.964324160887471E-1    3.653236901510112E-1   -1.868422325005399E-3   -1.722687271419900E-3   -1.966578347183006E-3   -1.706889978883457E-3   -2.980862206694128E-1    3.374361782297821E-1
 8.193363910750000E9    -3.955745023254597E-1    3.664528659814926E-1   -1.869503277299743E-3   -1.744607991513681E-3   -1.987551754819023E-3   -1.680653043682513E-3   -2.972213194296093E-1    3.379500585133579E-1
 8.193382385500000E9    -3.946479569333418E-1    3.674063898223654E-1   -1.848282831205779E-3   -1.682101303426685E-3   -1.956064565006247E-3   -1.700609031634519E-3   -2.963936911384809E-1    3.387313151539456E-1
 8.193400860250000E9    -3.938272318571217E-1    3.682653120355632E-1   -1.847752133759700E-3   -1.700651023093381E-3   -1.979135579260273E-3   -1.700765521064477E-3   -2.956809053759221E-1    3.393263094937737E-1
 8.193419335000000E9    -3.927948337494674E-1    3.691249660849473E-1   -1.872174400124936E-3   -1.689952604119241E-3   -1.973579297065248E-3   -1.670225925737077E-3   -2.947482292083659E-1    3.400496975892510E-1
 8.193437809750000E9    -3.919342299295486E-1    3.701682528265117E-1   -1.866527658350384E-3   -1.700535039365301E-3   -1.978515512272903E-3   -1.657643727186832E-3   -2.939748415523185E-1    3.406475323444810E-1
 8.193456284500000E9    -3.910047784788221E-1    3.710052527289371E-1   -1.925687799681397E-3   -1.704520737106943E-3   -1.995712805739151E-3   -1.645931386107416E-3   -2.932021726877996E-1    3.412363372560477E-1
 8.193474759250000E9    -3.900994678897394E-1    3.720170817712748E-1   -1.896355602808943E-3   -1.689363705373255E-3   -2.027431169294369E-3   -1.647675996331113E-3   -2.924050478320805E-1    3.419110223106572E-1
 8.193493234000000E9    -3.892972477818950E-1    3.730271307991854E-1   -1.877490658607049E-3   -1.692563084938514E-3   -2.002283723989936E-3   -1.695577254439445E-3   -2.916179222469590E-1    3.425415226278772E-1
 8.193511708750000E9    -3.883560309753242E-1    3.738975647462451E-1   -1.903481930941924E-3   -1.666592555397781E-3   -1.990605432813296E-3   -1.643062524903347E-3   -2.907912424968991E-1    3.432117198380821E-1
 8.193530183500000E9    -3.874562750454099E-1    3.748569006796998E-1   -1.897658397490510E-3   -1.677132844015869E-3   -2.030472304030625E-3   -1.683680091492175E-3   -2.900414564791298E-1    3.439185781529654E-1
 8.193548658250000E9    -3.865332476811322E-1    3.757494346673107E-1   -1.909508577955316E-3   -1.665434000755778E-3   -2.000749417291672E-3   -1.648277785292284E-3   -2.892380534827502E-1    3.447053314906986E-1
 8.193567133000000E9    -3.856321898297922E-1    3.766999826751010E-1   -1.912365954805642E-3   -1.656656073516557E-3   -2.062893968683317E-3   -1.645829909096384E-3   -2.884465878907272E-1    3.452115412803113E-1
 8.193585607750000E9    -3.846574667090790E-1    3.777103448664104E-1   -1.905040645573595E-3   -1.684334086496163E-3   -2.049889946117580E-3   -1.653002989521456E-3   -2.875743029005113E-1    3.459523402074352E-1
 8.193604082500000E9    -3.837800627031088E-1    3.785366288926094E-1   -1.938998709458135E-3   -1.643359905575398E-3   -2.017491728718290E-3   -1.648103737969128E-3   -2.867781384651220E-1    3.464235148346830E-1
 8.193622557250000E9    -3.828321187000144E-1    3.794614333920419E-1   -1.936086799306471E-3   -1.657428490159499E-3   -2.045690088400725E-3   -1.627759954235254E-3   -2.860105589594847E-1    3.470261639864725E-1
 8.193641032000000E9    -3.818973434662217E-1    3.804259679651266E-1   -1.934251586308556E-3   -1.643764056191718E-3   -2.013838478954147E-3   -1.639000210785133E-3   -2.852424262116948E-1    3.478185371097290E-1
 8.193659506750000E9    -3.810381987356435E-1    3.812786877390480E-1   -1.941234987906246E-3   -1.655053629403588E-3   -2.048727564610987E-3   -1.613403031971916E-3   -2.843087351905920E-1    3.482932893641999E-1
 8.193677981500000E9    -3.799887385582659E-1    3.823232137718024E-1   -1.937884514464057E-3   -1.651313400808611E-3   -2.083611363953455E-3   -1.617451633779071E-3   -2.835951542071335E-1    3.489419271002711E-1
 8.193696456250000E9    -3.791729690674808E-1    3.831531853033839E-1   -1.950621069722234E-3   -1.644076807662099E-3   -2.041873684279601E-3   -1.621259555276393E-3   -2.827294241532000E-1    3.495861613283374E-1
 8.193714931000000E9    -3.782974419864988E-1    3.839724995816589E-1   -1.959545836609153E-3   -1.631884117484397E-3   -2.082957300634217E-3   -1.627974649984367E-3   -2.819945854603264E-1    3.501960006387199E-1
 8.193733405750000E9    -3.772019065247373E-1    3.849342627214327E-1   -1.959407739617883E-3   -1.630662178887919E-3   -2.031052082596616E-3   -1.598470030161797E-3   -2.811997724870389E-1    3.509015182988404E-1
 8.193751880500000E9    -3.762139187536223E-1    3.858441126761775E-1   -1.950964157198179E-3   -1.633711577673604E-3   -2.095521219656532E-3   -1.613410859690018E-3   -2.802416065193155E-1    3.514725972589706E-1
 8.193770355250000E9    -3.753361241425697E-1    3.865969920156945E-1   -1.937225472527253E-3   -1.634813223901490E-3   -2.074504617374491E-3   -1.603789358965747E-3   -2.795360825726192E-1    3.520974927640100E-1
 8.193788830000000E9    -3.742820339967791E-1    3.875935099269149E-1   -1.949660708188829E-3   -1.629323507448176E-3   -2.069998140948804E-3   -1.621130082552986E-3   -2.787737038306882E-1    3.527113941962867E-1
 8.193807304750000E9    -3.734414296923722E-1    3.886099471960677E-1   -1.981894868546146E-3   -1.611235064522670E-3   -2.081353555403224E-3   -1.605312761234876E-3   -2.779068444024842E-1    3.533813190693162E-1
 8.193825779500000E9    -3.725297485487339E-1    3.894607118928072E-1   -1.980527000007443E-3   -1.626658121334845E-3   -2.094227360818820E-3   -1.624882007298116E-3   -2.770766049334559E-1    3.538815738280633E-1
 8.193844254250000E9    -3.715272359170579E-1    3.902491443478321E-1   -1.983625244159800E-3   -1.620995064523812E-3   -2.093820492449152E-3   -1.579322749515229E-3   -2.760672550367874E-1    3.544879096262437E-1
 8.193862729000000E9    -3.705504621148515E-1    3.911319087152690E-1   -1.976258780026969E-3   -1.594374104084537E-3   -2.077537120844534E-3   -1.584910694566073E-3   -2.753803648412075E-1    3.551720879306471E-1
 8.193881203750000E9    -3.696586654364579E-1    3.920826404947867E-1   -1.979147566974926E-3   -1.608101971940499E-3   -2.101070028433871E-3   -1.558180757801912E-3   -2.743762457358165E-1    3.558223604197095E-1
 8.193899678500000E9    -3.685968455963348E-1    3.929784897090711E-1   -2.015634012632555E-3   -1.614238700954031E-3   -2.116838273325111E-3   -1.543938498073563E-3   -2.737778624709450E-1    3.563229612219462E-1
 8.193918153250000E9    -3.676582477820565E-1    3.938932514951631E-1   -1.996012865974120E-3   -1.589556522634665E-3   -2.119838121696818E-3   -1.532959474354911E-3   -2.727884247958223E-1    3.569425910032686E-1
 8.193936628000000E9    -3.666923449044652E-1    3.947453926453703E-1   -2.019725483534394E-3   -1.577892135134179E-3   -2.105517779162390E-3   -1.551352862923293E-3   -2.718925151942964E-1    3.575362992119563E-1
 8.193955102750000E9    -3.659129185910147E-1    3.957300049928432E-1   -2.021643401485810E-3   -1.563013671124557E-3   -2.132180502173625E-3   -1.545844048277063E-3   -2.713504014902229E-1    3.581634855401131E-1
 8.193973577500000E9    -3.648380496163904E-1    3.965445128561050E-1   -2.017848710626891E-3   -1.588995472781714E-3   -2.160634879055823E-3   -1.567918339573868E-3   -2.703636588283349E-1    3.588541898447700E-1
 8.193992052250000E9    -3.638940689572299E-1    3.974023374836919E-1   -2.043057650030567E-3   -1.553679741958539E-3   -2.102490532919792E-3   -1.536966733400638E-3   -2.695691495279008E-1    3.592913832648724E-1
 8.194010527000000E9    -3.629546448767657E-1    3.982334786286545E-1   -2.049159289112664E-3   -1.592894233269627E-3   -2.124621226039077E-3   -1.546608268832177E-3   -2.685875929643228E-1    3.600604066415416E-1
 8.194029001750000E9    -3.618186150899607E-1    3.990710086889779E-1   -2.032089164807754E-3   -1.567238043629170E-3   -2.140459142163333E-3   -1.514834915966219E-3   -2.677716290045036E-1    3.605751292090564E-1
 8.194047476500000E9    -3.609610953513612E-1    3.999509102947346E-1   -2.000123137499603E-3   -1.556078261206630E-3   -2.153631819833199E-3   -1.520079490807967E-3   -2.668898708558798E-1    3.611996520069553E-1
 8.194065951250000E9    -3.599842822465443E-1    4.007379144638363E-1   -2.057288891954754E-3   -1.536607166814084E-3   -2.121034493218074E-3   -1.517689904137087E-3   -2.662334428745406E-1    3.617532890488721E-1
 8.194084426000000E9    -3.590074601432579E-1    4.016772303097675E-1   -2.035636848787764E-3   -1.551422904778433E-3   -2.128712624220942E-3   -1.522025851880226E-3   -2.653168340588893E-1    3.623624674228813E-1
 8.194102900750000E9    -3.579596837584319E-1    4.024953960920252E-1   -2.056462288107177E-3   -1.517605900225931E-3   -2.136211080568296E-3   -1.508943420664792E-3   -2.644336477347847E-1    3.628779737850246E-1
 8.194121375500000E9    -3.569133024244697E-1    4.033723196275536E-1   -2.046740104921125E-3   -1.544045087253374E-3   -2.170939296602481E-3   -1.530605365716365E-3   -2.634630626318011E-1    3.635037162826468E-1
 8.194139850250000E9    -3.560036032465617E-1    4.042768133291438E-1   -2.029261941731463E-3   -1.552824273455466E-3   -2.151250281326378E-3   -1.522592063389896E-3   -2.627359820251811E-1    3.641935240689645E-1
 8.194158325000000E9    -3.549276689901705E-1    4.050180877557346E-1   -2.071563264612511E-3   -1.552425710013728E-3   -2.167288547596715E-3   -1.504545634241058E-3   -2.618610979213377E-1    3.646113082531866E-1
 8.194176799750000E9    -3.540795287297188E-1    4.060130034529638E-1   -2.094851715866927E-3   -1.513432391258636E-3   -2.148203068767307E-3   -1.491206734864300E-3   -2.611593030280302E-1    3.654019879410779E-1
 8.194195274500000E9    -3.530242915032052E-1    4.066689260570157E-1   -2.073528269548034E-3   -1.530043890757673E-3   -2.150083759956236E-3   -1.479742175909871E-3   -2.601655307599552E-1    3.658975799698840E-1
 8.194213749250000E9    -3.520622126576678E-1    4.076122315954680E-1   -2.091102206878561E-3   -1.542994428644758E-3   -2.229531182177978E-3   -1.502215227631918E-3   -2.592655861345213E-1    3.663432501870620E-1
 8.194232224000000E9    -3.510705728083975E-1    4.085167075688333E-1   -2.095695274175873E-3   -1.526530079994937E-3   -2.186563006542928E-3   -1.490729725032873E-3   -2.585088015300570E-1    3.669335622445750E-1
 8.194250698750000E9    -3.500789491910896E-1    4.093930353015905E-1   -2.049635042023667E-3   -1.505850624386962E-3   -2.199955944687748E-3   -1.464745645789587E-3   -2.575628091206968E-1    3.675017351174434E-1
 8.194269173500000E9    -3.490176017183637E-1    4.100973690091105E-1   -2.078668281429064E-3   -1.509776797072437E-3   -2.196038377104549E-3   -1.455375096043688E-3   -2.566760269201109E-1    3.680712548283423E-1
 8.194287648250000E9    -3.480407516448206E-1    4.107806997554329E-1   -2.105570708535257E-3   -1.520370876296353E-3   -2.228354025940974E-3   -1.480567709977803E-3   -2.558967151713820E-1    3.687655254012816E-1
 8.194306123000000E9    -3.470204538994238E-1    4.118125061608538E-1   -2.108682918330511E-3   -1.493939913311716E-3   -2.196778062266902E-3   -1.472197283476238E-3   -2.550183258531954E-1    3.693417122763332E-1
 8.194324597750000E9    -3.461012492428100E-1    4.125920251679506E-1   -2.094973022569449E-3   -1.498617616804925E-3   -2.210351071896186E-3   -1.490931310279730E-3   -2.542897784525026E-1    3.698398238814609E-1
 8.194343072500000E9    -3.449642663554690E-1    4.134679443585135E-1   -2.098150835840476E-3   -1.492636784051571E-3   -2.226123461425504E-3   -1.473614566726173E-3   -2.534165934077997E-1    3.703946666210662E-1
 8.194361547250000E9    -3.440762406705517E-1    4.143167875322777E-1   -2.153455191786401E-3   -1.479717604319962E-3   -2.197204134909817E-3   -1.464422006039659E-3   -2.525610425040174E-1    3.708599026861146E-1
 8.194380022000000E9    -3.429225212494453E-1    4.151215054779741E-1   -2.132101687602441E-3   -1.472989705367107E-3   -2.235065712880844E-3   -1.413833065060294E-3   -2.516953126609395E-1    3.714594636728215E-1
 8.194398496750000E9    -3.420780278666378E-1    4.159489634690060E-1   -2.137050790342684E-3   -1.506324840128805E-3   -2.224878209290857E-3   -1.432745933935791E-3   -2.507269104222309E-1    3.719947868293599E-1
 8.194416971500000E9    -3.410003566733069E-1    4.166932266806754E-1   -2.117461725684271E-3   -1.467275980249886E-3   -2.230590269681592E-3   -1.423291642415744E-3   -2.498971376677722E-1    3.726317578564202E-1
 8.194435446250000E9    -3.400541651727115E-1    4.173856713175805E-1   -2.122087970004850E-3   -1.477834650776779E-3   -2.234545114207538E-3   -1.408715228036943E-3   -2.491702039595459E-1    3.730618041253330E-1
 8.194453921000000E9    -3.388650413638619E-1    4.183342115912553E-1   -2.130515502637300E-3   -1.463843991680376E-3   -2.253130904648368E-3   -1.433369411206559E-3   -2.480941504811709E-1    3.737224920944195E-1
 8.194472395750000E9    -3.379853980805745E-1    4.190796477340385E-1   -2.144963679504825E-3   -1.455811750656644E-3   -2.247540630555009E-3   -1.405386065673776E-3   -2.473204462581778E-1    3.743780175071940E-1
 8.194490870500000E9    -3.368050739451818E-1    4.198813521450276E-1   -2.136520367841410E-3   -1.468930883424137E-3   -2.249557219085962E-3   -1.445366081860620E-3   -2.462828573096048E-1    3.746795878819614E-1
 8.194509345250000E9    -3.358938465155673E-1    4.207375189034587E-1   -2.154473709735131E-3   -1.484010955814159E-3   -2.230280634418862E-3   -1.407387383180209E-3   -2.455130842423721E-1    3.754507003535513E-1
 8.194527820000000E9    -3.349016958873102E-1    4.214501418565779E-1   -2.156061089074724E-3   -1.468642222966642E-3   -2.231174304042935E-3   -1.435361620849676E-3   -2.446813243502144E-1    3.759163248418644E-1
 8.194546294750000E9    -3.339063587781089E-1    4.223384131625538E-1   -2.173804661412323E-3   -1.430047469613221E-3   -2.244147495282370E-3   -1.412995644870156E-3   -2.437166845053389E-1    3.763722537874243E-1
 8.194564769500000E9    -3.328402143425296E-1    4.231448862753209E-1   -2.173894865203130E-3   -1.425828101354510E-3   -2.262746338962725E-3   -1.393563160143348E-3   -2.429122853207038E-1    3.768329287504557E-1
 8.194583244250000E9    -3.318733370820733E-1    4.239146292219108E-1   -2.141949997697843E-3   -1.436398017257467E-3   -2.257308262283763E-3   -1.413713273493633E-3   -2.418713497408044E-1    3.773593459846635E-1
 8.194601719000000E9    -3.306443760507708E-1    4.247525883912951E-1   -2.180798284598653E-3   -1.456293003254996E-3   -2.267099199376674E-3   -1.368658619644629E-3   -2.411391139256055E-1    3.779814870522254E-1
 8.194620193750000E9    -3.297344854088862E-1    4.255586902935958E-1   -2.177314737482125E-3   -1.457338950385700E-3   -2.275978586007276E-3   -1.367407507861864E-3   -2.401397408995896E-1    3.786440872317698E-1
 8.194638668500000E9    -3.285962949404852E-1    4.262296476728711E-1   -2.182010957586654E-3   -1.431066714920772E-3   -2.292147995778939E-3   -1.395863440643308E-3   -2.392854578111103E-1    3.790579384060656E-1
 8.194657143250000E9    -3.276333020159262E-1    4.271928707877474E-1   -2.179200568095644E-3   -1.381678586991260E-3   -2.295468633950250E-3   -1.356406354309668E-3   -2.384947133266318E-1    3.795838122501016E-1
 8.194675618000000E9    -3.264903538395733E-1    4.278235488356711E-1   -2.180547914155088E-3   -1.405830836131478E-3   -2.275588839455992E-3   -1.367600535746160E-3   -2.375777391567724E-1    3.800742854466942E-1
 8.194694092750000E9    -3.254946045029446E-1    4.287772719328247E-1   -2.190813272231093E-3   -1.414825581336773E-3   -2.287600228589068E-3   -1.379848968535884E-3   -2.366595399891168E-1    3.807367878457042E-1
 8.194712567500000E9    -3.243621693194520E-1    4.294506051613656E-1   -2.223992318274417E-3   -1.390809623557323E-3   -2.287774590987162E-3   -1.365040366185381E-3   -2.357742400098221E-1    3.812649159576977E-1
 8.194731042250000E9    -3.233984090130037E-1    4.302344634752879E-1   -2.212130560628689E-3   -1.389598615659799E-3   -2.269753250433891E-3   -1.360581010723807E-3   -2.349644803680667E-1    3.816681272196892E-1
 8.194749517000000E9    -3.223595521043988E-1    4.310781513507551E-1   -2.177266100210940E-3   -1.403041892332875E-3   -2.317820400441878E-3   -1.328302549680651E-3   -2.340251537266037E-1    3.820823127833917E-1
 8.194767991750000E9    -3.213152474830367E-1    4.318098407719305E-1   -2.217199968998845E-3   -1.379155254635782E-3   -2.330566525642727E-3   -1.371231905713884E-3   -2.331803011560949E-1    3.826126366249030E-1
 8.194786466500000E9    -3.202384044197262E-1    4.325236889885910E-1   -2.223769326075977E-3   -1.371467001631781E-3   -2.348133849211058E-3   -1.348318344539356E-3   -2.322186089880113E-1    3.831881793217583E-1
 8.194804941250000E9    -3.192059153953456E-1    4.333338042502627E-1   -2.214820469990397E-3   -1.370459564050919E-3   -2.317399992067474E-3   -1.367264902336902E-3   -2.314221728145327E-1    3.838108827034777E-1
 8.194823416000000E9    -3.181513737769120E-1    4.340208905160202E-1   -2.232132321118817E-3   -1.373753139732168E-3   -2.318073985359585E-3   -1.363944583153764E-3   -2.304460395472494E-1    3.843253405598237E-1
 8.194841890750000E9    -3.170481562538412E-1    4.346791601752344E-1   -2.213556775744346E-3   -1.348236368645932E-3   -2.334150470085894E-3   -1.331708884998506E-3   -2.294836565175336E-1    3.847442294245703E-1
 8.194860365500000E9    -3.159566377007464E-1    4.356516694669618E-1   -2.262110424162813E-3   -1.378691480139731E-3   -2.348454900026792E-3   -1.316590166581141E-3   -2.286662309073878E-1    3.851793574970093E-1
 8.194878840250000E9    -3.148632761766958E-1    4.362896975923456E-1   -2.228805542502365E-3   -1.358944749027437E-3   -2.349975993561774E-3   -1.307802107829018E-3   -2.276707146184447E-1    3.857397019741870E-1
 8.194897315000000E9    -3.137502598442353E-1    4.370541756178984E-1   -2.239019328299487E-3   -1.361006366534079E-3   -2.354868988106676E-3   -1.290060586932710E-3   -2.267166120771262E-1    3.861905760515684E-1
 8.194915789750000E9    -3.128211307420020E-1    4.378316142413683E-1   -2.231867714868040E-3   -1.369932956832768E-3   -2.334817483662723E-3   -1.305472936461794E-3   -2.258980702867364E-1    3.868461141385858E-1
 8.194934264500000E9    -3.116944237949325E-1    4.385705252232645E-1   -2.257534923982048E-3   -1.339120015953856E-3   -2.340628473397962E-3   -1.312233570437390E-3   -2.249459098776936E-1    3.873095053515591E-1
