#  HZ   S   RI   R     50.00 
! Rohde & Schwarz Vector Network Analyzer 
! Rohde-Schwarz,ZNB20-2Port,1311601062101988,3.16
! Created: UTC 3/20/2024, 4:53:21 PM
! freq[Hz]                re:S11                  im:S11                  re:S21                  im:S21                  re:S12                  im:S12                  re:S22                  im:S22
 8.193299459000000E9    -3.987603263099660E-1    3.629504280611843E-1   -1.842241450706242E-3   -1.738727246580067E-3   -1.963083120825419E-3   -1.751786193545368E-3   -2.999937066766119E-1    3.357233317205566E-1
 8.193317798125000E9    -3.978086725526744E-1    3.640055190667525E-1   -1.846314845672820E-3   -1.706992649015770E-3   -1.920266438676330E-3   -1.694431381173447E-3   -2.990669030162070E-1    3.363838783558049E-1
 8.193336137250000E9    -3.968940610167561E-1    3.650777626609898E-1   -1.842187543052877E-3   -1.738983689411916E-3   -1.969872132106521E-3   -1.692145243960379E-3   -2.983634946782849E-1    3.370662050951975E-1
 8.193354476375000E9    -3.960853123326508E-1    3.659300896761936E-1   -1.850253337220647E-3   -1.718256700686205E-3   -1.951384122994577E-3   -1.708410020849746E-3   -2.975807452913785E-1    3.376623034511428E-1
 8.193372815500000E9    -3.951047454166362E-1    3.670021629691398E-1   -1.867876525444286E-3   -1.731376120217997E-3   -1.931453660419090E-3   -1.719089906191969E-3   -2.969627235423439E-1    3.383351262177972E-1
 8.193391154625000E9    -3.943175219337230E-1    3.677667393430095E-1   -1.870908667415731E-3   -1.668360130309428E-3   -1.970405219924479E-3   -1.664901747061334E-3   -2.960446674010193E-1    3.389374669713304E-1
 8.193409493750000E9    -3.933431646295334E-1    3.687276487667379E-1   -1.846695360752009E-3   -1.705758717461998E-3   -1.992081061505876E-3   -1.705440898301907E-3   -2.953631485046187E-1    3.396253734185243E-1
 8.193427832875000E9    -3.925534523396889E-1    3.697201821784701E-1   -1.875897400819540E-3   -1.693169947375542E-3   -1.983352166877329E-3   -1.687608243956017E-3   -2.944391990569561E-1    3.402295768752424E-1
 8.193446172000000E9    -3.915117946758079E-1    3.705808149588715E-1   -1.897904909243678E-3   -1.654443383589502E-3   -1.998186335362124E-3   -1.709682109318919E-3   -2.937175001873600E-1    3.408712167188898E-1
 8.193464511125000E9    -3.906089205158492E-1    3.716568114951218E-1   -1.915138740232973E-3   -1.689431903051711E-3   -1.988010917536469E-3   -1.655481428161921E-3   -2.929354053342104E-1    3.415012939085595E-1
 8.193482850250000E9    -3.897913982730856E-1    3.725008270487173E-1   -1.886270369174625E-3   -1.681753753687687E-3   -2.006667200360124E-3   -1.671623310428811E-3   -2.921196141463333E-1    3.421306401917868E-1
 8.193501189375000E9    -3.888001346041760E-1    3.733390351309522E-1   -1.896166168480497E-3   -1.679698097180035E-3   -2.015193569074859E-3   -1.658163344245403E-3   -2.912637673416720E-1    3.428330015507217E-1
 8.193519528500000E9    -3.880511126034764E-1    3.743419991159271E-1   -1.897801932682193E-3   -1.687555383714162E-3   -2.005214969663650E-3   -1.672899028891156E-3   -2.906188034928095E-1    3.434419454638010E-1
 8.193537867625000E9    -3.870506896107134E-1    3.753440391530954E-1   -1.895634166716759E-3   -1.674825349425188E-3   -2.025186876629353E-3   -1.632808331135987E-3   -2.896320945523476E-1    3.442250422217971E-1
 8.193556206750000E9    -3.861479054826334E-1    3.761943624937226E-1   -1.878858982295340E-3   -1.677930086809584E-3   -2.011409604989751E-3   -1.622588762583198E-3   -2.890007006024695E-1    3.448298790499357E-1
 8.193574545875000E9    -3.852854577499097E-1    3.770143504242818E-1   -1.909284233861673E-3   -1.663145014216209E-3   -2.041540332383134E-3   -1.614489893436494E-3   -2.882204691974718E-1    3.453838497205101E-1
 8.193592885000000E9    -3.842932035863451E-1    3.780477360227114E-1   -1.915890616289642E-3   -1.680155724398765E-3   -1.982726133757805E-3   -1.629300107315717E-3   -2.873286593828715E-1    3.461663779365940E-1
 8.193611224125000E9    -3.833736006092405E-1    3.788764509823107E-1   -1.941565022872456E-3   -1.645141008979667E-3   -2.057205614228078E-3   -1.673513091708242E-3   -2.864345501947720E-1    3.465641252653577E-1
 8.193629563250000E9    -3.825060967897139E-1    3.799132887767435E-1   -1.929161289053387E-3   -1.653662972891043E-3   -2.027245878966776E-3   -1.634102189809709E-3   -2.858468154090893E-1    3.473230377536330E-1
 8.193647902375000E9    -3.815836585438249E-1    3.806969151337758E-1   -1.933842353743035E-3   -1.640441143231874E-3   -2.028452485180238E-3   -1.633737008089421E-3   -2.850517223862784E-1    3.479570124741181E-1
 8.193666241500000E9    -3.806787275531060E-1    3.816276062314625E-1   -1.923530950672317E-3   -1.651305384855640E-3   -2.033190077279153E-3   -1.631160253108667E-3   -2.842333906342050E-1    3.485424447745391E-1
 8.193684580625000E9    -3.797257143801202E-1    3.825655841086901E-1   -1.943218218816239E-3   -1.636513772577849E-3   -2.059585866512102E-3   -1.603504493939938E-3   -2.833641580789945E-1    3.491777661079841E-1
 8.193702919750000E9    -3.788996941715278E-1    3.834941367336463E-1   -1.930005092918192E-3   -1.668635779109572E-3   -2.053701360166802E-3   -1.594896020082480E-3   -2.824627462117296E-1    3.498916515954381E-1
 8.193721258875000E9    -3.779513648844669E-1    3.842775666991999E-1   -1.958596832730987E-3   -1.625453399718151E-3   -2.034275045041636E-3   -1.623591644435086E-3   -2.816281920760320E-1    3.505822635402460E-1
 8.193739598000000E9    -3.770345514178134E-1    3.851841673317502E-1   -1.953333004912268E-3   -1.616121362487488E-3   -2.045911654685996E-3   -1.587978238849521E-3   -2.809325837948042E-1    3.509794938105293E-1
 8.193757937125000E9    -3.759335905383464E-1    3.861166709528572E-1   -1.943764116406463E-3   -1.624974559680662E-3   -2.081818403201767E-3   -1.616931609336438E-3   -2.802001360450375E-1    3.516343498159321E-1
 8.193776276250000E9    -3.750001372378221E-1    3.869208899185422E-1   -1.976239013115584E-3   -1.628950675381827E-3   -2.066717059679156E-3   -1.643437668607887E-3   -2.792272686779655E-1    3.522101408085923E-1
 8.193794615375000E9    -3.742090032902550E-1    3.878871990325577E-1   -1.991669274579473E-3   -1.599299528139271E-3   -2.085114873200367E-3   -1.621257960969050E-3   -2.783921456317600E-1    3.527551575553169E-1
 8.193812954500000E9    -3.730861699622785E-1    3.887834255303908E-1   -1.962664801353990E-3   -1.615599843641141E-3   -2.077057976784850E-3   -1.613006104239870E-3   -2.774521789203427E-1    3.534117888070737E-1
 8.193831293625000E9    -3.721638830689831E-1    3.896962431364591E-1   -1.986371079279606E-3   -1.626252057774175E-3   -2.079451048111321E-3   -1.624455158209618E-3   -2.768802351885620E-1    3.540201650105803E-1
 8.193849632750000E9    -3.713328857713135E-1    3.905979174591224E-1   -1.990171434834447E-3   -1.600186205179837E-3   -2.106872152502757E-3   -1.572441924356791E-3   -2.760289889514604E-1    3.546887710958779E-1
 8.193867971875000E9    -3.703196733931308E-1    3.913429294674681E-1   -1.982844495176370E-3   -1.609991054769661E-3   -2.109697788613958E-3   -1.572207344635410E-3   -2.751725036821130E-1    3.553617138376216E-1
 8.193886311000000E9    -3.692522152824176E-1    3.924828478404222E-1   -1.988225198479714E-3   -1.592839663254841E-3   -2.113547765877843E-3   -1.553949905769126E-3   -2.743225869877463E-1    3.559252895495253E-1
 8.193904650125000E9    -3.684351714541701E-1    3.932295269951360E-1   -1.993521577903226E-3   -1.608144211033288E-3   -2.109149158639322E-3   -1.577133574660974E-3   -2.735179814565619E-1    3.565440697892137E-1
 8.193922989250000E9    -3.674139868994264E-1    3.941096338277290E-1   -1.997078002085899E-3   -1.585000140667390E-3   -2.111143444986194E-3   -1.575791168435391E-3   -2.726137154799585E-1    3.571505245285886E-1
 8.193941328375000E9    -3.664261406564439E-1    3.950479519038599E-1   -1.990567168098626E-3   -1.575608192498113E-3   -2.124262958237948E-3   -1.533066398535209E-3   -2.719662173080133E-1    3.577146567461715E-1
 8.193959667500000E9    -3.656362627226412E-1    3.958021389008380E-1   -2.015091123327066E-3   -1.560996958166726E-3   -2.112375156846173E-3   -1.572939419011483E-3   -2.710044848447896E-1    3.584277380668325E-1
 8.193978006625000E9    -3.646182412202034E-1    3.967025593502269E-1   -2.011820304739086E-3   -1.587039860770916E-3   -2.110579456635519E-3   -1.566576088614896E-3   -2.701865417469030E-1    3.589089976207335E-1
 8.193996345750000E9    -3.636799513277702E-1    3.975705768785757E-1   -2.003912394514192E-3   -1.553121059902770E-3   -2.122707287746758E-3   -1.562792691842363E-3   -2.693902548553284E-1    3.594816121400342E-1
 8.194014684875000E9    -3.627092128071086E-1    3.983567475781171E-1   -2.029236353373817E-3   -1.556036407214988E-3   -2.141818306769922E-3   -1.534241927499065E-3   -2.687045755002367E-1    3.601077443532236E-1
 8.194033024000000E9    -3.617101132294278E-1    3.993056437334281E-1   -2.018322093617469E-3   -1.587719733635579E-3   -2.145214156890322E-3   -1.525857540987740E-3   -2.676815442467024E-1    3.606498242812916E-1
 8.194051363125000E9    -3.606827154095158E-1    4.001631332703949E-1   -2.048559246042149E-3   -1.540561171925132E-3   -2.154823898243177E-3   -1.539962584891822E-3   -2.667313887287623E-1    3.613139757279639E-1
 8.194069702250000E9    -3.599168876817850E-1    4.009948617565662E-1   -2.040182008636992E-3   -1.558863342815682E-3   -2.149369607407270E-3   -1.558819468074571E-3   -2.661376124466523E-1    3.619067317250189E-1
 8.194088041375000E9    -3.587329823979467E-1    4.018718378003757E-1   -2.050965419631484E-3   -1.532146939629349E-3   -2.149196424087990E-3   -1.533406573340101E-3   -2.651880273651325E-1    3.624433371205690E-1
 8.194106380500000E9    -3.578062718370833E-1    4.027130880568487E-1   -2.037248105792535E-3   -1.548975038470885E-3   -2.165139836354546E-3   -1.499524917558464E-3   -2.642873590961952E-1    3.630815930088445E-1
 8.194124719625000E9    -3.568746839210413E-1    4.035118103548016E-1   -2.065733758948000E-3   -1.527114716290225E-3   -2.187219058540043E-3   -1.493001803378443E-3   -2.634398332577235E-1    3.635673562990031E-1
 8.194143058750000E9    -3.558581244477154E-1    4.043808632539314E-1   -2.068290869265143E-3   -1.520611477182072E-3   -2.170874549178817E-3   -1.535340603198747E-3   -2.626720698712766E-1    3.641492146140896E-1
 8.194161397875000E9    -3.548471189811398E-1    4.053930596885411E-1   -2.062093820346268E-3   -1.537574433589707E-3   -2.148855152614860E-3   -1.539331879794942E-3   -2.617518815568132E-1    3.647919083046987E-1
 8.194179737000000E9    -3.538217142918193E-1    4.060065035131404E-1   -2.033750014339630E-3   -1.529995411556169E-3   -2.171113882313412E-3   -1.511548454340649E-3   -2.609615723832562E-1    3.652884041569689E-1
 8.194198076125000E9    -3.530253048775199E-1    4.069724411212128E-1   -2.101918027382836E-3   -1.514678826179802E-3   -2.164729850727043E-3   -1.508606756713759E-3   -2.601212798162236E-1    3.661032020316188E-1
 8.194216415250000E9    -3.518516557576544E-1    4.077152840573147E-1   -2.067620573355504E-3   -1.535255610970709E-3   -2.191271413192574E-3   -1.489677151189985E-3   -2.593406086094944E-1    3.664907458032188E-1
 8.194234754375000E9    -3.508385591759778E-1    4.086996750602264E-1   -2.071937485092133E-3   -1.515248000780747E-3   -2.197122622973466E-3   -1.481029990742894E-3   -2.583789597943918E-1    3.670150989414850E-1
 8.194253093500000E9    -3.499785226640192E-1    4.092977476166714E-1   -2.069752399114485E-3   -1.544281858773963E-3   -2.165116891985864E-3   -1.492417136748817E-3   -2.574204508151229E-1    3.677420675446348E-1
 8.194271432625000E9    -3.489290136600606E-1    4.101753905511286E-1   -2.060276766031099E-3   -1.502815356491289E-3   -2.195010780822278E-3   -1.439931591669600E-3   -2.566593544255882E-1    3.680851425300965E-1
 8.194289771750000E9    -3.479969080170096E-1    4.109706542558490E-1   -2.110680225317475E-3   -1.523233453529913E-3   -2.179064477892045E-3   -1.482139992272946E-3   -2.558739098419919E-1    3.687217947585532E-1
 8.194308110875000E9    -3.469801253445560E-1    4.118841960961249E-1   -2.061609180017192E-3   -1.472710332864939E-3   -2.218214700430235E-3   -1.459416214079617E-3   -2.550767865576137E-1    3.693378213068714E-1
 8.194326450000000E9    -3.459316535089306E-1    4.127561483607798E-1   -2.123220086325261E-3   -1.511990259128487E-3   -2.222168408970660E-3   -1.469121888581980E-3   -2.541696563935341E-1    3.697748343909697E-1
 8.194344789125000E9    -3.449305271767352E-1    4.136052161068585E-1   -2.089230451294283E-3   -1.458674758589687E-3   -2.210214452896634E-3   -1.471598671190353E-3   -2.532286114083682E-1    3.703486402181548E-1
 8.194363128250000E9    -3.439293979168966E-1    4.143759250278720E-1   -2.131071411998310E-3   -1.472178808330045E-3   -2.227021760787210E-3   -1.410677526158631E-3   -2.524792897177194E-1    3.710303220296629E-1
 8.194381467375000E9    -3.429557204030826E-1    4.151428577774605E-1   -2.140729688168308E-3   -1.468851431775346E-3   -2.218427624609696E-3   -1.465085761970585E-3   -2.516264593756345E-1    3.714755189786698E-1
 8.194399806500000E9    -3.418434909251507E-1    4.159970500620198E-1   -2.113800133682575E-3   -1.491343641028944E-3   -2.229062547254612E-3   -1.403155960794015E-3   -2.507046008325755E-1    3.720971101298053E-1
 8.194418145625000E9    -3.409664825451042E-1    4.168559225020028E-1   -2.123218947435155E-3   -1.477784223810184E-3   -2.210102490330693E-3   -1.448613713505838E-3   -2.497327201290501E-1    3.726938692601166E-1
 8.194436484750000E9    -3.398479008252582E-1    4.176160479319747E-1   -2.102576601984009E-3   -1.470029609331361E-3   -2.239497126142761E-3   -1.426556776551776E-3   -2.490185139805709E-1    3.731930340831744E-1
 8.194454823875000E9    -3.388451391125473E-1    4.183792798199895E-1   -2.140201889473805E-3   -1.457266891773424E-3   -2.230751652723423E-3   -1.423204247183656E-3   -2.481345192085231E-1    3.736116893063388E-1
 8.194473163000000E9    -3.378903932801890E-1    4.191973510628069E-1   -2.145884368088007E-3   -1.474032155958262E-3   -2.240369317356649E-3   -1.397406316572231E-3   -2.473311738508841E-1    3.743873455616870E-1
 8.194491502125000E9    -3.368936335011901E-1    4.200516984593021E-1   -2.138557826547223E-3   -1.452622038071519E-3   -2.261440534551009E-3   -1.413938522456882E-3   -2.464168268177001E-1    3.748880630500767E-1
 8.194509841250000E9    -3.358671907200442E-1    4.208104413451549E-1   -2.152566482073435E-3   -1.424465821192721E-3   -2.270493343449368E-3   -1.432510819251782E-3   -2.455185735883702E-1    3.752785841621271E-1
 8.194528180375000E9    -3.348680570990486E-1    4.216189350656072E-1   -2.143271279012196E-3   -1.449227882393963E-3   -2.240702781145193E-3   -1.413171737353866E-3   -2.446361465162904E-1    3.758007934815562E-1
 8.194546519500000E9    -3.337547938588393E-1    4.223754495884130E-1   -2.136211263547727E-3   -1.453208649805270E-3   -2.247695948069055E-3   -1.393237242991238E-3   -2.438222639030924E-1    3.763647835393729E-1
 8.194564858625000E9    -3.327314363712417E-1    4.230902308008304E-1   -2.152701630099862E-3   -1.432092062931641E-3   -2.269735819112750E-3   -1.378493577798522E-3   -2.428463290951390E-1    3.769573561362892E-1
 8.194583197750000E9    -3.318204473999596E-1    4.239370658511607E-1   -2.178994214329314E-3   -1.420709905865350E-3   -2.292991255259549E-3   -1.369858868568243E-3   -2.419821842846659E-1    3.775243326397836E-1
 8.194601536875000E9    -3.308516687257501E-1    4.247779558741920E-1   -2.157926014456168E-3   -1.450079043927780E-3   -2.256396687421283E-3   -1.374354840352666E-3   -2.412695223786771E-1    3.779683093616977E-1
 8.194619876000000E9    -3.296957701192298E-1    4.254976915799477E-1   -2.196415597404899E-3   -1.399883691992575E-3   -2.286906074515851E-3   -1.386697506328374E-3   -2.402547635916654E-1    3.785514919887391E-1
 8.194638215125000E9    -3.286493035795551E-1    4.262517883626115E-1   -2.199293795945757E-3   -1.440494778057501E-3   -2.274632236266295E-3   -1.383631549747613E-3   -2.394179276791705E-1    3.791683268373221E-1
 8.194656554250000E9    -3.276485161964324E-1    4.271279137721066E-1   -2.187830432714028E-3   -1.433692121801924E-3   -2.312245175017120E-3   -1.383888851412955E-3   -2.384436392006456E-1    3.796366787754863E-1
 8.194674893375000E9    -3.265804069223137E-1    4.277465497512685E-1   -2.190926213821280E-3   -1.417951481248702E-3   -2.309468368073493E-3   -1.349564246906279E-3   -2.376823321824746E-1    3.801220640277136E-1
 8.194693232500000E9    -3.255587157094248E-1    4.286007355769014E-1   -2.189551934889737E-3   -1.406734544647388E-3   -2.303925482878951E-3   -1.353883242397181E-3   -2.367004231636280E-1    3.807284200167287E-1
 8.194711571625000E9    -3.245720931751360E-1    4.295004708631050E-1   -2.204513336769174E-3   -1.414672382961786E-3   -2.301583762851320E-3   -1.337793394380280E-3   -2.358759616538557E-1    3.812443512377920E-1
 8.194729910750000E9    -3.234339302969037E-1    4.301198487410940E-1   -2.214198794952436E-3   -1.380592304326038E-3   -2.305165154314370E-3   -1.344922432852506E-3   -2.350123745197845E-1    3.815537824092394E-1
 8.194748249875000E9    -3.224185992184820E-1    4.309970698437554E-1   -2.210096751476257E-3   -1.381260797400857E-3   -2.323381873314962E-3   -1.356490735906146E-3   -2.340084305586442E-1    3.820870894590274E-1
 8.194766589000000E9    -3.213196653587198E-1    4.317065365857065E-1   -2.237683544178059E-3   -1.377032949273423E-3   -2.331859933446912E-3   -1.309525732211372E-3   -2.332451990623303E-1    3.826254879958097E-1
 8.194784928125000E9    -3.202597072642163E-1    4.325182114902923E-1   -2.248284437348712E-3   -1.370785077361887E-3   -2.316266136521252E-3   -1.341427283223248E-3   -2.323965988761365E-1    3.831095080718253E-1
 8.194803267250000E9    -3.192618248557144E-1    4.332617428819407E-1   -2.208652662163320E-3   -1.367155423579714E-3   -2.310692111128957E-3   -1.341963865318045E-3   -2.315600026147152E-1    3.836142324475193E-1
 8.194821606375000E9    -3.182899826707461E-1    4.339790351899386E-1   -2.235962261008037E-3   -1.365318251733847E-3   -2.335533717845355E-3   -1.309549853020608E-3   -2.304843908812980E-1    3.841495053571319E-1
 8.194839945500000E9    -3.172381499411300E-1    4.347013849316734E-1   -2.224345937770882E-3   -1.328139148615359E-3   -2.354249701597496E-3   -1.314218182832150E-3   -2.296571547510278E-1    3.846842826339270E-1
 8.194858284625000E9    -3.162334299281376E-1    4.354839943739525E-1   -2.232833161212451E-3   -1.353532749366675E-3   -2.343857932487751E-3   -1.329520702023143E-3   -2.287979400314641E-1    3.852369325940195E-1
 8.194876623750000E9    -3.149825423454119E-1    4.362553220916676E-1   -2.254624137789465E-3   -1.370839944879464E-3   -2.328166414526029E-3   -1.345928604373313E-3   -2.278107381075926E-1    3.857173963043205E-1
 8.194894962875000E9    -3.139196279135334E-1    4.370209233287748E-1   -2.264882053898090E-3   -1.348703728843302E-3   -2.388732993125103E-3   -1.293559714933664E-3   -2.269814953834802E-1    3.862812610916098E-1
 8.194913302000000E9    -3.129034810629341E-1    4.377173209404301E-1   -2.244188169095767E-3   -1.351881537096591E-3   -2.324846451464567E-3   -1.334897625577549E-3   -2.261333579315878E-1    3.866520272761160E-1
 8.194931641125000E9    -3.118520658282177E-1    4.384697925464411E-1   -2.265331133069786E-3   -1.356932628124445E-3   -2.354757093260404E-3   -1.298717241305392E-3   -2.251815448148195E-1    3.871198562753827E-1
 8.194949980250000E9    -3.108359129776028E-1    4.392407999990698E-1   -2.237984571411408E-3   -1.336308479090419E-3   -2.356671926691797E-3   -1.278510951240034E-3   -2.242383266784984E-1    3.876075617047366E-1
