#  HZ   S   RI   R     50.00 
! Rohde & Schwarz Vector Network Analyzer 
! Rohde-Schwarz,ZNB20-2Port,1311601062101988,3.16
! Created: UTC 3/20/2024, 5:04:08 PM
! freq[Hz]                re:S11                  im:S11                  re:S21                  im:S21                  re:S12                  im:S12                  re:S22                  im:S22
 8.155089795000000E9     3.101741155613173E-1    4.326516659894775E-1   -1.986766422561234E-3    1.906735402847471E-3   -1.968613679128252E-3    1.932606892330854E-3    3.965454890876269E-1    3.078656164744570E-1
 8.155281215675000E9     3.207751774517485E-1    4.252821573625913E-1   -1.918103870298263E-3    1.964274362154593E-3   -1.912687420291977E-3    1.981789475471526E-3    4.036097134840492E-1    2.981822450162114E-1
 8.155472636350000E9     3.309874958499581E-1    4.176538751096822E-1   -1.871499701462280E-3    1.993530866128391E-3   -1.888678663876579E-3    1.979879953333541E-3    4.103611732967883E-1    2.883755718999743E-1
 8.155664057025000E9     3.412813791943619E-1    4.096916914407214E-1   -1.840623124024191E-3    2.038702461008290E-3   -1.800343280805254E-3    2.072799695842261E-3    4.168524799207350E-1    2.784507496174345E-1
 8.155855477700000E9     3.512446081208462E-1    4.015096476228707E-1   -1.740602440599346E-3    2.063751847039043E-3   -1.732527469585403E-3    2.112098750247148E-3    4.230576009537595E-1    2.683170786367964E-1
 8.156046898375000E9     3.610037554421729E-1    3.930802206426803E-1   -1.680883456812025E-3    2.100568966558232E-3   -1.677137242560733E-3    2.128090620965496E-3    4.290988029660264E-1    2.580345212896902E-1
 8.156238319050000E9     3.705587130796882E-1    3.845647633330407E-1   -1.653570104583889E-3    2.160952117045855E-3   -1.623636738889708E-3    2.174840479605125E-3    4.350486713606892E-1    2.476711635195788E-1
 8.156429739725000E9     3.799120977225401E-1    3.757338882544978E-1   -1.560565676114353E-3    2.208158454429269E-3   -1.560779820274702E-3    2.207354786639090E-3    4.403753930526809E-1    2.373367203246341E-1
 8.156621160400000E9     3.891383309791893E-1    3.666305251726034E-1   -1.538368661988377E-3    2.213895215710056E-3   -1.528311558279008E-3    2.239104962226208E-3    4.457853675477890E-1    2.266944748275918E-1
 8.156812581075000E9     3.979225488692029E-1    3.573062112185031E-1   -1.448435133809993E-3    2.274640708635688E-3   -1.443709293261927E-3    2.267414541812946E-3    4.507497649629464E-1    2.158843915112441E-1
 8.157004001750000E9     4.065134927278481E-1    3.478509411437339E-1   -1.388848361347555E-3    2.300374752099310E-3   -1.420476735748863E-3    2.306075184804016E-3    4.554902019591177E-1    2.050933375413153E-1
 8.157195422425000E9     4.149698724579635E-1    3.380227277350020E-1   -1.325227751197388E-3    2.328301026021872E-3   -1.336054519628366E-3    2.332841514180484E-3    4.598667579963120E-1    1.939221840491686E-1
 8.157386843100000E9     4.231966071861305E-1    3.281487667659804E-1   -1.270243604076332E-3    2.345657582644654E-3   -1.276498365785044E-3    2.386445970947894E-3    4.641815225953304E-1    1.831360259657495E-1
 8.157578263775000E9     4.310493078534628E-1    3.181085043896569E-1   -1.219330314831166E-3    2.347710876544249E-3   -1.229153792382146E-3    2.372403777871771E-3    4.680826791067988E-1    1.720450440095916E-1
 8.157769684450000E9     4.387692775296401E-1    3.077142466755249E-1   -1.154410761095472E-3    2.421609818874483E-3   -1.109485259836591E-3    2.380403140181154E-3    4.718382998719280E-1    1.608771156633640E-1
 8.157961105125000E9     4.461761007208434E-1    2.973166403492452E-1   -1.100036022254645E-3    2.414387364260364E-3   -1.064001235443020E-3    2.416587287539259E-3    4.752550877186713E-1    1.494816945446487E-1
 8.158152525800000E9     4.533919529363252E-1    2.866569519825244E-1   -1.028677710431819E-3    2.419140430409514E-3   -1.016770038179212E-3    2.431970075377195E-3    4.784419349556914E-1    1.380946558404691E-1
 8.158343946475000E9     4.603912575524213E-1    2.757685647792271E-1   -9.445770085597974E-4    2.429200319493630E-3   -9.406871991545453E-4    2.480254743810115E-3    4.812994233627997E-1    1.267425285940229E-1
 8.158535367150000E9     4.669514553363876E-1    2.646650187981739E-1   -9.116193084756712E-4    2.477222753295873E-3   -9.170007997590668E-4    2.485752685162596E-3    4.836856990161649E-1    1.153811946767844E-1
 8.158726787825000E9     4.734477267333480E-1    2.536465923450375E-1   -8.164747085181837E-4    2.492385617257094E-3   -7.958606289424150E-4    2.514085816951692E-3    4.861559673766616E-1    1.039359610141940E-1
 8.158918208500000E9     4.795928166987528E-1    2.422843755689438E-1   -7.744279898042467E-4    2.494159292837878E-3   -7.893628341970227E-4    2.498166645367819E-3    4.880797032095269E-1    9.239860934166245E-2
 8.159109629175000E9     4.853642832884221E-1    2.309875890797799E-1   -7.175296606619976E-4    2.541404741812480E-3   -7.151667446660327E-4    2.519427265543862E-3    4.898462368145287E-1    8.078098805028752E-2
 8.159301049850000E9     4.908785216257570E-1    2.193122953925821E-1   -6.419851989120877E-4    2.514547489988161E-3   -6.697528170745443E-4    2.536443544764248E-3    4.914626012121530E-1    6.931104803957673E-2
 8.159492470525000E9     4.962054332150212E-1    2.075888349785663E-1   -5.678760832041227E-4    2.523998066909308E-3   -5.865117067701825E-4    2.521401998779060E-3    4.925841321382245E-1    5.751209403632038E-2
 8.159683891200000E9     5.012144633052378E-1    1.957156020000945E-1   -5.195862631469536E-4    2.530334735300923E-3   -5.140461366253080E-4    2.559340828282480E-3    4.934787688173430E-1    4.586109663434187E-2
 8.159875311875000E9     5.058921338391026E-1    1.838838445950677E-1   -4.766949942082207E-4    2.564098728460733E-3   -4.478057106007174E-4    2.563584346227746E-3    4.941532263277121E-1    3.426615422037604E-2
 8.160066732550000E9     5.102702524553344E-1    1.718090415130102E-1   -3.843031860986839E-4    2.562515365817980E-3   -4.095997431467892E-4    2.561749461678952E-3    4.944803099371127E-1    2.268043688735635E-2
 8.160258153225000E9     5.144724592828135E-1    1.596257410065726E-1   -3.443331987479162E-4    2.536591052623919E-3   -3.427394466990255E-4    2.566680442536105E-3    4.947271890790829E-1    1.103033849369556E-2
 8.160449573900000E9     5.184077970407164E-1    1.474376913769984E-1   -2.798224769541178E-4    2.552957839942872E-3   -2.682810255997817E-4    2.572350867436963E-3    4.944076727306642E-1   -4.965046334987739E-4
 8.160640994575000E9     5.218934481956209E-1    1.350628509130692E-1   -2.057623110649531E-4    2.568024079093631E-3   -2.112460045390722E-4    2.540486354593076E-3    4.940428412111915E-1   -1.215888933437766E-2
 8.160832415250000E9     5.250887059568128E-1    1.225068313952745E-1   -1.311908328080051E-4    2.568472402547721E-3   -1.403324449912095E-4    2.563045689602105E-3    4.932828969036448E-1   -2.368589140570990E-2
 8.161023835925000E9     5.280313322933960E-1    1.100243597072430E-1   -8.546237836959603E-5    2.532102081167580E-3   -8.429531440106773E-5    2.573889758681102E-3    4.924289888552748E-1   -3.502405664748975E-2
 8.161215256600000E9     5.307312315748856E-1    9.748134532336418E-2   -6.267456569139500E-6    2.529912321254463E-3   -2.339351588176442E-5    2.563996890286550E-3    4.911009317704789E-1   -4.672299894472030E-2
 8.161406677275000E9     5.329752011558203E-1    8.486466548519885E-2    5.831476455040425E-5    2.525004162380440E-3    6.613876240760223E-5    2.543657355186335E-3    4.897325901039318E-1   -5.816632041384072E-2
 8.161598097950000E9     5.350626610735424E-1    7.221121543728209E-2    1.217879610706909E-4    2.520467227729547E-3    1.068900130350286E-4    2.532877894273541E-3    4.877088858311539E-1   -6.944259623380472E-2
 8.161789518625000E9     5.368940149696955E-1    5.940728159495880E-2    1.800755961384051E-4    2.515797687972650E-3    1.625828167836748E-4    2.537706812437120E-3    4.858489067281481E-1   -8.080110256052946E-2
 8.161980939300000E9     5.382938644574298E-1    4.663208272110819E-2    2.411686576288842E-4    2.521647647684447E-3    2.379092369409499E-4    2.548292258907021E-3    4.833907397321802E-1   -9.214469233797315E-2
 8.162172359975000E9     5.393262987244867E-1    3.384491127597015E-2    3.038039751393900E-4    2.484010742928686E-3    3.090481561181135E-4    2.521607840565056E-3    4.808646610718024E-1   -1.033942113570881E-1
 8.162363780650000E9     5.402134001067896E-1    2.093995303271765E-2    3.513750915576910E-4    2.450493817009158E-3    3.388802001893794E-4    2.483779738885470E-3    4.781092010066688E-1   -1.144114371163152E-1
 8.162555201325000E9     5.405368650432529E-1    8.210990679955309E-3    4.213122952706541E-4    2.434108124089036E-3    4.165165597274096E-4    2.499867674827837E-3    4.749683418610554E-1   -1.255439013870072E-1
 8.162746622000000E9     5.408383400580346E-1   -4.657002991905268E-3    4.663053219900362E-4    2.444960404205933E-3    4.673619141339233E-4    2.472220828502975E-3    4.717005052025746E-1   -1.364548826291229E-1
 8.162938042675000E9     5.406690021765000E-1   -1.754706194898769E-2    5.457968161890909E-4    2.426900016541556E-3    5.401916893035939E-4    2.442399121889098E-3    4.681036938029997E-1   -1.474317300481734E-1
 8.163129463350000E9     5.402617681961718E-1   -3.047201348112534E-2    5.834369211218781E-4    2.416357091081672E-3    5.717835122243439E-4    2.463291491990804E-3    4.641067352519793E-1   -1.583062222991810E-1
 8.163320884025000E9     5.395015403561374E-1   -4.336415144413416E-2    6.635186975873504E-4    2.352687400612104E-3    6.496083538499705E-4    2.429273751250106E-3    4.600979605400430E-1   -1.687521522218937E-1
 8.163512304700000E9     5.385664121159153E-1   -5.611211679245953E-2    7.063298176130535E-4    2.368285112785376E-3    7.008496321833077E-4    2.382013170847685E-3    4.557435448798793E-1   -1.793859840804479E-1
 8.163703725375000E9     5.371155874430821E-1   -6.891057485895463E-2    7.285349994694604E-4    2.322817184902421E-3    7.604976303714694E-4    2.362779867173763E-3    4.511575067749497E-1   -1.899487526535723E-1
 8.163895146050000E9     5.354540350040520E-1   -8.164418717278550E-2    8.005178497673487E-4    2.313831871799913E-3    8.165799156401018E-4    2.336083873081052E-3    4.464499330349805E-1   -2.000996035987159E-1
 8.164086566725000E9     5.335405429633203E-1   -9.439064194731807E-2    8.483810942306524E-4    2.289921825856262E-3    8.772677688917817E-4    2.284268293385710E-3    4.412188429138204E-1   -2.103220622977110E-1
 8.164277987400000E9     5.312430644414484E-1   -1.071254727186783E-1    9.131372984877642E-4    2.273957426475539E-3    8.864610286066030E-4    2.280783151336301E-3    4.360599507205554E-1   -2.205699684941246E-1
 8.164469408075000E9     5.285890097202753E-1   -1.197180651742456E-1    9.559206039430965E-4    2.252556628262746E-3    9.742575889342024E-4    2.238473752439370E-3    4.303880130190103E-1   -2.304582155154435E-1
 8.164660828750000E9     5.257620990013562E-1   -1.321919739007685E-1    1.047414789791079E-3    2.217529257969675E-3    1.015968450503375E-3    2.211373583565238E-3    4.247385253705635E-1   -2.404122007029185E-1
 8.164852249425000E9     5.225422631459675E-1   -1.447233798848049E-1    1.108944222428405E-3    2.188362406351237E-3    1.091466051437001E-3    2.222130512065514E-3    4.187824236457382E-1   -2.498536435117364E-1
 8.165043670100000E9     5.190258194067187E-1   -1.570770429219011E-1    1.128302733433384E-3    2.149274610488031E-3    1.097448052751866E-3    2.191908820092079E-3    4.125506341880519E-1   -2.594884499394820E-1
 8.165235090775000E9     5.152667122400237E-1   -1.694300190594480E-1    1.170294227053551E-3    2.119546697345773E-3    1.185419081221797E-3    2.155241835901646E-3    4.061224463449072E-1   -2.687834752787268E-1
 8.165426511450000E9     5.113055818830263E-1   -1.816351735310320E-1    1.192580318013793E-3    2.077818865881441E-3    1.212998944243140E-3    2.129372124434270E-3    3.996278448583333E-1   -2.779369439278043E-1
 8.165617932125000E9     5.068350244780312E-1   -1.938060903300011E-1    1.277537820266594E-3    2.054084088211966E-3    1.279550401857817E-3    2.080931925980100E-3    3.927512636044875E-1   -2.869825082325644E-1
 8.165809352800000E9     5.022771488653790E-1   -2.058115762608643E-1    1.301982391002330E-3    2.030385111211686E-3    1.350057432237539E-3    2.041823119922271E-3    3.857274572659812E-1   -2.959177752487837E-1
 8.166000773475000E9     4.973365976375850E-1   -2.176910903156287E-1    1.346357052511905E-3    1.984644086988559E-3    1.355220347761265E-3    2.017588054875439E-3    3.785077552786447E-1   -3.046423873922282E-1
 8.166192194150000E9     4.921185411636660E-1   -2.295070338329261E-1    1.377099779873325E-3    1.953607609760312E-3    1.414904083705497E-3    1.972655845823529E-3    3.712308299844652E-1   -3.131676244973521E-1
 8.166383614825000E9     4.864738404801652E-1   -2.412583164062957E-1    1.457139179650564E-3    1.918833123956369E-3    1.458522680380550E-3    1.953646953734102E-3    3.635415415765956E-1   -3.214651590216898E-1
 8.166575035500000E9     4.806723798184746E-1   -2.526294186529805E-1    1.501623172935495E-3    1.875960273095574E-3    1.510684894625836E-3    1.884766866257359E-3    3.557641206547546E-1   -3.295813804764187E-1
 8.166766456175000E9     4.746979891618729E-1   -2.640535374045829E-1    1.533763364539023E-3    1.846398038540104E-3    1.541529570221095E-3    1.861556635867878E-3    3.478967068652580E-1   -3.374703129290771E-1
 8.166957876850000E9     4.683331430147261E-1   -2.752318317585228E-1    1.577415209319196E-3    1.802047653987904E-3    1.573291267749112E-3    1.803940150391338E-3    3.396357255746484E-1   -3.453620416698867E-1
 8.167149297525000E9     4.615229468373466E-1   -2.863822005006429E-1    1.604207028482110E-3    1.722124537985802E-3    1.654405774808457E-3    1.798017019492789E-3    3.314149009383553E-1   -3.529446744227819E-1
 8.167340718200000E9     4.547611509546738E-1   -2.974887179798574E-1    1.624497941164680E-3    1.719467777910581E-3    1.661011542357457E-3    1.698026511229297E-3    3.229692696915751E-1   -3.601037264187618E-1
 8.167532138875000E9     4.476419882421679E-1   -3.080153076813119E-1    1.690020276641744E-3    1.655016758370597E-3    1.702673955124149E-3    1.702560546982442E-3    3.142182678787817E-1   -3.674668993265277E-1
 8.167723559550000E9     4.403065599397706E-1   -3.187825523594535E-1    1.726331312529128E-3    1.624052357983289E-3    1.728711485503958E-3    1.684942099011428E-3    3.055045444802948E-1   -3.744550067956176E-1
 8.167914980225000E9     4.327677276593266E-1   -3.291265648020325E-1    1.778978731366065E-3    1.590219717358075E-3    1.784027722910853E-3    1.591947127091834E-3    2.966052639010086E-1   -3.811307577281054E-1
 8.168106400900000E9     4.245998736463271E-1   -3.394057080465957E-1    1.798172038903543E-3    1.526669542480148E-3    1.820673667726736E-3    1.569042895347407E-3    2.873635888423635E-1   -3.876937811356223E-1
 8.168297821575000E9     4.164395316254860E-1   -3.494530006837540E-1    1.820165650445129E-3    1.494097242168340E-3    1.861706977578286E-3    1.545953326936754E-3    2.783051022322855E-1   -3.940523900639432E-1
 8.168489242250000E9     4.080991892523409E-1   -3.591868928899677E-1    1.838775307489631E-3    1.451155095869586E-3    1.888309244741649E-3    1.458612547848943E-3    2.688743548138587E-1   -4.000790957605440E-1
 8.168680662925000E9     3.994661427671083E-1   -3.689394279098782E-1    1.887099928297858E-3    1.383736880742910E-3    1.907963214535566E-3    1.403881121998608E-3    2.593593109839310E-1   -4.059458030075072E-1
 8.168872083600000E9     3.905533837990277E-1   -3.783195882859509E-1    1.917492304410243E-3    1.347656769270488E-3    1.963119210833652E-3    1.377206652187047E-3    2.497341766235232E-1   -4.115578470300631E-1
 8.169063504275000E9     3.816181158304289E-1   -3.876020207175382E-1    1.941029247639310E-3    1.324298886172460E-3    1.949062653761482E-3    1.331325876238420E-3    2.401210980998253E-1   -4.172892813952335E-1
 8.169254924950000E9     3.722868547336127E-1   -3.967288111003648E-1    1.965136831836249E-3    1.254703042558256E-3    1.977301250423637E-3    1.263554924474726E-3    2.299332158355103E-1   -4.220776740127973E-1
 8.169446345625000E9     3.627432119916748E-1   -4.054292345255789E-1    1.987226367218885E-3    1.184064013975024E-3    2.021160317957137E-3    1.251830335219084E-3    2.200357553405099E-1   -4.272367796384615E-1
 8.169637766300000E9     3.529442972185219E-1   -4.140032656503272E-1    2.011544897648497E-3    1.166908577337787E-3    2.039268508915352E-3    1.189874438501601E-3    2.101954719931105E-1   -4.320211343415956E-1
 8.169829186975000E9     3.431781008246491E-1   -4.222482876685868E-1    2.044128517889628E-3    1.102096824965138E-3    2.089894644663718E-3    1.123950607712724E-3    2.000931670373634E-1   -4.365347402381858E-1
 8.170020607650000E9     3.329341205927942E-1   -4.305141424623433E-1    2.060767985496354E-3    1.024331883204288E-3    2.112716348593956E-3    1.082792831677276E-3    1.896881817209321E-1   -4.406761106742846E-1
 8.170212028325000E9     3.224954689670073E-1   -4.382417064675088E-1    2.090159112877999E-3    1.006928671299619E-3    2.095955954587076E-3    1.041144333027122E-3    1.792345778929868E-1   -4.447877526642368E-1
 8.170403449000000E9     3.120221077892746E-1   -4.458312173687731E-1    2.132243499259938E-3    9.342887543596322E-4    2.127284828125601E-3    1.011106319204649E-3    1.688221874269092E-1   -4.484048572028371E-1
 8.170594869675000E9     3.013447067032283E-1   -4.531925116827576E-1    2.136356695783011E-3    9.131858809141740E-4    2.165867283936743E-3    9.484490174821493E-4    1.584226018802633E-1   -4.520904595981993E-1
 8.170786290350000E9     2.903578420010373E-1   -4.602520682084326E-1    2.137233809951222E-3    8.377103263630240E-4    2.208982673935512E-3    8.644842039933753E-4    1.478283602272848E-1   -4.553447342184048E-1
 8.170977711025000E9     2.793009917774072E-1   -4.670751416411693E-1    2.164715006138157E-3    7.975816439072672E-4    2.221098155485439E-3    8.522167150465630E-4    1.371339554090825E-1   -4.583512984414110E-1
 8.171169131700000E9     2.681122595358058E-1   -4.736694553938134E-1    2.165937062930627E-3    7.510927607455070E-4    2.205894990665573E-3    7.825645553287365E-4    1.262870190835514E-1   -4.610407423133144E-1
 8.171360552375000E9     2.568124498666822E-1   -4.800612101564165E-1    2.201749829797904E-3    7.065825156717984E-4    2.242298434006701E-3    7.329721301050139E-4    1.157768649286874E-1   -4.635274398664321E-1
 8.171551973050000E9     2.451016118084383E-1   -4.859341635249331E-1    2.204944150435434E-3    6.393264095118150E-4    2.260774235407804E-3    6.585272150501282E-4    1.048176210314294E-1   -4.660289921274088E-1
 8.171743393725000E9     2.334779748393334E-1   -4.916576839624155E-1    2.212138625776865E-3    5.873492871759890E-4    2.284581599140171E-3    6.290152267990713E-4    9.409216453656945E-2   -4.679745732167256E-1
 8.171934814400000E9     2.216525441025286E-1   -4.972134013021737E-1    2.228582888837324E-3    5.078901694478348E-4    2.302427336032908E-3    5.724250627802199E-4    8.311225164979724E-2   -4.697322883654406E-1
 8.172126235075000E9     2.096467187270822E-1   -5.023423568928895E-1    2.252163889068848E-3    4.749035016198959E-4    2.312366277887686E-3    5.104147072934923E-4    7.225530259321591E-2   -4.713694944147629E-1
 8.172317655750000E9     1.975717201014233E-1   -5.073325273537402E-1    2.268249255549165E-3    4.473886205704414E-4    2.278458060163330E-3    4.466692747017002E-4    6.126901333875940E-2   -4.727013209556210E-1
