#  HZ   S   RI   R     50.00 
! Rohde & Schwarz Vector Network Analyzer 
! Rohde-Schwarz,ZNB20-2Port,1311601062101988,3.16
! Created: UTC 3/20/2024, 5:08:40 PM
! freq[Hz]                re:S11                  im:S11                  re:S21                  im:S21                  re:S12                  im:S12                  re:S22                  im:S22
 8.187794360000000E9    -5.416108258181567E-1    1.282857843377099E-2   -2.863172161613100E-4   -2.340024723752823E-3   -3.407428653922690E-4   -2.400694680584157E-3   -4.524612070594153E-1    7.578413481693617E-2
 8.187837713975000E9    -5.414032362895622E-1    1.575363490778721E-2   -2.840316520909435E-4   -2.337888074202673E-3   -3.465061865219088E-4   -2.410145108301704E-3   -4.520208747192467E-1    7.801602842190782E-2
 8.187881067950000E9    -5.413990366232471E-1    1.882248472998959E-2   -3.088273492352824E-4   -2.306109577648555E-3   -3.689733442178498E-4   -2.409380404047660E-3   -4.518361645614059E-1    8.042175328996577E-2
 8.187924421925000E9    -5.412797803806537E-1    2.184946772349088E-2   -3.358070419619614E-4   -2.337061837965504E-3   -3.724730365674073E-4   -2.397868828489337E-3   -4.512759168526511E-1    8.275671649593680E-2
 8.187967775900000E9    -5.412048173361094E-1    2.492431636676654E-2   -3.542022836755996E-4   -2.333794329443961E-3   -4.065873528527915E-4   -2.396438160436229E-3   -4.508485615858382E-1    8.520767896447273E-2
 8.188011129875000E9    -5.410351879093113E-1    2.789780239248318E-2   -3.364654016036252E-4   -2.363193450852309E-3   -4.105620217716962E-4   -2.416089223686150E-3   -4.501809995532990E-1    8.751963943169379E-2
 8.188054483850000E9    -5.407091976260604E-1    3.093287924101997E-2   -3.527505898581418E-4   -2.324736826235655E-3   -4.241866320738224E-4   -2.416648782478575E-3   -4.497928713851253E-1    8.995113561819164E-2
 8.188097837825000E9    -5.405136107600284E-1    3.403794461451268E-2   -3.958160882816584E-4   -2.349577374877635E-3   -4.572850823277326E-4   -2.373729616676420E-3   -4.491289009095568E-1    9.232459074825512E-2
 8.188141191800000E9    -5.401928650729380E-1    3.706956514406429E-2   -4.157055793093847E-4   -2.336985241387979E-3   -4.691551956640964E-4   -2.409133622355667E-3   -4.487781641069850E-1    9.471022927214674E-2
 8.188184545775000E9    -5.401881779972901E-1    3.999687133129914E-2   -4.312997013755646E-4   -2.336951410496360E-3   -4.932341232957380E-4   -2.392764895400655E-3   -4.480958782701463E-1    9.702125138721342E-2
 8.188227899750000E9    -5.398175250788718E-1    4.310423970916834E-2   -4.085451278980399E-4   -2.342132773978490E-3   -5.096702087867439E-4   -2.383830820876623E-3   -4.476480417690654E-1    9.937393845136801E-2
 8.188271253725000E9    -5.395406123031401E-1    4.610500054767545E-2   -4.453099345083980E-4   -2.314910295751092E-3   -5.063286648803290E-4   -2.380201106393269E-3   -4.469533183145268E-1    1.016783119419026E-1
 8.188314607700000E9    -5.393839927387122E-1    4.916976090654791E-2   -4.224631516839997E-4   -2.318222828051165E-3   -5.084188622891777E-4   -2.397325451117305E-3   -4.464600196209732E-1    1.039547708842088E-1
 8.188357961675000E9    -5.391179655239517E-1    5.213447794066377E-2   -4.912141578639627E-4   -2.309526059370891E-3   -5.113782143656439E-4   -2.393813356149902E-3   -4.457706844041052E-1    1.064205058889081E-1
 8.188401315650000E9    -5.385819462506146E-1    5.516580001367267E-2   -4.652736990078919E-4   -2.318181002602507E-3   -5.173201702217585E-4   -2.407504199552206E-3   -4.452170920581777E-1    1.085671011298343E-1
 8.188444669625000E9    -5.383212434489266E-1    5.825324552555593E-2   -4.942533709329897E-4   -2.348880970299188E-3   -5.688044243068609E-4   -2.397102438360493E-3   -4.445152552826937E-1    1.107934624696293E-1
 8.188488023600000E9    -5.380312299807279E-1    6.111859786761345E-2   -4.835261795435903E-4   -2.321704003370203E-3   -5.721791987021517E-4   -2.378986735729430E-3   -4.439973970365310E-1    1.132482149365225E-1
 8.188531377575000E9    -5.375607452591553E-1    6.411422259863912E-2   -5.107751649609132E-4   -2.318460127666945E-3   -6.092698184920331E-4   -2.376720125205576E-3   -4.432424009306499E-1    1.155673186053193E-1
 8.188574731550000E9    -5.372551064487868E-1    6.708902456009043E-2   -5.028129275341267E-4   -2.290972980326193E-3   -5.577562914797573E-4   -2.391826611797827E-3   -4.424985220489638E-1    1.178476229636870E-1
 8.188618085525000E9    -5.367795721629813E-1    7.024321941465310E-2   -5.500898148997847E-4   -2.297991874401389E-3   -6.096969710998501E-4   -2.430794533783403E-3   -4.420742263241284E-1    1.201825660600902E-1
 8.188661439500000E9    -5.365355198777150E-1    7.323907328730896E-2   -5.040207030461238E-4   -2.315195560256428E-3   -6.366206247708025E-4   -2.383950172829788E-3   -4.414238179338388E-1    1.225303589073410E-1
 8.188704793475000E9    -5.359562581413043E-1    7.624937983257508E-2   -5.285056502849399E-4   -2.305204194812784E-3   -6.013845015592992E-4   -2.373197615865424E-3   -4.404987713990451E-1    1.248845842404198E-1
 8.188748147450000E9    -5.355334016297164E-1    7.920680691032295E-2   -5.569124157843406E-4   -2.292301632982142E-3   -6.369215993640195E-4   -2.390899007494877E-3   -4.397357676195831E-1    1.272470127223976E-1
 8.188791501425000E9    -5.352049965699791E-1    8.225643920278952E-2   -5.733529081455017E-4   -2.303040190839087E-3   -6.436853072896014E-4   -2.360512537850107E-3   -4.390203498677738E-1    1.294155822132093E-1
 8.188834855400000E9    -5.345119693721175E-1    8.525433586596549E-2   -5.990111353792667E-4   -2.290640086359096E-3   -6.606950609974206E-4   -2.361088721330077E-3   -4.384700497428020E-1    1.316195880975020E-1
 8.188878209375000E9    -5.341809808315424E-1    8.816332788681294E-2   -6.088039139887680E-4   -2.257478826444220E-3   -6.785389480688029E-4   -2.369761259545469E-3   -4.377418170345335E-1    1.341227548403469E-1
 8.188921563350000E9    -5.335087871359749E-1    9.117870023804728E-2   -6.240441658614217E-4   -2.313187193836267E-3   -6.817647746482327E-4   -2.352411322814772E-3   -4.368304289713285E-1    1.363671835303820E-1
 8.188964917325000E9    -5.330774290411601E-1    9.420941755656900E-2   -6.247412651208157E-4   -2.269255676958711E-3   -6.948566870191451E-4   -2.343860699700169E-3   -4.361784865389155E-1    1.387363970196775E-1
 8.189008271300000E9    -5.324364403355905E-1    9.710091801894452E-2   -6.730439493489690E-4   -2.284960281942322E-3   -7.155038084136316E-4   -2.363978401215216E-3   -4.353249758348259E-1    1.409482946539424E-1
 8.189051625275000E9    -5.319001990201863E-1    1.001938064984492E-1   -6.588051012762122E-4   -2.281210563390794E-3   -7.611567290743761E-4   -2.340332335041759E-3   -4.346129828096021E-1    1.432783657758036E-1
 8.189094979250000E9    -5.313326604136343E-1    1.030610733826955E-1   -6.727116724076539E-4   -2.274875538139574E-3   -7.569404902077572E-4   -2.354438185048220E-3   -4.338212175395597E-1    1.453621722235568E-1
 8.189138333225000E9    -5.306802604227265E-1    1.060510839914712E-1   -6.695897321899121E-4   -2.264243338497882E-3   -7.739135297190541E-4   -2.341979322873052E-3   -4.329760465120457E-1    1.476323575247347E-1
 8.189181687200000E9    -5.301101250311347E-1    1.090487646172849E-1   -6.690825265238832E-4   -2.254782699840585E-3   -8.062642622184050E-4   -2.351294901808266E-3   -4.320722200341243E-1    1.497974461663811E-1
 8.189225041175000E9    -5.294478848789296E-1    1.120304590445338E-1   -7.065142227033827E-4   -2.268641569327770E-3   -7.838208982230979E-4   -2.349241497509397E-3   -4.312001916788853E-1    1.522652870068856E-1
 8.189268395150000E9    -5.288972828813413E-1    1.151191006647019E-1   -7.366171231270282E-4   -2.267672482625001E-3   -7.601554394738890E-4   -2.349941991662938E-3   -4.304560263137500E-1    1.544323199556422E-1
 8.189311749125000E9    -5.280017138190973E-1    1.179302933160425E-1   -7.531068156774348E-4   -2.280253330247463E-3   -8.145799791567315E-4   -2.361318195406738E-3   -4.295501722420030E-1    1.567272353899204E-1
 8.189355103100000E9    -5.274292361103957E-1    1.209625000918517E-1   -7.647463044642124E-4   -2.260315959783817E-3   -8.421619970067984E-4   -2.326694254569055E-3   -4.287410650288432E-1    1.588980558234575E-1
 8.189398457075000E9    -5.267261564737401E-1    1.239614261708362E-1   -7.575784818708641E-4   -2.243061025490301E-3   -8.243445556060701E-4   -2.307295503285767E-3   -4.276592132305038E-1    1.613533244584537E-1
 8.189441811050000E9    -5.260091700673636E-1    1.267871436781152E-1   -7.668278318449290E-4   -2.280361960060552E-3   -8.388163084824781E-4   -2.285665830771359E-3   -4.268068160747013E-1    1.634796334641593E-1
 8.189485165025000E9    -5.251939460265140E-1    1.296807380946887E-1   -8.265651383579830E-4   -2.250976283254472E-3   -8.668419828022266E-4   -2.314348724207233E-3   -4.259694445325830E-1    1.658121020804771E-1
 8.189528519000000E9    -5.244784060619617E-1    1.327459172977108E-1   -8.015410861287788E-4   -2.249702000209090E-3   -9.178694259758858E-4   -2.328166852951410E-3   -4.250560280267123E-1    1.678662123641717E-1
 8.189571872975000E9    -5.236783798815515E-1    1.356183213430486E-1   -8.109451159208507E-4   -2.251422059292053E-3   -8.793637585479563E-4   -2.308551951886142E-3   -4.241205886358849E-1    1.703457105683008E-1
 8.189615226950000E9    -5.230399817263973E-1    1.386143914641672E-1   -8.213960402038706E-4   -2.233867911890429E-3   -8.692680951888258E-4   -2.276307602188016E-3   -4.232461435247370E-1    1.723600608043022E-1
 8.189658580925000E9    -5.221126614912741E-1    1.414688112551851E-1   -8.303390484422208E-4   -2.263414041316355E-3   -8.887638981707932E-4   -2.258633245511296E-3   -4.221052013427240E-1    1.745481026789476E-1
 8.189701934900000E9    -5.213469044161120E-1    1.445593134565140E-1   -8.457788011348077E-4   -2.236415399586972E-3   -9.497134318543045E-4   -2.278988785027931E-3   -4.212011969901284E-1    1.768972185747837E-1
 8.189745288875000E9    -5.204930633039717E-1    1.474569998974426E-1   -8.601683857732106E-4   -2.243587970607848E-3   -9.624349209043084E-4   -2.294909200512569E-3   -4.202875480705848E-1    1.789879403862092E-1
 8.189788642850000E9    -5.196683078559383E-1    1.502827094989779E-1   -8.521409239370217E-4   -2.250267939607205E-3   -9.584460153099100E-4   -2.289526773037527E-3   -4.192857184041848E-1    1.811067221729727E-1
 8.189831996825000E9    -5.186376731577562E-1    1.532471959178514E-1   -8.746435956861822E-4   -2.230255367835797E-3   -9.882021712861783E-4   -2.304169967930795E-3   -4.182499504897233E-1    1.833958060022480E-1
 8.189875350800000E9    -5.178911977842376E-1    1.560806853931604E-1   -8.962561867092890E-4   -2.231474103616340E-3   -9.855067233455635E-4   -2.303005587079620E-3   -4.172573845363215E-1    1.856082959465813E-1
 8.189918704775000E9    -5.169562339538956E-1    1.590038239049512E-1   -9.156627171630798E-4   -2.214609689576577E-3   -9.821827745436797E-4   -2.258380593136417E-3   -4.162106527137438E-1    1.877514591338832E-1
 8.189962058750000E9    -5.160390242736035E-1    1.620009979442993E-1   -9.344782784472038E-4   -2.226149788636214E-3   -9.926512770455124E-4   -2.267038094328148E-3   -4.150904539666625E-1    1.897910441636026E-1
 8.190005412725000E9    -5.150629543616312E-1    1.649044116734328E-1   -9.301564876953234E-4   -2.192800596628792E-3   -1.043422932994664E-3   -2.246565286781490E-3   -4.141322448876933E-1    1.919911761439320E-1
 8.190048766700000E9    -5.142753020423708E-1    1.677374561420021E-1   -9.384679468435373E-4   -2.204006356783489E-3   -1.026148410456183E-3   -2.244992745049920E-3   -4.129516581562720E-1    1.943631829186885E-1
 8.190092120675000E9    -5.131458125926693E-1    1.705799650736357E-1   -9.608552853642606E-4   -2.226632761977724E-3   -1.034767010973285E-3   -2.238762479868944E-3   -4.118977642593168E-1    1.962959325106637E-1
 8.190135474650000E9    -5.122755486272791E-1    1.735414133503105E-1   -9.506138455360208E-4   -2.226428394550721E-3   -1.075575874044441E-3   -2.273981345649020E-3   -4.108602834148729E-1    1.985188730739806E-1
 8.190178828625000E9    -5.112069207976123E-1    1.763841684775301E-1   -9.690082838480558E-4   -2.183031154896735E-3   -1.055342533007215E-3   -2.265470744789510E-3   -4.097293963952364E-1    2.006410476605026E-1
 8.190222182600000E9    -5.101034848334925E-1    1.792037840960302E-1   -1.023481367082140E-3   -2.198977560923329E-3   -1.072742565357410E-3   -2.251984638893423E-3   -4.085876339727139E-1    2.026795816441673E-1
 8.190265536575000E9    -5.091532648698875E-1    1.820380953060809E-1   -1.020852474956706E-3   -2.210527874575772E-3   -1.089966681262119E-3   -2.203269689654963E-3   -4.075503868313793E-1    2.049813338123404E-1
 8.190308890550000E9    -5.081262347074693E-1    1.848570518518231E-1   -1.024618180127353E-3   -2.198863414664317E-3   -1.115429046380902E-3   -2.210704314202867E-3   -4.063421248314130E-1    2.070813813416198E-1
 8.190352244525000E9    -5.069983496316027E-1    1.877012430096177E-1   -1.039728990714479E-3   -2.192184633745905E-3   -1.152887376523743E-3   -2.250842061812525E-3   -4.051693611343332E-1    2.092356697144231E-1
 8.190395598500000E9    -5.060204960827455E-1    1.906426918954302E-1   -1.046750387492507E-3   -2.195956900740272E-3   -1.133532195463416E-3   -2.222568289708908E-3   -4.040636976330037E-1    2.112146976000858E-1
 8.190438952475000E9    -5.048451414929027E-1    1.934348800605760E-1   -1.047964236365886E-3   -2.184998178885187E-3   -1.152015762735877E-3   -2.229841019559717E-3   -4.031107057252228E-1    2.134303101226143E-1
 8.190482306450000E9    -5.038451214162321E-1    1.962428968640313E-1   -1.036711359992370E-3   -2.138386069887732E-3   -1.151359387780387E-3   -2.203323701272573E-3   -4.018371073400783E-1    2.156091815903711E-1
 8.190525660425000E9    -5.027624664445697E-1    1.989920887115894E-1   -1.068982573876565E-3   -2.176590566548748E-3   -1.183888745618159E-3   -2.199725892256139E-3   -4.004942283266936E-1    2.177237134165109E-1
 8.190569014400000E9    -5.014770914153504E-1    2.017843749147382E-1   -1.099950903666875E-3   -2.162865411378078E-3   -1.180483911117865E-3   -2.199038367911884E-3   -3.992664032698527E-1    2.196705951769257E-1
 8.190612368375000E9    -5.003598006551596E-1    2.047131361343396E-1   -1.104270704084724E-3   -2.139770717531250E-3   -1.227233272421925E-3   -2.165104337408080E-3   -3.981066798284450E-1    2.217587361484707E-1
 8.190655722350000E9    -4.991806577320615E-1    2.074129689880818E-1   -1.111252855584363E-3   -2.136598816329484E-3   -1.219934292021130E-3   -2.208443413803537E-3   -3.968338009352801E-1    2.239327823776101E-1
 8.190699076325000E9    -4.979786672024796E-1    2.103322675309899E-1   -1.123350683463484E-3   -2.133445559501709E-3   -1.209523165132437E-3   -2.198844061828940E-3   -3.957021078749342E-1    2.258588773242471E-1
 8.190742430300000E9    -4.966471177751360E-1    2.129800660240221E-1   -1.144385666925066E-3   -2.129131298607925E-3   -1.250279350380508E-3   -2.167264941618454E-3   -3.943438803534731E-1    2.280520091164863E-1
 8.190785784275000E9    -4.956250164140183E-1    2.158834397592328E-1   -1.131543712920030E-3   -2.135611012784867E-3   -1.250455262223899E-3   -2.173754387751681E-3   -3.931480118020465E-1    2.299544989920950E-1
 8.190829138250000E9    -4.942593551288229E-1    2.186404759789059E-1   -1.152845861933026E-3   -2.137300763899894E-3   -1.261472988058700E-3   -2.159242068023935E-3   -3.917948263614773E-1    2.322214137404009E-1
 8.190872492225000E9    -4.930549216986995E-1    2.214681403363615E-1   -1.166709691635241E-3   -2.126876825936511E-3   -1.240109534648106E-3   -2.156359178021392E-3   -3.906514834148029E-1    2.342815453487312E-1
 8.190915846200000E9    -4.917352026126210E-1    2.242307701257374E-1   -1.215109518471436E-3   -2.105960613084290E-3   -1.276194994631273E-3   -2.169462951325698E-3   -3.892443596387624E-1    2.361610921644370E-1
 8.190959200175000E9    -4.904062097627535E-1    2.269468204225359E-1   -1.199015853907531E-3   -2.101005385426163E-3   -1.320647526108512E-3   -2.160897915577839E-3   -3.879919867114311E-1    2.382970860825137E-1
 8.191002554150000E9    -4.891437575272888E-1    2.295925353006407E-1   -1.206356625156449E-3   -2.121360128404760E-3   -1.314686245766354E-3   -2.123374438506464E-3   -3.866456872992718E-1    2.402881854259842E-1
 8.191045908125000E9    -4.878516540146512E-1    2.323169754409034E-1   -1.226734780001697E-3   -2.102637110377130E-3   -1.347093794668376E-3   -2.143319045542370E-3   -3.852732342536965E-1    2.423708902952928E-1
 8.191089262100000E9    -4.864035215060416E-1    2.351425697796621E-1   -1.258786581890952E-3   -2.068086051698551E-3   -1.353065295264683E-3   -2.121904338346972E-3   -3.840365536229632E-1    2.443718454478119E-1
 8.191132616075000E9    -4.851885075115480E-1    2.377790323039097E-1   -1.232855656444421E-3   -2.088057751977217E-3   -1.330680976152415E-3   -2.112731238748327E-3   -3.827374993630989E-1    2.464234695404861E-1
 8.191175970050000E9    -4.836577213978212E-1    2.405012323973124E-1   -1.271328012784172E-3   -2.095374661549371E-3   -1.352894487118886E-3   -2.099598604700054E-3   -3.812639607239958E-1    2.482283199961902E-1
 8.191219324025000E9    -4.823743063530226E-1    2.433108226927144E-1   -1.270796572126930E-3   -2.083858857516468E-3   -1.384973175730632E-3   -2.092314116550097E-3   -3.798018564805540E-1    2.502436769072969E-1
 8.191262678000000E9    -4.809089799628319E-1    2.460265011190695E-1   -1.281121517077196E-3   -2.077466750402338E-3   -1.425444584462886E-3   -2.118032599537392E-3   -3.785078670587712E-1    2.523287623881851E-1
 8.191306031975000E9    -4.795225513181053E-1    2.487688942733521E-1   -1.309362535003131E-3   -2.076650534196607E-3   -1.397326379573972E-3   -2.081319955149087E-3   -3.771472950696298E-1    2.542831589803964E-1
 8.191349385950000E9    -4.781224293949378E-1    2.513409730062250E-1   -1.310594854675304E-3   -2.057957489291005E-3   -1.398417085519572E-3   -2.055972115412437E-3   -3.756904200788296E-1    2.561752735801891E-1
 8.191392739925000E9    -4.767142048861235E-1    2.540455887978026E-1   -1.333352004035048E-3   -2.039284710637636E-3   -1.443094833395536E-3   -2.091951365588675E-3   -3.742182829960508E-1    2.582546008427667E-1
 8.191436093900000E9    -4.752036097919053E-1    2.566678063621864E-1   -1.356288172618227E-3   -2.050104736794832E-3   -1.444557642735098E-3   -2.106561405604431E-3   -3.729555707264058E-1    2.602100155729412E-1
 8.191479447875000E9    -4.738080606500425E-1    2.593693620988283E-1   -1.357442852064087E-3   -2.051841848763134E-3   -1.442485256559794E-3   -2.071756668730452E-3   -3.715128060015036E-1    2.620719514100511E-1
 8.191522801850000E9    -4.722844505565217E-1    2.619620149666329E-1   -1.379099023455938E-3   -2.043611680661195E-3   -1.469414635547805E-3   -2.088683256597057E-3   -3.701608282971260E-1    2.640267682837393E-1
 8.191566155825000E9    -4.706845169851441E-1    2.646792656453493E-1   -1.372374054140092E-3   -2.033321226917483E-3   -1.500803285547696E-3   -2.079125634663101E-3   -3.684885598699851E-1    2.660030740130661E-1
 8.191609509800000E9    -4.693016594954760E-1    2.672608541033147E-1   -1.379367067841562E-3   -2.031210725294697E-3   -1.460457734750259E-3   -2.024714477064930E-3   -3.671041383710539E-1    2.680683832560040E-1
 8.191652863775000E9    -4.676102719551691E-1    2.697893518315507E-1   -1.391647854560818E-3   -2.004940710255460E-3   -1.497295755825515E-3   -2.038537879820806E-3   -3.656643253927380E-1    2.697351576632046E-1
 8.191696217750000E9    -4.662002548702128E-1    2.725316755904127E-1   -1.419442883770772E-3   -2.008616811655752E-3   -1.544339735477424E-3   -2.036111883109043E-3   -3.641429681081803E-1    2.717169573823610E-1
