#  HZ   S   RI   R     50.00 
! Rohde & Schwarz Vector Network Analyzer 
! Rohde-Schwarz,ZNB20-2Port,1311601062101988,3.16
! Created: UTC 3/20/2024, 4:53:34 PM
! freq[Hz]                re:S11                  im:S11                  re:S21                  im:S21                  re:S12                  im:S12                  re:S22                  im:S22
 8.192900684000000E9    -4.171926432760840E-1    3.420747955661894E-1   -1.725790423262616E-3   -1.806895641200983E-3   -1.878439097293416E-3   -1.809760181211749E-3   -3.166513954974513E-1    3.209189632320622E-1
 8.192920799550000E9    -4.163169166941929E-1    3.431504378991643E-1   -1.739979264646178E-3   -1.803458189775868E-3   -1.864838693549431E-3   -1.809031997685257E-3   -3.158604087406505E-1    3.215739732764269E-1
 8.192940915100000E9    -4.153720942633528E-1    3.443273642853424E-1   -1.764953807154271E-3   -1.795895803141994E-3   -1.848969976992101E-3   -1.784451238890318E-3   -3.148373340291580E-1    3.224051651702120E-1
 8.192961030650000E9    -4.143673157630726E-1    3.451914841714781E-1   -1.745765655008415E-3   -1.793008934875002E-3   -1.878244518687469E-3   -1.804124526539535E-3   -3.141935766950732E-1    3.231387551957396E-1
 8.192981146200000E9    -4.136255380531458E-1    3.464671429211282E-1   -1.781931908456981E-3   -1.776787110049733E-3   -1.872023484211536E-3   -1.791281583221766E-3   -3.132894870984507E-1    3.238946996314304E-1
 8.193001261750000E9    -4.125564311301233E-1    3.474127916169037E-1   -1.808091122637880E-3   -1.769816626740904E-3   -1.875541837220522E-3   -1.793202275287976E-3   -3.125998664653180E-1    3.245346874561613E-1
 8.193021377300000E9    -4.115985189175858E-1    3.485031804700640E-1   -1.770329675464789E-3   -1.755444454638568E-3   -1.859612149016208E-3   -1.772886171179074E-3   -3.117724191523775E-1    3.255071121982615E-1
 8.193041492850000E9    -4.107744235529066E-1    3.496589096835165E-1   -1.792158078418049E-3   -1.772947355618928E-3   -1.888729411840963E-3   -1.763320244338646E-3   -3.109663850002924E-1    3.261552858476888E-1
 8.193061608400000E9    -4.097704291858486E-1    3.506582687600923E-1   -1.769055516505932E-3   -1.762612132751551E-3   -1.886075748764740E-3   -1.778786652883325E-3   -3.100380518582467E-1    3.270659071503784E-1
 8.193081723950000E9    -4.088081461164402E-1    3.517224590585996E-1   -1.782641689027522E-3   -1.744077517342956E-3   -1.874584980363235E-3   -1.744186842223833E-3   -3.092391816125902E-1    3.277622929395493E-1
 8.193101839500000E9    -4.080135356325675E-1    3.528234788517448E-1   -1.800127748941523E-3   -1.801996016318614E-3   -1.891225101993878E-3   -1.752531247727054E-3   -3.083035256291505E-1    3.284123097680888E-1
 8.193121955050000E9    -4.070871511310872E-1    3.539269987898759E-1   -1.829485733011092E-3   -1.755416463954424E-3   -1.875993775010014E-3   -1.741002373217923E-3   -3.075424012049222E-1    3.292145301031164E-1
 8.193142070600000E9    -4.061950815736464E-1    3.548847564477374E-1   -1.804718459181725E-3   -1.738195404484830E-3   -1.900656358272220E-3   -1.745741212400407E-3   -3.067150312158429E-1    3.299288560167126E-1
 8.193162186150000E9    -4.051261531887431E-1    3.559780799461786E-1   -1.806544776636815E-3   -1.740139326108090E-3   -1.948310190947610E-3   -1.751559807310900E-3   -3.058195929384322E-1    3.306995224145009E-1
 8.193182301700000E9    -4.041610462136640E-1    3.570509018520908E-1   -1.810311645495993E-3   -1.743258006329743E-3   -1.889128315015967E-3   -1.729360647757654E-3   -3.050631757878099E-1    3.313692102613428E-1
 8.193202417250000E9    -4.032330911502315E-1    3.580829243479232E-1   -1.831606824895320E-3   -1.748566857925675E-3   -1.923729292493954E-3   -1.709189648176045E-3   -3.041891987395670E-1    3.322275078585405E-1
 8.193222532800000E9    -4.023011333371706E-1    3.592915016456331E-1   -1.829246205401217E-3   -1.738176953552620E-3   -1.937318206875650E-3   -1.744174864370323E-3   -3.033247801808541E-1    3.328591787254371E-1
 8.193242648350000E9    -4.013019333728875E-1    3.601792056111673E-1   -1.804713780431993E-3   -1.728444430413663E-3   -1.939764286451350E-3   -1.721459436241196E-3   -3.024677989502952E-1    3.335528476374351E-1
 8.193262763900000E9    -4.003913486858726E-1    3.613214903631196E-1   -1.838505971829288E-3   -1.758510137354089E-3   -1.941488935550942E-3   -1.728787756408942E-3   -3.016005123665360E-1    3.344160265317795E-1
 8.193282879450000E9    -3.993977155535576E-1    3.624311234085336E-1   -1.820997569671613E-3   -1.750989181265880E-3   -1.929936284252332E-3   -1.707969223730425E-3   -3.008684475858004E-1    3.351205616859542E-1
 8.193302995000000E9    -3.984353665750914E-1    3.633818183255031E-1   -1.821307640096421E-3   -1.722925125235430E-3   -1.980189577559051E-3   -1.742188259540119E-3   -3.000605673836509E-1    3.357524149486625E-1
 8.193323110550000E9    -3.974643234210006E-1    3.643409579093425E-1   -1.843768091491023E-3   -1.722118863540420E-3   -1.977440336058474E-3   -1.690989078941869E-3   -2.989327528719886E-1    3.365207399500527E-1
 8.193343226100000E9    -3.965372061736308E-1    3.653729232076819E-1   -1.842161369923264E-3   -1.715170535074609E-3   -1.966290245346368E-3   -1.712103806711563E-3   -2.982506498742034E-1    3.373038948780263E-1
 8.193363341650000E9    -3.955098886869570E-1    3.663940304098559E-1   -1.853633135062833E-3   -1.720531858683816E-3   -1.956272292075867E-3   -1.704914655271031E-3   -2.973980185979226E-1    3.377978438448807E-1
 8.193383457200000E9    -3.945274326864956E-1    3.676439452880659E-1   -1.879712761064624E-3   -1.717034179316472E-3   -1.944576218715111E-3   -1.683143201144751E-3   -2.965652493961753E-1    3.386590629355067E-1
 8.193403572750000E9    -3.936591866408532E-1    3.685414480463298E-1   -1.896474544177570E-3   -1.698175705590441E-3   -2.004651865996650E-3   -1.698828919900580E-3   -2.957003945935715E-1    3.393367175036155E-1
 8.193423688300000E9    -3.924741900261989E-1    3.695325410373657E-1   -1.894014296632144E-3   -1.696088050676271E-3   -1.964116214640600E-3   -1.692284200170196E-3   -2.948666664195357E-1    3.400625625318229E-1
 8.193443803850000E9    -3.915743496082686E-1    3.706039222750785E-1   -1.905098022580868E-3   -1.705322465365183E-3   -1.978771903005283E-3   -1.688513974357129E-3   -2.939136134606525E-1    3.408427171841801E-1
 8.193463919400000E9    -3.905827079583170E-1    3.715181525911732E-1   -1.888643312062025E-3   -1.691053452311803E-3   -2.018305603406444E-3   -1.713386866547435E-3   -2.930299795413604E-1    3.414748960178036E-1
 8.193484034950000E9    -3.897318313193731E-1    3.725071579896699E-1   -1.876238070424947E-3   -1.654551010028431E-3   -2.000163425866306E-3   -1.659513562019018E-3   -2.921974018165228E-1    3.420683660195010E-1
 8.193504150500000E9    -3.885655153319807E-1    3.736243716652630E-1   -1.896986781852444E-3   -1.651941688214480E-3   -1.984061718156179E-3   -1.673466909510952E-3   -2.913335848240528E-1    3.428582135365810E-1
 8.193524266050000E9    -3.877080284725464E-1    3.746829403706490E-1   -1.904256915154462E-3   -1.645245443143797E-3   -2.039245228587078E-3   -1.682114394161188E-3   -2.905290229981294E-1    3.435628529042086E-1
 8.193544381600000E9    -3.867303584352553E-1    3.757092399563526E-1   -1.909290383714962E-3   -1.671605426361700E-3   -2.014736932069261E-3   -1.652868079208264E-3   -2.896407981941916E-1    3.442972703723929E-1
 8.193564497150000E9    -3.857344098374652E-1    3.765368111660834E-1   -1.929749050895745E-3   -1.684979624622174E-3   -2.036127381982636E-3   -1.652507950223766E-3   -2.886986443043188E-1    3.451097335970144E-1
 8.193584612700000E9    -3.845955584751115E-1    3.776133982772945E-1   -1.938640388241350E-3   -1.647405333205568E-3   -2.036739691127901E-3   -1.633007862342408E-3   -2.879391507397000E-1    3.456596055390976E-1
 8.193604728250000E9    -3.836247720108050E-1    3.786592406365618E-1   -1.904953779647613E-3   -1.646226259259554E-3   -2.035998923413196E-3   -1.631103784557210E-3   -2.870170939173504E-1    3.463625068303699E-1
 8.193624843800000E9    -3.826630787261799E-1    3.795474052710896E-1   -1.925492738235717E-3   -1.665215415567456E-3   -2.035682974628320E-3   -1.613140886437108E-3   -2.861062871600314E-1    3.470416079878585E-1
 8.193644959350000E9    -3.816885634197824E-1    3.806813635100453E-1   -1.926825304886254E-3   -1.646188217743290E-3   -2.067177347263199E-3   -1.600267006896562E-3   -2.850639258517401E-1    3.477973872690420E-1
 8.193665074900000E9    -3.807199074611726E-1    3.816756728527910E-1   -1.940736328720048E-3   -1.660354321467273E-3   -2.022161366566321E-3   -1.632265206643147E-3   -2.843865511568150E-1    3.483590203198381E-1
 8.193685190450000E9    -3.796209469578095E-1    3.825562078172111E-1   -1.960529732329543E-3   -1.641601540442272E-3   -2.057993799618874E-3   -1.621362554700585E-3   -2.833573638249685E-1    3.491971781767965E-1
 8.193705306000000E9    -3.785020898432658E-1    3.835815601207395E-1   -1.963089459283575E-3   -1.661946677400196E-3   -2.066955752280270E-3   -1.609298418952324E-3   -2.825732291539599E-1    3.497754811204477E-1
 8.193725421550000E9    -3.775632840971656E-1    3.845090821905847E-1   -1.963319168067791E-3   -1.659357640948728E-3   -2.037239725222433E-3   -1.580561998921296E-3   -2.817251471267956E-1    3.506680453392544E-1
 8.193745537100000E9    -3.765479760829473E-1    3.854940581426810E-1   -1.948449821688581E-3   -1.636737922312341E-3   -2.057961917276436E-3   -1.587400689781956E-3   -2.808130860515480E-1    3.512087192716712E-1
 8.193765652650000E9    -3.755145652733028E-1    3.864625235441825E-1   -1.980477875482274E-3   -1.611678485824996E-3   -2.067795075981484E-3   -1.608131548613994E-3   -2.798958419794302E-1    3.518205601757472E-1
 8.193785768200000E9    -3.745138701869331E-1    3.876953817701597E-1   -1.982044422751367E-3   -1.621880942258414E-3   -2.075852870115430E-3   -1.577163601848260E-3   -2.790535515684892E-1    3.526026173836758E-1
 8.193805883750000E9    -3.734726531715210E-1    3.885479831072987E-1   -1.981522607873993E-3   -1.611224817002542E-3   -2.094389357418908E-3   -1.591364771521353E-3   -2.781337563443942E-1    3.532791316189720E-1
 8.193825999300000E9    -3.724198738207289E-1    3.896022736930836E-1   -1.969560225891101E-3   -1.631011793170158E-3   -2.103572626306956E-3   -1.616095817889078E-3   -2.772130141147295E-1    3.538599792589079E-1
 8.193846114850000E9    -3.714160383180224E-1    3.905481004628699E-1   -1.967719527312486E-3   -1.610947155224898E-3   -2.107784652510827E-3   -1.568390859428720E-3   -2.761380239809367E-1    3.546672994362572E-1
 8.193866230400000E9    -3.703148153009990E-1    3.913534269964657E-1   -1.982521309439340E-3   -1.625193066729015E-3   -2.061210570010767E-3   -1.570910641926614E-3   -2.753179041100444E-1    3.552607595704503E-1
 8.193886345950000E9    -3.692829847988712E-1    3.923020648117633E-1   -1.997475983193061E-3   -1.584970158221147E-3   -2.122986734351157E-3   -1.539767907311054E-3   -2.745077552249234E-1    3.559794977533632E-1
 8.193906461500000E9    -3.683061815135132E-1    3.933553165151695E-1   -1.982270498884093E-3   -1.595593338922691E-3   -2.080385227333626E-3   -1.572854890707985E-3   -2.736423942452912E-1    3.566379469389803E-1
 8.193926577050000E9    -3.671383689874065E-1    3.941874803872200E-1   -2.019985917982782E-3   -1.590977532062595E-3   -2.121198914308043E-3   -1.576778083617276E-3   -2.726688324743934E-1    3.571692045117617E-1
 8.193946692600000E9    -3.661079624016561E-1    3.953157975686430E-1   -1.982239533830398E-3   -1.550760270163248E-3   -2.123984652997935E-3   -1.581347076157939E-3   -2.717736847616261E-1    3.577317226790175E-1
 8.193966808150000E9    -3.651469272749588E-1    3.962171663056783E-1   -2.037208692656110E-3   -1.555055059425247E-3   -2.112187621925142E-3   -1.535781644089896E-3   -2.707285748921409E-1    3.585136679853231E-1
 8.193986923700000E9    -3.641492903041800E-1    3.970187262784035E-1   -2.037730023748932E-3   -1.550123848196791E-3   -2.118855596330712E-3   -1.538397949537266E-3   -2.699278287686853E-1    3.592350423961713E-1
 8.194007039250000E9    -3.630862364102830E-1    3.979654685637057E-1   -2.018375976005148E-3   -1.569972880046934E-3   -2.143506534603638E-3   -1.528733037276973E-3   -2.689375687133573E-1    3.597592588819145E-1
 8.194027154800000E9    -3.619317677298461E-1    3.990569211831710E-1   -2.015570419437700E-3   -1.579940745051451E-3   -2.121140521604089E-3   -1.516861705636178E-3   -2.680893323914534E-1    3.605179427923518E-1
 8.194047270350000E9    -3.609503154972177E-1    3.999846171861789E-1   -2.027180616376305E-3   -1.583895751348850E-3   -2.136619996668746E-3   -1.514658428221191E-3   -2.672747967970648E-1    3.612510910402208E-1
 8.194067385900000E9    -3.598274069161566E-1    4.009140443251499E-1   -2.041459046696698E-3   -1.552447090433171E-3   -2.172564698487778E-3   -1.518779448769663E-3   -2.661751912978286E-1    3.617862263296132E-1
 8.194087501450000E9    -3.587629702504576E-1    4.018308529453858E-1   -2.046345899774589E-3   -1.539995641520880E-3   -2.143807474670249E-3   -1.531544345825130E-3   -2.653606474069667E-1    3.623918648475142E-1
 8.194107617000000E9    -3.576825353869418E-1    4.026901716231204E-1   -2.021924601263550E-3   -1.558861912355025E-3   -2.131782119367617E-3   -1.521544700488104E-3   -2.645219110924267E-1    3.629401604035811E-1
 8.194127732550000E9    -3.565872153380315E-1    4.037507471213732E-1   -2.052454103769952E-3   -1.517186176745087E-3   -2.157961544301367E-3   -1.507616390980337E-3   -2.635864397986179E-1    3.638038554526927E-1
 8.194147848100000E9    -3.555425949274316E-1    4.045758697351588E-1   -2.059016800825324E-3   -1.538253416355886E-3   -2.149817620609111E-3   -1.477399881213337E-3   -2.626215851397668E-1    3.643292262952790E-1
 8.194167963650000E9    -3.544906993394643E-1    4.055159120220939E-1   -2.063557971164305E-3   -1.532417259291042E-3   -2.174107741966737E-3   -1.487908959436477E-3   -2.615306275656429E-1    3.649442681844183E-1
 8.194188079200000E9    -3.534113466998049E-1    4.064367408769426E-1   -2.055290818882562E-3   -1.519588677157250E-3   -2.163535927523198E-3   -1.493265657989285E-3   -2.608200224633599E-1    3.656317136474638E-1
 8.194208194750000E9    -3.523762732897109E-1    4.074434819446496E-1   -2.098897595207377E-3   -1.520999762485562E-3   -2.191256336503733E-3   -1.510013313852497E-3   -2.598867254695019E-1    3.661968748591954E-1
 8.194228310300000E9    -3.512630264617399E-1    4.082700601098603E-1   -2.051486869489746E-3   -1.514737452743373E-3   -2.187575272837050E-3   -1.502334893401003E-3   -2.589631315170585E-1    3.669479371504605E-1
 8.194248425850000E9    -3.501805962787409E-1    4.092211188124806E-1   -2.075735491771472E-3   -1.519073140413454E-3   -2.181749850393864E-3   -1.474540883215593E-3   -2.579819064861594E-1    3.673185784019092E-1
 8.194268541400000E9    -3.490122606877327E-1    4.100313832986993E-1   -2.074586235292691E-3   -1.513783336728999E-3   -2.168205415990912E-3   -1.497933630959198E-3   -2.569903151452542E-1    3.680797221059690E-1
 8.194288656950000E9    -3.479894161446204E-1    4.111368702071634E-1   -2.085482593569003E-3   -1.508567813409990E-3   -2.202551034145591E-3   -1.467862930185846E-3   -2.561013299767238E-1    3.686386578242044E-1
 8.194308772500000E9    -3.468183866500158E-1    4.118577863794177E-1   -2.088285877484559E-3   -1.482485016131969E-3   -2.219571184170560E-3   -1.457379974742903E-3   -2.552563162018554E-1    3.692897749642046E-1
 8.194328888050000E9    -3.457569450439091E-1    4.127928300414093E-1   -2.105761289809930E-3   -1.485158056514770E-3   -2.214444403963203E-3   -1.444347765966603E-3   -2.541101958982747E-1    3.698068669898470E-1
 8.194349003600000E9    -3.448235303614667E-1    4.137079659429410E-1   -2.129994508364713E-3   -1.499257272205298E-3   -2.219249017484241E-3   -1.438879637153998E-3   -2.532764759196275E-1    3.706008580148767E-1
 8.194369119150000E9    -3.436224565421308E-1    4.145303014403617E-1   -2.123152473618278E-3   -1.497250426778157E-3   -2.228573814081751E-3   -1.458826539715834E-3   -2.522603110500685E-1    3.710820309036887E-1
 8.194389234700000E9    -3.424470932724755E-1    4.154452840114654E-1   -2.133957233539706E-3   -1.467863351767539E-3   -2.240715138589257E-3   -1.446606935423364E-3   -2.513748445230843E-1    3.717069208468410E-1
 8.194409350250000E9    -3.415094228970426E-1    4.163919863854691E-1   -2.164242225305698E-3   -1.482909728571881E-3   -2.262985671338713E-3   -1.433991848585189E-3   -2.503256610187965E-1    3.722757136706860E-1
 8.194429465800000E9    -3.402141043052473E-1    4.172190219188555E-1   -2.134814123079044E-3   -1.450165404855162E-3   -2.204669670501990E-3   -1.432965486421044E-3   -2.494998062109034E-1    3.730041508922616E-1
 8.194449581350000E9    -3.392354217589096E-1    4.181670075812765E-1   -2.122323644557016E-3   -1.464447355581598E-3   -2.261202338904594E-3   -1.437576083865907E-3   -2.485031175947793E-1    3.735690646385973E-1
 8.194469696900000E9    -3.379695197036621E-1    4.189767282475167E-1   -2.185788940290865E-3   -1.485216974409401E-3   -2.277173484666487E-3   -1.430444416046538E-3   -2.476107673216715E-1    3.741115763108538E-1
 8.194489812450000E9    -3.370089007773346E-1    4.200970011208990E-1   -2.127937680535611E-3   -1.478568043491368E-3   -2.260488112433544E-3   -1.423852157027558E-3   -2.465238706670046E-1    3.746666657749995E-1
 8.194509928000000E9    -3.358856340601778E-1    4.208379433273348E-1   -2.167834933747800E-3   -1.451697925126732E-3   -2.250173761655026E-3   -1.433520712076250E-3   -2.456453685455710E-1    3.753689872480105E-1
 8.194530043550000E9    -3.347294243787547E-1    4.216497920175554E-1   -2.121042545873723E-3   -1.458553757669839E-3   -2.242149090541148E-3   -1.435929044821492E-3   -2.447707258372245E-1    3.758667801944857E-1
 8.194550159100000E9    -3.335282783968092E-1    4.225631603451036E-1   -2.142322190625716E-3   -1.451243624550075E-3   -2.238648387123028E-3   -1.385042377086999E-3   -2.437531037160586E-1    3.764159279114334E-1
 8.194570274650000E9    -3.323919414896991E-1    4.233606619527405E-1   -2.154325925471663E-3   -1.443536344733181E-3   -2.290480827384627E-3   -1.387937893248198E-3   -2.427596990852744E-1    3.771333215251801E-1
 8.194590390200000E9    -3.313057327271343E-1    4.242918259914581E-1   -2.165820409669353E-3   -1.458733232295754E-3   -2.262119735756732E-3   -1.370935527769521E-3   -2.418803041005081E-1    3.775804719545548E-1
 8.194610505750000E9    -3.302018729170884E-1    4.251716841792820E-1   -2.183644525814603E-3   -1.421902549479936E-3   -2.287769338209557E-3   -1.383886558967171E-3   -2.407955118956798E-1    3.781925759255302E-1
 8.194630621300000E9    -3.291157696108621E-1    4.259705739084654E-1   -2.186807175650481E-3   -1.442627399988237E-3   -2.260021551071166E-3   -1.357204169771105E-3   -2.400055051455687E-1    3.788511264151003E-1
 8.194650736850000E9    -3.278324590557498E-1    4.268495247220751E-1   -2.196304319348081E-3   -1.411204357306594E-3   -2.291854018315601E-3   -1.353599334226811E-3   -2.389218163642501E-1    3.794318830042320E-1
 8.194670852400000E9    -3.268197586208071E-1    4.276515120065920E-1   -2.173318963359299E-3   -1.399556002128414E-3   -2.256252243931936E-3   -1.358516713514649E-3   -2.378529465391375E-1    3.799071866577116E-1
 8.194690967950000E9    -3.256783329041505E-1    4.285517971209220E-1   -2.180217303234648E-3   -1.381047484443012E-3   -2.307929949803770E-3   -1.361895306534607E-3   -2.368984318787142E-1    3.806526765649196E-1
 8.194711083500000E9    -3.245137714298031E-1    4.293767755998315E-1   -2.196604953374997E-3   -1.402699113995499E-3   -2.346916247687370E-3   -1.367389671537864E-3   -2.360305014455996E-1    3.809648909398087E-1
