#  HZ   S   RI   R     50.00 
! Rohde & Schwarz Vector Network Analyzer 
! Rohde-Schwarz,ZNB20-2Port,1311601062101988,3.16
! Created: UTC 3/20/2024, 4:53:41 PM
! freq[Hz]                re:S11                  im:S11                  re:S21                  im:S21                  re:S12                  im:S12                  re:S22                  im:S22
 8.192851118000000E9    -4.195003818446876E-1    3.393941213364363E-1   -1.739702432732656E-3   -1.790546392411683E-3   -1.812314148699008E-3   -1.804902557407036E-3   -3.187622563699332E-1    3.189196295609260E-1
 8.192871449950000E9    -4.185265263874543E-1    3.404729050806600E-1   -1.714888451209813E-3   -1.813465034696783E-3   -1.815778392944433E-3   -1.831960754889357E-3   -3.179738465691318E-1    3.196469126763737E-1
 8.192891781900000E9    -4.176495968125609E-1    3.415146828150784E-1   -1.747373205263584E-3   -1.808924540374978E-3   -1.857816118669338E-3   -1.784621385562305E-3   -3.170554521392425E-1    3.205911837074379E-1
 8.192912113850000E9    -4.166900536864750E-1    3.425857709325098E-1   -1.758644434287966E-3   -1.817673572300925E-3   -1.857717566861038E-3   -1.769658505920866E-3   -3.162721728809565E-1    3.212633641541527E-1
 8.192932445800000E9    -4.157392011915992E-1    3.437294330927191E-1   -1.739281843042430E-3   -1.806232492585557E-3   -1.860369971568349E-3   -1.784380965299381E-3   -3.153823983770287E-1    3.219371306462139E-1
 8.192952777750000E9    -4.149025741609584E-1    3.448575155143795E-1   -1.759429332585748E-3   -1.783423225629658E-3   -1.871692892283310E-3   -1.780492528560283E-3   -3.145050533934066E-1    3.227462719954515E-1
 8.192973109700000E9    -4.139151523964326E-1    3.460245385553997E-1   -1.746748102995720E-3   -1.797830780263065E-3   -1.858523262173911E-3   -1.775946567956348E-3   -3.137707707941768E-1    3.235310552211535E-1
 8.192993441650000E9    -4.129857831021945E-1    3.470948306899798E-1   -1.776742274970830E-3   -1.790389292881808E-3   -1.900995106992695E-3   -1.761996612042636E-3   -3.129496136128243E-1    3.242628404314096E-1
 8.193013773600000E9    -4.120782323654525E-1    3.481687526343806E-1   -1.757787219172396E-3   -1.762592005969128E-3   -1.884382622961708E-3   -1.756872099510536E-3   -3.120903468848562E-1    3.250848216807996E-1
 8.193034105550000E9    -4.112071216480586E-1    3.492477744677517E-1   -1.789905931015721E-3   -1.760742070562692E-3   -1.870009392873230E-3   -1.771306977575161E-3   -3.112034878338288E-1    3.258336390737912E-1
 8.193054437500000E9    -4.100626570392791E-1    3.503980382798181E-1   -1.785325700204822E-3   -1.774772527464883E-3   -1.894224591809353E-3   -1.761482872026873E-3   -3.104154935338818E-1    3.265041178363017E-1
 8.193074769450000E9    -4.091404721763325E-1    3.513503143382425E-1   -1.776844824736317E-3   -1.764511415309905E-3   -1.893752361848036E-3   -1.797328485993358E-3   -3.095760039599651E-1    3.273976851562587E-1
 8.193095101400000E9    -4.083243439244799E-1    3.524951367879131E-1   -1.785515467213351E-3   -1.783599551326534E-3   -1.911446834629679E-3   -1.758991698786707E-3   -3.086249145145972E-1    3.281208145598097E-1
 8.193115433350000E9    -4.072279855658165E-1    3.534677483662360E-1   -1.826728867956861E-3   -1.737290684704079E-3   -1.924395205292884E-3   -1.693978829628568E-3   -3.079731616603573E-1    3.289112192114252E-1
 8.193135765300000E9    -4.062680538945205E-1    3.545114967357750E-1   -1.812735108987168E-3   -1.735966550858032E-3   -1.891817847829285E-3   -1.779155497172880E-3   -3.069015174101102E-1    3.296891034069724E-1
 8.193156097250000E9    -4.054358510694465E-1    3.556331000792184E-1   -1.811565815046815E-3   -1.755590099595393E-3   -1.931867391722009E-3   -1.735024855706896E-3   -3.062766354532421E-1    3.305206354882650E-1
 8.193176429200000E9    -4.045746335133421E-1    3.566817748521300E-1   -1.819191386293534E-3   -1.741199472347474E-3   -1.909771655248626E-3   -1.723245072494356E-3   -3.053770490753919E-1    3.311524329679957E-1
 8.193196761150000E9    -4.034973412926117E-1    3.578297842063987E-1   -1.831802640162830E-3   -1.741486971109776E-3   -1.922521241480662E-3   -1.748355383011900E-3   -3.045320851595005E-1    3.318643144511315E-1
 8.193217093100000E9    -4.026012711821048E-1    3.588753581406830E-1   -1.841090727954419E-3   -1.757668948950153E-3   -1.920118730456656E-3   -1.719471450737114E-3   -3.035887033336327E-1    3.324865387280671E-1
 8.193237425050000E9    -4.016586140094451E-1    3.599928664207288E-1   -1.821377641916388E-3   -1.727522433218726E-3   -1.948532740338118E-3   -1.730288392476189E-3   -3.029338561118090E-1    3.332041907088431E-1
 8.193257757000000E9    -4.005629592373711E-1    3.611238016538250E-1   -1.818742760793220E-3   -1.735659811229403E-3   -1.913019131913671E-3   -1.681910006841128E-3   -3.018369411168017E-1    3.341424835722687E-1
 8.193278088950000E9    -3.997140468379509E-1    3.620916098805048E-1   -1.848045358300092E-3   -1.729108348710213E-3   -1.953241194845654E-3   -1.716727793520656E-3   -3.012269222244831E-1    3.347312626742863E-1
 8.193298420900000E9    -3.985573545440161E-1    3.630693904564563E-1   -1.840643160559378E-3   -1.732553876645675E-3   -1.946385558378229E-3   -1.704491288821165E-3   -3.002050820932536E-1    3.354080029410756E-1
 8.193318752850000E9    -3.977002804434377E-1    3.641627034569311E-1   -1.844034264961027E-3   -1.715598336236970E-3   -1.929859982701639E-3   -1.714770907427025E-3   -2.993083289804092E-1    3.362729563572563E-1
 8.193339084800000E9    -3.966806708770789E-1    3.651017746739307E-1   -1.869856249994713E-3   -1.719678515989892E-3   -1.957143238679769E-3   -1.696674105503175E-3   -2.985254862076828E-1    3.369984705101215E-1
 8.193359416750000E9    -3.957040089188765E-1    3.662921086287446E-1   -1.831404497507523E-3   -1.699692329426380E-3   -1.972112611819990E-3   -1.733029948107117E-3   -2.977381570913776E-1    3.376616842266967E-1
 8.193379748700000E9    -3.947579481767739E-1    3.673271865714394E-1   -1.855021833282894E-3   -1.695612387784339E-3   -1.977790482296139E-3   -1.705228000067790E-3   -2.967401927775126E-1    3.385340602512513E-1
 8.193400080650000E9    -3.938062423243816E-1    3.683538741853591E-1   -1.845913362965540E-3   -1.702936098458497E-3   -1.993273424302727E-3   -1.718047740146691E-3   -2.960366133164737E-1    3.391515642549807E-1
 8.193420412600000E9    -3.926421397755920E-1    3.693240463811143E-1   -1.868838420266722E-3   -1.690109613042342E-3   -1.983211173601269E-3   -1.702222569901161E-3   -2.949771212172968E-1    3.399086615328328E-1
 8.193440744550000E9    -3.917558029923229E-1    3.704816832886321E-1   -1.912812566635740E-3   -1.697825937524776E-3   -2.016318968198969E-3   -1.669913475551832E-3   -2.941109003036066E-1    3.406142618023930E-1
 8.193461076500000E9    -3.907866289398389E-1    3.714311219719957E-1   -1.913812380476801E-3   -1.696276063775793E-3   -1.981799647848192E-3   -1.662855208961144E-3   -2.932536391916906E-1    3.414033307900193E-1
 8.193481408450000E9    -3.898473633926216E-1    3.723687423271489E-1   -1.876025639749803E-3   -1.684726646741031E-3   -2.002126617961709E-3   -1.653950817579398E-3   -2.922921493434840E-1    3.420503088017170E-1
 8.193501740400000E9    -3.888647341206391E-1    3.734803985719923E-1   -1.887598200536850E-3   -1.707133513471862E-3   -1.989882565569456E-3   -1.673672491015169E-3   -2.916213514905830E-1    3.427175899792448E-1
 8.193522072350000E9    -3.877338421973705E-1    3.744148413139741E-1   -1.903035789666386E-3   -1.669330593530147E-3   -1.988467724066108E-3   -1.636953355366170E-3   -2.905531986715949E-1    3.434700664410598E-1
 8.193542404300000E9    -3.869233107150920E-1    3.755237468672228E-1   -1.912262320918410E-3   -1.678462808141158E-3   -1.976930698820760E-3   -1.655150029854200E-3   -2.897885754871831E-1    3.442854993180132E-1
 8.193562736250000E9    -3.858367528228230E-1    3.765922513304802E-1   -1.891710279144255E-3   -1.678373858419231E-3   -2.008490662271205E-3   -1.637049552421118E-3   -2.889109013974813E-1    3.450214704796729E-1
 8.193583068200000E9    -3.847478563531676E-1    3.775043550875273E-1   -1.941897262684351E-3   -1.710635670849969E-3   -2.032532864433102E-3   -1.657723977339852E-3   -2.880072667162075E-1    3.455580523317270E-1
 8.193603400150000E9    -3.837786647597133E-1    3.785786214970692E-1   -1.934627428734682E-3   -1.645205597836908E-3   -2.044856103442723E-3   -1.625178184192862E-3   -2.871481131944369E-1    3.463386233127206E-1
 8.193623732100000E9    -3.827338915821681E-1    3.796610100910233E-1   -1.909555029731179E-3   -1.668939387320878E-3   -2.004683307667462E-3   -1.640135104942280E-3   -2.862639745034021E-1    3.468816890232908E-1
 8.193644064050000E9    -3.816510240219143E-1    3.805108217599486E-1   -1.911314226725552E-3   -1.638137357353105E-3   -2.033226940813577E-3   -1.621716524856420E-3   -2.853635701786588E-1    3.476550887525187E-1
 8.193664396000000E9    -3.806118511766734E-1    3.815409837134767E-1   -1.945091425659886E-3   -1.645901749772722E-3   -2.044471299928160E-3   -1.630250822490932E-3   -2.844100685942637E-1    3.484154972074338E-1
 8.193684727950000E9    -3.796982526816040E-1    3.825663662708499E-1   -1.935359426341425E-3   -1.634871616703050E-3   -2.061148931964293E-3   -1.632903638007136E-3   -2.834230027908128E-1    3.491540631651204E-1
 8.193705059900000E9    -3.785637651473814E-1    3.835770791852235E-1   -1.952789962019693E-3   -1.633438053235101E-3   -2.045300899354043E-3   -1.654837041788456E-3   -2.824950699583353E-1    3.498477794295320E-1
 8.193725391850000E9    -3.774978065632696E-1    3.845288688532180E-1   -1.942088364962046E-3   -1.649193500580255E-3   -2.072982835723547E-3   -1.622061550481145E-3   -2.818209918524658E-1    3.506781866234870E-1
 8.193745723800000E9    -3.765290169341800E-1    3.856059762465511E-1   -1.964309993506563E-3   -1.647747307180645E-3   -2.044973211414227E-3   -1.608352096924549E-3   -2.808598313666560E-1    3.511100613633252E-1
 8.193766055750000E9    -3.754906714494322E-1    3.865889401082090E-1   -1.971803874956411E-3   -1.624886544923476E-3   -2.064999695982910E-3   -1.607853005299517E-3   -2.799490036601582E-1    3.518679358235096E-1
 8.193786387700000E9    -3.745370486597239E-1    3.876204669934908E-1   -1.979836560777357E-3   -1.589347599064401E-3   -2.091137629759153E-3   -1.580906038538154E-3   -2.789999791971515E-1    3.525212596247162E-1
 8.193806719650000E9    -3.734760486630868E-1    3.885309985588394E-1   -1.992581973412570E-3   -1.614802933983703E-3   -2.110715244887304E-3   -1.588223944077987E-3   -2.780264568070397E-1    3.533209903164696E-1
 8.193827051600000E9    -3.724332231407317E-1    3.894857881720847E-1   -1.989645457766232E-3   -1.601556227796962E-3   -2.091937882679800E-3   -1.583037724488619E-3   -2.772906336552511E-1    3.538947234055274E-1
 8.193847383550000E9    -3.714693283311853E-1    3.904166504241195E-1   -1.982448193498088E-3   -1.625550141712446E-3   -2.080578799494294E-3   -1.572541190569644E-3   -2.762279404179410E-1    3.544791024399253E-1
 8.193867715500000E9    -3.703647466477328E-1    3.914788281038113E-1   -1.964813471557797E-3   -1.596918481215775E-3   -2.097828044253845E-3   -1.572907913174041E-3   -2.754390409932728E-1    3.554080662427396E-1
 8.193888047450000E9    -3.693677639327050E-1    3.924853640374990E-1   -1.979898125479745E-3   -1.589436808886979E-3   -2.095094674466183E-3   -1.551282170008918E-3   -2.744308245065077E-1    3.559240719972437E-1
 8.193908379400000E9    -3.682815492401629E-1    3.934239459057889E-1   -2.016199367315400E-3   -1.622460189562214E-3   -2.111519272023302E-3   -1.571568600437304E-3   -2.735624302362347E-1    3.567756275378505E-1
 8.193928711350000E9    -3.671576830862316E-1    3.943871910567571E-1   -2.028751586063152E-3   -1.579238781155338E-3   -2.109938165110159E-3   -1.556520291611911E-3   -2.726268332364531E-1    3.573115678797981E-1
 8.193949043300000E9    -3.660798226721180E-1    3.952578355551302E-1   -2.005989617775573E-3   -1.592095337877835E-3   -2.104219328395004E-3   -1.549934541114500E-3   -2.717216281403406E-1    3.579815041499856E-1
 8.193969375250000E9    -3.650568734973165E-1    3.963279342164707E-1   -2.031519072556847E-3   -1.568410633482999E-3   -2.111720904866546E-3   -1.540151895166103E-3   -2.708514766066583E-1    3.586061324798637E-1
 8.193989707200000E9    -3.639258465884765E-1    3.973156756088116E-1   -2.009285517004392E-3   -1.578325035765217E-3   -2.123752862401118E-3   -1.560633867026328E-3   -2.698857805037028E-1    3.593323915107414E-1
 8.194010039150000E9    -3.628985149384796E-1    3.981118922873476E-1   -2.033155498815778E-3   -1.556297183440651E-3   -2.114191051902419E-3   -1.539694412893376E-3   -2.688214503837665E-1    3.598200760240356E-1
 8.194030371100000E9    -3.617740042735624E-1    3.991170114140047E-1   -2.032623208038567E-3   -1.556197816449361E-3   -2.152381241830229E-3   -1.519526111824568E-3   -2.679171803349402E-1    3.605422510176121E-1
 8.194050703050000E9    -3.607468487395393E-1    4.001645204677138E-1   -2.014559548076223E-3   -1.588076360676308E-3   -2.156811931259106E-3   -1.500457943288717E-3   -2.671873262390366E-1    3.612808368502431E-1
 8.194071035000000E9    -3.598235936525053E-1    4.011625056007549E-1   -2.047753073174540E-3   -1.542282391814265E-3   -2.123099604140193E-3   -1.567587012318749E-3   -2.662651295731247E-1    3.617318354340409E-1
 8.194091366950000E9    -3.586170001474436E-1    4.020071692392487E-1   -2.047975087815982E-3   -1.535369223207463E-3   -2.140612802491456E-3   -1.533649283485184E-3   -2.651314073638744E-1    3.625842579174386E-1
 8.194111698900000E9    -3.574264246599625E-1    4.028978148447811E-1   -2.050577373566168E-3   -1.525579726338762E-3   -2.191980908677580E-3   -1.507982219756071E-3   -2.643164817570517E-1    3.631863338880589E-1
 8.194132030850000E9    -3.564354282112491E-1    4.039218381981732E-1   -2.049950942663064E-3   -1.537149970365399E-3   -2.154636619083316E-3   -1.510135038984593E-3   -2.634220794811939E-1    3.637463038300560E-1
 8.194152362800000E9    -3.553140383182369E-1    4.047747930950744E-1   -2.050471035898020E-3   -1.521649526831198E-3   -2.173248228611230E-3   -1.529495467261308E-3   -2.623332676349350E-1    3.643966279662094E-1
 8.194172694750000E9    -3.542319319801959E-1    4.057906116618720E-1   -2.070297977660247E-3   -1.549900025227049E-3   -2.171358999100306E-3   -1.485360473251349E-3   -2.614071132289794E-1    3.649797813367635E-1
 8.194193026700000E9    -3.532069788385956E-1    4.066962334386909E-1   -2.086775171637355E-3   -1.534852406057437E-3   -2.155729750978306E-3   -1.483668809590549E-3   -2.604398591545372E-1    3.655564132271693E-1
 8.194213358650000E9    -3.521017829303734E-1    4.076627914128553E-1   -2.085326166372930E-3   -1.526262857091765E-3   -2.156492700545066E-3   -1.489626648478336E-3   -2.596414229624384E-1    3.661970768079721E-1
 8.194233690600000E9    -3.509600470698504E-1    4.086075920621597E-1   -2.069257348087376E-3   -1.540092190409068E-3   -2.209248245442418E-3   -1.460009277793879E-3   -2.586609471800586E-1    3.669250402153738E-1
 8.194254022550000E9    -3.498592422192988E-1    4.095422862544054E-1   -2.078017811540416E-3   -1.509022266730851E-3   -2.182660403965776E-3   -1.465070936024635E-3   -2.577437251025358E-1    3.675333411509204E-1
 8.194274354500000E9    -3.488407522451016E-1    4.104928203692253E-1   -2.063383385252695E-3   -1.515476928541967E-3   -2.241334691806351E-3   -1.478829223291616E-3   -2.568358376297237E-1    3.683626103130092E-1
 8.194294686450000E9    -3.476207900518082E-1    4.113347192818056E-1   -2.087299131894700E-3   -1.509522557080944E-3   -2.201832827103698E-3   -1.472992868627872E-3   -2.559646270617872E-1    3.687801477792231E-1
 8.194315018400000E9    -3.465433220129966E-1    4.121518945189797E-1   -2.113967931826485E-3   -1.500020649325962E-3   -2.209058314790497E-3   -1.478165809069942E-3   -2.549456213865566E-1    3.693751285830102E-1
 8.194335350350000E9    -3.454588537156993E-1    4.131139972971195E-1   -2.109660506853439E-3   -1.503137421359989E-3   -2.212610251514520E-3   -1.486082505525631E-3   -2.539075460042692E-1    3.702561676244283E-1
 8.194355682300000E9    -3.442943125262270E-1    4.139891960957620E-1   -2.127258002968166E-3   -1.470600217492358E-3   -2.194227503312676E-3   -1.465995190138090E-3   -2.528909579039619E-1    3.706866132906195E-1
 8.194376014250000E9    -3.431863890353531E-1    4.149434529321771E-1   -2.138053128496110E-3   -1.496316912935110E-3   -2.227827761362074E-3   -1.442128754804471E-3   -2.520704461962814E-1    3.712577471003622E-1
 8.194396346200000E9    -3.420257021971161E-1    4.157979579724005E-1   -2.107963205575493E-3   -1.486260703250320E-3   -2.211099947474557E-3   -1.484347434792485E-3   -2.509904843433622E-1    3.720384534492044E-1
 8.194416678150000E9    -3.409727173128982E-1    4.167902817655989E-1   -2.138422344574481E-3   -1.494426692905231E-3   -2.223783568152872E-3   -1.437764972039907E-3   -2.500150989974418E-1    3.724304662986051E-1
 8.194437010100000E9    -3.398666087339457E-1    4.176742617155159E-1   -2.134516676662988E-3   -1.480943783953520E-3   -2.233487186818538E-3   -1.401641626240693E-3   -2.492259394122719E-1    3.730051146956677E-1
 8.194457342050000E9    -3.387203459006100E-1    4.185907855947936E-1   -2.126567940337183E-3   -1.475583746381927E-3   -2.247495777247797E-3   -1.435057436731045E-3   -2.482812128399260E-1    3.736813149509131E-1
 8.194477674000000E9    -3.375485445140103E-1    4.194393267792450E-1   -2.148745052994399E-3   -1.451405452040108E-3   -2.227726799613020E-3   -1.406017961957180E-3   -2.472198122903435E-1    3.742136084440745E-1
 8.194498005950000E9    -3.364716013474033E-1    4.203026098257136E-1   -2.140586168913154E-3   -1.449089614189940E-3   -2.256137744129486E-3   -1.435962861922896E-3   -2.462446174501371E-1    3.749917257262214E-1
 8.194518337900000E9    -3.354069612929039E-1    4.211711559603569E-1   -2.171018731224919E-3   -1.451761642413100E-3   -2.263015531743605E-3   -1.408005016115574E-3   -2.453718302348899E-1    3.754517478433912E-1
 8.194538669850000E9    -3.342637677928419E-1    4.221964570823944E-1   -2.172316231979027E-3   -1.457890006364558E-3   -2.254054170811731E-3   -1.411415634758584E-3   -2.443143287280981E-1    3.759990501017225E-1
 8.194559001800000E9    -3.330437977126186E-1    4.229461529786484E-1   -2.142835444796749E-3   -1.439824399120961E-3   -2.259088357229527E-3   -1.415328909207706E-3   -2.433882949380622E-1    3.767243045946888E-1
 8.194579333750000E9    -3.320114753477347E-1    4.238953177279306E-1   -2.149382692587661E-3   -1.454677915926068E-3   -2.276230685258386E-3   -1.392367665007072E-3   -2.423407366959149E-1    3.773097996680411E-1
 8.194599665700000E9    -3.307484784296730E-1    4.246743071997530E-1   -2.189532963490774E-3   -1.430656462069735E-3   -2.264177217126136E-3   -1.401521369544529E-3   -2.415356560413768E-1    3.778965880909988E-1
 8.194619997650000E9    -3.297889868345690E-1    4.256042194419248E-1   -2.159786130869448E-3   -1.422458192528296E-3   -2.308006430877088E-3   -1.376025952717794E-3   -2.403822326174354E-1    3.784821361033611E-1
 8.194640329600000E9    -3.285017177470071E-1    4.264385402653046E-1   -2.172697552029913E-3   -1.422709889256365E-3   -2.288956462749798E-3   -1.394773640859833E-3   -2.393903245447838E-1    3.790449054169955E-1
 8.194660661550000E9    -3.274234996765176E-1    4.272233845046513E-1   -2.195816238501296E-3   -1.432831492601979E-3   -2.281762346113021E-3   -1.376583836260064E-3   -2.385663399844947E-1    3.796547889527752E-1
 8.194680993500000E9    -3.262859951152938E-1    4.281453996332811E-1   -2.198815351954821E-3   -1.431375102152152E-3   -2.322109862749333E-3   -1.394705579587797E-3   -2.374906619221892E-1    3.802474779219357E-1
