#  HZ   S   RI   R     50.00 
! Rohde & Schwarz Vector Network Analyzer 
! Rohde-Schwarz,ZNB20-2Port,1311601062101988,3.16
! Created: UTC 3/20/2024, 4:53:44 PM
! freq[Hz]                re:S11                  im:S11                  re:S21                  im:S21                  re:S12                  im:S12                  re:S22                  im:S22
 8.192458566000000E9    -4.363842975033842E-1    3.175367259850324E-1   -1.635306960664872E-3   -1.876535921726225E-3   -1.729266320811435E-3   -1.887554752462574E-3   -3.341776584157760E-1    3.035087295625966E-1
 8.192480680300000E9    -4.355723378558445E-1    3.187993898536572E-1   -1.630808532022074E-3   -1.865042700777508E-3   -1.744780503269352E-3   -1.886344945680247E-3   -3.332665250194221E-1    3.043357570768675E-1
 8.192502794600000E9    -4.345880966018958E-1    3.201756962270106E-1   -1.644134254413414E-3   -1.883725786188872E-3   -1.717513144228288E-3   -1.875286754191379E-3   -3.324440890267075E-1    3.053293407198400E-1
 8.192524908900000E9    -4.335415030711791E-1    3.213631221070612E-1   -1.640639243236436E-3   -1.863971973717685E-3   -1.748624825413079E-3   -1.877227779919657E-3   -3.315829383474281E-1    3.061447668367471E-1
 8.192547023200000E9    -4.326692880230218E-1    3.226100426140443E-1   -1.635716428679533E-3   -1.870767931038913E-3   -1.763704580242289E-3   -1.875156676098138E-3   -3.306424006280209E-1    3.069834475176507E-1
 8.192569137500000E9    -4.318065816542606E-1    3.237522048751529E-1   -1.659173209386108E-3   -1.839930070652074E-3   -1.754945261072818E-3   -1.886304339516024E-3   -3.298887476471449E-1    3.078596761144955E-1
 8.192591251800000E9    -4.307694363608991E-1    3.250690690434195E-1   -1.649351534724818E-3   -1.863392372350215E-3   -1.771102524477046E-3   -1.884316881253893E-3   -3.288826877054427E-1    3.087257770270920E-1
 8.192613366100000E9    -4.297369472719406E-1    3.263256836053585E-1   -1.671727425480397E-3   -1.853476861126718E-3   -1.775615039430973E-3   -1.851138656459652E-3   -3.280747327137208E-1    3.095911588277166E-1
 8.192635480400000E9    -4.287828175393404E-1    3.275090157569292E-1   -1.658704205970734E-3   -1.843112113697284E-3   -1.778704177530098E-3   -1.858233588129777E-3   -3.272723050802557E-1    3.106117860335967E-1
 8.192657594700000E9    -4.279211427239922E-1    3.287366146569825E-1   -1.668047758004395E-3   -1.859817086702272E-3   -1.801013855989913E-3   -1.857800189213796E-3   -3.263500754956733E-1    3.115134033549421E-1
 8.192679709000000E9    -4.269637348733064E-1    3.300998443316097E-1   -1.682323384224993E-3   -1.847484973959095E-3   -1.786425512088808E-3   -1.850100256868752E-3   -3.255893077295915E-1    3.123476462569472E-1
 8.192701823300000E9    -4.259754041000801E-1    3.312015915398530E-1   -1.689469611391147E-3   -1.851948012894117E-3   -1.804443687442185E-3   -1.835775899186815E-3   -3.247086617177477E-1    3.130430446920164E-1
 8.192723937600000E9    -4.250394742155602E-1    3.324762101400121E-1   -1.703807856809709E-3   -1.814662229617766E-3   -1.788241363398367E-3   -1.832043830018107E-3   -3.238082234371799E-1    3.140774396380511E-1
 8.192746051900000E9    -4.240325560186651E-1    3.336930716887233E-1   -1.710583382645047E-3   -1.829148612363872E-3   -1.817243620291881E-3   -1.843256101138684E-3   -3.229574573921516E-1    3.148365539683886E-1
 8.192768166200000E9    -4.230451848514529E-1    3.349100023158057E-1   -1.729188713031150E-3   -1.833318057935378E-3   -1.824971464888159E-3   -1.826924585539344E-3   -3.221444714715114E-1    3.157523668690486E-1
 8.192790280500000E9    -4.221128181774247E-1    3.360892019346390E-1   -1.724213681495379E-3   -1.813692719550125E-3   -1.844246692315382E-3   -1.825117526099520E-3   -3.211525236681323E-1    3.166577349793560E-1
 8.192812394800000E9    -4.211068420765607E-1    3.373277094367673E-1   -1.713175574604666E-3   -1.806637400266174E-3   -1.814031243508948E-3   -1.824647021192726E-3   -3.202265653556643E-1    3.173559816979061E-1
 8.192834509100000E9    -4.200168334839255E-1    3.384875139856726E-1   -1.741746497685398E-3   -1.854155818204547E-3   -1.847607737840619E-3   -1.797384758615884E-3   -3.195094215115148E-1    3.183492839391634E-1
 8.192856623400000E9    -4.191826872176550E-1    3.396473338634063E-1   -1.715338816832231E-3   -1.803408834778120E-3   -1.835461725868007E-3   -1.802288894595866E-3   -3.185298440620004E-1    3.190918718481322E-1
 8.192878737700000E9    -4.181695161419958E-1    3.408902347362603E-1   -1.746330979448308E-3   -1.826307753686904E-3   -1.811808422922511E-3   -1.817384230174796E-3   -3.176989078936632E-1    3.200242457755271E-1
 8.192900852000000E9    -4.171877307663608E-1    3.420943047311512E-1   -1.765321662679772E-3   -1.790971843384298E-3   -1.856866892784910E-3   -1.824677171475057E-3   -3.166496901714153E-1    3.208580793523610E-1
 8.192922966300000E9    -4.161753423070755E-1    3.432795214858301E-1   -1.728801066055120E-3   -1.787104292094979E-3   -1.868019119515815E-3   -1.805952843166185E-3   -3.157928969497957E-1    3.216070606405262E-1
 8.192945080600000E9    -4.152013403675095E-1    3.444494464842306E-1   -1.756809235398000E-3   -1.805817474928936E-3   -1.834016696148690E-3   -1.813625000572730E-3   -3.150285491142568E-1    3.223589017446472E-1
 8.192967194900000E9    -4.141312398101562E-1    3.455272111409983E-1   -1.740212535810896E-3   -1.791224316651572E-3   -1.857878322253574E-3   -1.776509041795419E-3   -3.138910248666306E-1    3.233191772842897E-1
 8.192989309200000E9    -4.132657821141355E-1    3.468781791124014E-1   -1.754491287830144E-3   -1.803712979452474E-3   -1.858006659973845E-3   -1.786714437450589E-3   -3.132820615055305E-1    3.240341885338831E-1
 8.193011423500000E9    -4.121144965773335E-1    3.480570787316346E-1   -1.761593111877957E-3   -1.799111092514569E-3   -1.901400797847015E-3   -1.801743109362179E-3   -3.122445332376297E-1    3.250460550063506E-1
 8.193033537800000E9    -4.111643627924513E-1    3.491928805750039E-1   -1.759294627910834E-3   -1.800095466285693E-3   -1.887309863817403E-3   -1.777714748652834E-3   -3.113794919259549E-1    3.255912859702373E-1
 8.193055652100000E9    -4.100412714494577E-1    3.502635777942463E-1   -1.784199285988024E-3   -1.783773274304899E-3   -1.871908055203819E-3   -1.778394487307804E-3   -3.103378891296600E-1    3.265976181703150E-1
 8.193077766400000E9    -4.090068740806268E-1    3.515136981650145E-1   -1.797226345719575E-3   -1.759385908248829E-3   -1.859603983572576E-3   -1.769443045375644E-3   -3.093586226387350E-1    3.274668672994531E-1
 8.193099880700000E9    -4.081820418008899E-1    3.527224720313533E-1   -1.774671012099044E-3   -1.764981059542984E-3   -1.840707198438324E-3   -1.726839451445252E-3   -3.085861731313173E-1    3.282600346602066E-1
 8.193121995000000E9    -4.069170893491684E-1    3.540169964269858E-1   -1.794924480330225E-3   -1.777141609166329E-3   -1.886806697135497E-3   -1.742978609126440E-3   -3.076443290828872E-1    3.291331879857532E-1
 8.193144109300000E9    -4.059862471406680E-1    3.550615407937276E-1   -1.784844432002437E-3   -1.764422662675963E-3   -1.904960330890623E-3   -1.757259124087520E-3   -3.066821105766050E-1    3.299730332028593E-1
 8.193166223600000E9    -4.049188545990148E-1    3.562601396988389E-1   -1.812686254323311E-3   -1.741320360604816E-3   -1.906993727016320E-3   -1.711530143508165E-3   -3.058639458215217E-1    3.307892978413338E-1
 8.193188337900000E9    -4.038364628581971E-1    3.573395602764873E-1   -1.821167620342430E-3   -1.736968734449453E-3   -1.900033395905120E-3   -1.750147195289208E-3   -3.049187374963677E-1    3.316730187956731E-1
 8.193210452200000E9    -4.028343018258841E-1    3.585915427719987E-1   -1.804756113136980E-3   -1.742963251035695E-3   -1.960522029588405E-3   -1.721683864179680E-3   -3.039866461070893E-1    3.323727420957613E-1
 8.193232566500000E9    -4.018390012733321E-1    3.597504191873167E-1   -1.806599151604436E-3   -1.722975288309699E-3   -1.906737511768343E-3   -1.706543280389180E-3   -3.029848241246830E-1    3.332887998996455E-1
 8.193254680800000E9    -4.007537591568102E-1    3.608782307295236E-1   -1.850944763417297E-3   -1.727000480159958E-3   -1.927060701141386E-3   -1.697278638334072E-3   -3.021575045151626E-1    3.340107516917710E-1
 8.193276795100000E9    -3.996785749074658E-1    3.618293930398583E-1   -1.856817217271974E-3   -1.718772353233801E-3   -1.918030445304260E-3   -1.723688598777441E-3   -3.011834748801535E-1    3.350036214232684E-1
 8.193298909400000E9    -3.986764065260955E-1    3.630885686037686E-1   -1.829901537601752E-3   -1.718504970822468E-3   -1.965799578119360E-3   -1.708225363572154E-3   -3.002091510136819E-1    3.355951655244193E-1
 8.193321023700000E9    -3.975742606896888E-1    3.642407691903480E-1   -1.851180144820679E-3   -1.709077007320595E-3   -1.917691840300693E-3   -1.706709362788494E-3   -2.993972070882057E-1    3.363369048269042E-1
 8.193343138000000E9    -3.964393254117462E-1    3.654932266359741E-1   -1.858060522880244E-3   -1.732423115922027E-3   -1.992694962671505E-3   -1.720387064882352E-3   -2.984232206073472E-1    3.373542500578928E-1
 8.193365252300000E9    -3.953926789557463E-1    3.665113675521556E-1   -1.883743323475334E-3   -1.711310544014240E-3   -1.953610285539983E-3   -1.686303328769270E-3   -2.972457956033485E-1    3.379334520491906E-1
 8.193387366600000E9    -3.944609370058966E-1    3.676665318107578E-1   -1.878594887060420E-3   -1.701824401043504E-3   -1.982907239530525E-3   -1.680360257942981E-3   -2.963498031991341E-1    3.386908810485434E-1
 8.193409480900000E9    -3.933002333332915E-1    3.688704705953324E-1   -1.878718210305397E-3   -1.689679125228743E-3   -2.005682088591500E-3   -1.706002015118227E-3   -2.956014997263905E-1    3.395876816222516E-1
 8.193431595200000E9    -3.923115289754541E-1    3.699714606557482E-1   -1.886675060776244E-3   -1.715640765768345E-3   -2.028194581698751E-3   -1.701278941890667E-3   -2.946406987514795E-1    3.402979913664887E-1
 8.193453709500000E9    -3.911728360372210E-1    3.710955475302744E-1   -1.867491622440624E-3   -1.673785814970637E-3   -1.997200486714418E-3   -1.707959997502909E-3   -2.934410334312793E-1    3.410216330005004E-1
 8.193475823800000E9    -3.901089401504894E-1    3.721693121799119E-1   -1.891642193617492E-3   -1.690645261035169E-3   -1.997607694874849E-3   -1.699412886495259E-3   -2.926656636613863E-1    3.417611967962920E-1
 8.193497938100000E9    -3.889634209019555E-1    3.733663702551570E-1   -1.911420737687514E-3   -1.663989667062666E-3   -2.030816643542220E-3   -1.628623164619238E-3   -2.916014584497524E-1    3.425998431741988E-1
 8.193520052400000E9    -3.877527250109991E-1    3.744461399969281E-1   -1.918118950790196E-3   -1.687674389285047E-3   -2.009106224175013E-3   -1.659360421671987E-3   -2.908772176096870E-1    3.434440672542928E-1
 8.193542166700000E9    -3.868611985213476E-1    3.755123937033670E-1   -1.907120180610697E-3   -1.655424453286574E-3   -2.013164164163471E-3   -1.647792943739829E-3   -2.897724827622634E-1    3.441724993692523E-1
 8.193564281000000E9    -3.856164626539902E-1    3.765359316476379E-1   -1.895781937177485E-3   -1.660049394059262E-3   -2.022059466717634E-3   -1.659332139406159E-3   -2.887740570333902E-1    3.448546444887038E-1
 8.193586395300000E9    -3.846812771175996E-1    3.777858184104215E-1   -1.903045012838488E-3   -1.669626311562266E-3   -2.037639041549270E-3   -1.604822021104235E-3   -2.878909603826994E-1    3.459147945973073E-1
 8.193608509600000E9    -3.835202278038317E-1    3.787568058016825E-1   -1.902919643990465E-3   -1.670781724532575E-3   -2.034115630316482E-3   -1.608669696720571E-3   -2.868167815869754E-1    3.465108437675705E-1
 8.193630623900000E9    -3.824234256496375E-1    3.798161730188540E-1   -1.937357763382885E-3   -1.635858553150527E-3   -2.033954141577050E-3   -1.634554273162392E-3   -2.860205958685626E-1    3.471983322531209E-1
 8.193652738200000E9    -3.812295553400309E-1    3.808620852577527E-1   -1.959051312001494E-3   -1.655185804659386E-3   -2.039443939521763E-3   -1.603815270481316E-3   -2.849755634637908E-1    3.479977292245555E-1
 8.193674852500000E9    -3.802104202764269E-1    3.822119671147242E-1   -1.967397500596112E-3   -1.661035439908892E-3   -2.070271894222564E-3   -1.629594534736726E-3   -2.839725506080967E-1    3.486453303763857E-1
 8.193696966800000E9    -3.788595831827689E-1    3.832388688104778E-1   -1.941137316127429E-3   -1.663463234493411E-3   -2.044391760822602E-3   -1.618218443506689E-3   -2.831219099627084E-1    3.494763044185081E-1
 8.193719081100000E9    -3.778668641945127E-1    3.843107043230693E-1   -1.940159280329025E-3   -1.631825890956083E-3   -2.042215256376846E-3   -1.587274920081712E-3   -2.819795522868808E-1    3.502814249958031E-1
 8.193741195400000E9    -3.767537679133422E-1    3.851964194469585E-1   -1.960565645809722E-3   -1.652613966634158E-3   -2.049170798318797E-3   -1.566448593532872E-3   -2.811114742728896E-1    3.509526964018368E-1
 8.193763309700000E9    -3.757559531615176E-1    3.864210837906564E-1   -1.963605570395698E-3   -1.606928836300459E-3   -2.075953222312157E-3   -1.571588791852220E-3   -2.800097839247951E-1    3.517243827983528E-1
 8.193785424000000E9    -3.745349439897623E-1    3.875329776159347E-1   -1.955267779032263E-3   -1.608097751863968E-3   -2.095524947458507E-3   -1.592193295788805E-3   -2.791464923334878E-1    3.524375886607816E-1
 8.193807538300000E9    -3.734077292270082E-1    3.884935776823210E-1   -1.974814188166468E-3   -1.610383743606362E-3   -2.076917148766746E-3   -1.593547461908414E-3   -2.781046538849100E-1    3.533291675197638E-1
 8.193829652600000E9    -3.723421269387905E-1    3.897620627149993E-1   -1.989119123446936E-3   -1.609482644618409E-3   -2.081035997764864E-3   -1.610728378406159E-3   -2.771652015642718E-1    3.539666881434237E-1
 8.193851766900000E9    -3.710941509158085E-1    3.907352534232771E-1   -1.996459940528856E-3   -1.606241811430769E-3   -2.087023793735664E-3   -1.598878649869290E-3   -2.761463936385780E-1    3.546338316756270E-1
 8.193873881200000E9    -3.700111540749290E-1    3.918644726476225E-1   -1.965708381136746E-3   -1.634102230513540E-3   -2.082801189816470E-3   -1.574210560669535E-3   -2.751361693153639E-1    3.552958993048105E-1
 8.193895995500000E9    -3.688706991809907E-1    3.927310843381603E-1   -1.977490717857501E-3   -1.644479438453267E-3   -2.141332878408479E-3   -1.556425482363959E-3   -2.741447468560790E-1    3.562109383917133E-1
 8.193918109800000E9    -3.678298790599680E-1    3.939474760415549E-1   -1.991515292130730E-3   -1.585192485153671E-3   -2.122821258049606E-3   -1.583016630443298E-3   -2.730981867210220E-1    3.569469958452717E-1
 8.193940224100000E9    -3.665007648880874E-1    3.948906866264084E-1   -2.002802040011701E-3   -1.595009624098078E-3   -2.095600201965014E-3   -1.547169972780998E-3   -2.720971744982735E-1    3.575885833244227E-1
 8.193962338400000E9    -3.654175926433093E-1    3.960403409855905E-1   -2.008645187998392E-3   -1.577278891267424E-3   -2.116243952276941E-3   -1.543531880731629E-3   -2.710572334936128E-1    3.583145014580557E-1
 8.193984452700000E9    -3.640689333508765E-1    3.969630437887943E-1   -2.008907437964937E-3   -1.580547320461756E-3   -2.134725970087790E-3   -1.538638669903961E-3   -2.699705390667343E-1    3.590755988381375E-1
 8.194006567000000E9    -3.630391632119331E-1    3.980041973347748E-1   -2.031036567089937E-3   -1.568883492662185E-3   -2.138921964357504E-3   -1.552997783605353E-3   -2.691612083758050E-1    3.597398716791018E-1
 8.194028681300000E9    -3.618920745849303E-1    3.991585532133586E-1   -2.027381385266562E-3   -1.570884897928701E-3   -2.138549460742517E-3   -1.537358905977623E-3   -2.680478213773112E-1    3.603831485386609E-1
 8.194050795600000E9    -3.608393323207741E-1    4.000874990897197E-1   -1.998834372786853E-3   -1.546701876322751E-3   -2.150335119274700E-3   -1.510160727518540E-3   -2.669481947197395E-1    3.611387288990033E-1
 8.194072909900000E9    -3.594769766589704E-1    4.011546672591716E-1   -2.053941083397095E-3   -1.547373947181487E-3   -2.142995728124987E-3   -1.526743049054650E-3   -2.660927189644188E-1    3.617705230460404E-1
 8.194095024200000E9    -3.584157689217209E-1    4.022895986016474E-1   -2.053100452349629E-3   -1.542352844461887E-3   -2.160751048690016E-3   -1.522158721508411E-3   -2.650512360392331E-1    3.626785897732537E-1
 8.194117138500000E9    -3.571462329689880E-1    4.032647352640938E-1   -2.030897543192959E-3   -1.544709166323349E-3   -2.167919947254884E-3   -1.516809771534652E-3   -2.640927152269161E-1    3.632278183746648E-1
 8.194139252800000E9    -3.560351655250919E-1    4.042356397523801E-1   -2.064386656539789E-3   -1.516830438635926E-3   -2.169786488650580E-3   -1.498700718609606E-3   -2.630805455637084E-1    3.639886180624532E-1
 8.194161367100000E9    -3.548753526901884E-1    4.052342367441137E-1   -2.041151990441041E-3   -1.556446459657333E-3   -2.135943012916134E-3   -1.505351938187119E-3   -2.620290318365464E-1    3.645939572398731E-1
 8.194183481400000E9    -3.536780269405878E-1    4.062366280032921E-1   -2.068564005812778E-3   -1.509053907712737E-3   -2.188509257745500E-3   -1.502080335580278E-3   -2.610298343239142E-1    3.653021250061199E-1
 8.194205595700000E9    -3.525901604219967E-1    4.073712361611784E-1   -2.068269296823224E-3   -1.534442700416565E-3   -2.157098134026680E-3   -1.499856125324139E-3   -2.600367534367207E-1    3.661400848326296E-1
 8.194227710000000E9    -3.512333503085910E-1    4.083018167023397E-1   -2.074113703262000E-3   -1.503190640083252E-3   -2.215452511641458E-3   -1.468464141681661E-3   -2.589891113186653E-1    3.667505699672876E-1
 8.194249824300000E9    -3.502801678306272E-1    4.093121727975832E-1   -2.099676524142537E-3   -1.520867256125278E-3   -2.192896752252900E-3   -1.485046456653097E-3   -2.578383739400937E-1    3.673715203501278E-1
 8.194271938600000E9    -3.489154598042357E-1    4.102975116126583E-1   -2.090623647019125E-3   -1.499713611157051E-3   -2.208060388482532E-3   -1.447617089160392E-3   -2.569846046838311E-1    3.679466992074839E-1
 8.194294052900000E9    -3.477569871296434E-1    4.113071622244198E-1   -2.094779486848723E-3   -1.478736770189116E-3   -2.204474019640231E-3   -1.452562050097653E-3   -2.558388640017351E-1    3.687333549622868E-1
 8.194316167200000E9    -3.464925683511740E-1    4.122675040180443E-1   -2.108224050964874E-3   -1.506981350831772E-3   -2.221140250889388E-3   -1.459586594820595E-3   -2.547544974295378E-1    3.694885333089248E-1
 8.194338281500000E9    -3.453003595614643E-1    4.132269949474987E-1   -2.119242813875561E-3   -1.483176900932058E-3   -2.215833452244933E-3   -1.433338120663258E-3   -2.537768820075837E-1    3.702700384604579E-1
 8.194360395800000E9    -3.440582837282834E-1    4.142297982065722E-1   -2.110338191132866E-3   -1.501583980800615E-3   -2.232163168207904E-3   -1.472871813274411E-3   -2.527382865650067E-1    3.706169211039843E-1
 8.194382510100000E9    -3.429457037254715E-1    4.152733093792206E-1   -2.102339657468002E-3   -1.473012219480904E-3   -2.218500737945323E-3   -1.462179957979156E-3   -2.516749214473537E-1    3.715236105873806E-1
 8.194404624400000E9    -3.416829115432791E-1    4.162478463824908E-1   -2.143233842935649E-3   -1.473027888693975E-3   -2.223862735305820E-3   -1.452492712122755E-3   -2.508059445683339E-1    3.720839436626601E-1
 8.194426738700000E9    -3.405269983488882E-1    4.171901688770725E-1   -2.115525036741296E-3   -1.473005060808816E-3   -2.208035431896153E-3   -1.421738155213019E-3   -2.495711535589167E-1    3.727849199965624E-1
 8.194448853000000E9    -3.392686882698242E-1    4.181861406181966E-1   -2.123111807549117E-3   -1.458413883569961E-3   -2.230859779595119E-3   -1.415621319387251E-3   -2.485062472115402E-1    3.734395753132555E-1
