#  HZ   S   RI   R     50.00 
! Rohde & Schwarz Vector Network Analyzer 
! Rohde-Schwarz,ZNB20-2Port,1311601062101988,3.16
! Created: UTC 3/20/2024, 4:53:46 PM
! freq[Hz]                re:S11                  im:S11                  re:S21                  im:S21                  re:S12                  im:S12                  re:S22                  im:S22
 8.192635284000000E9    -4.289261914121248E-1    3.275273769024619E-1   -1.663325155834489E-3   -1.856106174215049E-3   -1.794347170900494E-3   -1.849184962646118E-3   -3.272609044554614E-1    3.104691577501328E-1
 8.192656587300000E9    -4.281237822440305E-1    3.286955500172112E-1   -1.684922196176746E-3   -1.861303857756920E-3   -1.765144084204518E-3   -1.851142098433744E-3   -3.264853213942017E-1    3.113480109062356E-1
 8.192677890600000E9    -4.271408504775575E-1    3.297831152664756E-1   -1.671375816740510E-3   -1.833272695273676E-3   -1.784149978540312E-3   -1.821772837671393E-3   -3.257220781016735E-1    3.119452384261270E-1
 8.192699193900000E9    -4.261342717646693E-1    3.309385084734977E-1   -1.666331461540606E-3   -1.818992464868309E-3   -1.802716294254710E-3   -1.855738234734208E-3   -3.247825600908706E-1    3.129273535525566E-1
 8.192720497200000E9    -4.252358250712964E-1    3.322435495139807E-1   -1.663969143795096E-3   -1.841583539608786E-3   -1.807114853437243E-3   -1.868342493700990E-3   -3.239561140123089E-1    3.139739334492506E-1
 8.192741800500000E9    -4.242053395992342E-1    3.332662628493499E-1   -1.687756205863288E-3   -1.811747302057267E-3   -1.818845028175785E-3   -1.827103267899345E-3   -3.229990047042151E-1    3.146200851720645E-1
 8.192763103800000E9    -4.232999143612749E-1    3.346736927962775E-1   -1.722225444162433E-3   -1.826517130407353E-3   -1.849413069250054E-3   -1.831376535882572E-3   -3.224575833022028E-1    3.154702751254896E-1
 8.192784407100000E9    -4.222843061404087E-1    3.357945342421054E-1   -1.723600191682357E-3   -1.823339613410565E-3   -1.820754365851305E-3   -1.850964443929692E-3   -3.214946745317202E-1    3.163165617347723E-1
 8.192805710400000E9    -4.214415530158938E-1    3.368083876875307E-1   -1.717720825460726E-3   -1.794917590849484E-3   -1.812084290039928E-3   -1.806059130562645E-3   -3.206670823801996E-1    3.171271489466367E-1
 8.192827013700000E9    -4.205579987638881E-1    3.380146048842582E-1   -1.729272490027222E-3   -1.812576856189963E-3   -1.839721271835617E-3   -1.829791752300546E-3   -3.197609922921652E-1    3.179707523426950E-1
 8.192848317000000E9    -4.194480826213482E-1    3.392429579381708E-1   -1.726678078824141E-3   -1.811013042353831E-3   -1.834025068122636E-3   -1.841401472083546E-3   -3.188697250257773E-1    3.188567149562076E-1
 8.192869620300000E9    -4.185377817675005E-1    3.404670896058349E-1   -1.744874974710493E-3   -1.827351423075583E-3   -1.845463352827164E-3   -1.796104081675668E-3   -3.179903964917051E-1    3.195668881172701E-1
 8.192890923600000E9    -4.176363238470939E-1    3.415314817897542E-1   -1.755536306911174E-3   -1.799427433754905E-3   -1.848508466256957E-3   -1.779776545390998E-3   -3.171609985011283E-1    3.204321136342216E-1
 8.192912226900000E9    -4.168095318793593E-1    3.426596557497381E-1   -1.760357038054469E-3   -1.803863702012728E-3   -1.840232995743226E-3   -1.788681616215231E-3   -3.161044605748788E-1    3.212432175540487E-1
 8.192933530200000E9    -4.157178531367086E-1    3.438846005925238E-1   -1.757421730689876E-3   -1.778829537835705E-3   -1.856399905756567E-3   -1.812788638764787E-3   -3.154648051342124E-1    3.221717054828758E-1
 8.192954833500000E9    -4.147763442735410E-1    3.451174997666456E-1   -1.741981221921137E-3   -1.803377182318916E-3   -1.856093378183073E-3   -1.769239291669294E-3   -3.146036498526736E-1    3.228291754383035E-1
 8.192976136800000E9    -4.137836910606618E-1    3.462172929953089E-1   -1.740481132214747E-3   -1.807153433143527E-3   -1.864464451326645E-3   -1.782841944641236E-3   -3.136087888576558E-1    3.235670077314906E-1
 8.192997440100000E9    -4.126728693340270E-1    3.472430952813157E-1   -1.771309060142232E-3   -1.773591857110540E-3   -1.868092563250112E-3   -1.784086018096833E-3   -3.127973130838136E-1    3.244876154033060E-1
 8.193018743400000E9    -4.117696959213994E-1    3.483643667060038E-1   -1.762843050221836E-3   -1.813502205966606E-3   -1.867365254208854E-3   -1.795955078985360E-3   -3.119488508588142E-1    3.252093244211259E-1
 8.193040046700000E9    -4.108442198336444E-1    3.495559724664621E-1   -1.770086133445598E-3   -1.781897390597881E-3   -1.890585431446193E-3   -1.774624351045577E-3   -3.111636926162074E-1    3.260653722471337E-1
 8.193061350000000E9    -4.097962759254826E-1    3.506714553153384E-1   -1.762768828348194E-3   -1.770409848328116E-3   -1.879326299688970E-3   -1.763875486162064E-3   -3.101977702331005E-1    3.269045818723759E-1
 8.193082653300000E9    -4.087298986260420E-1    3.519232282466473E-1   -1.802027685860259E-3   -1.746063752919917E-3   -1.893648773474996E-3   -1.760679403109396E-3   -3.091477335009745E-1    3.276854185611061E-1
 8.193103956600000E9    -4.079346139557846E-1    3.529219140806050E-1   -1.788617680273301E-3   -1.756532804293309E-3   -1.892774016642886E-3   -1.739113735110395E-3   -3.083829785919410E-1    3.285531757418224E-1
 8.193125259900000E9    -4.068746472805749E-1    3.541294546926403E-1   -1.801339460690251E-3   -1.751001980831913E-3   -1.899334671112396E-3   -1.740475215750818E-3   -3.076097088583647E-1    3.292056608943163E-1
 8.193146563200000E9    -4.058084440835926E-1    3.551667742611384E-1   -1.809112145294325E-3   -1.775413268211759E-3   -1.905830383119028E-3   -1.742755561925425E-3   -3.066712523442038E-1    3.301469208045337E-1
 8.193167866500000E9    -4.049289309468225E-1    3.562790427982469E-1   -1.751661999136910E-3   -1.774429267274342E-3   -1.920177319912547E-3   -1.751959745777774E-3   -3.057564946732263E-1    3.306584202400667E-1
 8.193189169800000E9    -4.038698558062737E-1    3.574997379662150E-1   -1.825232498141852E-3   -1.751829371304362E-3   -1.934749115911791E-3   -1.759438627449978E-3   -3.047665670961190E-1    3.315462574966234E-1
 8.193210473100000E9    -4.029195012371311E-1    3.584945952373764E-1   -1.821588776322436E-3   -1.761467883901884E-3   -1.903421223992331E-3   -1.745872889156134E-3   -3.040050402760963E-1    3.322362159506396E-1
 8.193231776400000E9    -4.018156814273807E-1    3.594993883136425E-1   -1.816265211312828E-3   -1.737801471903653E-3   -1.928271368214036E-3   -1.707086408735122E-3   -3.029883100674237E-1    3.331178876426604E-1
 8.193253079700000E9    -4.008377940852954E-1    3.607304238477633E-1   -1.840560458208738E-3   -1.738927357223830E-3   -1.937543173282956E-3   -1.705394120110583E-3   -3.021269804272764E-1    3.339613840197533E-1
 8.193274383000000E9    -3.997727159922075E-1    3.618576223625812E-1   -1.843773714063605E-3   -1.730339356451664E-3   -1.968033838703746E-3   -1.725900007708271E-3   -3.013160079657371E-1    3.345793092419806E-1
 8.193295686300000E9    -3.987661033429465E-1    3.628911519398976E-1   -1.848118215708942E-3   -1.740835616297757E-3   -1.965107040330649E-3   -1.699301542789250E-3   -3.003467387446981E-1    3.354989595090276E-1
 8.193316989600000E9    -3.978248193121803E-1    3.641159938186825E-1   -1.847406821994911E-3   -1.717712643905244E-3   -1.967519348817924E-3   -1.684204400831916E-3   -2.993687202177843E-1    3.362366276160978E-1
 8.193338292900000E9    -3.966398361528206E-1    3.651796539358648E-1   -1.869089588375037E-3   -1.697540417160366E-3   -1.977065867379444E-3   -1.709335854834758E-3   -2.984558603676372E-1    3.369813921652067E-1
 8.193359596200000E9    -3.956464000234012E-1    3.662240476437918E-1   -1.877142155147299E-3   -1.730647054984702E-3   -1.973208761498912E-3   -1.709244203284733E-3   -2.975985446046649E-1    3.378051204731851E-1
 8.193380899500000E9    -3.946432313750152E-1    3.672691521912280E-1   -1.844209282391750E-3   -1.692432344144963E-3   -1.974187023592692E-3   -1.654196612028560E-3   -2.966253451195103E-1    3.385575804553005E-1
 8.193402202800000E9    -3.936210730351141E-1    3.684367740869592E-1   -1.892893164877153E-3   -1.697149366041255E-3   -1.958677853581814E-3   -1.742593725200144E-3   -2.958563563304656E-1    3.392537108616009E-1
 8.193423506100000E9    -3.925502435111319E-1    3.695018371120977E-1   -1.892967731799493E-3   -1.676359323238821E-3   -2.003949512407897E-3   -1.680985694700059E-3   -2.948952185993624E-1    3.399900844320940E-1
 8.193444809400000E9    -3.914747161113422E-1    3.707102112948887E-1   -1.897255409367977E-3   -1.689626207578064E-3   -2.002887221706323E-3   -1.661272341812792E-3   -2.940557608133705E-1    3.406633805181678E-1
 8.193466112700000E9    -3.906384572767342E-1    3.717629356538619E-1   -1.871476585984466E-3   -1.684890008403604E-3   -1.986739544636126E-3   -1.674533891927664E-3   -2.931211250013185E-1    3.415135964074790E-1
 8.193487416000000E9    -3.894549806968921E-1    3.727635028584905E-1   -1.890114979575763E-3   -1.703838896732750E-3   -1.998622220404591E-3   -1.676641051786949E-3   -2.923263998249151E-1    3.422269150107798E-1
 8.193508719300000E9    -3.884447801836083E-1    3.739055220516199E-1   -1.899298354038567E-3   -1.667434024798800E-3   -1.981169457823656E-3   -1.673735835544440E-3   -2.912320568287369E-1    3.430228464129494E-1
 8.193530022600000E9    -3.873721264035893E-1    3.749454278086833E-1   -1.915814183972406E-3   -1.667055631362539E-3   -2.000395646551160E-3   -1.617307171465138E-3   -2.903239301414215E-1    3.437910875358561E-1
 8.193551325900000E9    -3.862942303324561E-1    3.759720341078444E-1   -1.943365578350381E-3   -1.676093446143446E-3   -2.012525193789472E-3   -1.658022871203576E-3   -2.893279452185876E-1    3.446003709295533E-1
 8.193572629200000E9    -3.853565884082102E-1    3.771433553649125E-1   -1.895341015040129E-3   -1.686968399070401E-3   -2.028598366184163E-3   -1.631321898143529E-3   -2.883580970889146E-1    3.452489627267659E-1
 8.193593932500000E9    -3.842170169644367E-1    3.780885462365728E-1   -1.912278018707801E-3   -1.692371480652874E-3   -2.016125358199696E-3   -1.632395469242281E-3   -2.876371028756436E-1    3.459684213576040E-1
 8.193615235800000E9    -3.831827440842823E-1    3.793709725785583E-1   -1.957624902760004E-3   -1.641124001769936E-3   -2.028368768513201E-3   -1.626067529680465E-3   -2.867870467568991E-1    3.465672051696088E-1
 8.193636539100000E9    -3.820534217592038E-1    3.802705732270339E-1   -1.929668496352983E-3   -1.635676947954919E-3   -2.053732352751923E-3   -1.615745112576459E-3   -2.857644755718387E-1    3.475101315440864E-1
 8.193657842400000E9    -3.809729918154971E-1    3.812368717879650E-1   -1.923558460188463E-3   -1.640581581278461E-3   -2.029877573510613E-3   -1.624911110403968E-3   -2.847880852782183E-1    3.481708606624239E-1
 8.193679145700000E9    -3.799173021910831E-1    3.823569834582707E-1   -1.967800551255044E-3   -1.637522731759903E-3   -2.050966449283161E-3   -1.638103842026304E-3   -2.836804056467210E-1    3.490210404141545E-1
 8.193700449000000E9    -3.788771014415207E-1    3.833005232392467E-1   -1.947025879966393E-3   -1.641843118903474E-3   -2.069468465273257E-3   -1.612739306532021E-3   -2.828723224686319E-1    3.494904429517576E-1
 8.193721752300000E9    -3.777212797645174E-1    3.844026131108567E-1   -1.958085881186919E-3   -1.613421842266128E-3   -2.061768818941042E-3   -1.600827069531167E-3   -2.818310668491527E-1    3.504262916218476E-1
 8.193743055600000E9    -3.766836968864875E-1    3.855139246242350E-1   -1.971291767757076E-3   -1.621974288005808E-3   -2.064102569045251E-3   -1.651021586311266E-3   -2.809661874960916E-1    3.511792561013916E-1
 8.193764358900000E9    -3.756699844290423E-1    3.864399442030967E-1   -1.992579635300417E-3   -1.627028430396815E-3   -2.075393938247215E-3   -1.569158112437907E-3   -2.800040608694446E-1    3.517568319336156E-1
 8.193785662200000E9    -3.744547358996606E-1    3.875136646991147E-1   -1.970743372927547E-3   -1.612229271083534E-3   -2.078229555504369E-3   -1.595977320597935E-3   -2.791009498007552E-1    3.524863717570347E-1
 8.193806965500000E9    -3.734659203062354E-1    3.884960027486105E-1   -1.980719555003560E-3   -1.612603084972804E-3   -2.092215550140762E-3   -1.581905637629869E-3   -2.781336752641667E-1    3.532558953548902E-1
 8.193828268800000E9    -3.723396141113331E-1    3.895522014411248E-1   -1.994259917686849E-3   -1.609669155910997E-3   -2.080098092480626E-3   -1.619024760520911E-3   -2.772328023060335E-1    3.539388776484014E-1
 8.193849572100000E9    -3.712333873661883E-1    3.906572049365357E-1   -2.001127341953684E-3   -1.592087094327262E-3   -2.086467609190019E-3   -1.557957283912613E-3   -2.761867181281678E-1    3.545793822108456E-1
 8.193870875400000E9    -3.701639325499569E-1    3.916116897494190E-1   -1.988517028807469E-3   -1.603687939582963E-3   -2.097175730133679E-3   -1.574600304865064E-3   -2.752647492416712E-1    3.552327928907548E-1
 8.193892178700000E9    -3.690511892126813E-1    3.926618580187763E-1   -2.003817649876266E-3   -1.584340234340636E-3   -2.077780110428101E-3   -1.565811934409691E-3   -2.742727857376928E-1    3.560658537384310E-1
 8.193913482000000E9    -3.679475319034921E-1    3.936273423746392E-1   -1.987451703858708E-3   -1.605144554688242E-3   -2.097424398351150E-3   -1.561986225559221E-3   -2.734011242332117E-1    3.567168705519419E-1
 8.193934785300000E9    -3.667702099944642E-1    3.946102994258359E-1   -2.014532554002136E-3   -1.579925629422484E-3   -2.094820952835628E-3   -1.563317268936567E-3   -2.724367906115443E-1    3.574792156551235E-1
 8.193956088600000E9    -3.656666002417918E-1    3.956746071923610E-1   -2.015677695594513E-3   -1.588616022560897E-3   -2.099799782829222E-3   -1.580835274845571E-3   -2.714829611461481E-1    3.580877488496804E-1
 8.193977391900000E9    -3.645544851898007E-1    3.967476958204549E-1   -2.008749067495162E-3   -1.580087091416861E-3   -2.124892783435575E-3   -1.553576266296721E-3   -2.704826893573246E-1    3.588931256836882E-1
 8.193998695200000E9    -3.633987792380944E-1    3.977469375046569E-1   -2.026079937221299E-3   -1.576287038516369E-3   -2.103955218662148E-3   -1.545529573141262E-3   -2.694454139560066E-1    3.594479465356321E-1
 8.194019998500000E9    -3.623615424384549E-1    3.986712245323896E-1   -2.016188365291281E-3   -1.573149187616460E-3   -2.129812369505317E-3   -1.576597135775099E-3   -2.685661935694322E-1    3.601997690158100E-1
 8.194041301800000E9    -3.612632933995467E-1    3.996933161110869E-1   -2.029077603669473E-3   -1.580913797556492E-3   -2.144294808114321E-3   -1.544089497637883E-3   -2.676149068291580E-1    3.609248823799520E-1
 8.194062605100000E9    -3.600713005133466E-1    4.006545887114478E-1   -2.014887076054409E-3   -1.562386659611519E-3   -2.153058560278434E-3   -1.489474496024259E-3   -2.664931396642458E-1    3.616060043743186E-1
 8.194083908400000E9    -3.589186061191592E-1    4.017600690403154E-1   -2.054560508407959E-3   -1.558287274596438E-3   -2.134775025057206E-3   -1.508132379377525E-3   -2.657244533596089E-1    3.623103953927538E-1
 8.194105211700000E9    -3.578251036519129E-1    4.026855688154511E-1   -2.072295714922790E-3   -1.533799304301431E-3   -2.147942934455161E-3   -1.510219721748167E-3   -2.647837735826606E-1    3.629710312089698E-1
 8.194126515000000E9    -3.568368182347956E-1    4.036795694073525E-1   -2.066507692556814E-3   -1.530891145967364E-3   -2.174110953689910E-3   -1.502587858544846E-3   -2.637671839018482E-1    3.636349703379604E-1
 8.194147818300000E9    -3.556267616052400E-1    4.046863942538995E-1   -2.066460768599130E-3   -1.558086262557748E-3   -2.180719476123856E-3   -1.512766536211693E-3   -2.625947126147064E-1    3.641215977983534E-1
 8.194169121600000E9    -3.543198932545995E-1    4.055680081308833E-1   -2.069259645500834E-3   -1.531921254759860E-3   -2.170966748261604E-3   -1.484928506564560E-3   -2.616974410117351E-1    3.648775586734163E-1
 8.194190424900000E9    -3.533383553546328E-1    4.065406209035578E-1   -2.056335049344515E-3   -1.495393028495269E-3   -2.173437284752738E-3   -1.496288522981143E-3   -2.607215550326735E-1    3.656735614344567E-1
 8.194211728200000E9    -3.521633524118530E-1    4.075669389884322E-1   -2.051635453243851E-3   -1.525253810401581E-3   -2.155494693889441E-3   -1.491112215082712E-3   -2.596776083329617E-1    3.662739980101210E-1
 8.194233031500000E9    -3.509739245762342E-1    4.085216419326279E-1   -2.086623104039228E-3   -1.508143528746000E-3   -2.197267988478678E-3   -1.479956234012686E-3   -2.587328367355709E-1    3.670108577961152E-1
 8.194254334800000E9    -3.498710266938417E-1    4.094858585976539E-1   -2.088717164039695E-3   -1.521503227864761E-3   -2.188746169161082E-3   -1.483692055784837E-3   -2.577138188553273E-1    3.676135937022256E-1
 8.194275638100000E9    -3.486521116001087E-1    4.104833072275610E-1   -2.094028633169609E-3   -1.531359411161383E-3   -2.209540583511135E-3   -1.465597236553908E-3   -2.568342389403063E-1    3.682454807241941E-1
 8.194296941400000E9    -3.475125773111711E-1    4.113931299848406E-1   -2.089966052365959E-3   -1.505766529082997E-3   -2.204763025629758E-3   -1.494637324105371E-3   -2.558054556728667E-1    3.687748532909604E-1
 8.194318244700000E9    -3.463492667454863E-1    4.123114390597388E-1   -2.102536850253586E-3   -1.497913928163782E-3   -2.208791287635050E-3   -1.440939092919951E-3   -2.547896411803192E-1    3.695661368760851E-1
 8.194339548000000E9    -3.452329743409346E-1    4.133016066232308E-1   -2.123198343057753E-3   -1.501487174683104E-3   -2.204046004993400E-3   -1.476914432550855E-3   -2.537843289557515E-1    3.700172001556317E-1
 8.194360851300000E9    -3.441039387672860E-1    4.141428729034893E-1   -2.113006969944226E-3   -1.473514378837660E-3   -2.216290434314480E-3   -1.455827139745916E-3   -2.528045742929299E-1    3.708949752816866E-1
 8.194382154600000E9    -3.429998622038389E-1    4.152112528984129E-1   -2.128644800342659E-3   -1.456218745706420E-3   -2.244634209596675E-3   -1.445692373111139E-3   -2.516487121547442E-1    3.713418027584628E-1
 8.194403457900000E9    -3.416876598372236E-1    4.161322024099408E-1   -2.114180063550056E-3   -1.460954245388372E-3   -2.241702759146559E-3   -1.452981303991514E-3   -2.507243787276396E-1    3.721024386686765E-1
 8.194424761200000E9    -3.406367677057567E-1    4.170887104081512E-1   -2.110925071587474E-3   -1.462761821306835E-3   -2.203973413354898E-3   -1.449946570573086E-3   -2.497138452612059E-1    3.728166859503191E-1
 8.194446064500000E9    -3.393110941076083E-1    4.179696597883221E-1   -2.150699436655059E-3   -1.450771032874016E-3   -2.229563678640174E-3   -1.392600091988422E-3   -2.488054382764657E-1    3.733024261136805E-1
 8.194467367800000E9    -3.382277525810001E-1    4.188798513221416E-1   -2.147732502813871E-3   -1.455912051859505E-3   -2.238525520320693E-3   -1.388733863241111E-3   -2.477259261257088E-1    3.740595400081225E-1
 8.194488671100000E9    -3.370616880319603E-1    4.199012262511170E-1   -2.140545215635287E-3   -1.452467567437687E-3   -2.214848749079889E-3   -1.435444252624308E-3   -2.467771518687438E-1    3.746375827332886E-1
 8.194509974400000E9    -3.357970732576634E-1    4.208171056562511E-1   -2.145080239108791E-3   -1.431875445999036E-3   -2.252598361725579E-3   -1.387132736348497E-3   -2.456711342649802E-1    3.752210848646507E-1
 8.194531277700000E9    -3.346636645528793E-1    4.217208329582508E-1   -2.139709577969881E-3   -1.444458572584317E-3   -2.295351265868579E-3   -1.414521026586311E-3   -2.447648258811503E-1    3.758010308692358E-1
 8.194552581000000E9    -3.334234189911641E-1    4.225956338362500E-1   -2.145444176593855E-3   -1.449945902888239E-3   -2.247826770384619E-3   -1.394418703463888E-3   -2.438294107581990E-1    3.765050160965436E-1
