#  HZ   S   RI   R     50.00 
! Rohde & Schwarz Vector Network Analyzer 
! Rohde-Schwarz,ZNB20-2Port,1311601062101988,3.16
! Created: UTC 3/20/2024, 5:09:02 PM
! freq[Hz]                re:S11                  im:S11                  re:S21                  im:S21                  re:S12                  im:S12                  re:S22                  im:S22
 8.190997739000000E9    -4.893248734741323E-1    2.290598178553440E-1   -1.221901668166339E-3   -2.096670912743916E-3   -1.310283881328527E-3   -2.157986505298807E-3   -3.868050280420476E-1    2.400547094296406E-1
 8.191026576975000E9    -4.884398962486362E-1    2.310369983661361E-1   -1.242451792667070E-3   -2.095014606393802E-3   -1.336505916757836E-3   -2.139594219100323E-3   -3.858345619400236E-1    2.415885612714052E-1
 8.191055414950000E9    -4.877247643140090E-1    2.328410893157338E-1   -1.257136273439008E-3   -2.090512490363892E-3   -1.322433427100136E-3   -2.146335563302934E-3   -3.851262360904142E-1    2.428170146560241E-1
 8.191084252925000E9    -4.867801159978607E-1    2.345842641473119E-1   -1.233923064847048E-3   -2.094108142911827E-3   -1.327277022518315E-3   -2.113105898763459E-3   -3.840760682318699E-1    2.442236497579116E-1
 8.191113090900000E9    -4.857697918367024E-1    2.365127489782095E-1   -1.258817235632077E-3   -2.071006445165873E-3   -1.349343151806308E-3   -2.141294261731547E-3   -3.832953020444087E-1    2.455059267274746E-1
 8.191141928875000E9    -4.848842946907845E-1    2.382569962735037E-1   -1.268902191728619E-3   -2.099147655507442E-3   -1.330290887321304E-3   -2.132330546212234E-3   -3.824782439447419E-1    2.468128269109296E-1
 8.191170766850000E9    -4.838799353260387E-1    2.401899025925005E-1   -1.247119405649972E-3   -2.094874481375228E-3   -1.377232138280142E-3   -2.109788604625286E-3   -3.814242606393090E-1    2.479361474407063E-1
 8.191199604825000E9    -4.831757271237061E-1    2.419004275834062E-1   -1.262385990662217E-3   -2.094677170184455E-3   -1.358749018843870E-3   -2.104007797186012E-3   -3.804553992740936E-1    2.494830962981832E-1
 8.191228442800000E9    -4.820687485824854E-1    2.437700716546680E-1   -1.280618173263614E-3   -2.067225477393781E-3   -1.390708474788509E-3   -2.076345868551659E-3   -3.795922449292391E-1    2.507382295966685E-1
 8.191257280775000E9    -4.812808734115857E-1    2.455595616554989E-1   -1.279446765281366E-3   -2.086437512487153E-3   -1.380297328662800E-3   -2.110832599290366E-3   -3.787661763541438E-1    2.522189578274385E-1
 8.191286118750000E9    -4.802060984348425E-1    2.474092159372982E-1   -1.308823067622352E-3   -2.091085521665371E-3   -1.394691726618433E-3   -2.089036546127143E-3   -3.777789107568263E-1    2.533850636214491E-1
 8.191314956725000E9    -4.793739262167860E-1    2.490602308714258E-1   -1.315419461358198E-3   -2.066523885704355E-3   -1.381012640861917E-3   -2.079448963663022E-3   -3.766762962182175E-1    2.547180219943491E-1
 8.191343794700000E9    -4.783063188405991E-1    2.508808445886063E-1   -1.341194550748559E-3   -2.073916655669820E-3   -1.428385661701357E-3   -2.116301311863386E-3   -3.758988708569699E-1    2.561666703172384E-1
 8.191372632675000E9    -4.774563380854044E-1    2.527937894785157E-1   -1.326662671983953E-3   -2.042918988479208E-3   -1.416875520310280E-3   -2.100398739017054E-3   -3.750867745119017E-1    2.574228186297163E-1
 8.191401470650000E9    -4.764840649326709E-1    2.544445921798995E-1   -1.309554673563932E-3   -2.044211193987688E-3   -1.435457805413500E-3   -2.058317666955895E-3   -3.740943486739524E-1    2.585949307084018E-1
 8.191430308625000E9    -4.754770228304457E-1    2.563522894203972E-1   -1.329905476346255E-3   -2.048044931762001E-3   -1.442699158638269E-3   -2.077544032036913E-3   -3.731503666617314E-1    2.599343128652268E-1
 8.191459146600000E9    -4.744085352106326E-1    2.580146443529096E-1   -1.362082292827832E-3   -2.045095242958081E-3   -1.461864687785323E-3   -2.099621492369808E-3   -3.720086034281614E-1    2.611956340168057E-1
 8.191487984575000E9    -4.735750311614458E-1    2.598226623354214E-1   -1.342860694161146E-3   -2.060196956191465E-3   -1.443015666148262E-3   -2.087154723706246E-3   -3.711067463798269E-1    2.626487037078244E-1
 8.191516822550000E9    -4.725543511857866E-1    2.617583957145398E-1   -1.367044812565118E-3   -2.019882550109132E-3   -1.459157170832269E-3   -2.058085360382639E-3   -3.702328704992220E-1    2.637828853397226E-1
 8.191545660525000E9    -4.714582582917654E-1    2.632617754987410E-1   -1.356468067429262E-3   -2.041708425748938E-3   -1.467133862027898E-3   -2.036236033356393E-3   -3.692513446674781E-1    2.651252004178121E-1
 8.191574498500000E9    -4.704720509881275E-1    2.650243455522548E-1   -1.383929443715530E-3   -2.029968732200586E-3   -1.440397262712825E-3   -2.027639346895860E-3   -3.683121613195516E-1    2.663492583967442E-1
 8.191603336475000E9    -4.696136077797733E-1    2.668501625910998E-1   -1.391668525859870E-3   -2.012091721498975E-3   -1.514803236023553E-3   -2.053508775943794E-3   -3.675197877873950E-1    2.676311714179567E-1
 8.191632174450000E9    -4.685267616590961E-1    2.685755572994954E-1   -1.379391038716765E-3   -2.030500675250913E-3   -1.470835698447487E-3   -2.065869082653259E-3   -3.663439770538146E-1    2.688944074074527E-1
 8.191661012425000E9    -4.674376012410098E-1    2.702958073819900E-1   -1.424774269313247E-3   -2.003343837235124E-3   -1.485959115750432E-3   -2.015935926973758E-3   -3.653688148983540E-1    2.701670203285356E-1
 8.191689850400000E9    -4.665004535671010E-1    2.721167434948188E-1   -1.413148684111965E-3   -2.030215751486018E-3   -1.484888972387201E-3   -2.021183242881695E-3   -3.644250571021922E-1    2.713668116208489E-1
 8.191718688375000E9    -4.653967796256530E-1    2.738714140475320E-1   -1.437918604220099E-3   -1.987502290077842E-3   -1.508717052370798E-3   -2.051076530750236E-3   -3.636455068129705E-1    2.727007661803894E-1
 8.191747526350000E9    -4.643683740925559E-1    2.754437433323663E-1   -1.434914631435428E-3   -2.008130867086402E-3   -1.525864382848910E-3   -2.028139882186553E-3   -3.623745920388409E-1    2.740387389525432E-1
 8.191776364325000E9    -4.632800104408207E-1    2.772181814732264E-1   -1.440867358782064E-3   -1.968756414834752E-3   -1.594786683904405E-3   -2.004503050791976E-3   -3.614520139098223E-1    2.752198804654933E-1
 8.191805202300000E9    -4.622805169973417E-1    2.789941194295542E-1   -1.434935709619375E-3   -1.985964617791085E-3   -1.536813906501718E-3   -2.023486029971662E-3   -3.603547496305465E-1    2.766307203688860E-1
 8.191834040275000E9    -4.611286262872678E-1    2.807423983879796E-1   -1.442498618656503E-3   -1.983228980814997E-3   -1.568983175329570E-3   -2.029944077326915E-3   -3.594043003187317E-1    2.777657065116772E-1
 8.191862878250000E9    -4.600713983106601E-1    2.824414340820449E-1   -1.489231790028886E-3   -1.997308722957065E-3   -1.587422009165333E-3   -2.001409314042268E-3   -3.582474716118081E-1    2.790016283406097E-1
 8.191891716225000E9    -4.589666283555326E-1    2.842367374682336E-1   -1.475398472181415E-3   -1.984625981000991E-3   -1.574534962008114E-3   -2.048164051398539E-3   -3.572886583992139E-1    2.801534819511671E-1
 8.191920554200000E9    -4.578870731041744E-1    2.860831816541879E-1   -1.490924248784056E-3   -1.958990382448175E-3   -1.601513233525040E-3   -2.000567802528917E-3   -3.564205998244538E-1    2.813411675261557E-1
 8.191949392175000E9    -4.568336861193066E-1    2.876182188354707E-1   -1.474547106831713E-3   -1.961954493201632E-3   -1.586965079111008E-3   -2.013551166983329E-3   -3.552214387495888E-1    2.826747753301719E-1
 8.191978230150000E9    -4.557628719224486E-1    2.892792096964556E-1   -1.465927999809246E-3   -1.990366259144808E-3   -1.580379219276589E-3   -1.971023841816064E-3   -3.542288279646058E-1    2.840299041771426E-1
 8.192007068125000E9    -4.545285093299861E-1    2.909755322206282E-1   -1.489045837105790E-3   -1.975540500766976E-3   -1.596394855410589E-3   -1.955496843549397E-3   -3.531233213713951E-1    2.851650253310867E-1
 8.192035906100000E9    -4.535115229220153E-1    2.927066856864322E-1   -1.510412229218749E-3   -1.961433101187932E-3   -1.625822742596051E-3   -1.945629076311636E-3   -3.522795420327593E-1    2.865440212028129E-1
 8.192064744075000E9    -4.524838608577438E-1    2.943023855875387E-1   -1.499034110018018E-3   -1.954109168463036E-3   -1.642638328484047E-3   -1.976947707220827E-3   -3.510787281355171E-1    2.875653275159993E-1
 8.192093582050000E9    -4.511615021389817E-1    2.960219472967841E-1   -1.531471535886050E-3   -1.970301355350968E-3   -1.593834866030254E-3   -1.946277444960242E-3   -3.501610018799799E-1    2.887624948987221E-1
 8.192122420025000E9    -4.501296504419835E-1    2.977624483162201E-1   -1.499466068763169E-3   -1.960215695768853E-3   -1.649376316410221E-3   -1.955888844281111E-3   -3.490989087167836E-1    2.901119081421257E-1
 8.192151258000000E9    -4.490957487786091E-1    2.993124465676405E-1   -1.533104589999257E-3   -1.921786538824792E-3   -1.624761780439892E-3   -1.943721060525953E-3   -3.480702350594629E-1    2.913467122213015E-1
 8.192180095975000E9    -4.478767136464230E-1    3.010983408999194E-1   -1.527273455592811E-3   -1.957268271576787E-3   -1.655479661608813E-3   -1.922801069801286E-3   -3.469803237556580E-1    2.925296855586310E-1
 8.192208933950000E9    -4.467344551345866E-1    3.027889942355028E-1   -1.556167586327525E-3   -1.924510035269805E-3   -1.654613986776096E-3   -1.942034349866998E-3   -3.459044883296727E-1    2.936564775493182E-1
 8.192237771925000E9    -4.455504744974207E-1    3.044935176880950E-1   -1.558364180247770E-3   -1.903296496377052E-3   -1.676654460662198E-3   -1.904628999440899E-3   -3.447153603205353E-1    2.949775804089589E-1
 8.192266609900000E9    -4.443900658381557E-1    3.060994201901084E-1   -1.567449611593103E-3   -1.947194288472879E-3   -1.684707145673617E-3   -1.950854593529712E-3   -3.435870546725676E-1    2.961337171748208E-1
 8.192295447875000E9    -4.432085532949894E-1    3.077423087404512E-1   -1.573474976757461E-3   -1.887179915450260E-3   -1.696785896273662E-3   -1.893701628501832E-3   -3.425426620532663E-1    2.973088922769535E-1
 8.192324285850000E9    -4.421128770938040E-1    3.093748218489988E-1   -1.582092776104951E-3   -1.893333727378690E-3   -1.705805595514730E-3   -1.931823327187871E-3   -3.415761728356243E-1    2.985271589239204E-1
 8.192353123825000E9    -4.409279361415295E-1    3.110365600744203E-1   -1.590129775095720E-3   -1.911868448353599E-3   -1.726795068360985E-3   -1.891746934456286E-3   -3.403709196763045E-1    2.997942732470021E-1
 8.192381961800000E9    -4.396952391848414E-1    3.127036380030615E-1   -1.601068871420094E-3   -1.880634349996061E-3   -1.683692238841755E-3   -1.941012386354647E-3   -3.394302890631006E-1    3.008764316316636E-1
 8.192410799775000E9    -4.385726881233980E-1    3.142682813604795E-1   -1.618318846408961E-3   -1.882571270918222E-3   -1.733605700775335E-3   -1.869286833391427E-3   -3.383416557490310E-1    3.020401991993247E-1
 8.192439637750000E9    -4.373725009135334E-1    3.160069756912325E-1   -1.620957504552683E-3   -1.879163561977306E-3   -1.734724308633252E-3   -1.906715985535693E-3   -3.371051236961184E-1    3.032352660484393E-1
 8.192468475725000E9    -4.361884882218199E-1    3.176114536455031E-1   -1.620883230393234E-3   -1.860632033979152E-3   -1.729604916268869E-3   -1.891300862635577E-3   -3.359068271007566E-1    3.042860613228999E-1
 8.192497313700000E9    -4.349095180053263E-1    3.191765838139540E-1   -1.664096597575657E-3   -1.859792839197150E-3   -1.714323857340862E-3   -1.864206629251766E-3   -3.348758904107714E-1    3.055262263837142E-1
 8.192526151675000E9    -4.337919095435450E-1    3.208012801332761E-1   -1.633795599319910E-3   -1.900793123524384E-3   -1.702477622500883E-3   -1.885662348393850E-3   -3.338947253038053E-1    3.065564031789252E-1
 8.192554989650000E9    -4.325416222399905E-1    3.225130961198625E-1   -1.645499488033843E-3   -1.866937964601066E-3   -1.778739219886521E-3   -1.888467068550831E-3   -3.325755416735146E-1    3.077268761785547E-1
 8.192583827625000E9    -4.313059924006451E-1    3.241779238413962E-1   -1.665103340034967E-3   -1.858814379057341E-3   -1.782900476811840E-3   -1.883600902319077E-3   -3.315411816974604E-1    3.090243107926803E-1
 8.192612665600000E9    -4.299382031576515E-1    3.257586697240235E-1   -1.675934487323346E-3   -1.877017816503065E-3   -1.766929224053133E-3   -1.898448588922529E-3   -3.305656900946762E-1    3.102010341546688E-1
 8.192641503575000E9    -4.288179618996333E-1    3.273229134057726E-1   -1.660278510559926E-3   -1.833785533998814E-3   -1.752919811620980E-3   -1.876048254001841E-3   -3.292868548853059E-1    3.113030418568358E-1
 8.192670341550000E9    -4.275565160922258E-1    3.290354267476281E-1   -1.674572300368478E-3   -1.839759591398641E-3   -1.792057384665768E-3   -1.871434295676708E-3   -3.282618962439879E-1    3.124133144849900E-1
 8.192699179525000E9    -4.261488183020719E-1    3.303850533578196E-1   -1.700609171677982E-3   -1.839618913882322E-3   -1.787766913471025E-3   -1.851440020799851E-3   -3.271543064818754E-1    3.135292063378419E-1
 8.192728017500000E9    -4.249757562535538E-1    3.321017488220859E-1   -1.709561898907098E-3   -1.818147100416712E-3   -1.814966887772585E-3   -1.813632154285166E-3   -3.259282684300466E-1    3.148126015007835E-1
 8.192756855475000E9    -4.237282163119953E-1    3.335762770718871E-1   -1.712171836767642E-3   -1.825427047090907E-3   -1.834156922255151E-3   -1.827173372372376E-3   -3.247582076424027E-1    3.158097792283687E-1
 8.192785693450000E9    -4.226493685205647E-1    3.353640284556974E-1   -1.692566841739903E-3   -1.826108934814636E-3   -1.794623595708912E-3   -1.835131822332980E-3   -3.235731135554663E-1    3.168921982418430E-1
 8.192814531425000E9    -4.212143334999486E-1    3.368071988315984E-1   -1.722797447702560E-3   -1.820697317085443E-3   -1.820203074998621E-3   -1.815222797217671E-3   -3.224620570693501E-1    3.181692068832629E-1
 8.192843369400000E9    -4.199713131540365E-1    3.384031130757613E-1   -1.735967190564729E-3   -1.789299399710685E-3   -1.812181676926609E-3   -1.791072054177457E-3   -3.212578437623289E-1    3.191165805589667E-1
 8.192872207375000E9    -4.186609750010124E-1    3.399781960262916E-1   -1.756513468914155E-3   -1.802390611176691E-3   -1.823919811458176E-3   -1.809842809326830E-3   -3.201262864395816E-1    3.203335514163357E-1
 8.192901045350000E9    -4.173035135755770E-1    3.415956467411130E-1   -1.720552106891953E-3   -1.800728834873335E-3   -1.859485330188258E-3   -1.774637589048043E-3   -3.191586285436664E-1    3.213932912015989E-1
 8.192929883325000E9    -4.161129589376507E-1    3.431673966114994E-1   -1.739076572401221E-3   -1.811080969908067E-3   -1.869009838616100E-3   -1.816703846009731E-3   -3.177236368555770E-1    3.225587421792768E-1
 8.192958721300000E9    -4.146506652689106E-1    3.446538380751458E-1   -1.758977007128045E-3   -1.770950498716870E-3   -1.880551827611078E-3   -1.777379096747351E-3   -3.166262957254183E-1    3.236208868709434E-1
 8.192987559275000E9    -4.133268075634751E-1    3.461651761178498E-1   -1.787435437544995E-3   -1.785534216557786E-3   -1.861972226118788E-3   -1.789163129726187E-3   -3.154437087680840E-1    3.246424536097977E-1
 8.193016397250000E9    -4.120737238722081E-1    3.476895886436506E-1   -1.789258806969955E-3   -1.800001215649737E-3   -1.878373995069061E-3   -1.802458579350861E-3   -3.142026042402031E-1    3.258056234909043E-1
 8.193045235225000E9    -4.106987412372443E-1    3.492495262587074E-1   -1.771579422595556E-3   -1.797176697606399E-3   -1.878019626335809E-3   -1.744230733367796E-3   -3.131556428370769E-1    3.269804304057037E-1
 8.193074073200000E9    -4.094517956168762E-1    3.508086700901092E-1   -1.793776213370093E-3   -1.771660458284179E-3   -1.898661049355567E-3   -1.731957938967913E-3   -3.117831919926415E-1    3.279600264393935E-1
 8.193102911175000E9    -4.081788720202711E-1    3.523542378646281E-1   -1.772624640318513E-3   -1.772429074140654E-3   -1.883945778478772E-3   -1.742929684298620E-3   -3.106673842852880E-1    3.289803184687571E-1
 8.193131749150000E9    -4.067261284769307E-1    3.538605287664600E-1   -1.792690739359420E-3   -1.786015186887585E-3   -1.897189137618963E-3   -1.756158959258125E-3   -3.094666517321066E-1    3.301153812422987E-1
 8.193160587125000E9    -4.054055135838947E-1    3.554077087322083E-1   -1.795554903245917E-3   -1.770985393293599E-3   -1.909636300035509E-3   -1.742772572575028E-3   -3.082768035736499E-1    3.313128076041830E-1
 8.193189425100000E9    -4.041439792098355E-1    3.568427577442572E-1   -1.807234624496184E-3   -1.744987256753263E-3   -1.953388866154593E-3   -1.755772811804112E-3   -3.069661522793926E-1    3.321764442780913E-1
 8.193218263075000E9    -4.026933952515150E-1    3.584131302467500E-1   -1.822977673562434E-3   -1.758835680404757E-3   -1.934986690994200E-3   -1.756620046416268E-3   -3.060214467296875E-1    3.334474882685152E-1
 8.193247101050000E9    -4.013686636746420E-1    3.598603792829067E-1   -1.835499659833120E-3   -1.735517751453215E-3   -1.916000684539839E-3   -1.725110392759737E-3   -3.046729638126526E-1    3.343508412064569E-1
 8.193275939025000E9    -3.999215069578929E-1    3.614641492184567E-1   -1.834101224594091E-3   -1.738707521159187E-3   -1.934894248379433E-3   -1.732698814383531E-3   -3.034263528020665E-1    3.354617751218593E-1
 8.193304777000000E9    -3.985614791941218E-1    3.628525763678700E-1   -1.832066482476368E-3   -1.733487247394640E-3   -1.935848412111131E-3   -1.719980022176201E-3   -3.022341214398682E-1    3.365754306931337E-1
 8.193333614975000E9    -3.971894403823986E-1    3.644187261462873E-1   -1.830413516824752E-3   -1.742319672209754E-3   -1.971812296356630E-3   -1.733596309474932E-3   -3.010668814887998E-1    3.376378229125920E-1
 8.193362452950000E9    -3.959123495900649E-1    3.657261896102456E-1   -1.856545974918375E-3   -1.705574207464109E-3   -1.972010643746398E-3   -1.686550268984985E-3   -2.997479021273390E-1    3.386922345727577E-1
 8.193391290925000E9    -3.943339284486297E-1    3.673618231383116E-1   -1.841823914275557E-3   -1.720692049702882E-3   -1.976394882454784E-3   -1.686549599120520E-3   -2.984984015040670E-1    3.395478429777384E-1
 8.193420128900000E9    -3.930170468519538E-1    3.687477995588558E-1   -1.888778005610710E-3   -1.713925447045228E-3   -1.973450230567425E-3   -1.679489398264095E-3   -2.973201632973959E-1    3.406345385522525E-1
 8.193448966875000E9    -3.915841774039520E-1    3.701937624781017E-1   -1.889488854656801E-3   -1.694201395600172E-3   -1.995789176766037E-3   -1.714038632392727E-3   -2.961620563989082E-1    3.415575839916238E-1
 8.193477804850000E9    -3.902693707763329E-1    3.716831332872640E-1   -1.893975369883781E-3   -1.675336061651666E-3   -2.013580584662159E-3   -1.684996878015875E-3   -2.947732633633776E-1    3.426442702164051E-1
 8.193506642825000E9    -3.888245175317822E-1    3.731480058140292E-1   -1.925916441113647E-3   -1.671673575537716E-3   -2.014036747114793E-3   -1.666255484160015E-3   -2.935385525744456E-1    3.436817525516937E-1
 8.193535480800000E9    -3.873371117567836E-1    3.745518150927504E-1   -1.924465349665798E-3   -1.661686058076380E-3   -2.026844149438315E-3   -1.677098848190734E-3   -2.923170955057663E-1    3.447470793130307E-1
 8.193564318775000E9    -3.859957874160732E-1    3.760308314979655E-1   -1.905276619147026E-3   -1.706267833246404E-3   -2.029808118862887E-3   -1.638328807379881E-3   -2.910211345372063E-1    3.458030975517990E-1
 8.193593156750000E9    -3.844454586379500E-1    3.774894158008398E-1   -1.931769914404913E-3   -1.670239569418132E-3   -2.010713520280106E-3   -1.631501932884881E-3   -2.898039218090542E-1    3.466760863690364E-1
