#  HZ   S   RI   R     50.00 
! Rohde & Schwarz Vector Network Analyzer 
! Rohde-Schwarz,ZNB20-2Port,1311601062101988,3.16
! Created: UTC 3/20/2024, 4:53:56 PM
! freq[Hz]                re:S11                  im:S11                  re:S21                  im:S21                  re:S12                  im:S12                  re:S22                  im:S22
 8.192164508000000E9    -4.484980363945503E-1    3.007557361996507E-1   -1.546504614403090E-3   -1.920501098540731E-3   -1.631158464783916E-3   -1.931111503750725E-3   -3.454651959580244E-1    2.913858935655854E-1
 8.192187929025000E9    -4.473941067975521E-1    3.020735744325596E-1   -1.547905187476510E-3   -1.923835631418292E-3   -1.647747153300457E-3   -1.946882992346686E-3   -3.442917906231957E-1    2.923531672113259E-1
 8.192211350050000E9    -4.465447127162649E-1    3.034003374774625E-1   -1.542947116685589E-3   -1.943651037829433E-3   -1.645034878826796E-3   -1.911192832501442E-3   -3.435366890992331E-1    2.933412666326389E-1
 8.192234771075000E9    -4.456030434057173E-1    3.047580550920962E-1   -1.552244338170379E-3   -1.947319430160595E-3   -1.654879771170876E-3   -1.947775955845631E-3   -3.426167089248116E-1    2.942652481443725E-1
 8.192258192100000E9    -4.446610219158966E-1    3.062792451504675E-1   -1.570346626180094E-3   -1.929389521205908E-3   -1.674860331622051E-3   -1.940342553466424E-3   -3.419798700578537E-1    2.951171377059360E-1
 8.192281613125000E9    -4.437882298651878E-1    3.075434442197942E-1   -1.585747886056125E-3   -1.908756125726287E-3   -1.671396911995889E-3   -1.906610407056085E-3   -3.409887325582916E-1    2.961864972249686E-1
 8.192305034150000E9    -4.428077894395686E-1    3.089634999283116E-1   -1.560191354467872E-3   -1.913858670864256E-3   -1.702920217587074E-3   -1.892749635755043E-3   -3.399490432062164E-1    2.972794595457012E-1
 8.192328455175000E9    -4.418479721914418E-1    3.103575889752367E-1   -1.615381513067288E-3   -1.931172624518508E-3   -1.703921274137804E-3   -1.905184605878108E-3   -3.392348614479560E-1    2.980124666683013E-1
 8.192351876200000E9    -4.407819275024597E-1    3.115548315981365E-1   -1.585017063399688E-3   -1.895187549224162E-3   -1.730320753801567E-3   -1.889957451306808E-3   -3.383872293310772E-1    2.989619579857390E-1
 8.192375297225000E9    -4.399483766220852E-1    3.128988560971951E-1   -1.607158847382989E-3   -1.913182206584959E-3   -1.687954379683750E-3   -1.895431792924555E-3   -3.374161941404908E-1    2.999522797887826E-1
 8.192398718250000E9    -4.389617349010800E-1    3.141749540348753E-1   -1.610555565686012E-3   -1.892507956196196E-3   -1.672921373808652E-3   -1.889907055227160E-3   -3.365828364019866E-1    3.009921520890341E-1
 8.192422139275000E9    -4.380169041758164E-1    3.156066233749347E-1   -1.638629670358848E-3   -1.884818426438198E-3   -1.743224627569182E-3   -1.875279762038367E-3   -3.357078193716435E-1    3.018600582252964E-1
 8.192445560300000E9    -4.370124239793698E-1    3.168951043111697E-1   -1.613561153384238E-3   -1.880820914643004E-3   -1.726868461402026E-3   -1.888388759719853E-3   -3.348741696284021E-1    3.028656248943967E-1
 8.192468981325000E9    -4.358823417800202E-1    3.182845060836003E-1   -1.638457910078495E-3   -1.880788139467928E-3   -1.758900969062554E-3   -1.877927877770072E-3   -3.337580306267671E-1    3.038353429691935E-1
 8.192492402350000E9    -4.350739530269778E-1    3.196897475668147E-1   -1.642091346392237E-3   -1.863939007784036E-3   -1.751448896074490E-3   -1.869234557403038E-3   -3.328378370247957E-1    3.047847755366595E-1
 8.192515823375000E9    -4.339724004659752E-1    3.208414221578350E-1   -1.654841982150541E-3   -1.868575677208432E-3   -1.764886391141046E-3   -1.868563499496038E-3   -3.320185982225489E-1    3.056628811341273E-1
 8.192539244400000E9    -4.329754071727732E-1    3.222465618147093E-1   -1.664357625202726E-3   -1.881085040456607E-3   -1.740763614490949E-3   -1.846628021010868E-3   -3.312390980330813E-1    3.066354596351037E-1
 8.192562665425000E9    -4.320900802282562E-1    3.234907778630480E-1   -1.649701603710240E-3   -1.891503106956683E-3   -1.747905969890311E-3   -1.881614728509649E-3   -3.303800135635961E-1    3.074393122317042E-1
 8.192586086450000E9    -4.309520617017835E-1    3.247552747492473E-1   -1.639717913812173E-3   -1.858109013626107E-3   -1.777609352128638E-3   -1.863062987178890E-3   -3.293744428867166E-1    3.085740918177716E-1
 8.192609507475000E9    -4.300058055450520E-1    3.261052827139257E-1   -1.658610755370333E-3   -1.838686936430347E-3   -1.764932555053233E-3   -1.871187732299167E-3   -3.285196467891520E-1    3.094896433362949E-1
 8.192632928500000E9    -4.290393775174424E-1    3.274098414472224E-1   -1.654996936041366E-3   -1.857835497744114E-3   -1.798862326516715E-3   -1.842413344333411E-3   -3.275289612804425E-1    3.102727235413676E-1
 8.192656349525000E9    -4.278481682048362E-1    3.288014356956423E-1   -1.673069228581898E-3   -1.839478532004433E-3   -1.775651229967473E-3   -1.857335959597263E-3   -3.266798170384967E-1    3.111339394937016E-1
 8.192679770550000E9    -4.269446618081311E-1    3.300511198359449E-1   -1.671563446721432E-3   -1.831222614584186E-3   -1.793472027179110E-3   -1.818145197606189E-3   -3.256516475367647E-1    3.121047967570085E-1
 8.192703191575000E9    -4.259712503110858E-1    3.312475465324811E-1   -1.681541261583259E-3   -1.848635836351357E-3   -1.806695570090134E-3   -1.809256415486149E-3   -3.247198530540742E-1    3.130712662724263E-1
 8.192726612600000E9    -4.249237878906065E-1    3.325115100954746E-1   -1.690948712958288E-3   -1.835355728050279E-3   -1.802554476226117E-3   -1.804552033120895E-3   -3.239334702695973E-1    3.141067214236117E-1
 8.192750033625000E9    -4.238911254525821E-1    3.338554726700473E-1   -1.700110968645118E-3   -1.829231703097154E-3   -1.775184011080517E-3   -1.834566137726588E-3   -3.228357551536132E-1    3.148778283064904E-1
 8.192773454650000E9    -4.229626115310985E-1    3.349825838993067E-1   -1.713416247056810E-3   -1.847429234709568E-3   -1.831839198768680E-3   -1.823449252961678E-3   -3.219886554524106E-1    3.158845382564284E-1
 8.192796875675000E9    -4.217992744163429E-1    3.364185345832554E-1   -1.722196019090279E-3   -1.846726198826440E-3   -1.799142996880565E-3   -1.784587095106585E-3   -3.210932127433690E-1    3.168514949063168E-1
 8.192820296700000E9    -4.207917841662485E-1    3.376892664508271E-1   -1.737256121410836E-3   -1.819472936808612E-3   -1.857136454091579E-3   -1.828367155118048E-3   -3.201443004556970E-1    3.175719621112350E-1
 8.192843717725000E9    -4.198357192848831E-1    3.389858372642622E-1   -1.727826629959613E-3   -1.803680365391249E-3   -1.842885176165078E-3   -1.805339360398712E-3   -3.191828127460147E-1    3.184633030350631E-1
 8.192867138750000E9    -4.186896948345487E-1    3.403543407285767E-1   -1.711575292939593E-3   -1.787453243137234E-3   -1.838537196644228E-3   -1.793512288273945E-3   -3.182860032002967E-1    3.193169798310905E-1
 8.192890559775000E9    -4.176760023914856E-1    3.416571418923146E-1   -1.747037027497960E-3   -1.798410887633250E-3   -1.865565839401733E-3   -1.791151964090946E-3   -3.172647968554096E-1    3.202927795567111E-1
 8.192913980800000E9    -4.165601536663648E-1    3.427977705650777E-1   -1.730448790896351E-3   -1.792280703717044E-3   -1.868943612786735E-3   -1.800965195155483E-3   -3.163771395443866E-1    3.212927368739625E-1
 8.192937401825000E9    -4.155792836439990E-1    3.441434160621444E-1   -1.747513934279793E-3   -1.819145400333799E-3   -1.876300303658963E-3   -1.800556975851041E-3   -3.154260853470321E-1    3.222091008154138E-1
 8.192960822850000E9    -4.144783315726860E-1    3.453560369388992E-1   -1.759767814529871E-3   -1.797561270846569E-3   -1.875398078629677E-3   -1.776325489628897E-3   -3.143731049945301E-1    3.228853350737700E-1
 8.192984243875000E9    -4.132168482660959E-1    3.466860193314842E-1   -1.776547750560519E-3   -1.784764296769840E-3   -1.880518355919892E-3   -1.781133932748805E-3   -3.135595016148838E-1    3.239638498937679E-1
 8.193007664900000E9    -4.123736998861248E-1    3.477352360717407E-1   -1.811645640846332E-3   -1.794980731621579E-3   -1.888349640694653E-3   -1.782386986761308E-3   -3.125465308904993E-1    3.247433032315114E-1
 8.193031085925000E9    -4.113230053757679E-1    3.490931865893714E-1   -1.758201167119638E-3   -1.787428109490182E-3   -1.882580627954377E-3   -1.755088180954421E-3   -3.115259181133285E-1    3.255468883817286E-1
 8.193054506950000E9    -4.101251037184687E-1    3.503866991278515E-1   -1.784550766766999E-3   -1.760284622853167E-3   -1.888368788927901E-3   -1.749919524581407E-3   -3.105923062430113E-1    3.265649212566057E-1
 8.193077927975000E9    -4.090194726020340E-1    3.516600267808347E-1   -1.799975557173405E-3   -1.725619868407523E-3   -1.929844105752120E-3   -1.750302349891311E-3   -3.096478663969380E-1    3.272785282785348E-1
 8.193101349000000E9    -4.079047477386277E-1    3.528961599584723E-1   -1.811140199339333E-3   -1.750787368855927E-3   -1.880471338470752E-3   -1.724103551707250E-3   -3.086710417866181E-1    3.281742048672481E-1
 8.193124770025000E9    -4.068979233323390E-1    3.539993724890340E-1   -1.791376448849065E-3   -1.771825642759209E-3   -1.869172308037595E-3   -1.765491274908951E-3   -3.077027198702617E-1    3.292465157093170E-1
 8.193148191050000E9    -4.057582192253127E-1    3.552539187488440E-1   -1.826688643888167E-3   -1.760077587642745E-3   -1.908715389241131E-3   -1.716134582383763E-3   -3.066617282532664E-1    3.298470762653011E-1
 8.193171612075000E9    -4.047182019551971E-1    3.566372812772056E-1   -1.791589202745567E-3   -1.731219542389127E-3   -1.937290396704539E-3   -1.760257741207792E-3   -3.056497018808054E-1    3.308398665776186E-1
 8.193195033100000E9    -4.035777913402823E-1    3.577910858150298E-1   -1.840414488800007E-3   -1.734357567442445E-3   -1.910937851429929E-3   -1.690100708744050E-3   -3.049097869153849E-1    3.316352664369888E-1
 8.193218454125000E9    -4.024118902762461E-1    3.588998561391326E-1   -1.827804313050312E-3   -1.761784835915376E-3   -1.932970391043207E-3   -1.692307316513695E-3   -3.037518941653431E-1    3.326392509720678E-1
 8.193241875150000E9    -4.013712903091052E-1    3.602960897557279E-1   -1.806173313241673E-3   -1.734365286370332E-3   -1.933684475307244E-3   -1.743321938807497E-3   -3.027484094818729E-1    3.333932197529405E-1
 8.193265296175000E9    -4.002306169696596E-1    3.613831291159512E-1   -1.870820038146746E-3   -1.748149321890691E-3   -1.947467150750102E-3   -1.725145923470424E-3   -3.017238935861802E-1    3.342268039355944E-1
 8.193288717200000E9    -3.991505052592844E-1    3.626469383918139E-1   -1.830570577987049E-3   -1.745287069687878E-3   -1.925171961624213E-3   -1.682740140606654E-3   -3.008672274048735E-1    3.351739716157157E-1
 8.193312138225000E9    -3.981431173073519E-1    3.638537788542319E-1   -1.839613609724350E-3   -1.720176237784038E-3   -1.911089399629744E-3   -1.698756827634588E-3   -2.997805535808595E-1    3.359697670738100E-1
 8.193335559250000E9    -3.969016002099801E-1    3.649429297503304E-1   -1.843876968143283E-3   -1.731535215773726E-3   -1.933889754198102E-3   -1.707306447077395E-3   -2.987159221265573E-1    3.369266779658357E-1
 8.193358980275000E9    -3.958101995525663E-1    3.663159939874383E-1   -1.848350064514659E-3   -1.733733495292659E-3   -1.967167134070038E-3   -1.719209161012095E-3   -2.979335211036658E-1    3.377876997306828E-1
 8.193382401300000E9    -3.945825710761305E-1    3.674187963528756E-1   -1.872900182844092E-3   -1.723406193377340E-3   -1.972065346446949E-3   -1.697841450884357E-3   -2.969457669856382E-1    3.384167828848080E-1
 8.193405822325000E9    -3.935839536463049E-1    3.685661534746825E-1   -1.862104826696402E-3   -1.696230063251555E-3   -1.959844481808920E-3   -1.677359287635724E-3   -2.957125017142983E-1    3.393226186119001E-1
 8.193429243350000E9    -3.923329301320059E-1    3.698837841576402E-1   -1.873824724371269E-3   -1.688027254992537E-3   -1.974185975626221E-3   -1.702996827680764E-3   -2.947702074806518E-1    3.400931818312022E-1
 8.193452664375000E9    -3.912339218731907E-1    3.710023912047744E-1   -1.892017123219316E-3   -1.705380090481410E-3   -2.005967686455824E-3   -1.668980340082762E-3   -2.937951887769038E-1    3.409063378880364E-1
 8.193476085400000E9    -3.900241928647455E-1    3.721542478890797E-1   -1.856438516304896E-3   -1.687550290609814E-3   -2.021512299614215E-3   -1.666652591235033E-3   -2.928301536983797E-1    3.417871464717540E-1
 8.193499506425000E9    -3.888835349865747E-1    3.733094999349983E-1   -1.920277911641071E-3   -1.670708001171229E-3   -2.022777675250567E-3   -1.631451575465023E-3   -2.918517139605633E-1    3.427145679715470E-1
 8.193522927450000E9    -3.877721752528811E-1    3.745927770720038E-1   -1.892163568716462E-3   -1.691410192187631E-3   -2.041636536681300E-3   -1.663690187714623E-3   -2.908703974552919E-1    3.433324346726957E-1
 8.193546348475000E9    -3.865307242125415E-1    3.757580641026013E-1   -1.897916599693353E-3   -1.686177584920417E-3   -1.993599649114495E-3   -1.656444196565537E-3   -2.896715264774217E-1    3.443173612720049E-1
 8.193569769500000E9    -3.854394152407875E-1    3.767795835247730E-1   -1.928702029927387E-3   -1.651134390310307E-3   -2.037140323859410E-3   -1.677861956744317E-3   -2.887226390907598E-1    3.450735288700625E-1
 8.193593190525000E9    -3.842126100009063E-1    3.780608399319487E-1   -1.926622698651328E-3   -1.668986045208043E-3   -2.009606228711570E-3   -1.630573086945978E-3   -2.876028475610958E-1    3.458859562706746E-1
 8.193616611550000E9    -3.831031013951114E-1    3.792549991699372E-1   -1.935007507307118E-3   -1.645741214171497E-3   -2.029683641816646E-3   -1.628131624277283E-3   -2.867524184538193E-1    3.467411520404275E-1
 8.193640032575000E9    -3.819520413078069E-1    3.802510608741180E-1   -1.924739316448936E-3   -1.656537372505934E-3   -2.053196759933527E-3   -1.625513263952311E-3   -2.857110270456426E-1    3.475864237825608E-1
 8.193663453600000E9    -3.807482550312425E-1    3.815029827473557E-1   -1.930349755873769E-3   -1.668275772819842E-3   -2.022375163400788E-3   -1.611117701247667E-3   -2.845530198467998E-1    3.484199302342754E-1
 8.193686874625000E9    -3.796042168545425E-1    3.827315832635487E-1   -1.922481848652020E-3   -1.638366226940790E-3   -2.060476131511141E-3   -1.608675453211359E-3   -2.835006873932673E-1    3.491052643185349E-1
 8.193710295650000E9    -3.783037210785483E-1    3.839172664244691E-1   -1.957447717637298E-3   -1.650065367286481E-3   -2.041063257893304E-3   -1.611564521390788E-3   -2.824696840961615E-1    3.498955548777451E-1
 8.193733716675000E9    -3.773043786998737E-1    3.849804073066900E-1   -1.929455612603782E-3   -1.620774145624165E-3   -2.043361784667333E-3   -1.637399528344614E-3   -2.814827147653247E-1    3.507230903779509E-1
 8.193757137700000E9    -3.760159990667760E-1    3.861975050417460E-1   -1.950468951566292E-3   -1.642553205526857E-3   -2.098806129712553E-3   -1.599876533492160E-3   -2.802819431548291E-1    3.514406844760068E-1
 8.193780558725000E9    -3.747410465950280E-1    3.872790316753369E-1   -1.974602984422956E-3   -1.579343213692081E-3   -2.071744966860338E-3   -1.621781040097980E-3   -2.795005066756654E-1    3.522672886175097E-1
 8.193803979750000E9    -3.736061077828236E-1    3.883928557243558E-1   -1.963964472629558E-3   -1.622994128544985E-3   -2.072225319300674E-3   -1.610940011910175E-3   -2.782647356060602E-1    3.530771935024696E-1
 8.193827400775000E9    -3.723506421819007E-1    3.895129993205992E-1   -1.958275777269948E-3   -1.583063206504246E-3   -2.074476972621558E-3   -1.571487973305540E-3   -2.774806853097505E-1    3.538367677434946E-1
 8.193850821800000E9    -3.712447095335629E-1    3.907164179927249E-1   -1.989624312168964E-3   -1.614351330005898E-3   -2.101609415420384E-3   -1.593483187051225E-3   -2.761834911378319E-1    3.545480923612471E-1
 8.193874242825000E9    -3.700730132433345E-1    3.917679201688813E-1   -1.995735461018491E-3   -1.610127160901964E-3   -2.115281208243430E-3   -1.570515171865907E-3   -2.751874643314380E-1    3.554220640529697E-1
 8.193897663850000E9    -3.687061153838591E-1    3.929301091260139E-1   -1.979850587223438E-3   -1.593950352310983E-3   -2.092080390827358E-3   -1.579153250373546E-3   -2.740631418118757E-1    3.562023803032309E-1
 8.193921084875000E9    -3.675862411012935E-1    3.939578578648090E-1   -2.010339866082773E-3   -1.588255062432621E-3   -2.126024164699105E-3   -1.550780922704002E-3   -2.731353949590494E-1    3.569039619976905E-1
 8.193944505900000E9    -3.664012608742842E-1    3.950158055460992E-1   -1.981026151347208E-3   -1.584728182058067E-3   -2.122478498506180E-3   -1.565626063913777E-3   -2.720489728506285E-1    3.576093422480797E-1
 8.193967926925000E9    -3.651128793265752E-1    3.963052622033419E-1   -2.009978617122030E-3   -1.570627016707426E-3   -2.100368525472292E-3   -1.561534775272201E-3   -2.710088606671299E-1    3.584874362609342E-1
 8.193991347950000E9    -3.638596924479529E-1    3.972853630812972E-1   -2.018984813931269E-3   -1.574849387238801E-3   -2.126465463941743E-3   -1.541565124082481E-3   -2.699898597702745E-1    3.593419670028884E-1
 8.194014768975000E9    -3.625685582071143E-1    3.983643767249133E-1   -2.052959383882520E-3   -1.581587233423863E-3   -2.115949090956362E-3   -1.528475896671288E-3   -2.688222327843314E-1    3.599013193168640E-1
 8.194038190000000E9    -3.613326637171174E-1    3.995339453165089E-1   -2.039236276281910E-3   -1.558288580490886E-3   -2.173391782526825E-3   -1.547805298576241E-3   -2.677163384898597E-1    3.608121137904821E-1
 8.194061611025000E9    -3.602556609482377E-1    4.006951736927293E-1   -2.007467894426595E-3   -1.553710475758663E-3   -2.125624078415258E-3   -1.533357125277856E-3   -2.667595072960139E-1    3.614414238021184E-1
 8.194085032050000E9    -3.589163015616943E-1    4.017347836762963E-1   -2.028846518680570E-3   -1.561296756528737E-3   -2.166149604644398E-3   -1.514286902243055E-3   -2.657834495982508E-1    3.621797608344001E-1
 8.194108453075000E9    -3.576454443548815E-1    4.026607922960006E-1   -2.045212377155703E-3   -1.573302650042039E-3   -2.109754330051098E-3   -1.525612868932581E-3   -2.648171998190855E-1    3.629068239209820E-1
 8.194131874100000E9    -3.564664000921665E-1    4.039241422747920E-1   -2.059918232355777E-3   -1.526100939172971E-3   -2.135506556093094E-3   -1.497988965671327E-3   -2.635966762753980E-1    3.637644985360798E-1
 8.194155295125000E9    -3.552154445104894E-1    4.048737331932267E-1   -2.052151424376130E-3   -1.531955259526560E-3   -2.178738512277148E-3   -1.477015809836439E-3   -2.624895835557068E-1    3.644390336594120E-1
 8.194178716150000E9    -3.539427543501841E-1    4.059292984953224E-1   -2.055531644297590E-3   -1.512472123948411E-3   -2.168197773911543E-3   -1.504914650033541E-3   -2.614751747263757E-1    3.651432990777166E-1
 8.194202137175000E9    -3.526938823038532E-1    4.070579645378769E-1   -2.063586313916900E-3   -1.530776267706975E-3   -2.180894518270516E-3   -1.500279514263790E-3   -2.603475349687557E-1    3.660448654998087E-1
 8.194225558200000E9    -3.514061324912091E-1    4.080862921836929E-1   -2.068965179254813E-3   -1.518633773575194E-3   -2.189221283321050E-3   -1.508496146442321E-3   -2.594071939144646E-1    3.666371130426643E-1
 8.194248979225000E9    -3.502572195839343E-1    4.091168328346734E-1   -2.071384727911255E-3   -1.499699716834143E-3   -2.183809326289125E-3   -1.484256185447824E-3   -2.581322832620349E-1    3.673608729213734E-1
 8.194272400250000E9    -3.489268224856055E-1    4.103102865459679E-1   -2.083882254341485E-3   -1.501395052430092E-3   -2.214313462482337E-3   -1.486914836090381E-3   -2.572383065771525E-1    3.681999452769739E-1
