#  HZ   S   RI   R     50.00 
! Rohde & Schwarz Vector Network Analyzer 
! Rohde-Schwarz,ZNB20-2Port,1311601062101988,3.16
! Created: UTC 3/20/2024, 5:09:07 PM
! freq[Hz]                re:S11                  im:S11                  re:S21                  im:S21                  re:S12                  im:S12                  re:S22                  im:S22
 8.190043828000000E9    -5.143787806075855E-1    1.672410371946379E-1   -9.294041101834780E-4   -2.175066226170732E-3   -1.050150057068722E-3   -2.238213882433792E-3   -4.129477560667981E-1    1.940910222531338E-1
 8.190077030550000E9    -5.136411846178205E-1    1.693466704560079E-1   -9.637514397816063E-4   -2.212641670061309E-3   -1.083497707495075E-3   -2.241747831660439E-3   -4.123347137055968E-1    1.957755073407882E-1
 8.190110233100000E9    -5.128879466999401E-1    1.715678976923621E-1   -9.607492473201366E-4   -2.205271241647732E-3   -1.044546105526999E-3   -2.283988817590749E-3   -4.112973168762326E-1    1.973928665980762E-1
 8.190143435650000E9    -5.120911108560604E-1    1.739502413842068E-1   -9.646821501036757E-4   -2.184814353463290E-3   -1.096205727762160E-3   -2.210472288940948E-3   -4.106475781500453E-1    1.990038134646531E-1
 8.190176638200000E9    -5.114238454061956E-1    1.760415864576012E-1   -9.921527393237273E-4   -2.195379490136764E-3   -1.087684182590799E-3   -2.219740830526892E-3   -4.097616160168186E-1    2.006738632979263E-1
 8.190209840750000E9    -5.105358111781763E-1    1.782229968902079E-1   -9.854763112066879E-4   -2.197561602552955E-3   -1.087735641524203E-3   -2.248596948372661E-3   -4.087999111015090E-1    2.023813995332206E-1
 8.190243043300000E9    -5.097262128243367E-1    1.804306666031103E-1   -9.909424072995895E-4   -2.205525923917259E-3   -1.094610919572958E-3   -2.253981986310803E-3   -4.080936928061052E-1    2.038972041745618E-1
 8.190276245850000E9    -5.089784342781951E-1    1.825452030667704E-1   -9.959895859139535E-4   -2.192458330205321E-3   -1.105530041826492E-3   -2.238967215864896E-3   -4.071941383815376E-1    2.055490433861627E-1
 8.190309448400000E9    -5.082671673805552E-1    1.848140854646993E-1   -1.035463226593431E-3   -2.176479073333933E-3   -1.113949300963043E-3   -2.209421803966740E-3   -4.062214221220422E-1    2.072513324088064E-1
 8.190342650950000E9    -5.074051709635550E-1    1.870659739101724E-1   -1.034031617180377E-3   -2.176581212509651E-3   -1.126792907062868E-3   -2.213802259373615E-3   -4.055725246373320E-1    2.088466183420971E-1
 8.190375853500000E9    -5.065436401047958E-1    1.891482309964375E-1   -1.034994840821794E-3   -2.172160533199931E-3   -1.123416983003948E-3   -2.213379160768638E-3   -4.045528281972954E-1    2.105636586228011E-1
 8.190409056050000E9    -5.056608194604909E-1    1.914705044277021E-1   -1.039154742973937E-3   -2.201625557661649E-3   -1.121212270113007E-3   -2.222715950084290E-3   -4.036430519669408E-1    2.121349928382896E-1
 8.190442258600000E9    -5.048436264508732E-1    1.935305855368226E-1   -1.045067901147800E-3   -2.203110374350075E-3   -1.175754594309923E-3   -2.202887511154822E-3   -4.027961770808734E-1    2.136743569580242E-1
 8.190475461150000E9    -5.040034336081106E-1    1.956454381122631E-1   -1.062845757330433E-3   -2.175365805481155E-3   -1.162703406853540E-3   -2.243452689777580E-3   -4.019623160567817E-1    2.153330022292478E-1
 8.190508663700000E9    -5.031062436752357E-1    1.978696827941849E-1   -1.104810973728665E-3   -2.149974549120789E-3   -1.164901552212487E-3   -2.182515965814539E-3   -4.010189119839083E-1    2.169034068476822E-1
 8.190541866250000E9    -5.022617898980902E-1    1.999969697858728E-1   -1.114086340255454E-3   -2.165818304006918E-3   -1.179389918246310E-3   -2.214187668510628E-3   -4.000765787590564E-1    2.186377933143410E-1
 8.190575068800000E9    -5.012946660944719E-1    2.022130707494303E-1   -1.087340203793190E-3   -2.151104393746507E-3   -1.203623792168213E-3   -2.195188195040026E-3   -3.990777303210305E-1    2.200213676560089E-1
 8.190608271350000E9    -5.006812353025843E-1    2.043053149556461E-1   -1.110947109826098E-3   -2.131248722560901E-3   -1.182960979086228E-3   -2.236585096985569E-3   -3.980752100633452E-1    2.216035255941207E-1
 8.190641473900000E9    -4.995403352521824E-1    2.064790457925552E-1   -1.122145308770151E-3   -2.139339666887956E-3   -1.206770561167636E-3   -2.187477680250828E-3   -3.973182612417703E-1    2.232962995494188E-1
 8.190674676450000E9    -4.986617976818699E-1    2.086919884121201E-1   -1.125805648720479E-3   -2.142296243997390E-3   -1.246450140121696E-3   -2.185508121067217E-3   -3.964275316160168E-1    2.250421342182705E-1
 8.190707879000000E9    -4.977231694649032E-1    2.107953824926059E-1   -1.156624200242859E-3   -2.155417024268696E-3   -1.227757793644692E-3   -2.187347995947664E-3   -3.954135885890092E-1    2.264036163513072E-1
 8.190741081550000E9    -4.967582913361557E-1    2.130223918993692E-1   -1.146927647935293E-3   -2.153427997430763E-3   -1.247171250197832E-3   -2.184861264402189E-3   -3.943767889655227E-1    2.278646962501880E-1
 8.190774284100000E9    -4.958897447988814E-1    2.149204518466348E-1   -1.148711586672968E-3   -2.127043728174023E-3   -1.235495761208232E-3   -2.204765467080236E-3   -3.932791022920334E-1    2.295553679132665E-1
 8.190807486650000E9    -4.948661135513417E-1    2.172002048123192E-1   -1.180507022862495E-3   -2.143018369485843E-3   -1.238256709886304E-3   -2.184430463086349E-3   -3.925238528969635E-1    2.312586848959720E-1
 8.190840689200000E9    -4.938944897571214E-1    2.193022676706796E-1   -1.175692710255615E-3   -2.123166381245808E-3   -1.256997883096898E-3   -2.164524181296168E-3   -3.914267577823576E-1    2.327224607472849E-1
 8.190873891750000E9    -4.930756133763806E-1    2.214759693407210E-1   -1.165457015113805E-3   -2.105607580684429E-3   -1.285939065082747E-3   -2.146456758907041E-3   -3.903860999622096E-1    2.345216497865845E-1
 8.190907094300000E9    -4.919937701227149E-1    2.234635077597812E-1   -1.183616709814894E-3   -2.117187553748953E-3   -1.283815909925845E-3   -2.171161871544723E-3   -3.895712505579750E-1    2.357912453968876E-1
 8.190940296850000E9    -4.910798389902657E-1    2.255693329097098E-1   -1.197792170434759E-3   -2.128342449852909E-3   -1.320913095148310E-3   -2.128324444634064E-3   -3.884258886580793E-1    2.373313440110412E-1
 8.190973499400000E9    -4.901464389281951E-1    2.277680468021938E-1   -1.199170446269413E-3   -2.091546876170869E-3   -1.323772805067285E-3   -2.170814988292713E-3   -3.875433126344202E-1    2.389939518292100E-1
 8.191006701950000E9    -4.890876772341907E-1    2.298504861511684E-1   -1.209685549746404E-3   -2.108131731732201E-3   -1.297955685954026E-3   -2.150927976593917E-3   -3.864650090632303E-1    2.406241285593247E-1
 8.191039904500000E9    -4.879639869858023E-1    2.320270776462624E-1   -1.241955932268211E-3   -2.111863466595713E-3   -1.323131713817364E-3   -2.095796867525444E-3   -3.855129694043330E-1    2.421819606626368E-1
 8.191073107050000E9    -4.870641143030389E-1    2.340323937717553E-1   -1.249320304832789E-3   -2.119284222196426E-3   -1.305281065011746E-3   -2.153278724608206E-3   -3.845005492818009E-1    2.436616557125746E-1
 8.191106309600000E9    -4.859998409009764E-1    2.361055575542409E-1   -1.266953745981308E-3   -2.084976280551063E-3   -1.310739773434498E-3   -2.125130052916281E-3   -3.834278217883445E-1    2.452359809718954E-1
 8.191139512150000E9    -4.850419384948755E-1    2.382566416471525E-1   -1.267994053281171E-3   -2.081963033420993E-3   -1.343619097858541E-3   -2.107909024661605E-3   -3.824208021343479E-1    2.466938274803838E-1
 8.191172714700000E9    -4.838279802766096E-1    2.402958433503116E-1   -1.277616265849252E-3   -2.106178196523984E-3   -1.370793805726679E-3   -2.125669131870253E-3   -3.813592996594535E-1    2.482538862243385E-1
 8.191205917250000E9    -4.828983064431364E-1    2.423894429935205E-1   -1.258543522414259E-3   -2.094883684751105E-3   -1.366513578109289E-3   -2.118963367386745E-3   -3.802977368638836E-1    2.497020599239148E-1
 8.191239119800000E9    -4.818082155282811E-1    2.445101214750292E-1   -1.310025853234562E-3   -2.058799133385632E-3   -1.413476363156047E-3   -2.136217168265423E-3   -3.793531185387335E-1    2.513650986346813E-1
 8.191272322350000E9    -4.805517072037925E-1    2.466265204431836E-1   -1.270189222725438E-3   -2.047847910360858E-3   -1.381036613186675E-3   -2.114242867618875E-3   -3.781669946498317E-1    2.528480127975105E-1
 8.191305524900000E9    -4.796196901513003E-1    2.485505139530277E-1   -1.291965000406965E-3   -2.089652956586985E-3   -1.396898375734195E-3   -2.068944936891295E-3   -3.771754919745479E-1    2.542390878786913E-1
 8.191338727450000E9    -4.785359705108991E-1    2.505809934843557E-1   -1.292043692286204E-3   -2.048559589026953E-3   -1.413689204001918E-3   -2.090884704421631E-3   -3.761445798972440E-1    2.558137388335205E-1
 8.191371930000000E9    -4.774460406846042E-1    2.526405282647691E-1   -1.318317706763345E-3   -2.032898044298758E-3   -1.417039233038967E-3   -2.103940932626649E-3   -3.749123341283320E-1    2.573644180213318E-1
 8.191405132550000E9    -4.762832907814477E-1    2.547687120588933E-1   -1.326531718364112E-3   -2.063025120750462E-3   -1.442718288332774E-3   -2.087382958143356E-3   -3.738154710597042E-1    2.588832508115378E-1
 8.191438335100000E9    -4.751372337306499E-1    2.567249665237353E-1   -1.345819912970728E-3   -2.034221153482139E-3   -1.436032252924839E-3   -2.077541255463977E-3   -3.728151851466486E-1    2.602869771220974E-1
 8.191471537650000E9    -4.740801919850186E-1    2.589042782632159E-1   -1.318692205693101E-3   -2.047002655005037E-3   -1.444372204338019E-3   -2.078062652795237E-3   -3.716622407898058E-1    2.619297909407858E-1
 8.191504740200000E9    -4.729171113086169E-1    2.608649870917110E-1   -1.368775216498200E-3   -2.058077549590622E-3   -1.454062905708595E-3   -2.048725455523294E-3   -3.706079782988415E-1    2.633205225089515E-1
 8.191537942750000E9    -4.717789871247535E-1    2.628847538607643E-1   -1.371647699943734E-3   -2.039535165430214E-3   -1.471876288643858E-3   -2.043925634748069E-3   -3.695822561743787E-1    2.646813979937846E-1
 8.191571145300000E9    -4.705534367457878E-1    2.648171092169813E-1   -1.387495285236221E-3   -2.036696205104795E-3   -1.501134589775302E-3   -2.047634737413497E-3   -3.684432069578843E-1    2.661874739710576E-1
 8.191604347850000E9    -4.694716658580302E-1    2.669981808739712E-1   -1.406227684211931E-3   -2.044846098808226E-3   -1.510198888308258E-3   -2.055358300572245E-3   -3.672545256138943E-1    2.677526245362145E-1
 8.191637550400000E9    -4.681950108322160E-1    2.689344184926943E-1   -1.389558479186396E-3   -2.011832040003953E-3   -1.516003269498345E-3   -2.046279088487243E-3   -3.661355141502000E-1    2.691592192749705E-1
 8.191670752950000E9    -4.670649271982266E-1    2.709700051405100E-1   -1.403665029286536E-3   -1.985262712730557E-3   -1.534214897246108E-3   -2.042677287545808E-3   -3.650622481362590E-1    2.706581655623483E-1
 8.191703955500000E9    -4.658589535846844E-1    2.730144345063616E-1   -1.410708799179250E-3   -2.018508520449602E-3   -1.522438084937912E-3   -2.026597168005994E-3   -3.638812538848380E-1    2.721359655156660E-1
 8.191737158050000E9    -4.647224246972335E-1    2.750235773169701E-1   -1.451608442558686E-3   -1.984747752546762E-3   -1.502452158390794E-3   -2.001966437615109E-3   -3.627764599241364E-1    2.735236636151579E-1
 8.191770360600000E9    -4.635836243317592E-1    2.770284905022898E-1   -1.413456327906391E-3   -2.020849946943884E-3   -1.509443207069240E-3   -2.024570535473577E-3   -3.616607639057017E-1    2.749998093169098E-1
 8.191803563150000E9    -4.622275351444858E-1    2.790476055005321E-1   -1.432394842303513E-3   -2.008191963559334E-3   -1.536758443220310E-3   -2.043484191480473E-3   -3.604524579342988E-1    2.764468097715859E-1
 8.191836765700000E9    -4.610619451302724E-1    2.809191220636575E-1   -1.465199046704678E-3   -2.002171421900093E-3   -1.555586689821467E-3   -1.988212935350312E-3   -3.591819983392676E-1    2.778800781197666E-1
 8.191869968250000E9    -4.598709901367730E-1    2.829156102850731E-1   -1.464995751237141E-3   -1.977867005914796E-3   -1.541877183971791E-3   -2.008966530591503E-3   -3.582144002509236E-1    2.793461892695688E-1
 8.191903170800000E9    -4.585417783623597E-1    2.849223938235481E-1   -1.491031298082278E-3   -1.972497502836370E-3   -1.571391188760422E-3   -2.001106656038587E-3   -3.568723856233049E-1    2.806797987363400E-1
 8.191936373350000E9    -4.575009213186783E-1    2.867380359560665E-1   -1.474103292779580E-3   -1.989806680710389E-3   -1.576868626789085E-3   -1.998100200371250E-3   -3.557321220964108E-1    2.822879391639754E-1
 8.191969575900000E9    -4.560552830413412E-1    2.887843546098429E-1   -1.488798034150090E-3   -1.953235003031129E-3   -1.586822309567846E-3   -1.997330730483745E-3   -3.544597468946517E-1    2.836783894815753E-1
 8.192002778450000E9    -4.547509714206693E-1    2.908269010252924E-1   -1.476954220390023E-3   -1.984884017035306E-3   -1.598756644162394E-3   -1.979729898708817E-3   -3.532803001820607E-1    2.850267328424632E-1
 8.192035981000000E9    -4.534877594949466E-1    2.927316994183690E-1   -1.522269784254039E-3   -1.950115793121655E-3   -1.583626129467007E-3   -1.976330158054897E-3   -3.522021981496394E-1    2.863605830485295E-1
 8.192069183550000E9    -4.521720494719395E-1    2.946122070865893E-1   -1.491780021244686E-3   -1.960516338249939E-3   -1.599146741161304E-3   -1.959894443520631E-3   -3.509272950168873E-1    2.878680829337603E-1
 8.192102386100000E9    -4.510182456479233E-1    2.967024193145542E-1   -1.518927532700367E-3   -1.959161212980788E-3   -1.604492154317594E-3   -1.966572679979918E-3   -3.498128212165516E-1    2.893376862549090E-1
 8.192135588650000E9    -4.497188404058747E-1    2.985067590772786E-1   -1.525231011407690E-3   -1.953385767520641E-3   -1.628421440092681E-3   -1.949129156893385E-3   -3.485931570410905E-1    2.906307054560430E-1
 8.192168791200000E9    -4.484033438055126E-1    3.005243791252116E-1   -1.541425139527486E-3   -1.934197567989552E-3   -1.636171490973950E-3   -1.957748645519630E-3   -3.473534815816351E-1    2.921253998377015E-1
 8.192201993750000E9    -4.470604892382830E-1    3.024410830562417E-1   -1.557717140705368E-3   -1.938768790067497E-3   -1.639997969706049E-3   -1.946089282471814E-3   -3.460737306832510E-1    2.934920779073863E-1
 8.192235196300000E9    -4.457954978639423E-1    3.044256432821235E-1   -1.519037667736666E-3   -1.930461455220128E-3   -1.652279057830158E-3   -1.965915561119795E-3   -3.448852784333603E-1    2.949684522903836E-1
 8.192268398850000E9    -4.444341445045064E-1    3.062682523799252E-1   -1.568777264566351E-3   -1.925150110800125E-3   -1.650083486773050E-3   -1.919579606335931E-3   -3.435992928426247E-1    2.960861811840678E-1
 8.192301601400000E9    -4.429910591142375E-1    3.081798952321165E-1   -1.601214041428576E-3   -1.927525092945336E-3   -1.688654973574915E-3   -1.907113642010935E-3   -3.423755213422286E-1    2.976244397834442E-1
 8.192334803950000E9    -4.415721110853385E-1    3.100470819438848E-1   -1.594451599838697E-3   -1.924646655675633E-3   -1.695556188373262E-3   -1.923502664768695E-3   -3.410525623339454E-1    2.988440460165342E-1
 8.192368006500000E9    -4.403487020027030E-1    3.119237165508835E-1   -1.580055458791972E-3   -1.886828709062176E-3   -1.702189771067110E-3   -1.913530797181648E-3   -3.399356312027352E-1    3.002702959631456E-1
 8.192401209050000E9    -4.388864394514489E-1    3.138173821191529E-1   -1.596897189768254E-3   -1.914304916743576E-3   -1.689351782820644E-3   -1.888025287245734E-3   -3.386405074963170E-1    3.015694385772902E-1
 8.192434411600000E9    -4.376147545939081E-1    3.158360384508238E-1   -1.601907160260509E-3   -1.903230772340512E-3   -1.739457037143110E-3   -1.881615982593343E-3   -3.373935517187460E-1    3.031876746128068E-1
 8.192467614150000E9    -4.362048884129972E-1    3.176344132213873E-1   -1.641008884745403E-3   -1.885491452485316E-3   -1.717606345577465E-3   -1.883094875142582E-3   -3.360003670606411E-1    3.042972931625004E-1
 8.192500816700000E9    -4.348680441618015E-1    3.194986356595150E-1   -1.619131079389950E-3   -1.881656603798111E-3   -1.736573958733470E-3   -1.901796270184437E-3   -3.348326446012613E-1    3.055057931812613E-1
 8.192534019250000E9    -4.334178424426054E-1    3.213815526424508E-1   -1.633392068261906E-3   -1.858964653625719E-3   -1.754284218113583E-3   -1.885486199738943E-3   -3.335375696982219E-1    3.070167832426983E-1
 8.192567221800000E9    -4.319362252474156E-1    3.231438240082961E-1   -1.658416017450771E-3   -1.853318426225424E-3   -1.757463280232469E-3   -1.884757698307363E-3   -3.323877644761952E-1    3.082808579986176E-1
 8.192600424350000E9    -4.304746966297441E-1    3.250667395201248E-1   -1.668485739632998E-3   -1.849324399723765E-3   -1.749661491817263E-3   -1.844222879392021E-3   -3.309880210289778E-1    3.096933926333421E-1
 8.192633626900000E9    -4.291428599344649E-1    3.269350769339105E-1   -1.663058958254842E-3   -1.850527150131768E-3   -1.745186638826652E-3   -1.841966734787864E-3   -3.297265485450782E-1    3.109642511813427E-1
 8.192666829450000E9    -4.276748102083832E-1    3.287563075805227E-1   -1.679012500767633E-3   -1.838870875755138E-3   -1.803326280028428E-3   -1.866328578307479E-3   -3.284374015579971E-1    3.121350585902096E-1
 8.192700032000000E9    -4.262428502574392E-1    3.305607045202460E-1   -1.715993226363535E-3   -1.848836298451732E-3   -1.798859760385964E-3   -1.856431494161280E-3   -3.271684532455477E-1    3.135479845237970E-1
 8.192733234550000E9    -4.248065547639395E-1    3.324142437698373E-1   -1.705749078697564E-3   -1.843685514017745E-3   -1.794414356856188E-3   -1.836311788792660E-3   -3.256762282816668E-1    3.149414270060477E-1
 8.192766437100000E9    -4.233307259411314E-1    3.342908229491729E-1   -1.709560491775060E-3   -1.832496755022940E-3   -1.816691114758559E-3   -1.832636736924069E-3   -3.244342168528391E-1    3.163028191695365E-1
 8.192799639650000E9    -4.218989686628635E-1    3.361399897449646E-1   -1.726924496785873E-3   -1.843783805337800E-3   -1.818348660649391E-3   -1.812339717672774E-3   -3.231909993546024E-1    3.175796810955829E-1
 8.192832842200000E9    -4.202820392692367E-1    3.378703010436530E-1   -1.713052945678613E-3   -1.812858743274461E-3   -1.818096578815587E-3   -1.819288852545002E-3   -3.217711404895492E-1    3.187535100490371E-1
 8.192866044750000E9    -4.190531614898304E-1    3.396606174870161E-1   -1.739520652780167E-3   -1.810642089798011E-3   -1.852180994443527E-3   -1.825238405576115E-3   -3.202387864150468E-1    3.200597130826917E-1
 8.192899247300000E9    -4.175021368636808E-1    3.413866485183212E-1   -1.761315963106530E-3   -1.792634673031640E-3   -1.815401494169037E-3   -1.778769342747019E-3   -3.190690231607086E-1    3.212918628098049E-1
 8.192932449850000E9    -4.160194082662305E-1    3.432437460206677E-1   -1.740691086320198E-3   -1.803593950150039E-3   -1.828538598741811E-3   -1.783155002631528E-3   -3.176587701032886E-1    3.226153857308593E-1
 8.192965652400000E9    -4.143715745040443E-1    3.451348656129655E-1   -1.750127508590642E-3   -1.808398739573535E-3   -1.864419900433306E-3   -1.780450173001118E-3   -3.165322960686175E-1    3.239926275700808E-1
 8.192998854950000E9    -4.128757222644699E-1    3.468170690015989E-1   -1.727550750988924E-3   -1.772998132510287E-3   -1.851901560229359E-3   -1.788448231752891E-3   -3.149771112703631E-1    3.252860564281148E-1
 8.193032057500000E9    -4.113816126253675E-1    3.485686861311469E-1   -1.773232108571638E-3   -1.784989072413679E-3   -1.875993643677510E-3   -1.792114713174071E-3   -3.136274442001494E-1    3.264253349423867E-1
