#  HZ   S   RI   R     50.00 
! Rohde & Schwarz Vector Network Analyzer 
! Rohde-Schwarz,ZNB20-2Port,1311601062101988,3.16
! Created: UTC 3/20/2024, 5:09:09 PM
! freq[Hz]                re:S11                  im:S11                  re:S21                  im:S21                  re:S12                  im:S12                  re:S22                  im:S22
 8.190857771000000E9    -4.934693425700294E-1    2.202788158227245E-1   -1.171165215477050E-3   -2.100220348685207E-3   -1.299198833774043E-3   -2.167799573105064E-3   -3.909211416815545E-1    2.336048042505922E-1
 8.190887269350000E9    -4.925894676164935E-1    2.222005490741191E-1   -1.200009513456115E-3   -2.117042553652623E-3   -1.259904685403227E-3   -2.167421332600259E-3   -3.899890041770597E-1    2.349272988122683E-1
 8.190916767700000E9    -4.916686718377878E-1    2.239989553196842E-1   -1.195772724851598E-3   -2.135442992474377E-3   -1.285423269724424E-3   -2.169888407439451E-3   -3.891568986341281E-1    2.362949784835419E-1
 8.190946266050000E9    -4.908896760643429E-1    2.259806416284567E-1   -1.207342669469884E-3   -2.114509916528076E-3   -1.307538451004321E-3   -2.154889015734514E-3   -3.883460585568410E-1    2.378205142626076E-1
 8.190975764400000E9    -4.899768548549397E-1    2.277790667440323E-1   -1.216385378829534E-3   -2.104913042280906E-3   -1.305505362534413E-3   -2.110086502940924E-3   -3.873828719096262E-1    2.390236024375357E-1
 8.191005262750000E9    -4.891500888241738E-1    2.297104674508431E-1   -1.238921866989759E-3   -2.101042141983071E-3   -1.314764784119545E-3   -2.147242407461525E-3   -3.864334078163493E-1    2.404496997706383E-1
 8.191034761100000E9    -4.882603221721181E-1    2.316488941308987E-1   -1.211447922455572E-3   -2.100843060912179E-3   -1.324130748769519E-3   -2.137713012098637E-3   -3.856413318636519E-1    2.418940853143313E-1
 8.191064259450000E9    -4.873839647450543E-1    2.334341616965260E-1   -1.225282636918533E-3   -2.106438324724632E-3   -1.358859432148863E-3   -2.156492936548322E-3   -3.847123189784361E-1    2.432228383135827E-1
 8.191093757800000E9    -4.864649381114117E-1    2.353993970897754E-1   -1.267882004150280E-3   -2.084071267766090E-3   -1.346773863985205E-3   -2.132123823855758E-3   -3.839781436489172E-1    2.447140276627748E-1
 8.191123256150000E9    -4.854402388782201E-1    2.371447836593507E-1   -1.253269719612714E-3   -2.076418781784944E-3   -1.337404247602492E-3   -2.136693868217995E-3   -3.829119058525878E-1    2.459943902799854E-1
 8.191152754500000E9    -4.844975519236096E-1    2.390646940942476E-1   -1.246129595969453E-3   -2.088197094581016E-3   -1.369796655338435E-3   -2.087563046613825E-3   -3.819568369682501E-1    2.474248873350406E-1
 8.191182252850000E9    -4.835221192417284E-1    2.408540737483880E-1   -1.258582114386476E-3   -2.086626759386389E-3   -1.396314375977228E-3   -2.163674108363575E-3   -3.809625390496270E-1    2.486667992912864E-1
 8.191211751200000E9    -4.827095095235575E-1    2.427593181612011E-1   -1.287754758687285E-3   -2.087687089349857E-3   -1.365117187697756E-3   -2.104155531537927E-3   -3.800638617292192E-1    2.499135920726946E-1
 8.191241249550000E9    -4.816740004295058E-1    2.446335224062428E-1   -1.299347778965282E-3   -2.058443484812431E-3   -1.384240376400852E-3   -2.121069283928929E-3   -3.792771931979598E-1    2.514146987564879E-1
 8.191270747900000E9    -4.807654575997363E-1    2.464437183897780E-1   -1.280634199749591E-3   -2.077290996989739E-3   -1.388926162910681E-3   -2.122183923161380E-3   -3.781773040775185E-1    2.530037695152784E-1
 8.191300246250000E9    -4.798647236136174E-1    2.481282968678782E-1   -1.283520655755786E-3   -2.063189179930390E-3   -1.393560888736537E-3   -2.089198068566755E-3   -3.772613800240234E-1    2.541292408146117E-1
 8.191329744600000E9    -4.788612070157740E-1    2.500727693114537E-1   -1.317333168547763E-3   -2.068977291688624E-3   -1.417253531287313E-3   -2.114049854213053E-3   -3.763995265286740E-1    2.554434724429971E-1
 8.191359242950000E9    -4.779185914336611E-1    2.518784488968434E-1   -1.306675700361228E-3   -2.051455782169961E-3   -1.451111920146986E-3   -2.103757873076878E-3   -3.754707846317954E-1    2.566560552220973E-1
 8.191388741300000E9    -4.768885547060046E-1    2.535966304167617E-1   -1.334253708868092E-3   -2.065320843584547E-3   -1.420648196698828E-3   -2.070528373417012E-3   -3.743371033957135E-1    2.580123884708257E-1
 8.191418239650000E9    -4.758857487813644E-1    2.554686210528929E-1   -1.323811433241872E-3   -2.038845840442829E-3   -1.439740273105724E-3   -2.062851448798881E-3   -3.734801943917393E-1    2.592920721163387E-1
 8.191447738000000E9    -4.749378642565067E-1    2.574373306032681E-1   -1.325129570331600E-3   -2.019015661018985E-3   -1.458521809902791E-3   -2.071471430073328E-3   -3.725785393889295E-1    2.607617066118384E-1
 8.191477236350000E9    -4.738629354209293E-1    2.592425177832228E-1   -1.369304073206123E-3   -2.044457889529695E-3   -1.464676052275920E-3   -2.099347123517838E-3   -3.715225661114776E-1    2.621525351027533E-1
 8.191506734700000E9    -4.727905352063723E-1    2.609395738171180E-1   -1.391786893609712E-3   -2.047106350348669E-3   -1.436806196328269E-3   -2.064553687606511E-3   -3.705566903889442E-1    2.634909113994106E-1
 8.191536233050000E9    -4.718892571444143E-1    2.627096390188716E-1   -1.373449428950255E-3   -2.042689773762010E-3   -1.477361784140659E-3   -2.061371161168230E-3   -3.695115073111377E-1    2.646552870433034E-1
 8.191565731400000E9    -4.708477040883879E-1    2.646442817258267E-1   -1.376036915724459E-3   -2.052305872730995E-3   -1.510295466417557E-3   -2.056734652155104E-3   -3.686701600266403E-1    2.659477024929585E-1
 8.191595229750000E9    -4.697995486008128E-1    2.662267349353815E-1   -1.390482143527702E-3   -2.020243541953821E-3   -1.511475681446830E-3   -2.040597405515347E-3   -3.675932042052865E-1    2.674088371353525E-1
 8.191624728100000E9    -4.687564212926936E-1    2.681149899356651E-1   -1.372126421485006E-3   -2.041760007161796E-3   -1.500320075998869E-3   -2.041543672776615E-3   -3.666617464703797E-1    2.686348889554899E-1
 8.191654226450000E9    -4.677306587424798E-1    2.698982920047718E-1   -1.424831530646394E-3   -2.004321509006400E-3   -1.512178417404087E-3   -2.036005669554909E-3   -3.655451893608174E-1    2.698893898876660E-1
 8.191683724800000E9    -4.666553012329607E-1    2.716890929094725E-1   -1.402087106079223E-3   -2.037883584971544E-3   -1.511082386523419E-3   -2.031053002841206E-3   -3.645401271024283E-1    2.712255890612716E-1
 8.191713223150000E9    -4.656568317428390E-1    2.735464948256082E-1   -1.416425830108749E-3   -2.004801860050213E-3   -1.511114320212134E-3   -2.048690401921532E-3   -3.634602861557991E-1    2.725956192206511E-1
 8.191742721500000E9    -4.644489624431329E-1    2.752923867901549E-1   -1.422948720876392E-3   -1.984099302622925E-3   -1.512311165044579E-3   -2.030312063087425E-3   -3.625085507710081E-1    2.738250309417463E-1
 8.191772219850000E9    -4.634733473778711E-1    2.769903988257912E-1   -1.441411740595018E-3   -2.000212089691822E-3   -1.532856426845767E-3   -2.010512220750721E-3   -3.615013088035340E-1    2.750710200446532E-1
 8.191801718200000E9    -4.623193274333452E-1    2.788178400173161E-1   -1.463461769305376E-3   -2.014822106368790E-3   -1.536832514497849E-3   -1.989025353923302E-3   -3.606183781272084E-1    2.762346066754071E-1
 8.191831216550000E9    -4.612158013505487E-1    2.806063466192548E-1   -1.441628476595131E-3   -1.990816227496987E-3   -1.567603223279070E-3   -1.984357772411781E-3   -3.594227467652930E-1    2.776318586512512E-1
 8.191860714900000E9    -4.602552038110782E-1    2.823051330334266E-1   -1.451994709436216E-3   -2.004000553385594E-3   -1.560585806977819E-3   -2.016507846290545E-3   -3.583067617123946E-1    2.790104209306331E-1
 8.191890213250000E9    -4.590781841614135E-1    2.840300257056503E-1   -1.451148974120966E-3   -1.980047771349695E-3   -1.550443372362370E-3   -2.007341498616133E-3   -3.573629746335231E-1    2.800953708401608E-1
 8.191919711600000E9    -4.578976777483283E-1    2.858948996439270E-1   -1.485525037621346E-3   -1.992974485655742E-3   -1.604278194494475E-3   -1.983406305742035E-3   -3.561708622399481E-1    2.813957699378135E-1
 8.191949209950000E9    -4.567995645010237E-1    2.875127298711393E-1   -1.454759524788406E-3   -1.960746893142283E-3   -1.596829774131587E-3   -2.011658290293964E-3   -3.553242743967125E-1    2.827298883885927E-1
 8.191978708300000E9    -4.556383943272928E-1    2.892547642334870E-1   -1.512247857325781E-3   -1.985551417815046E-3   -1.618209190570849E-3   -1.995228001011739E-3   -3.542724873644543E-1    2.838951292538699E-1
 8.192008206650000E9    -4.546062863680360E-1    2.910038602205718E-1   -1.480894752642991E-3   -1.947739246775801E-3   -1.603636015088051E-3   -1.983010303456901E-3   -3.532465471906180E-1    2.852596696451300E-1
 8.192037705000000E9    -4.534686487234763E-1    2.927606712494615E-1   -1.499076473213437E-3   -1.950601398755415E-3   -1.608687539112359E-3   -1.959706845710149E-3   -3.519886740022500E-1    2.864216443599528E-1
 8.192067203350000E9    -4.522874235882570E-1    2.945971879094321E-1   -1.534409448143914E-3   -1.937936657991457E-3   -1.630836055116788E-3   -1.968276977941276E-3   -3.510603965487659E-1    2.877605232732543E-1
 8.192096701700000E9    -4.511292747048589E-1    2.961883232833975E-1   -1.504796239000318E-3   -1.945050602193598E-3   -1.627172274403018E-3   -1.966590334624207E-3   -3.500163008584590E-1    2.891077288906804E-1
 8.192126200050000E9    -4.501257874013233E-1    2.980378668912324E-1   -1.512916744938984E-3   -1.929671281021717E-3   -1.652498096515611E-3   -1.970403554629997E-3   -3.489566083750518E-1    2.902509662799082E-1
 8.192155698400000E9    -4.488264078422481E-1    2.997314499003003E-1   -1.534064811709292E-3   -1.918041635349912E-3   -1.661990535181101E-3   -1.933946312328582E-3   -3.478983652504269E-1    2.913624997331522E-1
 8.192185196750000E9    -4.476968575435721E-1    3.014358497295099E-1   -1.561660950738483E-3   -1.951590382818670E-3   -1.649854976947311E-3   -1.938882042335316E-3   -3.466680057792920E-1    2.927479718422222E-1
 8.192214695100000E9    -4.464647806194136E-1    3.030555388532822E-1   -1.549718966534273E-3   -1.937314930499104E-3   -1.666493545649163E-3   -1.957837902955140E-3   -3.456414221777391E-1    2.940329978970579E-1
 8.192244193450000E9    -4.453233542041842E-1    3.048613139858619E-1   -1.550254221946517E-3   -1.939516315627040E-3   -1.647490685608960E-3   -1.965365645672657E-3   -3.445513323036501E-1    2.952685347785308E-1
 8.192273691800000E9    -4.440888793637337E-1    3.065620760291524E-1   -1.566313106503483E-3   -1.935817697423502E-3   -1.689346843804295E-3   -1.928963224578361E-3   -3.434191505029997E-1    2.964643293295005E-1
 8.192303190150000E9    -4.429398932304877E-1    3.082319932134568E-1   -1.568219446137861E-3   -1.906854482949411E-3   -1.680747468796664E-3   -1.887120796461090E-3   -3.424095310455530E-1    2.977840338825304E-1
 8.192332688500000E9    -4.417780240845729E-1    3.099128683989389E-1   -1.586059280552053E-3   -1.920723298381383E-3   -1.711844741040598E-3   -1.913241530849493E-3   -3.411590574130549E-1    2.987103936503793E-1
 8.192362186850000E9    -4.404956238420199E-1    3.116037633158199E-1   -1.574171420808050E-3   -1.899825252738225E-3   -1.699016012249988E-3   -1.923762263721383E-3   -3.401384827066602E-1    3.000456351510594E-1
 8.192391685200000E9    -4.391716390372229E-1    3.133077452554121E-1   -1.615998197797251E-3   -1.908701561313687E-3   -1.700241193259245E-3   -1.891892752799959E-3   -3.391299817896506E-1    3.011185391114433E-1
 8.192421183550000E9    -4.380922195131248E-1    3.150543675344840E-1   -1.597737014667190E-3   -1.896224535472791E-3   -1.710992840631707E-3   -1.921632333949104E-3   -3.376907188199656E-1    3.024361079383706E-1
 8.192450681900000E9    -4.369041958104523E-1    3.166445776319013E-1   -1.622974031173306E-3   -1.879082428566003E-3   -1.745350199089908E-3   -1.906618180456297E-3   -3.366480412714239E-1    3.037808163929743E-1
 8.192480180250000E9    -4.356809982401278E-1    3.182955194028918E-1   -1.653167570396510E-3   -1.846230647115747E-3   -1.715200651210565E-3   -1.877452821299491E-3   -3.356374642249767E-1    3.047850157043182E-1
 8.192509678600000E9    -4.344041446907743E-1    3.200295850815128E-1   -1.626823173951339E-3   -1.848431268285519E-3   -1.740419704823324E-3   -1.909305472214575E-3   -3.345664129324054E-1    3.060127069456728E-1
 8.192539176950000E9    -4.331485796409197E-1    3.215746186059656E-1   -1.647590176029364E-3   -1.860159736558652E-3   -1.768923687427702E-3   -1.866950265277701E-3   -3.333710609017134E-1    3.071171261404304E-1
 8.192568675300000E9    -4.319868323422323E-1    3.232011183635418E-1   -1.653665317280864E-3   -1.859580708594903E-3   -1.757498150728254E-3   -1.879030468139654E-3   -3.320893862057681E-1    3.084461661772990E-1
 8.192598173650000E9    -4.305839584004141E-1    3.248117687620921E-1   -1.666628001010931E-3   -1.875498183196583E-3   -1.768100371032494E-3   -1.869575218455144E-3   -3.310738719262150E-1    3.096553275625765E-1
 8.192627672000000E9    -4.293587453448319E-1    3.265508892127914E-1   -1.652456670999143E-3   -1.856425987830462E-3   -1.790023031409918E-3   -1.863474934452853E-3   -3.297731996554310E-1    3.106937582874826E-1
 8.192657170350000E9    -4.281063369424329E-1    3.281992533153400E-1   -1.680659792165622E-3   -1.864304016519259E-3   -1.770453173691652E-3   -1.856063859037755E-3   -3.286340628144978E-1    3.118946824446061E-1
 8.192686668700000E9    -4.268068518236000E-1    3.299728585140032E-1   -1.657588407900741E-3   -1.841046027299059E-3   -1.779453755306505E-3   -1.848553567242015E-3   -3.275085680451874E-1    3.128578945721440E-1
 8.192716167050000E9    -4.254431665975815E-1    3.314411399421099E-1   -1.670929225616426E-3   -1.835512757364811E-3   -1.782458239027182E-3   -1.850188534835476E-3   -3.263481570015561E-1    3.141882933895352E-1
 8.192745665400000E9    -4.243864054988272E-1    3.331122458096519E-1   -1.724173143700189E-3   -1.824330220282482E-3   -1.844105772664081E-3   -1.887277222833511E-3   -3.252749003808471E-1    3.154637840653377E-1
 8.192775163750000E9    -4.228073381481441E-1    3.347275935626234E-1   -1.712367466293451E-3   -1.817671754688293E-3   -1.813064425169833E-3   -1.828778690770496E-3   -3.240539705832318E-1    3.165698513833080E-1
 8.192804662100000E9    -4.215713002062682E-1    3.362539084148340E-1   -1.713280055939511E-3   -1.804188438604574E-3   -1.804270191555908E-3   -1.795610776255208E-3   -3.229321569822017E-1    3.176632983902893E-1
 8.192834160450000E9    -4.203327596186417E-1    3.379748464249522E-1   -1.711478059501401E-3   -1.831768855658337E-3   -1.865528964498326E-3   -1.810174851659332E-3   -3.217314314610238E-1    3.187701446067400E-1
 8.192863658800000E9    -4.189900990578422E-1    3.394486560707232E-1   -1.739317376480232E-3   -1.803951870472893E-3   -1.845312778233538E-3   -1.800027994857336E-3   -3.204436126603168E-1    3.200868394362729E-1
 8.192893157150000E9    -4.177425034897169E-1    3.411774724946500E-1   -1.723076261613849E-3   -1.810781552461351E-3   -1.817873950497977E-3   -1.804227127804409E-3   -3.194618508564848E-1    3.211817410488246E-1
 8.192922655500000E9    -4.163135970638789E-1    3.427909356249925E-1   -1.782675902968205E-3   -1.806522534540354E-3   -1.841805078068859E-3   -1.818280647253025E-3   -3.180189419100624E-1    3.221886867756134E-1
 8.192952153850000E9    -4.149428159232414E-1    3.444134951022788E-1   -1.743920585366234E-3   -1.790552155298759E-3   -1.851158618628644E-3   -1.784601602202709E-3   -3.169179039632601E-1    3.233805634042432E-1
 8.192981652200000E9    -4.138500642320034E-1    3.459516358130590E-1   -1.740643552596439E-3   -1.781563385140639E-3   -1.867281226694264E-3   -1.776638606455040E-3   -3.157378409868422E-1    3.245481406129019E-1
 8.193011150550000E9    -4.122993216660223E-1    3.473087852271644E-1   -1.750305949620349E-3   -1.810884401473700E-3   -1.870227359264776E-3   -1.793896435955248E-3   -3.144663698598493E-1    3.257339355515478E-1
 8.193040648900000E9    -4.109380611435375E-1    3.490894372228254E-1   -1.789906576134123E-3   -1.784581238592944E-3   -1.882823527809547E-3   -1.787023645282217E-3   -3.132726956301455E-1    3.267317427363418E-1
 8.193070147250000E9    -4.096529410466481E-1    3.504601107642494E-1   -1.800971151126960E-3   -1.783936800755069E-3   -1.895576199020996E-3   -1.750396746112542E-3   -3.120992853680125E-1    3.276878878928862E-1
 8.193099645600000E9    -4.083568035403992E-1    3.522431051515474E-1   -1.788790569452346E-3   -1.775749802607242E-3   -1.900627031793976E-3   -1.750414009013998E-3   -3.109155353976957E-1    3.289212799393800E-1
 8.193129143950000E9    -4.068595418334284E-1    3.537100708658525E-1   -1.820434467464989E-3   -1.763792886833462E-3   -1.887267517963068E-3   -1.752062212014257E-3   -3.094974438576228E-1    3.301629303943032E-1
 8.193158642300000E9    -4.054502501127411E-1    3.552325990025163E-1   -1.817250735939944E-3   -1.729328447120884E-3   -1.916363493715719E-3   -1.767925876685974E-3   -3.082912728104469E-1    3.312018542233368E-1
 8.193188140650000E9    -4.041556457312535E-1    3.568214204671055E-1   -1.807915013422571E-3   -1.758255848635216E-3   -1.909686291482119E-3   -1.723807993721554E-3   -3.071762258988784E-1    3.323526871318812E-1
 8.193217639000000E9    -4.027981037205832E-1    3.583616043176784E-1   -1.806778865938147E-3   -1.722966953197653E-3   -1.913298268593755E-3   -1.744843941199843E-3   -3.059114726628949E-1    3.332640446997232E-1
 8.193247137350000E9    -4.012984979832235E-1    3.599052906992451E-1   -1.822653310521050E-3   -1.733481206667480E-3   -1.968139299158110E-3   -1.742101602398590E-3   -3.045901073045286E-1    3.343213558520897E-1
 8.193276635700000E9    -4.001007297185640E-1    3.613701707242803E-1   -1.824199344711602E-3   -1.713718804182119E-3   -1.948879869066176E-3   -1.715293784169253E-3   -3.035304346571624E-1    3.355005738644069E-1
 8.193306134050000E9    -3.985712239665211E-1    3.628830616633080E-1   -1.854603216690356E-3   -1.731022675379624E-3   -1.930791442652951E-3   -1.698921562692033E-3   -3.021651837732688E-1    3.364619950950656E-1
 8.193335632400000E9    -3.971231967744510E-1    3.644103936968902E-1   -1.836103134947402E-3   -1.724501385490658E-3   -1.983001053413347E-3   -1.723858776008160E-3   -3.009836264918163E-1    3.376091205486284E-1
 8.193365130750000E9    -3.956935296171001E-1    3.659632273204695E-1   -1.865747247688831E-3   -1.706352859514489E-3   -1.958946145409126E-3   -1.670763443214973E-3   -2.997051217322337E-1    3.387579540296284E-1
 8.193394629100000E9    -3.943433716133625E-1    3.674753016974750E-1   -1.862096502608901E-3   -1.741050841588879E-3   -1.989205908375502E-3   -1.689647295208546E-3   -2.984068789019936E-1    3.397709202843953E-1
 8.193424127450000E9    -3.928369823837147E-1    3.689259008700221E-1   -1.883428116028556E-3   -1.700535263604650E-3   -1.991932141389071E-3   -1.682060649393365E-3   -2.970995432270704E-1    3.408800314776164E-1
 8.193453625800000E9    -3.914600820863394E-1    3.705066757684641E-1   -1.881184384917275E-3   -1.686688271894601E-3   -1.946325335724314E-3   -1.682491352560334E-3   -2.958099781858301E-1    3.417283329831016E-1
 8.193483124150000E9    -3.900017548319113E-1    3.719571153538861E-1   -1.888986817894500E-3   -1.690852141529962E-3   -1.974455456387963E-3   -1.666672224062299E-3   -2.947283704890812E-1    3.426904714553596E-1
 8.193512622500000E9    -3.885806411719100E-1    3.735055606417780E-1   -1.882902169250159E-3   -1.674924572878653E-3   -1.978362272365885E-3   -1.659273866585712E-3   -2.933867348199798E-1    3.439241739776519E-1
