#  HZ   S   RI   R     50.00 
! Rohde & Schwarz Vector Network Analyzer 
! Rohde-Schwarz,ZNB20-2Port,1311601062101988,3.16
! Created: UTC 3/20/2024, 4:54:10 PM
! freq[Hz]                re:S11                  im:S11                  re:S21                  im:S21                  re:S12                  im:S12                  re:S22                  im:S22
 8.191311143000000E9    -4.794837958313370E-1    2.493357205000241E-1   -1.289251834520949E-3   -2.065340651879199E-3   -1.393074871106203E-3   -2.074252906985164E-3   -3.750004479938589E-1    2.540390232995733E-1
 8.191338412875000E9    -4.784798896231070E-1    2.510763255340863E-1   -1.331350220456081E-3   -2.047680694230196E-3   -1.401448950813542E-3   -2.085187303447292E-3   -3.740598374128555E-1    2.552134305306140E-1
 8.191365682750000E9    -4.775162187028592E-1    2.528344723151049E-1   -1.303170810971275E-3   -2.064606470414182E-3   -1.422202810880687E-3   -2.068559935585359E-3   -3.731485428179594E-1    2.565783758607461E-1
 8.191392952625000E9    -4.766400085611754E-1    2.543408368454048E-1   -1.310506604266230E-3   -2.051668267210358E-3   -1.409669588994000E-3   -2.063566893042518E-3   -3.723574798707613E-1    2.576727945582438E-1
 8.191420222500000E9    -4.757240489579534E-1    2.560924190883433E-1   -1.356830228549401E-3   -2.059978747125686E-3   -1.437669456357270E-3   -2.095447175075937E-3   -3.713190460359331E-1    2.589145138486628E-1
 8.191447492375000E9    -4.747849781216916E-1    2.580052841142179E-1   -1.351575123250588E-3   -2.042693846027784E-3   -1.436400748110783E-3   -2.097446196728284E-3   -3.704898807350574E-1    2.602636726208913E-1
 8.191474762250000E9    -4.739240770854268E-1    2.595007886647738E-1   -1.351154912750970E-3   -2.042565333095672E-3   -1.482671927090009E-3   -2.054900004669178E-3   -3.697010718526869E-1    2.613433918621741E-1
 8.191502032125000E9    -4.728968731491042E-1    2.611741318096873E-1   -1.354717736777967E-3   -2.031119145575189E-3   -1.446553121675290E-3   -2.025376063579980E-3   -3.687904737593824E-1    2.625008929245349E-1
 8.191529302000000E9    -4.721255391441986E-1    2.628762059248593E-1   -1.379386626664450E-3   -2.027549830287691E-3   -1.446443496358360E-3   -2.049736970705186E-3   -3.677382475606584E-1    2.638629064695448E-1
 8.191556571875000E9    -4.711303003991215E-1    2.645645061062906E-1   -1.381571901507454E-3   -2.014918425822682E-3   -1.483608228010922E-3   -2.050954571825835E-3   -3.669399931091410E-1    2.650530998732473E-1
 8.191583841750000E9    -4.700876923071965E-1    2.662502363206964E-1   -1.380747650111614E-3   -2.037843708994228E-3   -1.480980109082424E-3   -2.060501906507563E-3   -3.660530965408196E-1    2.662288775560090E-1
 8.191611111625000E9    -4.690854248725671E-1    2.678510298024290E-1   -1.409071159563510E-3   -2.003839673938088E-3   -1.514367036711927E-3   -2.048479694814071E-3   -3.649971965918503E-1    2.675431392510637E-1
 8.191638381500000E9    -4.680792371008954E-1    2.694286793721734E-1   -1.408635612112172E-3   -2.021716482188849E-3   -1.493133946548015E-3   -2.023156181963724E-3   -3.640332322558712E-1    2.686152357393744E-1
 8.191665651375000E9    -4.671126144275687E-1    2.712661680844546E-1   -1.406042560308215E-3   -2.024160714464096E-3   -1.479456025036388E-3   -2.023095761880126E-3   -3.630811721726437E-1    2.700044932526408E-1
 8.191692921250000E9    -4.663021105637213E-1    2.728556673456880E-1   -1.384725797543878E-3   -2.000281350285711E-3   -1.543262348092591E-3   -2.033356148463532E-3   -3.623054748535319E-1    2.710173150565435E-1
 8.191720191125000E9    -4.652226485556730E-1    2.745067148130307E-1   -1.434160608791822E-3   -2.010186491046576E-3   -1.514040838688185E-3   -2.038773268361199E-3   -3.613882767538398E-1    2.722503068085121E-1
 8.191747461000000E9    -4.642415327787386E-1    2.760714723813534E-1   -1.417904285887750E-3   -2.000675878340161E-3   -1.527867199594881E-3   -2.019621390242592E-3   -3.604063221048348E-1    2.734172167433729E-1
 8.191774730875000E9    -4.632033899176128E-1    2.777873032858268E-1   -1.437950294803452E-3   -1.991707130154740E-3   -1.586359762577842E-3   -2.034058376480700E-3   -3.593353638694302E-1    2.746187865484975E-1
 8.191802000750000E9    -4.622789937920825E-1    2.792219564248412E-1   -1.436726069444993E-3   -1.972265397247720E-3   -1.549536806420831E-3   -1.997286143227200E-3   -3.584574974642909E-1    2.757921321568549E-1
 8.191829270625000E9    -4.611168275341823E-1    2.810128998910036E-1   -1.451249126562017E-3   -1.997601224011185E-3   -1.581808386480294E-3   -2.012677473457199E-3   -3.574726336122307E-1    2.768656782696196E-1
 8.191856540500000E9    -4.601096233665949E-1    2.826626270334149E-1   -1.434215457535995E-3   -1.992146063234705E-3   -1.600416185647669E-3   -1.999093026826708E-3   -3.566234568822229E-1    2.780429435254574E-1
 8.191883810375000E9    -4.591648065710423E-1    2.842077557551198E-1   -1.449910984607502E-3   -1.987830883439656E-3   -1.571540745818235E-3   -1.981433395051808E-3   -3.555061837119226E-1    2.793094103955880E-1
 8.191911080250000E9    -4.584006162348866E-1    2.858384388189264E-1   -1.466410501578330E-3   -1.979251011419873E-3   -1.583792054945058E-3   -2.003232802276644E-3   -3.545019631107957E-1    2.803687187776912E-1
 8.191938350125000E9    -4.571807865871674E-1    2.874964309707788E-1   -1.491149041002094E-3   -1.931097321505945E-3   -1.562836153196959E-3   -1.976968860334470E-3   -3.536697818278469E-1    2.816231870096442E-1
 8.191965620000000E9    -4.560821530724044E-1    2.890535890786703E-1   -1.494803317981591E-3   -1.945770055848609E-3   -1.606975329296390E-3   -1.961780484316559E-3   -3.527759971556804E-1    2.827777163087243E-1
 8.191992889875000E9    -4.549673005174313E-1    2.906542622761110E-1   -1.493579528450750E-3   -1.975419104143071E-3   -1.616555893898181E-3   -1.971559869435416E-3   -3.517396626155698E-1    2.838511554343927E-1
 8.192020159750000E9    -4.539881290563687E-1    2.923014294690680E-1   -1.484175959016691E-3   -1.967765088054615E-3   -1.611170081579907E-3   -1.977150830232131E-3   -3.507016043182991E-1    2.851859161474100E-1
 8.192047429625000E9    -4.529148222467811E-1    2.937888615669916E-1   -1.504602850046173E-3   -1.956855475576666E-3   -1.627607045635171E-3   -1.965721471242656E-3   -3.498098138404562E-1    2.861647862232697E-1
 8.192074699500000E9    -4.519941500353565E-1    2.955201091342667E-1   -1.526192277029011E-3   -1.934455948480618E-3   -1.636245207092993E-3   -1.938277943929094E-3   -3.487599951334995E-1    2.874556404063556E-1
 8.192101969375000E9    -4.507651832657528E-1    2.971159145052260E-1   -1.500570671868034E-3   -1.936805923188980E-3   -1.640020989727897E-3   -1.955079755003844E-3   -3.476734018465450E-1    2.885209641612812E-1
 8.192129239250000E9    -4.497785527930609E-1    2.985967348800314E-1   -1.511625669615724E-3   -1.962078247681073E-3   -1.686492156260204E-3   -1.966507357336772E-3   -3.467960741127284E-1    2.895455735001006E-1
 8.192156509125000E9    -4.487237539804072E-1    3.003538652872771E-1   -1.534486787096270E-3   -1.923200642610206E-3   -1.620578607701938E-3   -1.940012362950765E-3   -3.459579528003626E-1    2.908195587836691E-1
 8.192183779000000E9    -4.476493546277205E-1    3.019587580178445E-1   -1.538902184860609E-3   -1.944278947958688E-3   -1.654876676940450E-3   -1.965593409175432E-3   -3.449517679971855E-1    2.920122176456824E-1
 8.192211048875000E9    -4.464659524642875E-1    3.035146408496839E-1   -1.560264339858160E-3   -1.909778064761784E-3   -1.648874160574012E-3   -1.956385555815888E-3   -3.438941575702977E-1    2.932295036925145E-1
 8.192238318750000E9    -4.453830229674761E-1    3.051568422407712E-1   -1.565092503309643E-3   -1.947221048277998E-3   -1.640920764252491E-3   -1.935160188507049E-3   -3.427349108604217E-1    2.942784010998953E-1
 8.192265588625000E9    -4.443015397845782E-1    3.066264307383630E-1   -1.560500220732850E-3   -1.930868593210524E-3   -1.672570137053057E-3   -1.955189393981172E-3   -3.417279004528555E-1    2.954900759494709E-1
 8.192292858500000E9    -4.430917456943888E-1    3.081468110497193E-1   -1.558089186838455E-3   -1.906777610245855E-3   -1.679095429189229E-3   -1.947024034209033E-3   -3.406445992262754E-1    2.964138050599648E-1
 8.192320128375000E9    -4.421805700852347E-1    3.096856887862076E-1   -1.592078132967950E-3   -1.886335569812921E-3   -1.697815918499967E-3   -1.927725953185224E-3   -3.397739640895137E-1    2.976512041479893E-1
 8.192347398250000E9    -4.410821338798111E-1    3.112349620776464E-1   -1.586197182723867E-3   -1.910182119223410E-3   -1.704627226793222E-3   -1.913671865845967E-3   -3.385700367920926E-1    2.985251131412343E-1
 8.192374668125000E9    -4.398222711293198E-1    3.128775663554934E-1   -1.600827073302426E-3   -1.853519882229044E-3   -1.695229051410604E-3   -1.923669860065882E-3   -3.376722480347591E-1    2.999382014338708E-1
 8.192401938000000E9    -4.388313022067843E-1    3.144011524572814E-1   -1.591968198819597E-3   -1.868225810968659E-3   -1.715367130302718E-3   -1.904287992017798E-3   -3.365957810947413E-1    3.008980296016197E-1
 8.192429207875000E9    -4.376197638572476E-1    3.160379576407410E-1   -1.627977465033818E-3   -1.898495173023103E-3   -1.718054596890278E-3   -1.875531679450274E-3   -3.355497419440446E-1    3.021179379655687E-1
 8.192456477750000E9    -4.365143233701443E-1    3.175146708364570E-1   -1.636565561906616E-3   -1.889872503737170E-3   -1.743588810102814E-3   -1.915471770232029E-3   -3.345779106749119E-1    3.031655594737271E-1
 8.192483747625000E9    -4.353318688630853E-1    3.190395934431143E-1   -1.643222841750048E-3   -1.879218389201368E-3   -1.737561885219684E-3   -1.893666776371424E-3   -3.335522937589370E-1    3.040614534168391E-1
 8.192511017500000E9    -4.342941664909224E-1    3.205280295637940E-1   -1.606004005396567E-3   -1.917185082714537E-3   -1.748757877782413E-3   -1.908162083793682E-3   -3.324090255518487E-1    3.054444228888188E-1
 8.192538287375000E9    -4.329492556327424E-1    3.220463558079202E-1   -1.649026209819310E-3   -1.875176725869046E-3   -1.747430636375426E-3   -1.867321766331205E-3   -3.313879817575039E-1    3.064339195831631E-1
 8.192565557250000E9    -4.318308735207625E-1    3.235942993749700E-1   -1.656307089877154E-3   -1.889429898733805E-3   -1.758972440738452E-3   -1.900268304985436E-3   -3.304738740431469E-1    3.076518650254439E-1
 8.192592827125000E9    -4.307111495000001E-1    3.251070554416829E-1   -1.645444079509044E-3   -1.865268315659995E-3   -1.741433110041962E-3   -1.873749469554715E-3   -3.292338961847956E-1    3.084199787738882E-1
 8.192620097000000E9    -4.296051337330656E-1    3.266430286872469E-1   -1.646701611236998E-3   -1.850345729672533E-3   -1.776891003453843E-3   -1.846617860345164E-3   -3.283383275517705E-1    3.097820465289026E-1
 8.192647366875000E9    -4.283702763181643E-1    3.281456297809343E-1   -1.678202045973305E-3   -1.864604082873611E-3   -1.770927120560334E-3   -1.857907297480890E-3   -3.271448822287139E-1    3.106955040880750E-1
 8.192674636750000E9    -4.272154709748469E-1    3.297258967277237E-1   -1.685968358338949E-3   -1.822136378288186E-3   -1.797238908890576E-3   -1.821895161778791E-3   -3.262618314905038E-1    3.117703219441826E-1
 8.192701906625000E9    -4.259532672564251E-1    3.313084326460335E-1   -1.666770984639149E-3   -1.849360208332162E-3   -1.792224575142917E-3   -1.845623465681947E-3   -3.249781237904162E-1    3.129650765424979E-1
 8.192729176500000E9    -4.247847964208546E-1    3.328283495578545E-1   -1.697762607317939E-3   -1.836290752748386E-3   -1.832432534711095E-3   -1.861818147990941E-3   -3.240140497519672E-1    3.138334161833654E-1
 8.192756446375000E9    -4.235615074373495E-1    3.341340278597335E-1   -1.710858101523520E-3   -1.840845882877053E-3   -1.818135611861014E-3   -1.822928700469247E-3   -3.227913469327232E-1    3.149931836355801E-1
 8.192783716250000E9    -4.225270579419999E-1    3.356656917296920E-1   -1.729093270285421E-3   -1.815756243965149E-3   -1.827054765648348E-3   -1.836496976901233E-3   -3.217478651961491E-1    3.160491115200738E-1
 8.192810986125000E9    -4.211565004932765E-1    3.372815762773218E-1   -1.739143164421879E-3   -1.813724482083337E-3   -1.842740800984811E-3   -1.831313157135644E-3   -3.206673124693792E-1    3.170744662320607E-1
 8.192838256000000E9    -4.199190099083868E-1    3.386086822865917E-1   -1.701971390113173E-3   -1.804787645523022E-3   -1.829737682101193E-3   -1.822657345247564E-3   -3.195622054417838E-1    3.181163520856624E-1
 8.192865525875000E9    -4.187281781281722E-1    3.402063999157932E-1   -1.725980140525519E-3   -1.818376263710464E-3   -1.860266951397245E-3   -1.795575383479762E-3   -3.185649905165601E-1    3.192139041297664E-1
 8.192892795750000E9    -4.175596555488792E-1    3.416673571964157E-1   -1.747511319337487E-3   -1.776207213344090E-3   -1.845302001347488E-3   -1.820370995225506E-3   -3.174703960134425E-1    3.201758748622986E-1
 8.192920065625000E9    -4.164197869311467E-1    3.430830996552893E-1   -1.713187057562282E-3   -1.832206434761558E-3   -1.837884123311502E-3   -1.833329933858005E-3   -3.162591667599347E-1    3.213161494484225E-1
 8.192947335500000E9    -4.151013011340554E-1    3.445461731953170E-1   -1.769956941881271E-3   -1.816294013523173E-3   -1.865869444464081E-3   -1.797373245388294E-3   -3.150592414512817E-1    3.224072522619426E-1
 8.192974605375000E9    -4.138694843024689E-1    3.460684666339637E-1   -1.756287405478530E-3   -1.781019567139888E-3   -1.870811726862729E-3   -1.811325947756414E-3   -3.140889848977548E-1    3.234232627318296E-1
 8.193001875250000E9    -4.125767527381451E-1    3.474995975099012E-1   -1.759117549879827E-3   -1.788249540151641E-3   -1.876646734247998E-3   -1.794134455867351E-3   -3.128987700081576E-1    3.245256865818726E-1
 8.193029145125000E9    -4.113245707807853E-1    3.489738490093277E-1   -1.776082082060587E-3   -1.758793711680749E-3   -1.882324423842796E-3   -1.790296007447331E-3   -3.118732609588171E-1    3.254661662639398E-1
 8.193056415000000E9    -4.099022246926124E-1    3.504646945705662E-1   -1.786080870483047E-3   -1.763122154747511E-3   -1.897025673330065E-3   -1.805492289950502E-3   -3.107617752929825E-1    3.263509454065452E-1
 8.193083684875000E9    -4.088322814945066E-1    3.519001669453232E-1   -1.788017607702547E-3   -1.778370733073502E-3   -1.922837479659897E-3   -1.740005442656133E-3   -3.095999409699119E-1    3.273849175087592E-1
 8.193110954750000E9    -4.075861444401396E-1    3.532632644816205E-1   -1.811271306949197E-3   -1.755716222370838E-3   -1.915380747448933E-3   -1.762620645280324E-3   -3.084406082906113E-1    3.284715002742256E-1
 8.193138224625000E9    -4.062122749734479E-1    3.546917877207052E-1   -1.774300626306430E-3   -1.755530914385604E-3   -1.916403038368859E-3   -1.778259129420904E-3   -3.074664152160844E-1    3.295110501556554E-1
 8.193165494500000E9    -4.049357811264045E-1    3.560870337933600E-1   -1.820355692631870E-3   -1.734308945213048E-3   -1.923337054311533E-3   -1.735730548340959E-3   -3.061813555789301E-1    3.305782735370956E-1
 8.193192764375000E9    -4.036128331987273E-1    3.576031910523291E-1   -1.813984429770631E-3   -1.753780896277561E-3   -1.929043707638570E-3   -1.723815806922291E-3   -3.050231183297745E-1    3.315773132711643E-1
 8.193220034250000E9    -4.023604750159165E-1    3.589713534069040E-1   -1.809738605329033E-3   -1.725936436500531E-3   -1.941041828156853E-3   -1.735988581189241E-3   -3.037612887511363E-1    3.324777724400675E-1
 8.193247304125000E9    -4.011198029846583E-1    3.604654061651780E-1   -1.818058436508353E-3   -1.721871117828661E-3   -1.927708793494576E-3   -1.731951210407852E-3   -3.027885921206027E-1    3.335085589494505E-1
 8.193274574000000E9    -3.998104033804318E-1    3.616909116580370E-1   -1.826450442506099E-3   -1.746002660604347E-3   -1.980006258757344E-3   -1.744134141309460E-3   -3.015102867089456E-1    3.344127190993502E-1
 8.193301843875000E9    -3.985504608065413E-1    3.632425860041532E-1   -1.852528307323183E-3   -1.725875052576304E-3   -1.936513435331183E-3   -1.725349096386871E-3   -3.004422951136046E-1    3.354614216635965E-1
 8.193329113750000E9    -3.971842841750551E-1    3.646735571882704E-1   -1.841939457236275E-3   -1.714922753011911E-3   -1.967776475868739E-3   -1.690551006557015E-3   -2.994424044625672E-1    3.364275496166381E-1
 8.193356383625000E9    -3.959241960994674E-1    3.661841491144685E-1   -1.863882987998722E-3   -1.693100754536252E-3   -1.969629933961609E-3   -1.703069003263638E-3   -2.980722242848503E-1    3.373921428950693E-1
 8.193383653500000E9    -3.945567475365659E-1    3.674243578690763E-1   -1.874759308432149E-3   -1.690425609102822E-3   -1.987167173097639E-3   -1.711750300030324E-3   -2.968225989284465E-1    3.383794851576683E-1
 8.193410923375000E9    -3.932960094225167E-1    3.688776024409662E-1   -1.893240677625649E-3   -1.695461683097851E-3   -1.971124191170836E-3   -1.687221358470036E-3   -2.958486654695057E-1    3.394622595201441E-1
 8.193438193250000E9    -3.919807662250822E-1    3.701112662088702E-1   -1.890191087669257E-3   -1.672077315533411E-3   -2.003995087379508E-3   -1.667421024532523E-3   -2.945102266196755E-1    3.402571159120455E-1
 8.193465463125000E9    -3.906485444254349E-1    3.716286257691226E-1   -1.896913863455448E-3   -1.695995862069744E-3   -1.979718468604189E-3   -1.663491836783515E-3   -2.934345339486581E-1    3.411421161308743E-1
 8.193492733000000E9    -3.893089616910392E-1    3.729381364287764E-1   -1.908944601139997E-3   -1.692274995270969E-3   -1.987330564878166E-3   -1.706341254309086E-3   -2.921869651408294E-1    3.422834900904109E-1
 8.193520002875000E9    -3.878887425488992E-1    3.743225499049089E-1   -1.929189931372112E-3   -1.676311661502859E-3   -1.981510611043289E-3   -1.647962519029230E-3   -2.911674817492218E-1    3.431962369791265E-1
 8.193547272750000E9    -3.864748506781164E-1    3.757046863041468E-1   -1.909183502503250E-3   -1.669330637488505E-3   -2.022036516374237E-3   -1.646418697607573E-3   -2.899599559075259E-1    3.442088100345049E-1
 8.193574542625000E9    -3.852243580082902E-1    3.771049748111643E-1   -1.894961284741451E-3   -1.666762053335348E-3   -2.005335317148814E-3   -1.663398184466468E-3   -2.886387263776836E-1    3.451650495996025E-1
 8.193601812500000E9    -3.837588284851189E-1    3.784245419716091E-1   -1.907394299954028E-3   -1.643959850821386E-3   -2.026953109460143E-3   -1.670564859823505E-3   -2.873533519447849E-1    3.460384806888607E-1
 8.193629082375000E9    -3.824861134030525E-1    3.797539398871498E-1   -1.926793238895164E-3   -1.646340653297329E-3   -2.022857473077805E-3   -1.640070748853647E-3   -2.863391198673853E-1    3.469619378203357E-1
 8.193656352250000E9    -3.810706651183838E-1    3.811080257304162E-1   -1.907450814966839E-3   -1.636222766747769E-3   -2.046556749999570E-3   -1.596652637696475E-3   -2.851994875900938E-1    3.479119086923664E-1
 8.193683622125000E9    -3.797628459062420E-1    3.825149283276899E-1   -1.952252279016731E-3   -1.638716622716930E-3   -2.036976486581663E-3   -1.643085075678466E-3   -2.839314671890326E-1    3.487553858908097E-1
 8.193710892000000E9    -3.782920180297774E-1    3.838481257251601E-1   -1.942239825565903E-3   -1.629849630411792E-3   -2.079591787837982E-3   -1.631282867207974E-3   -2.827274617270793E-1    3.498590403620085E-1
 8.193738161875000E9    -3.771746025372399E-1    3.851119769744251E-1   -1.954711577228508E-3   -1.639642847555083E-3   -2.042460504966713E-3   -1.611050713407563E-3   -2.815729272722641E-1    3.507505785820683E-1
 8.193765431750000E9    -3.756435001801638E-1    3.865389571449340E-1   -1.967166916847472E-3   -1.638997306339086E-3   -2.063700923668955E-3   -1.619358805294946E-3   -2.803542261991939E-1    3.516330869619414E-1
