#  HZ   S   RI   R     50.00 
! Rohde & Schwarz Vector Network Analyzer 
! Rohde-Schwarz,ZNB20-2Port,1311601062101988,3.16
! Created: UTC 3/20/2024, 4:54:25 PM
! freq[Hz]                re:S11                  im:S11                  re:S21                  im:S21                  re:S12                  im:S12                  re:S22                  im:S22
 8.191307235000000E9    -4.795637750551569E-1    2.491692354943212E-1   -1.316473472201704E-3   -2.059098885444591E-3   -1.423864905356207E-3   -2.085918684221057E-3   -3.750579801827211E-1    2.536985849138889E-1
 8.191334488275000E9    -4.786571041928161E-1    2.508011609956248E-1   -1.310404216475381E-3   -2.044005031472209E-3   -1.380832660660264E-3   -2.073166165381357E-3   -3.741622183800165E-1    2.548453791535835E-1
 8.191361741550000E9    -4.776486610499120E-1    2.526216915954041E-1   -1.355011507052247E-3   -2.053889835578747E-3   -1.405010305223142E-3   -2.074881572220191E-3   -3.734927846870007E-1    2.563872988792886E-1
 8.191388994825000E9    -4.768376052493206E-1    2.541080074525052E-1   -1.329999260723572E-3   -2.040783890717303E-3   -1.427585970088256E-3   -2.081412574459381E-3   -3.725310668239477E-1    2.575536966271309E-1
 8.191416248100000E9    -4.758809122910543E-1    2.558671066518947E-1   -1.327413473696472E-3   -2.070624361494159E-3   -1.460171397070768E-3   -2.074861877752525E-3   -3.716578619690210E-1    2.587528808151849E-1
 8.191443501375000E9    -4.749470966651770E-1    2.575815512430766E-1   -1.386742506760956E-3   -2.056802466021758E-3   -1.440367164817994E-3   -2.081248831473232E-3   -3.707998275934484E-1    2.599544211912453E-1
 8.191470754650000E9    -4.741157145185796E-1    2.593015181222834E-1   -1.354393892058237E-3   -2.033185269033097E-3   -1.449430577258324E-3   -2.088783864830399E-3   -3.699081702515947E-1    2.612007417255128E-1
 8.191498007925000E9    -4.731253887904405E-1    2.609168536041359E-1   -1.354713277036781E-3   -2.005510440524335E-3   -1.454086422249749E-3   -2.065093266920331E-3   -3.688110465233447E-1    2.621856784104688E-1
 8.191525261200000E9    -4.720665624054247E-1    2.626276388994471E-1   -1.380029831730993E-3   -2.022967184356549E-3   -1.494016355328435E-3   -2.054901185579972E-3   -3.680146394764700E-1    2.635472967615286E-1
 8.191552514475000E9    -4.712739447016556E-1    2.642911808988021E-1   -1.366005237669657E-3   -2.059243670606867E-3   -1.457881815118421E-3   -2.045202960384866E-3   -3.669964250909512E-1    2.646987320493357E-1
 8.191579767750000E9    -4.701915585838673E-1    2.660123479497654E-1   -1.384720204723299E-3   -2.039519081321293E-3   -1.475526273919516E-3   -2.076286761501532E-3   -3.661961412891530E-1    2.659418981005209E-1
 8.191607021025000E9    -4.692210842549441E-1    2.676298466796759E-1   -1.395902749441199E-3   -2.019521765361634E-3   -1.486703585855247E-3   -2.044227487415484E-3   -3.652991798149675E-1    2.671568161297431E-1
 8.191634274300000E9    -4.682113022211565E-1    2.691512920870605E-1   -1.407851484465581E-3   -2.019292266211171E-3   -1.500798827998111E-3   -2.029204068401180E-3   -3.644419274730847E-1    2.683570472035788E-1
 8.191661527575000E9    -4.673519778622827E-1    2.710028927392421E-1   -1.387698756584560E-3   -2.038889043833365E-3   -1.537056305621798E-3   -2.042202340158741E-3   -3.634729251665444E-1    2.696671454213924E-1
 8.191688780850000E9    -4.664469076039937E-1    2.725404256663065E-1   -1.383546703259123E-3   -2.026620172275009E-3   -1.495361130547476E-3   -2.026486268179871E-3   -3.625123579112590E-1    2.707197394507695E-1
 8.191716034125000E9    -4.653300556434677E-1    2.742468971369241E-1   -1.436696143475240E-3   -1.993348540762540E-3   -1.499418611995017E-3   -2.011524677102913E-3   -3.615453559739175E-1    2.719283685024153E-1
 8.191743287400000E9    -4.643868026038395E-1    2.757491236977492E-1   -1.440651751346069E-3   -1.994335018684158E-3   -1.522246824414372E-3   -2.016455755126289E-3   -3.605403438271060E-1    2.730697261629942E-1
 8.191770540675000E9    -4.634655265742527E-1    2.775023521928817E-1   -1.415752079709835E-3   -1.999427406186299E-3   -1.568907098774802E-3   -2.000715999092525E-3   -3.597079144879813E-1    2.743618504749321E-1
 8.191797793950000E9    -4.624160380289408E-1    2.791620076937266E-1   -1.421595904268942E-3   -1.991809901769495E-3   -1.519745635485951E-3   -2.019553078940219E-3   -3.587961197512760E-1    2.754619554077368E-1
 8.191825047225000E9    -4.613607710899780E-1    2.808779951006123E-1   -1.457118164842982E-3   -1.998191327592113E-3   -1.565059503381555E-3   -2.009994364986961E-3   -3.578002618055454E-1    2.765089411003446E-1
 8.191852300500000E9    -4.604847399861129E-1    2.823448756080952E-1   -1.462268676577610E-3   -1.984188601527003E-3   -1.565760081662100E-3   -2.007749994335505E-3   -3.567874561362898E-1    2.778157011051611E-1
 8.191879553775000E9    -4.593288742687101E-1    2.838785887022801E-1   -1.473901638081170E-3   -1.980180243858481E-3   -1.567887048412766E-3   -1.976525315207194E-3   -3.558788512990652E-1    2.789445401273256E-1
 8.191906807050000E9    -4.582942828357809E-1    2.855802677699937E-1   -1.464984991832289E-3   -1.985863317914086E-3   -1.576372689884954E-3   -2.000926284745056E-3   -3.548303221447308E-1    2.800531565320035E-1
 8.191934060325000E9    -4.573440864912489E-1    2.871473351409151E-1   -1.471742354905986E-3   -1.979881233867805E-3   -1.567923732311038E-3   -2.003709537261545E-3   -3.538252237635322E-1    2.812498863781034E-1
 8.191961313600000E9    -4.562983701760743E-1    2.888218104664541E-1   -1.499699298871078E-3   -1.982268255798642E-3   -1.617762474418668E-3   -1.979154325167643E-3   -3.530081265054231E-1    2.825614011241843E-1
 8.191988566875000E9    -4.551468107872518E-1    2.905949422497001E-1   -1.521112678284555E-3   -1.995097046876486E-3   -1.614634312727706E-3   -1.977555518004621E-3   -3.519468233976292E-1    2.835341059896108E-1
 8.192015820150000E9    -4.542070641000338E-1    2.920474341735946E-1   -1.511277319248116E-3   -1.947779056014326E-3   -1.636452013576287E-3   -1.944983844782839E-3   -3.510134213245979E-1    2.847948256734941E-1
 8.192043073425000E9    -4.531941399839164E-1    2.936473946514290E-1   -1.541639856108889E-3   -1.961792832173421E-3   -1.634424486237190E-3   -1.979406756431067E-3   -3.500853227695634E-1    2.859217396777518E-1
 8.192070326700000E9    -4.521042893499444E-1    2.952422619844648E-1   -1.509308641196657E-3   -1.961826473588535E-3   -1.612954812347949E-3   -1.955301352957470E-3   -3.489337773531309E-1    2.869904066717776E-1
 8.192097579975000E9    -4.510182790889840E-1    2.968897713965418E-1   -1.511667607096666E-3   -1.961434795813690E-3   -1.599758421659140E-3   -1.970745132410485E-3   -3.480792419493910E-1    2.882234415906619E-1
 8.192124833250000E9    -4.500519046147194E-1    2.985395365618421E-1   -1.560264864648097E-3   -1.948482900393876E-3   -1.662071659307920E-3   -1.934227322176163E-3   -3.469949977298717E-1    2.895151863060931E-1
 8.192152086525000E9    -4.489056717672494E-1    3.000630808510526E-1   -1.541641350252479E-3   -1.923651885776282E-3   -1.648763905855876E-3   -1.962230090160130E-3   -3.461568465581800E-1    2.906478538263994E-1
 8.192179339800000E9    -4.478510926524025E-1    3.015966380428042E-1   -1.555077957780572E-3   -1.937900092890204E-3   -1.647326149202714E-3   -1.964064728675111E-3   -3.451260239952341E-1    2.917043911171589E-1
 8.192206593075000E9    -4.466967041138392E-1    3.031720972805585E-1   -1.551037248800779E-3   -1.949520763347655E-3   -1.636896802596176E-3   -1.932842561182726E-3   -3.441098990586419E-1    2.927234220116819E-1
 8.192233846350000E9    -4.456141526630624E-1    3.047912582912112E-1   -1.578107949868571E-3   -1.936259767106823E-3   -1.665094100959960E-3   -1.924983811813567E-3   -3.430968865708837E-1    2.939210517651640E-1
 8.192261099625000E9    -4.444270146841481E-1    3.063106515470893E-1   -1.562209025619405E-3   -1.932223918444046E-3   -1.669271069770041E-3   -1.920874618121373E-3   -3.419405713641089E-1    2.950536608578452E-1
 8.192288352900000E9    -4.433320663513383E-1    3.078946137010725E-1   -1.573812166140399E-3   -1.914343005364797E-3   -1.702414250479119E-3   -1.896513775018245E-3   -3.410529283981447E-1    2.962418358098181E-1
 8.192315606175000E9    -4.422217778832424E-1    3.094255176802351E-1   -1.577431200761577E-3   -1.903565748362597E-3   -1.692707771027818E-3   -1.910444793946338E-3   -3.399531845938951E-1    2.974000225923202E-1
 8.192342859450000E9    -4.410965421216744E-1    3.111284025206458E-1   -1.599364896504026E-3   -1.931720323980351E-3   -1.673637887435749E-3   -1.897639893900973E-3   -3.389214165816357E-1    2.983898625872313E-1
 8.192370112725000E9    -4.400717195703877E-1    3.126294416010282E-1   -1.579592446283481E-3   -1.927363119769470E-3   -1.701986534233966E-3   -1.914397288502322E-3   -3.378972788884864E-1    2.994986447219196E-1
 8.192397366000000E9    -4.390270633300334E-1    3.141382467029520E-1   -1.613247457847269E-3   -1.902523999180550E-3   -1.701914969213232E-3   -1.901763281164017E-3   -3.370175786284577E-1    3.006720690837819E-1
 8.192424619275000E9    -4.378093856581514E-1    3.157605652569435E-1   -1.609395273532886E-3   -1.906439448169567E-3   -1.712024887461100E-3   -1.895864443533428E-3   -3.359132254963365E-1    3.017516277011497E-1
 8.192451872550000E9    -4.366253093389577E-1    3.173316975703443E-1   -1.639797126774458E-3   -1.881966854126960E-3   -1.734023074412030E-3   -1.888355205635486E-3   -3.347442119172627E-1    3.027923567574090E-1
 8.192479125825000E9    -4.353752974769335E-1    3.188394702468366E-1   -1.633217945266796E-3   -1.874457350260971E-3   -1.725653480271626E-3   -1.849089707133639E-3   -3.337015146446345E-1    3.037806560686517E-1
 8.192506379100000E9    -4.343809271957639E-1    3.203168262955428E-1   -1.650775715817250E-3   -1.867717713143681E-3   -1.738590735251248E-3   -1.887946588808850E-3   -3.328018613144706E-1    3.050010259273297E-1
 8.192533632375000E9    -4.331641591497560E-1    3.218045065804913E-1   -1.614629853329987E-3   -1.882611774185307E-3   -1.768354188831974E-3   -1.889111272441378E-3   -3.317704344716553E-1    3.060243483527152E-1
 8.192560885650000E9    -4.320673257092285E-1    3.233440201026451E-1   -1.636336491853097E-3   -1.869202457438721E-3   -1.764486944322771E-3   -1.888012108827674E-3   -3.304834504361149E-1    3.071515313341607E-1
 8.192588138925000E9    -4.308278474530391E-1    3.249584305688258E-1   -1.649684160601094E-3   -1.854200214408678E-3   -1.737437353018883E-3   -1.876702777276375E-3   -3.296603840663924E-1    3.083601922468671E-1
 8.192615392200000E9    -4.297570802953379E-1    3.264925272877006E-1   -1.658112155575257E-3   -1.872450415983948E-3   -1.781469649855138E-3   -1.829721502368724E-3   -3.284548257924021E-1    3.093642673727625E-1
 8.192642645475000E9    -4.285795310025753E-1    3.280407782202583E-1   -1.652337334110352E-3   -1.866123262459142E-3   -1.788465835962722E-3   -1.832056630545535E-3   -3.275969616728119E-1    3.104268367454304E-1
 8.192669898750000E9    -4.274034425956027E-1    3.294982856182912E-1   -1.689879342625262E-3   -1.847984350368035E-3   -1.791782324344461E-3   -1.855242761798463E-3   -3.264515305199853E-1    3.114336036066093E-1
 8.192697152025000E9    -4.262906532292830E-1    3.310066987905755E-1   -1.668547857152653E-3   -1.820871170540474E-3   -1.788839525959086E-3   -1.859179950674050E-3   -3.252844804372897E-1    3.125254795385023E-1
 8.192724405300000E9    -4.250654061095964E-1    3.324570159805231E-1   -1.681808131872958E-3   -1.812202450379683E-3   -1.775506277504034E-3   -1.827090683311322E-3   -3.242085418438677E-1    3.136014463453665E-1
 8.192751658575000E9    -4.236309394668962E-1    3.339024884415688E-1   -1.685390037156746E-3   -1.827173188882224E-3   -1.811089081534967E-3   -1.809412387196502E-3   -3.232072574951558E-1    3.146196284363756E-1
 8.192778911850000E9    -4.225329201554437E-1    3.355088280625160E-1   -1.702282912874741E-3   -1.824690343597627E-3   -1.802818771958617E-3   -1.819524763257957E-3   -3.221125559325129E-1    3.157558450486347E-1
 8.192806165125000E9    -4.213766707131247E-1    3.368868873567803E-1   -1.722946160961677E-3   -1.837028986654147E-3   -1.819002989535834E-3   -1.790962606115811E-3   -3.210010917471054E-1    3.169096775733673E-1
 8.192833418400000E9    -4.201882479740081E-1    3.382619092006428E-1   -1.728003389888191E-3   -1.813721996428303E-3   -1.832745901512565E-3   -1.803714233110641E-3   -3.199402509706983E-1    3.179895333047904E-1
 8.192860671675000E9    -4.190586110687570E-1    3.399183145328362E-1   -1.735416073111339E-3   -1.803356504515905E-3   -1.845828061725111E-3   -1.786755856777783E-3   -3.187648111166727E-1    3.189324767751728E-1
 8.192887924950000E9    -4.177432506537749E-1    3.413056851800353E-1   -1.743403382955442E-3   -1.767071385458000E-3   -1.851495752082946E-3   -1.775828035281433E-3   -3.177497408996012E-1    3.198121905234614E-1
 8.192915178225000E9    -4.165123996521962E-1    3.429548940721168E-1   -1.737752282443963E-3   -1.812364100339695E-3   -1.848763095637168E-3   -1.789129585311245E-3   -3.166334506017479E-1    3.210276957905191E-1
 8.192942431500000E9    -4.152808180407962E-1    3.442231909002782E-1   -1.758643013012083E-3   -1.779136554082697E-3   -1.857106041720874E-3   -1.786135468118185E-3   -3.155445640202186E-1    3.220316378648947E-1
 8.192969684775000E9    -4.141414406707529E-1    3.458477673333847E-1   -1.773149860922082E-3   -1.777739456260262E-3   -1.883474450784058E-3   -1.782600505217562E-3   -3.144008564701276E-1    3.231399134950979E-1
 8.192996938050000E9    -4.128386791406796E-1    3.470809312596931E-1   -1.760156364392116E-3   -1.778204426977896E-3   -1.896742611522651E-3   -1.762255108891855E-3   -3.132568518265439E-1    3.240691314138753E-1
 8.193024191325000E9    -4.115079048264965E-1    3.487129615322360E-1   -1.794856876482714E-3   -1.751058967721881E-3   -1.884279041189348E-3   -1.758437326234561E-3   -3.121702423399974E-1    3.250517006669051E-1
 8.193051444600000E9    -4.102059385794186E-1    3.500615813444380E-1   -1.780458403252275E-3   -1.775371891214750E-3   -1.884840605143191E-3   -1.767144950946367E-3   -3.110334256778227E-1    3.261790628488180E-1
 8.193078697875000E9    -4.090047500225902E-1    3.515715713971523E-1   -1.788592173629910E-3   -1.766509235793940E-3   -1.888616487175269E-3   -1.746629134158763E-3   -3.098440474068082E-1    3.272160100725945E-1
 8.193105951150000E9    -4.077506658783117E-1    3.529658745303304E-1   -1.809209054987767E-3   -1.767816458341869E-3   -1.913405675388834E-3   -1.766770108405345E-3   -3.089006211283115E-1    3.282810474014883E-1
 8.193133204425000E9    -4.063958062565825E-1    3.543146793117829E-1   -1.827366781880766E-3   -1.752673461707943E-3   -1.924930435861783E-3   -1.747621754218757E-3   -3.075847912626071E-1    3.291582959540610E-1
 8.193160457700000E9    -4.052174586234136E-1    3.558698143160044E-1   -1.821133976792922E-3   -1.753350549785348E-3   -1.918144214323541E-3   -1.761204522918298E-3   -3.065951084153463E-1    3.302479140431665E-1
 8.193187710975000E9    -4.039874850831965E-1    3.573277819818360E-1   -1.796088766310146E-3   -1.740788710710898E-3   -1.901161309193820E-3   -1.742700528628040E-3   -3.052710537019189E-1    3.313251031338578E-1
 8.193214964250000E9    -4.026686267398156E-1    3.587010367744677E-1   -1.826030964062118E-3   -1.749105890778066E-3   -1.949455895211379E-3   -1.754446065749655E-3   -3.042154572805376E-1    3.324082924493220E-1
 8.193242217525000E9    -4.014084371084973E-1    3.601834259090539E-1   -1.814439184161595E-3   -1.735175541973841E-3   -1.924844570487752E-3   -1.718784792291013E-3   -3.031932684852588E-1    3.330253154225311E-1
 8.193269470800000E9    -4.000476939267533E-1    3.615734717061204E-1   -1.839385793086332E-3   -1.717620094590359E-3   -1.954530113355786E-3   -1.701896007516391E-3   -3.020126064879498E-1    3.341401877666479E-1
 8.193296724075000E9    -3.986738321698716E-1    3.628921299287202E-1   -1.838689452939273E-3   -1.707749648744683E-3   -1.941421672617669E-3   -1.713639230868835E-3   -3.008648455377379E-1    3.351016272065973E-1
 8.193323977350000E9    -3.974404980739347E-1    3.642756609118891E-1   -1.847426656641283E-3   -1.707885727892780E-3   -1.942518462854768E-3   -1.691825277158430E-3   -2.996369583159382E-1    3.361278321867420E-1
 8.193351230625000E9    -3.960880388823176E-1    3.657975948489475E-1   -1.867363008094962E-3   -1.692701603503967E-3   -1.963604030654978E-3   -1.694918998645992E-3   -2.984219400835029E-1    3.370060899681941E-1
 8.193378483900000E9    -3.948198729265278E-1    3.670535478285598E-1   -1.877105874921415E-3   -1.716637717975696E-3   -1.966777905551542E-3   -1.685606631184964E-3   -2.973190016329402E-1    3.382189222712427E-1
 8.193405737175000E9    -3.936156447160099E-1    3.685042512857996E-1   -1.880460596147834E-3   -1.684842074916284E-3   -1.971351296831473E-3   -1.695042489445441E-3   -2.961144999019449E-1    3.391885188635834E-1
 8.193432990450000E9    -3.920859132966855E-1    3.699047415677030E-1   -1.868404168568784E-3   -1.699896008055062E-3   -1.976801154080015E-3   -1.676936061269782E-3   -2.950268130417916E-1    3.401630656222491E-1
 8.193460243725000E9    -3.909625212669822E-1    3.712338717861380E-1   -1.898863576129063E-3   -1.700622495251849E-3   -1.996050586646516E-3   -1.696999605647722E-3   -2.938783378430209E-1    3.411219235903071E-1
 8.193487497000000E9    -3.894866987676170E-1    3.727235560469065E-1   -1.879046087822301E-3   -1.666167327870938E-3   -2.022126195766684E-3   -1.647854526567612E-3   -2.925516975162134E-1    3.418967003641173E-1
 8.193514750275000E9    -3.881435219471177E-1    3.740908966308203E-1   -1.905164861929485E-3   -1.677432158409741E-3   -1.993514012350485E-3   -1.662733181831254E-3   -2.913968862325527E-1    3.429402023427227E-1
 8.193542003550000E9    -3.869530472968741E-1    3.754350812896069E-1   -1.902905827432443E-3   -1.670548948078484E-3   -1.997348537916301E-3   -1.603979935940122E-3   -2.902466154464536E-1    3.438271731932694E-1
 8.193569256825000E9    -3.853487752911796E-1    3.767220057697530E-1   -1.890509097813932E-3   -1.677280316411810E-3   -1.996655058253288E-3   -1.661552278517698E-3   -2.891709912489855E-1    3.447902545274626E-1
 8.193596510100000E9    -3.841078633260063E-1    3.782747746866068E-1   -1.913798785386615E-3   -1.651864941635071E-3   -2.028471281734530E-3   -1.630647803927167E-3   -2.878619590222307E-1    3.456686160419293E-1
 8.193623763375000E9    -3.827490602385950E-1    3.795783128668472E-1   -1.926477860065869E-3   -1.660194653529468E-3   -2.010764459360920E-3   -1.639490482530569E-3   -2.866566446352966E-1    3.466211051987263E-1
 8.193651016650000E9    -3.814203740271999E-1    3.809545235312070E-1   -1.934263802361719E-3   -1.663495594921136E-3   -2.058463321146678E-3   -1.639398492672672E-3   -2.855759418761634E-1    3.476981676187212E-1
 8.193678269925000E9    -3.799084772945168E-1    3.823216335852035E-1   -1.940351017978557E-3   -1.644917277064249E-3   -2.038285930270978E-3   -1.611490707763721E-3   -2.843215382165443E-1    3.484831109731315E-1
 8.193705523200000E9    -3.786977402214342E-1    3.835042099703468E-1   -1.941382452326969E-3   -1.660649439371328E-3   -2.064175382909123E-3   -1.615667833942047E-3   -2.830099565696371E-1    3.495392730508779E-1
 8.193732776475000E9    -3.772740220695550E-1    3.849992556383366E-1   -1.937065040336347E-3   -1.604930200713814E-3   -2.052046479587515E-3   -1.573329044247827E-3   -2.819828042393782E-1    3.504587583842795E-1
 8.193760029750000E9    -3.758498540593016E-1    3.861862832765636E-1   -1.980286171347006E-3   -1.612500702007798E-3   -2.077241754069305E-3   -1.599740177165938E-3   -2.808062730897670E-1    3.512933261286696E-1
