#  HZ   S   RI   R     50.00 
! Rohde & Schwarz Vector Network Analyzer 
! Rohde-Schwarz,ZNB20-2Port,1311601062101988,3.16
! Created: UTC 3/20/2024, 4:55:00 PM
! freq[Hz]                re:S11                  im:S11                  re:S21                  im:S21                  re:S12                  im:S12                  re:S22                  im:S22
 8.189612540000000E9    -5.231274792684752E-1    1.386947265155022E-1   -8.183077442332982E-4   -2.257553046113393E-3   -9.012730790372334E-4   -2.277507443108069E-3   -4.213734232907467E-1    1.719787224554892E-1
 8.189647432950000E9    -5.223810859178375E-1    1.412059347356781E-1   -8.292524157290976E-4   -2.235184133103878E-3   -9.303541344413689E-4   -2.319987987247466E-3   -4.206054823321174E-1    1.737003253532712E-1
 8.189682325900000E9    -5.218512355487045E-1    1.435131622810066E-1   -8.463142990720949E-4   -2.224241495248017E-3   -9.017556536282902E-4   -2.315181543131116E-3   -4.197378574787040E-1    1.755262996457027E-1
 8.189717218850000E9    -5.210553056575605E-1    1.459580366631721E-1   -8.629085645217170E-4   -2.229311919135055E-3   -9.269165298179614E-4   -2.270504177713370E-3   -4.191929016067754E-1    1.770096190620873E-1
 8.189752111800000E9    -5.204414422885261E-1    1.480256238888196E-1   -8.542341193280733E-4   -2.233292935118407E-3   -9.518095722281305E-4   -2.273102781926885E-3   -4.182362116495373E-1    1.789123520996181E-1
 8.189787004750000E9    -5.196446776073471E-1    1.506442234592548E-1   -8.826311708186484E-4   -2.233989552301789E-3   -9.528858299455753E-4   -2.296275102020414E-3   -4.175052386354337E-1    1.806836916998897E-1
 8.189821897700000E9    -5.189920482641734E-1    1.530095446842259E-1   -8.546432439568879E-4   -2.207298464354248E-3   -9.979823001265823E-4   -2.279875687485130E-3   -4.165588149274211E-1    1.825111188434368E-1
 8.189856790650000E9    -5.182745250224033E-1    1.552928264371731E-1   -9.025274001992478E-4   -2.219849321809764E-3   -9.743584294845205E-4   -2.263212206097185E-3   -4.157537168306689E-1    1.842866731721139E-1
 8.189891683600000E9    -5.174735092082776E-1    1.576308708075126E-1   -9.039050009407720E-4   -2.219522699810390E-3   -9.795602504115203E-4   -2.305623443366829E-3   -4.147835042055904E-1    1.858480674473030E-1
 8.189926576550000E9    -5.168184054485443E-1    1.599058914144279E-1   -8.813633818296801E-4   -2.235581581070099E-3   -9.933429598743709E-4   -2.277176594447406E-3   -4.141962817306075E-1    1.877548844195995E-1
 8.189961469500000E9    -5.159890328558808E-1    1.622111858569661E-1   -9.463396975191190E-4   -2.221568854811543E-3   -1.007027226681523E-3   -2.293744185232898E-3   -4.131848203709407E-1    1.893476107260416E-1
 8.189996362450000E9    -5.153968111356024E-1    1.646529215680562E-1   -9.450852645205060E-4   -2.219202058438977E-3   -1.004486340521321E-3   -2.278854132424716E-3   -4.124101669850332E-1    1.911009496448419E-1
 8.190031255400000E9    -5.145564301376060E-1    1.669369675518098E-1   -9.358955479020460E-4   -2.222811318448998E-3   -1.040240577536031E-3   -2.249578528079759E-3   -4.117345156015405E-1    1.928601204691830E-1
 8.190066148350000E9    -5.137221847693860E-1    1.692659041360600E-1   -9.529889096960298E-4   -2.231530734255860E-3   -1.046037533168628E-3   -2.246522686276939E-3   -4.107536821979919E-1    1.945720350689230E-1
 8.190101041300000E9    -5.130447349851655E-1    1.715504894823398E-1   -9.472186106004367E-4   -2.176570571172373E-3   -1.060388303114915E-3   -2.278834625602741E-3   -4.098920691429956E-1    1.964489672494049E-1
 8.190135934250000E9    -5.122545305469712E-1    1.738641575288406E-1   -9.757312138388094E-4   -2.202732061062375E-3   -1.082547859544424E-3   -2.267673988014702E-3   -4.089956645489971E-1    1.981706289754881E-1
 8.190170827200000E9    -5.114501755672741E-1    1.761158276387570E-1   -9.833820628201016E-4   -2.195495131457229E-3   -1.074315367266635E-3   -2.254344354267379E-3   -4.081139069406226E-1    1.996908613595518E-1
 8.190205720150000E9    -5.105785759016194E-1    1.784365536791696E-1   -1.012599621608396E-3   -2.209157211252211E-3   -1.070566686177374E-3   -2.243668858193762E-3   -4.073622772138408E-1    2.014180354333859E-1
 8.190240613100000E9    -5.096950141989536E-1    1.809404855703998E-1   -9.797593188302131E-4   -2.179166518559805E-3   -1.101963241828037E-3   -2.240367610466960E-3   -4.064415605636971E-1    2.032684033268716E-1
 8.190275506050000E9    -5.088434104606628E-1    1.831570674137378E-1   -1.042074001311555E-3   -2.188795059035441E-3   -1.090687765668488E-3   -2.216822563972749E-3   -4.053578471967317E-1    2.047636063798256E-1
 8.190310399000000E9    -5.079539428681047E-1    1.853977522622418E-1   -1.007848727008842E-3   -2.184827439324434E-3   -1.130265572511599E-3   -2.242487664300585E-3   -4.045813642343594E-1    2.065586710763211E-1
 8.190345291950000E9    -5.071923495595493E-1    1.877272478600276E-1   -1.011527726115443E-3   -2.188949171044914E-3   -1.095553712395386E-3   -2.192567959359053E-3   -4.034859640904092E-1    2.082597324129229E-1
 8.190380184900000E9    -5.063909890530717E-1    1.900243648579900E-1   -1.017879690860390E-3   -2.167262268996465E-3   -1.078165782879953E-3   -2.222418455528117E-3   -4.026953117049723E-1    2.100457141393895E-1
 8.190415077850000E9    -5.055191254217684E-1    1.923798217519371E-1   -1.057621316885037E-3   -2.192083233368674E-3   -1.158061047164355E-3   -2.218646719356811E-3   -4.016343117657308E-1    2.117365948498726E-1
 8.190449970800000E9    -5.044467147894084E-1    1.945744630557678E-1   -1.069368143815329E-3   -2.170025134060173E-3   -1.153118019245237E-3   -2.188426182159374E-3   -4.006409542955529E-1    2.133386187209509E-1
 8.190484863750000E9    -5.035541301953930E-1    1.968585526010847E-1   -1.042968103021420E-3   -2.192868836800030E-3   -1.166761389158178E-3   -2.204103562612487E-3   -3.998383067335207E-1    2.150746897457126E-1
 8.190519756700000E9    -5.027616081275101E-1    1.991919546940820E-1   -1.110418829620317E-3   -2.175263308975021E-3   -1.165717459615098E-3   -2.225499832161924E-3   -3.988104681162657E-1    2.166360107368982E-1
 8.190554649650000E9    -5.017826214708074E-1    2.014436478156366E-1   -1.116406444465270E-3   -2.153841024490893E-3   -1.206259526686778E-3   -2.195034700138615E-3   -3.978259411661967E-1    2.183854949566247E-1
 8.190589542600000E9    -5.009075420136269E-1    2.037752347299187E-1   -1.103960464812498E-3   -2.163771853563478E-3   -1.220243270813644E-3   -2.172347788106687E-3   -3.969501170505691E-1    2.199837591955175E-1
 8.190624435550000E9    -4.999628814121108E-1    2.060098086783378E-1   -1.103125994692961E-3   -2.119113562438492E-3   -1.205050269932645E-3   -2.186031927946181E-3   -3.959800436935234E-1    2.218234916951075E-1
 8.190659328500000E9    -4.989993624752049E-1    2.082660991987790E-1   -1.088085104065783E-3   -2.147693716669315E-3   -1.245046206309363E-3   -2.186036915678049E-3   -3.950529165035447E-1    2.234845661146076E-1
 8.190694221450000E9    -4.980949776483909E-1    2.104819714670190E-1   -1.167154224504937E-3   -2.157868102509423E-3   -1.241617738653096E-3   -2.179332004915377E-3   -3.938550100509201E-1    2.250681393037794E-1
 8.190729114400000E9    -4.970428989569770E-1    2.127755309748488E-1   -1.104730631457751E-3   -2.147695359729563E-3   -1.223045494786875E-3   -2.211130964419515E-3   -3.929370498959865E-1    2.267675778655336E-1
 8.190764007350000E9    -4.960822364105169E-1    2.148125225614994E-1   -1.128786611497375E-3   -2.153805819544143E-3   -1.230981547758212E-3   -2.169803078576279E-3   -3.917646711371111E-1    2.283674531339423E-1
 8.190798900300000E9    -4.951330021772341E-1    2.171614523512744E-1   -1.147500104307540E-3   -2.093022210523723E-3   -1.254985322684438E-3   -2.170531506594279E-3   -3.910154636455183E-1    2.300934578631285E-1
 8.190833793250000E9    -4.940296190032266E-1    2.193647944972720E-1   -1.159357454125578E-3   -2.123493362635787E-3   -1.254738828065534E-3   -2.145850805358502E-3   -3.899394298395454E-1    2.317352504628936E-1
 8.190868686200000E9    -4.930973212856988E-1    2.215398372712533E-1   -1.176997072189604E-3   -2.134243556527402E-3   -1.262148045672119E-3   -2.170399470749689E-3   -3.889203823784848E-1    2.334844807780711E-1
 8.190903579150000E9    -4.921446233084111E-1    2.239319542599680E-1   -1.173958320550885E-3   -2.106514505315415E-3   -1.292903796958471E-3   -2.161362950789157E-3   -3.878467503014975E-1    2.349021978971001E-1
 8.190938472100000E9    -4.910274480331750E-1    2.260964410603494E-1   -1.211668743617108E-3   -2.129306965864919E-3   -1.303635083143990E-3   -2.178780681754531E-3   -3.868260914788298E-1    2.366111880075440E-1
 8.190973365050000E9    -4.899669506676181E-1    2.281903273889197E-1   -1.197862005125790E-3   -2.114027301590714E-3   -1.334075706246851E-3   -2.125776193865773E-3   -3.857244594248511E-1    2.383033304531735E-1
 8.191008258000000E9    -4.888675448214100E-1    2.305621724482649E-1   -1.214735072157867E-3   -2.148112014436961E-3   -1.318657042271833E-3   -2.145827455407780E-3   -3.847179689942782E-1    2.397884887774115E-1
 8.191043150950000E9    -4.878487358108652E-1    2.326468778674280E-1   -1.244242880333685E-3   -2.120591634930139E-3   -1.353910224690076E-3   -2.139557938962222E-3   -3.836742607553412E-1    2.414202359713354E-1
 8.191078043900000E9    -4.868387602263441E-1    2.348996449811190E-1   -1.234394618992881E-3   -2.103470412489981E-3   -1.332044418320024E-3   -2.124514305099233E-3   -3.825970119753156E-1    2.430448935840697E-1
 8.191112936850000E9    -4.856932621316283E-1    2.370993456222412E-1   -1.257684305819558E-3   -2.104689769769845E-3   -1.348564571596968E-3   -2.115555504960582E-3   -3.815663642416691E-1    2.447009346914173E-1
 8.191147829800000E9    -4.845438496816356E-1    2.392870133748287E-1   -1.282330982116849E-3   -2.053101270973177E-3   -1.360731234564371E-3   -2.143056383520611E-3   -3.805457517261515E-1    2.463341203822227E-1
 8.191182722750000E9    -4.835062322075789E-1    2.413633079462990E-1   -1.256568201404663E-3   -2.073084207434932E-3   -1.353494012191416E-3   -2.111315881702892E-3   -3.792360418319538E-1    2.478750936494006E-1
 8.191217615700000E9    -4.823744967359468E-1    2.436716712130010E-1   -1.262240076842776E-3   -2.091411838875870E-3   -1.373560243508491E-3   -2.096309723594650E-3   -3.781816928048024E-1    2.495056762942212E-1
 8.191252508650000E9    -4.814238658803252E-1    2.458604346324974E-1   -1.282550334569914E-3   -2.075343415077850E-3   -1.377291783726822E-3   -2.096952211509262E-3   -3.771441531520577E-1    2.512272484166666E-1
 8.191287401600000E9    -4.801276787070000E-1    2.480576888308738E-1   -1.290889634930763E-3   -2.086715453770022E-3   -1.410481089223485E-3   -2.091471555992786E-3   -3.759634879212920E-1    2.527637184653311E-1
 8.191322294550000E9    -4.789937468709377E-1    2.502407299332584E-1   -1.314397020479422E-3   -2.036935604753097E-3   -1.422602388217706E-3   -2.084206941905446E-3   -3.749531212284803E-1    2.542748972195641E-1
 8.191357187500000E9    -4.777896465079189E-1    2.522854991049817E-1   -1.328983743073567E-3   -2.058534669936151E-3   -1.434584097762720E-3   -2.072376949082464E-3   -3.738189119748677E-1    2.558618232937785E-1
 8.191392080450000E9    -4.766336049205999E-1    2.546019807815714E-1   -1.346374573952950E-3   -2.064441599179830E-3   -1.432787472377695E-3   -2.080030230961340E-3   -3.726286575898966E-1    2.575333067243213E-1
 8.191426973400000E9    -4.754897985613273E-1    2.565882115152047E-1   -1.337676943056718E-3   -2.067661631946325E-3   -1.471067588234768E-3   -2.060890081223281E-3   -3.715630171424371E-1    2.590320548432174E-1
 8.191461866350000E9    -4.743998266376857E-1    2.587661513156296E-1   -1.346568233937302E-3   -2.070512391451538E-3   -1.456977886518220E-3   -2.076501610786765E-3   -3.702581162033313E-1    2.604989247958193E-1
 8.191496759300000E9    -4.730553504857992E-1    2.609635207066552E-1   -1.364514076416998E-3   -2.074868303707489E-3   -1.466491634019805E-3   -2.060292424557478E-3   -3.691765387193653E-1    2.621862505123261E-1
 8.191531652250000E9    -4.718902278763258E-1    2.630425430216001E-1   -1.388467375967626E-3   -2.057070594772288E-3   -1.451793031480877E-3   -2.049172982631871E-3   -3.679708235175685E-1    2.636972073081059E-1
 8.191566545200000E9    -4.705849860475896E-1    2.652004776695421E-1   -1.399106001189144E-3   -2.013797915975361E-3   -1.479911807142859E-3   -2.036829829205555E-3   -3.669634383144545E-1    2.652486400872679E-1
 8.191601438150000E9    -4.694636110569726E-1    2.672727430143070E-1   -1.401379846593493E-3   -2.042320618880338E-3   -1.495145880903166E-3   -2.042989525802265E-3   -3.656928576378157E-1    2.666889833089861E-1
 8.191636331100000E9    -4.682552869561438E-1    2.693881337824645E-1   -1.402996288610011E-3   -2.022359658758128E-3   -1.506630381217011E-3   -2.045835679684116E-3   -3.644882637751468E-1    2.683113234299205E-1
 8.191671224050000E9    -4.669548966853224E-1    2.714942064399101E-1   -1.402166851624882E-3   -2.003329743674283E-3   -1.498753638086121E-3   -2.042049136438703E-3   -3.633173655499193E-1    2.698290565736742E-1
 8.191706117000000E9    -4.657575916456512E-1    2.738080765989628E-1   -1.418924500223299E-3   -2.000144229305066E-3   -1.530097748012688E-3   -2.066816790306823E-3   -3.622163782171126E-1    2.713595470051299E-1
 8.191741009950000E9    -4.644766520080889E-1    2.757077908700449E-1   -1.398076020571015E-3   -2.005967594022595E-3   -1.560624964460536E-3   -2.030658514146101E-3   -3.608458722886622E-1    2.729383471221574E-1
 8.191775902900000E9    -4.631182173354869E-1    2.779158080129033E-1   -1.439159364114745E-3   -1.981361362346187E-3   -1.540164583863144E-3   -2.026077700279303E-3   -3.597628160668584E-1    2.744659662237023E-1
 8.191810795850000E9    -4.617915697338046E-1    2.799831486411939E-1   -1.438163609328222E-3   -1.960772568293794E-3   -1.550000489140137E-3   -2.020042496154014E-3   -3.584659693004785E-1    2.758770643757266E-1
 8.191845688800000E9    -4.606001677985333E-1    2.821021640706127E-1   -1.454200753159486E-3   -1.979793966803397E-3   -1.546612730139060E-3   -1.991886625733639E-3   -3.572339613418700E-1    2.773152545438339E-1
 8.191880581750000E9    -4.591599347919461E-1    2.840775135072567E-1   -1.457653019708834E-3   -1.981638497522432E-3   -1.588417007788368E-3   -1.996447089833563E-3   -3.561273932615188E-1    2.787842990940260E-1
 8.191915474700000E9    -4.579736902274068E-1    2.859681910084212E-1   -1.487632284659549E-3   -2.002854128950559E-3   -1.558080110793063E-3   -1.975294147253011E-3   -3.548761725811663E-1    2.804308379534360E-1
 8.191950367650000E9    -4.566966949277603E-1    2.882801056851458E-1   -1.482365158921261E-3   -1.950945228736901E-3   -1.590889499187371E-3   -1.968989730443100E-3   -3.537088267498171E-1    2.818997911628522E-1
 8.191985260600000E9    -4.553740183568369E-1    2.903549542592635E-1   -1.521949315371365E-3   -1.940084123258268E-3   -1.604108521792791E-3   -1.966654990856539E-3   -3.522197223573327E-1    2.832396620173900E-1
 8.192020153550000E9    -4.539893357572592E-1    2.922290946678907E-1   -1.477971769952606E-3   -1.959963240347447E-3   -1.582666243255132E-3   -1.973119746801280E-3   -3.510930676745684E-1    2.848060867892973E-1
 8.192055046500000E9    -4.526363196269980E-1    2.944485430941807E-1   -1.502565812592385E-3   -1.976154639774253E-3   -1.641735245719535E-3   -1.964537341379964E-3   -3.497250229600056E-1    2.862582169095255E-1
 8.192089939450000E9    -4.512563988194478E-1    2.964888642574162E-1   -1.544402888713696E-3   -1.928031199950763E-3   -1.610036501720937E-3   -2.000238738971558E-3   -3.485486265009319E-1    2.876659760403195E-1
 8.192124832400000E9    -4.500063781990032E-1    2.984481995370651E-1   -1.524281946406587E-3   -1.964317179731465E-3   -1.652679080746312E-3   -1.983877027846860E-3   -3.473122651097229E-1    2.891946751048087E-1
 8.192159725350000E9    -4.485755830276126E-1    3.004771329960408E-1   -1.542373117458384E-3   -1.919239014304401E-3   -1.644550130495990E-3   -1.931172504640813E-3   -3.461045988584823E-1    2.906745007525162E-1
 8.192194618300000E9    -4.472079731928356E-1    3.024750245830781E-1   -1.572618937199818E-3   -1.919898523301740E-3   -1.651597917653289E-3   -1.947855621191408E-3   -3.446200898898905E-1    2.922192110973345E-1
 8.192229511250000E9    -4.458345459538138E-1    3.045770778144250E-1   -1.547367365632581E-3   -1.937668620694526E-3   -1.653390589795179E-3   -1.930494645041704E-3   -3.435193359040895E-1    2.935309442762400E-1
 8.192264404200000E9    -4.442848886627856E-1    3.065489652368476E-1   -1.561998534305528E-3   -1.894787104947305E-3   -1.651638183389226E-3   -1.941639904699080E-3   -3.422266459742204E-1    2.951187953274897E-1
 8.192299297150000E9    -4.428323546041389E-1    3.085976861503587E-1   -1.559137238973923E-3   -1.906388459054657E-3   -1.704563868747372E-3   -1.915123172455068E-3   -3.409102083378842E-1    2.964081636740458E-1
 8.192334190100000E9    -4.415165590366648E-1    3.105632628708803E-1   -1.582696427418534E-3   -1.885325462865022E-3   -1.680010788422099E-3   -1.922283510004335E-3   -3.394781343092941E-1    2.980038894296960E-1
 8.192369083050000E9    -4.400745865720790E-1    3.125254587265445E-1   -1.585739626501873E-3   -1.895518343234819E-3   -1.712005316882843E-3   -1.898195323780449E-3   -3.382439064558321E-1    2.993854563427093E-1
 8.192403976000000E9    -4.385934508222317E-1    3.145072017676996E-1   -1.611830197015171E-3   -1.890291160945324E-3   -1.733898478828922E-3   -1.934588844823038E-3   -3.370087378966272E-1    3.008295276517295E-1
 8.192438868950000E9    -4.371171901747886E-1    3.163877829238187E-1   -1.624151857769713E-3   -1.876097588930248E-3   -1.700183602473194E-3   -1.867063941009125E-3   -3.355970271156848E-1    3.021385134994643E-1
 8.192473761900000E9    -4.357156327359367E-1    3.185021714638696E-1   -1.618788914225012E-3   -1.910056258273625E-3   -1.708770027419805E-3   -1.899721007394479E-3   -3.342013817998075E-1    3.037628420251812E-1
 8.192508654850000E9    -4.342859150305926E-1    3.203991119876873E-1   -1.624998881077617E-3   -1.876602714781849E-3   -1.776208222109357E-3   -1.874180952360663E-3   -3.329670733451878E-1    3.049747318576133E-1
 8.192543547800000E9    -4.328148749595898E-1    3.223466560916452E-1   -1.651485920777499E-3   -1.854212887143726E-3   -1.733748477706161E-3   -1.895532093473289E-3   -3.314720263624362E-1    3.064286950865230E-1
 8.192578440750000E9    -4.312437577922837E-1    3.244787695263336E-1   -1.637053481824360E-3   -1.846986013823485E-3   -1.779617139652253E-3   -1.865895742839683E-3   -3.303016384574406E-1    3.077587500161568E-1
 8.192613333700000E9    -4.298008910056258E-1    3.262744125190617E-1   -1.632938594613048E-3   -1.866173586346992E-3   -1.762639146040429E-3   -1.863084365608381E-3   -3.287340004246078E-1    3.092271936761396E-1
 8.192648226650000E9    -4.281799750254902E-1    3.282725148145027E-1   -1.679995992036921E-3   -1.847688578566406E-3   -1.790823587764949E-3   -1.855765921021025E-3   -3.274827554695797E-1    3.103729461127869E-1
 8.192683119600000E9    -4.267649557258959E-1    3.302328048880353E-1   -1.685757656709772E-3   -1.850632543126798E-3   -1.759011956894473E-3   -1.819603428995811E-3   -3.262128517965672E-1    3.118534234944200E-1
 8.192718012550000E9    -4.253682766933557E-1    3.321684835783553E-1   -1.692669707325637E-3   -1.851123755593607E-3   -1.786349926701215E-3   -1.825554659764316E-3   -3.247647643915901E-1    3.132967063264481E-1
 8.192752905500000E9    -4.237712883749933E-1    3.340350629619286E-1   -1.695623405864576E-3   -1.807263137164736E-3   -1.804684001745418E-3   -1.829385111005682E-3   -3.234143686979601E-1    3.145061827949547E-1
