#  HZ   S   RI   R     50.00 
! Rohde & Schwarz Vector Network Analyzer 
! Rohde-Schwarz,ZNB20-2Port,1311601062101988,3.16
! Created: UTC 3/20/2024, 5:10:11 PM
! freq[Hz]                re:S11                  im:S11                  re:S21                  im:S21                  re:S12                  im:S12                  re:S22                  im:S22
 8.192597006000000E9    -4.309369212810080E-1    3.245221386312380E-1   -1.662811562142258E-3   -1.828637234084907E-3   -1.744904447563729E-3   -1.847891188147684E-3   -3.308706107220307E-1    3.096079381396327E-1
 8.192618793775000E9    -4.297934363210359E-1    3.258464430255190E-1   -1.677479297831205E-3   -1.859053799436640E-3   -1.746943646607198E-3   -1.847926682542100E-3   -3.299544546668841E-1    3.104163545862697E-1
 8.192640581550000E9    -4.290189011494881E-1    3.270362134872324E-1   -1.669810042892123E-3   -1.845667301204888E-3   -1.768569617015752E-3   -1.891296253595939E-3   -3.292099597300285E-1    3.114189879397099E-1
 8.192662369325000E9    -4.279713390639108E-1    3.282423786188217E-1   -1.698659302133876E-3   -1.844385739108615E-3   -1.752159428802522E-3   -1.836527148625909E-3   -3.283386841888303E-1    3.122284581432117E-1
 8.192684157100000E9    -4.270420512846402E-1    3.295240583231134E-1   -1.643087012101407E-3   -1.846573501526803E-3   -1.776416582707258E-3   -1.826376626495242E-3   -3.275465080111479E-1    3.128950141505599E-1
 8.192705944875000E9    -4.261133398492054E-1    3.306584941801253E-1   -1.693904894759919E-3   -1.811305705869994E-3   -1.780206663076662E-3   -1.833372340209919E-3   -3.265933305738539E-1    3.140345012294551E-1
 8.192727732650000E9    -4.250741357837972E-1    3.319152952072716E-1   -1.672061000957405E-3   -1.853278289053345E-3   -1.781343876995879E-3   -1.862881719619323E-3   -3.256416600913266E-1    3.147570226267038E-1
 8.192749520425000E9    -4.242982961797089E-1    3.330996611593635E-1   -1.689148688982233E-3   -1.853050783610819E-3   -1.827662523390661E-3   -1.829977195102377E-3   -3.249103257387695E-1    3.157226498815149E-1
 8.192771308200000E9    -4.232546528645823E-1    3.343446884846954E-1   -1.694360994877808E-3   -1.819203534375405E-3   -1.821216253051293E-3   -1.839795713932797E-3   -3.240468941445128E-1    3.165706979038952E-1
 8.192793095975000E9    -4.223181029882162E-1    3.356299535504839E-1   -1.701279105646261E-3   -1.832269480949490E-3   -1.812862108819255E-3   -1.802993648637233E-3   -3.230302509461312E-1    3.173897509581883E-1
 8.192814883750000E9    -4.212929015862167E-1    3.367415834897720E-1   -1.712326013585126E-3   -1.838882197840135E-3   -1.816424952841547E-3   -1.825503373102879E-3   -3.223178492552657E-1    3.180618896306202E-1
 8.192836671525000E9    -4.204730330282680E-1    3.379122230308159E-1   -1.743921282919771E-3   -1.810392769763966E-3   -1.825355233925614E-3   -1.778204631165516E-3   -3.214113094097218E-1    3.191573087760162E-1
 8.192858459300000E9    -4.194199448939256E-1    3.390222602168789E-1   -1.727529376550184E-3   -1.814440548649052E-3   -1.810369305773947E-3   -1.794644637898183E-3   -3.204476854034846E-1    3.199723480315941E-1
 8.192880247075000E9    -4.183915800783013E-1    3.401561752796900E-1   -1.743240354540694E-3   -1.812866178422042E-3   -1.850041742134973E-3   -1.806793589565713E-3   -3.195882113821701E-1    3.207485621801651E-1
 8.192902034850000E9    -4.173506125276927E-1    3.414304692471272E-1   -1.721232492118556E-3   -1.779053309087939E-3   -1.833240826731962E-3   -1.798154336267448E-3   -3.187814471035911E-1    3.215217570587354E-1
 8.192923822625000E9    -4.164680509053007E-1    3.426171870662237E-1   -1.737087701418456E-3   -1.790543240141216E-3   -1.833186950928878E-3   -1.815172668884830E-3   -3.177307739288126E-1    3.223909139720691E-1
 8.192945610400000E9    -4.155126224573183E-1    3.437315837232500E-1   -1.756670755694025E-3   -1.784569263322493E-3   -1.852316056834329E-3   -1.764803547315106E-3   -3.169704771805100E-1    3.233532679384090E-1
 8.192967398175000E9    -4.144931038778029E-1    3.449510511034746E-1   -1.744920728684979E-3   -1.795758657557350E-3   -1.878989991222571E-3   -1.783303929782526E-3   -3.161807157625437E-1    3.240993208440649E-1
 8.192989185950000E9    -4.134509725792030E-1    3.461488614043765E-1   -1.778477866054872E-3   -1.780666835175892E-3   -1.849531513454622E-3   -1.802185924023135E-3   -3.152453131680713E-1    3.248352671843442E-1
 8.193010973725000E9    -4.125642516757131E-1    3.472164896719336E-1   -1.789025686391871E-3   -1.778585148966695E-3   -1.862093064798515E-3   -1.789978288147314E-3   -3.143825880876364E-1    3.257355824911141E-1
 8.193032761500000E9    -4.113967970673196E-1    3.484268981271034E-1   -1.759723544020673E-3   -1.762513358874302E-3   -1.877638562379897E-3   -1.784728727925176E-3   -3.132916934535911E-1    3.265956473943770E-1
 8.193054549275000E9    -4.103861695528655E-1    3.496102201915244E-1   -1.781812846287124E-3   -1.779886606647090E-3   -1.862688518392510E-3   -1.799407460466476E-3   -3.125000877527049E-1    3.273365730647861E-1
 8.193076337050000E9    -4.094532779294288E-1    3.507550055929941E-1   -1.765150255155660E-3   -1.761222514078751E-3   -1.875749286651805E-3   -1.773238243327882E-3   -3.115578594856993E-1    3.281417472977545E-1
 8.193098124825000E9    -4.084933091704853E-1    3.519750326560319E-1   -1.779867630704208E-3   -1.756520349850100E-3   -1.867029951171457E-3   -1.738143611578856E-3   -3.106553665462793E-1    3.289917233688361E-1
 8.193119912600000E9    -4.073682661540018E-1    3.531237492904118E-1   -1.792684362250282E-3   -1.760674458011964E-3   -1.896898010617622E-3   -1.729024985763153E-3   -3.097030598629817E-1    3.297030127558356E-1
 8.193141700375000E9    -4.063773391731196E-1    3.542108435535619E-1   -1.802405525500122E-3   -1.745215362356861E-3   -1.891677967581603E-3   -1.771112213134010E-3   -3.089482498641037E-1    3.305471765264054E-1
 8.193163488150000E9    -4.054285842833648E-1    3.554073080090494E-1   -1.806228158498675E-3   -1.759068407986505E-3   -1.902347447941354E-3   -1.760834100651298E-3   -3.079757982108992E-1    3.312897404336630E-1
 8.193185275925000E9    -4.043706916942002E-1    3.565652824909111E-1   -1.808711990042341E-3   -1.739083240173252E-3   -1.896516271996798E-3   -1.712703140951595E-3   -3.071116254410352E-1    3.321849087876591E-1
 8.193207063700000E9    -4.032231338758246E-1    3.577316564467198E-1   -1.812093948710293E-3   -1.757534443509367E-3   -1.931194801493970E-3   -1.724655450045938E-3   -3.061897309433131E-1    3.330525428382823E-1
 8.193228851475000E9    -4.022083499908964E-1    3.587458891796503E-1   -1.796717059196807E-3   -1.741121183526931E-3   -1.894678911167049E-3   -1.730767115179367E-3   -3.051770734804263E-1    3.338120941426433E-1
 8.193250639250000E9    -4.012683789534554E-1    3.599022417140978E-1   -1.835136234414602E-3   -1.722426423075793E-3   -1.943956591324445E-3   -1.721628572181178E-3   -3.043363660486589E-1    3.345163961928302E-1
 8.193272427025000E9    -4.002694806518445E-1    3.610655200174255E-1   -1.823019828456966E-3   -1.739959778024855E-3   -1.962051559224901E-3   -1.683073628089891E-3   -3.035637960780531E-1    3.354274243891280E-1
 8.193294214800000E9    -3.992272882744320E-1    3.622280895851205E-1   -1.826411579796738E-3   -1.745552286324272E-3   -1.947770241650854E-3   -1.688123414810891E-3   -3.024381350916109E-1    3.361499362323043E-1
 8.193316002575000E9    -3.981703799569537E-1    3.632830216741731E-1   -1.829343060707962E-3   -1.703324168399188E-3   -1.959072249791417E-3   -1.708806051168211E-3   -3.014399256134785E-1    3.371528120928610E-1
 8.193337790350000E9    -3.970590423602842E-1    3.643602153108218E-1   -1.867311661329108E-3   -1.688457717790880E-3   -1.930339506076657E-3   -1.695241671722323E-3   -3.008039554724240E-1    3.378933921242699E-1
 8.193359578125000E9    -3.959442680890423E-1    3.655747425071578E-1   -1.844622707733173E-3   -1.707515920150044E-3   -1.963407410972659E-3   -1.703238336904582E-3   -2.996787956814396E-1    3.385898918404985E-1
 8.193381365900000E9    -3.949873496397037E-1    3.666276777632864E-1   -1.891214326919254E-3   -1.737848516831660E-3   -1.955467080503983E-3   -1.701960480726813E-3   -2.988026303040654E-1    3.393508923187070E-1
 8.193403153675000E9    -3.940169864421878E-1    3.678128375141779E-1   -1.863517560208770E-3   -1.709092350375584E-3   -1.967491023001648E-3   -1.683900348841249E-3   -2.977423398250779E-1    3.401439153563022E-1
 8.193424941450000E9    -3.928446544351892E-1    3.687909035247141E-1   -1.875938396843119E-3   -1.691457307438316E-3   -1.969482849661813E-3   -1.675186016146627E-3   -2.968872833009653E-1    3.408512805296697E-1
 8.193446729225000E9    -3.918402325326459E-1    3.699678032265825E-1   -1.865299645118370E-3   -1.715369673973083E-3   -1.990499649751044E-3   -1.725771318517802E-3   -2.957948584093354E-1    3.417050957331640E-1
 8.193468517000000E9    -3.907399234826721E-1    3.711786450260727E-1   -1.881356694593755E-3   -1.707000891386584E-3   -1.985862842666737E-3   -1.674178172813352E-3   -2.950641206072725E-1    3.425689811954422E-1
 8.193490304775000E9    -3.897275536683810E-1    3.721778265490956E-1   -1.898967837183302E-3   -1.684876727798018E-3   -1.999628226172682E-3   -1.674303081415637E-3   -2.940930700758363E-1    3.432504344283309E-1
 8.193512092550000E9    -3.886352316629760E-1    3.731890635557280E-1   -1.888595070641924E-3   -1.662363824570584E-3   -1.993616142044114E-3   -1.647359048422059E-3   -2.932321510163444E-1    3.439440714587813E-1
 8.193533880325000E9    -3.876229262039676E-1    3.743388235812509E-1   -1.895880376300191E-3   -1.691064771837282E-3   -2.010228498733091E-3   -1.698250094030504E-3   -2.921337407083707E-1    3.447869443882378E-1
 8.193555668100000E9    -3.865873998851444E-1    3.755565638911578E-1   -1.899926899573465E-3   -1.703392041919652E-3   -1.997992923091385E-3   -1.645932781032503E-3   -2.912607948399453E-1    3.454593357200211E-1
 8.193577455875000E9    -3.853265438566621E-1    3.765984105602458E-1   -1.931735266408424E-3   -1.673862613076127E-3   -2.020037456871429E-3   -1.664588719630963E-3   -2.903479545149589E-1    3.462611621762461E-1
 8.193599243650000E9    -3.842022925578827E-1    3.776829005161246E-1   -1.911456143876711E-3   -1.649378536320848E-3   -2.018727331421102E-3   -1.669835033333702E-3   -2.893077326429622E-1    3.469255105402861E-1
 8.193621031425000E9    -3.832010044289587E-1    3.786924229948989E-1   -1.928083715098804E-3   -1.670921057867188E-3   -2.031448172753560E-3   -1.632107797021920E-3   -2.883295385679793E-1    3.478996773496530E-1
 8.193642819200000E9    -3.821842789368267E-1    3.798193626951455E-1   -1.956300739988444E-3   -1.640680640682107E-3   -2.034037021088315E-3   -1.613310947337782E-3   -2.874192276944234E-1    3.484847876406238E-1
 8.193664606975000E9    -3.810191173294059E-1    3.807818204556800E-1   -1.938062400036278E-3   -1.612541859386624E-3   -2.033037998601062E-3   -1.620042165159932E-3   -2.863793193006378E-1    3.493680894372908E-1
 8.193686394750000E9    -3.799097969720425E-1    3.820302841706764E-1   -1.967334786396474E-3   -1.643662552377304E-3   -2.049095348913739E-3   -1.650121417877224E-3   -2.854302760970164E-1    3.500752484929353E-1
 8.193708182525000E9    -3.788102291272238E-1    3.830675948497047E-1   -1.947802140976904E-3   -1.632501304253475E-3   -2.059875019993643E-3   -1.600884346437317E-3   -2.844278547921798E-1    3.508597421693871E-1
 8.193729970300000E9    -3.777797576495526E-1    3.841880544869964E-1   -1.938007809674968E-3   -1.657339226699233E-3   -2.045566883987905E-3   -1.597754776122650E-3   -2.835820002750464E-1    3.513957584949306E-1
 8.193751758075000E9    -3.767650746145726E-1    3.851154662165096E-1   -1.953789455334050E-3   -1.637054532167680E-3   -2.054578286191870E-3   -1.622585868126091E-3   -2.824892639050461E-1    3.522320032446064E-1
 8.193773545850000E9    -3.754549403592246E-1    3.863163033978991E-1   -1.956567590760606E-3   -1.628636865251664E-3   -2.105893106724200E-3   -1.599491795618896E-3   -2.816750841179997E-1    3.530224170259281E-1
 8.193795333625000E9    -3.743457459554963E-1    3.872999602583840E-1   -1.978756240719908E-3   -1.598611927034620E-3   -2.072705847625291E-3   -1.589904599475305E-3   -2.805507937257100E-1    3.538623427191821E-1
 8.193817121400000E9    -3.732506123020990E-1    3.884550472863746E-1   -1.952608087306218E-3   -1.618165344046313E-3   -2.078317673252852E-3   -1.559337163820144E-3   -2.795666482507708E-1    3.545137182191999E-1
 8.193838909175000E9    -3.721225554308953E-1    3.893650481212863E-1   -2.000520437596568E-3   -1.609121689587663E-3   -2.062038953582071E-3   -1.569490440076504E-3   -2.786237104465360E-1    3.550804413818580E-1
 8.193860696950000E9    -3.711391060522416E-1    3.904477501721901E-1   -1.980923232108382E-3   -1.612124803438509E-3   -2.119023791579122E-3   -1.599184519798118E-3   -2.776063335828236E-1    3.559481847876637E-1
 8.193882484725000E9    -3.699329449571856E-1    3.914445406118771E-1   -1.987457592177039E-3   -1.590646208552111E-3   -2.092059853644768E-3   -1.609246156239730E-3   -2.766644285283045E-1    3.566556112789147E-1
 8.193904272500000E9    -3.689426285875954E-1    3.924665735254394E-1   -2.004755111788882E-3   -1.608992912629132E-3   -2.123637885578222E-3   -1.564997064979173E-3   -2.757009384087185E-1    3.574285823290778E-1
 8.193926060275000E9    -3.677013387414002E-1    3.935840183371814E-1   -2.001794023892559E-3   -1.579047090218839E-3   -2.121210395405835E-3   -1.573195691099389E-3   -2.746773691470276E-1    3.581692784233130E-1
 8.193947848050000E9    -3.665772341731616E-1    3.946261970947815E-1   -2.013624633800329E-3   -1.566644378015592E-3   -2.091507282059623E-3   -1.585279971106186E-3   -2.737192395473576E-1    3.586373233869755E-1
 8.193969635825000E9    -3.653756483246149E-1    3.957110922703045E-1   -2.022436515165176E-3   -1.584736604908341E-3   -2.081194416543026E-3   -1.562723238222367E-3   -2.727403783876424E-1    3.594876045981071E-1
 8.193991423600000E9    -3.641878445673195E-1    3.967476067378862E-1   -2.026299585735592E-3   -1.578847557301757E-3   -2.124964570646448E-3   -1.571299474933948E-3   -2.716021023767762E-1    3.603340228533611E-1
 8.194013211375000E9    -3.631046143258729E-1    3.977243650564422E-1   -2.056603758216207E-3   -1.566033648560115E-3   -2.133906885362516E-3   -1.528699513601318E-3   -2.708282957929570E-1    3.609283024375584E-1
 8.194034999150000E9    -3.619874693361410E-1    3.987884797896026E-1   -2.035652062303251E-3   -1.569847954286174E-3   -2.128660429495854E-3   -1.533089875377109E-3   -2.697753364098978E-1    3.615670743841514E-1
 8.194056786925000E9    -3.607140219813784E-1    3.997666544149699E-1   -2.022624988053878E-3   -1.562353017667858E-3   -2.118578845700790E-3   -1.523696705288012E-3   -2.687577227153824E-1    3.624122104925839E-1
 8.194078574700000E9    -3.597661646539544E-1    4.008727692896583E-1   -2.063520507241738E-3   -1.562049319673138E-3   -2.130967253055731E-3   -1.524641431026612E-3   -2.676504382539423E-1    3.629981089437826E-1
 8.194100362475000E9    -3.585116221466415E-1    4.017847581722508E-1   -2.044736835811722E-3   -1.567129568118398E-3   -2.172458435195193E-3   -1.539037670277686E-3   -2.668379118136615E-1    3.637067328519846E-1
 8.194122150250000E9    -3.574327627075054E-1    4.026758530141372E-1   -2.049310003887480E-3   -1.527806646887009E-3   -2.147404206990513E-3   -1.520798777194284E-3   -2.658316614444229E-1    3.643703833537555E-1
 8.194143938025000E9    -3.563469767024338E-1    4.037544799028953E-1   -2.040099323364390E-3   -1.554013812365646E-3   -2.173277283269203E-3   -1.504262424531623E-3   -2.648034017821728E-1    3.650601186204980E-1
 8.194165725800000E9    -3.549978713358952E-1    4.047472530955515E-1   -2.069412014865316E-3   -1.526329031108774E-3   -2.175505172405878E-3   -1.515050040299718E-3   -2.639419373525143E-1    3.657728765711067E-1
 8.194187513575000E9    -3.538254497893516E-1    4.057896528059713E-1   -2.080568666181485E-3   -1.533445671936561E-3   -2.173428435791435E-3   -1.538527572735725E-3   -2.627498634066974E-1    3.663568312926775E-1
 8.194209301350000E9    -3.525857705912631E-1    4.068166391044994E-1   -2.057400576221599E-3   -1.503674696291015E-3   -2.188828569343627E-3   -1.512133941099202E-3   -2.616915185653458E-1    3.671646768846938E-1
 8.194231089125000E9    -3.515706758890101E-1    4.078278426766461E-1   -2.068731843324967E-3   -1.522090398711085E-3   -2.173756135652431E-3   -1.494542065857962E-3   -2.608248202751647E-1    3.679018192723549E-1
 8.194252876900000E9    -3.504171509242531E-1    4.087656917764998E-1   -2.100778184078318E-3   -1.511846530446388E-3   -2.196877978051654E-3   -1.488617127944942E-3   -2.596526514812188E-1    3.685098000717986E-1
 8.194274664675000E9    -3.493225743834790E-1    4.096733382559656E-1   -2.074816565957116E-3   -1.469848982426372E-3   -2.187269099981887E-3   -1.497944245115164E-3   -2.586401394976267E-1    3.691295237780710E-1
 8.194296452450000E9    -3.479910067311147E-1    4.107337038259792E-1   -2.078991908038367E-3   -1.492351342486867E-3   -2.216565444135703E-3   -1.443428620163973E-3   -2.577787288528155E-1    3.699578292493657E-1
 8.194318240225000E9    -3.467212507282201E-1    4.117376232449669E-1   -2.096308578632167E-3   -1.497102706403047E-3   -2.225521069894705E-3   -1.469137106900867E-3   -2.566337720005076E-1    3.705165321578366E-1
 8.194340028000000E9    -3.457027730303784E-1    4.127206647191693E-1   -2.090909424625857E-3   -1.487752325352628E-3   -2.206606368335130E-3   -1.450676091369156E-3   -2.556064256893216E-1    3.712210145275389E-1
 8.194361815775000E9    -3.444470593342231E-1    4.135827253866168E-1   -2.094910063758737E-3   -1.502043040805688E-3   -2.187229222162005E-3   -1.444047761852643E-3   -2.547845052586478E-1    3.719811599625282E-1
 8.194383603550000E9    -3.432063115557328E-1    4.146487633145137E-1   -2.095393374430284E-3   -1.501442844600665E-3   -2.232797889954983E-3   -1.445663847073091E-3   -2.537072673366900E-1    3.725105700810719E-1
 8.194405391325000E9    -3.420243758545575E-1    4.156249883632541E-1   -2.124807150417379E-3   -1.472696001258924E-3   -2.212137464128873E-3   -1.450471992327128E-3   -2.526256523109898E-1    3.732007967513531E-1
 8.194427179100000E9    -3.408665535729798E-1    4.164667729164312E-1   -2.147022568373114E-3   -1.446030284020723E-3   -2.224462330065974E-3   -1.424140627159429E-3   -2.514984970584892E-1    3.738048369433842E-1
 8.194448966875000E9    -3.397232801534772E-1    4.176457067830745E-1   -2.107327985634260E-3   -1.473001860775338E-3   -2.226581700526854E-3   -1.425008998766636E-3   -2.505707878304633E-1    3.745134606679529E-1
 8.194470754650000E9    -3.385356826443837E-1    4.186069556402981E-1   -2.125400372773601E-3   -1.462394458920380E-3   -2.238277185337134E-3   -1.434013209594276E-3   -2.495322208736875E-1    3.752746950469940E-1
 8.194492542425000E9    -3.371160714216864E-1    4.193943629268067E-1   -2.143395687398143E-3   -1.459709119473595E-3   -2.249484430728516E-3   -1.427529423166911E-3   -2.484967719477179E-1    3.758084473424861E-1
 8.194514330200000E9    -3.360246981517246E-1    4.204215420759864E-1   -2.127810389768789E-3   -1.467752786625904E-3   -2.234082318894202E-3   -1.415159485097930E-3   -2.474690741121654E-1    3.764016200109894E-1
 8.194536117975000E9    -3.348375437779385E-1    4.213121709102960E-1   -2.150093190314830E-3   -1.449501272257929E-3   -2.249280601783165E-3   -1.393813325516643E-3   -2.463366588068419E-1    3.769971959591123E-1
 8.194557905750000E9    -3.337216615287129E-1    4.223144447852888E-1   -2.149506914945545E-3   -1.444796354237497E-3   -2.292889342761696E-3   -1.370063365960417E-3   -2.454022153504504E-1    3.777338406406109E-1
