#  HZ   S   RI   R     50.00 
! Rohde & Schwarz Vector Network Analyzer 
! Rohde-Schwarz,ZNB20-2Port,1311601062101988,3.16
! Created: UTC 3/20/2024, 4:55:05 PM
! freq[Hz]                re:S11                  im:S11                  re:S21                  im:S21                  re:S12                  im:S12                  re:S22                  im:S22
 8.189223000000000E9    -5.296438510368061E-1    1.122829583482182E-1   -7.027842960671311E-4   -2.246396623379928E-3   -8.030897360076447E-4   -2.340039651569376E-3   -4.294706190176002E-1    1.517803738730888E-1
 8.189259651350000E9    -5.290855129751579E-1    1.148347827048002E-1   -7.239004231351933E-4   -2.267833402671345E-3   -8.300030590913878E-4   -2.316696236415354E-3   -4.288054722021037E-1    1.536307000071699E-1
 8.189296302700000E9    -5.284585804247887E-1    1.174547340353350E-1   -7.556081057007319E-4   -2.242841523134682E-3   -7.922325190158084E-4   -2.325259474074529E-3   -4.280187676733040E-1    1.555401410353931E-1
 8.189332954050000E9    -5.278219045705805E-1    1.199292740816977E-1   -7.201015745140130E-4   -2.267578268384880E-3   -8.144853429817793E-4   -2.325590088290909E-3   -4.272043803230816E-1    1.575099632045062E-1
 8.189369605400000E9    -5.273645801741810E-1    1.224713378289498E-1   -7.972212459786965E-4   -2.262226098597854E-3   -8.587513353114027E-4   -2.318095253822249E-3   -4.264023757298410E-1    1.593056022045777E-1
 8.189406256750000E9    -5.266586891771584E-1    1.248747226383194E-1   -7.810164489202227E-4   -2.257580140287085E-3   -8.408483251798373E-4   -2.333211794493873E-3   -4.257078251428544E-1    1.613953667806387E-1
 8.189442908100000E9    -5.260451639068943E-1    1.273998745360847E-1   -7.785084970744977E-4   -2.222542926784273E-3   -8.368720677054126E-4   -2.304693681282469E-3   -4.250051282110232E-1    1.631202342490162E-1
 8.189479559450000E9    -5.254438846657282E-1    1.298379456742307E-1   -7.804969133976176E-4   -2.219550563740209E-3   -8.396195293336118E-4   -2.316542975936620E-3   -4.242493981919800E-1    1.651163803912522E-1
 8.189516210800000E9    -5.249263806734146E-1    1.324048128211120E-1   -8.086539021193805E-4   -2.252366914326209E-3   -8.652574895353268E-4   -2.298000392876100E-3   -4.234685044440792E-1    1.669267308048984E-1
 8.189552862150000E9    -5.240082965012431E-1    1.348250085099072E-1   -8.237728218030812E-4   -2.257642484868755E-3   -9.096333298810423E-4   -2.321537760971477E-3   -4.226083063781140E-1    1.688366569312038E-1
 8.189589513500000E9    -5.234733973673994E-1    1.372596892558463E-1   -8.080075133234803E-4   -2.257654104339861E-3   -9.039601746300381E-4   -2.341255230167902E-3   -4.217057055825206E-1    1.705980115835229E-1
 8.189626164850000E9    -5.228572124265272E-1    1.398923463789908E-1   -8.293664149698948E-4   -2.227960904737884E-3   -9.205356026463891E-4   -2.281888414573740E-3   -4.209697864558904E-1    1.725211586602600E-1
 8.189662816200000E9    -5.221543629680162E-1    1.421543607795750E-1   -8.258165791229742E-4   -2.224341594342759E-3   -9.289852453590749E-4   -2.304997377875690E-3   -4.202911714055749E-1    1.743528853446069E-1
 8.189699467550000E9    -5.214439244368859E-1    1.447692386005288E-1   -8.488767452298261E-4   -2.253607991954581E-3   -9.555823445084793E-4   -2.309628481795232E-3   -4.194605333962377E-1    1.762630161151681E-1
 8.189736118900000E9    -5.207365174767358E-1    1.472631532197701E-1   -8.455872608022466E-4   -2.235145284353452E-3   -9.258069490185595E-4   -2.288763569300971E-3   -4.184014873402659E-1    1.780535597171995E-1
 8.189772770250000E9    -5.199269825383195E-1    1.497715815640698E-1   -8.469146902490769E-4   -2.225819499947574E-3   -9.429602939547628E-4   -2.284711638976058E-3   -4.177251893429184E-1    1.799304619771216E-1
 8.189809421600000E9    -5.193061669277780E-1    1.521692424327409E-1   -8.748561008112360E-4   -2.219936055396091E-3   -9.670555240151777E-4   -2.297160146961715E-3   -4.168139918139317E-1    1.816815658219952E-1
 8.189846072950000E9    -5.185349546093302E-1    1.546475939333563E-1   -8.800553541393822E-4   -2.251644888627433E-3   -9.864438078325440E-4   -2.278414993014043E-3   -4.162226493576170E-1    1.838146352876691E-1
 8.189882724300000E9    -5.177645552618749E-1    1.570966856736180E-1   -9.119719857694204E-4   -2.229038024460971E-3   -9.933235707556404E-4   -2.263973633096570E-3   -4.152355578313006E-1    1.853909663663330E-1
 8.189919375650000E9    -5.170498885794415E-1    1.595383954690692E-1   -8.932652695071348E-4   -2.206743747351322E-3   -9.930709660612347E-4   -2.272388817651639E-3   -4.143538014694164E-1    1.873420286629988E-1
 8.189956027000000E9    -5.160737261510974E-1    1.620589601002078E-1   -9.137809635638117E-4   -2.239163914244930E-3   -1.021834824455038E-3   -2.269895059624659E-3   -4.133637072806325E-1    1.890827294406245E-1
 8.189992678350000E9    -5.154098194884962E-1    1.644590729848929E-1   -9.235106434308877E-4   -2.219848346747165E-3   -1.019057956217945E-3   -2.251522925072164E-3   -4.126452161208571E-1    1.909152193895019E-1
 8.190029329700000E9    -5.145343815146679E-1    1.668359761667311E-1   -9.261270485386539E-4   -2.212462885449341E-3   -1.015858378197084E-3   -2.276896512771636E-3   -4.116502300500365E-1    1.926352306147063E-1
 8.190065981050000E9    -5.137627849554061E-1    1.693044422376497E-1   -9.561498087351270E-4   -2.220891144011671E-3   -9.980993245471434E-4   -2.263165798572014E-3   -4.108107786267797E-1    1.945029829316292E-1
 8.190102632400000E9    -5.129946799897903E-1    1.716402208062398E-1   -9.310710569607936E-4   -2.214646773448044E-3   -1.073628907231458E-3   -2.252083775481563E-3   -4.098891135323705E-1    1.964110457336463E-1
 8.190139283750000E9    -5.120870410362088E-1    1.741601543600012E-1   -9.565433088100553E-4   -2.195361476594869E-3   -1.062534993893182E-3   -2.263742671478966E-3   -4.089054300850460E-1    1.982384159882205E-1
 8.190175935100000E9    -5.112898525067127E-1    1.767419517407906E-1   -9.690974489858373E-4   -2.208188003513647E-3   -1.078033153725457E-3   -2.244810319177264E-3   -4.079563318932025E-1    1.999617217801976E-1
 8.190212586450000E9    -5.104219446434414E-1    1.789741678473073E-1   -9.926375253264640E-4   -2.196932338437288E-3   -1.053435452674387E-3   -2.267651923438286E-3   -4.071141105544806E-1    2.017635098103816E-1
 8.190249237800000E9    -5.095470592671804E-1    1.813959770908191E-1   -9.953207048178346E-4   -2.201141372822371E-3   -1.105597256312988E-3   -2.245908182925936E-3   -4.060774735578360E-1    2.036029067933632E-1
 8.190285889150000E9    -5.087153843526820E-1    1.836816121364326E-1   -1.023647209282560E-3   -2.177381598685032E-3   -1.110272747050777E-3   -2.236793547876423E-3   -4.052055966284781E-1    2.053806696548151E-1
 8.190322540500000E9    -5.076322762573279E-1    1.861934869446550E-1   -1.039037069874453E-3   -2.194868475446251E-3   -1.096781470778460E-3   -2.220039902574085E-3   -4.043411465075798E-1    2.072210718131111E-1
 8.190359191850000E9    -5.069014010787517E-1    1.887992198837088E-1   -1.042245653926039E-3   -2.182088095871636E-3   -1.155750851035843E-3   -2.236585341849319E-3   -4.032590355297189E-1    2.088808476623215E-1
 8.190395843200000E9    -5.059525030359706E-1    1.910721822623569E-1   -1.056285662938354E-3   -2.190806932169250E-3   -1.141220637878524E-3   -2.218445684987261E-3   -4.021789628804970E-1    2.107490909206194E-1
 8.190432494550000E9    -5.050635002766583E-1    1.934356638116648E-1   -1.071535844467526E-3   -2.173611238444909E-3   -1.134116187950943E-3   -2.160615908285615E-3   -4.013111417206556E-1    2.125871441490775E-1
 8.190469145900000E9    -5.040857271875230E-1    1.959422289332336E-1   -1.081665984721155E-3   -2.143296237450377E-3   -1.179605089533751E-3   -2.236029576818655E-3   -4.003235138239633E-1    2.142687169129247E-1
 8.190505797250000E9    -5.030194607151964E-1    1.982959300188218E-1   -1.055011224447645E-3   -2.176720397225332E-3   -1.190089206130790E-3   -2.204018661775880E-3   -3.992110741656468E-1    2.160691387010199E-1
 8.190542448600000E9    -5.022205515145053E-1    2.007207514534302E-1   -1.108043795494968E-3   -2.177312615598102E-3   -1.163983339677661E-3   -2.241141961940943E-3   -3.982429237691352E-1    2.178459394340060E-1
 8.190579099950000E9    -5.012772282050743E-1    2.029666692908890E-1   -1.128261758840624E-3   -2.144429030870754E-3   -1.199646368390397E-3   -2.211570190140707E-3   -3.971373055549458E-1    2.195443509936462E-1
 8.190615751300000E9    -5.001398299927770E-1    2.054284609170756E-1   -1.119433817157796E-3   -2.125571103063505E-3   -1.192397472220250E-3   -2.200224935514348E-3   -3.962109724132930E-1    2.215048654967424E-1
 8.190652402650000E9    -4.991749570289430E-1    2.077541682366338E-1   -1.145537555765904E-3   -2.145093297855152E-3   -1.224026573916872E-3   -2.173702990845671E-3   -3.952145037500468E-1    2.230845504870228E-1
 8.190689054000000E9    -4.982613420090483E-1    2.101224191807244E-1   -1.114904057388382E-3   -2.127849867599790E-3   -1.206567230800011E-3   -2.200889354668485E-3   -3.940291874635138E-1    2.247320169332956E-1
 8.190725705350000E9    -4.971110747702452E-1    2.125237761753464E-1   -1.145727823025583E-3   -2.131983653528329E-3   -1.231685570597951E-3   -2.186295197192837E-3   -3.929939628622701E-1    2.266518624194795E-1
 8.190762356700000E9    -4.961444509422416E-1    2.148520337131264E-1   -1.144256264097230E-3   -2.142420298435684E-3   -1.245744418562337E-3   -2.154966505259536E-3   -3.921500839751262E-1    2.282722644023895E-1
 8.190799008050000E9    -4.951040328916212E-1    2.172311111860319E-1   -1.162061452085987E-3   -2.131052106468239E-3   -1.259098290927578E-3   -2.170798621411496E-3   -3.909443219169297E-1    2.301189331045145E-1
 8.190835659400000E9    -4.940381636860923E-1    2.197443881838150E-1   -1.196957108127414E-3   -2.145475965039129E-3   -1.261851840740216E-3   -2.170218073093556E-3   -3.898060263395585E-1    2.317459977481312E-1
 8.190872310750000E9    -4.929433247168832E-1    2.219247851513600E-1   -1.214474081427740E-3   -2.101813981217008E-3   -1.302614056383971E-3   -2.157390086794577E-3   -3.888086621810043E-1    2.335482956659035E-1
 8.190908962100000E9    -4.919769130172438E-1    2.242433712289406E-1   -1.215243318137410E-3   -2.136653118617941E-3   -1.286076538323275E-3   -2.134567700601376E-3   -3.877929747371730E-1    2.352332562079635E-1
 8.190945613450000E9    -4.907919232311136E-1    2.266124808866575E-1   -1.204376289222346E-3   -2.100486050723962E-3   -1.278872116826765E-3   -2.146843779020690E-3   -3.864562318532527E-1    2.369877795228847E-1
 8.190982264800000E9    -4.896930595613066E-1    2.289185529858420E-1   -1.211934050367359E-3   -2.110344247052935E-3   -1.325465519263059E-3   -2.135972125917003E-3   -3.855591700699514E-1    2.387185980834287E-1
 8.191018916150000E9    -4.885103277573590E-1    2.310498290518247E-1   -1.210512651525232E-3   -2.091807103580910E-3   -1.315910592545927E-3   -2.095936920336926E-3   -3.844843864890830E-1    2.402949366007592E-1
 8.191055567500000E9    -4.874146633822287E-1    2.335533200628054E-1   -1.230073131919930E-3   -2.081168866836098E-3   -1.339287240305423E-3   -2.141440026794855E-3   -3.834080333537286E-1    2.420599365117055E-1
 8.191092218850000E9    -4.862748956695186E-1    2.357817697068885E-1   -1.252934912417339E-3   -2.097409621585008E-3   -1.357304839241240E-3   -2.142783225975690E-3   -3.819891351764320E-1    2.437149746846450E-1
 8.191128870200000E9    -4.851886597652841E-1    2.380281846371953E-1   -1.244193604093015E-3   -2.123831538764614E-3   -1.320051008843028E-3   -2.111098066987222E-3   -3.809846910045049E-1    2.453182941289790E-1
 8.191165521550000E9    -4.840424207945614E-1    2.403308404195882E-1   -1.271576679487911E-3   -2.091297576159497E-3   -1.344433345134550E-3   -2.136676199657791E-3   -3.798853996569796E-1    2.471696839768684E-1
 8.191202172900000E9    -4.828427546511138E-1    2.427345430528542E-1   -1.283161887711648E-3   -2.092046695494275E-3   -1.394815847921978E-3   -2.080779109547395E-3   -3.786396478773842E-1    2.487834518212252E-1
 8.191238824250000E9    -4.816189013741438E-1    2.450386890036346E-1   -1.292385501939214E-3   -2.066233554882054E-3   -1.405831582255255E-3   -2.101463789544953E-3   -3.776143071551711E-1    2.505955512751035E-1
 8.191275475600000E9    -4.805629921363526E-1    2.474611204194211E-1   -1.320482464215320E-3   -2.055036734921847E-3   -1.386494523690130E-3   -2.094175893693827E-3   -3.765739988502546E-1    2.521668615880056E-1
 8.191312126950000E9    -4.792188276583338E-1    2.495318147264522E-1   -1.317613515995683E-3   -2.049725715252017E-3   -1.393964553003166E-3   -2.089369670058725E-3   -3.753574784743809E-1    2.538386794786253E-1
 8.191348778300000E9    -4.780706911915918E-1    2.517951434848942E-1   -1.315457980956539E-3   -2.058451287436424E-3   -1.427951487355167E-3   -2.109571974939438E-3   -3.740304202410969E-1    2.554355872343541E-1
 8.191385429650000E9    -4.769338149148201E-1    2.539898025542672E-1   -1.349157546290003E-3   -2.076551958347155E-3   -1.436436306825298E-3   -2.085925275285731E-3   -3.728067282201447E-1    2.571904045717271E-1
 8.191422081000000E9    -4.756012008459214E-1    2.562959715402990E-1   -1.328147788955127E-3   -2.047954514988036E-3   -1.434457332893599E-3   -2.099066088612477E-3   -3.716699223854271E-1    2.588208703436750E-1
 8.191458732350000E9    -4.743101436082848E-1    2.585319758508040E-1   -1.388043503650939E-3   -2.060807300064496E-3   -1.421048304228285E-3   -2.073999906942194E-3   -3.705213333553012E-1    2.604489126958880E-1
 8.191495383700000E9    -4.731648759830863E-1    2.609820934381817E-1   -1.332576414805493E-3   -2.032160796977188E-3   -1.441556044500424E-3   -2.070318477707996E-3   -3.693712256056912E-1    2.621196443096462E-1
 8.191532035050000E9    -4.719069140044940E-1    2.631791512836558E-1   -1.349190459167289E-3   -2.044504147220487E-3   -1.471125005747002E-3   -2.062849486613977E-3   -3.679896060465088E-1    2.637145103965212E-1
 8.191568686400000E9    -4.707109729484282E-1    2.654358903098062E-1   -1.371747465661773E-3   -2.043030830278259E-3   -1.449503537013916E-3   -2.057215884902321E-3   -3.668201967112642E-1    2.652040145036290E-1
 8.191605337750000E9    -4.694002322150266E-1    2.675852990256739E-1   -1.369504266673801E-3   -2.042198796141479E-3   -1.483180225841099E-3   -2.014378211305554E-3   -3.655894268063992E-1    2.668482230212864E-1
 8.191641989100000E9    -4.680097495887048E-1    2.698104842987855E-1   -1.404443261335059E-3   -2.009871487562273E-3   -1.504155316441651E-3   -2.042146353234437E-3   -3.643689767703770E-1    2.685323955027532E-1
 8.191678640450000E9    -4.666932719184324E-1    2.719969748802190E-1   -1.410507210512282E-3   -1.989656275213589E-3   -1.495293771469309E-3   -2.017453240545308E-3   -3.630283280500235E-1    2.701221837829492E-1
 8.191715291800000E9    -4.654002120057140E-1    2.742267569062365E-1   -1.415116121115837E-3   -1.996140878485516E-3   -1.517441906278042E-3   -2.036857559635142E-3   -3.618787599607420E-1    2.717338654961812E-1
 8.191751943150000E9    -4.639631224770663E-1    2.765733756250651E-1   -1.385599536546296E-3   -1.999791013743005E-3   -1.534926510089585E-3   -2.023954933703629E-3   -3.605333450059833E-1    2.732616374125729E-1
 8.191788594500000E9    -4.626957972279377E-1    2.786257689335352E-1   -1.422359680628924E-3   -2.001680965260488E-3   -1.536408387683377E-3   -2.008418596979746E-3   -3.594219865788446E-1    2.749551487921159E-1
 8.191825245850000E9    -4.613717299856455E-1    2.808162440233038E-1   -1.460445073592115E-3   -1.988045662190601E-3   -1.551497165329737E-3   -2.003458262726882E-3   -3.580667707417383E-1    2.764021446344933E-1
 8.191861897200000E9    -4.600245657194452E-1    2.830251035599902E-1   -1.470278430435340E-3   -1.970903327182338E-3   -1.552754247444843E-3   -1.985424290229103E-3   -3.568100465257671E-1    2.780597744972123E-1
 8.191898548550000E9    -4.586580279471703E-1    2.851743965369035E-1   -1.512584134542635E-3   -1.993316175429097E-3   -1.545336339019596E-3   -1.987162247890005E-3   -3.554723731739100E-1    2.796208379634498E-1
 8.191935199900000E9    -4.572527279444521E-1    2.872469857334513E-1   -1.488219280510969E-3   -1.966117440758477E-3   -1.578754206200614E-3   -2.021821345669581E-3   -3.540739768580475E-1    2.811324244392803E-1
 8.191971851250000E9    -4.557610270781236E-1    2.896368703846589E-1   -1.485047353030341E-3   -1.977723912421313E-3   -1.594270200494834E-3   -1.992235712605981E-3   -3.528751058267709E-1    2.827157686495975E-1
 8.192008502600000E9    -4.545221448584252E-1    2.916335853869937E-1   -1.477969201888197E-3   -1.938785080742336E-3   -1.589624476837107E-3   -1.981174454063222E-3   -3.515491057196002E-1    2.844205681916568E-1
 8.192045153950000E9    -4.529670979239072E-1    2.937927854787291E-1   -1.519190699956392E-3   -1.958761092479779E-3   -1.632397850473504E-3   -1.986653931032318E-3   -3.501473365903401E-1    2.858163421057778E-1
 8.192081805300000E9    -4.515856170668227E-1    2.959516863753495E-1   -1.520732524517281E-3   -1.977706118688477E-3   -1.630491630435684E-3   -1.951808658759452E-3   -3.488488811476053E-1    2.873022766583534E-1
 8.192118456650000E9    -4.501966296568981E-1    2.980948281417090E-1   -1.544246264646768E-3   -1.972693396881930E-3   -1.651818249848244E-3   -1.981317162831699E-3   -3.474870860372669E-1    2.890858543041780E-1
 8.192155108000000E9    -4.486642697051901E-1    3.001615531788409E-1   -1.543990198750899E-3   -1.946545396346015E-3   -1.654577525337003E-3   -1.904927132921265E-3   -3.462136419653588E-1    2.904981337259877E-1
 8.192191759350000E9    -4.472411994770252E-1    3.023364675315186E-1   -1.533862935613704E-3   -1.942180129815161E-3   -1.646645562356303E-3   -1.958685941124348E-3   -3.448462590617951E-1    2.920545851033871E-1
 8.192228410700000E9    -4.457434382322804E-1    3.045146550878281E-1   -1.561208813636354E-3   -1.911022177463912E-3   -1.655399668584249E-3   -1.954420849277329E-3   -3.435685059203986E-1    2.933261791485612E-1
 8.192265062050000E9    -4.443612454353056E-1    3.065915703435164E-1   -1.575139527257038E-3   -1.909124784288565E-3   -1.659793552069355E-3   -1.952810428914475E-3   -3.421442826654762E-1    2.950528413516257E-1
 8.192301713400000E9    -4.428366788551948E-1    3.086919381870407E-1   -1.580134712517108E-3   -1.919796283188944E-3   -1.703873667438587E-3   -1.890334596448564E-3   -3.407566013434093E-1    2.966343090149225E-1
 8.192338364750000E9    -4.413967983947166E-1    3.107791205245246E-1   -1.570872078033816E-3   -1.893637569723363E-3   -1.697951419752678E-3   -1.910010259916326E-3   -3.393885169871690E-1    2.980019019936364E-1
 8.192375016100000E9    -4.398823674070778E-1    3.128068020583256E-1   -1.589399964622484E-3   -1.895884388368063E-3   -1.706969255891929E-3   -1.895930461429797E-3   -3.381103281086564E-1    2.995519239701390E-1
 8.192411667450000E9    -4.385237855860502E-1    3.149409537483738E-1   -1.611847116422617E-3   -1.900695060608902E-3   -1.722024207820350E-3   -1.879970634115739E-3   -3.366435841873346E-1    3.010520312713273E-1
 8.192448318800000E9    -4.368501262324150E-1    3.170647641024595E-1   -1.649225121379342E-3   -1.886088473276084E-3   -1.753779586378668E-3   -1.895862696854107E-3   -3.351839414698911E-1    3.025016152864163E-1
 8.192484970150000E9    -4.352588460846841E-1    3.191409840962846E-1   -1.668270061554703E-3   -1.893843161646958E-3   -1.732140291977635E-3   -1.895881446345123E-3   -3.338512372234522E-1    3.040095265485601E-1
 8.192521621500000E9    -4.337865201193363E-1    3.211704937950613E-1   -1.615823744184518E-3   -1.882453060796971E-3   -1.756385605238637E-3   -1.869516471091200E-3   -3.325161347965465E-1    3.053975077901941E-1
