#  HZ   S   RI   R     50.00 
! Rohde & Schwarz Vector Network Analyzer 
! Rohde-Schwarz,ZNB20-2Port,1311601062101988,3.16
! Created: UTC 3/20/2024, 5:10:16 PM
! freq[Hz]                re:S11                  im:S11                  re:S21                  im:S21                  re:S12                  im:S12                  re:S22                  im:S22
 8.192833372000000E9    -4.205298013921606E-1    3.376744307310774E-1   -1.758640590437145E-3   -1.818282265548682E-3   -1.824268721523317E-3   -1.821929576743810E-3   -3.214769296142057E-1    3.190429221867235E-1
 8.192854099575000E9    -4.196363271134822E-1    3.388064101127652E-1   -1.703291151419736E-3   -1.828049547325734E-3   -1.873513358663325E-3   -1.838362457703140E-3   -3.206961871800834E-1    3.198538282814936E-1
 8.192874827150000E9    -4.187424768272371E-1    3.399051529657994E-1   -1.703470805720004E-3   -1.794076212397331E-3   -1.829499727663384E-3   -1.800273984736975E-3   -3.196997813759038E-1    3.204992468681500E-1
 8.192895554725000E9    -4.176817026009739E-1    3.411047933052156E-1   -1.718364149222868E-3   -1.801706006933998E-3   -1.832658351411603E-3   -1.808272247524099E-3   -3.189304977922501E-1    3.212521362475478E-1
 8.192916282300000E9    -4.168383670646693E-1    3.421541514767203E-1   -1.729866003810944E-3   -1.813954666450961E-3   -1.850652424115179E-3   -1.821291187744979E-3   -3.180999010501130E-1    3.220152530303137E-1
 8.192937009875000E9    -4.159376567488102E-1    3.432207596795454E-1   -1.742291836059624E-3   -1.820593275229804E-3   -1.842562542417568E-3   -1.797168872216078E-3   -3.172436997769662E-1    3.228075345902560E-1
 8.192957737450000E9    -4.148999808000801E-1    3.444483473440272E-1   -1.778196077279114E-3   -1.791036545441568E-3   -1.853084252420596E-3   -1.774139571288149E-3   -3.164404009878544E-1    3.236730332208162E-1
 8.192978465025000E9    -4.140742591535275E-1    3.455553768299571E-1   -1.776076214221618E-3   -1.787768242858659E-3   -1.833445480858666E-3   -1.771095451939552E-3   -3.154455662352613E-1    3.243958226221737E-1
 8.192999192600000E9    -4.130670971579817E-1    3.466314786463093E-1   -1.772152808275697E-3   -1.799706027860176E-3   -1.847175816768654E-3   -1.776204767875903E-3   -3.146956620438895E-1    3.253429065296242E-1
 8.193019920175000E9    -4.120011190837886E-1    3.477953738835430E-1   -1.751106136114062E-3   -1.771117505706262E-3   -1.872750668472250E-3   -1.798181808730210E-3   -3.138107804015912E-1    3.260009607758192E-1
 8.193040647750000E9    -4.111898787154019E-1    3.488749940975521E-1   -1.784940954074076E-3   -1.783461502672478E-3   -1.875006294402258E-3   -1.767405700590502E-3   -3.130002890792145E-1    3.268947618159998E-1
 8.193061375325000E9    -4.101994968436940E-1    3.498176083853787E-1   -1.775628432525045E-3   -1.767336584303534E-3   -1.903970177638359E-3   -1.780010909687224E-3   -3.121042303622752E-1    3.275921167726384E-1
 8.193082102900000E9    -4.091269022140253E-1    3.509895090852453E-1   -1.769371967659062E-3   -1.783022037360258E-3   -1.877513677250108E-3   -1.754534590457637E-3   -3.113205310774347E-1    3.284018789600359E-1
 8.193102830475000E9    -4.082421541315575E-1    3.522206718277432E-1   -1.804660466419347E-3   -1.756912177138483E-3   -1.878002502421429E-3   -1.743491839716447E-3   -3.104240330355209E-1    3.291186124788731E-1
 8.193123558050000E9    -4.072822546998132E-1    3.533148178256130E-1   -1.805531970546013E-3   -1.742422795698321E-3   -1.919327902755734E-3   -1.768217820066628E-3   -3.095702527619215E-1    3.300409148550149E-1
 8.193144285625000E9    -4.062856414000939E-1    3.544161276961557E-1   -1.807167634354034E-3   -1.721403213947632E-3   -1.910326081692418E-3   -1.717130741219749E-3   -3.086575106910115E-1    3.306640207407488E-1
 8.193165013200000E9    -4.052766268926700E-1    3.554574834435437E-1   -1.800403165055199E-3   -1.749854346010648E-3   -1.914801409404653E-3   -1.722640400838810E-3   -3.078412408189897E-1    3.314988532962702E-1
 8.193185740775000E9    -4.044235402965367E-1    3.565236272135858E-1   -1.825787006232005E-3   -1.761060725196029E-3   -1.921029466204441E-3   -1.749213442497365E-3   -3.070222598176507E-1    3.322769930039063E-1
 8.193206468350000E9    -4.033870919563816E-1    3.575985405352904E-1   -1.821406618061524E-3   -1.752213386364323E-3   -1.959954052388725E-3   -1.726398219435678E-3   -3.061134339329106E-1    3.329526824497275E-1
 8.193227195925000E9    -4.026037771768035E-1    3.587103669300094E-1   -1.840370234048860E-3   -1.742199460123729E-3   -1.968549687840938E-3   -1.722641727739474E-3   -3.051571608494403E-1    3.338393472068079E-1
 8.193247923500000E9    -4.014183658608718E-1    3.598656066530702E-1   -1.834011969717545E-3   -1.730964518471018E-3   -1.926393164571785E-3   -1.726484182046859E-3   -3.044161400303535E-1    3.344786055244569E-1
 8.193268651075000E9    -4.004519811307262E-1    3.609218519276163E-1   -1.850737983597300E-3   -1.730657705897534E-3   -1.907614365289548E-3   -1.736575671208343E-3   -3.034413638280708E-1    3.352900449673472E-1
 8.193289378650000E9    -3.995385269833767E-1    3.619049243766753E-1   -1.846684199197027E-3   -1.735109014356424E-3   -1.962998424232411E-3   -1.739642312467641E-3   -3.026403647164023E-1    3.360013301594619E-1
 8.193310106225000E9    -3.985379500248719E-1    3.630294381544114E-1   -1.841683255178480E-3   -1.716049027436399E-3   -1.967617043970035E-3   -1.706496252918570E-3   -3.016931491020428E-1    3.366669657301143E-1
 8.193330833800000E9    -3.974260569476037E-1    3.640908028765560E-1   -1.844831378517841E-3   -1.729124918259886E-3   -1.927192455090983E-3   -1.710595708324888E-3   -3.008360412497451E-1    3.375962577663901E-1
 8.193351561375000E9    -3.964803688667486E-1    3.652562142665994E-1   -1.855962620500973E-3   -1.708604212342252E-3   -1.939556757509532E-3   -1.715518997282900E-3   -2.998963526300412E-1    3.382651417681129E-1
 8.193372288950000E9    -3.954951202107090E-1    3.662094336792348E-1   -1.872206363811773E-3   -1.725287841353434E-3   -1.952285808843720E-3   -1.702828671283291E-3   -2.990543372924542E-1    3.389660919538812E-1
 8.193393016525000E9    -3.945233654663676E-1    3.672622508150381E-1   -1.866640064006735E-3   -1.704130472202908E-3   -1.956613418507760E-3   -1.679217353017507E-3   -2.982307685843019E-1    3.398575326662034E-1
 8.193413744100000E9    -3.934782740003248E-1    3.683873430963761E-1   -1.864217661710854E-3   -1.700024108190145E-3   -2.000164323270162E-3   -1.687093333469282E-3   -2.973488084712765E-1    3.405250097721401E-1
 8.193434471675000E9    -3.924725829864035E-1    3.694045225255193E-1   -1.862843065861711E-3   -1.668501074076134E-3   -1.976710091911728E-3   -1.675367852074022E-3   -2.964494104933665E-1    3.412514175286331E-1
 8.193455199250000E9    -3.912875307965494E-1    3.704013983401960E-1   -1.892452068229224E-3   -1.710763349303747E-3   -1.996815763450848E-3   -1.682920853071592E-3   -2.952856271627569E-1    3.421135860796979E-1
 8.193475926825000E9    -3.903746123776720E-1    3.714361102947686E-1   -1.871307479688399E-3   -1.687792721498577E-3   -1.997623597865737E-3   -1.647227389557883E-3   -2.946137144097365E-1    3.426655653895873E-1
 8.193496654400000E9    -3.894268639873555E-1    3.724539500557655E-1   -1.865853344794080E-3   -1.674866162210619E-3   -1.999966160857407E-3   -1.638490430723877E-3   -2.937957712501370E-1    3.433156647066735E-1
 8.193517381975000E9    -3.883697833592898E-1    3.734933344396135E-1   -1.895927001096918E-3   -1.675754788212431E-3   -2.023241916287085E-3   -1.649856716868341E-3   -2.928592089972816E-1    3.441919216792446E-1
 8.193538109550000E9    -3.873781911059501E-1    3.745973860102927E-1   -1.917425270395022E-3   -1.673317418479602E-3   -2.015696234499554E-3   -1.656076474520037E-3   -2.919600626155455E-1    3.448591489732757E-1
 8.193558837125000E9    -3.862895448703510E-1    3.756399734407438E-1   -1.920125673205961E-3   -1.688122929238413E-3   -2.011581991256710E-3   -1.635099199918716E-3   -2.910555687117009E-1    3.457248599153918E-1
 8.193579564700000E9    -3.852604719178120E-1    3.767544412924053E-1   -1.915332055516768E-3   -1.681645681475004E-3   -2.002080948779970E-3   -1.638994284107093E-3   -2.901230797326687E-1    3.464520570104891E-1
 8.193600292275000E9    -3.841775459084534E-1    3.777551770488408E-1   -1.924713160749242E-3   -1.663703599600917E-3   -2.031925080167860E-3   -1.634584193207168E-3   -2.891727687093548E-1    3.470800320780243E-1
 8.193621019850000E9    -3.831406276517408E-1    3.787830727236250E-1   -1.913494825811153E-3   -1.660685751449970E-3   -2.017308571267192E-3   -1.630356266675236E-3   -2.882450051869007E-1    3.477618169480771E-1
 8.193641747425000E9    -3.823178371314652E-1    3.798820839973462E-1   -1.938269680225054E-3   -1.639816103094247E-3   -2.032997987728317E-3   -1.647379651197811E-3   -2.871869761207053E-1    3.486049573099663E-1
 8.193662475000000E9    -3.811758004850487E-1    3.809243746034113E-1   -1.957356421574338E-3   -1.651865365061224E-3   -2.033476391100532E-3   -1.622720311334123E-3   -2.865176764170577E-1    3.491745458968080E-1
 8.193683202575000E9    -3.801171392779279E-1    3.818186753848742E-1   -1.940487580194009E-3   -1.652355423122602E-3   -2.069905308456659E-3   -1.636842019394718E-3   -2.855045046721766E-1    3.499848122668491E-1
 8.193703930150000E9    -3.790520273487163E-1    3.828170502018474E-1   -1.916847299431003E-3   -1.636285482253968E-3   -2.032163342822598E-3   -1.645379724682385E-3   -2.846989806462593E-1    3.506762700767441E-1
 8.193724657725000E9    -3.779580637251638E-1    3.840117085080649E-1   -1.927140917840343E-3   -1.621218286820465E-3   -2.064699649253134E-3   -1.589279813174296E-3   -2.835315970582881E-1    3.513266176614034E-1
 8.193745385300000E9    -3.770372707503911E-1    3.848253098132586E-1   -1.927495556997396E-3   -1.627959602181477E-3   -2.058156843991085E-3   -1.603642660441261E-3   -2.829025279892275E-1    3.520673140848153E-1
 8.193766112875000E9    -3.759256436646228E-1    3.858440777916728E-1   -1.948751112178871E-3   -1.635089055775830E-3   -2.072803312525844E-3   -1.602068569944929E-3   -2.819490455009254E-1    3.526983453771246E-1
 8.193786840450000E9    -3.749442270190337E-1    3.869043470679356E-1   -1.946990375417923E-3   -1.625683966434604E-3   -2.063773016393352E-3   -1.625513448350077E-3   -2.810074194545830E-1    3.534210633583409E-1
 8.193807568025000E9    -3.738353296881684E-1    3.878441209351113E-1   -1.983749111443416E-3   -1.613852611216858E-3   -2.049390828830693E-3   -1.594306643904638E-3   -2.801391394968534E-1    3.542161575264343E-1
 8.193828295600000E9    -3.727064104342799E-1    3.889469883076445E-1   -1.970743361303019E-3   -1.601833441542816E-3   -2.072789856605591E-3   -1.579437663469081E-3   -2.791424471032426E-1    3.548539528277007E-1
 8.193849023175000E9    -3.717359776012100E-1    3.897831999851976E-1   -1.963067995923606E-3   -1.629789711615783E-3   -2.111253802372304E-3   -1.571741553126747E-3   -2.781233100724022E-1    3.555488546321404E-1
 8.193869750750000E9    -3.706329598037267E-1    3.909115527861081E-1   -1.981055620658606E-3   -1.612350702803374E-3   -2.087586332750307E-3   -1.568347267095640E-3   -2.772723559443347E-1    3.562347512846426E-1
 8.193890478325000E9    -3.694930191760881E-1    3.919623813781106E-1   -1.976733775603610E-3   -1.627874593178749E-3   -2.114195335596812E-3   -1.549232959872088E-3   -2.762917690637875E-1    3.568993345158401E-1
 8.193911205900000E9    -3.684059368567484E-1    3.927601213468636E-1   -1.997325113674641E-3   -1.615882228349267E-3   -2.112773032823456E-3   -1.547672507316300E-3   -2.754376751131286E-1    3.576768039633744E-1
 8.193931933475000E9    -3.674663480678839E-1    3.938886091289634E-1   -1.997221952515398E-3   -1.616785931046154E-3   -2.082910537277576E-3   -1.555581730304949E-3   -2.744178786592202E-1    3.582067432052810E-1
 8.193952661050000E9    -3.663382063784674E-1    3.949467389389619E-1   -2.008015031539476E-3   -1.564085625201859E-3   -2.127642696378077E-3   -1.532299445024877E-3   -2.736249796672519E-1    3.588087969994209E-1
 8.193973388625000E9    -3.651954048013489E-1    3.957259319935956E-1   -2.006928546861226E-3   -1.575969686431969E-3   -2.133874519091660E-3   -1.535825896690138E-3   -2.725619293098209E-1    3.596134344130619E-1
 8.193994116200000E9    -3.642014264499627E-1    3.967998731325559E-1   -2.012775763828634E-3   -1.571284550472561E-3   -2.126726375578957E-3   -1.546540337767095E-3   -2.716492413682858E-1    3.602053938713435E-1
 8.194014843775000E9    -3.631574247972704E-1    3.977656752408988E-1   -2.027295214257837E-3   -1.573058650254692E-3   -2.144399582083096E-3   -1.530177045353416E-3   -2.707361900104310E-1    3.609719412957460E-1
 8.194035571350000E9    -3.619724911434643E-1    3.988658580668222E-1   -2.014267965984879E-3   -1.567146008627803E-3   -2.144621541227412E-3   -1.563478161929892E-3   -2.697667497100980E-1    3.617960191413977E-1
 8.194056298925000E9    -3.608265265471055E-1    3.996395159924725E-1   -2.002015372186916E-3   -1.557597961840772E-3   -2.150633446572183E-3   -1.527556851632140E-3   -2.688373574232801E-1    3.624357678710035E-1
 8.194077026500000E9    -3.596980207274607E-1    4.007428926976537E-1   -2.052988323353368E-3   -1.562732886710063E-3   -2.126247917809795E-3   -1.536443775777436E-3   -2.679610266995077E-1    3.630040560329686E-1
 8.194097754075000E9    -3.587712686366916E-1    4.016861920861884E-1   -2.050298001052662E-3   -1.559826896259551E-3   -2.164612613817743E-3   -1.517896752436071E-3   -2.668580361487615E-1    3.637053473003096E-1
 8.194118481650000E9    -3.575469189621227E-1    4.026698648783453E-1   -2.044611665784439E-3   -1.526399291659851E-3   -2.137475974381074E-3   -1.529478601646897E-3   -2.659367271327455E-1    3.644769702945916E-1
 8.194139209225000E9    -3.564895400268182E-1    4.036159464570937E-1   -2.024209614638410E-3   -1.535598688010302E-3   -2.154175426900861E-3   -1.459976598409553E-3   -2.650081596522889E-1    3.649413396076722E-1
 8.194159936800000E9    -3.552581008238262E-1    4.045412573540353E-1   -2.055818049643682E-3   -1.558847265402845E-3   -2.172866251281074E-3   -1.521882055339105E-3   -2.640688695893053E-1    3.657320654481199E-1
 8.194180664375000E9    -3.542474064223648E-1    4.054989310301704E-1   -2.070172029981100E-3   -1.522892431719461E-3   -2.180396701146150E-3   -1.527806481336121E-3   -2.630156198027132E-1    3.662571108927666E-1
 8.194201391950000E9    -3.531106531681378E-1    4.064274604022374E-1   -2.069743176535975E-3   -1.525553870243987E-3   -2.174229539238402E-3   -1.491401027077371E-3   -2.621097154658391E-1    3.669379112546679E-1
 8.194222119525000E9    -3.519831772208361E-1    4.075025249677576E-1   -2.085392467942281E-3   -1.532878594833246E-3   -2.187554931372166E-3   -1.485352639723664E-3   -2.611281707157615E-1    3.674596088714873E-1
 8.194242847100000E9    -3.508117555046623E-1    4.083692372691197E-1   -2.079703553086513E-3   -1.484537342638570E-3   -2.181038412435911E-3   -1.479770689072206E-3   -2.602779689891906E-1    3.683002040345845E-1
 8.194263574675000E9    -3.497916169609281E-1    4.092108958590789E-1   -2.095860730543773E-3   -1.517524439958022E-3   -2.181186099036102E-3   -1.468359735340507E-3   -2.592532414884102E-1    3.687855969225819E-1
 8.194284302250000E9    -3.486443425740359E-1    4.102191831152348E-1   -2.109064571511220E-3   -1.517574436592778E-3   -2.177985098975809E-3   -1.479255277833205E-3   -2.583330176463811E-1    3.695701793758162E-1
 8.194305029825000E9    -3.475735845326106E-1    4.110853704324539E-1   -2.113289357155007E-3   -1.506956590671504E-3   -2.220750852632459E-3   -1.446136493946526E-3   -2.574081498380312E-1    3.701424730171513E-1
 8.194325757400000E9    -3.465226548138259E-1    4.121348712138481E-1   -2.088817756652260E-3   -1.518926524117379E-3   -2.167021097701610E-3   -1.477014986198249E-3   -2.563164278904077E-1    3.707725681096800E-1
 8.194346484975000E9    -3.452755501670268E-1    4.130083712692258E-1   -2.103051658615802E-3   -1.523075299437338E-3   -2.231884376654170E-3   -1.457352526029605E-3   -2.552070800784202E-1    3.715029911737536E-1
 8.194367212550000E9    -3.441496618045515E-1    4.138754660771626E-1   -2.109594911664734E-3   -1.502592772091255E-3   -2.204871419549365E-3   -1.452186412652066E-3   -2.542555029414951E-1    3.719961788279290E-1
 8.194387940125000E9    -3.429292165273969E-1    4.147896696784008E-1   -2.105225002954069E-3   -1.473388605643552E-3   -2.201734306454022E-3   -1.450070307285742E-3   -2.534496627848183E-1    3.725824375931645E-1
 8.194408667700000E9    -3.419354305587848E-1    4.156812038720125E-1   -2.105781446645849E-3   -1.462528958769130E-3   -2.208131505212831E-3   -1.466788183352419E-3   -2.523073718820079E-1    3.733455172972872E-1
 8.194429395275000E9    -3.406432030908698E-1    4.167285416085228E-1   -2.112060414571182E-3   -1.496520006303898E-3   -2.230272163919744E-3   -1.443179422494012E-3   -2.514402802608668E-1    3.739473493785012E-1
 8.194450122850000E9    -3.395158941539670E-1    4.175911068901198E-1   -2.167185038258896E-3   -1.462164491765209E-3   -2.228239253411098E-3   -1.427514329888865E-3   -2.503366896868260E-1    3.744111223384518E-1
 8.194470850425000E9    -3.385749651422184E-1    4.184362151403115E-1   -2.145022651945621E-3   -1.458079820179601E-3   -2.225798808620184E-3   -1.428761994128494E-3   -2.494061937897054E-1    3.752131670593026E-1
 8.194491578000000E9    -3.373286404896434E-1    4.194275901227597E-1   -2.176980087766035E-3   -1.465986490922546E-3   -2.242124905996107E-3   -1.399921735633410E-3   -2.484439406096246E-1    3.757871171365040E-1
 8.194512305575000E9    -3.360962702255922E-1    4.202477106611302E-1   -2.161312229419508E-3   -1.452250170169590E-3   -2.271313606498784E-3   -1.377233429723626E-3   -2.475387470677711E-1    3.764631167888833E-1
 8.194533033150000E9    -3.350025802843611E-1    4.211520974721297E-1   -2.154942025089653E-3   -1.425713523660523E-3   -2.250262929760623E-3   -1.397694073087740E-3   -2.465602437980242E-1    3.769498665483190E-1
 8.194553760725000E9    -3.337858686828415E-1    4.221107499939422E-1   -2.161121590743206E-3   -1.453645275618575E-3   -2.233503929146141E-3   -1.392301380430925E-3   -2.454130726127049E-1    3.774507741204525E-1
 8.194574488300000E9    -3.327209186945975E-1    4.230139006893462E-1   -2.137439040786036E-3   -1.437573349559553E-3   -2.270869287788394E-3   -1.406852745152519E-3   -2.446196857940668E-1    3.783347974361626E-1
 8.194595215875000E9    -3.314390130496355E-1    4.239795378854253E-1   -2.157994961617049E-3   -1.457050006669963E-3   -2.249619280901278E-3   -1.417763332394002E-3   -2.434959099921422E-1    3.788801675427741E-1
 8.194615943450000E9    -3.303526241565496E-1    4.247090413150253E-1   -2.180771745350736E-3   -1.454020143513281E-3   -2.281682775062226E-3   -1.371595402201400E-3   -2.425203485157670E-1    3.794806792854404E-1
 8.194636671025000E9    -3.291954619044770E-1    4.255733659735869E-1   -2.189310855987307E-3   -1.419784782754805E-3   -2.274864154553421E-3   -1.405149653525586E-3   -2.416798500625741E-1    3.800190375136797E-1
 8.194657398600000E9    -3.280667373924943E-1    4.264884194252864E-1   -2.186933635238226E-3   -1.432023461191225E-3   -2.305865503824541E-3   -1.383328810457665E-3   -2.405570224848291E-1    3.806325627666481E-1
 8.194678126175000E9    -3.268077730193679E-1    4.273410665114246E-1   -2.190517667319261E-3   -1.396598757899281E-3   -2.279802390832556E-3   -1.355576527833612E-3   -2.396631926975386E-1    3.811656318852101E-1
 8.194698853750000E9    -3.256810868530284E-1    4.282510058107716E-1   -2.214929674636789E-3   -1.393203129801404E-3   -2.279609287829790E-3   -1.375710782422708E-3   -2.386256866557010E-1    3.818751286648642E-1
