#  HZ   S   RI   R     50.00 
! Rohde & Schwarz Vector Network Analyzer 
! Rohde-Schwarz,ZNB20-2Port,1311601062101988,3.16
! Created: UTC 3/20/2024, 5:10:21 PM
! freq[Hz]                re:S11                  im:S11                  re:S21                  im:S21                  re:S12                  im:S12                  re:S22                  im:S22
 8.193075532000000E9    -4.096521461293435E-1    3.506596930871587E-1   -1.773826251931072E-3   -1.785256597941964E-3   -1.889151832341563E-3   -1.810083726965628E-3   -3.114438708209376E-1    3.281688821439267E-1
 8.193095172125000E9    -4.086263677005012E-1    3.516965118318148E-1   -1.793033755090005E-3   -1.793289123527402E-3   -1.899082819378549E-3   -1.784907606964994E-3   -3.107589153875827E-1    3.290032823712001E-1
 8.193114812250000E9    -4.078403414230692E-1    3.527350531388785E-1   -1.780650948546166E-3   -1.763933084763324E-3   -1.910392384572696E-3   -1.753210276738970E-3   -3.100795312237597E-1    3.295843479308733E-1
 8.193134452375000E9    -4.068503770620491E-1    3.538075718142532E-1   -1.788593774344338E-3   -1.782511596914034E-3   -1.894603748282595E-3   -1.779198204815928E-3   -3.090185292896860E-1    3.304675555258867E-1
 8.193154092500000E9    -4.058298266037735E-1    3.549028750115471E-1   -1.813329835461290E-3   -1.747711565742531E-3   -1.915576956389477E-3   -1.751522734454070E-3   -3.080520499725906E-1    3.311221354469770E-1
 8.193173732625000E9    -4.049021942277139E-1    3.559833148424077E-1   -1.815340912552749E-3   -1.739269175162193E-3   -1.920564566714821E-3   -1.723117045841508E-3   -3.074971959673223E-1    3.318530122997040E-1
 8.193193372750000E9    -4.041423298405137E-1    3.569133520563876E-1   -1.833175280798425E-3   -1.734971101926436E-3   -1.896888406936009E-3   -1.755183710697746E-3   -3.066315985460630E-1    3.323979848159416E-1
 8.193213012875000E9    -4.031405222274595E-1    3.579758053466887E-1   -1.827374328954552E-3   -1.767968720688031E-3   -1.915797754923157E-3   -1.707521030809332E-3   -3.058403068180927E-1    3.332962730093616E-1
 8.193232653000000E9    -4.021592637136761E-1    3.590110374992769E-1   -1.839788791868782E-3   -1.745068840550159E-3   -1.932509867718884E-3   -1.716262686883407E-3   -3.049174127237326E-1    3.339605709816770E-1
 8.193252293125000E9    -4.011876983669142E-1    3.599941994017549E-1   -1.811000362458115E-3   -1.740076132756836E-3   -1.908296855918158E-3   -1.723383277680303E-3   -3.041311466027148E-1    3.349556975865155E-1
 8.193271933250000E9    -4.002578307906521E-1    3.609156208969199E-1   -1.845112087928586E-3   -1.751978080218341E-3   -1.932795081933066E-3   -1.717639747193292E-3   -3.033882758413077E-1    3.354177784267576E-1
 8.193291573375000E9    -3.994135638612869E-1    3.620391785919999E-1   -1.836478454119336E-3   -1.724608190652861E-3   -1.940931144458889E-3   -1.693417213376405E-3   -3.025022879101463E-1    3.362044193746851E-1
 8.193311213500000E9    -3.984296064047372E-1    3.631848367588500E-1   -1.814990761848524E-3   -1.753818027460362E-3   -1.915460759473355E-3   -1.717081153896704E-3   -3.016773547489210E-1    3.368950403832150E-1
 8.193330853625000E9    -3.975508390080920E-1    3.640966749113679E-1   -1.836790530613815E-3   -1.717689842122312E-3   -1.951286572870746E-3   -1.724230868964987E-3   -3.008214966998600E-1    3.374751306272183E-1
 8.193350493750000E9    -3.965824448152948E-1    3.651263595166156E-1   -1.860629869307029E-3   -1.731671384648937E-3   -1.966997543092816E-3   -1.715526686561398E-3   -3.000845165939158E-1    3.382985675414024E-1
 8.193370133875000E9    -3.955512457703926E-1    3.660570068253099E-1   -1.858126295800172E-3   -1.688596578574145E-3   -1.962295896110373E-3   -1.685448165851057E-3   -2.992002367713835E-1    3.390143324041678E-1
 8.193389774000000E9    -3.946435724420604E-1    3.671009103979748E-1   -1.866691154502984E-3   -1.722871691067277E-3   -1.964705322581035E-3   -1.687576829529459E-3   -2.983589285411890E-1    3.395213738601008E-1
 8.193409414125000E9    -3.936948055508722E-1    3.681138286168925E-1   -1.866162593060771E-3   -1.688063172993967E-3   -1.980932853917202E-3   -1.687513805927477E-3   -2.973210371583132E-1    3.404803158496164E-1
 8.193429054250000E9    -3.928483655902815E-1    3.690847699395583E-1   -1.867292625819254E-3   -1.701898000962643E-3   -1.989612256886211E-3   -1.685020200212507E-3   -2.964777056353750E-1    3.410531474745187E-1
 8.193448694375000E9    -3.917800837463136E-1    3.701125546292749E-1   -1.881204699241898E-3   -1.672943696074560E-3   -2.010767783401629E-3   -1.696647047612471E-3   -2.958285027194698E-1    3.416538278726570E-1
 8.193468334500000E9    -3.907463686361574E-1    3.711182901704795E-1   -1.894669538497905E-3   -1.712618077223671E-3   -1.985632250177496E-3   -1.676319516554768E-3   -2.949003270797701E-1    3.426521073146370E-1
 8.193487974625000E9    -3.897564104796066E-1    3.720542812888265E-1   -1.904514159416128E-3   -1.689601585747542E-3   -1.983718042630533E-3   -1.666922879198681E-3   -2.941641426079695E-1    3.430723367326610E-1
 8.193507614750000E9    -3.889825967140390E-1    3.730456324809721E-1   -1.878844547564634E-3   -1.691949023056985E-3   -2.000150470759137E-3   -1.640083993338710E-3   -2.931440089340888E-1    3.438512459169179E-1
 8.193527254875000E9    -3.879006017283760E-1    3.740835796575228E-1   -1.908794095665085E-3   -1.678395341965665E-3   -1.984885614673717E-3   -1.673377307894117E-3   -2.923766514320731E-1    3.445077808078544E-1
 8.193546895000000E9    -3.870369781745791E-1    3.751201699882620E-1   -1.907221080857068E-3   -1.684389098234556E-3   -1.995670827998387E-3   -1.658600569240188E-3   -2.915247146390010E-1    3.450890304405781E-1
 8.193566535125000E9    -3.859476082632783E-1    3.759973051203629E-1   -1.890382624740430E-3   -1.668646082463481E-3   -2.032838719214296E-3   -1.654861091022850E-3   -2.906975246055589E-1    3.458897230534805E-1
 8.193586175250000E9    -3.850266102084899E-1    3.770225732888290E-1   -1.918930107421588E-3   -1.671663542968001E-3   -2.014040056853032E-3   -1.637492392370842E-3   -2.898796885304636E-1    3.466084582206105E-1
 8.193605815375000E9    -3.840764763613728E-1    3.779884400379452E-1   -1.932296250924150E-3   -1.662834387221713E-3   -2.016133227183131E-3   -1.643509324113375E-3   -2.890861698378649E-1    3.472144300279399E-1
 8.193625455500000E9    -3.830227066954229E-1    3.789185107174488E-1   -1.937563300052869E-3   -1.670838755668582E-3   -2.042135679414740E-3   -1.646095279891126E-3   -2.880764359613538E-1    3.479655368059946E-1
 8.193645095625000E9    -3.821398954322304E-1    3.799640229448527E-1   -1.916253267422568E-3   -1.660758274430421E-3   -2.023682611529076E-3   -1.646978534340125E-3   -2.872505666927924E-1    3.486508774318713E-1
 8.193664735750000E9    -3.810151104464721E-1    3.809865340366119E-1   -1.935206831391882E-3   -1.654827963953759E-3   -2.072305664272356E-3   -1.603236864002918E-3   -2.864993049402763E-1    3.492814936358859E-1
 8.193684375875000E9    -3.800100172783725E-1    3.818841746705344E-1   -1.939934255796013E-3   -1.630627060159382E-3   -2.017389385011248E-3   -1.614946521273211E-3   -2.855233190251850E-1    3.499088063044113E-1
 8.193704016000000E9    -3.790291841994179E-1    3.828601280024864E-1   -1.941866362518320E-3   -1.662011369769243E-3   -2.039909091039043E-3   -1.617694735426100E-3   -2.846289068974995E-1    3.507396831416549E-1
 8.193723656125000E9    -3.781940958122928E-1    3.838149787145334E-1   -1.964717111262641E-3   -1.626966264215308E-3   -2.048058739642347E-3   -1.602547935452248E-3   -2.837377994854505E-1    3.512906429165125E-1
 8.193743296250000E9    -3.770617666156194E-1    3.847850385449391E-1   -1.963242968360911E-3   -1.624592325107257E-3   -2.079844217776476E-3   -1.612092616052965E-3   -2.828708322369709E-1    3.521144768230585E-1
 8.193762936375000E9    -3.760825376460842E-1    3.856408805614143E-1   -1.966159859172262E-3   -1.652804653164018E-3   -2.067363529188859E-3   -1.608735438233476E-3   -2.820551020599980E-1    3.526991656166001E-1
 8.193782576500000E9    -3.751014368097023E-1    3.866211996374514E-1   -1.974814977649560E-3   -1.611275029096692E-3   -2.091754733874760E-3   -1.585748588794383E-3   -2.810287731274481E-1    3.533604059957287E-1
 8.193802216625000E9    -3.740171532888913E-1    3.876518900469544E-1   -1.982535824535763E-3   -1.569945955851181E-3   -2.043210505300106E-3   -1.608174093637231E-3   -2.803934480716134E-1    3.541090713458392E-1
 8.193821856750000E9    -3.729955914569165E-1    3.886291221167478E-1   -1.962490661099444E-3   -1.610483692642472E-3   -2.084432426247599E-3   -1.568888221664181E-3   -2.793894310759238E-1    3.547701564501745E-1
 8.193841496875000E9    -3.719997223137549E-1    3.895420210466057E-1   -1.980546277219768E-3   -1.600346316554533E-3   -2.091865901560797E-3   -1.576560161571363E-3   -2.785824212209245E-1    3.553236919811473E-1
 8.193861137000000E9    -3.710688739833105E-1    3.905429937150482E-1   -1.987406098175815E-3   -1.596858845790459E-3   -2.080463212151570E-3   -1.574289567666704E-3   -2.776764832256450E-1    3.560502266482515E-1
 8.193880777125000E9    -3.701798763863034E-1    3.914222909968083E-1   -1.979730755878194E-3   -1.613504638114687E-3   -2.112994026402779E-3   -1.560959138918644E-3   -2.766181903528790E-1    3.566096898396612E-1
 8.193900417250000E9    -3.689827673405559E-1    3.923608246365799E-1   -2.007725856039898E-3   -1.605715345808219E-3   -2.114520551985533E-3   -1.574989876752741E-3   -2.758711344235465E-1    3.572809678827186E-1
 8.193920057375000E9    -3.679739396984925E-1    3.933284775257749E-1   -1.991152743903648E-3   -1.589151203822250E-3   -2.096998141272491E-3   -1.581078626171068E-3   -2.749033828105278E-1    3.580532230371701E-1
 8.193939697500000E9    -3.670319572240046E-1    3.942371088761392E-1   -2.004369810176687E-3   -1.603525578220576E-3   -2.100663793289703E-3   -1.556097763934970E-3   -2.740940700326813E-1    3.585868960867956E-1
 8.193959337625000E9    -3.660351547077447E-1    3.952565856352447E-1   -2.026283611080646E-3   -1.581394855676952E-3   -2.130297437768247E-3   -1.542103640348605E-3   -2.731823918167762E-1    3.592187027455724E-1
 8.193978977750000E9    -3.649265699518449E-1    3.961446018255330E-1   -2.015456744426901E-3   -1.570691676331990E-3   -2.094410998523387E-3   -1.566293927889281E-3   -2.723259571210969E-1    3.597393035300666E-1
 8.193998617875000E9    -3.639691674885280E-1    3.970511734563236E-1   -2.041817140673058E-3   -1.578029413082038E-3   -2.164333670788807E-3   -1.568353615768388E-3   -2.714974249314446E-1    3.604395218977528E-1
 8.194018258000000E9    -3.628496807396240E-1    3.979632405583314E-1   -2.031087249213680E-3   -1.564333408247743E-3   -2.112802772205753E-3   -1.523485586073022E-3   -2.705062187431393E-1    3.611052008878674E-1
 8.194037898125000E9    -3.617989702410642E-1    3.988407874094512E-1   -2.008203476161924E-3   -1.564956020333082E-3   -2.158895848783605E-3   -1.536591000398775E-3   -2.694439180492364E-1    3.618135947901976E-1
 8.194057538250000E9    -3.609027380631156E-1    3.998682181968453E-1   -2.025813611371903E-3   -1.575796679711264E-3   -2.114746651754808E-3   -1.579111546807897E-3   -2.686514125940643E-1    3.624419061159312E-1
 8.194077178375000E9    -3.597336282294643E-1    4.006359739189763E-1   -2.040769030890332E-3   -1.561912467764003E-3   -2.153127454303370E-3   -1.555802632948800E-3   -2.678132221219518E-1    3.631325951293684E-1
 8.194096818500000E9    -3.588284997831533E-1    4.015267618906319E-1   -2.047866856356610E-3   -1.551974053604923E-3   -2.167446522776014E-3   -1.510359851447714E-3   -2.669497407534041E-1    3.636485512408192E-1
 8.194116458625000E9    -3.576844750704683E-1    4.025245982219879E-1   -2.048939591434464E-3   -1.530406339684213E-3   -2.167779447812701E-3   -1.512366843787859E-3   -2.658358685540748E-1    3.643285850581742E-1
 8.194136098750000E9    -3.565816579674898E-1    4.033840005622836E-1   -2.029423616781782E-3   -1.540623959519515E-3   -2.148303406112807E-3   -1.515857154194388E-3   -2.649766170978344E-1    3.649058209649050E-1
 8.194155738875000E9    -3.556252784854027E-1    4.043989428908412E-1   -2.049802152712851E-3   -1.538414134876423E-3   -2.175348718452030E-3   -1.496833849033015E-3   -2.642941152425587E-1    3.656198649761789E-1
 8.194175379000000E9    -3.546398280432766E-1    4.052915151099130E-1   -2.081797976382996E-3   -1.557201878777606E-3   -2.163477415429330E-3   -1.512284764452894E-3   -2.632035286888699E-1    3.660929075925681E-1
 8.194195019125000E9    -3.534997960907935E-1    4.061582985766399E-1   -2.041629765211769E-3   -1.557547477940799E-3   -2.173848840454600E-3   -1.499084264524834E-3   -2.623880069559565E-1    3.666472882625054E-1
 8.194214659250000E9    -3.524316019539867E-1    4.070376190727361E-1   -2.071714192857675E-3   -1.546289229601847E-3   -2.173457074561273E-3   -1.477802621541466E-3   -2.616228217682227E-1    3.673948348286715E-1
 8.194234299375000E9    -3.515675446714451E-1    4.079600743079372E-1   -2.069289047484888E-3   -1.521524273229058E-3   -2.189962764544208E-3   -1.461974348245944E-3   -2.605392172567272E-1    3.680026590698259E-1
 8.194253939500000E9    -3.502612344378210E-1    4.087772694635758E-1   -2.087731945382809E-3   -1.547519711550688E-3   -2.198010431356254E-3   -1.489367750311831E-3   -2.596389763130678E-1    3.685236315719778E-1
 8.194273579625000E9    -3.492713665564894E-1    4.096778339019513E-1   -2.067088490116881E-3   -1.524507672426392E-3   -2.178888464324570E-3   -1.498904322445667E-3   -2.587163121323973E-1    3.693401655571817E-1
 8.194293219750000E9    -3.481964529336561E-1    4.105533651751273E-1   -2.087446747439939E-3   -1.495873776888226E-3   -2.172252049074264E-3   -1.450861869081972E-3   -2.578085959107200E-1    3.698275152926981E-1
 8.194312859875000E9    -3.472515589156401E-1    4.115071906960617E-1   -2.100122294591885E-3   -1.529458281910816E-3   -2.189331656616450E-3   -1.465569983892395E-3   -2.568771406642075E-1    3.704670698534303E-1
 8.194332500000000E9    -3.462042966733121E-1    4.122876334056337E-1   -2.107299511962013E-3   -1.534175663036749E-3   -2.216948512998609E-3   -1.466472950183195E-3   -2.561056308540868E-1    3.709927467862372E-1
 8.194352140125000E9    -3.451323416176040E-1    4.131885389511625E-1   -2.125369122795008E-3   -1.471158692736025E-3   -2.194917655212779E-3   -1.439345883034404E-3   -2.550087037043497E-1    3.713732966563860E-1
 8.194371780250000E9    -3.439412584288105E-1    4.140802599167486E-1   -2.111938959389206E-3   -1.505059509151527E-3   -2.201692155404234E-3   -1.465797329643771E-3   -2.541027821919908E-1    3.721919237321871E-1
 8.194391420375000E9    -3.429497453284777E-1    4.149422519658991E-1   -2.131122774536507E-3   -1.496852912875517E-3   -2.233151178509737E-3   -1.433459688594995E-3   -2.531131086417983E-1    3.727463064182546E-1
 8.194411060500000E9    -3.419158169558725E-1    4.158453070527143E-1   -2.105729588203504E-3   -1.488774699039341E-3   -2.214918972871722E-3   -1.448450918383187E-3   -2.522416300987814E-1    3.733265612343590E-1
 8.194430700625000E9    -3.407122003140710E-1    4.168140418315254E-1   -2.112893254301897E-3   -1.484769210341146E-3   -2.205298890569952E-3   -1.454245398114197E-3   -2.513243196677886E-1    3.739677013938778E-1
 8.194450340750000E9    -3.396022726980960E-1    4.176216066692429E-1   -2.139202157717381E-3   -1.475734957587189E-3   -2.223564324344209E-3   -1.451537367284210E-3   -2.505915980106946E-1    3.745532587661015E-1
 8.194469980875000E9    -3.385740659486121E-1    4.184413044268382E-1   -2.145252993363847E-3   -1.437964002445785E-3   -2.251650926905777E-3   -1.420638425207204E-3   -2.494406495644287E-1    3.752073816945856E-1
 8.194489621000000E9    -3.372087970850259E-1    4.194358677381208E-1   -2.152526765118978E-3   -1.462535779709887E-3   -2.252439330086964E-3   -1.411854977868257E-3   -2.485302914393918E-1    3.755976191384384E-1
 8.194509261125000E9    -3.363914112497425E-1    4.201218172490065E-1   -2.141792139014959E-3   -1.458888427505706E-3   -2.214376824335896E-3   -1.452272722965371E-3   -2.477118081589914E-1    3.763535365909206E-1
 8.194528901250000E9    -3.352486287375051E-1    4.209692152067752E-1   -2.141930883397728E-3   -1.443489184054086E-3   -2.261338988810082E-3   -1.415450861029766E-3   -2.467821672584068E-1    3.769176959067364E-1
 8.194548541375000E9    -3.342403143627662E-1    4.218805747362421E-1   -2.162284472390800E-3   -1.445081614993437E-3   -2.249807243364952E-3   -1.403683257081531E-3   -2.457365648822430E-1    3.775892270603759E-1
 8.194568181500000E9    -3.331792596508949E-1    4.227570047531878E-1   -2.168367082593134E-3   -1.427983744966201E-3   -2.277513026728119E-3   -1.414949769477751E-3   -2.448067970560237E-1    3.781132432329320E-1
 8.194587821625000E9    -3.318856212873342E-1    4.236519120192116E-1   -2.135777647734931E-3   -1.439323129600842E-3   -2.272755632616300E-3   -1.393203874613939E-3   -2.438409091596854E-1    3.786628164041730E-1
 8.194607461750000E9    -3.309373548626594E-1    4.244213877568154E-1   -2.167996892436436E-3   -1.420400519611114E-3   -2.258858784887372E-3   -1.391879865789148E-3   -2.429639724218005E-1    3.791949563113780E-1
 8.194627101875000E9    -3.297079198630933E-1    4.252554963220040E-1   -2.162150191731973E-3   -1.433902420290808E-3   -2.265093722314421E-3   -1.390171157502199E-3   -2.419264892701914E-1    3.797561249627627E-1
 8.194646742000000E9    -3.287942161812731E-1    4.260803254075952E-1   -2.190661751767866E-3   -1.437270534513668E-3   -2.291371783773834E-3   -1.382122873007989E-3   -2.410163866357156E-1    3.802880521084446E-1
 8.194666382125000E9    -3.275816702355168E-1    4.270558339877150E-1   -2.151997898808816E-3   -1.413880787538093E-3   -2.293305386088810E-3   -1.379015092181630E-3   -2.401047668107910E-1    3.809614940781772E-1
 8.194686022250000E9    -3.264596645079101E-1    4.277856022126471E-1   -2.219108624891535E-3   -1.418069851685111E-3   -2.255080522115239E-3   -1.377615400600316E-3   -2.390658928358783E-1    3.814888089074920E-1
 8.194705662375000E9    -3.253193831983801E-1    4.285636246725333E-1   -2.186377742027032E-3   -1.398445606916488E-3   -2.275582686025947E-3   -1.349152351599382E-3   -2.383026662995055E-1    3.819944027664317E-1
 8.194725302500000E9    -3.242508290489379E-1    4.294531020955332E-1   -2.208480651598102E-3   -1.394404681832917E-3   -2.312762197463216E-3   -1.337366637153825E-3   -2.372180434073313E-1    3.826132755687370E-1
 8.194744942625000E9    -3.231497688788899E-1    4.303358041733852E-1   -2.202293708166524E-3   -1.406725423198476E-3   -2.299638722605927E-3   -1.347723304447106E-3   -2.363525379366034E-1    3.831058521990119E-1
 8.194764582750000E9    -3.220131720754466E-1    4.309059592846926E-1   -2.195841390328544E-3   -1.407211043551318E-3   -2.306917735712540E-3   -1.373102485535064E-3   -2.352723434964756E-1    3.837516781176213E-1
 8.194784222875000E9    -3.209507230392746E-1    4.320057088870408E-1   -2.205955320025451E-3   -1.399609399602894E-3   -2.302154319860774E-3   -1.336459462640814E-3   -2.344160844508715E-1    3.842523373885344E-1
 8.194803863000000E9    -3.197432485253957E-1    4.327064376001508E-1   -2.233884518971969E-3   -1.381138675178167E-3   -2.307527763005606E-3   -1.348204574073079E-3   -2.334078721683385E-1    3.847295995335725E-1
 8.194823503125000E9    -3.185254848973728E-1    4.334942413081015E-1   -2.224575553899903E-3   -1.366503778165707E-3   -2.328850503392277E-3   -1.345891653968930E-3   -2.324999177286039E-1    3.853277834138923E-1
 8.194843143250000E9    -3.174274626552421E-1    4.341995441318031E-1   -2.211327343647662E-3   -1.386569011442235E-3   -2.307576944010608E-3   -1.350065478777411E-3   -2.315227694833523E-1    3.859190435478998E-1
