#  HZ   S   RI   R     50.00 
! Rohde & Schwarz Vector Network Analyzer 
! Rohde-Schwarz,ZNB20-2Port,1311601062101988,3.16
! Created: UTC 3/20/2024, 4:55:12 PM
! freq[Hz]                re:S11                  im:S11                  re:S21                  im:S21                  re:S12                  im:S12                  re:S22                  im:S22
 8.189328335000000E9    -5.279874443037958E-1    1.195088074079309E-1   -7.373292199421014E-4   -2.267154270518459E-3   -8.418744527754360E-4   -2.335484136778055E-3   -4.273360567084742E-1    1.572744267703113E-1
 8.189364495425000E9    -5.273584552831720E-1    1.219389504611311E-1   -7.459502227861720E-4   -2.240898238009482E-3   -7.948345729810459E-4   -2.315932151515987E-3   -4.265515299744695E-1    1.591891136624251E-1
 8.189400655850000E9    -5.267691628058355E-1    1.244954803486432E-1   -7.759599499764273E-4   -2.264745294029430E-3   -8.347943543301222E-4   -2.323873222888173E-3   -4.258651392911423E-1    1.608747263724930E-1
 8.189436816275000E9    -5.260175497576807E-1    1.269409541744882E-1   -7.412779007761212E-4   -2.254904302998191E-3   -8.093096693136104E-4   -2.321103282451307E-3   -4.252364020347874E-1    1.626903866586261E-1
 8.189472976700000E9    -5.255700255800874E-1    1.293092787666760E-1   -7.758511177992405E-4   -2.264585191297696E-3   -8.640970831058480E-4   -2.333620050764487E-3   -4.243973494400058E-1    1.645140910319022E-1
 8.189509137125000E9    -5.249412154540448E-1    1.319144611126217E-1   -7.828568802178386E-4   -2.269716272721055E-3   -8.657029906915426E-4   -2.336008182077782E-3   -4.236587280265263E-1    1.665863616196213E-1
 8.189545297550000E9    -5.242092631902482E-1    1.344556876341423E-1   -7.974991029566074E-4   -2.261567333564544E-3   -8.750935602503477E-4   -2.309305799943458E-3   -4.228414977228320E-1    1.682378157885465E-1
 8.189581457975000E9    -5.235376144992638E-1    1.366892951891646E-1   -8.224190742937854E-4   -2.268582679368216E-3   -8.754024920842613E-4   -2.323588343098902E-3   -4.220901653954438E-1    1.701705914083420E-1
 8.189617618400000E9    -5.230656846515106E-1    1.391997308433551E-1   -8.460795243624757E-4   -2.272558856331056E-3   -9.167809134886654E-4   -2.311962298184089E-3   -4.212915230584682E-1    1.719356964405992E-1
 8.189653778825000E9    -5.222236061211379E-1    1.415683646343866E-1   -8.191705270369604E-4   -2.255312612267618E-3   -9.300305157046688E-4   -2.332675683208145E-3   -4.204284104275404E-1    1.737057217455648E-1
 8.189689939250000E9    -5.217070776755264E-1    1.441114616458715E-1   -8.279212055220625E-4   -2.224370901328315E-3   -9.187277903060862E-4   -2.306083464859027E-3   -4.196953334924349E-1    1.756262640894715E-1
 8.189726099675000E9    -5.209859441318637E-1    1.465569831532587E-1   -8.642366843656467E-4   -2.269671457600119E-3   -9.515258002431076E-4   -2.283579878775535E-3   -4.188684760241870E-1    1.775105847611241E-1
 8.189762260100000E9    -5.201648273574859E-1    1.491237813686387E-1   -8.575118551427699E-4   -2.239756702384752E-3   -9.688771924193286E-4   -2.268993868745877E-3   -4.180237106742680E-1    1.794450291685586E-1
 8.189798420525000E9    -5.194009926115488E-1    1.514361733635054E-1   -8.686357255560083E-4   -2.228268317875511E-3   -9.541857423943981E-4   -2.306550320206682E-3   -4.172849556636136E-1    1.810556887359188E-1
 8.189834580950000E9    -5.187331875813921E-1    1.539224850625662E-1   -8.991917765432333E-4   -2.220196533960736E-3   -9.971512488091009E-4   -2.260772646179794E-3   -4.163190914109664E-1    1.830604728867394E-1
 8.189870741375000E9    -5.180126963134770E-1    1.562782474211860E-1   -9.085539886845858E-4   -2.227327729094519E-3   -1.000123658923252E-3   -2.275172688855054E-3   -4.154628006553805E-1    1.848310028273744E-1
 8.189906901800000E9    -5.172339075796729E-1    1.587609012031202E-1   -9.169753895912245E-4   -2.226065881403069E-3   -9.745281160178430E-4   -2.273940664794578E-3   -4.145880029781089E-1    1.864924044251372E-1
 8.189943062225000E9    -5.165182726349290E-1    1.611541985517494E-1   -9.361197189413618E-4   -2.235503438087952E-3   -1.005044348951034E-3   -2.255446904770938E-3   -4.136354194294320E-1    1.884231589975122E-1
 8.189979222650000E9    -5.157869090698370E-1    1.635032168645618E-1   -9.290693481231962E-4   -2.182893719838263E-3   -1.017624972101117E-3   -2.271961868163432E-3   -4.129929504838961E-1    1.901772755242141E-1
 8.190015383075000E9    -5.149482619847052E-1    1.660415331651914E-1   -9.398341305456915E-4   -2.224683219072132E-3   -1.032630840117447E-3   -2.226681810275351E-3   -4.121433956737685E-1    1.920674208558958E-1
 8.190051543500000E9    -5.143313915735287E-1    1.683419138392827E-1   -9.350494613132939E-4   -2.201728054271690E-3   -1.010763025558366E-3   -2.249432863465393E-3   -4.111602789920849E-1    1.939163793625225E-1
 8.190087703925000E9    -5.132515643376310E-1    1.707794419666560E-1   -9.649545844449679E-4   -2.209025767950322E-3   -1.050238958495366E-3   -2.252846848212303E-3   -4.102697543435200E-1    1.956342657627616E-1
 8.190123864350000E9    -5.124085749851369E-1    1.732454777708774E-1   -9.792723477060074E-4   -2.197478998727186E-3   -1.031823025724278E-3   -2.281607966736079E-3   -4.092928005783298E-1    1.975769099719984E-1
 8.190160024775000E9    -5.116828207434656E-1    1.756138664513232E-1   -9.708422741352302E-4   -2.199160735796665E-3   -1.064947440468028E-3   -2.232605804525071E-3   -4.083998586531737E-1    1.990901845234782E-1
 8.190196185200000E9    -5.107212606278740E-1    1.778255752052186E-1   -1.002448100723392E-3   -2.218595453087788E-3   -1.065230548821108E-3   -2.243440199726407E-3   -4.075961132066940E-1    2.009715314105267E-1
 8.190232345625000E9    -5.099165256775389E-1    1.802920492532471E-1   -1.001833645539613E-3   -2.175730893236420E-3   -1.067346701408075E-3   -2.218287913276855E-3   -4.067850546996712E-1    2.026923664338859E-1
 8.190268506050000E9    -5.090902784950995E-1    1.826296306441283E-1   -1.001104174816403E-3   -2.185886130678862E-3   -1.094230086514515E-3   -2.268412208239538E-3   -4.054892296813520E-1    2.045319813238141E-1
 8.190304666475000E9    -5.082433204516528E-1    1.850712346255478E-1   -1.021356812978546E-3   -2.196198756036901E-3   -1.099807925783681E-3   -2.241517350127871E-3   -4.048166032310966E-1    2.062448936478434E-1
 8.190340826900000E9    -5.072143909824512E-1    1.874717390855212E-1   -1.071288401389587E-3   -2.179972651441757E-3   -1.137816412361088E-3   -2.212051792638205E-3   -4.038015212525503E-1    2.079684749854809E-1
 8.190376987325000E9    -5.063828856612258E-1    1.899303008922150E-1   -1.051850615886085E-3   -2.169233406695223E-3   -1.137007403803382E-3   -2.220382270379730E-3   -4.029228885171136E-1    2.098254171407735E-1
 8.190413147750000E9    -5.056183136434678E-1    1.921629686432452E-1   -1.075790577452921E-3   -2.181915266856648E-3   -1.172078435433032E-3   -2.243597025047483E-3   -4.018414878281274E-1    2.116298124718483E-1
 8.190449308175000E9    -5.046573262817566E-1    1.945958938693370E-1   -1.080927676784493E-3   -2.180904778225652E-3   -1.144672384226542E-3   -2.210743930243244E-3   -4.009974315042292E-1    2.131842983127634E-1
 8.190485468600000E9    -5.035722445376927E-1    1.969606995380418E-1   -1.098193895182360E-3   -2.191447983747169E-3   -1.172696192074107E-3   -2.227611457171069E-3   -3.998626941248135E-1    2.149737804965065E-1
 8.190521629025000E9    -5.027900031422500E-1    1.992636027079692E-1   -1.092084657211749E-3   -2.170031309219343E-3   -1.150330929273220E-3   -2.201685615537400E-3   -3.989058661727690E-1    2.168302228441283E-1
 8.190557789450000E9    -5.016989700696975E-1    2.015763973121591E-1   -1.111277677519671E-3   -2.168648822925598E-3   -1.186988158643506E-3   -2.184182987350987E-3   -3.977673302498541E-1    2.186356629929110E-1
 8.190593949875000E9    -5.008501328495266E-1    2.037645820646757E-1   -1.068610398250316E-3   -2.131730462610729E-3   -1.168219841311924E-3   -2.209252581883780E-3   -3.968768258725913E-1    2.201983876358517E-1
 8.190630110300000E9    -4.998111287573999E-1    2.063568493495762E-1   -1.112121927182437E-3   -2.170752260638146E-3   -1.195501307498468E-3   -2.185858812233312E-3   -3.958592947778660E-1    2.219383470895729E-1
 8.190666270725000E9    -4.987725452603242E-1    2.086364733034353E-1   -1.143622990481320E-3   -2.132374500263092E-3   -1.221226771960283E-3   -2.223370436474570E-3   -3.947087342647086E-1    2.236964297324797E-1
 8.190702431150000E9    -4.977597927900270E-1    2.110632796692739E-1   -1.147852251443592E-3   -2.165059282023486E-3   -1.240388925676663E-3   -2.158256123479136E-3   -3.939759992782159E-1    2.253996430688856E-1
 8.190738591575000E9    -4.968120725929921E-1    2.131628059492610E-1   -1.111888452519750E-3   -2.157890471115650E-3   -1.239096959225620E-3   -2.169628660260941E-3   -3.927851536076780E-1    2.272125511864024E-1
 8.190774752000000E9    -4.957958651453973E-1    2.155006508907835E-1   -1.145017764991839E-3   -2.130078918571599E-3   -1.257018388403276E-3   -2.126137031283406E-3   -3.916756344291522E-1    2.288407556062135E-1
 8.190810912425000E9    -4.947240376349057E-1    2.178838249478464E-1   -1.170023089801348E-3   -2.133235848195325E-3   -1.250035241543998E-3   -2.158890463542781E-3   -3.908067280938297E-1    2.305679754393943E-1
 8.190847072850000E9    -4.936785660844873E-1    2.203184622910241E-1   -1.178746979400972E-3   -2.098362357995851E-3   -1.253917855078619E-3   -2.166471041323394E-3   -3.895757897993849E-1    2.322342825041004E-1
 8.190883233275000E9    -4.926235336261984E-1    2.227218740248383E-1   -1.199770535180709E-3   -2.108672481184715E-3   -1.272877300885601E-3   -2.177132100724872E-3   -3.885965814924019E-1    2.338559515449170E-1
 8.190919393700000E9    -4.915132689553245E-1    2.248351109132825E-1   -1.189864398708153E-3   -2.091732594914391E-3   -1.308875007225626E-3   -2.166134985484900E-3   -3.876469653291107E-1    2.357351857827972E-1
 8.190955554125000E9    -4.904559366403402E-1    2.270385758856305E-1   -1.207418987466144E-3   -2.079015499075988E-3   -1.305886868063869E-3   -2.144859860874421E-3   -3.863351130981116E-1    2.374909067123445E-1
 8.190991714550000E9    -4.893732741335679E-1    2.295408564248647E-1   -1.225000374375657E-3   -2.069271366181118E-3   -1.317056455413436E-3   -2.156433403879394E-3   -3.853636609040392E-1    2.391196001052516E-1
 8.191027874975000E9    -4.882976771716728E-1    2.317184731800201E-1   -1.219809290595668E-3   -2.105134911335647E-3   -1.331820688739415E-3   -2.148760898376261E-3   -3.842198518037501E-1    2.407374837207140E-1
 8.191064035400000E9    -4.871387859866230E-1    2.339901805941533E-1   -1.261137838589624E-3   -2.113287064493972E-3   -1.367585314777186E-3   -2.133214952815607E-3   -3.830851179452083E-1    2.423947043130250E-1
 8.191100195825000E9    -4.860519353113538E-1    2.362965205088852E-1   -1.257460236787334E-3   -2.091145449634976E-3   -1.356919920159399E-3   -2.105969742066771E-3   -3.820588349719916E-1    2.440097495271334E-1
 8.191136356250000E9    -4.849429285838500E-1    2.386705027812857E-1   -1.252746902086576E-3   -2.100958847382931E-3   -1.343819689908666E-3   -2.108051158375916E-3   -3.808823285717464E-1    2.456715899718173E-1
 8.191172516675000E9    -4.837391430679640E-1    2.407959671457053E-1   -1.267538381232104E-3   -2.082573918722042E-3   -1.367418036381771E-3   -2.096460444867458E-3   -3.797795640767841E-1    2.473802485984889E-1
 8.191208677100000E9    -4.825959931196633E-1    2.429878839316301E-1   -1.290949989792422E-3   -2.065726353375783E-3   -1.367404414275030E-3   -2.109074805070727E-3   -3.785713524108698E-1    2.490033587572905E-1
 8.191244837525000E9    -4.814027277719877E-1    2.452488608870310E-1   -1.265085795555894E-3   -2.077942685559983E-3   -1.396714108276175E-3   -2.108436362796447E-3   -3.774063269343359E-1    2.507372056384071E-1
 8.191280997950000E9    -4.803530741223916E-1    2.476514171164131E-1   -1.307243114820254E-3   -2.069278850579091E-3   -1.366484688417815E-3   -2.082828215696775E-3   -3.763481482142795E-1    2.524313930118458E-1
 8.191317158375000E9    -4.791996393197765E-1    2.499050041216201E-1   -1.315972416624918E-3   -2.081593181963594E-3   -1.395716286792215E-3   -2.065238993058449E-3   -3.751696720981031E-1    2.539285621436232E-1
 8.191353318800000E9    -4.779300797627443E-1    2.521648107122429E-1   -1.324752947520802E-3   -2.063491383914835E-3   -1.444953024874569E-3   -2.112720942031740E-3   -3.739945295474947E-1    2.556716196019875E-1
 8.191389479225000E9    -4.767337950751463E-1    2.543466536493356E-1   -1.324435676285888E-3   -2.062055828140100E-3   -1.449536948286518E-3   -2.090922427600413E-3   -3.729039233638188E-1    2.572161828289748E-1
 8.191425639650000E9    -4.755590822138008E-1    2.566090116292751E-1   -1.337987246127661E-3   -2.015979025481812E-3   -1.441392844905677E-3   -2.057616059589127E-3   -3.715937503208102E-1    2.588474579440964E-1
 8.191461800075000E9    -4.742681185138226E-1    2.587651026733818E-1   -1.340535094895709E-3   -2.062910008315362E-3   -1.451829269790146E-3   -2.072641252707116E-3   -3.703914112693057E-1    2.605553135799204E-1
 8.191497960500000E9    -4.730431317694318E-1    2.609222320022758E-1   -1.357661782827320E-3   -2.029843631200864E-3   -1.449620792077939E-3   -2.023854430961362E-3   -3.690869863864730E-1    2.620767224822279E-1
 8.191534120925000E9    -4.717755710932052E-1    2.633128280339775E-1   -1.351898194100481E-3   -2.016781907890864E-3   -1.493797942482333E-3   -2.038588603097000E-3   -3.680218262468971E-1    2.635855973583654E-1
 8.191570281350000E9    -4.705757078393241E-1    2.653981692949274E-1   -1.362463143793756E-3   -2.045997231820387E-3   -1.470870670036802E-3   -2.048379928267319E-3   -3.668656792732041E-1    2.653147403934499E-1
 8.191606441775000E9    -4.691844533789912E-1    2.675760369903172E-1   -1.386468551047658E-3   -2.027014894294915E-3   -1.495813604158149E-3   -2.052730670379113E-3   -3.654316604604722E-1    2.669043482414729E-1
 8.191642602200000E9    -4.680540941641553E-1    2.698242689709701E-1   -1.397295978646792E-3   -2.037804556532673E-3   -1.508911489086298E-3   -2.064988302187299E-3   -3.644285469876971E-1    2.684992430712437E-1
 8.191678762625000E9    -4.667073937118082E-1    2.718928996103069E-1   -1.420528521713176E-3   -2.022149297332948E-3   -1.535146424348815E-3   -2.026401031668861E-3   -3.632576026192132E-1    2.699913596040524E-1
 8.191714923050000E9    -4.652689143774401E-1    2.741316018260605E-1   -1.426869790957407E-3   -2.013454070237720E-3   -1.524790179851743E-3   -2.016098926602649E-3   -3.618934632525674E-1    2.717151809690355E-1
 8.191751083475000E9    -4.641393879266272E-1    2.763285821907528E-1   -1.432595474251301E-3   -1.993353320390980E-3   -1.521846855764927E-3   -2.033638964789030E-3   -3.605805894168364E-1    2.732430190556580E-1
 8.191787243900000E9    -4.627013533235749E-1    2.784573061813756E-1   -1.432272895764323E-3   -1.989484118827351E-3   -1.558365669467776E-3   -2.035119744186712E-3   -3.593909659480561E-1    2.748411262957326E-1
 8.191823404325000E9    -4.614992754394500E-1    2.806604583327941E-1   -1.418137193592472E-3   -1.976242849468381E-3   -1.571077852997168E-3   -2.026423318830216E-3   -3.581918296231645E-1    2.763241590903912E-1
 8.191859564750000E9    -4.600483467980552E-1    2.827295007087076E-1   -1.462238322539146E-3   -1.982029767873722E-3   -1.544790386463408E-3   -2.002832086994690E-3   -3.568587127851254E-1    2.778422942458791E-1
 8.191895725175000E9    -4.587064235820596E-1    2.850243851914142E-1   -1.448892091845130E-3   -1.987848252329745E-3   -1.584660649952188E-3   -1.988322677971133E-3   -3.556332210418183E-1    2.793900171201897E-1
 8.191931885600000E9    -4.573393185771371E-1    2.870764910273039E-1   -1.493391500674599E-3   -1.974739407903871E-3   -1.551999917928271E-3   -1.963640781958399E-3   -3.542764787973369E-1    2.810056583579611E-1
 8.191968046025000E9    -4.559906582178443E-1    2.893035134704329E-1   -1.498187011087006E-3   -1.971606050629948E-3   -1.587977621005262E-3   -2.017145243127798E-3   -3.529787123960280E-1    2.825306229030513E-1
 8.192004206450000E9    -4.545921997557605E-1    2.914235798114545E-1   -1.513173708917215E-3   -1.977256260741228E-3   -1.608309271471351E-3   -1.942821232052997E-3   -3.516773096970139E-1    2.840083677812259E-1
 8.192040366875000E9    -4.531938014936667E-1    2.935038516088631E-1   -1.509052678726211E-3   -1.982871965216005E-3   -1.596171585786680E-3   -1.992974828489811E-3   -3.503639070970602E-1    2.856024923267883E-1
 8.192076527300000E9    -4.518193905524871E-1    2.956902880519430E-1   -1.527209525064027E-3   -1.939640411563896E-3   -1.619119491695411E-3   -1.976362263096350E-3   -3.490991911612116E-1    2.871204302879477E-1
 8.192112687725000E9    -4.502885302516010E-1    2.978922735683740E-1   -1.538025451258057E-3   -1.943267529133553E-3   -1.646708516128382E-3   -1.954805855037695E-3   -3.478972263235787E-1    2.886956883802355E-1
 8.192148848150000E9    -4.488473092716244E-1    2.999733849667253E-1   -1.529793248192860E-3   -1.952158798477697E-3   -1.650466736541445E-3   -1.944378589619966E-3   -3.465218280536205E-1    2.901553561613168E-1
 8.192185008575000E9    -4.474427151153794E-1    3.019258043415149E-1   -1.571181948781509E-3   -1.914396214750804E-3   -1.646540165114427E-3   -1.963001795808243E-3   -3.450391702780294E-1    2.916500616068730E-1
 8.192221169000000E9    -4.460690233296468E-1    3.039992322707251E-1   -1.580559911443144E-3   -1.918047902671909E-3   -1.661303563583656E-3   -1.945840974546316E-3   -3.437315684811367E-1    2.932321353910484E-1
 8.192257329425000E9    -4.446199853669104E-1    3.061435958036404E-1   -1.591627599739251E-3   -1.927441113716140E-3   -1.661586654246407E-3   -1.949986928927141E-3   -3.425134381187018E-1    2.947134085527772E-1
 8.192293489850000E9    -4.431421622287717E-1    3.082040570045335E-1   -1.587343365240532E-3   -1.894317906640406E-3   -1.719921722896920E-3   -1.929431172895646E-3   -3.413212016724839E-1    2.960239293090072E-1
 8.192329650275000E9    -4.417033037885507E-1    3.102237202999595E-1   -1.567440345921504E-3   -1.919410983156060E-3   -1.700505141469246E-3   -1.893926544144905E-3   -3.398861373004929E-1    2.976084217915362E-1
 8.192365810700000E9    -4.401502199110817E-1    3.124192843371066E-1   -1.603483262199561E-3   -1.924769958462537E-3   -1.683854632508407E-3   -1.904036701148744E-3   -3.383240186207292E-1    2.991416882131376E-1
 8.192401971125000E9    -4.387103038190279E-1    3.144204608796974E-1   -1.613271814921850E-3   -1.874926041377599E-3   -1.722130044153322E-3   -1.886258386959793E-3   -3.371210631203417E-1    3.007020001286158E-1
 8.192438131550000E9    -4.371642801632508E-1    3.165229884217425E-1   -1.642236279069194E-3   -1.904294876099397E-3   -1.758447235961245E-3   -1.899869248967458E-3   -3.355953899437470E-1    3.020107552363434E-1
 8.192474291975000E9    -4.357308842314300E-1    3.186239963935140E-1   -1.630847599684445E-3   -1.895755655380246E-3   -1.748705098737581E-3   -1.879368445400935E-3   -3.343854591980032E-1    3.035642903645989E-1
 8.192510452400000E9    -4.341729349852370E-1    3.205743687118889E-1   -1.626589389002092E-3   -1.876510514229708E-3   -1.720244527654902E-3   -1.872447113989557E-3   -3.328873194088370E-1    3.050118300466786E-1
 8.192546612825000E9    -4.326866164892119E-1    3.226517943935924E-1   -1.629242058035550E-3   -1.863014989204218E-3   -1.771224849485710E-3   -1.861991352384865E-3   -3.316207422107954E-1    3.064471592300698E-1
 8.192582773250000E9    -4.310726461732223E-1    3.245801720842040E-1   -1.645574839749303E-3   -1.865758653543839E-3   -1.788934330004213E-3   -1.854807893730324E-3   -3.301884040881067E-1    3.076873767217668E-1
