#  HZ   S   RI   R     50.00 
! Rohde & Schwarz Vector Network Analyzer 
! Rohde-Schwarz,ZNB20-2Port,1311601062101988,3.16
! Created: UTC 3/20/2024, 4:55:22 PM
! freq[Hz]                re:S11                  im:S11                  re:S21                  im:S21                  re:S12                  im:S12                  re:S22                  im:S22
 8.188722819000000E9    -5.358275486000506E-1    7.773927528748253E-2   -5.548152929969494E-4   -2.303564793113406E-3   -6.070713227292128E-4   -2.374974944667651E-3   -4.385921502723260E-1    1.254964881793363E-1
 8.188761703350000E9    -5.355265597789052E-1    8.049100181194449E-2   -5.717490406161259E-4   -2.304662437328981E-3   -6.257770019112023E-4   -2.374837027580748E-3   -4.377108228803205E-1    1.274386581828314E-1
 8.188800587700000E9    -5.350571532033513E-1    8.332648624502029E-2   -5.785995802492186E-4   -2.274693950266405E-3   -6.573508637021982E-4   -2.362278235864281E-3   -4.372515625261273E-1    1.296850667904434E-1
 8.188839472050000E9    -5.346485378449045E-1    8.586232649288612E-2   -5.855896250178112E-4   -2.306551510142374E-3   -6.644199466897471E-4   -2.338512377277802E-3   -4.364131628413190E-1    1.316132684319460E-1
 8.188878356400000E9    -5.341943477155536E-1    8.867471238094589E-2   -6.147215723608829E-4   -2.275752614956053E-3   -6.793857249882247E-4   -2.393303770260865E-3   -4.358977725996307E-1    1.336606962504333E-1
 8.188917240750000E9    -5.336882442158153E-1    9.141027635433499E-2   -6.058197538399969E-4   -2.288051391248702E-3   -6.877422948968087E-4   -2.367245068762872E-3   -4.351553076465536E-1    1.356439762668908E-1
 8.188956125100000E9    -5.333060910391096E-1    9.404482823583374E-2   -6.375980583351542E-4   -2.276418489557288E-3   -6.933132380181808E-4   -2.347535011201431E-3   -4.344682246725466E-1    1.378014610099964E-1
 8.188995009450000E9    -5.327926703487016E-1    9.663010754200851E-2   -6.183340707874134E-4   -2.280840088513915E-3   -7.413489278079477E-4   -2.350080116803091E-3   -4.337729933312925E-1    1.398474580599657E-1
 8.189033893800000E9    -5.322836930527762E-1    9.934712212235440E-2   -6.482967573955672E-4   -2.287498108315479E-3   -7.339446700729570E-4   -2.345370369089090E-3   -4.330395972560384E-1    1.417639532580292E-1
 8.189072778150000E9    -5.317169202045720E-1    1.019968664638012E-1   -6.679060461931357E-4   -2.293180185406608E-3   -7.226365768120953E-4   -2.349983279740218E-3   -4.322925622345807E-1    1.438536853160583E-1
 8.189111662500000E9    -5.310934433663291E-1    1.047854537464235E-1   -6.729687532806932E-4   -2.266339452721928E-3   -7.499794697669103E-4   -2.341473713310351E-3   -4.315656993256495E-1    1.458692655113020E-1
 8.189150546850000E9    -5.305887412544413E-1    1.074079698019866E-1   -6.747296276602287E-4   -2.284348642126839E-3   -7.964714271273929E-4   -2.358279002698957E-3   -4.308842834353245E-1    1.478565833431872E-1
 8.189189431200000E9    -5.301233969720777E-1    1.101661241262958E-1   -6.723658080046760E-4   -2.284810950902450E-3   -7.817759544095190E-4   -2.323895283695482E-3   -4.301586922926714E-1    1.498199032347770E-1
 8.189228315550000E9    -5.293796134288516E-1    1.127551880885769E-1   -7.055394490783389E-4   -2.265187385301283E-3   -7.590309612461349E-4   -2.355417578843304E-3   -4.295265172142147E-1    1.519338727030060E-1
 8.189267199900000E9    -5.288478590026005E-1    1.153913763605498E-1   -7.276261278458856E-4   -2.276199323089697E-3   -7.957183136538382E-4   -2.327469915169684E-3   -4.284698844858987E-1    1.539077828471039E-1
 8.189306084250000E9    -5.282689889280988E-1    1.180992751145989E-1   -7.314745393043806E-4   -2.282662709224045E-3   -8.101350534639381E-4   -2.350909014804272E-3   -4.278202820392492E-1    1.559439579231723E-1
 8.189344968600000E9    -5.275787273366510E-1    1.206623877249157E-1   -7.521427702579800E-4   -2.249496350096374E-3   -8.140013250606318E-4   -2.314776229585362E-3   -4.271180969016137E-1    1.579828607356643E-1
 8.189383852950000E9    -5.270008352073233E-1    1.233136703281706E-1   -7.629711533594366E-4   -2.282284514878620E-3   -8.406615879270440E-4   -2.348164452502036E-3   -4.262794195204025E-1    1.600458773696374E-1
 8.189422737300000E9    -5.264269756829544E-1    1.260864779846443E-1   -7.520656466862499E-4   -2.272531126216762E-3   -8.585163181012774E-4   -2.327275688999588E-3   -4.254952296385264E-1    1.620686840104061E-1
 8.189461621650000E9    -5.256247802941716E-1    1.287495609624787E-1   -7.816366559821673E-4   -2.258852566822241E-3   -8.685084520806722E-4   -2.330873085321610E-3   -4.248152822303686E-1    1.640705647212484E-1
 8.189500506000000E9    -5.249758133425988E-1    1.314025237502892E-1   -7.899495792579786E-4   -2.277443388804599E-3   -8.971773423115982E-4   -2.309763936809568E-3   -4.238442509621059E-1    1.660815285490211E-1
 8.189539390350000E9    -5.244320972161902E-1    1.340645034824649E-1   -7.673821167584575E-4   -2.216140949171614E-3   -8.541593427821121E-4   -2.288124089035109E-3   -4.230351922564148E-1    1.679563832144294E-1
 8.189578274700000E9    -5.237199362731161E-1    1.365491868636408E-1   -8.289820557301912E-4   -2.226894688294961E-3   -8.988145046911934E-4   -2.293257307450539E-3   -4.222198901597903E-1    1.699325936640352E-1
 8.189617159050000E9    -5.229142141571946E-1    1.391682912167249E-1   -8.180889291895898E-4   -2.264873939585057E-3   -9.021239143665981E-4   -2.301413780697305E-3   -4.213689806749973E-1    1.719399762764835E-1
 8.189656043400000E9    -5.223258075087931E-1    1.419817227880254E-1   -8.191726584505457E-4   -2.264784218559226E-3   -9.102871916012395E-4   -2.281570552134845E-3   -4.203908608819479E-1    1.739643561975227E-1
 8.189694927750000E9    -5.214681708539887E-1    1.444544541899537E-1   -8.507325743055049E-4   -2.250381651825827E-3   -9.007922128115135E-4   -2.281465288715940E-3   -4.196532109191669E-1    1.757892654523246E-1
 8.189733812100000E9    -5.206497273534355E-1    1.472010477291226E-1   -8.579160212137709E-4   -2.254298640020864E-3   -9.516559619464509E-4   -2.289538136633803E-3   -4.185743678318637E-1    1.777257380059038E-1
 8.189772696450000E9    -5.200458258580468E-1    1.497704693504613E-1   -8.736151031422017E-4   -2.229509036758033E-3   -9.236218553180048E-4   -2.287749749049417E-3   -4.179379817548777E-1    1.797179148334592E-1
 8.189811580800000E9    -5.192711373599974E-1    1.523280079579924E-1   -9.205782934483261E-4   -2.237293127518923E-3   -9.406655558157441E-4   -2.287982249720425E-3   -4.168524933241118E-1    1.818607224415216E-1
 8.189850465150000E9    -5.184586676611711E-1    1.548981973116986E-1   -8.936112259302945E-4   -2.241346729346453E-3   -9.583217160369584E-4   -2.284791789691946E-3   -4.160372554034183E-1    1.837158431058230E-1
 8.189889349500000E9    -5.175670653789358E-1    1.575508412317435E-1   -9.267606985687717E-4   -2.205127983753789E-3   -9.897205012625930E-4   -2.261409600533225E-3   -4.151514968124815E-1    1.855190393970859E-1
 8.189928233850000E9    -5.168224742929468E-1    1.601348613992016E-1   -9.017918499574567E-4   -2.214355376879406E-3   -1.001638726987131E-3   -2.272597138121522E-3   -4.140509677805722E-1    1.876702383712656E-1
 8.189967118200000E9    -5.159687352562755E-1    1.626962951980209E-1   -9.367402907661686E-4   -2.202573829762353E-3   -9.870577925083584E-4   -2.254145137606428E-3   -4.132741019394343E-1    1.894886375300260E-1
 8.190006002550000E9    -5.150603822725328E-1    1.652033639279479E-1   -9.429961781335243E-4   -2.227881466198720E-3   -1.023210636358869E-3   -2.273762458045892E-3   -4.124191635467534E-1    1.914114041375293E-1
 8.190044886900000E9    -5.143574746315567E-1    1.678937688656187E-1   -9.351849981177970E-4   -2.215727150219767E-3   -1.030351235061168E-3   -2.213413453981270E-3   -4.112697466291345E-1    1.934386744069088E-1
 8.190083771250000E9    -5.134340362669234E-1    1.703984119915861E-1   -9.676180991955476E-4   -2.225396249161998E-3   -1.039455638569751E-3   -2.256169687055906E-3   -4.103822140960789E-1    1.952406360747506E-1
 8.190122655600000E9    -5.125003692994549E-1    1.732158203162064E-1   -9.671990882978350E-4   -2.201546065411571E-3   -1.036464224631868E-3   -2.279034531347934E-3   -4.095049301740915E-1    1.972615966139709E-1
 8.190161539950000E9    -5.115842580426466E-1    1.756436680862068E-1   -9.850702101061384E-4   -2.209180848042317E-3   -1.073988031591880E-3   -2.250666624983349E-3   -4.085619753902295E-1    1.991185341103525E-1
 8.190200424300000E9    -5.107836016974834E-1    1.782566534260042E-1   -9.862064914789226E-4   -2.207934052354830E-3   -1.101197347563423E-3   -2.275753466909726E-3   -4.074902367355036E-1    2.010639630711047E-1
 8.190239308650000E9    -5.098059717506810E-1    1.807282668653248E-1   -9.891470637097793E-4   -2.176321608868370E-3   -1.097196050257314E-3   -2.248089315030859E-3   -4.065158487753513E-1    2.030983487879413E-1
 8.190278193000000E9    -5.089027896585774E-1    1.833798460418334E-1   -1.004443807366850E-3   -2.187113267827846E-3   -1.135600481520388E-3   -2.256286111439822E-3   -4.055112220807441E-1    2.049308023354210E-1
 8.190317077350000E9    -5.079712830519625E-1    1.859700016042738E-1   -1.038981312148307E-3   -2.188775326583889E-3   -1.106738536561554E-3   -2.208569339221747E-3   -4.045155468469600E-1    2.067589741341568E-1
 8.190355961700000E9    -5.070441866835328E-1    1.884892040634305E-1   -1.030183295273911E-3   -2.181901618046959E-3   -1.138726176795614E-3   -2.243656971033880E-3   -4.034401379718157E-1    2.086755103270320E-1
 8.190394846050000E9    -5.058464504424764E-1    1.911307728337821E-1   -1.053685160292806E-3   -2.201476314521656E-3   -1.138237160720265E-3   -2.218347287809079E-3   -4.024367203451634E-1    2.106330215276415E-1
 8.190433730400000E9    -5.049317525020740E-1    1.935996301303563E-1   -1.051534297484684E-3   -2.161247549803885E-3   -1.160598284788805E-3   -2.239213704646772E-3   -4.013658927470647E-1    2.125219471850187E-1
 8.190472614750000E9    -5.040096919041598E-1    1.961718892416472E-1   -1.086121048261055E-3   -2.185294055873579E-3   -1.154758825617658E-3   -2.247937631823134E-3   -4.003757787630571E-1    2.144825093843137E-1
 8.190511499100000E9    -5.029576566085996E-1    1.986029898876491E-1   -1.076553514057885E-3   -2.159232015752546E-3   -1.159085196165642E-3   -2.213580475520661E-3   -3.991574810445375E-1    2.162349238721060E-1
 8.190550383450000E9    -5.017976026781351E-1    2.011220063839458E-1   -1.090847609221989E-3   -2.149598940407754E-3   -1.182753716662630E-3   -2.185757047235592E-3   -3.981437041480423E-1    2.179529874257670E-1
 8.190589267800000E9    -5.007420454645053E-1    2.036967221122965E-1   -1.110695908607433E-3   -2.127835696513292E-3   -1.224918040524251E-3   -2.180767324841371E-3   -3.969394124651584E-1    2.200021380511560E-1
 8.190628152150000E9    -4.997529412016661E-1    2.062541130390917E-1   -1.109445456051935E-3   -2.157601093329839E-3   -1.220043892711711E-3   -2.195528149018700E-3   -3.958912883981924E-1    2.217564431840671E-1
 8.190667036500000E9    -4.988236857572618E-1    2.086742858078910E-1   -1.116848250481387E-3   -2.163768324588725E-3   -1.220677356981758E-3   -2.183003230035667E-3   -3.948192304461227E-1    2.238040424816997E-1
 8.190705920850000E9    -4.976881806420659E-1    2.112459087460354E-1   -1.126847142262614E-3   -2.141663141110927E-3   -1.235217666448251E-3   -2.167585034531423E-3   -3.936113027942253E-1    2.254959542808044E-1
 8.190744805200000E9    -4.966667676757848E-1    2.136614266866503E-1   -1.128713223463601E-3   -2.159078222926475E-3   -1.232048047074291E-3   -2.166078452250086E-3   -3.925992357629505E-1    2.273971235371302E-1
 8.190783689550000E9    -4.955158307478670E-1    2.162317605705074E-1   -1.170310704576076E-3   -2.136931019826340E-3   -1.257395619251544E-3   -2.149484529240283E-3   -3.915413657386492E-1    2.291324844321454E-1
 8.190822573900000E9    -4.943572669108529E-1    2.186195450875599E-1   -1.162135738756533E-3   -2.118641269020039E-3   -1.280519740842681E-3   -2.170848426126415E-3   -3.903052393257813E-1    2.308999623193899E-1
 8.190861458250000E9    -4.932582800276207E-1    2.212473992048375E-1   -1.156919300709798E-3   -2.153225267481732E-3   -1.281750864195938E-3   -2.156281502941202E-3   -3.890708278879428E-1    2.328208262427966E-1
 8.190900342600000E9    -4.921161879803767E-1    2.236819414580729E-1   -1.183855585262414E-3   -2.130967851647808E-3   -1.319047369607686E-3   -2.173306781438121E-3   -3.881563035241405E-1    2.346184716449050E-1
 8.190939226950000E9    -4.910147169295276E-1    2.262709280444913E-1   -1.158953876318387E-3   -2.105398118031400E-3   -1.306214389112563E-3   -2.125765935324598E-3   -3.869013899661194E-1    2.365069834750144E-1
 8.190978111300000E9    -4.897079981206642E-1    2.285945582625902E-1   -1.212509762716090E-3   -2.128423826923180E-3   -1.336939603895350E-3   -2.140868366067801E-3   -3.857279316761958E-1    2.383041405443780E-1
 8.191016995650000E9    -4.885977211674826E-1    2.310650726176655E-1   -1.234094292513528E-3   -2.084108824602646E-3   -1.312521597476094E-3   -2.168311107998542E-3   -3.845439171557476E-1    2.401824600379956E-1
 8.191055880000000E9    -4.874692046757259E-1    2.335042376622596E-1   -1.246156897466889E-3   -2.085736068372766E-3   -1.329702090624426E-3   -2.164103633146461E-3   -3.833334336869974E-1    2.419272706480999E-1
 8.191094764350000E9    -4.862549199587650E-1    2.361060802463318E-1   -1.238085592403335E-3   -2.098803809038510E-3   -1.304645762651779E-3   -2.126312547791095E-3   -3.822446861797776E-1    2.436553832849129E-1
 8.191133648700000E9    -4.849440779445182E-1    2.384338692779001E-1   -1.229413597274975E-3   -2.075814321529708E-3   -1.352108050407591E-3   -2.109616394385551E-3   -3.809742995523722E-1    2.454813470054853E-1
 8.191172533050000E9    -4.837987429986051E-1    2.408763767646195E-1   -1.262090205948135E-3   -2.088009233367228E-3   -1.358459040778854E-3   -2.119112830739013E-3   -3.797377420422693E-1    2.472650402227523E-1
 8.191211417400000E9    -4.825398106146438E-1    2.433560931054815E-1   -1.272424303627228E-3   -2.080211389147015E-3   -1.344466430614993E-3   -2.113922945940424E-3   -3.785655842226947E-1    2.491392310223302E-1
 8.191250301750000E9    -4.813060869882458E-1    2.457352836309760E-1   -1.297682366881591E-3   -2.071077346675097E-3   -1.407481864635917E-3   -2.092703919108382E-3   -3.772570959853614E-1    2.508342618987549E-1
 8.191289186100000E9    -4.800792403935402E-1    2.481185299278788E-1   -1.289397822677644E-3   -2.065041296540912E-3   -1.431103630026108E-3   -2.062377183520377E-3   -3.759611034231094E-1    2.526253375430138E-1
 8.191328070450000E9    -4.787255750103208E-1    2.505340700900388E-1   -1.298036662656751E-3   -2.064619425619729E-3   -1.406830484763573E-3   -2.102030123876292E-3   -3.749097513975163E-1    2.543276945144008E-1
 8.191366954800000E9    -4.774720696193990E-1    2.528909873304491E-1   -1.310024454604041E-3   -2.070081700301052E-3   -1.408199006490940E-3   -2.071853398991972E-3   -3.735153204076940E-1    2.560342711665208E-1
 8.191405839150000E9    -4.762185703089891E-1    2.553073886687965E-1   -1.360000222571465E-3   -2.068260469348570E-3   -1.451889542357036E-3   -2.087126438562747E-3   -3.724302004516450E-1    2.577926132246118E-1
 8.191444723500000E9    -4.750101737312847E-1    2.578892876974623E-1   -1.328787208580518E-3   -2.060673820018426E-3   -1.434558756987257E-3   -2.060829558132350E-3   -3.710273067665928E-1    2.595745896416125E-1
 8.191483607850000E9    -4.734568977378453E-1    2.600645830190216E-1   -1.333145181260447E-3   -2.019510588540159E-3   -1.466620309125168E-3   -2.055696653552043E-3   -3.697839639657396E-1    2.614064753455784E-1
 8.191522492200000E9    -4.721635166336060E-1    2.624544572725657E-1   -1.360740199958675E-3   -2.037611907465649E-3   -1.494135889938979E-3   -2.042246133799371E-3   -3.685394979884226E-1    2.630515787143879E-1
 8.191561376550000E9    -4.708561410963786E-1    2.647763758467406E-1   -1.357178327503393E-3   -2.024240516587270E-3   -1.488391716854216E-3   -2.060094699925027E-3   -3.670635661439699E-1    2.646934732329977E-1
 8.191600260900000E9    -4.694596000397894E-1    2.672120166740418E-1   -1.366915788882508E-3   -2.015498891622122E-3   -1.450484685729639E-3   -2.065896216214203E-3   -3.660236343433749E-1    2.664698504287079E-1
 8.191639145250000E9    -4.681039296734243E-1    2.696783896619525E-1   -1.384614765151219E-3   -2.028918423836117E-3   -1.491107227330550E-3   -2.052117645668121E-3   -3.645894740057282E-1    2.682812042922945E-1
 8.191678029600000E9    -4.665978463496923E-1    2.719333635390414E-1   -1.399238123928858E-3   -1.996419586207290E-3   -1.486153894208758E-3   -2.041603357235503E-3   -3.633782072363674E-1    2.699986383383008E-1
 8.191716913950000E9    -4.653689458936264E-1    2.742620233852156E-1   -1.427954946699731E-3   -2.004691959816937E-3   -1.532424111728150E-3   -2.034413915880162E-3   -3.619206404868110E-1    2.716979888224819E-1
 8.191755798300000E9    -4.639765155684409E-1    2.767248870452642E-1   -1.435582800341294E-3   -1.984845856887146E-3   -1.527667760495603E-3   -2.037955706371579E-3   -3.607256674084770E-1    2.733375351739892E-1
 8.191794682650000E9    -4.625234654664537E-1    2.788628355103832E-1   -1.447146737795022E-3   -1.997257951058971E-3   -1.563683466613115E-3   -2.018736336881896E-3   -3.591868931735605E-1    2.749368690017794E-1
 8.191833567000000E9    -4.609148730849976E-1    2.813110917037548E-1   -1.430437078896900E-3   -1.978095124749302E-3   -1.552815827139451E-3   -1.998485537850428E-3   -3.578953171270380E-1    2.766530804714612E-1
 8.191872451350000E9    -4.595944621702691E-1    2.834904507690642E-1   -1.497528178987800E-3   -1.981058893744215E-3   -1.593554085046526E-3   -2.000338445015851E-3   -3.564949989895341E-1    2.784632685404161E-1
 8.191911335700000E9    -4.581432769956428E-1    2.858129156351693E-1   -1.464463513307508E-3   -1.986139481386586E-3   -1.575863692605078E-3   -1.993426519649739E-3   -3.550308326247140E-1    2.799968701274536E-1
 8.191950220050000E9    -4.566503377672088E-1    2.881891793246617E-1   -1.456392024653797E-3   -1.958467737275429E-3   -1.588232642081741E-3   -1.966872814186713E-3   -3.537485730092494E-1    2.816573075447121E-1
 8.191989104400000E9    -4.551133168599754E-1    2.904794941932587E-1   -1.525222375393333E-3   -1.975595078507498E-3   -1.587081828109744E-3   -1.975605145805578E-3   -3.524321595193619E-1    2.833349069405270E-1
 8.192027988750000E9    -4.537769525708584E-1    2.928942841982651E-1   -1.524922851492292E-3   -1.943365465630424E-3   -1.623026778011156E-3   -1.966510374065661E-3   -3.509473444337823E-1    2.848807965536569E-1
 8.192066873100000E9    -4.521135620046662E-1    2.949888405810223E-1   -1.512607145086454E-3   -1.941448113833085E-3   -1.669000117019275E-3   -1.987275433678131E-3   -3.495429918610667E-1    2.866090511899718E-1
 8.192105757450000E9    -4.506429736916618E-1    2.973356319960261E-1   -1.545975008791122E-3   -1.944191054475606E-3   -1.615839701334072E-3   -1.941936686689750E-3   -3.481204105494313E-1    2.882141079681113E-1
 8.192144641800000E9    -4.491630878038093E-1    2.995898698229863E-1   -1.521095195113159E-3   -1.956399504920191E-3   -1.639101933148400E-3   -1.944945587280174E-3   -3.467277064451732E-1    2.899919226208003E-1
 8.192183526150000E9    -4.475432869963764E-1    3.018565253326207E-1   -1.555444920088543E-3   -1.915121492087099E-3   -1.674335099417053E-3   -1.932698679037797E-3   -3.452057908878980E-1    2.916759706061747E-1
 8.192222410500000E9    -4.460883890167980E-1    3.040475084995382E-1   -1.558715002682570E-3   -1.926399617405097E-3   -1.657151432553983E-3   -1.933162576080115E-3   -3.438303929930350E-1    2.931623200048354E-1
