#  HZ   S   RI   R     50.00 
! Rohde & Schwarz Vector Network Analyzer 
! Rohde-Schwarz,ZNB20-2Port,1311601062101988,3.16
! Created: UTC 3/20/2024, 5:10:39 PM
! freq[Hz]                re:S11                  im:S11                  re:S21                  im:S21                  re:S12                  im:S12                  re:S22                  im:S22
 8.193454224000000E9    -3.916110382895207E-1    3.702164612874861E-1   -1.843429891513671E-3   -1.696165236493231E-3   -1.985907600027131E-3   -1.691124381984813E-3   -2.954531410493461E-1    3.419871457465327E-1
 8.193472199675000E9    -3.907538378110013E-1    3.712944077889211E-1   -1.876846556937837E-3   -1.675432933663992E-3   -1.988452277246353E-3   -1.687898426941413E-3   -2.946777926600904E-1    3.426666331010395E-1
 8.193490175350000E9    -3.897288675088844E-1    3.721082219482782E-1   -1.913924305999963E-3   -1.699455472831536E-3   -2.006685401871189E-3   -1.649756831523916E-3   -2.937616947761311E-1    3.432501911908560E-1
 8.193508151025000E9    -3.889449168765295E-1    3.731160707908968E-1   -1.868973839786687E-3   -1.672324438209479E-3   -2.000257009569744E-3   -1.647781005803085E-3   -2.932923771613523E-1    3.438508264037087E-1
 8.193526126700000E9    -3.880622400472422E-1    3.739057894373246E-1   -1.900585036787380E-3   -1.680646117130857E-3   -2.000738334947000E-3   -1.658884547675977E-3   -2.924301943405475E-1    3.444621042503553E-1
 8.193544102375000E9    -3.873030746931120E-1    3.747918672470897E-1   -1.910203931592858E-3   -1.642479810192922E-3   -2.004371571354367E-3   -1.689087592950898E-3   -2.915915932830367E-1    3.451778728062966E-1
 8.193562078050000E9    -3.863819397161991E-1    3.758365691895463E-1   -1.903932081109242E-3   -1.656205570280064E-3   -1.993372274090026E-3   -1.650787177089034E-3   -2.907371426511519E-1    3.458227961931277E-1
 8.193580053725000E9    -3.853502412803499E-1    3.766330845852040E-1   -1.913631465239760E-3   -1.684658404955435E-3   -2.026165742455042E-3   -1.632912899106316E-3   -2.899973516468951E-1    3.464071457558346E-1
 8.193598029400000E9    -3.845161239075462E-1    3.776471820833341E-1   -1.910277651635500E-3   -1.669056636965555E-3   -2.021515304829986E-3   -1.667479101107284E-3   -2.891288605738033E-1    3.470009853604910E-1
 8.193616005075000E9    -3.836470109583129E-1    3.784669768226401E-1   -1.907730601651400E-3   -1.670859129712743E-3   -2.044917361112647E-3   -1.656526580489120E-3   -2.885227827683439E-1    3.476844330050156E-1
 8.193633980750000E9    -3.825969961076197E-1    3.792947823874269E-1   -1.917537514372253E-3   -1.658447148962770E-3   -2.039083878355283E-3   -1.651363672564868E-3   -2.876875130054177E-1    3.483278463007289E-1
 8.193651956425000E9    -3.819001775336086E-1    3.803162787304897E-1   -1.920197867345006E-3   -1.632855772874290E-3   -2.044996887666232E-3   -1.630360474857856E-3   -2.867907066648232E-1    3.489684271353815E-1
 8.193669932100000E9    -3.808664319746568E-1    3.810157561067798E-1   -1.935376905665236E-3   -1.656392283629256E-3   -2.046069189270085E-3   -1.604757177029212E-3   -2.860830355421268E-1    3.494601763628982E-1
 8.193687907775000E9    -3.798840242299458E-1    3.820187960217851E-1   -1.942891426584214E-3   -1.613629095078509E-3   -2.059840634768732E-3   -1.621641102605169E-3   -2.851877683636909E-1    3.502125197526015E-1
 8.193705883450000E9    -3.789856698284775E-1    3.828235368625766E-1   -1.934163808065497E-3   -1.612950904236805E-3   -2.051222887581283E-3   -1.594768261132449E-3   -2.844853542250896E-1    3.507798641829407E-1
 8.193723859125000E9    -3.781626838211921E-1    3.836892140738485E-1   -1.946412027816371E-3   -1.629255728454158E-3   -2.038445611883983E-3   -1.612926246573139E-3   -2.835740422200538E-1    3.514197541262463E-1
 8.193741834800000E9    -3.770634755699860E-1    3.845615089342016E-1   -1.950311778229529E-3   -1.631298920895551E-3   -2.055745077417116E-3   -1.624750822664251E-3   -2.828385697327290E-1    3.520243180277383E-1
 8.193759810475000E9    -3.763778913013275E-1    3.856534662061800E-1   -1.961823983890971E-3   -1.622643865420521E-3   -2.072934482827014E-3   -1.622871734377934E-3   -2.821624007467027E-1    3.525929020932299E-1
 8.193777786150000E9    -3.754452127664793E-1    3.864021272496947E-1   -1.980793735256600E-3   -1.641321242815771E-3   -2.060159957541836E-3   -1.627970572735709E-3   -2.813821470375248E-1    3.531790587511830E-1
 8.193795761825000E9    -3.745695720129022E-1    3.872619192847414E-1   -1.987116932153009E-3   -1.618308530053375E-3   -2.093122256346986E-3   -1.600506525799359E-3   -2.804155826354219E-1    3.538848872488329E-1
 8.193813737500000E9    -3.735704414380178E-1    3.881491662613769E-1   -1.981304823332403E-3   -1.634178634561199E-3   -2.066150202567391E-3   -1.598011121531204E-3   -2.796647265754857E-1    3.544947781705312E-1
 8.193831713175000E9    -3.724994981050612E-1    3.890082436295023E-1   -1.978860436770569E-3   -1.616656644761616E-3   -2.071821647380920E-3   -1.598484102948104E-3   -2.788977801865610E-1    3.550422732902035E-1
 8.193849688850000E9    -3.716668024521217E-1    3.898644430508272E-1   -2.006799095541923E-3   -1.608229507221470E-3   -2.086953272200637E-3   -1.604509390784614E-3   -2.779826455264621E-1    3.555612052030946E-1
 8.193867664525000E9    -3.707135063100887E-1    3.907582260424603E-1   -1.995658822686853E-3   -1.631686833074840E-3   -2.090829432797834E-3   -1.564649476498329E-3   -2.771173043824779E-1    3.563826382450654E-1
 8.193885640200000E9    -3.697882031531212E-1    3.916265038048520E-1   -1.987377061545746E-3   -1.579280694059582E-3   -2.069172954490960E-3   -1.573673711469446E-3   -2.764520189378243E-1    3.568261362379901E-1
 8.193903615875000E9    -3.688331244993107E-1    3.925247803763283E-1   -2.003747920475831E-3   -1.604198573563436E-3   -2.096501377766436E-3   -1.604476300908636E-3   -2.756907608475911E-1    3.573246587346769E-1
 8.193921591550000E9    -3.679738144953835E-1    3.933769923328251E-1   -1.984684683628210E-3   -1.617608478253987E-3   -2.104360625846651E-3   -1.572023559582341E-3   -2.747793735021104E-1    3.580216543821966E-1
 8.193939567225000E9    -3.670905121992138E-1    3.941360292772160E-1   -1.995057962553172E-3   -1.589896015401377E-3   -2.107043272206839E-3   -1.560930761105074E-3   -2.740417696672504E-1    3.586337200186340E-1
 8.193957542900000E9    -3.661034624610665E-1    3.949772828264086E-1   -2.042718491621093E-3   -1.586168953336401E-3   -2.134969486970024E-3   -1.579305004739794E-3   -2.732092885356092E-1    3.591514490994763E-1
 8.193975518575000E9    -3.652197650453322E-1    3.958825206039367E-1   -2.007593800885558E-3   -1.590423517831921E-3   -2.140301955563330E-3   -1.561656894701348E-3   -2.723794749829688E-1    3.596876145454700E-1
 8.193993494250000E9    -3.642230576986531E-1    3.967621068851885E-1   -2.030542014517332E-3   -1.576493759169688E-3   -2.109732381023697E-3   -1.547262513128908E-3   -2.715303451541578E-1    3.602141061423836E-1
 8.194011469925000E9    -3.632477149633894E-1    3.975959590866928E-1   -2.039554878615396E-3   -1.585784155561790E-3   -2.161867347739134E-3   -1.507538687326026E-3   -2.707401579398943E-1    3.608566355553687E-1
 8.194029445600000E9    -3.624358981776910E-1    3.983574255840739E-1   -2.005596965948345E-3   -1.559090053322947E-3   -2.109183391188541E-3   -1.564191485432473E-3   -2.698614726353455E-1    3.614468188965901E-1
 8.194047421275000E9    -3.613538717447700E-1    3.993587379376223E-1   -2.038290209090700E-3   -1.563047982104524E-3   -2.117998182042586E-3   -1.535737456720892E-3   -2.690373861364967E-1    3.620152609988480E-1
 8.194065396950000E9    -3.603531328202083E-1    4.000390413324906E-1   -2.024078723362162E-3   -1.565933897802444E-3   -2.147455128281971E-3   -1.565555821178414E-3   -2.682958255923905E-1    3.626443703537875E-1
 8.194083372625000E9    -3.594864940381811E-1    4.008782876827155E-1   -2.056704985198529E-3   -1.529190142164307E-3   -2.134464786720708E-3   -1.535897166873625E-3   -2.675657096198809E-1    3.631657719204858E-1
 8.194101348300000E9    -3.585386154370272E-1    4.019346782772104E-1   -2.034430174474070E-3   -1.562177837957046E-3   -2.156951115238330E-3   -1.519555291587192E-3   -2.666115331363860E-1    3.636138016784317E-1
 8.194119323975000E9    -3.576562626691803E-1    4.026853102203587E-1   -2.040497548672220E-3   -1.527294496602925E-3   -2.189629321797701E-3   -1.499375872884013E-3   -2.657268281818532E-1    3.643056573957929E-1
 8.194137299650000E9    -3.565901005639733E-1    4.034703676584356E-1   -2.052445262367872E-3   -1.507034872438446E-3   -2.160031849579687E-3   -1.508959132241796E-3   -2.648851071624214E-1    3.648543152689728E-1
 8.194155275325000E9    -3.557080506498588E-1    4.043605700987720E-1   -2.038908725421438E-3   -1.558128437934023E-3   -2.149640657926619E-3   -1.503843589325265E-3   -2.640665274422814E-1    3.655420156271668E-1
 8.194173251000000E9    -3.547814389521051E-1    4.050847165888783E-1   -2.078320105507522E-3   -1.537514340559065E-3   -2.184327946075946E-3   -1.523198096559478E-3   -2.632718889496583E-1    3.660239632519458E-1
 8.194191226675000E9    -3.536891804904436E-1    4.059860140973553E-1   -2.064408652380861E-3   -1.556274121975084E-3   -2.190421523326028E-3   -1.494799019032687E-3   -2.625581705522258E-1    3.665813098682759E-1
 8.194209202350000E9    -3.527862931809264E-1    4.068262382648887E-1   -2.067761197952703E-3   -1.523848896393425E-3   -2.195836207043932E-3   -1.482797555748002E-3   -2.615976923631580E-1    3.672544405777491E-1
 8.194227178025000E9    -3.517851755072672E-1    4.075811516062561E-1   -2.071809807638359E-3   -1.541637372017869E-3   -2.168076981997796E-3   -1.502562608544927E-3   -2.608420226399674E-1    3.678355389468638E-1
 8.194245153700000E9    -3.509261234575371E-1    4.083671033462722E-1   -2.092041717069756E-3   -1.503088165700933E-3   -2.191362696432961E-3   -1.461175988607979E-3   -2.599572151133070E-1    3.684111552841401E-1
 8.194263129375000E9    -3.498489678125925E-1    4.092524993195976E-1   -2.076577930445956E-3   -1.502567481379478E-3   -2.150764006925455E-3   -1.467860983206443E-3   -2.591891837745828E-1    3.688047179315257E-1
 8.194281105050000E9    -3.489346247311632E-1    4.100250847944691E-1   -2.086315138062683E-3   -1.505431980519095E-3   -2.193001305005531E-3   -1.461555070588957E-3   -2.583655751942575E-1    3.693613575290853E-1
 8.194299080725000E9    -3.479832266732922E-1    4.109309354409896E-1   -2.074072069409394E-3   -1.512740217189445E-3   -2.224145134014759E-3   -1.476627326651451E-3   -2.574700156617136E-1    3.700282712870880E-1
 8.194317056400000E9    -3.469211527290280E-1    4.116169610879640E-1   -2.064324081945128E-3   -1.504802168993718E-3   -2.206595944572286E-3   -1.474896738979622E-3   -2.566321913410510E-1    3.707073972722721E-1
 8.194335032075000E9    -3.460110681388229E-1    4.125074186059168E-1   -2.091866782935141E-3   -1.493271878628735E-3   -2.184826570175974E-3   -1.430276722165386E-3   -2.558778414935771E-1    3.710939005725302E-1
 8.194353007750000E9    -3.449912656614937E-1    4.133467127783215E-1   -2.120199661589635E-3   -1.490276116726857E-3   -2.204944871689721E-3   -1.441578433822881E-3   -2.549359900463191E-1    3.716207435918134E-1
 8.194370983425000E9    -3.439906322674084E-1    4.141149481846289E-1   -2.115530545785007E-3   -1.486440243313333E-3   -2.212734308385268E-3   -1.467619365579258E-3   -2.540568890502139E-1    3.722650477444007E-1
 8.194388959100000E9    -3.429735574679189E-1    4.148122734974828E-1   -2.125872679700281E-3   -1.465553365491181E-3   -2.219025249272236E-3   -1.429538330594398E-3   -2.532781902063921E-1    3.726921027434060E-1
 8.194406934775000E9    -3.420428321967607E-1    4.157541918235239E-1   -2.118967548594201E-3   -1.471467327030685E-3   -2.230550775837078E-3   -1.429271038740808E-3   -2.524502073676328E-1    3.733166148768474E-1
 8.194424910450000E9    -3.409746336013862E-1    4.164624866493923E-1   -2.109747937209071E-3   -1.481986321041601E-3   -2.222733169234032E-3   -1.445978780457433E-3   -2.515127046609252E-1    3.739584035319075E-1
 8.194442886125000E9    -3.401205531336373E-1    4.173003478598805E-1   -2.129690476395166E-3   -1.484340179384645E-3   -2.225066729004332E-3   -1.438215298240489E-3   -2.506265625521193E-1    3.743693684314252E-1
 8.194460861800000E9    -3.391736379027748E-1    4.180134176159875E-1   -2.128038332629486E-3   -1.474891569495644E-3   -2.227094284886919E-3   -1.428902944593772E-3   -2.499773319556956E-1    3.749275438326434E-1
 8.194478837475000E9    -3.380484016051886E-1    4.187493222209685E-1   -2.123049400635344E-3   -1.471520020278991E-3   -2.221079847541856E-3   -1.438045475413050E-3   -2.489716565009213E-1    3.754433484570594E-1
 8.194496813150000E9    -3.370048922570456E-1    4.195232452239137E-1   -2.146256269719436E-3   -1.462728340515735E-3   -2.240111656214280E-3   -1.431526390176761E-3   -2.482271974834442E-1    3.758264438952984E-1
 8.194514788825000E9    -3.360739355218501E-1    4.204044797573753E-1   -2.166537764094537E-3   -1.460841489034025E-3   -2.240980688408055E-3   -1.412970983412505E-3   -2.472373955599982E-1    3.764811300273203E-1
 8.194532764500000E9    -3.351070636695879E-1    4.212071059825937E-1   -2.159051812516108E-3   -1.477928946926410E-3   -2.262795938325363E-3   -1.440636904886343E-3   -2.463949970135906E-1    3.770053246220261E-1
 8.194550740175000E9    -3.340321552380035E-1    4.218321877101820E-1   -2.157920760495786E-3   -1.450000041228317E-3   -2.268291474922148E-3   -1.433659643181165E-3   -2.455975146893043E-1    3.775818678406768E-1
 8.194568715850000E9    -3.331075607582716E-1    4.226966784277632E-1   -2.185269218389086E-3   -1.445632704442604E-3   -2.277658727761464E-3   -1.420980850881195E-3   -2.445688164058752E-1    3.781122550812060E-1
 8.194586691525000E9    -3.320524071696945E-1    4.235522092588446E-1   -2.142732081795390E-3   -1.449395695431853E-3   -2.251583251887651E-3   -1.410381129842449E-3   -2.437435959907141E-1    3.785888683326152E-1
 8.194604667200000E9    -3.310927078733600E-1    4.242567052317040E-1   -2.149356662526705E-3   -1.418539760516520E-3   -2.262646938113559E-3   -1.394330579921242E-3   -2.430878401072285E-1    3.791408167043492E-1
 8.194622642875000E9    -3.300961692825132E-1    4.250082987000871E-1   -2.199102419262539E-3   -1.406469893442587E-3   -2.308785414155543E-3   -1.409371505649294E-3   -2.420303565634206E-1    3.797115213419923E-1
 8.194640618550000E9    -3.290860802263673E-1    4.256995277040051E-1   -2.179197388174075E-3   -1.429358067066321E-3   -2.244638677317664E-3   -1.392415070203567E-3   -2.412650656312801E-1    3.803465719852820E-1
 8.194658594225000E9    -3.280283339037105E-1    4.266065988393608E-1   -2.159246601925671E-3   -1.437440526091645E-3   -2.285641469802271E-3   -1.384930938269590E-3   -2.402946716765227E-1    3.807161594681700E-1
 8.194676569900000E9    -3.270383033704697E-1    4.273273745123884E-1   -2.206839217233130E-3   -1.434381382865167E-3   -2.300402964582119E-3   -1.382870944928640E-3   -2.394188026613529E-1    3.812237542507660E-1
 8.194694545575000E9    -3.259815857051127E-1    4.281394143014423E-1   -2.178690974940566E-3   -1.412052336604631E-3   -2.299253050058374E-3   -1.355517298483620E-3   -2.386354859768278E-1    3.815714073817053E-1
 8.194712521250000E9    -3.250179299234192E-1    4.288303527468706E-1   -2.187714522172257E-3   -1.432018899648399E-3   -2.284900772566314E-3   -1.341988867058465E-3   -2.378567809088078E-1    3.821747628324297E-1
 8.194730496925000E9    -3.238448091014038E-1    4.295714301695903E-1   -2.199853162128950E-3   -1.379946692046759E-3   -2.280734199180374E-3   -1.339548596505191E-3   -2.370781524543328E-1    3.826289684208005E-1
 8.194748472600000E9    -3.229785501204852E-1    4.303909358437573E-1   -2.199862110870074E-3   -1.393566422731540E-3   -2.310885139059892E-3   -1.344707894110401E-3   -2.360241847568044E-1    3.832559043058578E-1
 8.194766448275000E9    -3.219250037987993E-1    4.311583165352236E-1   -2.206445537059785E-3   -1.410162245771458E-3   -2.288308738880159E-3   -1.361628829999135E-3   -2.353289066636186E-1    3.838164282679211E-1
 8.194784423950000E9    -3.209634582502336E-1    4.318598725144133E-1   -2.236740942084561E-3   -1.396269157126097E-3   -2.318072729306002E-3   -1.329975455454425E-3   -2.342920246926109E-1    3.842862111638685E-1
 8.194802399625000E9    -3.198156648221922E-1    4.326213317714939E-1   -2.225159397297049E-3   -1.389383335415976E-3   -2.299261602044373E-3   -1.336621629310229E-3   -2.334738108376156E-1    3.848461353115063E-1
 8.194820375300000E9    -3.187835838651324E-1    4.332948086274480E-1   -2.210822193874855E-3   -1.370272464152992E-3   -2.327717367631473E-3   -1.333664142719451E-3   -2.325796124873346E-1    3.851680036313232E-1
 8.194838350975000E9    -3.177607790964986E-1    4.341134306681865E-1   -2.234039123795195E-3   -1.389292680866246E-3   -2.339923116965862E-3   -1.328413158399059E-3   -2.317083898606914E-1    3.856651861767375E-1
 8.194856326650000E9    -3.167408835534732E-1    4.348044981393938E-1   -2.219370392630550E-3   -1.375860693045154E-3   -2.329876955223294E-3   -1.342125089091534E-3   -2.308476478966984E-1    3.862925716100858E-1
 8.194874302325000E9    -3.157757110189096E-1    4.356546769167636E-1   -2.204939802405420E-3   -1.359758821450143E-3   -2.345770039968582E-3   -1.309672241645967E-3   -2.299771767150213E-1    3.867768003527430E-1
 8.194892278000000E9    -3.146526807925843E-1    4.362782966519025E-1   -2.248925378664647E-3   -1.350301239046666E-3   -2.318554560205818E-3   -1.301437412568362E-3   -2.290329372506104E-1    3.872831715785588E-1
 8.194910253675000E9    -3.136027847505061E-1    4.370420934774541E-1   -2.248734683718641E-3   -1.356827142022016E-3   -2.344734252811709E-3   -1.328511766166815E-3   -2.281767751073300E-1    3.877441805638689E-1
 8.194928229350000E9    -3.126751520141606E-1    4.377634663523208E-1   -2.277829337353818E-3   -1.354017380476070E-3   -2.322815065669826E-3   -1.306130114282126E-3   -2.273012071556028E-1    3.881532894385328E-1
 8.194946205025000E9    -3.115411270522219E-1    4.383826040945930E-1   -2.263302248207364E-3   -1.350851114029484E-3   -2.341344933940628E-3   -1.314827732135116E-3   -2.264514805969835E-1    3.887359600340506E-1
 8.194964180700000E9    -3.105311430899497E-1    4.391725689081020E-1   -2.271590808205886E-3   -1.360843165266650E-3   -2.358908949422274E-3   -1.314393045062810E-3   -2.256344133613639E-1    3.892501520243022E-1
 8.194982156375000E9    -3.094646114379830E-1    4.399378735575596E-1   -2.250868341936343E-3   -1.328666154714501E-3   -2.371057821703328E-3   -1.279590453550684E-3   -2.246831742020499E-1    3.897396833611388E-1
 8.195000132050000E9    -3.082941595163184E-1    4.406298240391426E-1   -2.250432354955990E-3   -1.334738193888498E-3   -2.382351567139427E-3   -1.273660001201047E-3   -2.236072102490989E-1    3.900452003015012E-1
 8.195018107725000E9    -3.073658078967434E-1    4.413684723379689E-1   -2.278508156101293E-3   -1.318474460218348E-3   -2.372309691484839E-3   -1.280183595732193E-3   -2.229508825032979E-1    3.907029116544740E-1
 8.195036083400000E9    -3.062379246904171E-1    4.420087942650547E-1   -2.275309659103242E-3   -1.317398607669722E-3   -2.361203889643260E-3   -1.307550650074165E-3   -2.218815056947925E-1    3.910140041873393E-1
 8.195054059075000E9    -3.051875431463180E-1    4.427442588480853E-1   -2.291478819957718E-3   -1.296507265806256E-3   -2.369122030195964E-3   -1.281047519883759E-3   -2.211195260611183E-1    3.915395867224221E-1
 8.195072034750000E9    -3.042457249891336E-1    4.435144286149036E-1   -2.290354928004158E-3   -1.292476807003103E-3   -2.355220657948478E-3   -1.255057893259339E-3   -2.201943306046767E-1    3.919554648044306E-1
