#  HZ   S   RI   R     50.00 
! Rohde & Schwarz Vector Network Analyzer 
! Rohde-Schwarz,ZNB20-2Port,1311601062101988,3.16
! Created: UTC 3/20/2024, 5:10:49 PM
! freq[Hz]                re:S11                  im:S11                  re:S21                  im:S21                  re:S12                  im:S12                  re:S22                  im:S22
 8.193540597000000E9    -3.873159214952110E-1    3.745886355729726E-1   -1.918806497116048E-3   -1.662119152315906E-3   -2.025644907735638E-3   -1.671016965729267E-3   -2.916145057086568E-1    3.450259588172735E-1
 8.193558219425000E9    -3.863776664883469E-1    3.754270884133890E-1   -1.903346128845758E-3   -1.667665570927928E-3   -2.004389641417641E-3   -1.661102335831582E-3   -2.908769233753616E-1    3.456105819520644E-1
 8.193575841850000E9    -3.856926734571119E-1    3.764119412375617E-1   -1.889120103384415E-3   -1.647090005850344E-3   -2.003505299327640E-3   -1.631342336455711E-3   -2.901597154758518E-1    3.462336354069491E-1
 8.193593464275000E9    -3.847719343048935E-1    3.773274981113832E-1   -1.933461257155063E-3   -1.650321437970370E-3   -2.014838360061142E-3   -1.635496847430465E-3   -2.893709608152373E-1    3.468435913218669E-1
 8.193611086700000E9    -3.837367567891979E-1    3.781494842329086E-1   -1.948472292127111E-3   -1.648887002798836E-3   -2.055526705987943E-3   -1.633660444090795E-3   -2.884746736137586E-1    3.475085874427023E-1
 8.193628709125000E9    -3.829195520448648E-1    3.791539600363230E-1   -1.941718208832618E-3   -1.659957586551253E-3   -2.043469533087238E-3   -1.654449864267718E-3   -2.879043030715187E-1    3.481652224196747E-1
 8.193646331550000E9    -3.820264697930866E-1    3.799770175711148E-1   -1.908386348272116E-3   -1.665146678225379E-3   -2.039690390681637E-3   -1.623595777975843E-3   -2.870303889244376E-1    3.487459442063607E-1
 8.193663953975000E9    -3.812514869229487E-1    3.808432609626850E-1   -1.934719079876167E-3   -1.649149471559720E-3   -2.044544896421549E-3   -1.596855911915278E-3   -2.862836410514091E-1    3.494150053478457E-1
 8.193681576400000E9    -3.804079909515011E-1    3.816809420570714E-1   -1.957057788312965E-3   -1.622394181838323E-3   -2.062160802685132E-3   -1.611212298758549E-3   -2.854987819351871E-1    3.500043791732609E-1
 8.193699198825000E9    -3.794183034820399E-1    3.825427231401055E-1   -1.937891911218624E-3   -1.658957580786320E-3   -2.064662378181360E-3   -1.631291315746356E-3   -2.847066299728433E-1    3.505323353570465E-1
 8.193716821250000E9    -3.784839062673307E-1    3.833144343305238E-1   -1.945628977572516E-3   -1.635906550439391E-3   -2.026357957964753E-3   -1.600882379047080E-3   -2.839476331867709E-1    3.512220617321257E-1
 8.193734443675000E9    -3.776959028597092E-1    3.843293783511501E-1   -1.937018547100274E-3   -1.642915921346649E-3   -2.045031088022805E-3   -1.607597114743380E-3   -2.831470289074794E-1    3.518798242476472E-1
 8.193752066100000E9    -3.766784018014853E-1    3.851160411752774E-1   -1.958641016242148E-3   -1.625634758884082E-3   -2.074284890385308E-3   -1.609290432133538E-3   -2.823636346208284E-1    3.523491913637774E-1
 8.193769688525000E9    -3.757628941890779E-1    3.859825901900622E-1   -1.938072505328050E-3   -1.610888609100601E-3   -2.070854587662879E-3   -1.606358953960234E-3   -2.816414599734546E-1    3.529229909773571E-1
 8.193787310950000E9    -3.750095696951189E-1    3.868298846185875E-1   -1.963200197553899E-3   -1.622663365771386E-3   -2.066016314155629E-3   -1.596580271355497E-3   -2.807950257889405E-1    3.535469851779460E-1
 8.193804933375000E9    -3.739227983808318E-1    3.876723441152476E-1   -1.959309049833622E-3   -1.607107853939314E-3   -2.045246530687266E-3   -1.578334344022259E-3   -2.800250542569823E-1    3.542977932241133E-1
 8.193822555800000E9    -3.730126117124553E-1    3.885348362584642E-1   -1.980230899402738E-3   -1.616899160387140E-3   -2.056097087383977E-3   -1.595443787094079E-3   -2.792829380467096E-1    3.545627368017429E-1
 8.193840178225000E9    -3.722004994750026E-1    3.893880514528517E-1   -1.967919532403665E-3   -1.609929175372267E-3   -2.074989102978543E-3   -1.594942813405126E-3   -2.784867960750541E-1    3.554990238823511E-1
 8.193857800650000E9    -3.712293926826267E-1    3.902766919474289E-1   -1.994872460456173E-3   -1.614201307538479E-3   -2.109016545194801E-3   -1.597724020265063E-3   -2.775548986685862E-1    3.558888320427820E-1
 8.193875423075000E9    -3.703961518595729E-1    3.911457840638739E-1   -1.990955419436597E-3   -1.602567706611534E-3   -2.105241534160287E-3   -1.575664288831159E-3   -2.768633991924369E-1    3.565330792251199E-1
 8.193893045500000E9    -3.694380174131767E-1    3.919453849303365E-1   -2.011789789872945E-3   -1.569106081396082E-3   -2.079988499490269E-3   -1.559705147694538E-3   -2.759951801395564E-1    3.570418400959448E-1
 8.193910667925000E9    -3.684898720342162E-1    3.927449130914911E-1   -1.990814236156241E-3   -1.577624869233215E-3   -2.121035868384164E-3   -1.554714954757172E-3   -2.751912073130708E-1    3.574944822118433E-1
 8.193928290350000E9    -3.676143668136990E-1    3.936592384416758E-1   -2.008630998655110E-3   -1.586646237267608E-3   -2.113617227765707E-3   -1.542600892669896E-3   -2.745086756313454E-1    3.582796735474207E-1
 8.193945912775000E9    -3.666862535966005E-1    3.944919226788305E-1   -1.991987833949209E-3   -1.572689117901728E-3   -2.132127588895384E-3   -1.559330872645742E-3   -2.735912218775978E-1    3.587635713064672E-1
 8.193963535200000E9    -3.657557814718021E-1    3.952738517163108E-1   -2.001226194563509E-3   -1.573242736652669E-3   -2.118767895581475E-3   -1.551311629733212E-3   -2.727889593057961E-1    3.593382253397982E-1
 8.193981157625000E9    -3.647702639553119E-1    3.962276287011194E-1   -2.002138235928525E-3   -1.574143091238481E-3   -2.118900912382134E-3   -1.532953562607521E-3   -2.720868910955815E-1    3.598633890800819E-1
 8.193998780050000E9    -3.639885162616508E-1    3.969020808268972E-1   -2.039888358827496E-3   -1.581351244791851E-3   -2.130297805492775E-3   -1.530215551892930E-3   -2.711079819992918E-1    3.604566283935574E-1
 8.194016402475000E9    -3.632017334159827E-1    3.978717301461890E-1   -1.998279685985411E-3   -1.561813797023477E-3   -2.133445601576922E-3   -1.542930395394674E-3   -2.704080502455666E-1    3.612535857444724E-1
 8.194034024900000E9    -3.622085094280942E-1    3.987351160572535E-1   -2.030333886706862E-3   -1.550472627714834E-3   -2.152610554573909E-3   -1.538363429319990E-3   -2.696884204532667E-1    3.615112803772113E-1
 8.194051647325000E9    -3.611903785675640E-1    3.994196142287565E-1   -2.043582017881897E-3   -1.573465514090078E-3   -2.111551395154760E-3   -1.540624718728069E-3   -2.688639071451946E-1    3.622189599836454E-1
 8.194069269750000E9    -3.602847740245176E-1    4.002504140036637E-1   -2.041384762906989E-3   -1.551719518997060E-3   -2.145549572210028E-3   -1.552435252667622E-3   -2.681347696236414E-1    3.628061227571587E-1
 8.194086892175000E9    -3.592842573273629E-1    4.010674953990533E-1   -2.041192155970233E-3   -1.550630629558529E-3   -2.138238507076603E-3   -1.526428384725699E-3   -2.672188370888601E-1    3.633269265417050E-1
 8.194104514600000E9    -3.583776108148602E-1    4.019924956804365E-1   -2.020438570003342E-3   -1.568465679728911E-3   -2.156051757413084E-3   -1.522606664561527E-3   -2.662878795060696E-1    3.640252876687631E-1
 8.194122137025000E9    -3.574812884009376E-1    4.025967901262647E-1   -2.050087679935274E-3   -1.521716279658219E-3   -2.148005975973759E-3   -1.525228649150254E-3   -2.655685420633070E-1    3.646517062703955E-1
 8.194139759450000E9    -3.565530361252022E-1    4.035602337916640E-1   -2.032363305144614E-3   -1.513998794065928E-3   -2.161775549365876E-3   -1.507651034436747E-3   -2.649056481874393E-1    3.649696829549729E-1
 8.194157381875000E9    -3.556488069487984E-1    4.043567700460368E-1   -2.032921493476205E-3   -1.546657339097743E-3   -2.146184025626432E-3   -1.526397197985156E-3   -2.640016706360332E-1    3.655605451086310E-1
 8.194175004300000E9    -3.546624134082461E-1    4.052132707730657E-1   -2.057595391437941E-3   -1.519152362788673E-3   -2.156803779011823E-3   -1.489307198915058E-3   -2.632528282995900E-1    3.662745316338533E-1
 8.194192626725000E9    -3.535712997643080E-1    4.059047267057815E-1   -2.062946435131270E-3   -1.527244346684567E-3   -2.158310029721465E-3   -1.454970784077728E-3   -2.623602072771838E-1    3.666650615990204E-1
 8.194210249150000E9    -3.526242703326827E-1    4.067841706866780E-1   -2.082038227182645E-3   -1.521099803108020E-3   -2.183431649769905E-3   -1.495102609962761E-3   -2.615048751555477E-1    3.673299742585613E-1
 8.194227871575000E9    -3.518063494181945E-1    4.076656674049040E-1   -2.036412136393232E-3   -1.495499766817581E-3   -2.179993085669495E-3   -1.486851625641331E-3   -2.606534000683295E-1    3.679010047471345E-1
 8.194245494000000E9    -3.507988913863069E-1    4.084425796175740E-1   -2.073642855262981E-3   -1.492279967948610E-3   -2.177593221642946E-3   -1.524985011822456E-3   -2.598527793189793E-1    3.684005418076056E-1
 8.194263116425000E9    -3.498254654648699E-1    4.092079707860019E-1   -2.119575748267972E-3   -1.520348738936775E-3   -2.207620192318899E-3   -1.458779925543527E-3   -2.589391670007840E-1    3.689565935776328E-1
 8.194280738850000E9    -3.489492555862885E-1    4.100514331557039E-1   -2.089519353290835E-3   -1.515608055178845E-3   -2.190214828935525E-3   -1.467887406710224E-3   -2.583555058722911E-1    3.694398650463164E-1
 8.194298361275000E9    -3.479408693287620E-1    4.108261360226445E-1   -2.075060401640508E-3   -1.514497038833345E-3   -2.205755066837343E-3   -1.459096234031120E-3   -2.573635919363622E-1    3.699186630018405E-1
 8.194315983700000E9    -3.468344526656411E-1    4.115131691950411E-1   -2.098242112015541E-3   -1.502984882952491E-3   -2.202546555577738E-3   -1.443904615459596E-3   -2.566905025946029E-1    3.706800896042923E-1
 8.194333606125000E9    -3.460902633815810E-1    4.123271531194884E-1   -2.110620872852628E-3   -1.510048257860171E-3   -2.206469562804287E-3   -1.494228018517082E-3   -2.556990741380722E-1    3.710973099827977E-1
 8.194351228550000E9    -3.449792133498765E-1    4.132338955287470E-1   -2.110774884096223E-3   -1.496384573470172E-3   -2.202583199906895E-3   -1.465635261918026E-3   -2.548007885787840E-1    3.715286809228820E-1
 8.194368850975000E9    -3.440720915953536E-1    4.139608382849216E-1   -2.106793455814709E-3   -1.479038408205076E-3   -2.206369225520275E-3   -1.414431148126480E-3   -2.540847923114706E-1    3.721607059659927E-1
 8.194386473400000E9    -3.431820521051934E-1    4.148032768581780E-1   -2.114810873883009E-3   -1.491197938877225E-3   -2.219026595073008E-3   -1.459789284349303E-3   -2.532444425085788E-1    3.727674859578656E-1
 8.194404095825000E9    -3.422491943587454E-1    4.155535413174357E-1   -2.106628444207098E-3   -1.495595333993495E-3   -2.216302453037775E-3   -1.442499266197695E-3   -2.525369446975534E-1    3.731913779903099E-1
 8.194421718250000E9    -3.412470920592887E-1    4.161793741287142E-1   -2.099436045868162E-3   -1.469325890273571E-3   -2.222917403042033E-3   -1.460099058305942E-3   -2.516893876505579E-1    3.737207318186988E-1
 8.194439340675000E9    -3.401061665279745E-1    4.170588416697830E-1   -2.119010020198008E-3   -1.485997947306064E-3   -2.223912904312062E-3   -1.446692159193281E-3   -2.507291056313440E-1    3.743356802942895E-1
 8.194456963100000E9    -3.393251778122997E-1    4.179074238154903E-1   -2.114114376739675E-3   -1.473306962755588E-3   -2.221490025724409E-3   -1.443416529153812E-3   -2.500124398626313E-1    3.747991904158711E-1
 8.194474585525000E9    -3.382706473975704E-1    4.185611543193795E-1   -2.174131132231880E-3   -1.448839256201170E-3   -2.244265321916747E-3   -1.427809615786649E-3   -2.491802876204354E-1    3.753065190694972E-1
 8.194492207950000E9    -3.374324402342902E-1    4.192412299886227E-1   -2.128474513075035E-3   -1.455706245495295E-3   -2.239266025471963E-3   -1.430249712969090E-3   -2.483440049193360E-1    3.759661154490946E-1
 8.194509830375000E9    -3.362675487413134E-1    4.201580770911781E-1   -2.119817646923450E-3   -1.461306102503550E-3   -2.246048422229787E-3   -1.429298398339854E-3   -2.474294910241161E-1    3.763975735002947E-1
 8.194527452800000E9    -3.353795903274107E-1    4.208957195439370E-1   -2.133859083960378E-3   -1.460445323175614E-3   -2.262209629567045E-3   -1.409674657468791E-3   -2.465481278407892E-1    3.769028145091723E-1
 8.194545075225000E9    -3.344441194222292E-1    4.214419555228446E-1   -2.149967292660156E-3   -1.423933528103997E-3   -2.245589109346551E-3   -1.405606423671097E-3   -2.458611111006795E-1    3.773718856979430E-1
 8.194562697650000E9    -3.333902999096660E-1    4.223625541721086E-1   -2.156347408992385E-3   -1.430163709303707E-3   -2.228531601842227E-3   -1.411941918700437E-3   -2.449860882706497E-1    3.780064262453735E-1
 8.194580320075000E9    -3.325143973231112E-1    4.232230458764219E-1   -2.161347986982675E-3   -1.442938647697248E-3   -2.285018063554693E-3   -1.398507222540284E-3   -2.440270681159989E-1    3.785016090222220E-1
 8.194597942500000E9    -3.315194040091474E-1    4.239509032860805E-1   -2.166520809959177E-3   -1.415032176690677E-3   -2.248176646173734E-3   -1.397553339626821E-3   -2.432926915468203E-1    3.790550577492068E-1
 8.194615564925000E9    -3.303466326148583E-1    4.248031771655555E-1   -2.153844756529300E-3   -1.406696199511149E-3   -2.276135501284851E-3   -1.376712816034546E-3   -2.423176944475570E-1    3.795108166270973E-1
 8.194633187350000E9    -3.295230152908477E-1    4.254795060496808E-1   -2.195160973452940E-3   -1.442793114739320E-3   -2.287029448690218E-3   -1.362258371176502E-3   -2.415680843592787E-1    3.799860181411836E-1
 8.194650809775000E9    -3.284130009444570E-1    4.262397782332465E-1   -2.188604823804632E-3   -1.414929666565601E-3   -2.307290768859835E-3   -1.389348420464004E-3   -2.408439139783586E-1    3.805071565595631E-1
 8.194668432200000E9    -3.274715897570469E-1    4.269820027154803E-1   -2.173449223618399E-3   -1.416710589969253E-3   -2.306193936160122E-3   -1.378569756785531E-3   -2.397298258207091E-1    3.809102106175943E-1
 8.194686054625000E9    -3.264697719354179E-1    4.276605903193826E-1   -2.196001803533799E-3   -1.395894518411273E-3   -2.280941783731589E-3   -1.338612657325928E-3   -2.389390514388046E-1    3.815784956809755E-1
 8.194703677050000E9    -3.255264448983842E-1    4.284846176954489E-1   -2.201454585961606E-3   -1.385736921861622E-3   -2.312375587562870E-3   -1.325440384080450E-3   -2.382052470219647E-1    3.819580557571794E-1
 8.194721299475000E9    -3.244512088614652E-1    4.291188582711386E-1   -2.184086778402458E-3   -1.388156378348734E-3   -2.291386351845013E-3   -1.355551328938039E-3   -2.373411252991733E-1    3.825790291750922E-1
 8.194738921900000E9    -3.235036195931059E-1    4.298500441830861E-1   -2.198004442350030E-3   -1.399283523390484E-3   -2.280641332496074E-3   -1.337415764611279E-3   -2.365195917918933E-1    3.828817728031507E-1
 8.194756544325000E9    -3.224220359885297E-1    4.306130354447886E-1   -2.192219378114998E-3   -1.392979025453275E-3   -2.327299470924210E-3   -1.337222027691418E-3   -2.356110835479259E-1    3.834349676197918E-1
 8.194774166750000E9    -3.214468111430748E-1    4.313288157100795E-1   -2.195021050337456E-3   -1.386568269741175E-3   -2.287899215603198E-3   -1.338603234336042E-3   -2.346601970671203E-1    3.839527114506506E-1
 8.194791789175000E9    -3.204796190382775E-1    4.321775942194582E-1   -2.234464807388618E-3   -1.390888894288180E-3   -2.287613036904044E-3   -1.368601649870457E-3   -2.337648022778529E-1    3.843888724013017E-1
 8.194809411600000E9    -3.194557936653324E-1    4.328365993180635E-1   -2.217179895047418E-3   -1.364688617991364E-3   -2.343763454669945E-3   -1.326021412395051E-3   -2.330973916857302E-1    3.849721374650571E-1
 8.194827034025000E9    -3.185188817901078E-1    4.334493167349843E-1   -2.234163802047880E-3   -1.371303149933479E-3   -2.326617660054120E-3   -1.340152780299053E-3   -2.321242216855195E-1    3.854594457509083E-1
 8.194844656450000E9    -3.173730059425326E-1    4.344223208229943E-1   -2.228727414472608E-3   -1.381694323079089E-3   -2.321236635340204E-3   -1.313018562292701E-3   -2.313137552539001E-1    3.858806039297495E-1
 8.194862278875000E9    -3.163673725058845E-1    4.351268717858602E-1   -2.238564666946981E-3   -1.363866653304971E-3   -2.347204945626730E-3   -1.338292241216115E-3   -2.305664302914389E-1    3.864943675157921E-1
 8.194879901300000E9    -3.154577787659467E-1    4.358557594276418E-1   -2.223577508500024E-3   -1.377491023416490E-3   -2.349400622776633E-3   -1.316194132548785E-3   -2.297240940185694E-1    3.868337802348089E-1
 8.194897523725000E9    -3.143867214831775E-1    4.364996334730069E-1   -2.239002593447875E-3   -1.355212984486076E-3   -2.337124095309198E-3   -1.330716427882639E-3   -2.287952105144630E-1    3.873438530935083E-1
 8.194915146150000E9    -3.132958406483435E-1    4.371905633912126E-1   -2.238889958771333E-3   -1.365036666283722E-3   -2.329240421010152E-3   -1.326903295462056E-3   -2.279583439546105E-1    3.877988207952544E-1
 8.194932768575000E9    -3.124438667639238E-1    4.379474247335826E-1   -2.259533162304436E-3   -1.367485153584306E-3   -2.329688087084042E-3   -1.311614053503396E-3   -2.270722624461047E-1    3.883873796875499E-1
 8.194950391000000E9    -3.113226690013229E-1    4.387062284843936E-1   -2.254835576845078E-3   -1.333276752062258E-3   -2.353415218679530E-3   -1.297050021109741E-3   -2.262874302212834E-1    3.887287633826206E-1
 8.194968013425000E9    -3.102520737568017E-1    4.393343272932990E-1   -2.281283594565140E-3   -1.328290153353871E-3   -2.351520391901238E-3   -1.286485711698497E-3   -2.252635230534621E-1    3.893340318708496E-1
 8.194985635850000E9    -3.093278636333073E-1    4.399113566330669E-1   -2.280261769122671E-3   -1.347336829952547E-3   -2.391933187534355E-3   -1.272842321335301E-3   -2.244981426866602E-1    3.898407377730114E-1
 8.195003258275000E9    -3.083025199834085E-1    4.407686093208245E-1   -2.267338173474675E-3   -1.358249353724513E-3   -2.389414819895584E-3   -1.293551619245288E-3   -2.235107544916666E-1    3.902766048583397E-1
 8.195020880700000E9    -3.070787033004224E-1    4.414804156239492E-1   -2.264685877945643E-3   -1.331418724320493E-3   -2.379800004351493E-3   -1.246262379721182E-3   -2.225958626573166E-1    3.907159991904898E-1
 8.195038503125000E9    -3.062495171145235E-1    4.421150713943745E-1   -2.281954486404783E-3   -1.322525350577662E-3   -2.366643262885381E-3   -1.304056811983768E-3   -2.218637693688615E-1    3.910543294707265E-1
 8.195056125550000E9    -3.051754792283637E-1    4.428014725801611E-1   -2.269138058743011E-3   -1.318640391688097E-3   -2.378726876268071E-3   -1.274948698021794E-3   -2.210059348287257E-1    3.917203283923896E-1
 8.195073747975000E9    -3.040844246964809E-1    4.435018740322597E-1   -2.272405037810117E-3   -1.315205431014423E-3   -2.362140303412890E-3   -1.249035746417941E-3   -2.200810739859532E-1    3.919715410812772E-1
 8.195091370400000E9    -3.031781036989097E-1    4.440920045797686E-1   -2.312439819505807E-3   -1.302224050482723E-3   -2.367284697567972E-3   -1.265958773997319E-3   -2.192966800115715E-1    3.925796376902660E-1
 8.195108992825000E9    -3.021033751835493E-1    4.449153570641609E-1   -2.308194874244841E-3   -1.304833669632213E-3   -2.385893593617336E-3   -1.267982487610646E-3   -2.182860241495212E-1    3.929630897793167E-1
 8.195126615250000E9    -3.010410507590093E-1    4.455661693670132E-1   -2.315085065866339E-3   -1.308424659454203E-3   -2.403905687484077E-3   -1.278912586259435E-3   -2.174750254278945E-1    3.933805380324640E-1
