#  HZ   S   RI   R     50.00 
! Rohde & Schwarz Vector Network Analyzer 
! Rohde-Schwarz,ZNB20-2Port,1311601062101988,3.16
! Created: UTC 3/20/2024, 4:55:40 PM
! freq[Hz]                re:S11                  im:S11                  re:S21                  im:S21                  re:S12                  im:S12                  re:S22                  im:S22
 8.187919245000000E9    -5.413617850026415E-1    2.192264270541027E-2   -3.146536516348235E-4   -2.326073303885867E-3   -4.380131283731940E-4   -2.395082880704777E-3   -4.494266335983392E-1    8.196924795075636E-2
 8.187961746100000E9    -5.412564906310686E-1    2.477943869525337E-2   -3.315683905424756E-4   -2.325991801463759E-3   -4.082843907355649E-4   -2.434046884740478E-3   -4.490598496289763E-1    8.446353308432561E-2
 8.188004247200000E9    -5.409796033501523E-1    2.792349564549240E-2   -3.623393832064075E-4   -2.335567675574717E-3   -3.823692008170434E-4   -2.410479930693400E-3   -4.485310652371722E-1    8.647181087757294E-2
 8.188046748300000E9    -5.408561676072925E-1    3.092677383925603E-2   -3.429488842872695E-4   -2.337468702577804E-3   -4.038522682330128E-4   -2.418518773116590E-3   -4.479424064773248E-1    8.901809872966258E-2
 8.188089249400000E9    -5.406891651908879E-1    3.375071932327819E-2   -4.045478399131126E-4   -2.293597566888280E-3   -4.394102032082565E-4   -2.386755878914905E-3   -4.476024388093153E-1    9.126895845115207E-2
 8.188131750500000E9    -5.406039787999796E-1    3.668156858851464E-2   -3.778389836152807E-4   -2.315690858051893E-3   -4.527679563444298E-4   -2.404358746078136E-3   -4.469645616821050E-1    9.365918438979615E-2
 8.188174251600000E9    -5.402111857494886E-1    3.981989054645667E-2   -3.848038877559339E-4   -2.299705738282704E-3   -4.578619576999456E-4   -2.387042786121314E-3   -4.463453703048478E-1    9.575750941941347E-2
 8.188216752700000E9    -5.400844154200170E-1    4.274058405430241E-2   -4.354934837152538E-4   -2.332245603622161E-3   -4.708356153214406E-4   -2.384521480201881E-3   -4.460121870108839E-1    9.813156749797998E-2
 8.188259253800000E9    -5.397399512556088E-1    4.568579473280249E-2   -4.210567429106823E-4   -2.310355234911864E-3   -4.914566096834342E-4   -2.403147857160101E-3   -4.453414341103752E-1    1.003799035834672E-1
 8.188301754900000E9    -5.395538235424598E-1    4.873669126756355E-2   -4.162457363109830E-4   -2.304495147409482E-3   -5.415336274761778E-4   -2.376518387236308E-3   -4.447948550770986E-1    1.027330700324748E-1
 8.188344256000000E9    -5.391736973003708E-1    5.163281735757971E-2   -4.688011074628456E-4   -2.326582331154300E-3   -5.035498589923470E-4   -2.362779331317246E-3   -4.441305161342048E-1    1.047947928787685E-1
 8.188386757100000E9    -5.389524747157841E-1    5.456797665340669E-2   -4.613131814306603E-4   -2.344332171688676E-3   -5.315879618353439E-4   -2.398777136953546E-3   -4.436661641127811E-1    1.072436171991252E-1
 8.188429258200000E9    -5.386608461943029E-1    5.766095387301463E-2   -4.900658602523211E-4   -2.328290102439808E-3   -5.384169379809217E-4   -2.361537091373084E-3   -4.430153125507035E-1    1.095524163233465E-1
 8.188471759300000E9    -5.382138041358592E-1    6.061239760182398E-2   -5.021783170795641E-4   -2.292339154408782E-3   -5.352270633476306E-4   -2.381074346632577E-3   -4.423216054819454E-1    1.117310658552630E-1
 8.188514260400000E9    -5.380128099617327E-1    6.358094697110556E-2   -4.949262563009815E-4   -2.322390905727366E-3   -5.782469207453367E-4   -2.357812863043628E-3   -4.418934307751810E-1    1.140957861459110E-1
 8.188556761500000E9    -5.374639729389161E-1    6.644889292176495E-2   -5.059632838719497E-4   -2.300457835782451E-3   -5.887770058430364E-4   -2.388052502307945E-3   -4.410905699363588E-1    1.162595544366765E-1
 8.188599262600000E9    -5.370959575015144E-1    6.937616343585776E-2   -5.298768485796797E-4   -2.292800092597054E-3   -6.016524359127169E-4   -2.396952333526420E-3   -4.405347952689983E-1    1.184807432827598E-1
 8.188641763700000E9    -5.367136671106636E-1    7.223815445011170E-2   -5.339330196748783E-4   -2.342704207300395E-3   -6.285951851995597E-4   -2.373407151290819E-3   -4.396523258779647E-1    1.208131012667352E-1
 8.188684264800000E9    -5.362902204705263E-1    7.526006996810304E-2   -5.435798665161335E-4   -2.293359341872471E-3   -6.222818828243239E-4   -2.401198417444839E-3   -4.391634436894630E-1    1.231273182024327E-1
 8.188726765900000E9    -5.359428959181957E-1    7.828800447313290E-2   -5.312084277736411E-4   -2.316233698115828E-3   -6.290742147084826E-4   -2.373776878790272E-3   -4.385527846853586E-1    1.253580138728999E-1
 8.188769267000000E9    -5.354520863379977E-1    8.110178654109397E-2   -5.741210815770886E-4   -2.308179667854566E-3   -6.040276230031333E-4   -2.374597763769206E-3   -4.376958742841033E-1    1.276887920750311E-1
 8.188811768100000E9    -5.349349830873472E-1    8.425296661892979E-2   -5.870895772340064E-4   -2.306711562820909E-3   -6.454556542492069E-4   -2.372536838304507E-3   -4.370661302859883E-1    1.298951697477314E-1
 8.188854269200000E9    -5.344414414690114E-1    8.709856196721648E-2   -5.941652425535880E-4   -2.289549917887012E-3   -6.670679691769400E-4   -2.353899016537678E-3   -4.363847739263506E-1    1.320828935215007E-1
 8.188896770300000E9    -5.339286195112629E-1    8.987525918337053E-2   -6.133031645483677E-4   -2.289586636282785E-3   -6.562338554025622E-4   -2.363711959790820E-3   -4.355242106210576E-1    1.343193069797373E-1
 8.188939271400000E9    -5.334449002882043E-1    9.284783212326231E-2   -6.309492072419975E-4   -2.307393322014339E-3   -6.957722226171441E-4   -2.364155590316113E-3   -4.348987745859489E-1    1.366014903239358E-1
 8.188981772500000E9    -5.329227616628378E-1    9.578365720760124E-2   -6.374973913684135E-4   -2.273108256183146E-3   -7.054500515197176E-4   -2.358882966085915E-3   -4.340752651078619E-1    1.387060484540551E-1
 8.189024273600000E9    -5.324412838157970E-1    9.866963575195485E-2   -6.282912212909313E-4   -2.264723991763916E-3   -7.281083657076184E-4   -2.364469277971157E-3   -4.334177410192332E-1    1.410755165616747E-1
 8.189066774700000E9    -5.318021477177756E-1    1.017687614007440E-1   -6.618317490837609E-4   -2.310532127618801E-3   -7.391295910952914E-4   -2.348191766116657E-3   -4.325821144436360E-1    1.432131730735283E-1
 8.189109275800000E9    -5.312368574496871E-1    1.046292728624911E-1   -6.855478459104968E-4   -2.274370037908574E-3   -7.552040288851028E-4   -2.358340153749625E-3   -4.317185951350718E-1    1.454828698591071E-1
 8.189151776900000E9    -5.306253680847625E-1    1.075953506017627E-1   -6.864352282318296E-4   -2.285340872043191E-3   -7.536969947578886E-4   -2.338554041259166E-3   -4.310024284200248E-1    1.477085647783080E-1
 8.189194278000000E9    -5.299647057721734E-1    1.103491844386355E-1   -7.036583303411817E-4   -2.284122473810414E-3   -7.773263043816018E-4   -2.347675869860025E-3   -4.301477011162506E-1    1.498176488914908E-1
 8.189236779100000E9    -5.291972945236604E-1    1.132954482778743E-1   -6.958073283554806E-4   -2.278744223979514E-3   -7.750932271424612E-4   -2.352926335268472E-3   -4.292842044831044E-1    1.520959324732086E-1
 8.189279280200000E9    -5.286406881700688E-1    1.163792388943608E-1   -7.231144949784406E-4   -2.270804070803112E-3   -7.860490137134231E-4   -2.298369621532122E-3   -4.285300979803962E-1    1.543706540440286E-1
 8.189321781300000E9    -5.280905048551989E-1    1.192323883845749E-1   -7.397619823640948E-4   -2.250966264236995E-3   -8.102025148115588E-4   -2.341685138170008E-3   -4.276351865054311E-1    1.565703356387313E-1
 8.189364282400000E9    -5.273196141656934E-1    1.220544975658153E-1   -7.564608008094064E-4   -2.265714344081391E-3   -8.236698463456365E-4   -2.321427224249522E-3   -4.268301265319921E-1    1.588066772143291E-1
 8.189406783500000E9    -5.266701527756574E-1    1.249924594795045E-1   -7.782072734374768E-4   -2.260552566334655E-3   -8.620865854602831E-4   -2.330544279471933E-3   -4.259116744017047E-1    1.609707449558239E-1
 8.189449284600000E9    -5.260362554316211E-1    1.278892377206955E-1   -7.423181686015445E-4   -2.251706150140002E-3   -8.661692670801534E-4   -2.319320502473481E-3   -4.249009930261988E-1    1.629972259315579E-1
 8.189491785700000E9    -5.252529865815796E-1    1.308498453232555E-1   -7.474413167260598E-4   -2.267689235475605E-3   -8.789955041400243E-4   -2.351751897405238E-3   -4.242679302275551E-1    1.651658803182382E-1
 8.189534286800000E9    -5.244626791558489E-1    1.335858204383735E-1   -7.873245087464212E-4   -2.243772623640096E-3   -8.918731661181310E-4   -2.266081420360089E-3   -4.231663734146834E-1    1.672696115734077E-1
 8.189576787900000E9    -5.236696123906509E-1    1.364354493913423E-1   -8.108780393363889E-4   -2.267093432631690E-3   -8.739090791559582E-4   -2.300550762195336E-3   -4.224007491420939E-1    1.696089272317776E-1
 8.189619289000000E9    -5.228809735773444E-1    1.393744504744676E-1   -8.227257320129019E-4   -2.223645861046475E-3   -9.258158920844991E-4   -2.334058329477138E-3   -4.214039029294445E-1    1.717959397707197E-1
 8.189661790100000E9    -5.221373392914715E-1    1.423009300183328E-1   -8.272172148431962E-4   -2.242889814147594E-3   -9.229514951103278E-4   -2.303785155002098E-3   -4.203769698296279E-1    1.738274458476542E-1
 8.189704291200000E9    -5.212495290316008E-1    1.451087565852892E-1   -8.514537476148808E-4   -2.223528581430074E-3   -9.319154241895337E-4   -2.301888550327251E-3   -4.194792894070523E-1    1.760525223497888E-1
 8.189746792300000E9    -5.204536294606882E-1    1.479488516418089E-1   -8.587060924546081E-4   -2.238609595816338E-3   -9.328694612948165E-4   -2.278247935976457E-3   -4.185465938016847E-1    1.781456397896108E-1
 8.189789293400000E9    -5.196284064788915E-1    1.508643118639131E-1   -8.810235667826643E-4   -2.228500449295741E-3   -9.508825102017857E-4   -2.282977198701757E-3   -4.176870137105311E-1    1.802540655464151E-1
 8.189831794500000E9    -5.187952699787783E-1    1.536408088306242E-1   -8.866309871613523E-4   -2.218632898285202E-3   -9.529602677668096E-4   -2.293989710531181E-3   -4.165493794551652E-1    1.823822522248418E-1
 8.189874295600000E9    -5.179563133111397E-1    1.564760130264090E-1   -8.957703737130628E-4   -2.261924923450990E-3   -9.726702458468746E-4   -2.299998297422766E-3   -4.156696734219431E-1    1.845876780575474E-1
 8.189916796700000E9    -5.170810275134663E-1    1.594183434834491E-1   -9.175208778254641E-4   -2.205116638537499E-3   -1.002547895582062E-3   -2.271786702071749E-3   -4.146232573919799E-1    1.867998135413246E-1
 8.189959297800000E9    -5.160933801166820E-1    1.621363134410011E-1   -9.265912581349732E-4   -2.231107793010664E-3   -1.012232749390984E-3   -2.295010265408767E-3   -4.133966056710536E-1    1.888220381687565E-1
 8.190001798900000E9    -5.152800604019215E-1    1.650601974754858E-1   -9.205018981579453E-4   -2.199584001807917E-3   -1.009259814155706E-3   -2.254675134368482E-3   -4.125251056881208E-1    1.909066058239030E-1
 8.190044300000000E9    -5.142404715177158E-1    1.677863368387111E-1   -9.366116985674175E-4   -2.206873124486430E-3   -1.029583025548841E-3   -2.294785962872994E-3   -4.114039660527004E-1    1.931695412575296E-1
 8.190086801100000E9    -5.132686363436277E-1    1.707428935172792E-1   -9.522939044227306E-4   -2.202901338640975E-3   -1.037659668159621E-3   -2.260979704347496E-3   -4.103654443898165E-1    1.952215610339117E-1
 8.190129302200000E9    -5.124003014506594E-1    1.734214268420671E-1   -9.642167054457465E-4   -2.207657433345102E-3   -1.072936632824973E-3   -2.214770409383333E-3   -4.094617377173498E-1    1.972957946712642E-1
 8.190171803300000E9    -5.113782911820760E-1    1.763956881661721E-1   -9.981675676025133E-4   -2.184893743703275E-3   -1.052723990634225E-3   -2.261376590151570E-3   -4.082632278958644E-1    1.994741511556506E-1
 8.190214304400000E9    -5.104245110053220E-1    1.791594941380927E-1   -9.895801057073124E-4   -2.206529378946121E-3   -1.102561052312302E-3   -2.234400268570453E-3   -4.072898493974861E-1    2.013906165268573E-1
 8.190256805500000E9    -5.093720370581729E-1    1.820308165898764E-1   -1.024002501598360E-3   -2.193234682603453E-3   -1.087475916569426E-3   -2.210637339444719E-3   -4.061291606844801E-1    2.035969863338276E-1
 8.190299306600000E9    -5.083605297064406E-1    1.847233207598344E-1   -1.031334290155305E-3   -2.189663576078792E-3   -1.114805570986116E-3   -2.241422134344879E-3   -4.049267750159891E-1    2.056896649379509E-1
 8.190341807700000E9    -5.073175864797048E-1    1.875345807012038E-1   -1.032675940236212E-3   -2.168352936195583E-3   -1.111707381495694E-3   -2.238432700527886E-3   -4.038850187182323E-1    2.077356428571998E-1
 8.190384308800000E9    -5.061112826134144E-1    1.902664903132024E-1   -1.035246283978352E-3   -2.164404067025511E-3   -1.136428989356559E-3   -2.252267938735914E-3   -4.027376930882329E-1    2.098128073563428E-1
 8.190426809900000E9    -5.051269669413162E-1    1.931461949923045E-1   -1.043174058393825E-3   -2.192619470592889E-3   -1.165010110230894E-3   -2.207304407495316E-3   -4.016684839289055E-1    2.119751110330882E-1
 8.190469311000000E9    -5.040745215429957E-1    1.958732462164500E-1   -1.068170145318007E-3   -2.161606180165268E-3   -1.169516046429607E-3   -2.209668736223282E-3   -4.004982390902068E-1    2.140211041205707E-1
 8.190511812100000E9    -5.029946892156192E-1    1.987212585002027E-1   -1.101915428794967E-3   -2.173450768814532E-3   -1.163069155400018E-3   -2.208945640089098E-3   -3.993102437755307E-1    2.159567934165238E-1
 8.190554313200000E9    -5.017982470927932E-1    2.014646584141330E-1   -1.084318948451471E-3   -2.157667076979631E-3   -1.160873770943160E-3   -2.225860777906305E-3   -3.979951469644428E-1    2.180800130132254E-1
 8.190596814300000E9    -5.005802541532868E-1    2.042420406081334E-1   -1.090898561298971E-3   -2.144610593209454E-3   -1.227221021996856E-3   -2.201914513690872E-3   -3.969816995608613E-1    2.200221128953287E-1
 8.190639315400000E9    -4.993732215933873E-1    2.069927274634782E-1   -1.128921276554622E-3   -2.159031800037933E-3   -1.176536007029331E-3   -2.198332385197565E-3   -3.956778654640929E-1    2.221739738059905E-1
 8.190681816500000E9    -4.983869852971992E-1    2.097275409431935E-1   -1.129790166750037E-3   -2.162276871196209E-3   -1.196223113219068E-3   -2.187348302558708E-3   -3.946989030030729E-1    2.241890980533054E-1
 8.190724317600000E9    -4.972078110587143E-1    2.124141161315238E-1   -1.123328473427628E-3   -2.159152928229859E-3   -1.225191942312471E-3   -2.171500624223484E-3   -3.934494839495042E-1    2.260761863910389E-1
 8.190766818700000E9    -4.960388543055869E-1    2.151616169482612E-1   -1.132891921813818E-3   -2.149275194431175E-3   -1.247813962705959E-3   -2.174709553253275E-3   -3.922007905982032E-1    2.280417004887721E-1
 8.190809319800000E9    -4.946264165510067E-1    2.179243981542228E-1   -1.185890045268813E-3   -2.116829948986074E-3   -1.262305100769911E-3   -2.156478702383425E-3   -3.910668243469869E-1    2.301142018706503E-1
 8.190851820900000E9    -4.936147063185009E-1    2.205922228076968E-1   -1.185426315826830E-3   -2.153242409840676E-3   -1.281588806043975E-3   -2.160993755138555E-3   -3.897188293175221E-1    2.320653869931006E-1
 8.190894322000000E9    -4.922259823618003E-1    2.232795550108869E-1   -1.174398105488976E-3   -2.142724689523505E-3   -1.284873896587722E-3   -2.146889170182668E-3   -3.884048281342187E-1    2.343138366280141E-1
 8.190936823100000E9    -4.910459704121518E-1    2.259660338189321E-1   -1.201433726435566E-3   -2.105529821932116E-3   -1.289982590665947E-3   -2.132759962901798E-3   -3.871757723793153E-1    2.361921866480782E-1
 8.190979324200000E9    -4.897250355044359E-1    2.287195973713553E-1   -1.220562033807179E-3   -2.111341109762795E-3   -1.328208530160072E-3   -2.131930929752523E-3   -3.858708410227772E-1    2.381404525470144E-1
 8.191021825300000E9    -4.884173348782083E-1    2.313591244346849E-1   -1.222929415876208E-3   -2.104943466908974E-3   -1.310295407406812E-3   -2.139726012807063E-3   -3.845346618495430E-1    2.400678749393045E-1
 8.191064326400000E9    -4.872426256741568E-1    2.339670269120500E-1   -1.232659131925525E-3   -2.108193246196247E-3   -1.336272169419128E-3   -2.122531837335889E-3   -3.831592845685554E-1    2.420434091584001E-1
 8.191106827500000E9    -4.858657542708881E-1    2.368420030816954E-1   -1.259357118032789E-3   -2.106505870026039E-3   -1.371865147964122E-3   -2.168820130146858E-3   -3.818608540332480E-1    2.440401284391920E-1
 8.191149328600000E9    -4.846130391564584E-1    2.393719245801371E-1   -1.260498202352236E-3   -2.087372643644012E-3   -1.346901456226578E-3   -2.129592240150728E-3   -3.806915470012485E-1    2.458885181620717E-1
 8.191191829700000E9    -4.830773167650068E-1    2.419653782357399E-1   -1.295259375623689E-3   -2.127117023184258E-3   -1.379020317246311E-3   -2.101814444397295E-3   -3.793288973881570E-1    2.479090576393654E-1
 8.191234330800000E9    -4.817773660056845E-1    2.446630342300890E-1   -1.296002850381717E-3   -2.071196351355987E-3   -1.398479246166072E-3   -2.113263299581680E-3   -3.779639788306556E-1    2.498134059337246E-1
 8.191276831900000E9    -4.803428937313343E-1    2.472526585987601E-1   -1.291536340274680E-3   -2.085463751818019E-3   -1.376085433373609E-3   -2.058153726390984E-3   -3.765503946131454E-1    2.517233595015619E-1
 8.191319333000000E9    -4.789679308621667E-1    2.499892776106006E-1   -1.311750016620915E-3   -2.032559130853434E-3   -1.388566125008892E-3   -2.068754502998628E-3   -3.753470371361560E-1    2.537804770370100E-1
 8.191361834100000E9    -4.775923842707768E-1    2.525513762086342E-1   -1.315815386038345E-3   -2.072839166012334E-3   -1.439385933422195E-3   -2.109707317817222E-3   -3.740224698990628E-1    2.556909798027243E-1
 8.191404335200000E9    -4.761902104051177E-1    2.552418210833910E-1   -1.336812072466544E-3   -2.067657584588527E-3   -1.405830840061893E-3   -2.087984179944269E-3   -3.725100268217499E-1    2.576734772769083E-1
 8.191446836300000E9    -4.748404651369205E-1    2.577832561198468E-1   -1.362457834906781E-3   -2.034624606092113E-3   -1.424911306720605E-3   -2.078958593357716E-3   -3.712656025253063E-1    2.595054687176549E-1
 8.191489337400000E9    -4.734516653097360E-1    2.604798901184749E-1   -1.355475893135967E-3   -2.060046194156749E-3   -1.478489251332044E-3   -2.066465874264860E-3   -3.698530953587322E-1    2.615769775211664E-1
 8.191531838500000E9    -4.719721412058896E-1    2.630206009311832E-1   -1.363888754899407E-3   -2.048293991989636E-3   -1.460836162019674E-3   -2.064403571763880E-3   -3.682883486578772E-1    2.631565380821509E-1
 8.191574339600000E9    -4.703545882582648E-1    2.656750836858255E-1   -1.382560494641203E-3   -2.011103803898952E-3   -1.471859385643544E-3   -2.056910071498836E-3   -3.668514346047993E-1    2.650802921290996E-1
 8.191616840700000E9    -4.688777686619439E-1    2.683639027688549E-1   -1.386398533545471E-3   -2.050163360950967E-3   -1.504172489105151E-3   -2.059712229730140E-3   -3.655130220612861E-1    2.670647458793987E-1
 8.191659341800000E9    -4.673746020177257E-1    2.707203966725443E-1   -1.389625540020718E-3   -2.056701141846592E-3   -1.538731663858035E-3   -2.038305400208292E-3   -3.641304068535106E-1    2.689989694622589E-1
 8.191701842900000E9    -4.658828071258357E-1    2.733862643930692E-1   -1.408712459171337E-3   -2.015148399822696E-3   -1.526813056075269E-3   -2.020395346204321E-3   -3.626429916204358E-1    2.708170653195653E-1
 8.191744344000000E9    -4.643068566130050E-1    2.759180489955479E-1   -1.432074430126751E-3   -2.002520309810168E-3   -1.525477372282137E-3   -2.001929140491835E-3   -3.611983260473133E-1    2.726462173779550E-1
