#  HZ   S   RI   R     50.00 
! Rohde & Schwarz Vector Network Analyzer 
! Rohde-Schwarz,ZNB20-2Port,1311601062101988,3.16
! Created: UTC 3/20/2024, 5:10:58 PM
! freq[Hz]                re:S11                  im:S11                  re:S21                  im:S21                  re:S12                  im:S12                  re:S22                  im:S22
 8.193856772000000E9    -3.713071730244453E-1    3.901544157372167E-1   -1.982287219972151E-3   -1.591835048164128E-3   -2.094137931736492E-3   -1.560344151097016E-3   -2.776936967526925E-1    3.558362295804582E-1
 8.193872989825000E9    -3.705192064679117E-1    3.909710516622760E-1   -1.962126476288018E-3   -1.606154237365097E-3   -2.111690532801183E-3   -1.573550402038632E-3   -2.767888869358451E-1    3.563318115178002E-1
 8.193889207650000E9    -3.697322818291299E-1    3.917828465908827E-1   -2.016970387721393E-3   -1.591597825681667E-3   -2.087778227341045E-3   -1.554608214525521E-3   -2.760847641238557E-1    3.568923800901798E-1
 8.193905425475000E9    -3.688062855452375E-1    3.924780947447412E-1   -1.992344956159568E-3   -1.584814671197083E-3   -2.086207178534941E-3   -1.592460422969651E-3   -2.754500642928925E-1    3.574629303775803E-1
 8.193921643300000E9    -3.680450247406811E-1    3.932768070259078E-1   -1.985717240795981E-3   -1.579115533516842E-3   -2.083537368855668E-3   -1.582730519526530E-3   -2.747323084785312E-1    3.579466859413549E-1
 8.193937861125000E9    -3.672253265072587E-1    3.940690646134585E-1   -2.027958818318346E-3   -1.604070402038821E-3   -2.094888820422519E-3   -1.559872325509685E-3   -2.739922744902069E-1    3.584816632670773E-1
 8.193954078950000E9    -3.664435753126963E-1    3.948256669556467E-1   -2.008615096048139E-3   -1.590716308903069E-3   -2.103768171335192E-3   -1.577274678306731E-3   -2.731822593647022E-1    3.590575914953490E-1
 8.193970296775000E9    -3.655577106372639E-1    3.955212428763291E-1   -2.000150318854330E-3   -1.577669954064135E-3   -2.120545767134107E-3   -1.534493546462725E-3   -2.724686782284598E-1    3.597215688623702E-1
 8.193986514600000E9    -3.645171257307851E-1    3.962818605041121E-1   -2.014876106389646E-3   -1.578902009423960E-3   -2.106069969842484E-3   -1.540225501875649E-3   -2.717074899899083E-1    3.601850010364360E-1
 8.194002732425000E9    -3.639105831823891E-1    3.970622360649124E-1   -2.038954828276784E-3   -1.572054038852372E-3   -2.124630441760059E-3   -1.544399687038100E-3   -2.709498711864066E-1    3.606924452744497E-1
 8.194018950250000E9    -3.629654870120702E-1    3.978377221852619E-1   -2.024025404320174E-3   -1.574350066462016E-3   -2.130581569871402E-3   -1.532691844894921E-3   -2.702995056583896E-1    3.611362234075048E-1
 8.194035168075000E9    -3.620271886662728E-1    3.986448635982761E-1   -2.037359356569090E-3   -1.572683155308758E-3   -2.144926874859427E-3   -1.543211379112800E-3   -2.695804917377016E-1    3.617538277203681E-1
 8.194051385900000E9    -3.612329991789905E-1    3.994422031007574E-1   -2.042715735164684E-3   -1.550164379327586E-3   -2.108336059148396E-3   -1.543047649236007E-3   -2.687983056889622E-1    3.622865755124896E-1
 8.194067603725000E9    -3.602962315048425E-1    4.001617506225205E-1   -2.043277929561640E-3   -1.550906075506666E-3   -2.151993516362375E-3   -1.536897271125192E-3   -2.682026696733877E-1    3.628049105428690E-1
 8.194083821550000E9    -3.595874349278964E-1    4.008669742682587E-1   -2.053205530070641E-3   -1.526466932519716E-3   -2.145325341647099E-3   -1.527369599910649E-3   -2.673936396548386E-1    3.633106784622868E-1
 8.194100039375000E9    -3.586556484980123E-1    4.016216715473398E-1   -2.063541139738341E-3   -1.533664961164169E-3   -2.128682157106738E-3   -1.538921290939125E-3   -2.664894632645723E-1    3.638421845587436E-1
 8.194116257200000E9    -3.577295555756347E-1    4.025027846069359E-1   -2.002520222312897E-3   -1.549433325563538E-3   -2.158175550085784E-3   -1.514592263941566E-3   -2.659095207593974E-1    3.643101759106884E-1
 8.194132475025000E9    -3.569919406161607E-1    4.033344798410339E-1   -2.039527966670839E-3   -1.556327103203195E-3   -2.151252102060242E-3   -1.518916134907344E-3   -2.650015778018561E-1    3.649363086147042E-1
 8.194148692850000E9    -3.561244300370556E-1    4.039905374134210E-1   -2.038304752233305E-3   -1.519783544563964E-3   -2.166542088440044E-3   -1.498802843917251E-3   -2.643642096142860E-1    3.652993889319193E-1
 8.194164910675000E9    -3.552259844349843E-1    4.047408592228465E-1   -2.055175937578390E-3   -1.555207458727689E-3   -2.184168059800461E-3   -1.524770665574947E-3   -2.635509746617535E-1    3.658254901382749E-1
 8.194181128500000E9    -3.543815909675248E-1    4.054764048728810E-1   -2.030284259932633E-3   -1.543103063234447E-3   -2.190183889838954E-3   -1.511038116708631E-3   -2.627477245506218E-1    3.664071103679646E-1
 8.194197346325000E9    -3.534137530239227E-1    4.062056891235148E-1   -2.060848750123546E-3   -1.546120131483415E-3   -2.170212805084802E-3   -1.498197227024332E-3   -2.622063129690210E-1    3.668646525073718E-1
 8.194213564150000E9    -3.524957185342985E-1    4.069808260600233E-1   -2.068492067788483E-3   -1.525298224211368E-3   -2.182435246531414E-3   -1.508020884020963E-3   -2.613063953302625E-1    3.673629408713523E-1
 8.194229781975000E9    -3.517963132118127E-1    4.076544392900276E-1   -2.066284424206140E-3   -1.543187272653922E-3   -2.176157323274515E-3   -1.483173097517023E-3   -2.605019066460114E-1    3.678189208024725E-1
 8.194245999800000E9    -3.508136700607520E-1    4.083367576388627E-1   -2.082725160108650E-3   -1.488105684383331E-3   -2.149891968105441E-3   -1.474634660733080E-3   -2.599136712499929E-1    3.684640899444049E-1
 8.194262217625000E9    -3.499439148696190E-1    4.091511072107871E-1   -2.094114075195479E-3   -1.512160557169706E-3   -2.192594266619970E-3   -1.472167116446632E-3   -2.591262306132985E-1    3.688953763671455E-1
 8.194278435450000E9    -3.489465563355132E-1    4.098907175483023E-1   -2.104033877665008E-3   -1.518858792693722E-3   -2.150469511907651E-3   -1.457200335617421E-3   -2.583006067247785E-1    3.693482413572476E-1
 8.194294653275000E9    -3.481804223819118E-1    4.106378772360277E-1   -2.083971281876824E-3   -1.490551100320788E-3   -2.203710353851683E-3   -1.488842896922405E-3   -2.575056609868526E-1    3.700256898701824E-1
 8.194310871100000E9    -3.472550787039355E-1    4.114021901484072E-1   -2.097181389600145E-3   -1.500691313930142E-3   -2.203537983457136E-3   -1.494826269527970E-3   -2.567599306753790E-1    3.703888022468270E-1
 8.194327088925000E9    -3.463713075292821E-1    4.120757533827875E-1   -2.113272219031696E-3   -1.494864463874118E-3   -2.195852041133790E-3   -1.473905418822138E-3   -2.561023346126782E-1    3.709490672878545E-1
 8.194343306750000E9    -3.453887564118440E-1    4.127406807017650E-1   -2.116735674399775E-3   -1.487820447119195E-3   -2.228713897471679E-3   -1.479714532049622E-3   -2.552305441334460E-1    3.713484908573345E-1
 8.194359524575000E9    -3.447147567337439E-1    4.135919405696833E-1   -2.095343645763443E-3   -1.490538390126498E-3   -2.210625078604932E-3   -1.469364325476900E-3   -2.545380277810619E-1    3.718786724281677E-1
 8.194375742400000E9    -3.438860047051379E-1    4.142471491676636E-1   -2.099989747629590E-3   -1.490247988805439E-3   -2.205140878971877E-3   -1.452511954677959E-3   -2.538073902570797E-1    3.723018587742182E-1
 8.194391960225000E9    -3.429053651511690E-1    4.149019809308290E-1   -2.111692022680961E-3   -1.476311412297597E-3   -2.242229678290329E-3   -1.419806409467311E-3   -2.529324549162826E-1    3.728016610512328E-1
 8.194408178050000E9    -3.420469747437979E-1    4.156527659449044E-1   -2.120003388883035E-3   -1.488846786590218E-3   -2.226671270928047E-3   -1.442297043153732E-3   -2.522418197553227E-1    3.734419605579398E-1
 8.194424395875000E9    -3.409870803849535E-1    4.164121847715493E-1   -2.123892807590689E-3   -1.464148280217972E-3   -2.219231063455646E-3   -1.406290424939336E-3   -2.515034859050166E-1    3.738661699540150E-1
 8.194440613700000E9    -3.402352383722072E-1    4.170991104864368E-1   -2.126316849156827E-3   -1.480426557493419E-3   -2.207818051706317E-3   -1.434453413332356E-3   -2.505755439233757E-1    3.743052056789407E-1
 8.194456831525000E9    -3.394037567626764E-1    4.178333652683286E-1   -2.143376110538381E-3   -1.472613418955875E-3   -2.215254467286173E-3   -1.404263125991546E-3   -2.500685886235923E-1    3.748181866036351E-1
 8.194473049350000E9    -3.385003127397262E-1    4.183906447713688E-1   -2.135826088404269E-3   -1.474215325767000E-3   -2.221572954710522E-3   -1.437590176610147E-3   -2.491306346356340E-1    3.752432818880000E-1
 8.194489267175000E9    -3.375131560080947E-1    4.192064795068103E-1   -2.124925499426511E-3   -1.459423625020668E-3   -2.234794889769829E-3   -1.434360324331174E-3   -2.484048901076887E-1    3.758927497399237E-1
 8.194505485000000E9    -3.365602127518704E-1    4.199824903827357E-1   -2.163174439109408E-3   -1.436470781822871E-3   -2.246017783161555E-3   -1.419960933172665E-3   -2.477299843580191E-1    3.761359391305428E-1
 8.194521702825000E9    -3.357484490164117E-1    4.207072196743240E-1   -2.137440394077618E-3   -1.466252981755960E-3   -2.255225690790278E-3   -1.416100842285129E-3   -2.468594099918809E-1    3.766925121700959E-1
 8.194537920650000E9    -3.347496660198439E-1    4.213304848217526E-1   -2.149133137407316E-3   -1.482719562194977E-3   -2.247435684673756E-3   -1.409192481803686E-3   -2.460539891910836E-1    3.772355497646611E-1
 8.194554138475000E9    -3.339523442224546E-1    4.221350280156578E-1   -2.148145030111022E-3   -1.426865418182826E-3   -2.246407368382579E-3   -1.394884990903355E-3   -2.454591521303435E-1    3.775513077447644E-1
 8.194570356300000E9    -3.330270324557729E-1    4.227384798666752E-1   -2.147204594993454E-3   -1.447384911046713E-3   -2.279385933208454E-3   -1.411549405764898E-3   -2.445284203261493E-1    3.781645315791634E-1
 8.194586574125000E9    -3.320396666397994E-1    4.235469234538759E-1   -2.142928331817368E-3   -1.416118502393623E-3   -2.261660588418856E-3   -1.397967448159703E-3   -2.437728109157527E-1    3.786698937078451E-1
 8.194602791950000E9    -3.312562615798375E-1    4.242654064541415E-1   -2.161053008108640E-3   -1.424453668462944E-3   -2.257287088849864E-3   -1.387601872510524E-3   -2.430954506687714E-1    3.790246892229230E-1
 8.194619009775000E9    -3.301876757325163E-1    4.249262000956187E-1   -2.150084738859529E-3   -1.423668549704215E-3   -2.288206169783535E-3   -1.392628271789735E-3   -2.422327936890547E-1    3.795810395051110E-1
 8.194635227600000E9    -3.293418839818885E-1    4.255929671789618E-1   -2.170399497403903E-3   -1.395818363870647E-3   -2.296361072830084E-3   -1.401839114280235E-3   -2.415513587489963E-1    3.800141084563003E-1
 8.194651445425000E9    -3.283791941857981E-1    4.262554495046837E-1   -2.185877869706530E-3   -1.437521815533360E-3   -2.250595476610895E-3   -1.415415520527703E-3   -2.406248002427335E-1    3.805458376542326E-1
 8.194667663250000E9    -3.274963920896702E-1    4.269116330394961E-1   -2.180633743361432E-3   -1.419007909420647E-3   -2.332843801758543E-3   -1.379048247787078E-3   -2.399105977307313E-1    3.810365822519395E-1
 8.194683881075000E9    -3.265798195592991E-1    4.276243256547496E-1   -2.182904956658364E-3   -1.422437128824276E-3   -2.311150690587235E-3   -1.361934644932017E-3   -2.390931610233346E-1    3.813530296768849E-1
 8.194700098900000E9    -3.257642459573049E-1    4.282901534987422E-1   -2.207005802714158E-3   -1.427693417635578E-3   -2.290336164833702E-3   -1.380100610537692E-3   -2.382680179907007E-1    3.820224966699978E-1
 8.194716316725000E9    -3.248125714796430E-1    4.289740440486214E-1   -2.190995413011612E-3   -1.406734304349574E-3   -2.301837424159688E-3   -1.360156344303420E-3   -2.375887737767702E-1    3.823294336544697E-1
 8.194732534550000E9    -3.238946820839803E-1    4.296068221938872E-1   -2.181870416532189E-3   -1.400143833335789E-3   -2.298305133412489E-3   -1.360721290352601E-3   -2.367134727796995E-1    3.828719943542596E-1
 8.194748752375000E9    -3.229089529017137E-1    4.302734685596898E-1   -2.196765898402397E-3   -1.396903532751508E-3   -2.298112289779121E-3   -1.330969532095046E-3   -2.360569255557607E-1    3.833995784874177E-1
 8.194764970200000E9    -3.220317432118538E-1    4.310154286513627E-1   -2.199105637089390E-3   -1.382348558201633E-3   -2.314911498679334E-3   -1.350690947985770E-3   -2.349923553533146E-1    3.836683251242285E-1
 8.194781188025000E9    -3.211145371708921E-1    4.317695305187106E-1   -2.217784727235631E-3   -1.391551857795070E-3   -2.344212889409261E-3   -1.371631953230273E-3   -2.343194224420754E-1    3.842172876939481E-1
 8.194797405850000E9    -3.201949341125575E-1    4.323683856602028E-1   -2.225284603390101E-3   -1.378983098481142E-3   -2.317479681169884E-3   -1.372834945966955E-3   -2.336519621584329E-1    3.846343836115642E-1
 8.194813623675000E9    -3.191515160424677E-1    4.331079057330365E-1   -2.188785439055748E-3   -1.379505722064136E-3   -2.290377116813010E-3   -1.344148778131680E-3   -2.328188670739396E-1    3.852094467314663E-1
 8.194829841500000E9    -3.182758790936617E-1    4.336926834495803E-1   -2.212537641356602E-3   -1.378628790745355E-3   -2.300091919662663E-3   -1.327486526570270E-3   -2.320560695681979E-1    3.854695355350865E-1
 8.194846059325000E9    -3.173506662606708E-1    4.343208040149092E-1   -2.229384330279578E-3   -1.369909246268505E-3   -2.299731049009165E-3   -1.353675306679561E-3   -2.311207143201184E-1    3.859527586685273E-1
 8.194862277150000E9    -3.164134240756762E-1    4.350005900418965E-1   -2.233504585050539E-3   -1.375602230817322E-3   -2.362516514858617E-3   -1.313067871305980E-3   -2.303711144650440E-1    3.863815819440155E-1
 8.194878494975000E9    -3.156797317795736E-1    4.357206642201947E-1   -2.225270385127248E-3   -1.371289444709859E-3   -2.323283098359997E-3   -1.298197269816385E-3   -2.296707037530927E-1    3.868874352660054E-1
 8.194894712800000E9    -3.146060757010575E-1    4.363356896750371E-1   -2.235310011242803E-3   -1.368610691560584E-3   -2.328389368664282E-3   -1.320150827682810E-3   -2.288065750987698E-1    3.873426425592219E-1
 8.194910930625000E9    -3.136688641062260E-1    4.370365264627501E-1   -2.237998442738646E-3   -1.346640355253451E-3   -2.318045713260542E-3   -1.309038799428844E-3   -2.280410097199453E-1    3.877424518629400E-1
 8.194927148450000E9    -3.127243829920831E-1    4.376247937898262E-1   -2.232049848008517E-3   -1.355478924533483E-3   -2.322668742281873E-3   -1.307371378661384E-3   -2.271002187748253E-1    3.881907468903740E-1
 8.194943366275000E9    -3.117449663674451E-1    4.383278641335770E-1   -2.235459034350839E-3   -1.365411623920406E-3   -2.320925609515325E-3   -1.324609479958669E-3   -2.263288500660215E-1    3.886690793827092E-1
 8.194959584100000E9    -3.107797679186541E-1    4.390217894299987E-1   -2.253731783684728E-3   -1.347081671825612E-3   -2.373891953245326E-3   -1.283553896434307E-3   -2.257190480206515E-1    3.889213506727312E-1
 8.194975801925000E9    -3.098114768947409E-1    4.396198770293617E-1   -2.233241251319216E-3   -1.358207162428494E-3   -2.364903579665617E-3   -1.298971464007983E-3   -2.249075102478845E-1    3.895156106577960E-1
 8.194992019750000E9    -3.089452805915943E-1    4.402929986683921E-1   -2.259365155715802E-3   -1.309440554117723E-3   -2.370129398655431E-3   -1.258133261344797E-3   -2.239876548461366E-1    3.899292349827521E-1
 8.195008237575000E9    -3.078292834911526E-1    4.409597529841777E-1   -2.283163458373812E-3   -1.337881639624840E-3   -2.374516580809042E-3   -1.290734493845751E-3   -2.232967449973551E-1    3.903445383954891E-1
 8.195024455400000E9    -3.070543503915514E-1    4.415341084444872E-1   -2.246160607698432E-3   -1.323737869439512E-3   -2.376162823815418E-3   -1.299567669613672E-3   -2.223359298902766E-1    3.908894768538946E-1
 8.195040673225000E9    -3.060458988152255E-1    4.422595155125416E-1   -2.290608559537084E-3   -1.317146788248378E-3   -2.398460299068427E-3   -1.254492705490507E-3   -2.215375593402013E-1    3.912113655606819E-1
 8.195056891050000E9    -3.051441739084631E-1    4.428793422556051E-1   -2.272998491025643E-3   -1.336770255418723E-3   -2.391228234953033E-3   -1.272140319055200E-3   -2.209442870138485E-1    3.915429003225465E-1
 8.195073108875000E9    -3.041393713323346E-1    4.434567778991549E-1   -2.268377314907476E-3   -1.310748108527444E-3   -2.398403870497576E-3   -1.275541078319825E-3   -2.200101545272443E-1    3.920493121481994E-1
 8.195089326700000E9    -3.033225304389816E-1    4.441680434023894E-1   -2.279650977095418E-3   -1.284956541218172E-3   -2.378038513999853E-3   -1.238941538305814E-3   -2.192839265630898E-1    3.924608879435397E-1
 8.195105544525000E9    -3.022342802371334E-1    4.447825472994247E-1   -2.299550225542919E-3   -1.277889276692422E-3   -2.371033816220742E-3   -1.277357546756256E-3   -2.183676789398324E-1    3.928501971458811E-1
 8.195121762350000E9    -3.013307005839267E-1    4.454426870785327E-1   -2.301293858840016E-3   -1.303083130493887E-3   -2.355745315546431E-3   -1.264574880518418E-3   -2.175563187856696E-1    3.931577776947377E-1
 8.195137980175000E9    -3.002435400703111E-1    4.460933724065252E-1   -2.301845278449860E-3   -1.294585003234503E-3   -2.394752438937988E-3   -1.247633052153633E-3   -2.169654385458318E-1    3.936792345074360E-1
 8.195154198000000E9    -2.994226813734649E-1    4.466633336455492E-1   -2.296223326644551E-3   -1.273688398509087E-3   -2.374541855322179E-3   -1.229924576752793E-3   -2.159351549509423E-1    3.941699338609528E-1
 8.195170415825000E9    -2.983528844022958E-1    4.472873134457926E-1   -2.318691891442177E-3   -1.289174902458600E-3   -2.405281788374344E-3   -1.265399679892533E-3   -2.152419629130993E-1    3.946520556891529E-1
 8.195186633650000E9    -2.974305748549808E-1    4.479837758367311E-1   -2.323782932573518E-3   -1.301831537177881E-3   -2.385386517648153E-3   -1.234440522551408E-3   -2.142471548057163E-1    3.950683774295791E-1
 8.195202851475000E9    -2.965770119161299E-1    4.485487999850827E-1   -2.335648265808895E-3   -1.268005888465137E-3   -2.396023612142462E-3   -1.226725701763950E-3   -2.136178256975197E-1    3.955940025560415E-1
 8.195219069300000E9    -2.954766443682514E-1    4.492074582386014E-1   -2.287012473498475E-3   -1.275729620948388E-3   -2.426136970041667E-3   -1.238634383065025E-3   -2.127632651662781E-1    3.958685401292890E-1
 8.195235287125000E9    -2.946064594488577E-1    4.498188808546996E-1   -2.323929391560924E-3   -1.301791522640255E-3   -2.446343681033608E-3   -1.189053672833692E-3   -2.118961167001014E-1    3.961811581019264E-1
 8.195251504950000E9    -2.936029338339255E-1    4.503061265204765E-1   -2.340270266001919E-3   -1.256211302235801E-3   -2.439207055615916E-3   -1.222578721225068E-3   -2.111760266932437E-1    3.966389335325969E-1
 8.195267722775000E9    -2.926452316784878E-1    4.509796398055426E-1   -2.328120685017019E-3   -1.257334742459615E-3   -2.434267467392100E-3   -1.191809026909176E-3   -2.102288376781407E-1    3.969927781450648E-1
 8.195283940600000E9    -2.916867793719158E-1    4.516571837483788E-1   -2.346255250014168E-3   -1.243672452788825E-3   -2.459522428772192E-3   -1.200168330748220E-3   -2.094745700337103E-1    3.972969494903543E-1
 8.195300158425000E9    -2.906443112507724E-1    4.522246656500476E-1   -2.346963776276953E-3   -1.243772475240880E-3   -2.441035504946258E-3   -1.199542963616884E-3   -2.087905924543718E-1    3.978491666774547E-1
 8.195316376250000E9    -2.897698709805240E-1    4.527652665783111E-1   -2.339516850686561E-3   -1.257666865702301E-3   -2.447382176992624E-3   -1.176107711947145E-3   -2.078497485387314E-1    3.981574329924908E-1
