#  HZ   S   RI   R     50.00 
! Rohde & Schwarz Vector Network Analyzer 
! Rohde-Schwarz,ZNB20-2Port,1311601062101988,3.16
! Created: UTC 3/20/2024, 5:11:06 PM
! freq[Hz]                re:S11                  im:S11                  re:S21                  im:S21                  re:S12                  im:S12                  re:S22                  im:S22
 8.193967410000000E9    -3.657225313815919E-1    3.954283514403489E-1   -1.995745693753477E-3   -1.579717622280437E-3   -2.135518200963808E-3   -1.590391480710831E-3   -2.726737825230720E-1    3.595432076633857E-1
 8.193983145775000E9    -3.647925602200663E-1    3.962650485179819E-1   -2.009119003881917E-3   -1.570670106636176E-3   -2.095934817494894E-3   -1.560799196403787E-3   -2.721071050540276E-1    3.602177022437887E-1
 8.193998881550000E9    -3.640609653967895E-1    3.968420015701137E-1   -2.030315843977246E-3   -1.571049301451796E-3   -2.109444717173080E-3   -1.560727214848931E-3   -2.711683755987725E-1    3.605034384965198E-1
 8.194014617325000E9    -3.632860471269587E-1    3.976278178306933E-1   -2.020349069042267E-3   -1.570609851709944E-3   -2.137589788323921E-3   -1.514626080446411E-3   -2.703741008853067E-1    3.609082845198123E-1
 8.194030353100000E9    -3.623134616435216E-1    3.984425247944293E-1   -2.025764316547769E-3   -1.584589054682719E-3   -2.133490395640483E-3   -1.535641054452604E-3   -2.697299700783601E-1    3.615188039402172E-1
 8.194046088875000E9    -3.615690901038640E-1    3.990214455289274E-1   -2.035814863918808E-3   -1.586084698785511E-3   -2.125510510268869E-3   -1.560323950004733E-3   -2.689929385388624E-1    3.620116896487204E-1
 8.194061824650000E9    -3.606538081638574E-1    3.998306806155212E-1   -2.021571748779177E-3   -1.550882781557785E-3   -2.134494631444540E-3   -1.515217316036711E-3   -2.683363770985629E-1    3.626134313096643E-1
 8.194077560425000E9    -3.598711425394100E-1    4.006725501253690E-1   -2.074180709218797E-3   -1.551389213781791E-3   -2.140408526268673E-3   -1.504757434921662E-3   -2.675144344061853E-1    3.631247824585717E-1
 8.194093296200000E9    -3.590574467217196E-1    4.014664811684310E-1   -2.028944824015581E-3   -1.564791214287148E-3   -2.175636299071364E-3   -1.550028422185245E-3   -2.668403265178861E-1    3.636324794609101E-1
 8.194109031975000E9    -3.581280163396660E-1    4.020670901597315E-1   -2.052905495050822E-3   -1.559665754275867E-3   -2.108718963406490E-3   -1.540294049559903E-3   -2.661313782891626E-1    3.642479139302423E-1
 8.194124767750000E9    -3.573466751882544E-1    4.029518761101694E-1   -2.061655176140655E-3   -1.550496382023931E-3   -2.164892097598929E-3   -1.541451684672451E-3   -2.653562418434125E-1    3.646870451118828E-1
 8.194140503525000E9    -3.565610279787620E-1    4.035785300255936E-1   -2.050612021228823E-3   -1.566768633216119E-3   -2.172835911500763E-3   -1.493294429411052E-3   -2.646893192934091E-1    3.650726781545389E-1
 8.194156239300000E9    -3.556760433631392E-1    4.043462889758406E-1   -2.046947336046480E-3   -1.547792265097960E-3   -2.142949081297676E-3   -1.500977302093011E-3   -2.638814855192252E-1    3.655644698604822E-1
 8.194171975075000E9    -3.547763975357779E-1    4.050467552944936E-1   -2.070660011209970E-3   -1.502904156804537E-3   -2.158943879840979E-3   -1.528060248961479E-3   -2.632149857274247E-1    3.661550039921322E-1
 8.194187710850000E9    -3.540130646634466E-1    4.057857499690128E-1   -2.062243656322156E-3   -1.529611783217210E-3   -2.153869310686790E-3   -1.518280796260812E-3   -2.625708525714297E-1    3.666144984550897E-1
 8.194203446625000E9    -3.530255854561953E-1    4.065128958902515E-1   -2.054199937934930E-3   -1.505184958564151E-3   -2.168707060511074E-3   -1.518457845011419E-3   -2.617358774153896E-1    3.671266997739585E-1
 8.194219182400000E9    -3.522365304398855E-1    4.072743852977623E-1   -2.076658261633119E-3   -1.554918515780041E-3   -2.182835911795280E-3   -1.491981703257731E-3   -2.610418795297046E-1    3.675267516542456E-1
 8.194234918175000E9    -3.515307412683081E-1    4.080160263605159E-1   -2.066851134882610E-3   -1.547094997119501E-3   -2.196792312142286E-3   -1.505229232670520E-3   -2.603277273264863E-1    3.681078037368452E-1
 8.194250653950000E9    -3.505816944885444E-1    4.086686490606596E-1   -2.080602207045490E-3   -1.524829358823674E-3   -2.187403246529603E-3   -1.497744270169154E-3   -2.595327237648978E-1    3.686289042307028E-1
 8.194266389725000E9    -3.497469194246214E-1    4.093728804860035E-1   -2.058622182650584E-3   -1.510723989481560E-3   -2.221233301374803E-3   -1.485496539218812E-3   -2.588684750500168E-1    3.690486538466501E-1
 8.194282125500000E9    -3.489081313306505E-1    4.101135069351555E-1   -2.090816238918896E-3   -1.517924118857066E-3   -2.219122260878669E-3   -1.472401500268397E-3   -2.580530686248457E-1    3.696217136495122E-1
 8.194297861275000E9    -3.480756355612042E-1    4.107211689517190E-1   -2.142770395378878E-3   -1.517630903744858E-3   -2.170910951218396E-3   -1.484162882037796E-3   -2.573700042500657E-1    3.699915387658534E-1
 8.194313597050000E9    -3.472467899799258E-1    4.114572603097928E-1   -2.114430203532382E-3   -1.496608500975140E-3   -2.213670175195098E-3   -1.484135673329323E-3   -2.565735401942180E-1    3.705908092406519E-1
 8.194329332825000E9    -3.463864631599219E-1    4.121774024504958E-1   -2.081659535982923E-3   -1.492014598539770E-3   -2.221451217809652E-3   -1.475550050787974E-3   -2.558889888527723E-1    3.710332218917364E-1
 8.194345068600000E9    -3.454874366100233E-1    4.128738862077980E-1   -2.105967136407302E-3   -1.502227210586606E-3   -2.196550875974782E-3   -1.417522129083065E-3   -2.550896766033708E-1    3.715011710069749E-1
 8.194360804375000E9    -3.446037636455127E-1    4.135425190736101E-1   -2.107723207953920E-3   -1.475943524147946E-3   -2.206447368030382E-3   -1.488916872448527E-3   -2.544110257272658E-1    3.719000279622712E-1
 8.194376540150000E9    -3.436707006512071E-1    4.142304110567058E-1   -2.096695263029883E-3   -1.488200570339317E-3   -2.220245913608246E-3   -1.440441021409569E-3   -2.536899194526093E-1    3.722006221464715E-1
 8.194392275925000E9    -3.428402159789172E-1    4.149274139370605E-1   -2.073388888999402E-3   -1.503475711057326E-3   -2.210671073993770E-3   -1.458823590295455E-3   -2.530950839224458E-1    3.728382124778576E-1
 8.194408011700000E9    -3.420798525283323E-1    4.156997047897185E-1   -2.102240955752230E-3   -1.497360647682259E-3   -2.244611726682731E-3   -1.455070264663631E-3   -2.522597606166115E-1    3.733864148752040E-1
 8.194423747475000E9    -3.410911477300977E-1    4.163927350630299E-1   -2.090248018591101E-3   -1.483328578840407E-3   -2.231976523122516E-3   -1.477875819678127E-3   -2.515422017471226E-1    3.737887447195299E-1
 8.194439483250000E9    -3.402130939308769E-1    4.170030174898078E-1   -2.113065043199508E-3   -1.470459015362410E-3   -2.255330846262356E-3   -1.448262865667567E-3   -2.508070232112301E-1    3.743327012747052E-1
 8.194455219025000E9    -3.394211683778024E-1    4.178455189242170E-1   -2.140287046556611E-3   -1.473507398880163E-3   -2.244305914906740E-3   -1.442688898459837E-3   -2.500973599439860E-1    3.746698077916896E-1
 8.194470954800000E9    -3.385106545085085E-1    4.184675624943006E-1   -2.128911256156552E-3   -1.453686722005254E-3   -2.214743809601313E-3   -1.451838180337061E-3   -2.493495493986201E-1    3.751297443071582E-1
 8.194486690575000E9    -3.376609400233800E-1    4.191394367892909E-1   -2.162989711525175E-3   -1.462297711028259E-3   -2.238412013932139E-3   -1.402872912797402E-3   -2.485321162313108E-1    3.757224180680585E-1
 8.194502426350000E9    -3.366421778567253E-1    4.197449581327781E-1   -2.122579483866269E-3   -1.441357102448560E-3   -2.247892552378244E-3   -1.384960074033398E-3   -2.478194038308238E-1    3.762603550214722E-1
 8.194518162125000E9    -3.359448740179903E-1    4.204523119570295E-1   -2.153481203479743E-3   -1.478189965855968E-3   -2.251174920360004E-3   -1.410016701327678E-3   -2.469967852136031E-1    3.765917619952044E-1
 8.194533897900000E9    -3.350129659465032E-1    4.211981784849880E-1   -2.167929929637324E-3   -1.439930148733291E-3   -2.279783933436404E-3   -1.422489830871487E-3   -2.462589124675701E-1    3.771422163847070E-1
 8.194549633675000E9    -3.342592635116202E-1    4.220318374012060E-1   -2.171045131775178E-3   -1.440665307244813E-3   -2.251161602203931E-3   -1.424573589026249E-3   -2.454675583310695E-1    3.775100283500145E-1
 8.194565369450000E9    -3.333278552278475E-1    4.225537009878181E-1   -2.156408696906677E-3   -1.455635863001442E-3   -2.261642735364768E-3   -1.432298516812556E-3   -2.447714315322794E-1    3.778901487403951E-1
 8.194581105225000E9    -3.324316275440087E-1    4.232232263886791E-1   -2.160374970495262E-3   -1.449741279739736E-3   -2.286333944209025E-3   -1.416943128829031E-3   -2.440329479284827E-1    3.785735024679940E-1
 8.194596841000000E9    -3.315561180099131E-1    4.239800778218125E-1   -2.162258639658476E-3   -1.444863914807926E-3   -2.246129932326897E-3   -1.373315602010880E-3   -2.430819516953866E-1    3.789180195672352E-1
 8.194612576775000E9    -3.306888433203750E-1    4.246612910009672E-1   -2.176576805047436E-3   -1.437897848374210E-3   -2.271262170226407E-3   -1.337769883282460E-3   -2.426459369295530E-1    3.794056699291873E-1
 8.194628312550000E9    -3.297241499622514E-1    4.252395441019434E-1   -2.173245683085237E-3   -1.415300970315683E-3   -2.278460831790326E-3   -1.396090281746943E-3   -2.417004425518654E-1    3.799451505242255E-1
 8.194644048325000E9    -3.289353356212916E-1    4.260134546197783E-1   -2.181539230070556E-3   -1.420865875957854E-3   -2.280147797331345E-3   -1.386531224992335E-3   -2.410195972278620E-1    3.802477643623265E-1
 8.194659784100000E9    -3.279662408983380E-1    4.266875877316746E-1   -2.207368030760140E-3   -1.414980288803617E-3   -2.286110424212812E-3   -1.363325122389873E-3   -2.402725225709981E-1    3.808185274368989E-1
 8.194675519875000E9    -3.272193422092796E-1    4.272342579016021E-1   -2.194370391197291E-3   -1.434084786243576E-3   -2.280265146885197E-3   -1.365986153217264E-3   -2.394605910875689E-1    3.810957308549804E-1
 8.194691255650000E9    -3.261280826575242E-1    4.278605509506180E-1   -2.198929527653964E-3   -1.367799555198299E-3   -2.302227183498775E-3   -1.398882620766107E-3   -2.386597433396454E-1    3.814930823696969E-1
 8.194706991425000E9    -3.253117191379676E-1    4.286326712924125E-1   -2.205570436661696E-3   -1.418113878864972E-3   -2.295177295661319E-3   -1.399993867287045E-3   -2.379828054945776E-1    3.820437194594059E-1
 8.194722727200000E9    -3.244987102083061E-1    4.291515936831119E-1   -2.188923814513954E-3   -1.379588295757338E-3   -2.308153856280309E-3   -1.352494691408308E-3   -2.370567694337082E-1    3.826282172859937E-1
 8.194738462975000E9    -3.235303459839150E-1    4.299535749345098E-1   -2.175124995333452E-3   -1.392091749550647E-3   -2.259462360524784E-3   -1.359137066162018E-3   -2.363945927729020E-1    3.830712448805497E-1
 8.194754198750000E9    -3.227023000256465E-1    4.304912006914173E-1   -2.170828931850783E-3   -1.373682434594498E-3   -2.282975759161835E-3   -1.342476210551576E-3   -2.357032461984792E-1    3.835563570759671E-1
 8.194769934525000E9    -3.217649573670008E-1    4.313390820556899E-1   -2.205157648223038E-3   -1.379855993944728E-3   -2.303575639411219E-3   -1.349287737362855E-3   -2.348388055478035E-1    3.838892008138566E-1
 8.194785670300000E9    -3.209066384914105E-1    4.319769619014578E-1   -2.191530539341343E-3   -1.374310166199375E-3   -2.290934250750382E-3   -1.329990821725622E-3   -2.341194448621000E-1    3.842880372160863E-1
 8.194801406075000E9    -3.199382279224217E-1    4.325431489370279E-1   -2.196107455461607E-3   -1.375582045690366E-3   -2.326253824637606E-3   -1.348985380900109E-3   -2.333487323577174E-1    3.847752000598004E-1
 8.194817141850000E9    -3.190723635797164E-1    4.331385652372789E-1   -2.227089202882751E-3   -1.350247811066454E-3   -2.316685947963802E-3   -1.335217102547760E-3   -2.326637726462543E-1    3.852659806939586E-1
 8.194832877625000E9    -3.179981446820665E-1    4.339086442914289E-1   -2.216638547156354E-3   -1.357858324016082E-3   -2.340126262975040E-3   -1.332691639173052E-3   -2.318766925515530E-1    3.856678958480230E-1
 8.194848613400000E9    -3.172867164653340E-1    4.344664551554340E-1   -2.252182804163569E-3   -1.378232967088887E-3   -2.328854643839539E-3   -1.323362271127059E-3   -2.310505985885470E-1    3.859543129334234E-1
 8.194864349175000E9    -3.163474027205030E-1    4.351526724710218E-1   -2.219083068416086E-3   -1.375818796253166E-3   -2.299828643463243E-3   -1.341339333546767E-3   -2.302487148165530E-1    3.865996731232601E-1
 8.194880084950000E9    -3.154265295557968E-1    4.357349635888903E-1   -2.218348430272750E-3   -1.357870731726474E-3   -2.334039230253486E-3   -1.284151099806559E-3   -2.296136646603613E-1    3.869464417375791E-1
 8.194895820725000E9    -3.145178916688339E-1    4.363831414610752E-1   -2.214054866405814E-3   -1.360521628893143E-3   -2.348742882901585E-3   -1.307980294569849E-3   -2.287653912975908E-1    3.873641832642296E-1
 8.194911556500000E9    -3.136231584296264E-1    4.370599664603694E-1   -2.246196879923532E-3   -1.352631967883141E-3   -2.339461444730751E-3   -1.326855451083356E-3   -2.280428567105260E-1    3.877866998247110E-1
 8.194927292275000E9    -3.127150210941239E-1    4.376588169865509E-1   -2.249750782073087E-3   -1.366167676166329E-3   -2.346859013440588E-3   -1.299493649623003E-3   -2.272721776545724E-1    3.880233818573962E-1
 8.194943028050000E9    -3.118638521920480E-1    4.383649970391389E-1   -2.254948407779235E-3   -1.343647990049922E-3   -2.315548298459347E-3   -1.310847573963856E-3   -2.265318491156039E-1    3.887442113218588E-1
 8.194958763825000E9    -3.108787077686560E-1    4.388664023750879E-1   -2.254608843873183E-3   -1.339856099791194E-3   -2.354497777329769E-3   -1.317889069266956E-3   -2.257376548978912E-1    3.890024635606910E-1
 8.194974499600000E9    -3.100093261370724E-1    4.395299435198419E-1   -2.269493654682801E-3   -1.337537471410780E-3   -2.364762311809837E-3   -1.268119577001082E-3   -2.247984861343091E-1    3.894005670526681E-1
 8.194990235375000E9    -3.089412058865323E-1    4.400995819112835E-1   -2.255914731818404E-3   -1.334420121092135E-3   -2.370904395149155E-3   -1.278377519893796E-3   -2.241154765953610E-1    3.899770960610897E-1
 8.195005971150000E9    -3.080414942831375E-1    4.408906722625446E-1   -2.281331643283027E-3   -1.351843795493329E-3   -2.376889936404056E-3   -1.287975109477513E-3   -2.231800684888590E-1    3.902655897571539E-1
 8.195021706925000E9    -3.070926399663505E-1    4.415355943018508E-1   -2.270884805484253E-3   -1.318645355988217E-3   -2.383367475980908E-3   -1.276446391795020E-3   -2.225278007979624E-1    3.906799483192657E-1
 8.195037442700000E9    -3.062883994691076E-1    4.421640086362078E-1   -2.265993982911926E-3   -1.334921216220077E-3   -2.345282792611736E-3   -1.253855014525575E-3   -2.217032315451663E-1    3.911390924868109E-1
 8.195053178475000E9    -3.052870647740997E-1    4.426009903228278E-1   -2.277873974150502E-3   -1.304546928854041E-3   -2.376957284669608E-3   -1.292619527375646E-3   -2.210898906469979E-1    3.914444335157195E-1
 8.195068914250000E9    -3.044302840765973E-1    4.432318476967845E-1   -2.275690658627391E-3   -1.324217293401005E-3   -2.327938084775720E-3   -1.265752944781310E-3   -2.203046375034564E-1    3.921246182544160E-1
 8.195084650025000E9    -3.035023280644180E-1    4.438977956200901E-1   -2.274836917992689E-3   -1.282885896726364E-3   -2.380407040707719E-3   -1.253571409946155E-3   -2.194374929489711E-1    3.925070983397627E-1
 8.195100385800000E9    -3.025150234527594E-1    4.445778307623720E-1   -2.294563012673367E-3   -1.287091694814623E-3   -2.381034014703849E-3   -1.260990817869286E-3   -2.187027722086309E-1    3.928942918901729E-1
 8.195116121575000E9    -3.017274466883516E-1    4.452061758807576E-1   -2.275378715139084E-3   -1.291818918526170E-3   -2.397097845427306E-3   -1.231977982758289E-3   -2.177792682302216E-1    3.932391425569146E-1
 8.195131857350000E9    -3.006917375627374E-1    4.459307211877288E-1   -2.288014516043255E-3   -1.290696383624193E-3   -2.417320416228643E-3   -1.242061553922157E-3   -2.169833456927007E-1    3.936592450887515E-1
 8.195147593125000E9    -2.996946778573377E-1    4.464070678859640E-1   -2.323829816180953E-3   -1.284859022352009E-3   -2.385903264397952E-3   -1.282347501746569E-3   -2.163284192248866E-1    3.940896179684938E-1
 8.195163328900000E9    -2.988356633666636E-1    4.469945245140631E-1   -2.299698127727633E-3   -1.294714907901210E-3   -2.424479610896582E-3   -1.218262779587140E-3   -2.153615766296220E-1    3.944583723048703E-1
 8.195179064675000E9    -2.978835291948649E-1    4.475610750847077E-1   -2.303014745716754E-3   -1.276674504176737E-3   -2.387707866035943E-3   -1.234684382049656E-3   -2.148579588204170E-1    3.947766075399515E-1
 8.195194800450000E9    -2.970705773281374E-1    4.481949408505264E-1   -2.301817959532538E-3   -1.272809901905352E-3   -2.414021051728901E-3   -1.243396910515654E-3   -2.137936849258580E-1    3.951851019612389E-1
 8.195210536225000E9    -2.960044482732314E-1    4.488992778326499E-1   -2.334274069118774E-3   -1.274263985766217E-3   -2.424835865077453E-3   -1.237119685725394E-3   -2.131047364485638E-1    3.956425380289234E-1
 8.195226272000000E9    -2.951142105448552E-1    4.493884796879312E-1   -2.320109888221611E-3   -1.264474795198352E-3   -2.434364831523227E-3   -1.208567520319286E-3   -2.122746183500491E-1    3.961602252967279E-1
 8.195242007775000E9    -2.942157409220130E-1    4.501245661985901E-1   -2.319466736662861E-3   -1.280297166228465E-3   -2.418545131857032E-3   -1.254440387702144E-3   -2.116823128721794E-1    3.964466040276475E-1
 8.195257743550000E9    -2.932051114059360E-1    4.506673748273502E-1   -2.337567391884755E-3   -1.296795018448747E-3   -2.444942204398895E-3   -1.189797961498057E-3   -2.107235505835707E-1    3.967910703705442E-1
 8.195273479325000E9    -2.922681445866003E-1    4.513206599611450E-1   -2.333751250666967E-3   -1.250794476624792E-3   -2.423602312248124E-3   -1.210101671216138E-3   -2.099516826083349E-1    3.971524849363561E-1
 8.195289215100000E9    -2.914976203274764E-1    4.518706128773889E-1   -2.352569148337375E-3   -1.283234257678734E-3   -2.392899643170670E-3   -1.238353570181882E-3   -2.092086291505136E-1    3.974459420134809E-1
 8.195304950875000E9    -2.903973075609266E-1    4.524312492912642E-1   -2.304439110739406E-3   -1.256720872489920E-3   -2.434454517366181E-3   -1.173486976405970E-3   -2.085546947868213E-1    3.980061072183764E-1
 8.195320686650000E9    -2.895239822319304E-1    4.529990139709486E-1   -2.350171921968439E-3   -1.260098998387581E-3   -2.431745473502852E-3   -1.178658961213556E-3   -2.076007572336684E-1    3.984370741861110E-1
 8.195336422425000E9    -2.885656299363724E-1    4.536379080140480E-1   -2.354598865041343E-3   -1.250790909848417E-3   -2.425585481634447E-3   -1.186394308582406E-3   -2.068370372403053E-1    3.987931083413903E-1
 8.195352158200000E9    -2.875745168417456E-1    4.541573835282187E-1   -2.318474182575130E-3   -1.214637132858228E-3   -2.448071030619670E-3   -1.204449324229616E-3   -2.059949440123430E-1    3.992270613629411E-1
 8.195367893975000E9    -2.866109767624201E-1    4.547649879481694E-1   -2.334997454408788E-3   -1.221144772424570E-3   -2.453054208231757E-3   -1.178060700843152E-3   -2.054210331047555E-1    3.995352654694321E-1
 8.195383629750000E9    -2.857428577245335E-1    4.553282283307995E-1   -2.328679333677280E-3   -1.208508789458964E-3   -2.460419000023736E-3   -1.170804190989285E-3   -2.044893364723670E-1    3.998085004242388E-1
