#  HZ   S   RI   R     50.00 
! Rohde & Schwarz Vector Network Analyzer 
! Rohde-Schwarz,ZNB20-2Port,1311601062101988,3.16
! Created: UTC 3/20/2024, 5:11:08 PM
! freq[Hz]                re:S11                  im:S11                  re:S21                  im:S21                  re:S12                  im:S12                  re:S22                  im:S22
 8.194126285000000E9    -3.573252717700452E-1    4.027434281479381E-1   -2.059776082228685E-3   -1.564226437823110E-3   -2.161571625219785E-3   -1.516957285746584E-3   -2.652536111859094E-1    3.647309434403127E-1
 8.194141303350000E9    -3.564973160392266E-1    4.035592688275915E-1   -2.054910694475943E-3   -1.546224414110773E-3   -2.156566686725116E-3   -1.506495911605091E-3   -2.645839777723209E-1    3.650715186489091E-1
 8.194156321700000E9    -3.556649840567492E-1    4.042383942509991E-1   -2.075813559108661E-3   -1.520306128790523E-3   -2.153724195450651E-3   -1.496738182668900E-3   -2.639797466631393E-1    3.658172280442892E-1
 8.194171340050000E9    -3.549660978577686E-1    4.050020963899271E-1   -2.059013863961121E-3   -1.524791588051058E-3   -2.156736722920001E-3   -1.521262670140416E-3   -2.631474709089352E-1    3.660567298707996E-1
 8.194186358400000E9    -3.540384570687171E-1    4.055618538990206E-1   -2.057269775794303E-3   -1.518020078874899E-3   -2.143197717301613E-3   -1.522930828871213E-3   -2.625941851964624E-1    3.664657174638272E-1
 8.194201376750000E9    -3.533932979854528E-1    4.063307266321857E-1   -2.080568469434512E-3   -1.535761894624846E-3   -2.164545445486762E-3   -1.477584719788506E-3   -2.619223376344298E-1    3.669808700584736E-1
 8.194216395100000E9    -3.524507861267557E-1    4.070107409007912E-1   -2.080882860878939E-3   -1.520779776947363E-3   -2.157591936965555E-3   -1.495291521217618E-3   -2.611713563434322E-1    3.674062098640255E-1
 8.194231413450000E9    -3.515649835490574E-1    4.076556859639137E-1   -2.074544512183977E-3   -1.491447292415124E-3   -2.171780695464529E-3   -1.449442847485875E-3   -2.605430604798266E-1    3.678813181125071E-1
 8.194246431800000E9    -3.507935541857426E-1    4.084097953194210E-1   -2.062548392323954E-3   -1.494766303743272E-3   -2.191014561036392E-3   -1.477088457315593E-3   -2.598284655591119E-1    3.684148911387244E-1
 8.194261450150000E9    -3.500386537818150E-1    4.090210515014141E-1   -2.097126642371772E-3   -1.513324430058701E-3   -2.165727926434190E-3   -1.480453751934368E-3   -2.591160707069993E-1    3.689908696000073E-1
 8.194276468500000E9    -3.491672964127710E-1    4.097664062146712E-1   -2.081678235983549E-3   -1.507125169418488E-3   -2.182954301874325E-3   -1.496299359709525E-3   -2.583787545092645E-1    3.692668783010060E-1
 8.194291486850000E9    -3.483649670066303E-1    4.104689298273022E-1   -2.086878568563470E-3   -1.507380018668813E-3   -2.187890102331794E-3   -1.485732157457682E-3   -2.575935327367697E-1    3.697646751673114E-1
 8.194306505200000E9    -3.475850173662209E-1    4.111435274384281E-1   -2.109474852646746E-3   -1.539525060832649E-3   -2.235482514266117E-3   -1.496904834326998E-3   -2.569905099601627E-1    3.701531388667229E-1
 8.194321523550000E9    -3.467800969698586E-1    4.118986016193402E-1   -2.084409485111287E-3   -1.480233563510359E-3   -2.219868790361076E-3   -1.499550595848860E-3   -2.561880906396707E-1    3.707686506648133E-1
 8.194336541900000E9    -3.459140868686612E-1    4.124925609450620E-1   -2.110013826715401E-3   -1.472078515392343E-3   -2.232797292111820E-3   -1.450578002144665E-3   -2.555886750970035E-1    3.712593367708050E-1
 8.194351560250000E9    -3.451725211399939E-1    4.131541372651070E-1   -2.090978548016294E-3   -1.484417068726069E-3   -2.203501396897175E-3   -1.467269616249165E-3   -2.547862141860905E-1    3.715876534589014E-1
 8.194366578600000E9    -3.442591428761252E-1    4.137100730703177E-1   -2.137885872573039E-3   -1.506232955581571E-3   -2.212091484918184E-3   -1.456647028228699E-3   -2.541203713897328E-1    3.721442348505627E-1
 8.194381596950000E9    -3.434285332653580E-1    4.145997446752157E-1   -2.111601050930499E-3   -1.476385193484148E-3   -2.216268210379321E-3   -1.447722268946886E-3   -2.533864864041681E-1    3.725967875185766E-1
 8.194396615300000E9    -3.427108846572271E-1    4.152404289087827E-1   -2.099931116044410E-3   -1.484449717429722E-3   -2.237262440311647E-3   -1.448405181536372E-3   -2.528872104768586E-1    3.729558490236922E-1
 8.194411633650000E9    -3.418555080542886E-1    4.158275044703371E-1   -2.137427792943914E-3   -1.474210351213409E-3   -2.217073558160028E-3   -1.426841618163984E-3   -2.519770813606110E-1    3.735646940312918E-1
 8.194426652000000E9    -3.410298012543440E-1    4.164340538979561E-1   -2.127569377532846E-3   -1.493052019089193E-3   -2.221982865691408E-3   -1.404594479365410E-3   -2.512045182305582E-1    3.739032497842942E-1
 8.194441670350000E9    -3.401080937938248E-1    4.172967355182698E-1   -2.159617902475867E-3   -1.494856265917105E-3   -2.209567940064467E-3   -1.446742896773683E-3   -2.505227711365079E-1    3.743279437933876E-1
 8.194456688700000E9    -3.393237152136105E-1    4.177590430639004E-1   -2.135339983538695E-3   -1.477277739662631E-3   -2.219054003509636E-3   -1.437632437788500E-3   -2.498614729449289E-1    3.748369771101764E-1
 8.194471707050000E9    -3.386395149297148E-1    4.184436169198020E-1   -2.141021319477116E-3   -1.465466109751284E-3   -2.220001579168762E-3   -1.427816678799603E-3   -2.491036759103062E-1    3.753535480916638E-1
 8.194486725400000E9    -3.375494244092994E-1    4.190936676067968E-1   -2.156627314966520E-3   -1.449083984378446E-3   -2.243504295402740E-3   -1.421231317666664E-3   -2.484397452816539E-1    3.757914988975921E-1
 8.194501743750000E9    -3.369110213630240E-1    4.198469020707034E-1   -2.151959851127376E-3   -1.478342601443714E-3   -2.255910241428075E-3   -1.430822584785111E-3   -2.477423727688107E-1    3.761486170023161E-1
 8.194516762100000E9    -3.360839139195528E-1    4.204335277025126E-1   -2.171376208674062E-3   -1.444278259891403E-3   -2.254181818050107E-3   -1.410505807830340E-3   -2.471669463295734E-1    3.765753956441300E-1
 8.194531780450000E9    -3.352370501164395E-1    4.211920029967535E-1   -2.143700116517766E-3   -1.444826513591338E-3   -2.241139624991466E-3   -1.420770028393974E-3   -2.463616311121034E-1    3.770295356681848E-1
 8.194546798800000E9    -3.343538099359005E-1    4.217020384187041E-1   -2.148227204370641E-3   -1.458910566627129E-3   -2.258162708804095E-3   -1.407411244910890E-3   -2.455519914134753E-1    3.776775022638728E-1
 8.194561817150000E9    -3.335024414631415E-1    4.222119057694464E-1   -2.160882745382571E-3   -1.426512602369742E-3   -2.238434999989138E-3   -1.426787183799529E-3   -2.449679153750240E-1    3.780696726342880E-1
 8.194576835500000E9    -3.325957331576828E-1    4.231031101316572E-1   -2.154290908188408E-3   -1.435333429548595E-3   -2.281024289414664E-3   -1.425463099942246E-3   -2.442290474646349E-1    3.784169164684221E-1
 8.194591853850000E9    -3.318609307200431E-1    4.236410609901852E-1   -2.173799432845786E-3   -1.406114465359364E-3   -2.244445676791261E-3   -1.385520560094520E-3   -2.435049583545901E-1    3.787807175473273E-1
 8.194606872200000E9    -3.310523008132687E-1    4.243334494181043E-1   -2.199372851382173E-3   -1.435897105088797E-3   -2.248310126504458E-3   -1.383380675115977E-3   -2.426590243932415E-1    3.792836236886996E-1
 8.194621890550000E9    -3.301490745354981E-1    4.248346824089727E-1   -2.163659619654331E-3   -1.445245440239980E-3   -2.279855494222677E-3   -1.392818707772459E-3   -2.421106888575369E-1    3.796294474259962E-1
 8.194636908900000E9    -3.293694005255128E-1    4.255617603399817E-1   -2.158153122699178E-3   -1.427604752901371E-3   -2.283788988140103E-3   -1.344832352241415E-3   -2.412450734921335E-1    3.800878790295734E-1
 8.194651927250000E9    -3.285200926497758E-1    4.262589459746794E-1   -2.167294940293001E-3   -1.417614671483291E-3   -2.319399581428177E-3   -1.394346024737739E-3   -2.407870528274182E-1    3.804645530135213E-1
 8.194666945600000E9    -3.275933026473207E-1    4.267749649664452E-1   -2.174001363330709E-3   -1.419115862558483E-3   -2.271552245586408E-3   -1.374670253721486E-3   -2.398919060589223E-1    3.809246527951191E-1
 8.194681963950000E9    -3.266946501932290E-1    4.275050768221090E-1   -2.192225991362042E-3   -1.402777800337647E-3   -2.281927453951921E-3   -1.360035598236043E-3   -2.392053052377593E-1    3.814240625201699E-1
 8.194696982300000E9    -3.258862073172969E-1    4.281282356269852E-1   -2.179880352814337E-3   -1.420455341996052E-3   -2.319007236373594E-3   -1.369565646963319E-3   -2.384540635631248E-1    3.818302953319691E-1
 8.194712000650000E9    -3.251184902204033E-1    4.288544311749774E-1   -2.185649836606111E-3   -1.387278477026613E-3   -2.292647102435247E-3   -1.358800124223493E-3   -2.376497894360530E-1    3.821221267227320E-1
 8.194727019000000E9    -3.241327322731027E-1    4.293152650773476E-1   -2.198694948784484E-3   -1.380799369033673E-3   -2.302915743045594E-3   -1.354715919617148E-3   -2.369309056141796E-1    3.827554421630872E-1
 8.194742037350000E9    -3.233211779157201E-1    4.300824484757680E-1   -2.191226526837899E-3   -1.393168919628770E-3   -2.281437811015492E-3   -1.364896966840888E-3   -2.362281020532408E-1    3.831551656790794E-1
 8.194757055700000E9    -3.224275952096716E-1    4.306248184167228E-1   -2.196400406941763E-3   -1.357106653501871E-3   -2.332594806157830E-3   -1.361290467262053E-3   -2.354880720769688E-1    3.836267128984363E-1
 8.194772074050000E9    -3.216836404307842E-1    4.313003932216497E-1   -2.200835762239116E-3   -1.392038451216503E-3   -2.326928587943582E-3   -1.323371586552165E-3   -2.346716753575304E-1    3.839040425563774E-1
 8.194787092400000E9    -3.207557279621421E-1    4.319512827011271E-1   -2.199652932563099E-3   -1.386331522238212E-3   -2.306970040940447E-3   -1.325099972964849E-3   -2.340435657228190E-1    3.844283676806157E-1
 8.194802110750000E9    -3.199137102210832E-1    4.325559124804467E-1   -2.190248743064718E-3   -1.365016581312231E-3   -2.302105624113127E-3   -1.332198798027300E-3   -2.333863312302905E-1    3.849143627459480E-1
 8.194817129100000E9    -3.189155337782927E-1    4.330462221194150E-1   -2.226464753519601E-3   -1.406497169801612E-3   -2.289876985300027E-3   -1.327249681531437E-3   -2.326348062557431E-1    3.852460050657467E-1
 8.194832147450000E9    -3.182539084498842E-1    4.337869853715505E-1   -2.232472643793032E-3   -1.368324236911971E-3   -2.327639191159429E-3   -1.339622266125615E-3   -2.319533267001017E-1    3.856434484594117E-1
 8.194847165800000E9    -3.173455892891626E-1    4.345017714365549E-1   -2.240847522391159E-3   -1.351491934135420E-3   -2.315191196213078E-3   -1.305875180603863E-3   -2.311210997710451E-1    3.861300446175159E-1
 8.194862184150000E9    -3.164422028129088E-1    4.349291442261056E-1   -2.241932819319480E-3   -1.389189797638986E-3   -2.331156132900112E-3   -1.323574656755532E-3   -2.303207998762861E-1    3.864238288125750E-1
 8.194877202500000E9    -3.156468203321364E-1    4.356025835979803E-1   -2.233956271843039E-3   -1.372509458698153E-3   -2.321445233324790E-3   -1.301976368727935E-3   -2.297897214516006E-1    3.867900644363233E-1
 8.194892220850000E9    -3.147381337041844E-1    4.362140925169918E-1   -2.223348893684398E-3   -1.339721055838128E-3   -2.327173245436126E-3   -1.273120815226977E-3   -2.289581005371535E-1    3.872804110790340E-1
 8.194907239200000E9    -3.139474073565045E-1    4.368770241690078E-1   -2.254252386163102E-3   -1.360413139916037E-3   -2.361348610514707E-3   -1.306603159187124E-3   -2.281770161701012E-1    3.876842859973553E-1
 8.194922257550000E9    -3.129571707461130E-1    4.373758078448906E-1   -2.240325330954802E-3   -1.354629440241661E-3   -2.336138952304997E-3   -1.324246142585517E-3   -2.274507924197006E-1    3.881574129177578E-1
 8.194937275900000E9    -3.121233013852046E-1    4.382502102505375E-1   -2.235664648002633E-3   -1.335797962474108E-3   -2.365214840401992E-3   -1.319447337603814E-3   -2.267132655219364E-1    3.885137285383714E-1
 8.194952294250000E9    -3.112461697717971E-1    4.385224803233205E-1   -2.264352882393674E-3   -1.322657081346933E-3   -2.343091816438447E-3   -1.285944818959633E-3   -2.258893789420753E-1    3.888929296490141E-1
 8.194967312600000E9    -3.104488591147042E-1    4.392079429457509E-1   -2.239139457602000E-3   -1.343605297643922E-3   -2.368995481766422E-3   -1.284635360132016E-3   -2.252731062090151E-1    3.893386229813759E-1
 8.194982330950000E9    -3.094837132075436E-1    4.398211166178226E-1   -2.246725688439520E-3   -1.319515439364899E-3   -2.351238214026874E-3   -1.255836736658577E-3   -2.244673018851627E-1    3.896720586354646E-1
 8.194997349300000E9    -3.085375373109360E-1    4.403795201879531E-1   -2.261818955837012E-3   -1.324186756761718E-3   -2.369214264734046E-3   -1.260369662615130E-3   -2.239105217271908E-1    3.902573091064201E-1
 8.195012367650000E9    -3.077456116221183E-1    4.409398366015978E-1   -2.275689267518608E-3   -1.322051900878758E-3   -2.374466119111173E-3   -1.269183948737891E-3   -2.229278161569692E-1    3.904377121658846E-1
 8.195027386000000E9    -3.068986324444011E-1    4.417300456999377E-1   -2.270455295468885E-3   -1.333202404992944E-3   -2.385397868350675E-3   -1.273244162111313E-3   -2.221582255262387E-1    3.909197708368397E-1
 8.195042404350000E9    -3.059790835869358E-1    4.422597126438885E-1   -2.244480048266549E-3   -1.312402492817484E-3   -2.366314971381473E-3   -1.289165514254383E-3   -2.217170232375491E-1    3.912212765238062E-1
 8.195057422700000E9    -3.052563323917787E-1    4.427854109573475E-1   -2.276885384024856E-3   -1.316049770604137E-3   -2.401406697726635E-3   -1.252472762810419E-3   -2.208602868512253E-1    3.916719283517773E-1
 8.195072441050000E9    -3.042923344279043E-1    4.434015785565571E-1   -2.252140586338132E-3   -1.300203481006943E-3   -2.392756816259425E-3   -1.254708703807674E-3   -2.199943119695461E-1    3.920344752916236E-1
 8.195087459400000E9    -3.033562302974525E-1    4.440535572810863E-1   -2.298316595996373E-3   -1.317711106993154E-3   -2.380782600940372E-3   -1.255813071709724E-3   -2.193119195858663E-1    3.924803109010379E-1
 8.195102477750000E9    -3.025592684991822E-1    4.446715234630039E-1   -2.298059817669111E-3   -1.313061154294461E-3   -2.388016607166916E-3   -1.240326975437985E-3   -2.184499820283237E-1    3.928496518211390E-1
 8.195117496100000E9    -3.015942395019893E-1    4.452121091854903E-1   -2.297246157877298E-3   -1.301717032018246E-3   -2.373295174021391E-3   -1.239111034132099E-3   -2.177730674589130E-1    3.932152823644754E-1
 8.195132514450000E9    -3.006487989141436E-1    4.457727066698403E-1   -2.294627951583946E-3   -1.306315289492303E-3   -2.403772975153790E-3   -1.253950065307098E-3   -2.170336842668033E-1    3.936172856119124E-1
 8.195147532800000E9    -2.997245285036096E-1    4.463711134964133E-1   -2.310828761252806E-3   -1.293903398710603E-3   -2.378241240716073E-3   -1.232061097578148E-3   -2.163810089045358E-1    3.940936449716681E-1
 8.195162551150000E9    -2.988037971877823E-1    4.470548882834667E-1   -2.312630177892782E-3   -1.302930904888094E-3   -2.430266710751828E-3   -1.253920032294778E-3   -2.154834758028094E-1    3.943952014848537E-1
 8.195177569500000E9    -2.979640107757320E-1    4.475723563798750E-1   -2.311928500893515E-3   -1.295357850465028E-3   -2.403457918463316E-3   -1.217487866541421E-3   -2.148427625792589E-1    3.947852936530390E-1
 8.195192587850000E9    -2.972068818437216E-1    4.480984244561694E-1   -2.306974434071072E-3   -1.293067761035383E-3   -2.429587884192856E-3   -1.254848842542105E-3   -2.140634295580501E-1    3.951308729541210E-1
 8.195207606200000E9    -2.963078692735011E-1    4.486695073227396E-1   -2.322507237751395E-3   -1.272777794464266E-3   -2.417166278921704E-3   -1.237142398483627E-3   -2.133940932474792E-1    3.956207324934316E-1
 8.195222624550000E9    -2.952908047388704E-1    4.492808605020624E-1   -2.309202164747041E-3   -1.267274780710543E-3   -2.392100142382995E-3   -1.238111396384362E-3   -2.126134867541835E-1    3.958116561244554E-1
 8.195237642900000E9    -2.944882726758048E-1    4.498385683248627E-1   -2.318680561711910E-3   -1.271734044692475E-3   -2.407658441288442E-3   -1.208788139189265E-3   -2.118742974893323E-1    3.963446710510786E-1
 8.195252661250000E9    -2.936788524465954E-1    4.505155757828273E-1   -2.331545908256275E-3   -1.263207023189249E-3   -2.431215465284962E-3   -1.215075761862833E-3   -2.111279942602294E-1    3.967586637269786E-1
 8.195267679600000E9    -2.925994559115430E-1    4.509993699340798E-1   -2.321886690104346E-3   -1.285369600159070E-3   -2.418916644254854E-3   -1.212768943565668E-3   -2.102759119668674E-1    3.970561569754206E-1
 8.195282697950000E9    -2.917424083519516E-1    4.515507252884983E-1   -2.362533581815342E-3   -1.264901485086659E-3   -2.451625293176414E-3   -1.207333765638649E-3   -2.095784944678866E-1    3.974300458954130E-1
 8.195297716300000E9    -2.908500716763472E-1    4.520841063389748E-1   -2.332018123975252E-3   -1.261375027115451E-3   -2.458449338556567E-3   -1.210746303874430E-3   -2.088439946102638E-1    3.977612845827712E-1
 8.195312734650000E9    -2.898592246494845E-1    4.526962793968340E-1   -2.341343375569091E-3   -1.272433397949592E-3   -2.440263887643034E-3   -1.183690264469763E-3   -2.080196830713614E-1    3.981623951313205E-1
 8.195327753000000E9    -2.890584361494486E-1    4.532050840359407E-1   -2.336665931186174E-3   -1.253966703422928E-3   -2.447637627414159E-3   -1.168617992059831E-3   -2.072827518647751E-1    3.985470965829128E-1
 8.195342771350000E9    -2.881276701546699E-1    4.537506970053333E-1   -2.346328493130949E-3   -1.233929746471829E-3   -2.449631236940189E-3   -1.178991257494335E-3   -2.066352137115861E-1    3.990013705584300E-1
 8.195357789700000E9    -2.871932006876411E-1    4.543474251513424E-1   -2.330457430758587E-3   -1.240162603299501E-3   -2.475333771822640E-3   -1.164757807375355E-3   -2.058093851172251E-1    3.991498970224349E-1
 8.195372808050000E9    -2.863591274521924E-1    4.548322893866055E-1   -2.360973417582101E-3   -1.238284932688331E-3   -2.430666780664899E-3   -1.193691750767185E-3   -2.050482425269652E-1    3.996612120000985E-1
 8.195387826400000E9    -2.853630232052404E-1    4.553393195700659E-1   -2.374387417487860E-3   -1.241734934564175E-3   -2.457396167088888E-3   -1.170702536331832E-3   -2.042271381320111E-1    4.000893280004099E-1
 8.195402844750000E9    -2.846100688814096E-1    4.560744800531134E-1   -2.370863426431182E-3   -1.240203928762259E-3   -2.448608905725975E-3   -1.159788313161529E-3   -2.035082683285013E-1    4.004362097700158E-1
 8.195417863100000E9    -2.836688881443333E-1    4.566046674007756E-1   -2.379252847760643E-3   -1.181758406315019E-3   -2.460426768346475E-3   -1.161886108266336E-3   -2.028086910749069E-1    4.007855966789250E-1
 8.195432881450000E9    -2.826898603413417E-1    4.571652540918464E-1   -2.380136752541789E-3   -1.235281863447928E-3   -2.471347683956906E-3   -1.158366558714351E-3   -2.019427514771211E-1    4.010964951829717E-1
 8.195447899800000E9    -2.818585257454300E-1    4.577194187284086E-1   -2.358520082423161E-3   -1.209030163774028E-3   -2.455689894618814E-3   -1.146188576008300E-3   -2.010709494196800E-1    4.015050579569233E-1
 8.195462918150000E9    -2.808254078949078E-1    4.581296438963518E-1   -2.369233359991843E-3   -1.227951758314349E-3   -2.471397180398651E-3   -1.166274078066888E-3   -2.003505281653148E-1    4.019214696453614E-1
 8.195477936500000E9    -2.799536179074895E-1    4.587655917057114E-1   -2.375310681942610E-3   -1.210202862432733E-3   -2.496866524915037E-3   -1.152789505253380E-3   -1.997564197955092E-1    4.021523983990732E-1
