#  HZ   S   RI   R     50.00 
! Rohde & Schwarz Vector Network Analyzer 
! Rohde-Schwarz,ZNB20-2Port,1311601062101988,3.16
! Created: UTC 3/20/2024, 4:56:07 PM
! freq[Hz]                re:S11                  im:S11                  re:S21                  im:S21                  re:S12                  im:S12                  re:S22                  im:S22
 8.186165130000000E9    -5.331425497206881E-1   -1.002125357022959E-1    1.924960089111377E-4   -2.305048390178969E-3    1.338969659710525E-4   -2.385636033552367E-3   -4.586467457874882E-1   -1.508479824325544E-2
 8.186215551925000E9    -5.337470190520670E-1   -9.666600840480674E-2    1.760710607839999E-4   -2.310398145532998E-3    1.230012919364345E-4   -2.386753273401736E-3   -4.584562490745995E-1   -1.203138065445654E-2
 8.186265973850000E9    -5.343470610263062E-1   -9.309178917245263E-2    1.307141471334361E-4   -2.317733186324489E-3    9.516487303768366E-5   -2.383399074655458E-3   -4.586526413129513E-1   -9.186598139456539E-3
 8.186316395775000E9    -5.348713494406991E-1   -8.957231653605009E-2    1.156130734460218E-4   -2.306261943280966E-3    1.418809682016864E-4   -2.394526167179059E-3   -4.585594989364243E-1   -6.360610235872787E-3
 8.186366817700000E9    -5.354539510417047E-1   -8.610703708569548E-2    1.090063917785678E-4   -2.311516998838689E-3    9.979880069912004E-5   -2.389948850410264E-3   -4.584146784724684E-1   -3.789122974345347E-3
 8.186417239625000E9    -5.359662485888814E-1   -8.269429835327199E-2    1.097741042177771E-4   -2.327560484670962E-3    9.609350439471799E-5   -2.441293458151800E-3   -4.584904479276901E-1   -8.119562892302535E-4
 8.186467661550000E9    -5.365118271377470E-1   -7.931078224631261E-2    1.336569018211278E-4   -2.325374659757182E-3    9.442170544021140E-5   -2.400190577991295E-3   -4.585187503840257E-1    1.874263778780950E-3
 8.186518083475000E9    -5.370187988663135E-1   -7.578854632817321E-2    8.018981925354929E-5   -2.301782663498535E-3    6.185097663856417E-5   -2.424032643527938E-3   -4.583052561745082E-1    4.603721221430768E-3
 8.186568505400000E9    -5.374148099356708E-1   -7.222642870040329E-2    5.756592325429958E-5   -2.315688114746023E-3    1.404616350477222E-5   -2.430599438803071E-3   -4.582513240897518E-1    7.527558081299134E-3
 8.186618927325000E9    -5.378912430099037E-1   -6.856400403715553E-2    3.988190518351884E-5   -2.294963017704585E-3    1.996721546837915E-5   -2.412642671052999E-3   -4.580291868114227E-1    1.028887989611139E-2
 8.186669349250000E9    -5.383206814869356E-1   -6.510531115404064E-2    5.876389613943897E-5   -2.327547898006607E-3    5.528159776967813E-6   -2.436148964996778E-3   -4.580187073173629E-1    1.302922907846960E-2
 8.186719771175000E9    -5.387914477003711E-1   -6.159434937899883E-2    4.111265666627684E-5   -2.293012707761330E-3   -1.778190265242161E-5   -2.397392604735731E-3   -4.579298847542522E-1    1.596334462859183E-2
 8.186770193100000E9    -5.390661021742166E-1   -5.819454864398951E-2    1.667654245003838E-5   -2.323626112643976E-3   -3.686113557786806E-5   -2.427555797180776E-3   -4.576470529705957E-1    1.861761663416883E-2
 8.186820615025000E9    -5.394643327698517E-1   -5.460983406392227E-2   -2.791413424653143E-6   -2.316132998446008E-3   -5.737456733560423E-5   -2.423471785118865E-3   -4.576158177159539E-1    2.146108680629566E-2
 8.186871036950000E9    -5.398577351558412E-1   -5.124783309222899E-2   -3.863868570243818E-5   -2.306609239740037E-3   -8.715178723730611E-5   -2.440314222000557E-3   -4.575098113938436E-1    2.424146783366618E-2
 8.186921458875000E9    -5.400802733633419E-1   -4.773175152854231E-2   -1.207184172219403E-5   -2.324546453907430E-3   -7.173599931304940E-5   -2.422397355502660E-3   -4.572603421979852E-1    2.705319960545903E-2
 8.186971880800000E9    -5.403585191937045E-1   -4.415810172465164E-2   -4.426424040181224E-5   -2.327843647027847E-3   -8.425475773969355E-5   -2.406346827490677E-3   -4.570100376455304E-1    2.986656473078642E-2
 8.187022302725000E9    -5.406427179414861E-1   -4.062591981938837E-2   -3.365298002494846E-5   -2.335602365747634E-3   -9.815632815978101E-5   -2.443274698435618E-3   -4.566875685839019E-1    3.259024881144054E-2
 8.187072724650000E9    -5.408792881104048E-1   -3.717123669483815E-2   -9.553152070490052E-5   -2.326109293663027E-3   -1.330190992624215E-4   -2.400308956116021E-3   -4.564581719554666E-1    3.535568410147844E-2
 8.187123146575000E9    -5.412214897282268E-1   -3.360236074155341E-2   -9.986796726663602E-5   -2.362752319458997E-3   -1.484194905559330E-4   -2.417690034460661E-3   -4.561556638756479E-1    3.809176958354658E-2
 8.187173568500000E9    -5.412737339380603E-1   -3.015590537421616E-2   -1.186031965618944E-4   -2.345288170226612E-3   -1.431709195929098E-4   -2.384667230481761E-3   -4.560018791831090E-1    4.089041896952328E-2
 8.187223990425000E9    -5.414965594016788E-1   -2.654553430033670E-2   -1.287839933411866E-4   -2.335412622934153E-3   -1.971960132250440E-4   -2.409176185235974E-3   -4.555870139835933E-1    4.358402660859459E-2
 8.187274412350000E9    -5.415556631278631E-1   -2.307278961199997E-2   -1.090636792392852E-4   -2.325944399124652E-3   -2.154376546208646E-4   -2.439161224373794E-3   -4.551811943109227E-1    4.656388675219274E-2
 8.187324834275000E9    -5.417905215888380E-1   -1.950192651021149E-2   -1.497029567204219E-4   -2.322629005142984E-3   -2.199825976517746E-4   -2.402700072253787E-3   -4.548882917778900E-1    4.919574407179274E-2
 8.187375256200000E9    -5.418525357964672E-1   -1.596359805703178E-2   -1.497090503359923E-4   -2.331031732916147E-3   -2.066777968450059E-4   -2.438698272379465E-3   -4.546577265335663E-1    5.201525947860328E-2
 8.187425678125000E9    -5.417646646551689E-1   -1.232865271157861E-2   -1.582334654064619E-4   -2.328589042712475E-3   -2.277854554631056E-4   -2.399990166841261E-3   -4.541697088363399E-1    5.476650940037974E-2
 8.187476100050000E9    -5.419397033170240E-1   -8.952465819457571E-3   -1.807398515154904E-4   -2.328006185334461E-3   -2.575054593537728E-4   -2.407735810052049E-3   -4.537904749625394E-1    5.759944736467824E-2
 8.187526521975000E9    -5.418417723204204E-1   -5.426207619180867E-3   -1.786029235317459E-4   -2.306831088633097E-3   -2.850481940527591E-4   -2.412331606186433E-3   -4.534839805666948E-1    6.023080051635701E-2
 8.187576943900000E9    -5.419578326299793E-1   -1.899782962692329E-3   -2.370110508144325E-4   -2.336822297349107E-3   -2.639496153064427E-4   -2.423114652134539E-3   -4.529210799019915E-1    6.306604238361806E-2
 8.187627365825000E9    -5.419517628610511E-1    1.625059219749025E-3   -2.327609659234595E-4   -2.330593245704852E-3   -3.072416539637701E-4   -2.408803246883628E-3   -4.524719674812099E-1    6.581927880044711E-2
 8.187677787750000E9    -5.418844603594838E-1    5.088529637534062E-3   -2.515770650645961E-4   -2.326687442542430E-3   -3.371178088934575E-4   -2.408782168690552E-3   -4.521947203740804E-1    6.854211218643144E-2
 8.187728209675000E9    -5.420161635054891E-1    8.656895978276289E-3   -2.927568714691190E-4   -2.313729501373559E-3   -3.257018608600749E-4   -2.386941109070591E-3   -4.514465735254217E-1    7.121994330925996E-2
 8.187778631600000E9    -5.417910583120547E-1    1.223222523268868E-2   -2.708595688002241E-4   -2.332918673941556E-3   -3.459606790972066E-4   -2.421509667937301E-3   -4.511608871671426E-1    7.415033712792077E-2
 8.187829053525000E9    -5.416191521123946E-1    1.566451364897193E-2   -2.963682932431253E-4   -2.300664465062332E-3   -3.545512955798905E-4   -2.391435523589313E-3   -4.505196353727785E-1    7.680935176191404E-2
 8.187879475450000E9    -5.415395422086667E-1    1.927717184859621E-2   -3.094911686127538E-4   -2.304869054141946E-3   -3.656365563009166E-4   -2.408422033641087E-3   -4.499445632951204E-1    7.954644547376132E-2
 8.187929897375000E9    -5.414396763210488E-1    2.276127119440829E-2   -3.359979671429764E-4   -2.326914281906024E-3   -3.618896943065568E-4   -2.426814948129840E-3   -4.493922782592478E-1    8.229224580594223E-2
 8.187980319300000E9    -5.412148608479779E-1    2.622021569375122E-2   -3.372710358545588E-4   -2.295668666286417E-3   -4.305906984068318E-4   -2.380345875576507E-3   -4.490201774918020E-1    8.505831939637777E-2
 8.188030741225000E9    -5.409535433751599E-1    2.979885613520492E-2   -3.574796433832369E-4   -2.325406667678888E-3   -4.089114669936008E-4   -2.395612912191576E-3   -4.484732691240862E-1    8.779188521469727E-2
 8.188081163150000E9    -5.407412488751004E-1    3.331496365744228E-2   -3.673012811072586E-4   -2.293823177037000E-3   -4.669478127448476E-4   -2.395082002213140E-3   -4.477539096939741E-1    9.033873898030990E-2
 8.188131585075000E9    -5.404896833435139E-1    3.687525510935936E-2   -3.861732071474657E-4   -2.310700506612131E-3   -4.607445802277991E-4   -2.369484719294263E-3   -4.470444748790156E-1    9.321548349030924E-2
 8.188182007000000E9    -5.402753407120052E-1    4.041542054042700E-2   -3.900438547075607E-4   -2.327386082762766E-3   -4.508066496295177E-4   -2.389261102973423E-3   -4.465752114016043E-1    9.590049911532085E-2
 8.188232428925000E9    -5.399899292205558E-1    4.397436037826619E-2   -4.078481139991073E-4   -2.314036323718655E-3   -4.865586875036442E-4   -2.399325739877985E-3   -4.458121999644554E-1    9.857389121440482E-2
 8.188282850850000E9    -5.396515979868491E-1    4.731327302504641E-2   -4.579457852784324E-4   -2.312540671407010E-3   -4.897806684251182E-4   -2.343930455881696E-3   -4.451270733056713E-1    1.013827509299824E-1
 8.188333272775000E9    -5.392976200361806E-1    5.094340797700609E-2   -4.471300815295330E-4   -2.292926077650364E-3   -5.114954302890803E-4   -2.404756307437356E-3   -4.444460155779544E-1    1.040622621112820E-1
 8.188383694700000E9    -5.390131261125432E-1    5.445115880934668E-2   -4.518880098900247E-4   -2.335743536207538E-3   -5.075368188166117E-4   -2.403207412100992E-3   -4.437921334826467E-1    1.067530344503387E-1
 8.188434116625000E9    -5.385257016659308E-1    5.782516200352421E-2   -4.623441338583254E-4   -2.325659670076844E-3   -5.356140119322885E-4   -2.386316373616420E-3   -4.430199983492668E-1    1.094416262223668E-1
 8.188484538550000E9    -5.381360360193159E-1    6.147020238968019E-2   -4.734761910251231E-4   -2.297905673527199E-3   -5.832568205114730E-4   -2.383398934995372E-3   -4.423764638396928E-1    1.121547432096304E-1
 8.188534960475000E9    -5.376690602555311E-1    6.493953968973545E-2   -5.357806618719750E-4   -2.308023731922862E-3   -5.920961079853383E-4   -2.394534070501102E-3   -4.414887750338285E-1    1.147510354851797E-1
 8.188585382400000E9    -5.371862414276176E-1    6.837494116790070E-2   -5.162081199960185E-4   -2.336014900908624E-3   -5.835310123948061E-4   -2.368770785694570E-3   -4.407364589191776E-1    1.176264546365261E-1
 8.188635804325000E9    -5.368412601837046E-1    7.205364436323160E-2   -5.402107983261789E-4   -2.315515199532873E-3   -5.940511296353985E-4   -2.353228224871499E-3   -4.400168291942355E-1    1.202602456390706E-1
 8.188686226250000E9    -5.362645584632725E-1    7.550193247750352E-2   -5.483642342266283E-4   -2.296787282642716E-3   -6.199054706545322E-4   -2.330388094869739E-3   -4.392129456876489E-1    1.229637000656208E-1
 8.188736648175000E9    -5.357454181298185E-1    7.890576395518932E-2   -5.544696018502322E-4   -2.314621766564428E-3   -5.956336713907260E-4   -2.409657135679084E-3   -4.382831126094434E-1    1.255076424210542E-1
 8.188787070100000E9    -5.352081038620485E-1    8.253023177368508E-2   -5.457364104745328E-4   -2.313141087230986E-3   -6.269723405791586E-4   -2.372451445742137E-3   -4.375173902213031E-1    1.282997408433698E-1
 8.188837492025000E9    -5.346958385813709E-1    8.595093109057939E-2   -5.862330943986445E-4   -2.306825327950376E-3   -6.545597482321316E-4   -2.359216088703011E-3   -4.365391657539087E-1    1.309707674958500E-1
 8.188887913950000E9    -5.339673117047050E-1    8.950422181915348E-2   -5.813257694850030E-4   -2.306810224605348E-3   -6.781092173697502E-4   -2.367246762649105E-3   -4.357033769384698E-1    1.336564183224261E-1
 8.188938335875000E9    -5.334144557890403E-1    9.287377806184945E-2   -6.023416158344162E-4   -2.289884202407430E-3   -6.851736929606467E-4   -2.369938708029445E-3   -4.349511302248185E-1    1.361690533357208E-1
 8.188988757800000E9    -5.327000794455617E-1    9.649875523667853E-2   -6.232660163898825E-4   -2.292057111815101E-3   -7.243924369675611E-4   -2.341422921328253E-3   -4.342032877543024E-1    1.388177257524024E-1
 8.189039179725000E9    -5.320705749506505E-1    9.980391151161222E-2   -6.461464080190717E-4   -2.288413246465439E-3   -7.122796215404651E-4   -2.356492888511211E-3   -4.331294698726555E-1    1.415821521774523E-1
 8.189089601650000E9    -5.314697817375250E-1    1.033756558480481E-1   -6.670631919222190E-4   -2.309342953893369E-3   -7.436940158908046E-4   -2.343919516849530E-3   -4.321187654189286E-1    1.441083700285069E-1
 8.189140023575000E9    -5.308137038059039E-1    1.067636070308026E-1   -6.742828115310890E-4   -2.296677169586126E-3   -7.633236484823450E-4   -2.324545459040086E-3   -4.312445951706858E-1    1.466641906413473E-1
 8.189190445500000E9    -5.300057624501593E-1    1.102016402269856E-1   -6.987484977998864E-4   -2.267811372188408E-3   -7.528427305270323E-4   -2.325817182368134E-3   -4.303359187113394E-1    1.493851220884750E-1
 8.189240867425000E9    -5.292591835733630E-1    1.137435590989574E-1   -6.987502687757990E-4   -2.258552457801614E-3   -7.895972063632217E-4   -2.357341823235352E-3   -4.291945200537964E-1    1.520523724951378E-1
 8.189291289350000E9    -5.284289331159019E-1    1.170606514911750E-1   -7.243785441545266E-4   -2.257837482566615E-3   -8.009413216600599E-4   -2.359988699800324E-3   -4.284336080806825E-1    1.545947544322104E-1
 8.189341711275000E9    -5.275857139307205E-1    1.205666722061057E-1   -7.527065427358016E-4   -2.272876795630093E-3   -8.064278079206443E-4   -2.312935564166105E-3   -4.273875963630524E-1    1.571271467921785E-1
 8.189392133200000E9    -5.268824393623086E-1    1.239642444294771E-1   -7.627288741661181E-4   -2.263612106347307E-3   -8.485669176480174E-4   -2.293705145624453E-3   -4.264532829442188E-1    1.597759278075140E-1
 8.189442555125000E9    -5.259987729462131E-1    1.272983975150707E-1   -7.565517487164401E-4   -2.283986832591166E-3   -8.184343787253936E-4   -2.315613187865359E-3   -4.253697275948899E-1    1.624629982975205E-1
 8.189492977050000E9    -5.251854861197214E-1    1.307335449502350E-1   -7.729873224695674E-4   -2.246132965408156E-3   -8.844829250969445E-4   -2.338589098384919E-3   -4.242804544413269E-1    1.650954166520197E-1
 8.189543398975000E9    -5.241667028071491E-1    1.342688704897404E-1   -7.687844992099248E-4   -2.244386264008822E-3   -8.766419697097774E-4   -2.322089925716502E-3   -4.232494849752488E-1    1.675512171615402E-1
 8.189593820900000E9    -5.233826655150738E-1    1.377209062424088E-1   -7.888370250795511E-4   -2.250122928840202E-3   -9.344345483882863E-4   -2.298276689173518E-3   -4.219785503570245E-1    1.701355840139104E-1
 8.189644242825000E9    -5.225007011960375E-1    1.410629831852012E-1   -8.377038849874378E-4   -2.283875022533775E-3   -9.217010855307815E-4   -2.289688769017725E-3   -4.209556282166528E-1    1.727986395467728E-1
 8.189694664750000E9    -5.215181464464926E-1    1.445818523568599E-1   -8.368051322958857E-4   -2.229208978816560E-3   -9.471768000784939E-4   -2.300147047031769E-3   -4.198990905689896E-1    1.751164322863943E-1
 8.189745086675000E9    -5.205077561215431E-1    1.479367043693847E-1   -8.429834888324949E-4   -2.213544944501106E-3   -9.420803742339294E-4   -2.299035148487329E-3   -4.187961367325779E-1    1.778208018177340E-1
 8.189795508600000E9    -5.195491590737072E-1    1.512925518838972E-1   -8.765306852001357E-4   -2.240652359048769E-3   -9.388647433492363E-4   -2.293930734832282E-3   -4.174483185442843E-1    1.802735330053416E-1
 8.189845930525000E9    -5.186005914223750E-1    1.545272053149593E-1   -8.950397396023780E-4   -2.220942827235609E-3   -9.446772459699057E-4   -2.275134558417544E-3   -4.163556652173090E-1    1.829698492154210E-1
 8.189896352450000E9    -5.175323196584525E-1    1.581309306446771E-1   -8.976178059359081E-4   -2.238275417200541E-3   -9.942547266791463E-4   -2.300490176704991E-3   -4.153148975399720E-1    1.853641285938819E-1
 8.189946774375000E9    -5.164285941741075E-1    1.614617154360314E-1   -9.313269697163917E-4   -2.200288061285647E-3   -9.730270683253278E-4   -2.290683180517433E-3   -4.139830919653433E-1    1.878431931839099E-1
 8.189997196300000E9    -5.152663672459764E-1    1.647964429588246E-1   -9.301454360031248E-4   -2.223185069927680E-3   -1.014868957612938E-3   -2.267786281955137E-3   -4.128234461297584E-1    1.904359075227963E-1
 8.190047618225000E9    -5.142779555398818E-1    1.680322667702470E-1   -9.234594852042444E-4   -2.199757906447415E-3   -1.017086890498854E-3   -2.245140179085695E-3   -4.114912481757440E-1    1.929601386296896E-1
 8.190098040150000E9    -5.130646975883359E-1    1.714501076846944E-1   -9.637163537431476E-4   -2.212349963314653E-3   -1.025925371196523E-3   -2.255279377047158E-3   -4.103296308024389E-1    1.954502718152576E-1
 8.190148462075000E9    -5.118240251401315E-1    1.747485113447683E-1   -9.576225027748230E-4   -2.166115971447592E-3   -1.029914753167806E-3   -2.279459043149425E-3   -4.090671303667852E-1    1.979197831136240E-1
 8.190198884000000E9    -5.107866918020014E-1    1.781994003694384E-1   -9.609876445491254E-4   -2.167317904778635E-3   -1.049017362361975E-3   -2.220423858296819E-3   -4.076272315362169E-1    2.004796988967361E-1
 8.190249305925000E9    -5.094515616860971E-1    1.815151685533066E-1   -1.019131287234047E-3   -2.185548839084108E-3   -1.077320155241410E-3   -2.245058349229704E-3   -4.065268286858268E-1    2.028907616317265E-1
 8.190299727850000E9    -5.083315771682148E-1    1.848898315994911E-1   -1.016499511205900E-3   -2.206722481664620E-3   -1.117799947174947E-3   -2.210654989375208E-3   -4.051710736903904E-1    2.055422339062035E-1
 8.190350149775000E9    -5.070647110587687E-1    1.880748093404908E-1   -1.045007800067600E-3   -2.194712328244496E-3   -1.112825564560403E-3   -2.210571623060250E-3   -4.038219175915866E-1    2.078075690765277E-1
 8.190400571700000E9    -5.056712117629528E-1    1.913826690657429E-1   -1.048417782572144E-3   -2.189276618225932E-3   -1.139734683785538E-3   -2.233960471957506E-3   -4.023742100817460E-1    2.101709624846836E-1
 8.190450993625000E9    -5.045151183211265E-1    1.946717242374372E-1   -1.086504949187238E-3   -2.169401329207022E-3   -1.181507451223549E-3   -2.206940762244831E-3   -4.011353239013380E-1    2.128022799756625E-1
 8.190501415550000E9    -5.031915905582363E-1    1.980314281929978E-1   -1.091932161542443E-3   -2.172712067527038E-3   -1.172121289289157E-3   -2.204620730157449E-3   -3.998626741938792E-1    2.152256881308952E-1
 8.190551837475000E9    -5.018552648251510E-1    2.011544378840844E-1   -1.111117453171372E-3   -2.146128934753815E-3   -1.192278909265790E-3   -2.196274500072738E-3   -3.983895233038001E-1    2.175840331880869E-1
 8.190602259400000E9    -5.005702337516841E-1    2.046336295307696E-1   -1.095410997165299E-3   -2.139572596993770E-3   -1.227958246594143E-3   -2.200687245191596E-3   -3.968990988917680E-1    2.199769825219615E-1
 8.190652681325000E9    -4.992002778623547E-1    2.078317224475793E-1   -1.109025003153301E-3   -2.159109777956154E-3   -1.198370641432452E-3   -2.197075948821464E-3   -3.957050896794357E-1    2.225013355951551E-1
 8.190703103250000E9    -4.977121082511832E-1    2.109816065071128E-1   -1.112271958120024E-3   -2.152782021283265E-3   -1.223442652070025E-3   -2.175225270379831E-3   -3.941809170119701E-1    2.248593549207499E-1
