#  HZ   S   RI   R     50.00 
! Rohde & Schwarz Vector Network Analyzer 
! Rohde-Schwarz,ZNB20-2Port,1311601062101988,3.16
! Created: UTC 3/20/2024, 4:49:13 PM
! freq[Hz]                re:S11                  im:S11                  re:S21                  im:S21                  re:S12                  im:S12                  re:S22                  im:S22
 8.196981160000000E9    -1.806463854133050E-1    5.046894899765173E-1   -3.077315217638332E-3   -7.995309396044266E-4   -3.194044989489437E-3   -7.134198352626966E-4   -1.155371910880449E-1    4.287873778276346E-1
 8.196983486700000E9    -1.804436902974758E-1    5.047162127090505E-1   -3.119569040775943E-3   -8.066165913443516E-4   -3.146348092115802E-3   -6.956276242839649E-4   -1.156117125041962E-1    4.287424379339812E-1
 8.196985813400000E9    -1.803156170026957E-1    5.048193498477087E-1   -3.095391188011655E-3   -7.938036408950572E-4   -3.172771497549180E-3   -7.084073192884680E-4   -1.154963571251359E-1    4.286172812823358E-1
 8.196988140100000E9    -1.800652043079600E-1    5.048790187881610E-1   -3.096167108436125E-3   -8.093540624887364E-4   -3.169154572995597E-3   -7.035227629077310E-4   -1.152303783180011E-1    4.289341367033189E-1
 8.196990466800000E9    -1.798758545960691E-1    5.049413755080262E-1   -3.072226692110830E-3   -8.016802299417859E-4   -3.194739598319092E-3   -6.846480052248696E-4   -1.152247882732720E-1    4.288191411429712E-1
 8.196992793500000E9    -1.796360126183066E-1    5.050428698991037E-1   -3.078979151654122E-3   -8.001976119362981E-4   -3.195620457743340E-3   -7.154618430708058E-4   -1.149348246563993E-1    4.288190751773440E-1
 8.196995120200000E9    -1.794322302039968E-1    5.050720225374087E-1   -3.100471784799181E-3   -7.886946480690388E-4   -3.169280281586404E-3   -6.920338317604832E-4   -1.149411074591698E-1    4.288593064728288E-1
 8.196997446900000E9    -1.794096933259645E-1    5.050776507574030E-1   -3.122525013927294E-3   -8.339677682830582E-4   -3.209222386322898E-3   -6.913841407411443E-4   -1.147294331502904E-1    4.290338191024338E-1
 8.196999773600000E9    -1.792353351995141E-1    5.051579748784009E-1   -3.124498801047622E-3   -8.112077711840257E-4   -3.208584960581116E-3   -7.095857088158798E-4   -1.145691713041380E-1    4.290280664564166E-1
 8.197002100300000E9    -1.791931516005680E-1    5.052041517227666E-1   -3.129477208483955E-3   -7.862486602270060E-4   -3.209407968654458E-3   -6.696761297910003E-4   -1.145161269578609E-1    4.290174691831016E-1
 8.197004427000000E9    -1.787405284388534E-1    5.052470896540242E-1   -3.134647937764689E-3   -8.060639046854654E-4   -3.223616820125636E-3   -6.977589722066455E-4   -1.144743966116522E-1    4.290386614030846E-1
 8.197006753700000E9    -1.786314601327187E-1    5.053766262834896E-1   -3.158750734266393E-3   -7.887529072152150E-4   -3.227018649427926E-3   -6.697072460909304E-4   -1.142122390093692E-1    4.291307314474682E-1
 8.197009080400000E9    -1.784507378532618E-1    5.054570071013806E-1   -3.111775043843648E-3   -8.149026550831740E-4   -3.253202004503178E-3   -6.999190678845490E-4   -1.140102418328192E-1    4.290618986148499E-1
 8.197011407100000E9    -1.783571001771880E-1    5.054005469801083E-1   -3.136382467696765E-3   -7.787829062037419E-4   -3.205912178912377E-3   -6.624426336137800E-4   -1.140004295726496E-1    4.291296408972972E-1
 8.197013733800000E9    -1.781429376003007E-1    5.055066035683033E-1   -3.124270933140401E-3   -8.044204671253015E-4   -3.241502045573130E-3   -6.901629452204362E-4   -1.138314502676939E-1    4.292218298855547E-1
 8.197016060500000E9    -1.779170949283597E-1    5.057036698890611E-1   -3.138447006793322E-3   -7.920444731470383E-4   -3.238155948563516E-3   -6.551514468801620E-4   -1.136657114362559E-1    4.291401672302350E-1
 8.197018387200000E9    -1.778059009672786E-1    5.055767179959391E-1   -3.162971770336547E-3   -7.589624755055946E-4   -3.232277830109104E-3   -6.604514530537828E-4   -1.135903497668841E-1    4.292967019926074E-1
 8.197020713900000E9    -1.776716425787387E-1    5.058337586601334E-1   -3.147912446213607E-3   -8.031086845403481E-4   -3.226698583189802E-3   -7.033965075472902E-4   -1.133953362695873E-1    4.291924083112466E-1
 8.197023040600000E9    -1.774975120995642E-1    5.056565223849621E-1   -3.163356677210071E-3   -7.993057745665761E-4   -3.247399770109339E-3   -6.950692230921537E-4   -1.133362093479559E-1    4.292000179029171E-1
 8.197025367300000E9    -1.772004181220757E-1    5.058050578794245E-1   -3.148433536314600E-3   -7.857402688159766E-4   -3.236610163024985E-3   -6.928295585013443E-4   -1.132373965096938E-1    4.293105277337289E-1
 8.197027694000000E9    -1.770560799577989E-1    5.058794633752243E-1   -3.145960248110638E-3   -7.986058057385059E-4   -3.231708907120955E-3   -6.792954610389248E-4   -1.130471808925741E-1    4.292630023460467E-1
 8.197030020700000E9    -1.768682625989686E-1    5.059292184817507E-1   -3.134565547432615E-3   -7.849687004482415E-4   -3.270195473450630E-3   -6.654346123449203E-4   -1.129599744488326E-1    4.293527075363489E-1
 8.197032347400000E9    -1.766704396985452E-1    5.059059714422940E-1   -3.161822108806100E-3   -7.409658390123783E-4   -3.259347783747799E-3   -6.596855764396765E-4   -1.128117859568189E-1    4.293590580680097E-1
 8.197034674100000E9    -1.764471277981826E-1    5.060223107451904E-1   -3.189099656055753E-3   -7.783856357538987E-4   -3.267654399425033E-3   -6.726153023513893E-4   -1.127197031641959E-1    4.294339484788347E-1
 8.197037000800000E9    -1.762852392855517E-1    5.060445816796234E-1   -3.151818113222842E-3   -7.806016377024878E-4   -3.287410862761391E-3   -6.887073685750996E-4   -1.124878563951723E-1    4.294161636994767E-1
 8.197039327500000E9    -1.760796615716750E-1    5.060950676070233E-1   -3.175381264200318E-3   -8.056105825700318E-4   -3.288960149585807E-3   -6.686153117697758E-4   -1.123475197570435E-1    4.293995032608413E-1
 8.197041654200000E9    -1.759807267136635E-1    5.061789516224465E-1   -3.155207291286321E-3   -7.718174185477558E-4   -3.279280708481600E-3   -6.793657188405312E-4   -1.123408214194172E-1    4.294883823082746E-1
 8.197043980900000E9    -1.758325310780983E-1    5.063547145429892E-1   -3.174040027642180E-3   -8.137481006725691E-4   -3.276299238232168E-3   -6.956160729438617E-4   -1.121050011289342E-1    4.294563728619139E-1
 8.197046307600000E9    -1.755309660284199E-1    5.063122605945317E-1   -3.198494083570526E-3   -8.003663942599756E-4   -3.312296182146591E-3   -6.895667765768609E-4   -1.120165585888494E-1    4.294829157326427E-1
 8.197048634300000E9    -1.754760745542614E-1    5.063175941953936E-1   -3.204500178660221E-3   -7.923032042997918E-4   -3.281377043132092E-3   -6.961890117637134E-4   -1.120073209659316E-1    4.296996221122449E-1
 8.197050961000000E9    -1.752459613042831E-1    5.063840149644601E-1   -3.185960092458396E-3   -7.909465685486063E-4   -3.303044941435176E-3   -6.765093961655271E-4   -1.117883269524368E-1    4.296944114799967E-1
 8.197053287700000E9    -1.750517488525963E-1    5.064931612348401E-1   -3.192595556012926E-3   -7.704888262054151E-4   -3.289269076856693E-3   -6.509041121817650E-4   -1.117090645263432E-1    4.296194421944283E-1
 8.197055614400000E9    -1.749113363122708E-1    5.065734283373690E-1   -3.203021229333802E-3   -7.808176820187325E-4   -3.305510526342824E-3   -6.651508004261504E-4   -1.114657647081930E-1    4.295581295815353E-1
 8.197057941100000E9    -1.747332613520749E-1    5.065840363582073E-1   -3.227126724822681E-3   -7.944838435266724E-4   -3.296850636132712E-3   -7.078460143370639E-4   -1.115288732041006E-1    4.296289840121911E-1
 8.197060267800000E9    -1.745100780439778E-1    5.065761469692667E-1   -3.197482571152049E-3   -7.871107318994463E-4   -3.320125434860076E-3   -6.870346652986382E-4   -1.113208797706916E-1    4.298090822657396E-1
 8.197062594500000E9    -1.743507607359204E-1    5.066722820285552E-1   -3.213273826436904E-3   -7.796823551423969E-4   -3.333177868190299E-3   -6.872561991465427E-4   -1.112205864161390E-1    4.298541352719842E-1
 8.197064921200000E9    -1.740421942238385E-1    5.067481525692600E-1   -3.209141507196491E-3   -7.967580034391842E-4   -3.342408717505228E-3   -6.765852312478608E-4   -1.110046702599272E-1    4.297162649245690E-1
 8.197067247900000E9    -1.739843081000625E-1    5.068311115389752E-1   -3.242898467966480E-3   -7.836327683278300E-4   -3.349103321328569E-3   -6.497172683496048E-4   -1.109620049729781E-1    4.297988028478952E-1
 8.197069574600000E9    -1.738459759560260E-1    5.068664425278331E-1   -3.236741375728990E-3   -7.804469129889743E-4   -3.295392914100935E-3   -6.508400611000713E-4   -1.107868757160833E-1    4.298167503084526E-1
 8.197071901300000E9    -1.736344773170425E-1    5.069344386677570E-1   -3.231163696016040E-3   -7.706588156125648E-4   -3.339694049393458E-3   -6.675389601320807E-4   -1.106023076047236E-1    4.299937589815625E-1
 8.197074228000000E9    -1.735251275525612E-1    5.069946513073361E-1   -3.250251744806092E-3   -7.583648337594785E-4   -3.329772363381217E-3   -6.558094888460193E-4   -1.104343314588813E-1    4.299025373427123E-1
 8.197076554700000E9    -1.732609606164298E-1    5.069386937551187E-1   -3.249866782238943E-3   -7.624559493085847E-4   -3.348462506672632E-3   -6.355845996975272E-4   -1.104238091840780E-1    4.299159368894259E-1
 8.197078881400000E9    -1.730395654156305E-1    5.069742329311798E-1   -3.261815296754004E-3   -7.637511065864970E-4   -3.343211609446254E-3   -6.401792740300183E-4   -1.102786028731497E-1    4.299509756101060E-1
 8.197081208100000E9    -1.728931639218300E-1    5.071288164180263E-1   -3.269673956810082E-3   -8.030936139585056E-4   -3.342960500482054E-3   -6.449110030508431E-4   -1.101287560637638E-1    4.299524339787379E-1
 8.197083534800000E9    -1.726704143697605E-1    5.072402274163099E-1   -3.246140869061333E-3   -7.861464538205366E-4   -3.371529001848891E-3   -6.395649864921383E-4   -1.100419208906081E-1    4.299873952689464E-1
 8.197085861500000E9    -1.725113611592221E-1    5.072440078933260E-1   -3.254837421540949E-3   -7.737359284510685E-4   -3.379077083708518E-3   -6.729727534851266E-4   -1.099063582626216E-1    4.300755684522384E-1
 8.197088188200000E9    -1.722020780923942E-1    5.073675567152802E-1   -3.284634459616310E-3   -7.910550870684483E-4   -3.342417391821363E-3   -6.298630804812130E-4   -1.099572576169313E-1    4.300781250126605E-1
 8.197090514900000E9    -1.721256149238417E-1    5.072728154575650E-1   -3.270293017102024E-3   -7.635388563011792E-4   -3.352610812283163E-3   -6.348892301553133E-4   -1.096557626492129E-1    4.301558241281045E-1
 8.197092841600000E9    -1.718572432567336E-1    5.074485201113509E-1   -3.269578467274967E-3   -7.773824792479854E-4   -3.355528009044058E-3   -6.497369417225265E-4   -1.094505218253658E-1    4.301358093884994E-1
 8.197095168300000E9    -1.717809046644687E-1    5.074020574458193E-1   -3.278890975329234E-3   -7.660867234625897E-4   -3.396286274223529E-3   -6.530812361475098E-4   -1.092066710291437E-1    4.301810822652300E-1
 8.197097495000000E9    -1.716276602309668E-1    5.073049333884474E-1   -3.284401482530268E-3   -7.602517317937549E-4   -3.425169295634214E-3   -6.392612176519170E-4   -1.091342130343751E-1    4.301476029493641E-1
 8.197099821700000E9    -1.713746416428069E-1    5.075022184286091E-1   -3.327019542143911E-3   -7.505416191877567E-4   -3.397317620496566E-3   -6.640957716596245E-4   -1.090059450857229E-1    4.301222135425161E-1
 8.197102148400000E9    -1.711248110880798E-1    5.075864918552617E-1   -3.306567878193239E-3   -7.761175821448959E-4   -3.379841771415771E-3   -6.265376157358532E-4   -1.090247325661521E-1    4.302876079388309E-1
 8.197104475100000E9    -1.710334762615580E-1    5.076336257860198E-1   -3.315201169680166E-3   -7.842468646476545E-4   -3.410438704479274E-3   -6.474390682245294E-4   -1.086867718169648E-1    4.302333343526201E-1
 8.197106801800000E9    -1.708555792340977E-1    5.076742622655865E-1   -3.337278484314766E-3   -7.700848794988483E-4   -3.403963037032735E-3   -6.507656881983105E-4   -1.088027034887423E-1    4.301476141474584E-1
 8.197109128500000E9    -1.706031856168810E-1    5.077739719028231E-1   -3.311850836316412E-3   -7.363025096650099E-4   -3.439041997226855E-3   -6.487693137373559E-4   -1.085906621884652E-1    4.303163317841645E-1
 8.197111455200000E9    -1.705479788179583E-1    5.077553023032225E-1   -3.347496273550360E-3   -7.635436249958503E-4   -3.435392793725395E-3   -6.351254041611487E-4   -1.084752004633990E-1    4.304208690177769E-1
 8.197113781900000E9    -1.702377096005695E-1    5.078458215434170E-1   -3.341787814909555E-3   -7.879714067113350E-4   -3.424568574708879E-3   -6.219405608280168E-4   -1.084022875001707E-1    4.304074545769883E-1
 8.197116108600000E9    -1.701593893191632E-1    5.079554311029915E-1   -3.356733860887408E-3   -7.644420883583247E-4   -3.438705116978221E-3   -6.330921755251255E-4   -1.081776173532182E-1    4.303577418479493E-1
 8.197118435300000E9    -1.698082769461073E-1    5.079124644797995E-1   -3.339765013592568E-3   -7.826682111731927E-4   -3.443305332684614E-3   -6.434228800093067E-4   -1.080646719656785E-1    4.304639609719081E-1
 8.197120762000000E9    -1.698015662835046E-1    5.080681616596879E-1   -3.350976705431464E-3   -7.575474262334423E-4   -3.453341566110915E-3   -6.288619511065382E-4   -1.079624366939365E-1    4.304465674713329E-1
 8.197123088700000E9    -1.695859903944489E-1    5.082031605185515E-1   -3.380243618245002E-3   -7.752895319116546E-4   -3.444404986966351E-3   -6.362808516829204E-4   -1.077745908073261E-1    4.306315761560325E-1
 8.197125415400000E9    -1.693428163169442E-1    5.081352460952130E-1   -3.348288722975324E-3   -7.515708144542876E-4   -3.477071376357295E-3   -6.450893288655721E-4   -1.075979490794091E-1    4.305790149866401E-1
 8.197127742100000E9    -1.691533143983814E-1    5.082543632104404E-1   -3.348043088244740E-3   -7.295699713381266E-4   -3.468593152745545E-3   -6.317546573036846E-4   -1.075544247488492E-1    4.304611763274070E-1
 8.197130068800000E9    -1.688122451575035E-1    5.082420603527563E-1   -3.372992836104816E-3   -7.483305353326018E-4   -3.474379452893777E-3   -6.422983987489581E-4   -1.074362845450279E-1    4.305968507829465E-1
 8.197132395500000E9    -1.687290655851015E-1    5.082397375080483E-1   -3.404325287544049E-3   -7.398765620136696E-4   -3.450765087623557E-3   -6.383959563005525E-4   -1.072944945706904E-1    4.306585769419918E-1
 8.197134722200000E9    -1.686020598443990E-1    5.082441194383626E-1   -3.397448519135399E-3   -7.537030629644846E-4   -3.474113245447434E-3   -6.161903594113092E-4   -1.071449061646008E-1    4.306125991686028E-1
 8.197137048900000E9    -1.682808211391339E-1    5.084135284686212E-1   -3.408285322804730E-3   -7.582308823017118E-4   -3.511400617911975E-3   -6.213742805151779E-4   -1.070771761571840E-1    4.306349188532734E-1
 8.197139375600000E9    -1.681276641385420E-1    5.084979946408225E-1   -3.401609016902553E-3   -7.635411740443967E-4   -3.505157810193265E-3   -6.408546736206668E-4   -1.068335422836230E-1    4.306340511132774E-1
 8.197141702300000E9    -1.678606193230555E-1    5.085285894386389E-1   -3.416812468988860E-3   -7.779973054185986E-4   -3.495509321807356E-3   -6.320190276285656E-4   -1.068378310762348E-1    4.306197905194198E-1
 8.197144029000000E9    -1.676512566518878E-1    5.084752493337057E-1   -3.409131601405458E-3   -7.411338618517214E-4   -3.546012812156435E-3   -6.046393470971840E-4   -1.067229700094383E-1    4.307597776234383E-1
 8.197146355700000E9    -1.675389499677273E-1    5.084976328246074E-1   -3.430503841281908E-3   -7.578722645166695E-4   -3.545726245125540E-3   -6.413005728465152E-4   -1.065299399602381E-1    4.308216704639358E-1
 8.197148682400000E9    -1.673794984698680E-1    5.086835836012936E-1   -3.427735866729888E-3   -7.734320678038177E-4   -3.514807044833776E-3   -6.518824121828122E-4   -1.062790039926636E-1    4.308443828985699E-1
 8.197151009100000E9    -1.671294069269162E-1    5.087724314636902E-1   -3.458162750424088E-3   -7.471950705700248E-4   -3.538984168119155E-3   -6.213620299276778E-4   -1.063738546558608E-1    4.309067488960480E-1
 8.197153335800000E9    -1.669074488084742E-1    5.086739545446112E-1   -3.483786517277174E-3   -7.321897909660643E-4   -3.538090249655847E-3   -6.178235412556554E-4   -1.061628684041040E-1    4.309025766688964E-1
 8.197155662500000E9    -1.666391511949138E-1    5.088642288233504E-1   -3.423046858455522E-3   -7.461712710776026E-4   -3.543660573317086E-3   -6.261853843179377E-4   -1.059498210718686E-1    4.309444262593592E-1
 8.197157989200000E9    -1.664636086285615E-1    5.088888748778835E-1   -3.446991064140520E-3   -7.561074387840379E-4   -3.549470152085898E-3   -6.314271120787085E-4   -1.059639630323533E-1    4.308565472058973E-1
 8.197160315900000E9    -1.663155786242403E-1    5.088500008737320E-1   -3.473529796910054E-3   -7.310763976394684E-4   -3.564768021002133E-3   -6.155153956263911E-4   -1.058765586975287E-1    4.309791531282383E-1
 8.197162642600000E9    -1.661446279462804E-1    5.089944554549812E-1   -3.481778619081950E-3   -7.662747683616553E-4   -3.591547433508697E-3   -5.957722459006714E-4   -1.057482477124852E-1    4.310123084071058E-1
 8.197164969300000E9    -1.658889084488519E-1    5.089668501331760E-1   -3.502846122867330E-3   -7.529570921910425E-4   -3.578347632301678E-3   -5.997577303973839E-4   -1.055660016448046E-1    4.309793168906179E-1
 8.197167296000000E9    -1.656808347893967E-1    5.089660657312431E-1   -3.511187616485416E-3   -7.250105697704151E-4   -3.573815119359976E-3   -6.019178230668972E-4   -1.052749043274351E-1    4.308606213315561E-1
 8.197169622700000E9    -1.654889796220396E-1    5.090645254926441E-1   -3.518834789190856E-3   -7.453485455177828E-4   -3.595681531525848E-3   -6.063387306361523E-4   -1.053324613406344E-1    4.310369218450776E-1
 8.197171949400000E9    -1.653501265292336E-1    5.091390470694156E-1   -3.513136099964734E-3   -7.461954677008594E-4   -3.628361703959147E-3   -6.004417882591913E-4   -1.050629836557141E-1    4.311270661486293E-1
 8.197174276100000E9    -1.650714455596480E-1    5.091492451622668E-1   -3.509302085943301E-3   -7.328559395315509E-4   -3.635836583185757E-3   -6.158031546653507E-4   -1.050494855128632E-1    4.311290111822773E-1
 8.197176602800000E9    -1.648808807596383E-1    5.092494733501959E-1   -3.516067914296719E-3   -7.196479369856871E-4   -3.634720052006756E-3   -5.751321293201405E-4   -1.048469175280368E-1    4.310084322646592E-1
 8.197178929500000E9    -1.646635227232670E-1    5.092817393615658E-1   -3.534802774647659E-3   -7.353706056016928E-4   -3.656424205133568E-3   -6.251152619779933E-4   -1.046290784929284E-1    4.312468036125705E-1
 8.197181256200000E9    -1.644865687226760E-1    5.093450022758558E-1   -3.550165757795026E-3   -7.241386679357619E-4   -3.668048266608746E-3   -5.703493926049795E-4   -1.045985790240294E-1    4.311113302590283E-1
 8.197183582900000E9    -1.642377951301454E-1    5.093750324064432E-1   -3.585252204637899E-3   -7.437758685855236E-4   -3.676622490835937E-3   -6.027402854537987E-4   -1.046189816355611E-1    4.312146780364795E-1
 8.197185909600000E9    -1.640243007897847E-1    5.094704543088656E-1   -3.533295083463114E-3   -7.564953880056117E-4   -3.685871651052288E-3   -6.028981294129661E-4   -1.042486152773672E-1    4.311559563021745E-1
 8.197188236300000E9    -1.638647440993288E-1    5.094882433468449E-1   -3.577867895550868E-3   -7.184020891454294E-4   -3.695048152837492E-3   -5.758203181121275E-4   -1.040693699937956E-1    4.311907365170235E-1
 8.197190563000000E9    -1.636522184495822E-1    5.095228920413869E-1   -3.602901664144147E-3   -7.544766642653744E-4   -3.671823437595967E-3   -5.999647839938867E-4   -1.040616413835766E-1    4.313788861254623E-1
