#  HZ   S   RI   R     50.00 
! Rohde & Schwarz Vector Network Analyzer 
! Rohde-Schwarz,ZNB20-2Port,1311601062101988,3.16
! Created: UTC 3/20/2024, 4:56:24 PM
! freq[Hz]                re:S11                  im:S11                  re:S21                  im:S21                  re:S12                  im:S12                  re:S22                  im:S22
 8.185925882000000E9    -5.298625123710186E-1   -1.165360955914916E-1    2.685316566066254E-4   -2.303047571984000E-3    2.183688361777436E-4   -2.433618761346585E-3   -4.588086233898408E-1   -2.758999756642226E-2
 8.185977351600000E9    -5.306836198832519E-1   -1.128994546422115E-1    2.249135657557597E-4   -2.282852350539278E-3    2.091650840097555E-4   -2.410272117953014E-3   -4.589157256012713E-1   -2.475952019238592E-2
 8.186028821200000E9    -5.313186504699939E-1   -1.092413650322766E-1    2.294028329576178E-4   -2.323256458538157E-3    1.757825129382684E-4   -2.376580636526325E-3   -4.589129342695693E-1   -2.176507507797289E-2
 8.186080290800000E9    -5.320282346271860E-1   -1.058220099979559E-1    2.233156733965146E-4   -2.289955489678962E-3    1.795562852451073E-4   -2.408311074231124E-3   -4.589433948878280E-1   -1.889199873037252E-2
 8.186131760400000E9    -5.327075223758537E-1   -1.023924540933005E-1    1.786600420739075E-4   -2.314494213746447E-3    1.726712148698918E-4   -2.393049844757681E-3   -4.590196459248050E-1   -1.603885857633729E-2
 8.186183230000000E9    -5.333293837160122E-1   -9.878919386680096E-2    1.701987620486947E-4   -2.310833588602118E-3    1.362076940429876E-4   -2.397188652154422E-3   -4.591570473029604E-1   -1.340782133458039E-2
 8.186234699600000E9    -5.340659637014327E-1   -9.533879648428058E-2    1.588908192359546E-4   -2.315929328716570E-3    1.314996860221641E-4   -2.378753326012636E-3   -4.591784763216084E-1   -1.040330732799700E-2
 8.186286169200000E9    -5.346652367211051E-1   -9.160300365014661E-2    1.489142072262530E-4   -2.322720679390609E-3    9.730282308735516E-5   -2.374360035306368E-3   -4.590506430628454E-1   -7.594717608106477E-3
 8.186337638800000E9    -5.350851510266249E-1   -8.813040833392921E-2    1.392085866250935E-4   -2.282281610355905E-3    1.148980291847968E-4   -2.378606076737387E-3   -4.590476008125558E-1   -4.664819218575244E-3
 8.186389108400000E9    -5.356685173445516E-1   -8.457509198995197E-2    1.051464165239269E-4   -2.323802669327600E-3    1.030135228938841E-4   -2.399577819543221E-3   -4.590934204748741E-1   -1.841012041111423E-3
 8.186440578000000E9    -5.362185445597155E-1   -8.111415030167074E-2    1.044109156813634E-4   -2.315709672335269E-3    7.420001412729822E-5   -2.427895528802508E-3   -4.589679501889012E-1    9.585958074142284E-4
 8.186492047600000E9    -5.366856029136770E-1   -7.745964359475335E-2    8.710536602423910E-5   -2.330614232295239E-3    2.988075133315863E-5   -2.393602294438664E-3   -4.591248834217190E-1    3.782968873761694E-3
 8.186543517200000E9    -5.373029462195072E-1   -7.386243478927805E-2    6.093578971658034E-5   -2.314284243779005E-3    8.656812536620787E-6   -2.394435323300075E-3   -4.588764348176161E-1    6.754167262906980E-3
 8.186594986800000E9    -5.376502355216894E-1   -7.028863390108521E-2    7.109793335850194E-5   -2.317707247986655E-3   -8.846721346756021E-6   -2.356105983023942E-3   -4.587265603818999E-1    9.511532711538489E-3
 8.186646456400000E9    -5.381653245068724E-1   -6.669670075086853E-2    7.663160186876788E-5   -2.347190157415865E-3    1.519556054114951E-5   -2.444338118168786E-3   -4.586007787155094E-1    1.243116310049347E-2
 8.186697926000000E9    -5.386377921617820E-1   -6.310112940548009E-2    4.166130209160399E-5   -2.330867056761560E-3   -1.501677504363313E-5   -2.375037023769345E-3   -4.585153153027609E-1    1.535837257869098E-2
 8.186749395600000E9    -5.388778803155956E-1   -5.960507856857478E-2    1.927784717934542E-5   -2.309035598462887E-3   -3.194704867196291E-5   -2.409054430074943E-3   -4.582063580966290E-1    1.813570946163860E-2
 8.186800865200000E9    -5.393108446962183E-1   -5.607547205557998E-2   -4.326907306799461E-7   -2.315208539760680E-3   -4.315526378370505E-5   -2.418902324206279E-3   -4.581302788434563E-1    2.104273083170588E-2
 8.186852334800000E9    -5.396737941249958E-1   -5.233401394778280E-2   -1.633983409113685E-5   -2.315960192903410E-3   -4.841646626445318E-5   -2.435679191217688E-3   -4.580286620163800E-1    2.393263378198170E-2
 8.186903804400000E9    -5.400000259612797E-1   -4.887904244739247E-2   -7.453765255076876E-5   -2.340466864441209E-3   -8.370173678518891E-5   -2.399540737529233E-3   -4.576870791360619E-1    2.680154290927849E-2
 8.186955274000000E9    -5.401131827986011E-1   -4.522741257670740E-2   -3.669932234748881E-5   -2.331965353549414E-3   -9.099830981094613E-5   -2.383586951003473E-3   -4.575318118175205E-1    2.936721515811061E-2
 8.187006743600000E9    -5.406261813311467E-1   -4.174849804162679E-2   -5.748604524716485E-5   -2.327862150031758E-3   -7.114824761833291E-5   -2.397642761008918E-3   -4.574466727141428E-1    3.250685433549770E-2
 8.187058213200000E9    -5.408066273322525E-1   -3.815561639847911E-2   -6.703293151130390E-5   -2.331716021415033E-3   -1.318752008771256E-4   -2.446254220956674E-3   -4.571459912817344E-1    3.516801462657904E-2
 8.187109682800000E9    -5.410280454493082E-1   -3.447252411448958E-2   -9.557562799309204E-5   -2.342111489332833E-3   -1.411414277333914E-4   -2.440367479639981E-3   -4.567356514386722E-1    3.800754639542765E-2
 8.187161152400000E9    -5.411817499353087E-1   -3.100748607006193E-2   -1.057324168548285E-4   -2.331711458278832E-3   -1.177165089105431E-4   -2.379173109209047E-3   -4.564603701636573E-1    4.083207773641937E-2
 8.187212622000000E9    -5.414292987763870E-1   -2.727658509696963E-2   -1.201698245600913E-4   -2.366408493600054E-3   -1.456972569918907E-4   -2.437042591120413E-3   -4.561719641141975E-1    4.354934992078219E-2
 8.187264091600000E9    -5.415771075689826E-1   -2.381584087660661E-2   -1.332621945373801E-4   -2.308768021382814E-3   -1.678914509483299E-4   -2.416753803348904E-3   -4.558832925743337E-1    4.651484516134657E-2
 8.187315561200000E9    -5.417313030895988E-1   -2.007423972089720E-2   -1.377870339362466E-4   -2.341646351625134E-3   -2.152908800624224E-4   -2.435255800858491E-3   -4.554191932083740E-1    4.922392036004043E-2
 8.187367030800000E9    -5.418702251511459E-1   -1.649648953730461E-2   -1.583965055808350E-4   -2.338765105792609E-3   -2.163006225213829E-4   -2.413519229519733E-3   -4.550640837959459E-1    5.232977889222773E-2
 8.187418500400000E9    -5.419165216115568E-1   -1.295685540178521E-2   -1.673613207998826E-4   -2.353856175665913E-3   -2.412380043015733E-4   -2.394484037165492E-3   -4.547629641974972E-1    5.506403420929228E-2
 8.187469970000000E9    -5.419850915239526E-1   -9.257858395098642E-3   -1.661111695984629E-4   -2.334513575927968E-3   -2.272357562311008E-4   -2.430215647973412E-3   -4.544261378275912E-1    5.801416814937024E-2
 8.187521439600000E9    -5.419942025748139E-1   -5.645544873413727E-3   -1.940706783299579E-4   -2.326911064956151E-3   -2.516779532047827E-4   -2.408912359043575E-3   -4.539160448224960E-1    6.074377105368042E-2
 8.187572909200000E9    -5.418817676818245E-1   -2.126238466127820E-3   -2.059329127010772E-4   -2.328985078506181E-3   -2.958412169447438E-4   -2.417238339415543E-3   -4.534850290723291E-1    6.355301573563475E-2
 8.187624378800000E9    -5.420929797451811E-1    1.475296475125847E-3   -2.107712158407033E-4   -2.328289238701070E-3   -3.159431746962663E-4   -2.423048239925292E-3   -4.529003750659217E-1    6.629605949778297E-2
 8.187675848400000E9    -5.419136866393843E-1    5.093520199516846E-3   -2.478508530772197E-4   -2.343920184921560E-3   -3.058091355017578E-4   -2.408337238033144E-3   -4.525493210238317E-1    6.913147340873591E-2
 8.187727318000000E9    -5.419382515884394E-1    8.677026505673225E-3   -2.442479710339671E-4   -2.333773125946435E-3   -3.464579443278855E-4   -2.401029052374237E-3   -4.519437616798835E-1    7.206352279968080E-2
 8.187778787600000E9    -5.417464534184530E-1    1.224529387997159E-2   -2.769420724512721E-4   -2.321770500138483E-3   -3.288217445473476E-4   -2.381901339787521E-3   -4.516179131724376E-1    7.484743928130305E-2
 8.187830257200000E9    -5.416178421917764E-1    1.592196949695971E-2   -3.093266865017465E-4   -2.327386451027979E-3   -3.603346836233896E-4   -2.406884132491498E-3   -4.508938624165331E-1    7.750686567059438E-2
 8.187881726800000E9    -5.414149185129833E-1    1.943455545761922E-2   -3.347230175402810E-4   -2.339836211321419E-3   -3.790218544409199E-4   -2.394020458656589E-3   -4.503226394177788E-1    8.023151546271307E-2
 8.187933196400000E9    -5.412454304218917E-1    2.286033972780218E-2   -3.339165536193051E-4   -2.320384789740839E-3   -3.919162100609931E-4   -2.411761658191437E-3   -4.500028540472849E-1    8.304395577620144E-2
 8.187984666000000E9    -5.411908281710729E-1    2.669887188848062E-2   -3.278880321522999E-4   -2.327072642482354E-3   -3.842257902287578E-4   -2.424868790152430E-3   -4.492650142208646E-1    8.598836728045120E-2
 8.188036135600000E9    -5.408941518050484E-1    3.028952838645582E-2   -3.525196702095893E-4   -2.341741940950039E-3   -4.307069689160956E-4   -2.379583043521267E-3   -4.486845915871163E-1    8.865049131908653E-2
 8.188087605200000E9    -5.406120641375068E-1    3.383673103367459E-2   -3.749761679455070E-4   -2.336163288636898E-3   -4.250371779747527E-4   -2.416802978814325E-3   -4.481160377543311E-1    9.149771040644623E-2
 8.188139074800000E9    -5.404307762263624E-1    3.736605615528176E-2   -4.096126708427213E-4   -2.330044397646548E-3   -4.838400297531414E-4   -2.366016713597726E-3   -4.474218107477678E-1    9.429391090115095E-2
 8.188190544400000E9    -5.402713638497019E-1    4.094434432524267E-2   -3.856036995847461E-4   -2.338810536619622E-3   -4.764427307747687E-4   -2.394512145513636E-3   -4.467809808963229E-1    9.706774356785222E-2
 8.188242014000000E9    -5.398794325164537E-1    4.452409345734837E-2   -4.302775176530805E-4   -2.305388757026006E-3   -4.778376116192192E-4   -2.413869173844278E-3   -4.460507798021991E-1    9.994277608898772E-2
 8.188293483600000E9    -5.394250835803919E-1    4.810558368343743E-2   -4.108281782278282E-4   -2.314582600882229E-3   -5.046311654934403E-4   -2.385115483406821E-3   -4.453648458376545E-1    1.025694800565643E-1
 8.188344953200000E9    -5.391348244380481E-1    5.168595613157176E-2   -4.291173910254416E-4   -2.308168346945615E-3   -5.262081803298806E-4   -2.388235533762629E-3   -4.447662002934832E-1    1.054191636108673E-1
 8.188396422800000E9    -5.387884472213638E-1    5.537594749039140E-2   -4.680397197966778E-4   -2.321494369113340E-3   -5.321879034538570E-4   -2.356258023271246E-3   -4.441475201694283E-1    1.082273855345381E-1
 8.188447892400000E9    -5.384000940122563E-1    5.892212209489359E-2   -4.677265833064423E-4   -2.304697083922197E-3   -5.677380727233877E-4   -2.412535450654221E-3   -4.433715217746976E-1    1.108459688923945E-1
 8.188499362000000E9    -5.380205795188437E-1    6.243074437835684E-2   -5.213090056089619E-4   -2.320052515902804E-3   -5.617820173131604E-4   -2.411422098418339E-3   -4.424386360266988E-1    1.136118349417460E-1
 8.188550831600000E9    -5.374186497923948E-1    6.612766802262796E-2   -5.175908671926263E-4   -2.311631368161033E-3   -5.700256272882787E-4   -2.372951090255609E-3   -4.417827156139409E-1    1.163606688968474E-1
 8.188602301200000E9    -5.370491671062256E-1    6.959086434501935E-2   -5.398162394086846E-4   -2.309439663962668E-3   -5.888296459846226E-4   -2.377358178603218E-3   -4.408592574249878E-1    1.191464685278865E-1
 8.188653770800000E9    -5.366977519518084E-1    7.326736399221195E-2   -5.411295999519728E-4   -2.332066819207050E-3   -6.111121476918655E-4   -2.379607974630682E-3   -4.400670625900632E-1    1.218554001772611E-1
 8.188705240400000E9    -5.360587723056122E-1    7.681489157115964E-2   -5.186988690701490E-4   -2.321016887345903E-3   -6.445249540262919E-4   -2.358982993823555E-3   -4.392628131951014E-1    1.247491590774032E-1
 8.188756710000000E9    -5.355699875808889E-1    8.030928904861923E-2   -5.676574468130612E-4   -2.275221247316250E-3   -6.470281373710336E-4   -2.369339002358027E-3   -4.383348464914535E-1    1.273662387039529E-1
 8.188808179600000E9    -5.349114122138282E-1    8.400135267205078E-2   -5.905566146122244E-4   -2.294511467126929E-3   -6.897844380884638E-4   -2.374688984706318E-3   -4.376334690290501E-1    1.300594770450136E-1
 8.188859649200000E9    -5.342456553283417E-1    8.737800478626680E-2   -5.930157005456604E-4   -2.291960618023048E-3   -6.937900904910619E-4   -2.363875032837538E-3   -4.367443430458622E-1    1.328631332112203E-1
 8.188911118800000E9    -5.337720667823075E-1    9.088718245902534E-2   -6.270544001716867E-4   -2.297868956974669E-3   -6.596466425279724E-4   -2.364284886696847E-3   -4.357772670101359E-1    1.354465380599225E-1
 8.188962588400000E9    -5.331947008073576E-1    9.462120158087277E-2   -6.229130400959553E-4   -2.305227048582964E-3   -7.154401951139025E-4   -2.376442106643214E-3   -4.349820058775851E-1    1.382431584100105E-1
 8.189014058000000E9    -5.325204809234334E-1    9.802618077092663E-2   -6.417128750572891E-4   -2.275119150084003E-3   -7.048591109813294E-4   -2.354101067275175E-3   -4.339758788376460E-1    1.408600873821994E-1
 8.189065527600000E9    -5.316384682936414E-1    1.016810411542752E-1   -6.522736928203961E-4   -2.285221545608424E-3   -7.443630537328165E-4   -2.329489319384337E-3   -4.329959639370930E-1    1.436096317257918E-1
 8.189116997200000E9    -5.310358822254119E-1    1.051823263751040E-1   -6.842991841390163E-4   -2.288506383684220E-3   -7.234506584059505E-4   -2.335308439539064E-3   -4.320544352479390E-1    1.463975429379001E-1
 8.189168466800000E9    -5.302527174034539E-1    1.087465256239080E-1   -6.881045801757365E-4   -2.273736168572116E-3   -7.793657326878768E-4   -2.308582859669868E-3   -4.310729838145222E-1    1.490497579353125E-1
 8.189219936400000E9    -5.294459064004789E-1    1.122485158281692E-1   -7.062730629119681E-4   -2.256072552475966E-3   -7.809416991125255E-4   -2.340994934139402E-3   -4.300509299515599E-1    1.516539279056147E-1
 8.189271406000000E9    -5.287906547079825E-1    1.157021815774611E-1   -7.267884825513066E-4   -2.262411755335971E-3   -7.883203359951732E-4   -2.310213446866028E-3   -4.292146974341657E-1    1.542712372323219E-1
 8.189322875600000E9    -5.281036432334960E-1    1.192947419076460E-1   -7.459496285572642E-4   -2.265311350508230E-3   -8.154507089672942E-4   -2.357884604432845E-3   -4.279538003739232E-1    1.569673349853934E-1
 8.189374345200000E9    -5.271205033663969E-1    1.227818354810112E-1   -7.715962474265212E-4   -2.254272540171898E-3   -8.651303100360355E-4   -2.284661411753661E-3   -4.269143068495236E-1    1.596870301259838E-1
 8.189425814800000E9    -5.262074441434214E-1    1.263257678835086E-1   -7.636207544522185E-4   -2.280453883384062E-3   -8.293109713302799E-4   -2.310199595453054E-3   -4.260182694279636E-1    1.623781886816146E-1
 8.189477284400000E9    -5.253784595908753E-1    1.297153712015258E-1   -7.856676741071128E-4   -2.245050944215014E-3   -8.488544008806816E-4   -2.338473147883562E-3   -4.249954467816719E-1    1.648731569611122E-1
 8.189528754000000E9    -5.245747054257424E-1    1.332550859470907E-1   -7.940784188509135E-4   -2.284373391992783E-3   -9.013755423810774E-4   -2.289690234129054E-3   -4.237317614767923E-1    1.674322353135356E-1
 8.189580223600000E9    -5.235408918319757E-1    1.367030423148926E-1   -8.247276079627508E-4   -2.271343465433999E-3   -9.038123416882989E-4   -2.293577118239159E-3   -4.226635380893181E-1    1.701811169863121E-1
 8.189631693200000E9    -5.226350416645047E-1    1.402702716814985E-1   -7.736141386926584E-4   -2.257427730887971E-3   -9.154408268039169E-4   -2.306328834042665E-3   -4.216638989697479E-1    1.728862690855409E-1
 8.189683162800000E9    -5.216403645425756E-1    1.438067297937377E-1   -8.354462223595494E-4   -2.238940569059720E-3   -9.282291986931977E-4   -2.270323310544372E-3   -4.203114627250008E-1    1.754602497975065E-1
 8.189734632400000E9    -5.206236983845813E-1    1.470571810915000E-1   -8.348847994857169E-4   -2.225715777868361E-3   -9.213585136737494E-4   -2.287036959794440E-3   -4.192648331062564E-1    1.779891701885760E-1
 8.189786102000000E9    -5.196598193835457E-1    1.506139952463350E-1   -8.900417700727989E-4   -2.241284116773865E-3   -9.528786436422080E-4   -2.308002431357741E-3   -4.181856849524148E-1    1.806717436171234E-1
 8.189837571600000E9    -5.187141192943503E-1    1.541618591240820E-1   -8.891976682995821E-4   -2.242733853023998E-3   -9.630162038322414E-4   -2.257461891408287E-3   -4.167993984457581E-1    1.833336381163259E-1
 8.189889041200000E9    -5.176381098981168E-1    1.576392848016050E-1   -9.031408443948495E-4   -2.216972876884909E-3   -1.007791673977795E-3   -2.294471922406873E-3   -4.155933998991503E-1    1.858434568316859E-1
 8.189940510800000E9    -5.163382111102487E-1    1.610308925377310E-1   -8.965057256353645E-4   -2.221731011944174E-3   -9.959328189250356E-4   -2.286985683799493E-3   -4.144466399779097E-1    1.883295776643190E-1
 8.189991980400000E9    -5.154406074473658E-1    1.644871921940762E-1   -9.558753811768954E-4   -2.228797534983081E-3   -1.032120157952550E-3   -2.270315513717883E-3   -4.130807304803059E-1    1.910126332316043E-1
 8.190043450000000E9    -5.141524421006242E-1    1.678498349278753E-1   -9.515817593286254E-4   -2.209416227678823E-3   -1.045020769814631E-3   -2.269314474126932E-3   -4.119176415889700E-1    1.934420250959135E-1
 8.190094919600000E9    -5.132287417167163E-1    1.712867130101176E-1   -9.711180086768939E-4   -2.198182189387045E-3   -1.047527383401477E-3   -2.249740426562783E-3   -4.106660521952208E-1    1.960398021260007E-1
 8.190146389200000E9    -5.119553303753969E-1    1.746879310476991E-1   -9.833539239037605E-4   -2.193305295259898E-3   -1.041377198080150E-3   -2.260591313289531E-3   -4.094388536171130E-1    1.986143424677047E-1
 8.190197858800000E9    -5.107049447713095E-1    1.781129855320798E-1   -9.704236598764861E-4   -2.200141386369495E-3   -1.111130017205521E-3   -2.240093197442255E-3   -4.080810214348263E-1    2.011071839777156E-1
 8.190249328400000E9    -5.095654284944140E-1    1.815235792153359E-1   -9.682794872704791E-4   -2.200110018687447E-3   -1.093410202127973E-3   -2.228934406767778E-3   -4.067438497234510E-1    2.036123360289419E-1
 8.190300798000000E9    -5.083218358506886E-1    1.849236368953635E-1   -1.004390047284497E-3   -2.204032675209520E-3   -1.128055407122286E-3   -2.240858611668356E-3   -4.053528198006377E-1    2.062988108892496E-1
 8.190352267600000E9    -5.070778618895244E-1    1.882825580837946E-1   -1.046391963201809E-3   -2.188249414571863E-3   -1.112246173512799E-3   -2.242719929357853E-3   -4.040307022691623E-1    2.088068944425689E-1
 8.190403737200000E9    -5.057012809078595E-1    1.916435587573839E-1   -1.038422204213608E-3   -2.191976487624690E-3   -1.130993577387137E-3   -2.220785101426493E-3   -4.026845548272259E-1    2.112568846077041E-1
 8.190455206800000E9    -5.043753140851395E-1    1.950428044251726E-1   -1.054418541779017E-3   -2.186670785395178E-3   -1.175576450303299E-3   -2.214167934663750E-3   -4.012234653844756E-1    2.138614321354976E-1
 8.190506676400000E9    -5.030259999506472E-1    1.983720577316491E-1   -1.096668666059603E-3   -2.192301449406877E-3   -1.170805504005050E-3   -2.204688557432984E-3   -3.997919852349448E-1    2.162696094756881E-1
 8.190558146000000E9    -5.017879414722365E-1    2.016943212829828E-1   -1.073206787693392E-3   -2.181473822097333E-3   -1.173360652879455E-3   -2.194276705088250E-3   -3.982827180854204E-1    2.187196791058240E-1
