#  HZ   S   RI   R     50.00 
! Rohde & Schwarz Vector Network Analyzer 
! Rohde-Schwarz,ZNB20-2Port,1311601062101988,3.16
! Created: UTC 3/20/2024, 4:49:16 PM
! freq[Hz]                re:S11                  im:S11                  re:S21                  im:S21                  re:S12                  im:S12                  re:S22                  im:S22
 8.196967108000000E9    -1.815005790539717E-1    5.043600788871712E-1   -3.071344701298100E-3   -8.308658867014866E-4   -3.191575909160121E-3   -7.285473076902652E-4   -1.163439215134541E-1    4.286044117967446E-1
 8.196969494475000E9    -1.814343655922395E-1    5.043862782407501E-1   -3.058344217184865E-3   -8.207270866406169E-4   -3.165344616025751E-3   -6.883337056638314E-4   -1.162944355555311E-1    4.285834256247800E-1
 8.196971880950000E9    -1.814250893489623E-1    5.045113935271694E-1   -3.068362315625356E-3   -7.907001973416337E-4   -3.148050873139655E-3   -7.027168985814378E-4   -1.161360799100437E-1    4.284922445659292E-1
 8.196974267425000E9    -1.811579620149880E-1    5.044845065214120E-1   -3.097072568288331E-3   -7.791041227947942E-4   -3.172021995772678E-3   -6.692953835131081E-4   -1.160542014023487E-1    4.285954487241445E-1
 8.196976653900000E9    -1.809439881682260E-1    5.047102864980653E-1   -3.075082359879060E-3   -7.907275854413857E-4   -3.170154988198290E-3   -6.771017028441788E-4   -1.158654068010859E-1    4.287661797366048E-1
 8.196979040375000E9    -1.808640847407476E-1    5.046334109130916E-1   -3.106177594300783E-3   -7.933457430928320E-4   -3.197958462660362E-3   -6.730699185565440E-4   -1.158490778340911E-1    4.287099556938976E-1
 8.196981426850000E9    -1.806313104175991E-1    5.046811655792818E-1   -3.090979504807331E-3   -7.963968924300994E-4   -3.181828837960626E-3   -6.907554020419697E-4   -1.156237291736444E-1    4.287581926575545E-1
 8.196983813325000E9    -1.803552797805290E-1    5.048564582973587E-1   -3.084937940457225E-3   -8.112511391958457E-4   -3.206105859864848E-3   -6.937065668232272E-4   -1.155188314796833E-1    4.287756448518613E-1
 8.196986199800000E9    -1.801532213728901E-1    5.049134929766673E-1   -3.102504559001300E-3   -7.686085196428146E-4   -3.188679082893501E-3   -6.845237179828367E-4   -1.152945067352550E-1    4.287048016358946E-1
 8.196988586275000E9    -1.800578025094722E-1    5.048593916982107E-1   -3.093528348530631E-3   -7.904325396032050E-4   -3.176190619101375E-3   -6.724061854550147E-4   -1.151673850807578E-1    4.288120566692808E-1
 8.196990972750000E9    -1.798288388712617E-1    5.049850951127419E-1   -3.098359826087331E-3   -7.985224988291829E-4   -3.215805304462667E-3   -7.018204977471330E-4   -1.151690822138446E-1    4.287902087673579E-1
 8.196993359225000E9    -1.796603613239605E-1    5.050039159674380E-1   -3.094871010006287E-3   -8.097586794175322E-4   -3.175275191560787E-3   -6.856798642424839E-4   -1.149505371531380E-1    4.289747620862685E-1
 8.196995745700000E9    -1.794571852694452E-1    5.051287846075158E-1   -3.115120976426899E-3   -8.022359678832447E-4   -3.181878028654629E-3   -7.300457270680343E-4   -1.148837762794682E-1    4.288489033058506E-1
 8.196998132175000E9    -1.792773194856566E-1    5.051338467422037E-1   -3.093119700381368E-3   -8.059037344122214E-4   -3.205319459498084E-3   -7.059042609773992E-4   -1.147568855158371E-1    4.288512770237451E-1
 8.197000518650000E9    -1.791988186994054E-1    5.052338688588949E-1   -3.130041891889503E-3   -8.051002871742795E-4   -3.204308441820220E-3   -6.840739233510685E-4   -1.144505677876595E-1    4.287812364274570E-1
 8.197002905125000E9    -1.790578034914972E-1    5.052071614676155E-1   -3.083306212593116E-3   -7.769115310169627E-4   -3.212281024276899E-3   -6.755357652124989E-4   -1.145393189897767E-1    4.290890265249518E-1
 8.197005291600000E9    -1.788389231964045E-1    5.052997965816870E-1   -3.110695179492695E-3   -8.023770146932392E-4   -3.220117398435440E-3   -6.963189354611582E-4   -1.144207840993249E-1    4.290403612985733E-1
 8.197007678075000E9    -1.785751216864376E-1    5.054121108768255E-1   -3.115799924717587E-3   -8.179216283379599E-4   -3.211477435744705E-3   -6.448047685194215E-4   -1.141976001899935E-1    4.290676947849592E-1
 8.197010064550000E9    -1.784565798357032E-1    5.054424092952883E-1   -3.147981434450387E-3   -7.994235168637813E-4   -3.196469787933134E-3   -6.846281456879685E-4   -1.140875931854933E-1    4.289907803309059E-1
 8.197012451025000E9    -1.782221537697554E-1    5.055385419305773E-1   -3.132261598108437E-3   -7.968011101626192E-4   -3.230575455714970E-3   -6.772149118125813E-4   -1.139320343654307E-1    4.290977104523616E-1
 8.197014837500000E9    -1.780518923299265E-1    5.054356081118402E-1   -3.150900943237053E-3   -8.063586785059927E-4   -3.231741769952322E-3   -6.667238720261063E-4   -1.138534225045552E-1    4.292155929094956E-1
 8.197017223975000E9    -1.779094403464670E-1    5.056307256062413E-1   -3.137941107137973E-3   -7.915696892842430E-4   -3.228782552584586E-3   -7.027561737864722E-4   -1.135059917773556E-1    4.293247456969244E-1
 8.197019610450000E9    -1.776347373192330E-1    5.056397834075774E-1   -3.132027026501746E-3   -8.007780768130967E-4   -3.233134487872421E-3   -6.797457266999026E-4   -1.136272336936164E-1    4.292174777505144E-1
 8.197021996925000E9    -1.774946684399951E-1    5.056676322449846E-1   -3.152824573951698E-3   -7.891550965670588E-4   -3.280973494588415E-3   -7.181437724591890E-4   -1.133519343740268E-1    4.294538017693844E-1
 8.197024383400000E9    -1.772591643921965E-1    5.057334983368096E-1   -3.131254020883799E-3   -8.222169532829798E-4   -3.261798294810836E-3   -6.677339494216196E-4   -1.132765589072100E-1    4.293798269020169E-1
 8.197026769875000E9    -1.770302826017991E-1    5.057314155527782E-1   -3.158369023436735E-3   -8.257941797964936E-4   -3.263537540168979E-3   -6.675504459412766E-4   -1.131153223264916E-1    4.293957680496872E-1
 8.197029156350000E9    -1.768348892168975E-1    5.058900422123100E-1   -3.197209461973910E-3   -7.776559186970895E-4   -3.251787780872596E-3   -6.934297297534976E-4   -1.129966147565558E-1    4.292169358193970E-1
 8.197031542825000E9    -1.766910495433520E-1    5.059374712327088E-1   -3.168574518300126E-3   -7.918637138363078E-4   -3.285672542978769E-3   -6.753898760079967E-4   -1.129079492035390E-1    4.294168864863166E-1
 8.197033929300000E9    -1.765202798117075E-1    5.059842355925768E-1   -3.161066332414799E-3   -7.916880195722311E-4   -3.248699502747492E-3   -6.784925957279627E-4   -1.128127757918449E-1    4.293601513033012E-1
 8.197036315775000E9    -1.763715359012176E-1    5.060802482090789E-1   -3.181452116407159E-3   -8.057174199950373E-4   -3.257307889666654E-3   -6.737044681275150E-4   -1.126243563829417E-1    4.294836156690956E-1
 8.197038702250000E9    -1.762512841180610E-1    5.060697040626003E-1   -3.206630127607276E-3   -7.793382088927201E-4   -3.274949366409888E-3   -6.689918378146047E-4   -1.124549610969861E-1    4.295522897548419E-1
 8.197041088725000E9    -1.760145216703138E-1    5.062662063097177E-1   -3.183282562754566E-3   -7.934797572527424E-4   -3.282830056708135E-3   -6.991404019884084E-4   -1.122883714708200E-1    4.294852176398347E-1
 8.197043475200000E9    -1.757220690533750E-1    5.062978219759569E-1   -3.177191505267318E-3   -7.863829207622796E-4   -3.285592569646730E-3   -6.545819957179823E-4   -1.121431693348476E-1    4.297058460748401E-1
 8.197045861675000E9    -1.756285908648527E-1    5.063491530960464E-1   -3.185842973729917E-3   -7.791962474292441E-4   -3.279356521669431E-3   -6.640943673370396E-4   -1.120393513422114E-1    4.294779072676802E-1
 8.197048248150000E9    -1.754534340506560E-1    5.063915026309553E-1   -3.211915599528539E-3   -8.060851066372735E-4   -3.319477991730893E-3   -6.413979814110447E-4   -1.119599174100311E-1    4.294987691406942E-1
 8.197050634625000E9    -1.752284206195006E-1    5.065082927879181E-1   -3.214961731865202E-3   -8.022871377200281E-4   -3.284019597061596E-3   -6.359399308276086E-4   -1.117976745228274E-1    4.295726686698771E-1
 8.197053021100000E9    -1.750699895122756E-1    5.064032266152523E-1   -3.196369813448906E-3   -7.940080430327294E-4   -3.309234772476650E-3   -6.606797219096507E-4   -1.117029912150499E-1    4.294988023772118E-1
 8.197055407575000E9    -1.748867425525793E-1    5.064600646845814E-1   -3.230986380218300E-3   -7.757091340574352E-4   -3.297960116709318E-3   -6.496069492530663E-4   -1.115916626084278E-1    4.297003079201944E-1
 8.197057794050000E9    -1.746164328261132E-1    5.065983944455574E-1   -3.215818938458235E-3   -7.743171666558041E-4   -3.302998666624223E-3   -6.667617399109746E-4   -1.114963825985977E-1    4.297352925662101E-1
 8.197060180525000E9    -1.745517925335009E-1    5.065494498474339E-1   -3.213355128657651E-3   -7.514072042546140E-4   -3.312285876422336E-3   -6.477612364821874E-4   -1.114211781217220E-1    4.297325485127504E-1
 8.197062567000000E9    -1.743058875642480E-1    5.065933604710816E-1   -3.226168349963915E-3   -7.609155772822133E-4   -3.320605062989708E-3   -6.879648582916650E-4   -1.111737970173599E-1    4.298754156439178E-1
 8.197064953475000E9    -1.739984545293038E-1    5.067831625866016E-1   -3.230671555613167E-3   -8.066064391052364E-4   -3.318547467289440E-3   -6.613368774155646E-4   -1.111332694249404E-1    4.298696447505155E-1
 8.197067339950000E9    -1.739604005188745E-1    5.067515630795866E-1   -3.237589537498441E-3   -7.980437493015311E-4   -3.318139441740131E-3   -6.645310317444631E-4   -1.109602557380536E-1    4.297603015741662E-1
 8.197069726425000E9    -1.737516704881902E-1    5.068409353019189E-1   -3.223681872962942E-3   -7.711254083245404E-4   -3.349271779106216E-3   -6.604884090469261E-4   -1.107938856779024E-1    4.298689820153838E-1
 8.197072112900000E9    -1.736470525639681E-1    5.069295848186944E-1   -3.245386594399108E-3   -8.024102057257627E-4   -3.342503001343462E-3   -6.522443369321038E-4   -1.106772901363447E-1    4.298172403512759E-1
 8.197074499375000E9    -1.733063095907538E-1    5.069582378710392E-1   -3.240706468507958E-3   -7.807560247797844E-4   -3.338115085825872E-3   -6.568219785079366E-4   -1.103846040091552E-1    4.299633829984955E-1
 8.197076885850000E9    -1.731469784039714E-1    5.069380900117011E-1   -3.252894425301685E-3   -7.717337849119475E-4   -3.359137818997466E-3   -6.678475023072815E-4   -1.103169298831384E-1    4.298862846215166E-1
 8.197079272325000E9    -1.729818335676261E-1    5.071257587023758E-1   -3.256394619526632E-3   -7.804355768893197E-4   -3.339188015238539E-3   -6.989319900587365E-4   -1.102425451807046E-1    4.297997314817395E-1
 8.197081658800000E9    -1.727100879497903E-1    5.071609150403679E-1   -3.265648957053459E-3   -7.610652206170534E-4   -3.353417563817561E-3   -6.538919254830569E-4   -1.100450806571195E-1    4.299984586135487E-1
 8.197084045275000E9    -1.725582776078402E-1    5.071441717750858E-1   -3.274632913830137E-3   -7.754750099206213E-4   -3.350090025101270E-3   -6.182607322911943E-4   -1.098489272840639E-1    4.300132788892887E-1
 8.197086431750000E9    -1.725621671086941E-1    5.071268388379550E-1   -3.270761419936739E-3   -7.481007097563031E-4   -3.334016181945400E-3   -6.750003530589430E-4   -1.098023193798131E-1    4.301180165287452E-1
 8.197088818225000E9    -1.722688807317876E-1    5.072653750668841E-1   -3.279759104331867E-3   -7.597430972354649E-4   -3.368773045228510E-3   -6.421636026709728E-4   -1.096491305911114E-1    4.301565678496177E-1
 8.197091204700000E9    -1.721311822056416E-1    5.074060779867001E-1   -3.284212845108526E-3   -7.730354862048828E-4   -3.359506691876140E-3   -6.515770951639206E-4   -1.096203984027554E-1    4.301283606025202E-1
 8.197093591175000E9    -1.718582897051614E-1    5.073344282300741E-1   -3.277252516279425E-3   -7.493944964252705E-4   -3.389674558604580E-3   -6.639544827980816E-4   -1.094864291500883E-1    4.302708653261592E-1
 8.197095977650000E9    -1.716894413771760E-1    5.074374614270465E-1   -3.321670940555293E-3   -7.813792056829876E-4   -3.385208205960265E-3   -6.410530242811707E-4   -1.092646364258784E-1    4.302130211692216E-1
 8.197098364125000E9    -1.713896375159767E-1    5.074590776746472E-1   -3.287467901608118E-3   -7.733100767954273E-4   -3.376611336425110E-3   -6.295106402547141E-4   -1.092191077694038E-1    4.302499239632593E-1
 8.197100750600000E9    -1.712603834381127E-1    5.076035876370801E-1   -3.306416210526906E-3   -7.783940327927672E-4   -3.418747573866573E-3   -6.311853951169737E-4   -1.090751362704562E-1    4.303307931597748E-1
 8.197103137075000E9    -1.711768831347820E-1    5.076555150435308E-1   -3.305236454416193E-3   -7.691847555301449E-4   -3.412200129713030E-3   -6.405867937175450E-4   -1.089669295429258E-1    4.302824305742329E-1
 8.197105523550000E9    -1.709559035280596E-1    5.076638813649911E-1   -3.339816341325080E-3   -7.583729747722763E-4   -3.418523850938254E-3   -6.517240191975013E-4   -1.088441396646412E-1    4.302887070140269E-1
 8.197107910025000E9    -1.707346562826654E-1    5.076620117706245E-1   -3.329736073012443E-3   -7.485236977414307E-4   -3.441072439062288E-3   -6.829859132294916E-4   -1.086294313807144E-1    4.303932179656071E-1
 8.197110296500000E9    -1.705062313513287E-1    5.077692120319240E-1   -3.324376321915648E-3   -7.497292719047715E-4   -3.419271895756488E-3   -6.408649830233859E-4   -1.085252690372800E-1    4.302786535197350E-1
 8.197112682975000E9    -1.702061777760356E-1    5.077513787122231E-1   -3.335489638676477E-3   -7.604236864538857E-4   -3.447677326702591E-3   -6.201231276261571E-4   -1.084335286939952E-1    4.303895240429059E-1
 8.197115069450000E9    -1.701535317794609E-1    5.077659430378686E-1   -3.347359034295510E-3   -7.536086223572063E-4   -3.434127027454397E-3   -6.338590558830111E-4   -1.083743431069044E-1    4.303884427424239E-1
 8.197117455925000E9    -1.699516706140543E-1    5.079620282787366E-1   -3.352739867132344E-3   -7.544265577186900E-4   -3.472979583046312E-3   -6.614155778944491E-4   -1.081086672629056E-1    4.303999082891148E-1
 8.197119842400000E9    -1.696533828939814E-1    5.079729941805127E-1   -3.363416051126014E-3   -7.711168402648476E-4   -3.431708093195361E-3   -6.531867314878107E-4   -1.080334211973442E-1    4.304954551225920E-1
 8.197122228875000E9    -1.693335875826270E-1    5.079692144081349E-1   -3.366436611954567E-3   -7.535480631782929E-4   -3.460733185171311E-3   -6.215148883581039E-4   -1.079967652280329E-1    4.305440134987636E-1
 8.197124615350000E9    -1.692744917396615E-1    5.081816162544602E-1   -3.361308037859584E-3   -7.679749300879041E-4   -3.466949079994132E-3   -6.591958425644407E-4   -1.079125091321127E-1    4.304868105938290E-1
 8.197127001825000E9    -1.690804911277260E-1    5.082194238348514E-1   -3.388101402461815E-3   -7.573305966396901E-4   -3.491230204976198E-3   -6.521324111874109E-4   -1.076181264644972E-1    4.305799999588234E-1
 8.197129388300000E9    -1.688680542792606E-1    5.081713866789678E-1   -3.365386679774297E-3   -7.755548672124081E-4   -3.443764652250953E-3   -6.282362741204474E-4   -1.075493915287162E-1    4.306009685411367E-1
 8.197131774775000E9    -1.687341203928374E-1    5.082798137894848E-1   -3.370877183118552E-3   -7.623023636149546E-4   -3.484206567905419E-3   -6.281866971537096E-4   -1.073489151145474E-1    4.306347964809569E-1
 8.197134161250000E9    -1.684738838318261E-1    5.081927936130218E-1   -3.377772863074128E-3   -7.408379563737889E-4   -3.494157193425924E-3   -6.260099235839206E-4   -1.070637042744527E-1    4.306810086797293E-1
 8.197136547725000E9    -1.683801301731584E-1    5.083416873744515E-1   -3.418062427632156E-3   -7.662487942027171E-4   -3.515728959431885E-3   -6.171504663520944E-4   -1.070414882955020E-1    4.305689217614826E-1
 8.197138934200000E9    -1.681249791709805E-1    5.083315029314334E-1   -3.415438773492637E-3   -7.743258371908382E-4   -3.494778259428016E-3   -6.025556501055699E-4   -1.069523340719868E-1    4.307248306414104E-1
 8.197141320675000E9    -1.679064390381678E-1    5.085202373278616E-1   -3.403904274874752E-3   -7.452256062539138E-4   -3.536273885727798E-3   -6.343502537902896E-4   -1.068989503574608E-1    4.307094102218823E-1
 8.197143707150000E9    -1.677375878799920E-1    5.085490509710546E-1   -3.393888010522967E-3   -7.482716368221537E-4   -3.529176028055637E-3   -6.306805542503164E-4   -1.067457706517242E-1    4.309022245587397E-1
 8.197146093625000E9    -1.676826250467944E-1    5.085143379437708E-1   -3.445894181822296E-3   -7.522459738978563E-4   -3.505279567914582E-3   -6.222237728758066E-4   -1.066196898324787E-1    4.307334206767061E-1
 8.197148480100000E9    -1.673331457093610E-1    5.086111974204437E-1   -3.455497943334608E-3   -7.806967994789789E-4   -3.557953136415177E-3   -6.113929773755308E-4   -1.065401204108677E-1    4.306175454913490E-1
 8.197150866575000E9    -1.671753630865640E-1    5.086292177265265E-1   -3.447922279856331E-3   -7.531434304879919E-4   -3.540527731380627E-3   -6.179279740431805E-4   -1.062679314112239E-1    4.307493581991042E-1
 8.197153253050000E9    -1.668680995942361E-1    5.087148781849971E-1   -3.448108753556966E-3   -7.464772652406537E-4   -3.562245731192788E-3   -6.407053206752811E-4   -1.062347027489658E-1    4.308850804697886E-1
 8.197155639525000E9    -1.667783073974553E-1    5.087237630375822E-1   -3.459947232486872E-3   -7.395899214518091E-4   -3.550203088961861E-3   -5.724161845051013E-4   -1.060305901117778E-1    4.308283231634491E-1
 8.197158026000000E9    -1.665255953734097E-1    5.087647460675540E-1   -3.486594679878426E-3   -7.428619609934729E-4   -3.580505103987532E-3   -6.048209196021941E-4   -1.059685797792711E-1    4.308334661040404E-1
 8.197160412475000E9    -1.662449217349260E-1    5.088647730990294E-1   -3.481537368633358E-3   -7.318699200590602E-4   -3.546879539272711E-3   -5.902497247718895E-4   -1.058249841677774E-1    4.308249451686356E-1
 8.197162798950000E9    -1.661062480116391E-1    5.090108958997561E-1   -3.483325340835608E-3   -7.441848063292812E-4   -3.588864532440254E-3   -6.446458471024417E-4   -1.056975121948484E-1    4.308755001145659E-1
 8.197165185425000E9    -1.657353234846201E-1    5.090015453906156E-1   -3.475071936705439E-3   -7.407198602396225E-4   -3.623600224094075E-3   -6.380480537223475E-4   -1.054557926780075E-1    4.309848178865406E-1
 8.197167571900000E9    -1.656100861073143E-1    5.091469419325274E-1   -3.491932137709719E-3   -7.899087737062207E-4   -3.606580871111239E-3   -5.950208030807081E-4   -1.054078180968276E-1    4.310478611002311E-1
 8.197169958375000E9    -1.655484312494498E-1    5.090932004361022E-1   -3.483556592359111E-3   -7.475743048318976E-4   -3.595952299168167E-3   -5.751146947492961E-4   -1.052541837341372E-1    4.311503018752019E-1
 8.197172344850000E9    -1.651887533919599E-1    5.091217572888390E-1   -3.528131092437531E-3   -7.217186182284639E-4   -3.630209780808382E-3   -5.791011464073393E-4   -1.052589625502726E-1    4.310786362205655E-1
 8.197174731325000E9    -1.649610603418405E-1    5.091869832470394E-1   -3.542637649796691E-3   -7.316978845124656E-4   -3.669525812706076E-3   -5.863941257444470E-4   -1.050376935216088E-1    4.310152556435286E-1
 8.197177117800000E9    -1.647650560986431E-1    5.091781642106420E-1   -3.537747454990098E-3   -7.257309781574271E-4   -3.638457022799251E-3   -5.924551894108401E-4   -1.047512851688640E-1    4.311416513132286E-1
 8.197179504275000E9    -1.646395046590712E-1    5.092462630047375E-1   -3.554475943922217E-3   -7.192700569009739E-4   -3.636007424543881E-3   -6.151874821638710E-4   -1.046248904150666E-1    4.312950118928932E-1
 8.197181890750000E9    -1.642716938236819E-1    5.093504758246836E-1   -3.554011088081313E-3   -7.427023852828898E-4   -3.656143002947538E-3   -5.678155929736257E-4   -1.044210272262857E-1    4.311963974277926E-1
