#  HZ   S   RI   R     50.00 
! Rohde & Schwarz Vector Network Analyzer 
! Rohde-Schwarz,ZNB20-2Port,1311601062101988,3.16
! Created: UTC 3/20/2024, 5:11:50 PM
! freq[Hz]                re:S11                  im:S11                  re:S21                  im:S21                  re:S12                  im:S12                  re:S22                  im:S22
 8.194895740000000E9    -3.145975179171134E-1    4.362183773011947E-1   -2.245113323657972E-3   -1.346362411682669E-3   -2.361284734104933E-3   -1.316517095609489E-3   -2.285216025556931E-1    3.874986876796276E-1
 8.194907415650000E9    -3.140194634877831E-1    4.368381929187270E-1   -2.264642521141952E-3   -1.369963524923294E-3   -2.319054578047270E-3   -1.308348253672912E-3   -2.280422659581169E-1    3.876421472266133E-1
 8.194919091300000E9    -3.133729379045867E-1    4.373080234208824E-1   -2.258782573099399E-3   -1.352668599607956E-3   -2.358966013277035E-3   -1.326304051650180E-3   -2.274597834864698E-1    3.879773510912836E-1
 8.194930766950000E9    -3.127052871796932E-1    4.376677557794600E-1   -2.263170953196465E-3   -1.337726312947134E-3   -2.319134067431943E-3   -1.304348907996543E-3   -2.269443562142721E-1    3.883617915923387E-1
 8.194942442600000E9    -3.119427172639080E-1    4.382157532357734E-1   -2.231833015674427E-3   -1.341534193219331E-3   -2.350377298097703E-3   -1.292533087951311E-3   -2.263018449536022E-1    3.886770794025248E-1
 8.194954118250000E9    -3.111947047665737E-1    4.387454489726348E-1   -2.238345684193302E-3   -1.351292182372848E-3   -2.340119427223989E-3   -1.281943197533914E-3   -2.257351269139139E-1    3.888542449658567E-1
 8.194965793900000E9    -3.105919090637509E-1    4.391244235781114E-1   -2.266843740320322E-3   -1.335980668426951E-3   -2.344445485740562E-3   -1.299970024845113E-3   -2.251485548634256E-1    3.893860519542642E-1
 8.194977469550000E9    -3.098513842610802E-1    4.396817209011398E-1   -2.242911277820054E-3   -1.314984731633916E-3   -2.372138020241967E-3   -1.276855478099187E-3   -2.244746991586809E-1    3.895752013519342E-1
 8.194989145200000E9    -3.092496368602414E-1    4.400660105363430E-1   -2.244463801786466E-3   -1.328704219266692E-3   -2.352268893926981E-3   -1.301054361909007E-3   -2.239802550336453E-1    3.898156875358801E-1
 8.195000820850000E9    -3.085124194701154E-1    4.405702982345038E-1   -2.248513605776966E-3   -1.344528623378345E-3   -2.355459868096012E-3   -1.318335795316345E-3   -2.233964446365971E-1    3.901836743756050E-1
 8.195012496500000E9    -3.079274792159585E-1    4.410919281790039E-1   -2.289385124967648E-3   -1.321618281156282E-3   -2.362364920349966E-3   -1.275801651398502E-3   -2.229589549770274E-1    3.905292702732280E-1
 8.195024172150000E9    -3.071930161746195E-1    4.414946963738151E-1   -2.278465923346215E-3   -1.325153180805521E-3   -2.372906657169826E-3   -1.312245263053426E-3   -2.222729077053086E-1    3.907778249190494E-1
 8.195035847800000E9    -3.064832752710455E-1    4.419338843420813E-1   -2.268717865519064E-3   -1.327207484662711E-3   -2.370539822152558E-3   -1.276682198402515E-3   -2.216813635939976E-1    3.911634714041844E-1
 8.195047523450000E9    -3.057285443087445E-1    4.425083469050679E-1   -2.267729659886014E-3   -1.300008652719588E-3   -2.342159109257120E-3   -1.278999843212503E-3   -2.211060217688651E-1    3.913571378994656E-1
 8.195059199100000E9    -3.050850237499741E-1    4.429447856187852E-1   -2.264108554403805E-3   -1.322158225085139E-3   -2.373223753787495E-3   -1.241803478358208E-3   -2.205483375293232E-1    3.917592670873918E-1
 8.195070874750000E9    -3.044357770998404E-1    4.433775380142242E-1   -2.272716519851775E-3   -1.303677305558092E-3   -2.369952123142097E-3   -1.235899694102376E-3   -2.200143377166014E-1    3.920576131824672E-1
 8.195082550400000E9    -3.038767924559518E-1    4.438080771945018E-1   -2.280980729835132E-3   -1.293671401044105E-3   -2.387310148844557E-3   -1.242478546052240E-3   -2.193400234730193E-1    3.924266694464602E-1
 8.195094226050000E9    -3.030641312317332E-1    4.442441924247831E-1   -2.273908558332454E-3   -1.281504120290266E-3   -2.385881688940060E-3   -1.252727052452299E-3   -2.186822779952917E-1    3.925985161120342E-1
 8.195105901700000E9    -3.023235690153421E-1    4.447384195557250E-1   -2.276517326768640E-3   -1.295859642499976E-3   -2.386934126880584E-3   -1.260859763810127E-3   -2.183007428038219E-1    3.929435473065767E-1
 8.195117577350000E9    -3.015765782625643E-1    4.451071330886983E-1   -2.276586395439899E-3   -1.296891459868129E-3   -2.361588481879173E-3   -1.252285429534320E-3   -2.175851607651358E-1    3.933275930824888E-1
 8.195129253000000E9    -3.010566521110076E-1    4.456230372423156E-1   -2.326672843326893E-3   -1.282251495061843E-3   -2.394171173104930E-3   -1.241441321663319E-3   -2.170087341758897E-1    3.935318392275413E-1
 8.195140928650000E9    -3.002686919374495E-1    4.460730261218678E-1   -2.298221240497380E-3   -1.328400441480629E-3   -2.397452419911901E-3   -1.232407718223124E-3   -2.164926793652538E-1    3.937425292560853E-1
 8.195152604300000E9    -2.996591557436927E-1    4.465034145220398E-1   -2.311006918186611E-3   -1.289389809541900E-3   -2.352527312238474E-3   -1.229857264675107E-3   -2.158894412503957E-1    3.941304979474309E-1
 8.195164279950000E9    -2.988956695856116E-1    4.470003553662235E-1   -2.283039082285848E-3   -1.280886094841109E-3   -2.404431131022042E-3   -1.251232555120532E-3   -2.152513643961778E-1    3.944899969315790E-1
 8.195175955600000E9    -2.982052381713725E-1    4.474476220448366E-1   -2.287744857193628E-3   -1.285448931435500E-3   -2.405874797225087E-3   -1.248677121372828E-3   -2.147826950328711E-1    3.948232941801815E-1
 8.195187631250000E9    -2.975196050898165E-1    4.479249741502865E-1   -2.308374063770158E-3   -1.293023034909455E-3   -2.447466197808242E-3   -1.218642772477588E-3   -2.141835060990453E-1    3.950124076254394E-1
 8.195199306900000E9    -2.967705604158730E-1    4.483859681833318E-1   -2.320258543458116E-3   -1.306233098174119E-3   -2.423326893287374E-3   -1.218538147125438E-3   -2.135569535034348E-1    3.953144841990742E-1
 8.195210982550000E9    -2.960856896396643E-1    4.487692914241528E-1   -2.313145989912560E-3   -1.270107243351681E-3   -2.452505804957543E-3   -1.226129288561176E-3   -2.127892631524955E-1    3.956866734646157E-1
 8.195222658200000E9    -2.953905048522869E-1    4.491443437901784E-1   -2.321778069885758E-3   -1.302205906578499E-3   -2.410455943061952E-3   -1.232825442377491E-3   -2.122535152516693E-1    3.959239948002553E-1
 8.195234333850000E9    -2.946468426454955E-1    4.497776552858839E-1   -2.331612266662842E-3   -1.254937420471096E-3   -2.439425802082716E-3   -1.237243736632958E-3   -2.117614635473528E-1    3.962279824295102E-1
 8.195246009500000E9    -2.940730728127924E-1    4.502054717683091E-1   -2.325269857681882E-3   -1.279405025961146E-3   -2.403184333277259E-3   -1.191838256650600E-3   -2.111947936334755E-1    3.964394487792105E-1
 8.195257685150000E9    -2.933692219991530E-1    4.505076255262047E-1   -2.316008966862187E-3   -1.251413494795675E-3   -2.424943481552874E-3   -1.196964774966307E-3   -2.105808906570052E-1    3.968704983766566E-1
 8.195269360800000E9    -2.926990461785909E-1    4.510543046291262E-1   -2.330970449552447E-3   -1.275463794506114E-3   -2.421864820135199E-3   -1.177235516021473E-3   -2.099766783906758E-1    3.970177276374965E-1
 8.195281036450000E9    -2.919505662975462E-1    4.515237499042328E-1   -2.363561884894502E-3   -1.286234698139610E-3   -2.396518778100702E-3   -1.186330846687134E-3   -2.094007497519420E-1    3.973658796233057E-1
 8.195292712100000E9    -2.911891575029694E-1    4.519855486917959E-1   -2.372252482968811E-3   -1.257840644993871E-3   -2.428212498330549E-3   -1.217523981442673E-3   -2.088322139672682E-1    3.977006090948539E-1
 8.195304387750000E9    -2.905618466974831E-1    4.523095943143114E-1   -2.340284050056564E-3   -1.250652467817663E-3   -2.452498631802619E-3   -1.197125753531044E-3   -2.081280790086487E-1    3.979908436098372E-1
 8.195316063400000E9    -2.899051809021791E-1    4.528499184817962E-1   -2.364438622385451E-3   -1.232507384271082E-3   -2.420362684925072E-3   -1.186854414209716E-3   -2.076916154922028E-1    3.981072531477216E-1
 8.195327739050000E9    -2.891027598353774E-1    4.532047060571499E-1   -2.355469483700736E-3   -1.264621660153136E-3   -2.453941150024971E-3   -1.198650727435050E-3   -2.071633481529241E-1    3.986351374846877E-1
 8.195339414700000E9    -2.883868134787171E-1    4.537305129747475E-1   -2.333388295079325E-3   -1.241917887404116E-3   -2.406082082382079E-3   -1.211906873872173E-3   -2.065412253429577E-1    3.988386064690572E-1
 8.195351090350000E9    -2.877258997678044E-1    4.541136865196511E-1   -2.328970392693204E-3   -1.240037573402566E-3   -2.442223103147381E-3   -1.208271889872883E-3   -2.058841917178966E-1    3.989526324787134E-1
 8.195362766000000E9    -2.871038396379644E-1    4.545415747711382E-1   -2.349842204632157E-3   -1.225604392540631E-3   -2.441408047059785E-3   -1.190538048611010E-3   -2.052980826875647E-1    3.994727903747627E-1
 8.195374441650000E9    -2.863762317610909E-1    4.548651650017850E-1   -2.331550129524434E-3   -1.224858604077560E-3   -2.441110191278755E-3   -1.182165874009185E-3   -2.047383222403847E-1    3.996760532717386E-1
 8.195386117300000E9    -2.854971791888887E-1    4.552801232246426E-1   -2.360764383699862E-3   -1.213398991127380E-3   -2.449290179915438E-3   -1.188011296259434E-3   -2.042281564018276E-1    3.999519777021731E-1
 8.195397792950000E9    -2.849691370042618E-1    4.558365907112328E-1   -2.348513036669778E-3   -1.252547268580487E-3   -2.447480358997294E-3   -1.189369731414303E-3   -2.034989552760472E-1    4.003871703010373E-1
 8.195409468600000E9    -2.842346360401478E-1    4.562130297672199E-1   -2.376245957224372E-3   -1.217953676344064E-3   -2.478691097972470E-3   -1.161616498463861E-3   -2.029713916332068E-1    4.004597192126835E-1
 8.195421144250000E9    -2.835490600170038E-1    4.566684572947649E-1   -2.383890151090812E-3   -1.204239597732294E-3   -2.443887676661413E-3   -1.183162663788250E-3   -2.024328091939789E-1    4.008973753162043E-1
 8.195432819900000E9    -2.828032720245782E-1    4.570407769677433E-1   -2.374097233435307E-3   -1.222415419065180E-3   -2.466691341377668E-3   -1.138349701409927E-3   -2.017439332029028E-1    4.009235950028595E-1
 8.195444495550000E9    -2.820066136905628E-1    4.575568418696007E-1   -2.392844675807221E-3   -1.213403762370389E-3   -2.458791363302384E-3   -1.162745459945552E-3   -2.012765001623335E-1    4.013844525498407E-1
 8.195456171200000E9    -2.813586821432300E-1    4.579294441506112E-1   -2.387008875938303E-3   -1.218281750657731E-3   -2.461263478369284E-3   -1.166307700233940E-3   -2.006990076329658E-1    4.016083885835963E-1
 8.195467846850000E9    -2.807028577634705E-1    4.584056971600992E-1   -2.373281143444212E-3   -1.200534535546549E-3   -2.484875658512904E-3   -1.143623148285589E-3   -2.000199682612770E-1    4.020155547469206E-1
 8.195479522500000E9    -2.799841349805562E-1    4.588389349701978E-1   -2.384534370115318E-3   -1.197171815389126E-3   -2.481143140637773E-3   -1.153847297551461E-3   -1.994131064309030E-1    4.021502501124285E-1
 8.195491198150000E9    -2.792031762240523E-1    4.592869816935671E-1   -2.379669181317317E-3   -1.174612884642086E-3   -2.489587015930076E-3   -1.140123512877715E-3   -1.988157687350482E-1    4.025304352613097E-1
 8.195502873800000E9    -2.785358296116411E-1    4.596625256092729E-1   -2.363896255026008E-3   -1.204776064457135E-3   -2.478670838636575E-3   -1.133397655793236E-3   -1.981552524491723E-1    4.027743332697591E-1
 8.195514549450000E9    -2.779012529566117E-1    4.600962612610565E-1   -2.365421646290367E-3   -1.203918686574800E-3   -2.473940529581002E-3   -1.106229588467223E-3   -1.975845267339298E-1    4.030621916722028E-1
 8.195526225100000E9    -2.771630020715622E-1    4.605994595350172E-1   -2.376385339364528E-3   -1.191525946969905E-3   -2.471253062676886E-3   -1.139918823970659E-3   -1.970287108872569E-1    4.031505930455241E-1
 8.195537900750000E9    -2.764958110644560E-1    4.609792450080648E-1   -2.364638507650188E-3   -1.202628980227344E-3   -2.503123322451392E-3   -1.133776792491102E-3   -1.963750849317945E-1    4.036068264305514E-1
 8.195549576400000E9    -2.756397633144971E-1    4.612869232817076E-1   -2.404833540024647E-3   -1.173624044486463E-3   -2.503421520206306E-3   -1.112166241802977E-3   -1.958300302144413E-1    4.038779021398951E-1
 8.195561252050000E9    -2.748844510563071E-1    4.616684594142003E-1   -2.414209041271780E-3   -1.183874118856401E-3   -2.514672042124520E-3   -1.131749278733239E-3   -1.952100698543661E-1    4.040893333974139E-1
 8.195572927700000E9    -2.741750523596879E-1    4.621537245833814E-1   -2.396161693731558E-3   -1.198573454344386E-3   -2.485510411122980E-3   -1.098893364685076E-3   -1.946599013046071E-1    4.044710995006644E-1
 8.195584603350000E9    -2.734976459774975E-1    4.625272824617048E-1   -2.409041817865182E-3   -1.184721026134714E-3   -2.496454333613441E-3   -1.117292160117127E-3   -1.939189832915772E-1    4.047372977103652E-1
 8.195596279000000E9    -2.727554374900302E-1    4.630215820197522E-1   -2.420787301721475E-3   -1.162590876261708E-3   -2.488441656666756E-3   -1.096896985031797E-3   -1.933486851494347E-1    4.049549476534562E-1
 8.195607954650000E9    -2.720909366231162E-1    4.632724448849619E-1   -2.448739348114437E-3   -1.148563848648574E-3   -2.546092528389637E-3   -1.110600010192046E-3   -1.928688508909969E-1    4.051562553705132E-1
 8.195619630300000E9    -2.714144059156832E-1    4.638371197120221E-1   -2.437161739298406E-3   -1.165056640087861E-3   -2.534802866148633E-3   -1.120979984886520E-3   -1.922664892601574E-1    4.054955719218297E-1
 8.195631305950000E9    -2.706065145804477E-1    4.642260725746845E-1   -2.469795342461075E-3   -1.150948728882888E-3   -2.512276545258622E-3   -1.100865588807692E-3   -1.916156041293700E-1    4.057880305433964E-1
 8.195642981600000E9    -2.699064823655056E-1    4.644591308265544E-1   -2.421425304853115E-3   -1.150959312965228E-3   -2.525013417697547E-3   -1.108831619629783E-3   -1.910192639907505E-1    4.058398596098099E-1
 8.195654657250000E9    -2.691155701734430E-1    4.649803774124069E-1   -2.400858229560798E-3   -1.151251927238278E-3   -2.524801048413999E-3   -1.079176303661448E-3   -1.905040081592450E-1    4.063741580238988E-1
 8.195666332900000E9    -2.685329068707158E-1    4.654095942257803E-1   -2.404936597224885E-3   -1.168303856587004E-3   -2.527722012276956E-3   -1.096554194372429E-3   -1.899932199481613E-1    4.064816946560562E-1
 8.195678008550000E9    -2.677519589792824E-1    4.658255205386559E-1   -2.435252600703514E-3   -1.147841343915313E-3   -2.544384455470234E-3   -1.088915235459826E-3   -1.893013963516772E-1    4.067372874272424E-1
 8.195689684200000E9    -2.670120024630936E-1    4.662573447322338E-1   -2.428766996419549E-3   -1.148037567776670E-3   -2.524419331088868E-3   -1.097978969275694E-3   -1.886881273305736E-1    4.070192453235448E-1
 8.195701359850000E9    -2.663001121016435E-1    4.665547562776998E-1   -2.439435346560809E-3   -1.165420588034654E-3   -2.527810023823263E-3   -1.072163742753831E-3   -1.879685573739479E-1    4.072301505282536E-1
 8.195713035500000E9    -2.655242129930079E-1    4.670743512694396E-1   -2.462591671020584E-3   -1.126587930809105E-3   -2.532875564253972E-3   -1.077883571198894E-3   -1.873520251866912E-1    4.075455747573517E-1
 8.195724711150000E9    -2.647811791592406E-1    4.674002466829036E-1   -2.459706538997541E-3   -1.123210314029241E-3   -2.546470461078735E-3   -1.093998423951250E-3   -1.867819829950775E-1    4.078003568686071E-1
 8.195736386800000E9    -2.641118125949066E-1    4.678537948747918E-1   -2.456768130799715E-3   -1.163588001897463E-3   -2.570218197164710E-3   -1.080066098325864E-3   -1.862458748202126E-1    4.080469154620198E-1
 8.195748062450000E9    -2.634185591096349E-1    4.682620755407025E-1   -2.446569372906042E-3   -1.139418210262444E-3   -2.548787100361881E-3   -1.070954564830006E-3   -1.856439749375255E-1    4.082002426480134E-1
 8.195759738100000E9    -2.626768255903472E-1    4.685891802239919E-1   -2.440707558363245E-3   -1.137496673811314E-3   -2.561842330983041E-3   -1.069502720820303E-3   -1.849755429559305E-1    4.085768650724066E-1
 8.195771413750000E9    -2.619122292542113E-1    4.690742589042485E-1   -2.477418169894169E-3   -1.142593744023800E-3   -2.546691302460872E-3   -1.074680474701503E-3   -1.842139950334553E-1    4.088732226272443E-1
 8.195783089400000E9    -2.611143738804380E-1    4.693758375270246E-1   -2.481768444022637E-3   -1.128181906651133E-3   -2.561389765858381E-3   -1.077188381850044E-3   -1.838858146810986E-1    4.090825839067711E-1
 8.195794765050000E9    -2.604334201418690E-1    4.697580827841935E-1   -2.479860038523133E-3   -1.139805431145111E-3   -2.553439496613775E-3   -1.056428279074307E-3   -1.831629141419907E-1    4.093758652034034E-1
 8.195806440700000E9    -2.596197255103178E-1    4.701719074866980E-1   -2.454485369651783E-3   -1.134424797264125E-3   -2.538922252923982E-3   -1.040260930349834E-3   -1.826573091522743E-1    4.095205647637575E-1
 8.195818116350000E9    -2.588998362364912E-1    4.706204808574874E-1   -2.462932059973222E-3   -1.141380162271768E-3   -2.575244936786923E-3   -1.070930501947019E-3   -1.820744324162226E-1    4.097911290554954E-1
 8.195829792000000E9    -2.582086437645249E-1    4.709258655926089E-1   -2.445784572350204E-3   -1.094573154955898E-3   -2.580537177028761E-3   -1.011581457796734E-3   -1.813555098123526E-1    4.100430290938510E-1
 8.195841467650000E9    -2.574894082020694E-1    4.713847002991593E-1   -2.482776453601484E-3   -1.132803589526822E-3   -2.552568772776580E-3   -1.061193991903155E-3   -1.809969575506314E-1    4.103597340266435E-1
 8.195853143300000E9    -2.567251153838571E-1    4.719461435557263E-1   -2.490600315339560E-3   -1.084368679864707E-3   -2.578481613463739E-3   -1.034041162305684E-3   -1.802062234957796E-1    4.106087666125121E-1
 8.195864818950000E9    -2.560566124847338E-1    4.721613751848567E-1   -2.476560472369748E-3   -1.129226938814438E-3   -2.613737071397510E-3   -1.027199967640514E-3   -1.795773914897962E-1    4.108279388465504E-1
 8.195876494600000E9    -2.553928602091931E-1    4.725961897240136E-1   -2.492671339007025E-3   -1.093063936908251E-3   -2.586764892461707E-3   -1.056213334735654E-3   -1.789995704030169E-1    4.109990195371497E-1
 8.195888170250000E9    -2.544770786087682E-1    4.728144643551351E-1   -2.503919702689710E-3   -1.098593110929794E-3   -2.575630460910164E-3   -1.017689487343892E-3   -1.783797101836657E-1    4.113402901433085E-1
 8.195899845900000E9    -2.538746338082835E-1    4.733076915722959E-1   -2.500323278358928E-3   -1.095378262326367E-3   -2.592855341397591E-3   -1.012736267621588E-3   -1.777955245726899E-1    4.113753509394762E-1
 8.195911521550000E9    -2.531405662219040E-1    4.735907934346099E-1   -2.488848657336337E-3   -1.072903128894894E-3   -2.597718004314939E-3   -1.025037479348542E-3   -1.772049898930957E-1    4.118168188594238E-1
 8.195923197200000E9    -2.523683259622304E-1    4.740144937472056E-1   -2.475459245359586E-3   -1.068812519925596E-3   -2.599234815349946E-3   -1.033910944546806E-3   -1.765727553579954E-1    4.120833592195061E-1
 8.195934872850000E9    -2.515976221298259E-1    4.744414796691012E-1   -2.499561880135984E-3   -1.084604686225132E-3   -2.581471614315863E-3   -1.024580425675154E-3   -1.759728520917802E-1    4.124021005326977E-1
 8.195946548500000E9    -2.508865413938811E-1    4.747553533414882E-1   -2.522203440267933E-3   -1.076103193717380E-3   -2.602650363511878E-3   -1.036281442733846E-3   -1.751835015373339E-1    4.124537767659589E-1
