#  HZ   S   RI   R     50.00 
! Rohde & Schwarz Vector Network Analyzer 
! Rohde-Schwarz,ZNB20-2Port,1311601062101988,3.16
! Created: UTC 3/20/2024, 5:11:53 PM
! freq[Hz]                re:S11                  im:S11                  re:S21                  im:S21                  re:S12                  im:S12                  re:S22                  im:S22
 8.194996382000000E9    -3.088809116932116E-1    4.402668627609994E-1   -2.265222366249991E-3   -1.332338472431540E-3   -2.378613124790002E-3   -1.307703338916490E-3   -2.236580334353937E-1    3.900547492014249E-1
 8.195007605075000E9    -3.082389536804751E-1    4.408054709292100E-1   -2.284760904261960E-3   -1.349504338348702E-3   -2.350396935533053E-3   -1.255596112051397E-3   -2.231695646810076E-1    3.905489818488428E-1
 8.195018828150000E9    -3.076389833732620E-1    4.411619526459584E-1   -2.262685319366196E-3   -1.312670797956963E-3   -2.381518884700079E-3   -1.275099366200736E-3   -2.224464886664513E-1    3.906858810905875E-1
 8.195030051225000E9    -3.067608588935559E-1    4.416784874475351E-1   -2.237816560867594E-3   -1.318275936815758E-3   -2.405027274831040E-3   -1.265972104809628E-3   -2.217552784685750E-1    3.910426390533557E-1
 8.195041274300000E9    -3.062303186012032E-1    4.420859325514905E-1   -2.251303506987830E-3   -1.324844789040086E-3   -2.359908245966052E-3   -1.252558444034875E-3   -2.214897732630384E-1    3.912342005260718E-1
 8.195052497375000E9    -3.055702461931893E-1    4.425777110408121E-1   -2.274311437450611E-3   -1.307763357113352E-3   -2.371194085886017E-3   -1.293380757285550E-3   -2.207461930674871E-1    3.915457983459624E-1
 8.195063720450000E9    -3.047907510489319E-1    4.430020918702235E-1   -2.260172718710160E-3   -1.322847030644045E-3   -2.376942623520428E-3   -1.274841253549815E-3   -2.202724908080098E-1    3.918129079897212E-1
 8.195074943525000E9    -3.040760817695443E-1    4.434685233429201E-1   -2.306773415544777E-3   -1.290908935276578E-3   -2.390629069321716E-3   -1.246350218871476E-3   -2.198592485558278E-1    3.920619946017748E-1
 8.195086166600000E9    -3.036111409924707E-1    4.437955711876895E-1   -2.276228956673311E-3   -1.283083855354447E-3   -2.403071055732185E-3   -1.254426476714591E-3   -2.191464843738643E-1    3.924065029724987E-1
 8.195097389675000E9    -3.028480655279612E-1    4.443862389880213E-1   -2.288742489118173E-3   -1.318497922313817E-3   -2.380983834429706E-3   -1.265651547132620E-3   -2.186490951590992E-1    3.927730915375274E-1
 8.195108612750000E9    -3.021981462351488E-1    4.448220861831125E-1   -2.284226515450595E-3   -1.294417430394438E-3   -2.359810969794715E-3   -1.254214572448179E-3   -2.180892539156490E-1    3.930350203540929E-1
 8.195119835825000E9    -3.016226790209064E-1    4.452820353436776E-1   -2.289171452208674E-3   -1.331852047114208E-3   -2.437740601662574E-3   -1.259273637692339E-3   -2.175860679099373E-1    3.933305354678697E-1
 8.195131058900000E9    -3.008970519942717E-1    4.458068883148159E-1   -2.274372548029647E-3   -1.304052832043972E-3   -2.396653948529233E-3   -1.252748832805173E-3   -2.169551223713030E-1    3.935288915155247E-1
 8.195142281975000E9    -3.001966836808119E-1    4.461551564601084E-1   -2.308936234483869E-3   -1.277019906845269E-3   -2.412834627712075E-3   -1.249014446119736E-3   -2.163601954400716E-1    3.938491358540016E-1
 8.195153505050000E9    -2.995051540044651E-1    4.466210511603297E-1   -2.319039031161712E-3   -1.313252721042656E-3   -2.390112427407195E-3   -1.222948190813259E-3   -2.158425357843111E-1    3.940679843065228E-1
 8.195164728125000E9    -2.989074792498486E-1    4.470036625461439E-1   -2.311748155389408E-3   -1.274784860765153E-3   -2.380576273296646E-3   -1.240501409216022E-3   -2.153934771505531E-1    3.945160566565852E-1
 8.195175951200000E9    -2.982296677990239E-1    4.474155113691088E-1   -2.327254208588798E-3   -1.285843334804120E-3   -2.413301046503912E-3   -1.202641992702103E-3   -2.147345538388281E-1    3.947008323696971E-1
 8.195187174275000E9    -2.975026444674566E-1    4.478968579400547E-1   -2.321392606675008E-3   -1.270152277959973E-3   -2.407655221867640E-3   -1.225859166051918E-3   -2.142247880657852E-1    3.950838916361796E-1
 8.195198397350000E9    -2.968928813362003E-1    4.482658164784483E-1   -2.326007753190862E-3   -1.295133885937033E-3   -2.434317291573982E-3   -1.232018720002983E-3   -2.136441062818412E-1    3.951746411003575E-1
 8.195209620425000E9    -2.962278078746253E-1    4.486976603401682E-1   -2.316372344955363E-3   -1.265397562283784E-3   -2.429331602761512E-3   -1.202277528991902E-3   -2.129591536448495E-1    3.956533147308619E-1
 8.195220843500000E9    -2.955924176944020E-1    4.491410262118717E-1   -2.309374750871993E-3   -1.295597334875792E-3   -2.418013424237085E-3   -1.216207526157720E-3   -2.123613512473000E-1    3.958332700935210E-1
 8.195232066575000E9    -2.948055555230405E-1    4.496445074332079E-1   -2.320491635070428E-3   -1.239962451128938E-3   -2.438918856251022E-3   -1.199884745464844E-3   -2.118293986363944E-1    3.961292459965095E-1
 8.195243289650000E9    -2.941330414300988E-1    4.500284509395572E-1   -2.307413729739797E-3   -1.252758206015560E-3   -2.416032579623070E-3   -1.230456783922150E-3   -2.113208647574577E-1    3.964479782693988E-1
 8.195254512725000E9    -2.934423801922498E-1    4.505299946199656E-1   -2.288803718389952E-3   -1.276825564052306E-3   -2.428595517817973E-3   -1.201399087629659E-3   -2.106323406880348E-1    3.967833217458492E-1
 8.195265735800000E9    -2.927373756938261E-1    4.509200203627409E-1   -2.321932755523136E-3   -1.259417481097939E-3   -2.415915043454339E-3   -1.214253034359705E-3   -2.101850925519368E-1    3.969892716711632E-1
 8.195276958875000E9    -2.922574272385457E-1    4.513142684228127E-1   -2.329311280246799E-3   -1.287221888883729E-3   -2.421558901784770E-3   -1.189091170182867E-3   -2.096365237215947E-1    3.973665287770584E-1
 8.195288181950000E9    -2.914782475827683E-1    4.516449997718006E-1   -2.358924313510320E-3   -1.270246455634004E-3   -2.453029331108741E-3   -1.165302811376395E-3   -2.090019322683982E-1    3.975117478227195E-1
 8.195299405025000E9    -2.907974399574021E-1    4.521093227210068E-1   -2.316639137522938E-3   -1.200564602753707E-3   -2.443858906897555E-3   -1.190857720768452E-3   -2.085500449498393E-1    3.979192538410420E-1
 8.195310628100000E9    -2.901064762132410E-1    4.526480892244023E-1   -2.355699512914821E-3   -1.240818871222592E-3   -2.465412649162792E-3   -1.174489532506807E-3   -2.080092792476862E-1    3.982595837099406E-1
 8.195321851175000E9    -2.895167037727702E-1    4.529256756355478E-1   -2.349778386108754E-3   -1.250410569918790E-3   -2.445663046070483E-3   -1.185121299997782E-3   -2.074564421189261E-1    3.985089649525501E-1
 8.195333074250000E9    -2.888532986283814E-1    4.533707393039505E-1   -2.324153682231142E-3   -1.247590439233208E-3   -2.431350379010750E-3   -1.172188201810700E-3   -2.067558387549295E-1    3.987009924619235E-1
 8.195344297325000E9    -2.881244159711684E-1    4.538296366314561E-1   -2.335182276041396E-3   -1.252615457357162E-3   -2.451078829812119E-3   -1.205137591834860E-3   -2.061786100958748E-1    3.990616350291904E-1
 8.195355520400000E9    -2.875611612137480E-1    4.542694912660916E-1   -2.340133608779387E-3   -1.243554066027764E-3   -2.413104704004937E-3   -1.196297964785722E-3   -2.056633915480292E-1    3.992136075305746E-1
 8.195366743475000E9    -2.868176124728326E-1    4.546193395995162E-1   -2.345203604856829E-3   -1.221062584874985E-3   -2.439103543724791E-3   -1.170950726353079E-3   -2.051022962208145E-1    3.994603921317855E-1
 8.195377966550000E9    -2.861464363951340E-1    4.551181293600572E-1   -2.359701108703667E-3   -1.224012867575726E-3   -2.474047894406753E-3   -1.136703127871201E-3   -2.045019875792376E-1    3.997771710083647E-1
 8.195389189625000E9    -2.854879508928654E-1    4.555010034430241E-1   -2.353345915461756E-3   -1.225661704186696E-3   -2.447663383579229E-3   -1.180875698153774E-3   -2.039890811422521E-1    4.000755049121794E-1
 8.195400412700000E9    -2.846602843231163E-1    4.559575559430853E-1   -2.340616656723539E-3   -1.210141112235642E-3   -2.481538398004047E-3   -1.128772562162862E-3   -2.033959153047856E-1    4.003474067057126E-1
 8.195411635775000E9    -2.841151950567216E-1    4.562798960362030E-1   -2.350639056015453E-3   -1.209417806760197E-3   -2.427940979406169E-3   -1.136872802876099E-3   -2.027646561783885E-1    4.005466324804499E-1
 8.195422858850000E9    -2.833804532459244E-1    4.566493465759223E-1   -2.384093432888947E-3   -1.223210746555596E-3   -2.446954031989081E-3   -1.158537374964107E-3   -2.022460594460984E-1    4.008633315916972E-1
 8.195434081925000E9    -2.826953081769271E-1    4.570760374799560E-1   -2.373711559645778E-3   -1.237241348872951E-3   -2.453883433630921E-3   -1.176865064300491E-3   -2.017685758586458E-1    4.011752411729470E-1
 8.195445305000000E9    -2.819424596911422E-1    4.576633653801115E-1   -2.379210244832604E-3   -1.208851001600625E-3   -2.475390324762524E-3   -1.131597823250202E-3   -2.010878972065708E-1    4.014868523013810E-1
 8.195456528075000E9    -2.814424170279244E-1    4.579276271752127E-1   -2.372027424991147E-3   -1.210646690855679E-3   -2.461680063336265E-3   -1.140365942424222E-3   -2.004978605790293E-1    4.015995448927832E-1
 8.195467751150000E9    -2.807419307672088E-1    4.584300873935144E-1   -2.364487121254416E-3   -1.195169481398800E-3   -2.471205262868282E-3   -1.154885864643550E-3   -1.999824121919657E-1    4.019229515989349E-1
 8.195478974225000E9    -2.798433076820925E-1    4.586210132459952E-1   -2.375388807308432E-3   -1.227922676208475E-3   -2.472743477741108E-3   -1.127414504412790E-3   -1.994355426019879E-1    4.022238258069343E-1
 8.195490197300000E9    -2.792481816442729E-1    4.590686607658871E-1   -2.368169387411229E-3   -1.212483015748587E-3   -2.454494343184014E-3   -1.133075951099022E-3   -1.987820159667863E-1    4.024148081959268E-1
 8.195501420375000E9    -2.785928313219391E-1    4.595757702144115E-1   -2.403729553831167E-3   -1.194972535511646E-3   -2.497682489281695E-3   -1.129585416905459E-3   -1.982843985828116E-1    4.027586873706430E-1
 8.195512643450000E9    -2.779267575231924E-1    4.600626773993655E-1   -2.432875171315791E-3   -1.187805697817296E-3   -2.477241107970520E-3   -1.118434158169983E-3   -1.977456900189690E-1    4.028892686961067E-1
 8.195523866525000E9    -2.772418025035456E-1    4.602760961351727E-1   -2.396908352318061E-3   -1.178764646385087E-3   -2.521053223380334E-3   -1.118949265224059E-3   -1.969995888342562E-1    4.032699379420973E-1
 8.195535089600000E9    -2.766313194356201E-1    4.606535224666137E-1   -2.421796712462879E-3   -1.182132397620030E-3   -2.494717044537806E-3   -1.093311755662397E-3   -1.966687576260381E-1    4.035227809351866E-1
 8.195546312675000E9    -2.758353631840569E-1    4.610903304276500E-1   -2.398508888747212E-3   -1.197584272906925E-3   -2.499921084090534E-3   -1.134074669812662E-3   -1.959195889032873E-1    4.037625221485343E-1
 8.195557535750000E9    -2.750705389236256E-1    4.615397110380654E-1   -2.399170935704179E-3   -1.193706254075115E-3   -2.510846726498093E-3   -1.107506456709779E-3   -1.954457184791104E-1    4.039249591732154E-1
 8.195568758825000E9    -2.745714176062165E-1    4.619504561918323E-1   -2.399583545324012E-3   -1.202738300161983E-3   -2.483164164062478E-3   -1.104764423108355E-3   -1.948236686054338E-1    4.041848918305863E-1
 8.195579981900000E9    -2.737849907814012E-1    4.623649320242688E-1   -2.413480269588278E-3   -1.192943680130563E-3   -2.487580222558795E-3   -1.124085199375101E-3   -1.941916857727561E-1    4.045806785859198E-1
 8.195591204975000E9    -2.731080872677067E-1    4.627365074409560E-1   -2.383952363041853E-3   -1.197253811399402E-3   -2.507889081958069E-3   -1.132193463628413E-3   -1.938164086189060E-1    4.046808662390908E-1
 8.195602428050000E9    -2.722922394077706E-1    4.632529569780101E-1   -2.410030979283680E-3   -1.163974882926134E-3   -2.475257687384920E-3   -1.116551867504302E-3   -1.932162151993004E-1    4.050477865512207E-1
 8.195613651125000E9    -2.716907798588537E-1    4.635707374344263E-1   -2.433692801180228E-3   -1.167542175853511E-3   -2.517125039372658E-3   -1.128978247440435E-3   -1.925487149100759E-1    4.053144236817107E-1
 8.195624874200000E9    -2.710474835669995E-1    4.640668096954366E-1   -2.422785193088048E-3   -1.167637923704128E-3   -2.491053669313742E-3   -1.101413833682192E-3   -1.919481733537095E-1    4.054807329871121E-1
 8.195636097275000E9    -2.702004463617703E-1    4.643363554748510E-1   -2.420999083212572E-3   -1.158285464955098E-3   -2.511113882397356E-3   -1.054976773371361E-3   -1.914912772253453E-1    4.058307513027417E-1
 8.195647320350000E9    -2.695329404844925E-1    4.646409654403575E-1   -2.443107888230644E-3   -1.150055920093257E-3   -2.516821489140797E-3   -1.105840068283015E-3   -1.907560730094467E-1    4.060211934164250E-1
 8.195658543425000E9    -2.690602113121311E-1    4.650634850230648E-1   -2.428318587217516E-3   -1.180479496759625E-3   -2.533245793595784E-3   -1.108680837034232E-3   -1.902382904307051E-1    4.064115728512414E-1
 8.195669766500000E9    -2.682378109900540E-1    4.655371339482490E-1   -2.440924252989458E-3   -1.141409522251762E-3   -2.501422874762562E-3   -1.104632258323013E-3   -1.897469192809342E-1    4.066600064853750E-1
 8.195680989575000E9    -2.677267203384703E-1    4.659379757719472E-1   -2.440939434578828E-3   -1.161726478499658E-3   -2.493244772429864E-3   -1.059111520410682E-3   -1.891710583576398E-1    4.068232883937642E-1
 8.195692212650000E9    -2.667920799316315E-1    4.663212946940177E-1   -2.442255138479387E-3   -1.160469091292735E-3   -2.534076562309398E-3   -1.131663873495514E-3   -1.885922013964416E-1    4.071391074190384E-1
 8.195703435725000E9    -2.662407611956715E-1    4.666152867385264E-1   -2.437092974193890E-3   -1.144234795678833E-3   -2.533767110297042E-3   -1.085135974294920E-3   -1.879284772888874E-1    4.072604623907177E-1
 8.195714658800000E9    -2.654510194968255E-1    4.671140175895496E-1   -2.436843936816463E-3   -1.162392382030858E-3   -2.556236410111969E-3   -1.073624072899841E-3   -1.873410134408218E-1    4.075277458823509E-1
 8.195725881875000E9    -2.648515417147454E-1    4.674429735262908E-1   -2.431440082205273E-3   -1.137502323329620E-3   -2.565802733288641E-3   -1.082362267420312E-3   -1.867549879318137E-1    4.079333531434385E-1
 8.195737104950000E9    -2.640805854078931E-1    4.678476958313978E-1   -2.442991181583508E-3   -1.139548604183657E-3   -2.540586998586322E-3   -1.075147226308725E-3   -1.862407007117568E-1    4.080082367038683E-1
 8.195748328025000E9    -2.633435218229309E-1    4.681996378756845E-1   -2.465589527808481E-3   -1.143652753772643E-3   -2.567610203430317E-3   -1.054199706358729E-3   -1.856265265392227E-1    4.084154656711599E-1
 8.195759551100000E9    -2.625917303092761E-1    4.686177514194583E-1   -2.450365688875051E-3   -1.121922031438859E-3   -2.544847223194246E-3   -1.079910740866717E-3   -1.850586200049211E-1    4.085160834790793E-1
 8.195770774175000E9    -2.619214780897954E-1    4.690908464575508E-1   -2.475315510644760E-3   -1.118383673778036E-3   -2.570967382502328E-3   -1.077940746844098E-3   -1.844497131031094E-1    4.087982631159382E-1
 8.195781997250000E9    -2.612288119094794E-1    4.694403734334657E-1   -2.465317963409160E-3   -1.123415125332250E-3   -2.565551480032248E-3   -1.088599591062172E-3   -1.838607681417670E-1    4.090519274313669E-1
 8.195793220325000E9    -2.605051484854766E-1    4.696846214556722E-1   -2.483813036351192E-3   -1.111843799039419E-3   -2.542043994577916E-3   -1.058359186557768E-3   -1.834085366926908E-1    4.092395666639961E-1
 8.195804443400000E9    -2.598686207854074E-1    4.701499743385369E-1   -2.461691636343766E-3   -1.122062299513324E-3   -2.596917779715251E-3   -1.042021794594089E-3   -1.827000846045536E-1    4.095259096250833E-1
 8.195815666475000E9    -2.591676299451985E-1    4.705510983795432E-1   -2.430541610459233E-3   -1.136582994097132E-3   -2.568158671417031E-3   -1.053055765023378E-3   -1.821236862552527E-1    4.096985133415313E-1
 8.195826889550000E9    -2.585822604350930E-1    4.708682201631538E-1   -2.473432621128200E-3   -1.097207081346049E-3   -2.585682400817108E-3   -1.020391177558769E-3   -1.815090421821112E-1    4.100158262727734E-1
 8.195838112625000E9    -2.577402014734337E-1    4.712869621794287E-1   -2.479785902497166E-3   -1.117036728257427E-3   -2.551385971611615E-3   -1.054131288950880E-3   -1.808688660985570E-1    4.101467284587122E-1
 8.195849335700000E9    -2.570270183609999E-1    4.715859017671515E-1   -2.479402523246418E-3   -1.107989990044192E-3   -2.563320960293487E-3   -1.024145421921067E-3   -1.804666923486541E-1    4.104501897508997E-1
 8.195860558775000E9    -2.563888015166892E-1    4.720410379299400E-1   -2.486302643345166E-3   -1.096762059514358E-3   -2.573458231429337E-3   -1.048534562559170E-3   -1.798136790567115E-1    4.106739616428519E-1
 8.195871781850000E9    -2.556732692463336E-1    4.723543626173105E-1   -2.493474443733222E-3   -1.068476932038206E-3   -2.585470041482664E-3   -9.875626197600935E-4   -1.793416630448612E-1    4.109388560664350E-1
 8.195883004925000E9    -2.550066300105435E-1    4.726582234216487E-1   -2.499401209072816E-3   -1.101843892940941E-3   -2.603146366250734E-3   -1.048135252114163E-3   -1.786717028057195E-1    4.112101619093226E-1
 8.195894228000000E9    -2.542776779091165E-1    4.731576662135913E-1   -2.516660018407265E-3   -1.108498374150135E-3   -2.581770468220359E-3   -1.046071368327866E-3   -1.779413657042124E-1    4.114659846091304E-1
 8.195905451075000E9    -2.536129984919691E-1    4.735231940170479E-1   -2.514840725791662E-3   -1.086703130892912E-3   -2.592868860611609E-3   -9.962845862620698E-4   -1.774217378638402E-1    4.115554131173677E-1
 8.195916674150000E9    -2.528654611869131E-1    4.738176395797576E-1   -2.497576647193816E-3   -1.085333783540812E-3   -2.592007940480042E-3   -1.004611682362638E-3   -1.768399614494305E-1    4.120540810666999E-1
 8.195927897225000E9    -2.521441132633573E-1    4.742064780283540E-1   -2.487335429228943E-3   -1.095149502622770E-3   -2.593640464364217E-3   -1.017931983798491E-3   -1.762367021474904E-1    4.121130327654114E-1
 8.195939120300000E9    -2.514215185354961E-1    4.746789664875867E-1   -2.482772718972218E-3   -1.073948540315967E-3   -2.562828409611048E-3   -9.999564208249189E-4   -1.757708868887805E-1    4.123944696870492E-1
 8.195950343375000E9    -2.506202677332562E-1    4.749938601798806E-1   -2.521224816088532E-3   -1.098844657866157E-3   -2.618582771182434E-3   -9.935469915674764E-4   -1.750056326112236E-1    4.125851161748721E-1
 8.195961566450000E9    -2.499732339872972E-1    4.753047732295504E-1   -2.493282341839308E-3   -1.065211217382452E-3   -2.602699855855608E-3   -9.893313156028678E-4   -1.744341300523055E-1    4.128027799483355E-1
 8.195972789525000E9    -2.491893664135298E-1    4.757500167706818E-1   -2.515927387180157E-3   -1.094558278395357E-3   -2.585968592743636E-3   -9.969957754647812E-4   -1.739293221734110E-1    4.131262955245529E-1
 8.195984012600000E9    -2.484663038227405E-1    4.760513847148750E-1   -2.518139223288461E-3   -1.075376963757414E-3   -2.602332489103732E-3   -9.776610787381246E-4   -1.732736200942865E-1    4.132823895531812E-1
 8.195995235675000E9    -2.477011488977963E-1    4.763451574610644E-1   -2.529269229997324E-3   -1.055920901131287E-3   -2.599558942551382E-3   -9.703080322407920E-4   -1.727027578595424E-1    4.135021333888939E-1
 8.196006458750000E9    -2.471070539004209E-1    4.768407815767318E-1   -2.531628091342264E-3   -1.047176290612474E-3   -2.609509310901821E-3   -9.956834312045463E-4   -1.720943815045132E-1    4.136988209362818E-1
