#  HZ   S   RI   R     50.00 
! Rohde & Schwarz Vector Network Analyzer 
! Rohde-Schwarz,ZNB20-2Port,1311601062101988,3.16
! Created: UTC 3/20/2024, 4:56:50 PM
! freq[Hz]                re:S11                  im:S11                  re:S21                  im:S21                  re:S12                  im:S12                  re:S22                  im:S22
 8.180643442000000E9    -3.412085046568615E-1   -4.234138825526386E-1    1.510694114476862E-3   -1.640466759496503E-3    1.573570371622776E-3   -1.715719228758394E-3   -3.568638248948502E-1   -2.981331201333360E-1
 8.180718908150000E9    -3.453796880537754E-1   -4.199434465485425E-1    1.516536129103340E-3   -1.665754323906546E-3    1.574403933968528E-3   -1.715851608011336E-3   -3.593259638235705E-1   -2.948417189427097E-1
 8.180794374300000E9    -3.493700069913169E-1   -4.165996439075665E-1    1.516822149799290E-3   -1.681984625342176E-3    1.514577341052445E-3   -1.729863220446272E-3   -3.619644533726240E-1   -2.915656507103122E-1
 8.180869840450000E9    -3.534800039131465E-1   -4.132682571253080E-1    1.513659702964376E-3   -1.705562561984733E-3    1.540823544218503E-3   -1.759062656393726E-3   -3.645897257619727E-1   -2.881658597239306E-1
 8.180945306600000E9    -3.573489939338643E-1   -4.097466015109243E-1    1.497842746310634E-3   -1.687716539571791E-3    1.518259273554133E-3   -1.769183982125044E-3   -3.671536042054800E-1   -2.849163556756977E-1
 8.181020772750000E9    -3.612131597320180E-1   -4.063341211971780E-1    1.477757378782256E-3   -1.729033428493179E-3    1.469232289070211E-3   -1.818132182386008E-3   -3.696231342822038E-1   -2.814042494162428E-1
 8.181096238900000E9    -3.651427935487344E-1   -4.028189926718775E-1    1.459111379601296E-3   -1.727492327242668E-3    1.489403167567758E-3   -1.798880338380214E-3   -3.720629695378387E-1   -2.779491768914653E-1
 8.181171705050000E9    -3.690295099154053E-1   -3.992316381474577E-1    1.445263773766161E-3   -1.737537758388023E-3    1.468451404996362E-3   -1.831534200211183E-3   -3.745031816184579E-1   -2.745066810241832E-1
 8.181247171200000E9    -3.727180261518033E-1   -3.957254752209239E-1    1.412867473732834E-3   -1.735030964297654E-3    1.429207038560790E-3   -1.814438403826478E-3   -3.770194436899971E-1   -2.711014010716703E-1
 8.181322637350000E9    -3.765198576262037E-1   -3.920466985568377E-1    1.383182287768212E-3   -1.767421906222016E-3    1.432444102899141E-3   -1.838574131480283E-3   -3.794321833479136E-1   -2.675823369325677E-1
 8.181398103500000E9    -3.802946100762268E-1   -3.884939877761112E-1    1.373086858904237E-3   -1.780791815121576E-3    1.404496192821853E-3   -1.868384175629362E-3   -3.817614639750879E-1   -2.641359819431864E-1
 8.181473569650000E9    -3.840502625701234E-1   -3.847373014599952E-1    1.368648808367463E-3   -1.807696405990263E-3    1.399289855370440E-3   -1.876152489586867E-3   -3.839262666281269E-1   -2.605852842456646E-1
 8.181549035800000E9    -3.877270303693752E-1   -3.809393112511900E-1    1.349714982101348E-3   -1.783431203631884E-3    1.386074651497894E-3   -1.907370151842822E-3   -3.862957534059380E-1   -2.570998425382228E-1
 8.181624501950000E9    -3.913852951574861E-1   -3.772768932386765E-1    1.346461836676115E-3   -1.811240747142872E-3    1.373085504539053E-3   -1.911378447914466E-3   -3.885220733342085E-1   -2.536613654518581E-1
 8.181699968100000E9    -3.950113234215570E-1   -3.733963337465602E-1    1.313498285263970E-3   -1.824429564761473E-3    1.308778971538099E-3   -1.916959739284605E-3   -3.906812089793556E-1   -2.498302007343424E-1
 8.181775434250000E9    -3.985036284819810E-1   -3.696418947042056E-1    1.304639260466334E-3   -1.856100290579610E-3    1.319779612964914E-3   -1.913947601964106E-3   -3.930137125854736E-1   -2.462699131994009E-1
 8.181850900400000E9    -4.021434426377146E-1   -3.656154450311779E-1    1.296184667935190E-3   -1.851292630745594E-3    1.296966937567813E-3   -1.951266082774514E-3   -3.951809235213471E-1   -2.426747495201349E-1
 8.181926366550000E9    -4.055434776786512E-1   -3.618343642414751E-1    1.254593905810367E-3   -1.873790869400226E-3    1.293830818460289E-3   -1.951642637465279E-3   -3.973346965407211E-1   -2.389505893475391E-1
 8.182001832700000E9    -4.089215777471291E-1   -3.576992006426800E-1    1.244619008601370E-3   -1.857014420588653E-3    1.273040721106635E-3   -1.969703543573083E-3   -3.993160033076992E-1   -2.354496722653521E-1
 8.182077298850000E9    -4.124144473357614E-1   -3.539744365051800E-1    1.243102323482420E-3   -1.896485540523780E-3    1.252969100621118E-3   -1.985837293513153E-3   -4.012927381915555E-1   -2.318242241197833E-1
 8.182152765000000E9    -4.156696806936823E-1   -3.499672386147130E-1    1.215062488810390E-3   -1.897478925530311E-3    1.216127574150599E-3   -1.991670633780948E-3   -4.033351061724775E-1   -2.279718311274818E-1
 8.182228231150000E9    -4.191437750257554E-1   -3.459619807411561E-1    1.202097520428266E-3   -1.891648999317509E-3    1.202303812461476E-3   -2.009641153991209E-3   -4.054470807818706E-1   -2.243891348329341E-1
 8.182303697300000E9    -4.223175474998889E-1   -3.419469703554908E-1    1.191555447035302E-3   -1.927688143585027E-3    1.214354261351923E-3   -2.040443743305199E-3   -4.073959192845935E-1   -2.206704227154799E-1
 8.182379163450000E9    -4.257286166642014E-1   -3.376260323442481E-1    1.162097606077274E-3   -1.953743208859848E-3    1.213095104290826E-3   -1.982210679098071E-3   -4.092591577431579E-1   -2.169720275556402E-1
 8.182454629600000E9    -4.290547169298576E-1   -3.336226980148527E-1    1.136203678323591E-3   -1.958633777878063E-3    1.197549858810301E-3   -2.039996020007493E-3   -4.111821830843901E-1   -2.131108022387992E-1
 8.182530095750000E9    -4.320433027370782E-1   -3.294030875293975E-1    1.128113319775343E-3   -1.972881426419517E-3    1.159377259962813E-3   -2.020609598212069E-3   -4.129611078813341E-1   -2.093605111413756E-1
 8.182605561900000E9    -4.352513683350376E-1   -3.251679268481716E-1    1.112657913207293E-3   -1.977032999320174E-3    1.147130695450989E-3   -2.074483176856553E-3   -4.148244476290892E-1   -2.056045422219201E-1
 8.182681028050000E9    -4.383826649274630E-1   -3.209757786090852E-1    1.092572340887030E-3   -1.998984487725951E-3    1.104497911815188E-3   -2.060944488920450E-3   -4.166844864701246E-1   -2.018021777591856E-1
 8.182756494200000E9    -4.413404954617315E-1   -3.167309961778869E-1    1.092883949337849E-3   -1.986523150667076E-3    1.090826069402141E-3   -2.049071734933944E-3   -4.182745864541452E-1   -1.979130483333767E-1
 8.182831960350000E9    -4.443910419471374E-1   -3.125412128607510E-1    1.055830765062263E-3   -2.020849929461121E-3    1.046619184583631E-3   -2.061469772911469E-3   -4.200415954862707E-1   -1.940959904446463E-1
 8.182907426500000E9    -4.473837132157394E-1   -3.082824114470043E-1    1.031161664910237E-3   -2.017287179346028E-3    1.065888698840116E-3   -2.102101970732865E-3   -4.219133154594382E-1   -1.903722150879832E-1
 8.182982892650000E9    -4.503017032481247E-1   -3.037735705775088E-1    1.020878431365270E-3   -2.017648808891943E-3    1.017760586785237E-3   -2.108878819815677E-3   -4.232207421350214E-1   -1.863658825255364E-1
 8.183058358800000E9    -4.532396771307532E-1   -2.994776432694742E-1    1.012146918088570E-3   -2.028402216243314E-3    1.038125077414294E-3   -2.135564651781594E-3   -4.249913585921209E-1   -1.826479107723711E-1
 8.183133824950000E9    -4.560536295872230E-1   -2.951230925634777E-1    9.972615642959393E-4   -2.023011871125718E-3    9.571884951533828E-4   -2.139338976640036E-3   -4.266696223631487E-1   -1.786676201608092E-1
 8.183209291100000E9    -4.590154104746502E-1   -2.906698960708414E-1    9.612174135000215E-4   -2.063595119780633E-3    9.962464963717769E-4   -2.134994549941005E-3   -4.280116695620726E-1   -1.747405238882803E-1
 8.183284757250000E9    -4.618137553631496E-1   -2.861154857625970E-1    9.559455706737013E-4   -2.054912219979148E-3    9.692425617736821E-4   -2.186101367162278E-3   -4.294820012379496E-1   -1.707062105142196E-1
 8.183360223400000E9    -4.642788755711234E-1   -2.817936720884741E-1    9.370893733338877E-4   -2.075406639110499E-3    9.525043005990624E-4   -2.124917222492838E-3   -4.310391041389441E-1   -1.668783076063661E-1
 8.183435689550000E9    -4.671892273354449E-1   -2.770789018296196E-1    9.336311110019409E-4   -2.068112648736629E-3    9.046914173321451E-4   -2.211870663681988E-3   -4.323469874055691E-1   -1.629234732829203E-1
 8.183511155700000E9    -4.697063213916485E-1   -2.726390505520027E-1    9.057468169503078E-4   -2.108973651727466E-3    8.862453249023499E-4   -2.185332463859881E-3   -4.338626030735762E-1   -1.591133192185987E-1
 8.183586621850000E9    -4.722944494060632E-1   -2.681418476545490E-1    9.088117482741205E-4   -2.081402088457744E-3    8.776014983390682E-4   -2.183995364906623E-3   -4.351145284915970E-1   -1.550748061559606E-1
 8.183662088000000E9    -4.748698192621739E-1   -2.635000186720712E-1    8.677275814497607E-4   -2.122272223849398E-3    8.364263120616966E-4   -2.204260626436937E-3   -4.364571084545161E-1   -1.510827430161426E-1
 8.183737554150000E9    -4.773597524832438E-1   -2.588843813282137E-1    8.369697978464893E-4   -2.127765246489401E-3    8.424056693930324E-4   -2.196495545793276E-3   -4.379016731042216E-1   -1.470352078034741E-1
 8.183813020300000E9    -4.799028333692536E-1   -2.542418680218507E-1    8.118985775004013E-4   -2.162183027361183E-3    8.252911280197123E-4   -2.240877218365571E-3   -4.389062738410328E-1   -1.431164050897480E-1
 8.183888486450000E9    -4.823828957215293E-1   -2.496457146759030E-1    7.976255346689099E-4   -2.121861069435727E-3    7.964725093036414E-4   -2.228281088707507E-3   -4.402025676106865E-1   -1.389968429753845E-1
 8.183963952600000E9    -4.845923239845448E-1   -2.449400006401944E-1    7.583025744522715E-4   -2.161106426783099E-3    7.891214908561840E-4   -2.223903499387576E-3   -4.413182629260904E-1   -1.349242716550513E-1
 8.184039418750000E9    -4.870076641172647E-1   -2.402313831785740E-1    7.524400176061004E-4   -2.159031658409204E-3    7.494165690437588E-4   -2.190713990753580E-3   -4.426335076650189E-1   -1.308199118788008E-1
 8.184114884900000E9    -4.892598359200724E-1   -2.354283139625036E-1    7.411629334813338E-4   -2.163606791647716E-3    7.298838651432210E-4   -2.270167614799419E-3   -4.435151712613095E-1   -1.268888030197105E-1
 8.184190351050000E9    -4.914871118424260E-1   -2.306341886599672E-1    7.192688213520965E-4   -2.152819765177298E-3    7.502305654138289E-4   -2.251688345740218E-3   -4.445613337683820E-1   -1.228648004084307E-1
 8.184265817200000E9    -4.937875266499146E-1   -2.259708317816698E-1    6.991508792733786E-4   -2.163504792838534E-3    6.949492027687578E-4   -2.236241198066427E-3   -4.458340086614008E-1   -1.187727189717567E-1
 8.184341283350000E9    -4.958660453729025E-1   -2.210955650730515E-1    6.739834947162775E-4   -2.177231030022298E-3    7.021227189042245E-4   -2.252954347422449E-3   -4.466501615518850E-1   -1.145419051346519E-1
 8.184416749500000E9    -4.978124806318595E-1   -2.163499970424129E-1    6.374620139549303E-4   -2.186050228100733E-3    6.492133301242256E-4   -2.265109699275905E-3   -4.477970258103840E-1   -1.105866743208807E-1
 8.184492215650000E9    -5.000501710310119E-1   -2.115288898033973E-1    6.175508370827060E-4   -2.193170821250260E-3    6.630824648779564E-4   -2.302852260425240E-3   -4.483664369335682E-1   -1.064529314313032E-1
 8.184567681800000E9    -5.020756420292131E-1   -2.066698933938934E-1    6.362269825707298E-4   -2.198353849417931E-3    6.105246578861977E-4   -2.311243871438199E-3   -4.494329630103367E-1   -1.024871328239566E-1
 8.184643147950000E9    -5.040071646670166E-1   -2.018065382636414E-1    6.219794370339093E-4   -2.212395138672560E-3    6.099243088178020E-4   -2.289919040709497E-3   -4.503117733827747E-1   -9.831488894462902E-2
 8.184718614100000E9    -5.057642167463389E-1   -1.969156936887008E-1    5.826254399363136E-4   -2.221907122327571E-3    5.768282267521899E-4   -2.312654988387958E-3   -4.511006621453469E-1   -9.402838210669186E-2
 8.184794080250000E9    -5.078141477252195E-1   -1.919013229406404E-1    5.694247237457649E-4   -2.234086022032466E-3    5.264843656527824E-4   -2.299203140719215E-3   -4.519289997462153E-1   -9.001101012993969E-2
 8.184869546400000E9    -5.095178420868994E-1   -1.868661452964670E-1    5.474268900492871E-4   -2.234555979760027E-3    5.249989424226083E-4   -2.323835447725633E-3   -4.524141019121141E-1   -8.599211670995478E-2
 8.184945012550000E9    -5.114063736679936E-1   -1.819938921230616E-1    5.064112736773694E-4   -2.240556672294830E-3    4.879273166850122E-4   -2.352832967811761E-3   -4.531289897519010E-1   -8.187549525410204E-2
 8.185020478700000E9    -5.129473114355997E-1   -1.770810671915189E-1    5.041481766342127E-4   -2.220000037570430E-3    4.678975740951776E-4   -2.337260236233435E-3   -4.537915849600838E-1   -7.769854419101636E-2
 8.185095944850000E9    -5.147409126968356E-1   -1.720019924205631E-1    4.802054614092985E-4   -2.259305342161041E-3    4.811360285915450E-4   -2.329483068061414E-3   -4.546616005991043E-1   -7.349264274982981E-2
 8.185171411000000E9    -5.163295150608898E-1   -1.670367561581749E-1    4.449911956575474E-4   -2.267194997863303E-3    4.147078775763676E-4   -2.353084083635578E-3   -4.551653415784456E-1   -6.925176741411286E-2
 8.185246877150000E9    -5.179067332472571E-1   -1.621591926697433E-1    4.386206160022743E-4   -2.258371009290625E-3    4.179090293465925E-4   -2.355374410013385E-3   -4.557589927695659E-1   -6.524264273075227E-2
 8.185322343300000E9    -5.193827096229723E-1   -1.570295590337875E-1    3.999779793983198E-4   -2.250762234602484E-3    4.122109587735880E-4   -2.368595956118809E-3   -4.562554197231152E-1   -6.112447486821389E-2
 8.185397809450000E9    -5.208935670768788E-1   -1.520698295144791E-1    3.867883459072383E-4   -2.266984229995490E-3    3.744240388116388E-4   -2.374875468083001E-3   -4.567472541082841E-1   -5.674034275470583E-2
 8.185473275600000E9    -5.223093892592505E-1   -1.468610974964291E-1    3.875797616350588E-4   -2.270336468839920E-3    3.341503307637475E-4   -2.339517117844130E-3   -4.570318495657464E-1   -5.271059282796096E-2
 8.185548741750000E9    -5.237334566599682E-1   -1.419650684481703E-1    3.561136029476875E-4   -2.276560865873579E-3    3.454350937162589E-4   -2.374924465311198E-3   -4.574378468313806E-1   -4.854983717660263E-2
 8.185624207900000E9    -5.250202384091421E-1   -1.368148460487894E-1    3.554836495622681E-4   -2.282732462480836E-3    2.889888175244104E-4   -2.333225939889598E-3   -4.577250568361046E-1   -4.442963257098651E-2
 8.185699674050000E9    -5.263028750313432E-1   -1.317267118829454E-1    3.383715979852383E-4   -2.312446085576672E-3    3.068080472304126E-4   -2.343943493827100E-3   -4.581333972542956E-1   -4.017552132601000E-2
 8.185775140200000E9    -5.274570662351405E-1   -1.265732481931372E-1    2.882523666854450E-4   -2.280264502970875E-3    2.949241718001406E-4   -2.409004835747674E-3   -4.583426142290961E-1   -3.607729326908098E-2
 8.185850606350000E9    -5.286912391619778E-1   -1.213468550622762E-1    3.018047928357544E-4   -2.296549169800002E-3    2.383518829563804E-4   -2.399246681236205E-3   -4.587250337345500E-1   -3.167266706624558E-2
 8.185926072500000E9    -5.297636706386200E-1   -1.163249852635136E-1    2.734599054462629E-4   -2.283567247168748E-3    1.887099630190188E-4   -2.361730710423247E-3   -4.587308000642093E-1   -2.771323651080169E-2
 8.186001538650000E9    -5.309344058815708E-1   -1.111639647445324E-1    2.322826444732998E-4   -2.284832909104261E-3    2.008965909133274E-4   -2.391698205714592E-3   -4.589641636884566E-1   -2.357888352932199E-2
 8.186077004800000E9    -5.319081760709171E-1   -1.060075806026345E-1    2.025860139545549E-4   -2.279494841959067E-3    1.871239038497465E-4   -2.389437452204597E-3   -4.589714629405634E-1   -1.903483181017560E-2
 8.186152470950000E9    -5.330153342585205E-1   -1.007467905073030E-1    1.828048519055199E-4   -2.326948399907914E-3    1.819388599899375E-4   -2.412840457410713E-3   -4.590389777341161E-1   -1.511144454644514E-2
 8.186227937100000E9    -5.339280300410059E-1   -9.565735995533453E-2    1.483060496137346E-4   -2.307199658098956E-3    1.086962772066203E-4   -2.384654402812018E-3   -4.590949956509265E-1   -1.097766119817556E-2
 8.186303403250000E9    -5.347316995033836E-1   -9.046969862992979E-2    1.510897339067563E-4   -2.317384843546722E-3    1.246573150840399E-4   -2.432497083728133E-3   -4.591460169759209E-1   -6.648463067735653E-3
 8.186378869400000E9    -5.355884642187587E-1   -8.526220864926638E-2    1.123942305493925E-4   -2.336297348723868E-3    6.700159221379424E-5   -2.423194292021812E-3   -4.590982875468875E-1   -2.556754498016478E-3
 8.186454335550000E9    -5.363895845493937E-1   -8.001203043978243E-2    1.064927333838461E-4   -2.305706627455471E-3    7.772828108165541E-5   -2.406903873496940E-3   -4.591113559357449E-1    1.613076764609074E-3
 8.186529801700000E9    -5.370991695129151E-1   -7.481276081022144E-2    6.733704391157614E-5   -2.321697270412920E-3    4.754923442384917E-5   -2.422044437137415E-3   -4.589208009441901E-1    5.791687384486379E-3
 8.186605267850000E9    -5.376509466971803E-1   -6.953829461327721E-2    7.247294421092731E-5   -2.303227051755592E-3    1.928820031660591E-5   -2.443447210124300E-3   -4.588252570856179E-1    9.926259312234183E-3
 8.186680734000000E9    -5.385042417347081E-1   -6.432006268972276E-2    5.066011455700155E-5   -2.311461400840804E-3   -4.485985009264803E-7   -2.386912936897257E-3   -4.585502201098978E-1    1.414569613891234E-2
 8.186756200150000E9    -5.390679898233911E-1   -5.918489476427047E-2   -1.193862959128255E-5   -2.323373580288276E-3   -1.280010789144062E-5   -2.437171045746034E-3   -4.584096725884823E-1    1.837840450473999E-2
 8.186831666300000E9    -5.394847677291105E-1   -5.379502871251569E-2    3.840295960775624E-6   -2.324709846435952E-3   -3.615232008021663E-5   -2.420345435312711E-3   -4.580206852315579E-1    2.245669428293265E-2
 8.186907132450000E9    -5.399561138204403E-1   -4.859903746378267E-2   -3.017813443627111E-6   -2.319536770734947E-3   -7.976251613172261E-5   -2.426055926372205E-3   -4.579257318643900E-1    2.678260308434994E-2
 8.186982598600000E9    -5.404087054516358E-1   -4.329575802484908E-2   -6.652007900957543E-5   -2.323107095567287E-3   -8.869575274792304E-5   -2.423302141483050E-3   -4.573437596016842E-1    3.081802774399601E-2
 8.187058064750000E9    -5.407562929133189E-1   -3.811377670380311E-2   -8.260635746579670E-5   -2.332389452077535E-3   -1.081447577888330E-4   -2.429837376248749E-3   -4.571981095376088E-1    3.502086080650582E-2
 8.187133530900000E9    -5.410636040222281E-1   -3.267801346179733E-2   -8.824899021523143E-5   -2.330642476600333E-3   -1.569843396300882E-4   -2.413808119378357E-3   -4.567082343344793E-1    3.914049545706708E-2
 8.187208997050000E9    -5.413770380254697E-1   -2.767578899084834E-2   -1.355734100582283E-4   -2.323649310365458E-3   -1.794815924873161E-4   -2.410336785661833E-3   -4.563323644952182E-1    4.358270833006646E-2
 8.187284463200000E9    -5.414717353779842E-1   -2.228065772831349E-2   -1.398768811172488E-4   -2.323796132469975E-3   -1.716568028658580E-4   -2.433388692099647E-3   -4.557435768148058E-1    4.755514242489296E-2
 8.187359929350000E9    -5.417712696390224E-1   -1.713405475144102E-2   -1.485965937131563E-4   -2.314864485189772E-3   -2.463094192697205E-4   -2.400247664677813E-3   -4.551733128262774E-1    5.180823154112038E-2
 8.187435395500000E9    -5.419071081092941E-1   -1.181518110101408E-2   -1.922386161253991E-4   -2.334824512970753E-3   -2.601773709372546E-4   -2.414318023163753E-3   -4.544822823027070E-1    5.587754558903670E-2
