#  HZ   S   RI   R     50.00 
! Rohde & Schwarz Vector Network Analyzer 
! Rohde-Schwarz,ZNB20-2Port,1311601062101988,3.16
! Created: UTC 3/20/2024, 5:11:58 PM
! freq[Hz]                re:S11                  im:S11                  re:S21                  im:S21                  re:S12                  im:S12                  re:S22                  im:S22
 8.194988963000000E9    -3.093189692018518E-1    4.398510763362026E-1   -2.265480361960667E-3   -1.332626288157670E-3   -2.391771848155550E-3   -1.289606185520193E-3   -2.240372451348177E-1    3.898368105506858E-1
 8.195000239350000E9    -3.085914575453246E-1    4.405205330864061E-1   -2.254252220436794E-3   -1.320378685926308E-3   -2.398242714772113E-3   -1.303091158519601E-3   -2.233994691423569E-1    3.902693889131090E-1
 8.195011515700000E9    -3.080431340050390E-1    4.410295141905223E-1   -2.262690848852603E-3   -1.329665371041291E-3   -2.358678831585153E-3   -1.281561041363940E-3   -2.229754487110830E-1    3.904159056906084E-1
 8.195022792050000E9    -3.073433794587723E-1    4.415457099715371E-1   -2.237896921634170E-3   -1.331355711567807E-3   -2.373272479902531E-3   -1.269196601425506E-3   -2.223134428457232E-1    3.908199294923669E-1
 8.195034068400000E9    -3.065552770763395E-1    4.417789228387819E-1   -2.285188577505645E-3   -1.334264753185352E-3   -2.357715743421691E-3   -1.253910179706609E-3   -2.217602843954803E-1    3.911224990293375E-1
 8.195045344750000E9    -3.060128338508868E-1    4.423010097663916E-1   -2.259818762912830E-3   -1.317236997065041E-3   -2.374576253209665E-3   -1.274734554089363E-3   -2.213334407464915E-1    3.913406839363574E-1
 8.195056621100000E9    -3.051297789241139E-1    4.428439206895216E-1   -2.281633565874578E-3   -1.308823596385966E-3   -2.382361636483046E-3   -1.238949247374647E-3   -2.206388574865925E-1    3.916271682393318E-1
 8.195067897450000E9    -3.046444261837544E-1    4.432101315834187E-1   -2.274056243088171E-3   -1.298450829132794E-3   -2.357661087106237E-3   -1.246759719096882E-3   -2.200572980118381E-1    3.920533085215140E-1
 8.195079173800000E9    -3.039814203181637E-1    4.436365303040381E-1   -2.280305692049888E-3   -1.297595528733834E-3   -2.383692602950093E-3   -1.248555141712053E-3   -2.194896405456661E-1    3.922981750573429E-1
 8.195090450150000E9    -3.032819372312703E-1    4.440126894647896E-1   -2.301975086928920E-3   -1.314386304210613E-3   -2.392181858362784E-3   -1.264050460426620E-3   -2.188671216658206E-1    3.925495628027567E-1
 8.195101726500000E9    -3.027227443629286E-1    4.445041970250938E-1   -2.288423463824959E-3   -1.300685193363409E-3   -2.390508537584506E-3   -1.233231535445322E-3   -2.184125415183457E-1    3.927166615823223E-1
 8.195113002850000E9    -3.019323327469888E-1    4.449425889465828E-1   -2.292056605735571E-3   -1.300731552645848E-3   -2.399420872714660E-3   -1.238005322248802E-3   -2.177936267113007E-1    3.931424053903038E-1
 8.195124279200000E9    -3.012780063357441E-1    4.454731333947678E-1   -2.292396952637786E-3   -1.316596050398665E-3   -2.375528473773458E-3   -1.271504004863488E-3   -2.173888984529549E-1    3.933934254421579E-1
 8.195135555550000E9    -3.005724546851091E-1    4.458616684697296E-1   -2.274581454067027E-3   -1.291968763772350E-3   -2.385168095997101E-3   -1.240385140783564E-3   -2.167330714607202E-1    3.938150301658855E-1
 8.195146831900000E9    -2.999422848630742E-1    4.461924697738602E-1   -2.274593837312469E-3   -1.290508430725100E-3   -2.384781712196360E-3   -1.233688045168431E-3   -2.161491379853996E-1    3.940029757187814E-1
 8.195158108250000E9    -2.993177566600507E-1    4.467487288321920E-1   -2.309014751161910E-3   -1.280939417495298E-3   -2.421754299702821E-3   -1.293001820596392E-3   -2.156800703445655E-1    3.944029338676291E-1
 8.195169384600000E9    -2.985490687700422E-1    4.471680068458669E-1   -2.324254619352329E-3   -1.300102007282311E-3   -2.411362039948254E-3   -1.245213885910226E-3   -2.150650976166652E-1    3.945403161765012E-1
 8.195180660950000E9    -2.979793071528606E-1    4.476474905071072E-1   -2.312309981550176E-3   -1.305149501140727E-3   -2.415791622036207E-3   -1.219948574406010E-3   -2.144799783395606E-1    3.949964034182202E-1
 8.195191937300000E9    -2.972695590619681E-1    4.480800301814170E-1   -2.312124300553979E-3   -1.271118118922959E-3   -2.428272276236813E-3   -1.217940037285989E-3   -2.139398211828898E-1    3.952756815992384E-1
 8.195203213650000E9    -2.965821320878789E-1    4.484835494491178E-1   -2.306823015706396E-3   -1.283201502308547E-3   -2.419986556278919E-3   -1.226230921365295E-3   -2.132587876781054E-1    3.954525932736178E-1
 8.195214490000000E9    -2.959865793255647E-1    4.489657800680812E-1   -2.318038162784239E-3   -1.273038557485320E-3   -2.407794865851664E-3   -1.215344362242605E-3   -2.128152024936841E-1    3.958457626759573E-1
 8.195225766350000E9    -2.952037732296763E-1    4.493208679032490E-1   -2.341594751089349E-3   -1.249522733468627E-3   -2.420291617486607E-3   -1.225553434287068E-3   -2.122064280176171E-1    3.961826288798612E-1
 8.195237042700000E9    -2.945327071143272E-1    4.498318696312162E-1   -2.330178975490129E-3   -1.269919595838800E-3   -2.422639375305956E-3   -1.240463941626624E-3   -2.115614435826140E-1    3.962885836046796E-1
 8.195248319050000E9    -2.938968880887418E-1    4.501882831473130E-1   -2.315999189251849E-3   -1.282565691020177E-3   -2.416704575572480E-3   -1.218874938639534E-3   -2.110658996278033E-1    3.966168462042174E-1
 8.195259595400000E9    -2.931880189363842E-1    4.506150936103336E-1   -2.310931092157693E-3   -1.249437118089791E-3   -2.430681017170349E-3   -1.227423270629915E-3   -2.104714171870593E-1    3.967967262688729E-1
 8.195270871750000E9    -2.926235176785483E-1    4.511130326395930E-1   -2.346040199961690E-3   -1.256700634512661E-3   -2.449435382697437E-3   -1.225251480073746E-3   -2.100280983302356E-1    3.971616115720066E-1
 8.195282148100000E9    -2.918151186822431E-1    4.516087005687939E-1   -2.309475936976865E-3   -1.245002091342727E-3   -2.459533065101810E-3   -1.208002970357218E-3   -2.092852765490425E-1    3.973326019527078E-1
 8.195293424450000E9    -2.912496919703387E-1    4.520146757434539E-1   -2.347454042852329E-3   -1.249582569377431E-3   -2.437853131921465E-3   -1.186261345416343E-3   -2.087041141374884E-1    3.977053645600210E-1
 8.195304700800000E9    -2.905148674791138E-1    4.522821013282696E-1   -2.337361011843693E-3   -1.228273927603880E-3   -2.407291995295735E-3   -1.208439203970301E-3   -2.082907293573162E-1    3.981095874958939E-1
 8.195315977150000E9    -2.898295814871376E-1    4.527022431406434E-1   -2.326993219899955E-3   -1.227099097074429E-3   -2.463980264952227E-3   -1.175226169056371E-3   -2.076978652058268E-1    3.983052460028023E-1
 8.195327253500000E9    -2.892629640447814E-1    4.531781360715177E-1   -2.364056842585921E-3   -1.237542802635395E-3   -2.428683696701467E-3   -1.174697415356554E-3   -2.070985152067113E-1    3.984573584224443E-1
 8.195338529850000E9    -2.883724218954294E-1    4.535010287193232E-1   -2.348977384670306E-3   -1.238123023957391E-3   -2.455166643081487E-3   -1.197631199213716E-3   -2.065241236138632E-1    3.987931706128142E-1
 8.195349806200000E9    -2.877577079427741E-1    4.541585840206805E-1   -2.336724671380637E-3   -1.237896830200021E-3   -2.460640926937375E-3   -1.178124730045045E-3   -2.060215067786069E-1    3.991080084499937E-1
 8.195361082550000E9    -2.872777906460172E-1    4.545404255549515E-1   -2.378802259495355E-3   -1.225634559836503E-3   -2.428836083300673E-3   -1.204137471527002E-3   -2.053932679449674E-1    3.993561658872604E-1
 8.195372358900000E9    -2.863356096849997E-1    4.548623352732373E-1   -2.340671424647477E-3   -1.238364249394026E-3   -2.466130205134385E-3   -1.220368563033825E-3   -2.048292579203463E-1    3.998026707997600E-1
 8.195383635250000E9    -2.857001893064022E-1    4.554287865496424E-1   -2.331897582585616E-3   -1.267060257881310E-3   -2.444213817228271E-3   -1.194702108135638E-3   -2.043039179539383E-1    3.999877451619100E-1
 8.195394911600000E9    -2.852062978683513E-1    4.556111558049535E-1   -2.390211176234573E-3   -1.232766948119804E-3   -2.461946696644625E-3   -1.164223919431790E-3   -2.037039384316423E-1    4.002197666948713E-1
 8.195406187950000E9    -2.843525511876934E-1    4.560937545661864E-1   -2.361565259435368E-3   -1.237847209413860E-3   -2.428190244502400E-3   -1.170740857034899E-3   -2.029745484999732E-1    4.005111439774410E-1
 8.195417464300000E9    -2.836745026378313E-1    4.563912970833817E-1   -2.359942239712268E-3   -1.240523438692694E-3   -2.447891427837124E-3   -1.154522725245689E-3   -2.025591371671771E-1    4.006465490895461E-1
 8.195428740650000E9    -2.830148810501106E-1    4.568856506659890E-1   -2.383969473153032E-3   -1.225965757391199E-3   -2.480279876881083E-3   -1.142780008036957E-3   -2.019455055677944E-1    4.008934614070443E-1
 8.195440017000000E9    -2.824602784140784E-1    4.573116469953999E-1   -2.372411974465173E-3   -1.243685280792878E-3   -2.459621571559968E-3   -1.151262989316610E-3   -2.014338982295690E-1    4.013014985058982E-1
 8.195451293350000E9    -2.816505589153310E-1    4.577247597863172E-1   -2.379134747276621E-3   -1.199287562617348E-3   -2.472546853131563E-3   -1.145045624245896E-3   -2.008164849817091E-1    4.013834963911948E-1
 8.195462569700000E9    -2.810037326684783E-1    4.582127117223780E-1   -2.406812566379285E-3   -1.214747163103751E-3   -2.470526071574284E-3   -1.182919149289757E-3   -2.003413828520681E-1    4.016554208697695E-1
 8.195473846050000E9    -2.802983089822081E-1    4.585787660561311E-1   -2.376938842520676E-3   -1.212645005571114E-3   -2.475812334896771E-3   -1.146794526558640E-3   -1.996177214259619E-1    4.021684752164449E-1
 8.195485122400000E9    -2.796099322017362E-1    4.589658696382721E-1   -2.399585515208269E-3   -1.195934648833719E-3   -2.475723156736957E-3   -1.185810158568622E-3   -1.991106167640907E-1    4.023950107474229E-1
 8.195496398750000E9    -2.789614188767161E-1    4.593926552314342E-1   -2.375640251875275E-3   -1.211793391740432E-3   -2.499559276893712E-3   -1.166116026696094E-3   -1.984085218781714E-1    4.025789513868980E-1
 8.195507675100000E9    -2.783366982183896E-1    4.597420554673751E-1   -2.365199912320216E-3   -1.200656095904562E-3   -2.476999317959358E-3   -1.119746535939009E-3   -1.979408951759192E-1    4.029736745098983E-1
 8.195518951450000E9    -2.775587500300098E-1    4.602366639182735E-1   -2.409951320030156E-3   -1.200636290999550E-3   -2.496527427077127E-3   -1.153852184121552E-3   -1.974710693103034E-1    4.031467306598253E-1
 8.195530227800000E9    -2.769057082136975E-1    4.606329668335857E-1   -2.387227618558586E-3   -1.189516731315475E-3   -2.486956974343867E-3   -1.133119533079688E-3   -1.968212991499278E-1    4.032755384067123E-1
 8.195541504150000E9    -2.761570626178933E-1    4.609989886538652E-1   -2.387504253214657E-3   -1.192485549361655E-3   -2.504509445528210E-3   -1.135438917524697E-3   -1.962540834632710E-1    4.037752629491118E-1
 8.195552780500000E9    -2.754576503751833E-1    4.615100309547207E-1   -2.399558022253109E-3   -1.194761340269544E-3   -2.497240203298914E-3   -1.121553025213013E-3   -1.955803280706236E-1    4.039904781031675E-1
 8.195564056850000E9    -2.747299917242992E-1    4.617457967805537E-1   -2.405383894889590E-3   -1.189314769944535E-3   -2.490719401163143E-3   -1.110300670894113E-3   -1.949845013165127E-1    4.041581846640196E-1
 8.195575333200000E9    -2.740306555376509E-1    4.620974226439527E-1   -2.372960731645837E-3   -1.202709879913496E-3   -2.501601404514838E-3   -1.104033973186204E-3   -1.944780810697941E-1    4.043405646844305E-1
 8.195586609550000E9    -2.733325970940045E-1    4.626361399887598E-1   -2.421139156229214E-3   -1.174826088252522E-3   -2.479697957084630E-3   -1.111755051320069E-3   -1.938761180303145E-1    4.047249794531969E-1
 8.195597885900000E9    -2.727721790248741E-1    4.629617781303945E-1   -2.390617564787600E-3   -1.168446291176573E-3   -2.515446342534531E-3   -1.076363542390722E-3   -1.933668058567714E-1    4.048470801503866E-1
 8.195609162250000E9    -2.720838902891485E-1    4.633661442188080E-1   -2.420075424162221E-3   -1.174404958516860E-3   -2.502737580045816E-3   -1.103370294321322E-3   -1.927142087177678E-1    4.052929130978712E-1
 8.195620438600000E9    -2.713478857022745E-1    4.638608461192001E-1   -2.389487853464300E-3   -1.174555086640703E-3   -2.504137949187682E-3   -1.132529444398837E-3   -1.922450907253107E-1    4.055034366164481E-1
 8.195631714950000E9    -2.704362734904416E-1    4.642858933694886E-1   -2.412793738843792E-3   -1.171139800860304E-3   -2.550068164701928E-3   -1.107025056693656E-3   -1.916662691142983E-1    4.057528381117296E-1
 8.195642991300000E9    -2.698113727279203E-1    4.647065029220140E-1   -2.409165410919666E-3   -1.157282987124457E-3   -2.490668221833052E-3   -1.107527951997631E-3   -1.910395708007438E-1    4.059044670333595E-1
 8.195654267650000E9    -2.691400818225155E-1    4.650519677308598E-1   -2.411582726705132E-3   -1.156087422011922E-3   -2.523665813153014E-3   -1.092389075054298E-3   -1.903641430528224E-1    4.061884761367209E-1
 8.195665544000000E9    -2.684807547345292E-1    4.653885914440952E-1   -2.415696798316242E-3   -1.147704535978868E-3   -2.532800864279955E-3   -1.083230127753439E-3   -1.897469311841461E-1    4.064181306188669E-1
 8.195676820350000E9    -2.678159376827525E-1    4.656233556316979E-1   -2.396162717885137E-3   -1.170763095592631E-3   -2.544490353846409E-3   -1.093295874775494E-3   -1.892972155101206E-1    4.067879430074552E-1
 8.195688096700000E9    -2.671441818627704E-1    4.662011663538673E-1   -2.457803624012044E-3   -1.138165098034326E-3   -2.544628825403192E-3   -1.075252435694083E-3   -1.887065045506984E-1    4.070542424987963E-1
 8.195699373050000E9    -2.663963364318366E-1    4.665102300010368E-1   -2.453826046178934E-3   -1.132565704468839E-3   -2.539540961829752E-3   -1.081605535149988E-3   -1.881353147685938E-1    4.071485126896593E-1
 8.195710649400000E9    -2.656723913008489E-1    4.669385201327125E-1   -2.442526120133152E-3   -1.166323730638024E-3   -2.562280549258734E-3   -1.085724734608484E-3   -1.875446688866036E-1    4.075382372092284E-1
 8.195721925750000E9    -2.650312908397621E-1    4.674301938862063E-1   -2.459231044555400E-3   -1.160139494447580E-3   -2.559590929688911E-3   -1.066988540632912E-3   -1.869830346107338E-1    4.076745001060325E-1
 8.195733202100000E9    -2.643033045944476E-1    4.678026265146761E-1   -2.464131306578714E-3   -1.132836453226572E-3   -2.546844871896678E-3   -1.062214824816232E-3   -1.863190996037156E-1    4.080045397356366E-1
 8.195744478450000E9    -2.636311034306262E-1    4.680366629306169E-1   -2.450129773343149E-3   -1.133612029994500E-3   -2.544332833053989E-3   -1.120357229538185E-3   -1.857310871575981E-1    4.083305525622165E-1
 8.195755754800000E9    -2.630309780704016E-1    4.685085071903999E-1   -2.449566115377346E-3   -1.146249053813512E-3   -2.546942168738121E-3   -1.040776658118400E-3   -1.854031666740783E-1    4.086173144938179E-1
 8.195767031150000E9    -2.621940052698379E-1    4.688325816551154E-1   -2.443191989736968E-3   -1.133422521921589E-3   -2.603423396888719E-3   -1.056032954698327E-3   -1.847299859829231E-1    4.088319419112416E-1
 8.195778307500000E9    -2.615807405524692E-1    4.692288969109221E-1   -2.451577772435794E-3   -1.117948714830142E-3   -2.562545093993260E-3   -1.053065593136272E-3   -1.840542319779238E-1    4.089004785222592E-1
 8.195789583850000E9    -2.607334951575548E-1    4.696099915691007E-1   -2.466388732364275E-3   -1.145874615405428E-3   -2.586200629016368E-3   -1.043421727534729E-3   -1.835333160643565E-1    4.091305148110985E-1
 8.195800860200000E9    -2.601274810974168E-1    4.699067760088056E-1   -2.475352937573109E-3   -1.122107453399220E-3   -2.558543296919572E-3   -1.051207999381359E-3   -1.828556463219156E-1    4.093871873696482E-1
 8.195812136550000E9    -2.593005453421589E-1    4.704093744751561E-1   -2.467288135833373E-3   -1.130265207969412E-3   -2.585191399125775E-3   -1.064233225055473E-3   -1.823006753246925E-1    4.097356418036209E-1
 8.195823412900000E9    -2.585797032714349E-1    4.707141868316789E-1   -2.499267220295124E-3   -1.114574279762491E-3   -2.545939796784296E-3   -1.069213766843101E-3   -1.816969299623188E-1    4.097806773725436E-1
 8.195834689250000E9    -2.579067615804338E-1    4.710551913484413E-1   -2.455690776282296E-3   -1.123783884673244E-3   -2.583755475580378E-3   -1.018034341828758E-3   -1.811625419692801E-1    4.102607727770818E-1
 8.195845965600000E9    -2.571415707650397E-1    4.715550298154829E-1   -2.506106593741898E-3   -1.107856876684135E-3   -2.580276433224976E-3   -1.027921496019628E-3   -1.806532221399540E-1    4.103997430559378E-1
 8.195857241950000E9    -2.566127543374632E-1    4.719139982029578E-1   -2.494748908883936E-3   -1.097336787178215E-3   -2.588688363333647E-3   -1.021328122471806E-3   -1.799848944685696E-1    4.106764577251052E-1
 8.195868518300000E9    -2.558287548711228E-1    4.722002944005130E-1   -2.485484935558267E-3   -1.094396593570884E-3   -2.548713131070053E-3   -1.049348209174895E-3   -1.791962359739238E-1    4.109488363829382E-1
 8.195879794650000E9    -2.552006866541645E-1    4.726622995255357E-1   -2.475085827724193E-3   -1.106103299485765E-3   -2.614313483219490E-3   -1.011838685784480E-3   -1.786397742348300E-1    4.111847651560632E-1
 8.195891071000000E9    -2.543596776603549E-1    4.730121761018636E-1   -2.506423026734696E-3   -1.086122837409368E-3   -2.602390529408882E-3   -1.049572461651545E-3   -1.782216482648839E-1    4.113331331469605E-1
 8.195902347350000E9    -2.537041250603729E-1    4.733919301887675E-1   -2.475831704392763E-3   -1.073126327740023E-3   -2.627316714959877E-3   -1.009984743307962E-3   -1.775036794404095E-1    4.115897941021199E-1
 8.195913623700000E9    -2.530331999737643E-1    4.736992067776840E-1   -2.498799268096628E-3   -1.086755236133537E-3   -2.565494847379167E-3   -1.028259708682398E-3   -1.769981740151966E-1    4.118758566155897E-1
 8.195924900050000E9    -2.522047197903884E-1    4.740986418538410E-1   -2.488068814858688E-3   -1.103964626310035E-3   -2.610143733808939E-3   -9.870550341298044E-4   -1.764023757240890E-1    4.121140080751182E-1
 8.195936176400000E9    -2.514589642173092E-1    4.744213253213519E-1   -2.495698902124569E-3   -1.070170107493302E-3   -2.601861830075892E-3   -1.012066236182743E-3   -1.758559837606473E-1    4.123327624392242E-1
 8.195947452750000E9    -2.507735123669660E-1    4.748068997659533E-1   -2.520282379644999E-3   -1.052176436802864E-3   -2.601180902901201E-3   -9.997788522417739E-4   -1.754179683410024E-1    4.124507053204157E-1
 8.195958729100000E9    -2.501454034267980E-1    4.752377117333404E-1   -2.509075747934654E-3   -1.061930253240364E-3   -2.638147902188782E-3   -1.000620975856921E-3   -1.747404250059312E-1    4.127557076435714E-1
 8.195970005450000E9    -2.493595761123419E-1    4.756540376365052E-1   -2.528844646285921E-3   -1.080716696115349E-3   -2.588543736243486E-3   -9.927150344537976E-4   -1.740577151840903E-1    4.129363213303247E-1
 8.195981281800000E9    -2.486493927883935E-1    4.758755029902032E-1   -2.525221544180254E-3   -1.080259146881233E-3   -2.611777099857319E-3   -9.952630691189069E-4   -1.734686900131552E-1    4.132255272227546E-1
 8.195992558150000E9    -2.480265200294455E-1    4.762798087304703E-1   -2.519355689542948E-3   -1.052895798910233E-3   -2.584571406213337E-3   -9.881323545865776E-4   -1.728027957753848E-1    4.135531829426840E-1
 8.196003834500000E9    -2.473317345364813E-1    4.765967494221041E-1   -2.517967793764995E-3   -1.063969654477918E-3   -2.629538099171182E-3   -9.734524702295356E-4   -1.722831382217801E-1    4.136374296638927E-1
