#  HZ   S   RI   R     50.00 
! Rohde & Schwarz Vector Network Analyzer 
! Rohde-Schwarz,ZNB20-2Port,1311601062101988,3.16
! Created: UTC 3/20/2024, 5:12:07 PM
! freq[Hz]                re:S11                  im:S11                  re:S21                  im:S21                  re:S12                  im:S12                  re:S22                  im:S22
 8.195216925000000E9    -2.958508389424188E-1    4.487821709532294E-1   -2.304624791445397E-3   -1.257173441533663E-3   -2.421662975189726E-3   -1.240272535735629E-3   -2.127048680845643E-1    3.958318146264617E-1
 8.195227203925000E9    -2.952808809225101E-1    4.493596368260198E-1   -2.334872274642445E-3   -1.247992492193722E-3   -2.427320043749394E-3   -1.195337026574392E-3   -2.120607761450563E-1    3.960762886144546E-1
 8.195237482850000E9    -2.946805505906609E-1    4.497488292404609E-1   -2.311873016750037E-3   -1.281811527905920E-3   -2.422548565545571E-3   -1.206035930795856E-3   -2.115955402872458E-1    3.964307840784282E-1
 8.195247761775000E9    -2.940486471565524E-1    4.501108762700142E-1   -2.331442473620788E-3   -1.245952121521398E-3   -2.445776048856752E-3   -1.198689677026685E-3   -2.111896424742653E-1    3.965815731967990E-1
 8.195258040700000E9    -2.933952094424214E-1    4.505460237065956E-1   -2.353006565166046E-3   -1.289090763108448E-3   -2.429332690597710E-3   -1.192545427443752E-3   -2.105886887315358E-1    3.969420938966469E-1
 8.195268319625000E9    -2.927627073553963E-1    4.509755770175000E-1   -2.325029095208015E-3   -1.236811635152423E-3   -2.446832631969747E-3   -1.205192529290031E-3   -2.099313468808525E-1    3.972513311038775E-1
 8.195278598550000E9    -2.921130310761765E-1    4.512878203410287E-1   -2.297344094088224E-3   -1.265979647657080E-3   -2.446250674851392E-3   -1.212242232788479E-3   -2.095016603963985E-1    3.973585798931777E-1
 8.195288877475000E9    -2.915396524158869E-1    4.516627906639654E-1   -2.299374364153970E-3   -1.269608168164835E-3   -2.440208795450385E-3   -1.196909896678297E-3   -2.090313009402856E-1    3.976530915780771E-1
 8.195299156400000E9    -2.909530900211681E-1    4.520056003006888E-1   -2.338390267062406E-3   -1.270327255661595E-3   -2.440272560449170E-3   -1.223970265241663E-3   -2.084851079832611E-1    3.978011758079151E-1
 8.195309435325000E9    -2.901321444988585E-1    4.524649378757249E-1   -2.344482458869812E-3   -1.254707518430305E-3   -2.430605218154637E-3   -1.190233156458989E-3   -2.080895711207421E-1    3.980841062358759E-1
 8.195319714250000E9    -2.896328315905021E-1    4.527887116102561E-1   -2.328575702927443E-3   -1.236759887732715E-3   -2.430725210730226E-3   -1.201251268599234E-3   -2.074857091462722E-1    3.982363450794364E-1
 8.195329993175000E9    -2.890803542074469E-1    4.533201054741854E-1   -2.341961007902078E-3   -1.230544037308062E-3   -2.421542963984526E-3   -1.177884283815093E-3   -2.070029538798049E-1    3.984995720693352E-1
 8.195340272100000E9    -2.882827794852367E-1    4.536084251197257E-1   -2.336807436987066E-3   -1.226310908013308E-3   -2.430140396528635E-3   -1.200204632285981E-3   -2.063638505350023E-1    3.988303266623943E-1
 8.195350551025000E9    -2.878649406222598E-1    4.540696877088373E-1   -2.362962037460655E-3   -1.235411687872996E-3   -2.448438113591417E-3   -1.187607446027981E-3   -2.057791946095868E-1    3.990790669785312E-1
 8.195360829950000E9    -2.871537841403279E-1    4.544478130436279E-1   -2.362133791048994E-3   -1.251480806437944E-3   -2.442598097413327E-3   -1.179319549143700E-3   -2.054711614320299E-1    3.994167357121828E-1
 8.195371108875000E9    -2.864874762332664E-1    4.548900395393843E-1   -2.361167717365218E-3   -1.249353659806713E-3   -2.460913436710084E-3   -1.171495354716942E-3   -2.047616194180576E-1    3.996956412027963E-1
 8.195381387800000E9    -2.859180373035828E-1    4.551529996461752E-1   -2.348521537847942E-3   -1.262349224267248E-3   -2.437675915881319E-3   -1.152662580771938E-3   -2.044500117483198E-1    3.998818615158584E-1
 8.195391666725000E9    -2.852907960732055E-1    4.556052937050262E-1   -2.348331408609949E-3   -1.240366370840631E-3   -2.457657498723596E-3   -1.167191632066031E-3   -2.037412043023179E-1    4.001388269011528E-1
 8.195401945650000E9    -2.847373678266198E-1    4.558638716848723E-1   -2.356368931318318E-3   -1.215922669758218E-3   -2.451708816799916E-3   -1.176767954646862E-3   -2.031818470540838E-1    4.005255923357529E-1
 8.195412224575000E9    -2.839704614483906E-1    4.563553287932980E-1   -2.350311321281583E-3   -1.226449873281328E-3   -2.447125343265680E-3   -1.195754337100310E-3   -2.027701726205012E-1    4.006535103303227E-1
 8.195422503500000E9    -2.834284139509481E-1    4.566605239519573E-1   -2.365854529122879E-3   -1.227929593696788E-3   -2.458138132062145E-3   -1.138481588477357E-3   -2.022840891906600E-1    4.008831916555223E-1
 8.195432782425000E9    -2.826814197474835E-1    4.571049503489566E-1   -2.356053156394734E-3   -1.203323825434115E-3   -2.475120503294621E-3   -1.155120937764939E-3   -2.018110773818728E-1    4.010502244946286E-1
 8.195443061350000E9    -2.822240918556228E-1    4.574144194941606E-1   -2.372518897792352E-3   -1.206258205276911E-3   -2.448944748471145E-3   -1.147249982191085E-3   -2.010691651610408E-1    4.012784877299810E-1
 8.195453340275000E9    -2.815415822329456E-1    4.577017738975522E-1   -2.382230543068995E-3   -1.209069386968302E-3   -2.482090709899750E-3   -1.165306088175812E-3   -2.006589717486070E-1    4.015545807551005E-1
 8.195463619200000E9    -2.808913037209635E-1    4.580996739046140E-1   -2.402680052138514E-3   -1.204742900273770E-3   -2.489818938675907E-3   -1.158854099996263E-3   -2.000726602727776E-1    4.019123085854658E-1
 8.195473898125000E9    -2.804053135036104E-1    4.584772861580582E-1   -2.371429579373036E-3   -1.198093392769945E-3   -2.516873962009719E-3   -1.142494153302977E-3   -1.997519244200312E-1    4.021373283381708E-1
 8.195484177050000E9    -2.796830376678133E-1    4.589343354167839E-1   -2.372268290369717E-3   -1.222797793320374E-3   -2.504025309778947E-3   -1.140451501144508E-3   -1.990831505220403E-1    4.023524087352704E-1
 8.195494455975000E9    -2.790703661110079E-1    4.592695018903440E-1   -2.388851392728019E-3   -1.238180143836578E-3   -2.475417479826546E-3   -1.145701119606038E-3   -1.985655396312202E-1    4.027033261299577E-1
 8.195504734900000E9    -2.784437580143039E-1    4.597077767786547E-1   -2.385691529043334E-3   -1.183408793739515E-3   -2.463574627347294E-3   -1.155608898800459E-3   -1.980431769765475E-1    4.029005705422171E-1
 8.195515013825000E9    -2.777260811644593E-1    4.601624881310238E-1   -2.375484654263591E-3   -1.185093389733348E-3   -2.479679622579720E-3   -1.145634515400224E-3   -1.974934889795248E-1    4.031357567685879E-1
 8.195525292750000E9    -2.770708522881909E-1    4.603149187804211E-1   -2.421494179149498E-3   -1.185362733713438E-3   -2.483190958293185E-3   -1.107162253451316E-3   -1.969294694838387E-1    4.032377860302981E-1
 8.195535571675000E9    -2.765365148496968E-1    4.607688847061511E-1   -2.408901512655392E-3   -1.183560640658317E-3   -2.499167026281678E-3   -1.122745266609600E-3   -1.966032425310937E-1    4.035791293707874E-1
 8.195545850600000E9    -2.759534152321377E-1    4.610426871853952E-1   -2.398539446481278E-3   -1.181226232583349E-3   -2.450879798559232E-3   -1.142209373886518E-3   -1.961141865898412E-1    4.036963426185525E-1
 8.195556129525000E9    -2.752951796797221E-1    4.615506878114774E-1   -2.406638194357335E-3   -1.170631679654583E-3   -2.490370249202871E-3   -1.104660559786875E-3   -1.954915896352351E-1    4.040657596187602E-1
 8.195566408450000E9    -2.745925049119650E-1    4.618989923466916E-1   -2.405005855279283E-3   -1.191112639137452E-3   -2.507081480288243E-3   -1.133959154625228E-3   -1.948769567943656E-1    4.042351120296676E-1
 8.195576687375000E9    -2.739690025159376E-1    4.622879167642394E-1   -2.418806635341702E-3   -1.159926423995762E-3   -2.511641389699414E-3   -1.127352543246939E-3   -1.942325402257655E-1    4.044253823703730E-1
 8.195586966300000E9    -2.733921610766704E-1    4.626195981487536E-1   -2.395762951144302E-3   -1.171415702772781E-3   -2.526371166021952E-3   -1.129151799427867E-3   -1.938514965168033E-1    4.046731827095142E-1
 8.195597245225000E9    -2.727718402279185E-1    4.629731135120577E-1   -2.420900724217563E-3   -1.178302856406642E-3   -2.519313912131352E-3   -1.116788330429659E-3   -1.933396677212059E-1    4.049801166385179E-1
 8.195607524150000E9    -2.721808962357643E-1    4.632813589729320E-1   -2.431189241280492E-3   -1.161429327926657E-3   -2.543123477891302E-3   -1.079163105671578E-3   -1.927289403580253E-1    4.052195573311177E-1
 8.195617803075000E9    -2.715594431375487E-1    4.636798074956096E-1   -2.405604408616922E-3   -1.173410594851591E-3   -2.507204089209464E-3   -1.066465343738873E-3   -1.921472031684332E-1    4.054362786906777E-1
 8.195628082000000E9    -2.708670424426318E-1    4.640653745425516E-1   -2.445473104508411E-3   -1.185134905261725E-3   -2.523858332229270E-3   -1.134402425884195E-3   -1.916936500816356E-1    4.056595159723223E-1
 8.195638360925000E9    -2.703091229938310E-1    4.644851262633075E-1   -2.445437313181983E-3   -1.166188393485036E-3   -2.515718391914047E-3   -1.077684629194157E-3   -1.911943280392458E-1    4.059139477689346E-1
 8.195648639850000E9    -2.696463156582238E-1    4.648250354002874E-1   -2.413470517728282E-3   -1.161749093723087E-3   -2.548579511882079E-3   -1.081959469995936E-3   -1.905944003723070E-1    4.060433533219959E-1
 8.195658918775000E9    -2.689615468560635E-1    4.651250861747790E-1   -2.392707737323539E-3   -1.140998713025468E-3   -2.531620872027812E-3   -1.082281286099261E-3   -1.902155274495380E-1    4.065147053495824E-1
 8.195669197700000E9    -2.683358703747954E-1    4.654221698997493E-1   -2.420142995454779E-3   -1.163194696751272E-3   -2.530775211493379E-3   -1.079580885639118E-3   -1.895481107290313E-1    4.065554283681632E-1
 8.195679476625000E9    -2.676858075127838E-1    4.658496914896399E-1   -2.447150133895286E-3   -1.174649956209457E-3   -2.536643191353178E-3   -1.086867211242426E-3   -1.891550391959401E-1    4.066795155176602E-1
 8.195689755550000E9    -2.670022494790748E-1    4.662298244501127E-1   -2.427064716013361E-3   -1.168490698193669E-3   -2.571288915729268E-3   -1.086022110322341E-3   -1.887627229985929E-1    4.070211569240676E-1
 8.195700034475000E9    -2.664102200768427E-1    4.665896772840178E-1   -2.447208657362576E-3   -1.144170683217728E-3   -2.515531044762552E-3   -1.057139233808984E-3   -1.879724870678282E-1    4.073394498958282E-1
 8.195710313400000E9    -2.657894955987284E-1    4.669359908700765E-1   -2.449989647269913E-3   -1.144524368085217E-3   -2.561787166328631E-3   -1.082585858614502E-3   -1.874995502489218E-1    4.076281231476074E-1
 8.195720592325000E9    -2.649713271948433E-1    4.670832385906999E-1   -2.471508269014032E-3   -1.137308414441683E-3   -2.520166695121014E-3   -1.087389590146444E-3   -1.870832018375270E-1    4.076388052609201E-1
 8.195730871250000E9    -2.643250934901541E-1    4.676445136529024E-1   -2.431676105728752E-3   -1.130299171341756E-3   -2.565961438444480E-3   -1.066070986394009E-3   -1.864436287503217E-1    4.079130644387044E-1
 8.195741150175000E9    -2.638598062967442E-1    4.679112277033045E-1   -2.466608023338022E-3   -1.135762144808085E-3   -2.537774433050473E-3   -1.083845731553834E-3   -1.859696540666116E-1    4.081755781074934E-1
 8.195751429100000E9    -2.631984864294656E-1    4.682024459587169E-1   -2.467669539719966E-3   -1.126234083987194E-3   -2.557447288907572E-3   -1.057957694917778E-3   -1.853841465726723E-1    4.082856911025498E-1
 8.195761708025000E9    -2.625092013606795E-1    4.687051896044158E-1   -2.461518854249666E-3   -1.155999544177428E-3   -2.563583242265509E-3   -1.056716265398100E-3   -1.848915406589080E-1    4.085100409029250E-1
 8.195771986950000E9    -2.619483537131230E-1    4.689451867637940E-1   -2.435276379462246E-3   -1.104731806084761E-3   -2.552846783464781E-3   -1.038653897021442E-3   -1.843944886181025E-1    4.087773528159724E-1
 8.195782265875000E9    -2.613762494549822E-1    4.693680609677318E-1   -2.427800971499197E-3   -1.136691903675828E-3   -2.592293853416101E-3   -1.039662013692569E-3   -1.838123843690739E-1    4.089910649436458E-1
 8.195792544800000E9    -2.605902602260868E-1    4.697293327998993E-1   -2.467141760484630E-3   -1.109384229495394E-3   -2.546837850640899E-3   -1.049096295649357E-3   -1.832166255983875E-1    4.093259063442343E-1
 8.195802823725000E9    -2.601732701232166E-1    4.700327559884220E-1   -2.443295133630703E-3   -1.155107679641691E-3   -2.573297563867806E-3   -1.048897324095859E-3   -1.826943046456989E-1    4.094960698569791E-1
 8.195813102650000E9    -2.593029495697849E-1    4.703577625576714E-1   -2.480016211128503E-3   -1.134128142047277E-3   -2.582470549979185E-3   -1.011459531597731E-3   -1.822242261850642E-1    4.097895996896784E-1
 8.195823381575000E9    -2.587519106092739E-1    4.706673773297670E-1   -2.483267146299345E-3   -1.124260163921015E-3   -2.538269240866844E-3   -1.047716048118415E-3   -1.817014015078491E-1    4.098251736983673E-1
 8.195833660500000E9    -2.581009924095609E-1    4.710044549383149E-1   -2.472211720153378E-3   -1.119252585652676E-3   -2.578136080477836E-3   -1.067652116411513E-3   -1.811274261383688E-1    4.102442867932727E-1
 8.195843939425000E9    -2.573127340015091E-1    4.714025250068899E-1   -2.477928133269941E-3   -1.081578127504793E-3   -2.582062979135458E-3   -1.039502223343220E-3   -1.806569417125191E-1    4.103098527237935E-1
 8.195854218350000E9    -2.567545035561231E-1    4.716974064497866E-1   -2.501107614804605E-3   -1.088426000336998E-3   -2.567086456642945E-3   -1.008287357980228E-3   -1.802031011195276E-1    4.105726063218191E-1
 8.195864497275000E9    -2.560020336100283E-1    4.721290257456378E-1   -2.484068570048668E-3   -1.106540180624038E-3   -2.574486371147904E-3   -1.004797063245480E-3   -1.796171380953923E-1    4.108686949502776E-1
 8.195874776200000E9    -2.554772341928480E-1    4.723418416828614E-1   -2.507697629271563E-3   -1.085433610909198E-3   -2.592020029298754E-3   -1.008306678737975E-3   -1.789266947161859E-1    4.110395711151872E-1
 8.195885055125000E9    -2.549300725787269E-1    4.728323380315585E-1   -2.512735678331853E-3   -1.114929432619144E-3   -2.567284975347355E-3   -1.060993101407882E-3   -1.784692643884141E-1    4.111232585790894E-1
 8.195895334050000E9    -2.542960955242437E-1    4.732121455242193E-1   -2.488548252942064E-3   -1.120195119399490E-3   -2.578116816439467E-3   -1.003485447155017E-3   -1.777739919307970E-1    4.115279596196227E-1
 8.195905612975000E9    -2.535626047009480E-1    4.734947158707952E-1   -2.517013146108191E-3   -1.061356344108225E-3   -2.583928878900279E-3   -1.019662453646689E-3   -1.772897543092137E-1    4.117132702903048E-1
 8.195915891900000E9    -2.528765406460154E-1    4.738217135151209E-1   -2.511776355432153E-3   -1.064334356830442E-3   -2.593476630891916E-3   -1.018574149493948E-3   -1.768674729975928E-1    4.117934078785662E-1
 8.195926170825000E9    -2.521668617094578E-1    4.742050347657495E-1   -2.507386294301424E-3   -1.090535416034475E-3   -2.620828778258274E-3   -9.936285821638795E-4   -1.763758314403185E-1    4.120614556820733E-1
 8.195936449750000E9    -2.515178794069332E-1    4.746081266604051E-1   -2.473075809816170E-3   -1.076812194084321E-3   -2.620204960135536E-3   -1.006066713059560E-3   -1.757181182692501E-1    4.122743193239022E-1
 8.195946728675000E9    -2.507703835499155E-1    4.747989215401413E-1   -2.504444300705421E-3   -1.069999401861951E-3   -2.609466353169945E-3   -1.009850825864099E-3   -1.752687027498098E-1    4.124418378063459E-1
 8.195957007600000E9    -2.502008600834127E-1    4.751252450568172E-1   -2.526816290426804E-3   -1.063042757511800E-3   -2.603208944851469E-3   -1.003839477868822E-3   -1.746217239426383E-1    4.127987916189741E-1
 8.195967286525000E9    -2.496204399859464E-1    4.755666723624838E-1   -2.522864338385678E-3   -1.070544028783026E-3   -2.616242638020319E-3   -1.008744917649997E-3   -1.741999047268843E-1    4.129614189234678E-1
 8.195977565450000E9    -2.488927815569135E-1    4.758688643210190E-1   -2.525352033892588E-3   -1.070097686698658E-3   -2.621306058316234E-3   -1.012974334419900E-3   -1.737236777762675E-1    4.132230512939437E-1
 8.195987844375000E9    -2.483920647656749E-1    4.760683001028925E-1   -2.519406476130961E-3   -1.084142887856420E-3   -2.612255881926083E-3   -1.014462462862698E-3   -1.730472840241463E-1    4.134392919943814E-1
 8.195998123300000E9    -2.474114906425778E-1    4.765379617845346E-1   -2.514725492153477E-3   -1.078347031339680E-3   -2.631555113715870E-3   -9.646951914088405E-4   -1.725351456391600E-1    4.136043760333695E-1
 8.196008402225000E9    -2.469278591268489E-1    4.767242718528653E-1   -2.544857571335394E-3   -1.057677127415134E-3   -2.641965117583729E-3   -1.004970249455424E-3   -1.720660413000132E-1    4.137302511567161E-1
 8.196018681150000E9    -2.462886949469591E-1    4.772156713500535E-1   -2.529077697619446E-3   -1.072194475192785E-3   -2.630865789859248E-3   -9.648958449141403E-4   -1.714327914404913E-1    4.139493167437703E-1
 8.196028960075000E9    -2.456131561882030E-1    4.773840117728386E-1   -2.523697753495902E-3   -1.036796552912118E-3   -2.615861434521169E-3   -9.825137251508354E-4   -1.709551842060330E-1    4.141633783372856E-1
 8.196039239000000E9    -2.450524889239968E-1    4.778548955166838E-1   -2.566699604422343E-3   -1.064154380821432E-3   -2.609385515072223E-3   -9.963865034159987E-4   -1.703363476712736E-1    4.144241012171422E-1
 8.196049517925000E9    -2.443782396914265E-1    4.781510047773517E-1   -2.544665307805345E-3   -1.024683727115433E-3   -2.631749437460711E-3   -9.778577994255604E-4   -1.697816503989606E-1    4.144866775354611E-1
 8.196059796850000E9    -2.436848495865304E-1    4.784830790678436E-1   -2.554624725943269E-3   -1.048813707047606E-3   -2.642027966731796E-3   -9.546765592265078E-4   -1.693211021169562E-1    4.149196319277237E-1
 8.196070075775000E9    -2.431702678246236E-1    4.786984260876916E-1   -2.569857730257078E-3   -1.029401926893677E-3   -2.626320179522532E-3   -9.779352471393657E-4   -1.689236304964924E-1    4.149909532260510E-1
 8.196080354700000E9    -2.423535603706444E-1    4.791275818169886E-1   -2.545082296177528E-3   -1.052290952310561E-3   -2.660806332971648E-3   -9.533703598338597E-4   -1.681577968772298E-1    4.151337009213834E-1
 8.196090633625000E9    -2.416957218784750E-1    4.792585775506458E-1   -2.547544572752473E-3   -1.019977305503895E-3   -2.654947532522823E-3   -9.563669136066065E-4   -1.676226072419241E-1    4.153505590710287E-1
 8.196100912550000E9    -2.410069033543195E-1    4.797173016093194E-1   -2.556701159091782E-3   -1.058023143456386E-3   -2.631979643246371E-3   -9.406440375487296E-4   -1.671106564404747E-1    4.155061227765477E-1
 8.196111191475000E9    -2.403271339898487E-1    4.800250895469565E-1   -2.554505485793052E-3   -1.034639196632401E-3   -2.660268042970343E-3   -9.572953170664071E-4   -1.666541730432296E-1    4.157563258408462E-1
 8.196121470400000E9    -2.398391170873615E-1    4.803341249986297E-1   -2.588953604203108E-3   -1.036433539274371E-3   -2.656004229436932E-3   -9.603077040506100E-4   -1.659311649820036E-1    4.160047200468395E-1
 8.196131749325000E9    -2.390733526661371E-1    4.807316579460844E-1   -2.520450899646521E-3   -1.031436942142765E-3   -2.698393139513167E-3   -9.716095688460826E-4   -1.655885487930872E-1    4.159725554294519E-1
 8.196142028250000E9    -2.383275783190002E-1    4.810529844903440E-1   -2.591168168093821E-3   -1.007619900834347E-3   -2.665172772578358E-3   -9.323445665509501E-4   -1.650208184869967E-1    4.163944486830624E-1
