#  HZ   S   RI   R     50.00 
! Rohde & Schwarz Vector Network Analyzer 
! Rohde-Schwarz,ZNB20-2Port,1311601062101988,3.16
! Created: UTC 3/20/2024, 4:57:00 PM
! freq[Hz]                re:S11                  im:S11                  re:S21                  im:S21                  re:S12                  im:S12                  re:S22                  im:S22
 8.179847684000000E9    -2.969281780818371E-1   -4.557545025287956E-1    1.661206871216063E-3   -1.470041915029401E-3    1.758314361556031E-3   -1.535961031443568E-3   -3.274157657896896E-1   -3.315915910667357E-1
 8.179926748175000E9    -3.015922700228134E-1   -4.526248416149611E-1    1.678597528469566E-3   -1.493021804330800E-3    1.692394027201798E-3   -1.562923412817514E-3   -3.304255392857402E-1   -3.283721051898302E-1
 8.180005812350000E9    -3.060514034704006E-1   -4.495635772238152E-1    1.687250892973950E-3   -1.524706938037209E-3    1.705639222780357E-3   -1.537287810776678E-3   -3.336309100520276E-1   -3.249988998386008E-1
 8.180084876525000E9    -3.103684328581531E-1   -4.465366780192692E-1    1.616110282411472E-3   -1.526545055450228E-3    1.700044031762787E-3   -1.568749769227463E-3   -3.365750624442750E-1   -3.216683553869304E-1
 8.180163940700000E9    -3.149426509805044E-1   -4.433304984197783E-1    1.623419317613144E-3   -1.568087603210078E-3    1.664556472110459E-3   -1.615484561768821E-3   -3.394312646744968E-1   -3.184413921625202E-1
 8.180243004875000E9    -3.193132626427626E-1   -4.401374208624674E-1    1.597453539324406E-3   -1.540566542185660E-3    1.658875548965762E-3   -1.636633865453908E-3   -3.424539991221369E-1   -3.152006473895796E-1
 8.180322069050000E9    -3.238814425105904E-1   -4.368765321394270E-1    1.602029190482297E-3   -1.573834241561935E-3    1.657076225117466E-3   -1.660961752728160E-3   -3.454256920637465E-1   -3.119650835050211E-1
 8.180401133225000E9    -3.282066375161668E-1   -4.336234387724187E-1    1.583666158031665E-3   -1.601958418358716E-3    1.644489848409043E-3   -1.660373770469292E-3   -3.481589990285252E-1   -3.087201437981141E-1
 8.180480197400000E9    -3.325348794819521E-1   -4.303390160394213E-1    1.573613626364666E-3   -1.643954718783148E-3    1.610805573978107E-3   -1.660410701585316E-3   -3.511125143790768E-1   -3.052143173331250E-1
 8.180559261575000E9    -3.368176266109108E-1   -4.267798764149927E-1    1.556137366189253E-3   -1.633005166876463E-3    1.602084210512360E-3   -1.683970667299050E-3   -3.540541543005892E-1   -3.019606993645166E-1
 8.180638325750000E9    -3.411933038744275E-1   -4.233826237473401E-1    1.552645341228405E-3   -1.655270149714764E-3    1.555294256566293E-3   -1.694264455976548E-3   -3.567088983211923E-1   -2.983945613265863E-1
 8.180717389925000E9    -3.453845455619180E-1   -4.200399446945651E-1    1.524226424106992E-3   -1.667371340802199E-3    1.561495636704578E-3   -1.717333213503532E-3   -3.595002698308467E-1   -2.947446245867082E-1
 8.180796454100000E9    -3.495278034810606E-1   -4.165262342216462E-1    1.504175482263254E-3   -1.694162994466155E-3    1.531092504946179E-3   -1.738457047031028E-3   -3.621676101955558E-1   -2.914156396444335E-1
 8.180875518275000E9    -3.537351374676640E-1   -4.128619209150037E-1    1.509931947828516E-3   -1.674152077262321E-3    1.521978935038471E-3   -1.790762108776753E-3   -3.649294277979189E-1   -2.878842695953189E-1
 8.180954582450000E9    -3.579223981309304E-1   -4.093687838267763E-1    1.481724086833327E-3   -1.691934535169561E-3    1.503186294319103E-3   -1.792318103214156E-3   -3.675812606913048E-1   -2.844553233930980E-1
 8.181033646625000E9    -3.620027133086522E-1   -4.057267713235806E-1    1.458314009294216E-3   -1.699833724405367E-3    1.476994055042034E-3   -1.791561955682540E-3   -3.701112747840381E-1   -2.806910831761719E-1
 8.181112710800000E9    -3.659595302976810E-1   -4.020332340982748E-1    1.441733630862827E-3   -1.742214895634416E-3    1.488198467218218E-3   -1.797993592839418E-3   -3.728033720418392E-1   -2.772810496006946E-1
 8.181191774975000E9    -3.700275257891883E-1   -3.983155767847908E-1    1.409383054510850E-3   -1.751122712438546E-3    1.449580240041415E-3   -1.815469064458074E-3   -3.751980240530432E-1   -2.737327994682608E-1
 8.181270839150000E9    -3.740529101528758E-1   -3.946072038612047E-1    1.426335117075891E-3   -1.757322430084085E-3    1.459408647089944E-3   -1.862850525217765E-3   -3.778431057488858E-1   -2.701695484986261E-1
 8.181349903325000E9    -3.780992775618037E-1   -3.907140344850162E-1    1.408058244411219E-3   -1.761512377632998E-3    1.428753906533312E-3   -1.831817710160722E-3   -3.802594456449835E-1   -2.663622201998270E-1
 8.181428967500000E9    -3.818436392133622E-1   -3.867939082247027E-1    1.377061675655519E-3   -1.778757477674339E-3    1.387843842754543E-3   -1.869009849812795E-3   -3.827981659918588E-1   -2.627126718688235E-1
 8.181508031675000E9    -3.857989853327945E-1   -3.829378751738114E-1    1.381506653687672E-3   -1.795241068123470E-3    1.402068976117879E-3   -1.899626873176655E-3   -3.850569725032973E-1   -2.589840306749200E-1
 8.181587095850000E9    -3.894733117483711E-1   -3.791632853185614E-1    1.324227003516686E-3   -1.826354240640807E-3    1.363323554525980E-3   -1.903225204613299E-3   -3.876870771936873E-1   -2.554275661409207E-1
 8.181666160025000E9    -3.933106581869192E-1   -3.751329777231571E-1    1.333109443255129E-3   -1.804606337459779E-3    1.380594232561215E-3   -1.909576425688354E-3   -3.898993018131228E-1   -2.515947033984526E-1
 8.181745224200000E9    -3.971144770626770E-1   -3.711621717507244E-1    1.316488349083073E-3   -1.852822769463785E-3    1.313282810941785E-3   -1.911849747815888E-3   -3.920829538153063E-1   -2.478605350491482E-1
 8.181824288375000E9    -4.008657623412346E-1   -3.669518144037066E-1    1.304979799005636E-3   -1.867634080745161E-3    1.309812912233563E-3   -1.935902544007884E-3   -3.944696428368661E-1   -2.439706165010607E-1
 8.181903352550000E9    -4.045706809803200E-1   -3.628563580289783E-1    1.274177984334148E-3   -1.855017742081791E-3    1.300166521674557E-3   -1.950987441357641E-3   -3.968455696971121E-1   -2.401913304585641E-1
 8.181982416725000E9    -4.081455026827917E-1   -3.588194956271791E-1    1.276468623113238E-3   -1.878111820319209E-3    1.276146931486717E-3   -1.931128023503147E-3   -3.987978867075279E-1   -2.365691908430548E-1
 8.182061480900000E9    -4.116793763011511E-1   -3.547707569188093E-1    1.262455999004973E-3   -1.889970164175698E-3    1.255943679815382E-3   -1.965696007603301E-3   -4.010177972765387E-1   -2.326109947100088E-1
 8.182140545075000E9    -4.152536965992613E-1   -3.504968443299900E-1    1.215751155824268E-3   -1.905385988261666E-3    1.246342527216333E-3   -1.986350805473226E-3   -4.031486538059599E-1   -2.287654473446298E-1
 8.182219609250000E9    -4.186525693748210E-1   -3.463493074930161E-1    1.218858118993015E-3   -1.921703242430948E-3    1.233011658679680E-3   -1.968634518990213E-3   -4.052149607425866E-1   -2.247805021927261E-1
 8.182298673425000E9    -4.222901880454759E-1   -3.420010154042840E-1    1.160759003779978E-3   -1.931668733975298E-3    1.194232386572960E-3   -1.990994456791715E-3   -4.074214537493510E-1   -2.209731108449491E-1
 8.182377737600000E9    -4.257124476366045E-1   -3.377923087581328E-1    1.175361079396650E-3   -1.935360209999465E-3    1.170277531904128E-3   -2.026276230263890E-3   -4.093267090970317E-1   -2.169967960047959E-1
 8.182456801775000E9    -4.290066972552482E-1   -3.334665780316749E-1    1.138723529573206E-3   -1.968438899932565E-3    1.156659310889495E-3   -2.041540500812951E-3   -4.112019140209201E-1   -2.132365417578835E-1
 8.182535865950000E9    -4.323338879875250E-1   -3.291789273086143E-1    1.125792576489415E-3   -1.971276239482086E-3    1.159205825390803E-3   -2.016397711835759E-3   -4.132145022123369E-1   -2.089948279261698E-1
 8.182614930125000E9    -4.356927827554629E-1   -3.246225221469239E-1    1.120271142067706E-3   -1.977769010367576E-3    1.129306987511896E-3   -2.054326213125649E-3   -4.151754270122666E-1   -2.050730182847199E-1
 8.182693994300000E9    -4.388177981167035E-1   -3.202115238276399E-1    1.103889707517389E-3   -1.981591170373456E-3    1.110275752872306E-3   -2.078671054000298E-3   -4.169163537449354E-1   -2.011624076947064E-1
 8.182773058475000E9    -4.421993475066283E-1   -3.158399720884922E-1    1.061117169067710E-3   -2.022472624553998E-3    1.111852372095695E-3   -2.078958082590475E-3   -4.187988142591966E-1   -1.971106872117140E-1
 8.182852122650000E9    -4.452363344494962E-1   -3.113353016164048E-1    1.048347505533667E-3   -2.014651439272972E-3    1.076336274535734E-3   -2.092267973927281E-3   -4.204137159510111E-1   -1.929989006203887E-1
 8.182931186825000E9    -4.482737118468870E-1   -3.068296904412978E-1    1.037207326830247E-3   -2.016959093365311E-3    1.029694177674936E-3   -2.114393438437385E-3   -4.222641036082751E-1   -1.891522933565188E-1
 8.183010251000000E9    -4.514168944199075E-1   -3.021334327421477E-1    1.018573490139171E-3   -2.018660156043315E-3    1.050518718830433E-3   -2.105986059718242E-3   -4.240544036891895E-1   -1.850853167402252E-1
 8.183089315175000E9    -4.543408968942144E-1   -2.975923788821077E-1    1.004750311226673E-3   -2.024095921169932E-3    9.904109570096538E-4   -2.135831440810010E-3   -4.257643737380620E-1   -1.808818460036694E-1
 8.183168379350000E9    -4.572781221801412E-1   -2.930244162172393E-1    9.565933729050284E-4   -2.029028198483126E-3    9.578768575535222E-4   -2.159351265097112E-3   -4.273895493638807E-1   -1.767565149218316E-1
 8.183247443525000E9    -4.602262725155749E-1   -2.883843089115513E-1    9.464735683481171E-4   -2.063299453561748E-3    1.000164645099820E-3   -2.140672340048326E-3   -4.288256844596682E-1   -1.727203431283255E-1
 8.183326507700000E9    -4.632880887982814E-1   -2.835912903884237E-1    9.631503531421091E-4   -2.095259197682254E-3    9.476498339410713E-4   -2.157708863386056E-3   -4.304212150911049E-1   -1.685349978763799E-1
 8.183405571875000E9    -4.661926258516562E-1   -2.789593138032653E-1    8.853880301351156E-4   -2.075589936997191E-3    9.125522160932050E-4   -2.150330095094049E-3   -4.318521630547156E-1   -1.644818621979601E-1
 8.183484636050000E9    -4.688497800874316E-1   -2.742230894326496E-1    9.256872119917452E-4   -2.079616512948237E-3    9.303979814323972E-4   -2.161940871154074E-3   -4.333563680185196E-1   -1.603178235692214E-1
 8.183563700225000E9    -4.716491813901568E-1   -2.695080757238590E-1    8.683527311695159E-4   -2.107894880885912E-3    8.893289190146603E-4   -2.207364196886360E-3   -4.347840153894509E-1   -1.561246123383198E-1
 8.183642764400000E9    -4.742417341661154E-1   -2.646459063345068E-1    8.576258395539494E-4   -2.114171870901751E-3    9.067048559515887E-4   -2.199591588600806E-3   -4.363268807954296E-1   -1.519070920016596E-1
 8.183721828575000E9    -4.768144286180761E-1   -2.597748007644886E-1    8.418181289439415E-4   -2.097652834095435E-3    8.561222182058000E-4   -2.219059537489598E-3   -4.375983464869823E-1   -1.478908087691962E-1
 8.183800892750000E9    -4.793285915249328E-1   -2.549762923588796E-1    8.322608530860918E-4   -2.112705597419454E-3    8.138358440741348E-4   -2.204238367544031E-3   -4.387121972659663E-1   -1.438621414478281E-1
 8.183879956925000E9    -4.820343013625107E-1   -2.501452497238046E-1    8.152932645436048E-4   -2.149174047683734E-3    7.817102375668598E-4   -2.214529634561854E-3   -4.400044990561334E-1   -1.395201974306567E-1
 8.183959021100000E9    -4.844038651021150E-1   -2.451608994117095E-1    7.865688978292462E-4   -2.148576039805339E-3    7.710940859674234E-4   -2.219888518440253E-3   -4.412695434720301E-1   -1.351693701946703E-1
 8.184038085275000E9    -4.868958144688345E-1   -2.402707390378657E-1    7.586444603530848E-4   -2.156822947417046E-3    7.383745510899317E-4   -2.234236005543728E-3   -4.425678712664944E-1   -1.309946486792013E-1
 8.184117149450000E9    -4.893830956662520E-1   -2.352886684808970E-1    7.460027900275194E-4   -2.157559332368091E-3    7.194728728507434E-4   -2.239979350312556E-3   -4.435992505097794E-1   -1.267635626913016E-1
 8.184196213625000E9    -4.916298960015126E-1   -2.303294382106347E-1    7.029307110215003E-4   -2.165921594627876E-3    7.181462929958201E-4   -2.257988036696477E-3   -4.449254379465951E-1   -1.225508539671913E-1
 8.184275277800000E9    -4.940405867827108E-1   -2.253317918541856E-1    6.920508882144146E-4   -2.167950216844651E-3    7.041181313283269E-4   -2.262898120413368E-3   -4.459345613248982E-1   -1.182306459831731E-1
 8.184354341975000E9    -4.961510767042222E-1   -2.203878866796322E-1    6.686343450713020E-4   -2.205615105304023E-3    6.466400084110953E-4   -2.261063439283641E-3   -4.469281129992307E-1   -1.140546965991342E-1
 8.184433406150000E9    -4.984300007209883E-1   -2.152712371650780E-1    6.312530511346388E-4   -2.215205027017136E-3    6.173787959493769E-4   -2.268928437294655E-3   -4.479218556155742E-1   -1.097091413680053E-1
 8.184512470325000E9    -5.005249397034772E-1   -2.101599935034590E-1    6.503234581778882E-4   -2.143280899719094E-3    6.287949648184521E-4   -2.301463990617061E-3   -4.488126599876984E-1   -1.053002504490810E-1
 8.184591534500000E9    -5.026065815489728E-1   -2.051048823376625E-1    6.262271557092463E-4   -2.212982215428964E-3    6.336023348381276E-4   -2.315551608652618E-3   -4.498431470683164E-1   -1.011610410559793E-1
 8.184670598675000E9    -5.046827910558958E-1   -2.000215095516734E-1    5.968077887295525E-4   -2.199175684552552E-3    5.861207748343977E-4   -2.332898795221625E-3   -4.507852140270243E-1   -9.674006341666440E-2
 8.184749662850000E9    -5.066329229372007E-1   -1.947902517748180E-1    5.549336623291930E-4   -2.209722832010108E-3    5.469072095332542E-4   -2.300190015129345E-3   -4.516009467822572E-1   -9.245565139302253E-2
 8.184828727025000E9    -5.084355944812552E-1   -1.896330441908410E-1    5.656537455168693E-4   -2.241735627312432E-3    5.713345037413133E-4   -2.321617899395109E-3   -4.522453023893740E-1   -8.818047789141051E-2
 8.184907791200000E9    -5.104691906822924E-1   -1.845224304506291E-1    5.308840777402485E-4   -2.222423162202108E-3    5.130355414081826E-4   -2.315285828875139E-3   -4.529896688687273E-1   -8.381019887687199E-2
 8.184986855375000E9    -5.122078163132160E-1   -1.793853006809463E-1    4.938530490704051E-4   -2.256881481876920E-3    4.738856001369782E-4   -2.337654593103834E-3   -4.536927301955676E-1   -7.953517400566119E-2
 8.185065919550000E9    -5.140746838349936E-1   -1.741299115857228E-1    4.806474494190086E-4   -2.198598551651956E-3    4.716812867385935E-4   -2.331784552891912E-3   -4.544657100814907E-1   -7.518749378596497E-2
 8.185144983725000E9    -5.157432100530123E-1   -1.689737354699683E-1    4.794703970307309E-4   -2.233479923776558E-3    4.665974977263308E-4   -2.355581708727244E-3   -4.551931429057328E-1   -7.064879139305363E-2
 8.185224047900000E9    -5.174692623678991E-1   -1.635771223469810E-1    4.666603748184808E-4   -2.261997440712662E-3    4.140128970578402E-4   -2.372385980125988E-3   -4.555397491305274E-1   -6.631678261495762E-2
 8.185303112075000E9    -5.190176885656409E-1   -1.583775897816147E-1    4.277345298854338E-4   -2.274053882272649E-3    3.768902083771607E-4   -2.344505460030609E-3   -4.561798111309239E-1   -6.198138958124537E-2
 8.185382176250000E9    -5.206142467206367E-1   -1.530475532717201E-1    4.182816981138952E-4   -2.265438727271953E-3    3.729714369347633E-4   -2.364767033906432E-3   -4.566637910957449E-1   -5.780810535145206E-2
 8.185461240425000E9    -5.221325184680413E-1   -1.477291317668970E-1    3.958162807471833E-4   -2.290915776206286E-3    3.577173982289035E-4   -2.376555918697581E-3   -4.570839234525556E-1   -5.335502410937669E-2
 8.185540304600000E9    -5.234940728463974E-1   -1.424063911774682E-1    3.542017470966758E-4   -2.273293511439538E-3    3.246540546607425E-4   -2.362473924276603E-3   -4.575126488675837E-1   -4.911532735478493E-2
 8.185619368775000E9    -5.250496501372256E-1   -1.370112503129482E-1    3.396854980933622E-4   -2.251486972837953E-3    2.744792107134498E-4   -2.383088845210414E-3   -4.577327285375081E-1   -4.452960353470033E-2
 8.185698432950000E9    -5.263116228120812E-1   -1.317235090182195E-1    3.009368015260773E-4   -2.275269051111947E-3    3.047368624633768E-4   -2.375683714566092E-3   -4.581200981521509E-1   -4.015309227197277E-2
 8.185777497125000E9    -5.274927784892862E-1   -1.263395547388468E-1    2.829347937868634E-4   -2.292197368971231E-3    2.541056046708121E-4   -2.351322892956056E-3   -4.583682355814540E-1   -3.591355870343928E-2
 8.185856561300000E9    -5.289022241424738E-1   -1.210807271570756E-1    2.499024173895571E-4   -2.296524210319979E-3    2.323265714143723E-4   -2.400451685887729E-3   -4.586500608492698E-1   -3.145988747724601E-2
 8.185935625475000E9    -5.299901377021528E-1   -1.156346282225871E-1    2.432759908079214E-4   -2.281066697695287E-3    2.040331026208994E-4   -2.385102934225589E-3   -4.588474226434359E-1   -2.708197889493378E-2
 8.186014689650000E9    -5.310858592467551E-1   -1.102762023513443E-1    2.080165926334913E-4   -2.312837118005445E-3    1.850222304623076E-4   -2.397983651355940E-3   -4.589567447668904E-1   -2.280189222302152E-2
 8.186093753825000E9    -5.321682346994219E-1   -1.047583035306572E-1    2.061724015742827E-4   -2.310195759109776E-3    1.396301041534313E-4   -2.366451571842171E-3   -4.591729121776434E-1   -1.830083768372917E-2
 8.186172818000000E9    -5.331787921365125E-1   -9.934745924485024E-2    1.743642949513846E-4   -2.308450985487562E-3    1.325355639085742E-4   -2.405435903254321E-3   -4.591490534650167E-1   -1.403912257157712E-2
 8.186251882175000E9    -5.341936452928890E-1   -9.396071754671037E-2    1.644282132850132E-4   -2.305635112964739E-3    1.427236663541716E-4   -2.391492465571342E-3   -4.592742453083531E-1   -9.502983001272048E-3
 8.186330946350000E9    -5.351335075405812E-1   -8.847499329966167E-2    1.539875610057947E-4   -2.326502416951943E-3    9.016893940987980E-5   -2.410757645703452E-3   -4.592970492592901E-1   -5.253704015536865E-3
 8.186410010525000E9    -5.358966616465222E-1   -8.315477142411117E-2    1.191064293064064E-4   -2.311287795213987E-3    4.288295000381779E-5   -2.403495743874018E-3   -4.591613130446811E-1   -7.977117944975923E-4
 8.186489074700000E9    -5.367803003433754E-1   -7.757320042700247E-2    6.860876349374055E-5   -2.335322361064621E-3    3.365674396322686E-5   -2.406726659151794E-3   -4.589694428179794E-1    3.586316684369875E-3
 8.186568138875000E9    -5.374647087133883E-1   -7.209494836220141E-2    3.927022704033745E-5   -2.315364668165603E-3    3.852774584585409E-5   -2.408056481558439E-3   -4.589419637346834E-1    8.070776641544231E-3
 8.186647203050000E9    -5.380000481829678E-1   -6.675736682669003E-2    3.512442012649176E-5   -2.308551447491549E-3   -2.298280347655009E-5   -2.402090005646473E-3   -4.587796039724606E-1    1.228181985714266E-2
 8.186726267225000E9    -5.387008106202982E-1   -6.123262706938513E-2    2.385646789158233E-5   -2.308417102206570E-3   -5.073055832324084E-5   -2.423503953692462E-3   -4.584503465878425E-1    1.672327258126659E-2
 8.186805331400000E9    -5.392746757792867E-1   -5.569033403021886E-2   -6.766383168381333E-6   -2.329731770113227E-3   -2.466961870384300E-5   -2.404970850802316E-3   -4.582917179712393E-1    2.128165950755782E-2
 8.186884395575000E9    -5.399617463675046E-1   -5.019898735398524E-2   -4.684071917997254E-5   -2.329159805357795E-3   -9.879307223127043E-5   -2.431099553796400E-3   -4.580079366934733E-1    2.555590494645485E-2
 8.186963459750000E9    -5.402550067405090E-1   -4.457911987775918E-2   -4.683494322607767E-5   -2.321693300899651E-3   -8.019626086008581E-5   -2.407391515387148E-3   -4.576421664234319E-1    2.993706168511057E-2
