#  HZ   S   RI   R     50.00 
! Rohde & Schwarz Vector Network Analyzer 
! Rohde-Schwarz,ZNB20-2Port,1311601062101988,3.16
! Created: UTC 3/20/2024, 4:57:02 PM
! freq[Hz]                re:S11                  im:S11                  re:S21                  im:S21                  re:S12                  im:S12                  re:S22                  im:S22
 8.179756981000000E9    -2.915610457258828E-1   -4.592166174519572E-1    1.676525613082406E-3   -1.444519751109560E-3    1.758547538799195E-3   -1.546564933838466E-3   -3.239238882953218E-1   -3.350434194789164E-1
 8.179836439025000E9    -2.962805210041138E-1   -4.561167980148935E-1    1.710425182736741E-3   -1.486671481146801E-3    1.723155953223828E-3   -1.573127172333999E-3   -3.269310670232441E-1   -3.320072097364436E-1
 8.179915897050000E9    -3.009151749930852E-1   -4.531721017639732E-1    1.685131499277363E-3   -1.499384341344460E-3    1.737564549678933E-3   -1.532171997627026E-3   -3.300507120339876E-1   -3.286734163864066E-1
 8.179995355075000E9    -3.053511559845037E-1   -4.499789028542930E-1    1.648416246947353E-3   -1.504467302718348E-3    1.707587553817022E-3   -1.600515442182972E-3   -3.331793912182940E-1   -3.255070246053831E-1
 8.180074813100000E9    -3.100373776310153E-1   -4.468968222971306E-1    1.671440069181060E-3   -1.529992208139305E-3    1.699958252560714E-3   -1.616032435287381E-3   -3.361093192502073E-1   -3.221839681925326E-1
 8.180154271125000E9    -3.145310862674816E-1   -4.438113001577106E-1    1.635729472826085E-3   -1.528815984729774E-3    1.684326547711186E-3   -1.615953667890464E-3   -3.392388188048435E-1   -3.188754332279272E-1
 8.180233729150000E9    -3.189382270981727E-1   -4.406013237825975E-1    1.597322259093978E-3   -1.555976385014936E-3    1.645042611140902E-3   -1.648774555857653E-3   -3.420575157651102E-1   -3.155840122459255E-1
 8.180313187175000E9    -3.232617133923595E-1   -4.371213894722580E-1    1.613568936394698E-3   -1.580840370198213E-3    1.633140085611452E-3   -1.670959766272613E-3   -3.449073058106574E-1   -3.122407324802668E-1
 8.180392645200000E9    -3.277738743449675E-1   -4.339339063205511E-1    1.572595379918158E-3   -1.592126012800164E-3    1.612883624993962E-3   -1.677614536171357E-3   -3.480044485294269E-1   -3.089380918193471E-1
 8.180472103225000E9    -3.322838666426880E-1   -4.306606074276220E-1    1.561057346252739E-3   -1.599993175789505E-3    1.616011291835144E-3   -1.689928721822415E-3   -3.508783789295298E-1   -3.054695256862242E-1
 8.180551561250000E9    -3.364757232675131E-1   -4.272273942982529E-1    1.529030294076908E-3   -1.638709450009333E-3    1.618654919502412E-3   -1.706531930709972E-3   -3.536413937886943E-1   -3.020615396886306E-1
 8.180631019275000E9    -3.407701683946805E-1   -4.237131069753080E-1    1.534758125436636E-3   -1.663224540069251E-3    1.618717401944904E-3   -1.688704398432297E-3   -3.566164173142857E-1   -2.987863761090869E-1
 8.180710477300000E9    -3.450100915349903E-1   -4.202898445736214E-1    1.524548048631103E-3   -1.672184316639439E-3    1.548010994320530E-3   -1.755705800988205E-3   -3.592620022827269E-1   -2.951496239017813E-1
 8.180789935325000E9    -3.492788038006687E-1   -4.167177173066993E-1    1.494875803413555E-3   -1.656842894572884E-3    1.559775716446508E-3   -1.752244604387269E-3   -3.620699592160564E-1   -2.918496829063599E-1
 8.180869393350000E9    -3.534381484548240E-1   -4.131282612347567E-1    1.495612540564552E-3   -1.682684576876393E-3    1.499530140847712E-3   -1.772617743468533E-3   -3.646892739370666E-1   -2.881396272214895E-1
 8.180948851375000E9    -3.575180572729861E-1   -4.096009575789722E-1    1.512173237669251E-3   -1.675580494393117E-3    1.513044854206878E-3   -1.774199768169435E-3   -3.673887079598575E-1   -2.845802616035479E-1
 8.181028309400000E9    -3.615445518477967E-1   -4.059834935087188E-1    1.462292741391958E-3   -1.723805479213274E-3    1.511128889822580E-3   -1.817384840557554E-3   -3.702599685002130E-1   -2.811236628014457E-1
 8.181107767425000E9    -3.657001231619235E-1   -4.022252102055533E-1    1.430465184113044E-3   -1.718008532787905E-3    1.525981945778647E-3   -1.816793653924166E-3   -3.725370968906038E-1   -2.774733676803216E-1
 8.181187225450000E9    -3.697663341315436E-1   -3.984327736137055E-1    1.422557547394173E-3   -1.716820773048227E-3    1.430992832996992E-3   -1.835287045667579E-3   -3.753024035674510E-1   -2.740320095417305E-1
 8.181266683475000E9    -3.738647917064346E-1   -3.947229818227744E-1    1.412442720973901E-3   -1.740946718430095E-3    1.467308130852053E-3   -1.840705191435324E-3   -3.778022995273887E-1   -2.702464171070160E-1
 8.181346141500000E9    -3.777833639857364E-1   -3.907976735958904E-1    1.391013186574112E-3   -1.745542331973260E-3    1.428589024403847E-3   -1.870870312390649E-3   -3.803154890118664E-1   -2.665083276078191E-1
 8.181425599525000E9    -3.817519670201593E-1   -3.868922184624039E-1    1.382632837363903E-3   -1.790507328558382E-3    1.384096282653233E-3   -1.869392733260219E-3   -3.826377302683900E-1   -2.628146907753520E-1
 8.181505057550000E9    -3.857104975985108E-1   -3.831175074014770E-1    1.381155970656788E-3   -1.819302622243534E-3    1.397660638488483E-3   -1.871491866873462E-3   -3.850860792887520E-1   -2.591370477472850E-1
 8.181584515575000E9    -3.895153284969043E-1   -3.792871946938157E-1    1.341542325503478E-3   -1.815968097012712E-3    1.405020352158217E-3   -1.886444463504593E-3   -3.874898713226009E-1   -2.554697264497721E-1
 8.181663973600000E9    -3.931672312311112E-1   -3.752763079804295E-1    1.335072846926638E-3   -1.827845320308494E-3    1.338562776980215E-3   -1.898970203241614E-3   -3.898928832062051E-1   -2.515729220117817E-1
 8.181743431625000E9    -3.970719001137705E-1   -3.712103368477322E-1    1.310810479234952E-3   -1.822989482708497E-3    1.320771905877306E-3   -1.913280635296092E-3   -3.920850869508034E-1   -2.479452617546751E-1
 8.181822889650000E9    -4.006620347078264E-1   -3.671882280570605E-1    1.266083259997479E-3   -1.869157495699965E-3    1.317897171172447E-3   -1.963720402309045E-3   -3.945223592563807E-1   -2.441531202385663E-1
 8.181902347675000E9    -4.043349630207841E-1   -3.629578219315847E-1    1.278826526042433E-3   -1.850881130857344E-3    1.326910079621221E-3   -1.922327842359437E-3   -3.966865799916095E-1   -2.403570139614064E-1
 8.181981805700000E9    -4.080920934243601E-1   -3.589241654712892E-1    1.265022763870088E-3   -1.865011156154410E-3    1.284818261927513E-3   -1.969840368608052E-3   -3.989273810186296E-1   -2.364126757271790E-1
 8.182061263725000E9    -4.117417440899903E-1   -3.547436078443200E-1    1.237706558019939E-3   -1.869930529087699E-3    1.256023171853963E-3   -1.993031414242624E-3   -4.009616720005993E-1   -2.326036596500844E-1
 8.182140721750000E9    -4.153138624007218E-1   -3.505327596962527E-1    1.244369764549396E-3   -1.874690165878571E-3    1.217696992340313E-3   -1.972436935999633E-3   -4.033552357492928E-1   -2.286098637742819E-1
 8.182220179775000E9    -4.187870814219365E-1   -3.461994624553287E-1    1.202810565038417E-3   -1.907294249825499E-3    1.234739421109460E-3   -2.002316560950219E-3   -4.052573236779788E-1   -2.247035199496318E-1
 8.182299637800000E9    -4.223553140388338E-1   -3.418703137406012E-1    1.164043939274086E-3   -1.924391557317505E-3    1.197443598101853E-3   -2.017417516057832E-3   -4.073563744011217E-1   -2.209477923509930E-1
 8.182379095825000E9    -4.257232781215697E-1   -3.375952571653117E-1    1.158258115678329E-3   -1.926795044101620E-3    1.187223483170313E-3   -2.052264197469224E-3   -4.094813268539915E-1   -2.168766459228085E-1
 8.182458553850000E9    -4.290971244471364E-1   -3.333432523533811E-1    1.131012034449164E-3   -1.960469905350309E-3    1.183807277971890E-3   -2.048759295362712E-3   -4.114444551300000E-1   -2.129199918201542E-1
 8.182538011875000E9    -4.325471852540432E-1   -3.289244195373698E-1    1.110953795612970E-3   -1.948341833682674E-3    1.117938347131382E-3   -2.062333102123406E-3   -4.133869155199082E-1   -2.089150927511110E-1
 8.182617469900000E9    -4.356824055511909E-1   -3.246120927289298E-1    1.123839473291531E-3   -1.979311346720863E-3    1.132684463539037E-3   -2.045312040465200E-3   -4.151512911740610E-1   -2.049620607827927E-1
 8.182696927925000E9    -4.390726114909114E-1   -3.201308674919301E-1    1.118827171232906E-3   -1.972485517692724E-3    1.133318186410937E-3   -2.070615085216854E-3   -4.171497618270196E-1   -2.010598369242637E-1
 8.182776385950000E9    -4.422326017704858E-1   -3.156103090274144E-1    1.086734418521831E-3   -1.987471813602701E-3    1.125504337079977E-3   -2.095651722468345E-3   -4.189759539636922E-1   -1.970700995954861E-1
 8.182855843975000E9    -4.453298106718910E-1   -3.111503917943996E-1    1.053009480523434E-3   -2.009935955678589E-3    1.064542347750357E-3   -2.057249572229726E-3   -4.207143870478876E-1   -1.928763585107128E-1
 8.182935302000000E9    -4.486002252097934E-1   -3.065387491201272E-1    1.046759162585941E-3   -2.028323721181033E-3    1.031729676446363E-3   -2.099071525919685E-3   -4.223950800487933E-1   -1.890208625110126E-1
 8.183014760025000E9    -4.515397371481353E-1   -3.019674301574955E-1    1.033798916483643E-3   -2.048721794024445E-3    1.042262454286328E-3   -2.099273822424342E-3   -4.241776078836759E-1   -1.847135526940674E-1
 8.183094218050000E9    -4.546612233846073E-1   -2.972271390438707E-1    1.010081327112987E-3   -2.046871041409273E-3    1.046845300215007E-3   -2.160753386994282E-3   -4.257658365164957E-1   -1.805225568088643E-1
 8.183173676075000E9    -4.575722638238634E-1   -2.928160217229843E-1    9.879176246594395E-4   -2.043665730599302E-3    1.024677969280470E-3   -2.112460898843301E-3   -4.274982087225664E-1   -1.766692574459888E-1
 8.183253134100000E9    -4.606229584624662E-1   -2.879890183679095E-1    9.620665573702999E-4   -2.032280504623815E-3    9.476076107362555E-4   -2.130481727998169E-3   -4.288866510037611E-1   -1.723667283212318E-1
 8.183332592125000E9    -4.634066917711475E-1   -2.833601255477773E-1    9.410690453082681E-4   -2.092506640125606E-3    9.631667804632928E-4   -2.148942245553693E-3   -4.305258946394665E-1   -1.683087820203437E-1
 8.183412050150000E9    -4.662676163509091E-1   -2.785392161904133E-1    9.192131806680542E-4   -2.062305289642685E-3    9.286318974353710E-4   -2.193120728556064E-3   -4.320976866591642E-1   -1.640465461452803E-1
 8.183491508175000E9    -4.689757565009667E-1   -2.738028821214794E-1    9.079135305580593E-4   -2.105895188253996E-3    9.091558368573137E-4   -2.211698873286149E-3   -4.335765154637666E-1   -1.600006987915702E-1
 8.183570966200000E9    -4.719196670532438E-1   -2.690346648859927E-1    9.006325395952564E-4   -2.104214834888795E-3    8.729404851031705E-4   -2.177354192720175E-3   -4.350374007121147E-1   -1.557685572173624E-1
 8.183650424225000E9    -4.744099471087048E-1   -2.641993533904107E-1    8.646529758271492E-4   -2.102267626109271E-3    8.525994154223239E-4   -2.204961411909437E-3   -4.364977245778578E-1   -1.516228750190977E-1
 8.183729882250000E9    -4.772037208527928E-1   -2.593229692943604E-1    8.106734505742928E-4   -2.131315878068642E-3    8.658879265887409E-4   -2.200759964798682E-3   -4.377327129884026E-1   -1.473801752551041E-1
 8.183809340275000E9    -4.798441329901066E-1   -2.544948614179693E-1    8.134879400222351E-4   -2.167081620743350E-3    8.245234165594607E-4   -2.215872747149984E-3   -4.391572582682812E-1   -1.431310707857518E-1
 8.183888798300000E9    -4.822435086741599E-1   -2.494229350947954E-1    7.780001046614017E-4   -2.138811796649278E-3    7.948847614113511E-4   -2.237461414800905E-3   -4.402717421313838E-1   -1.389542394001277E-1
 8.183968256325000E9    -4.847873163251333E-1   -2.447173834512902E-1    7.971764538999337E-4   -2.174608446089277E-3    7.601701127736431E-4   -2.252141100373885E-3   -4.416161373989503E-1   -1.346155279137132E-1
 8.184047714350000E9    -4.871029457775259E-1   -2.397164899066563E-1    7.385219793376353E-4   -2.169232239814701E-3    7.590632327267187E-4   -2.289380069845253E-3   -4.426860768025601E-1   -1.305316240648784E-1
 8.184127172375000E9    -4.896433757531264E-1   -2.346284052300491E-1    7.344832198472580E-4   -2.149546574060183E-3    7.461482779825792E-4   -2.259286292621729E-3   -4.438641480859908E-1   -1.261461133704984E-1
 8.184206630400000E9    -4.919785628444664E-1   -2.296980381976137E-1    7.226422128879453E-4   -2.169765780126791E-3    6.701508839186120E-4   -2.283370356712363E-3   -4.449546124754306E-1   -1.217920889386791E-1
 8.184286088425000E9    -4.942161029839479E-1   -2.247034113218426E-1    7.036827929667637E-4   -2.178804251302503E-3    6.680230566806250E-4   -2.291978469602198E-3   -4.460554139557733E-1   -1.176884213015904E-1
 8.184365546450000E9    -4.965576918656848E-1   -2.195440034348595E-1    6.629315597917498E-4   -2.182490626383448E-3    6.473292255808652E-4   -2.267505973160208E-3   -4.471102855010019E-1   -1.133141371021405E-1
 8.184445004475000E9    -4.986709093033743E-1   -2.145544881320275E-1    6.769857913680828E-4   -2.194624496453650E-3    6.240478289876445E-4   -2.274253129520197E-3   -4.481494275330316E-1   -1.090351841457066E-1
 8.184524462500000E9    -5.009173082077748E-1   -2.093997430752937E-1    6.567616946946579E-4   -2.204072210248687E-3    6.047796810416861E-4   -2.291722458472586E-3   -4.491960960864079E-1   -1.046957724291040E-1
 8.184603920525000E9    -5.029642258010101E-1   -2.042753889592869E-1    6.126942409813675E-4   -2.196034027735208E-3    5.749874359588898E-4   -2.303704050899170E-3   -4.499096442812974E-1   -1.004552135032176E-1
 8.184683378550000E9    -5.049000925739539E-1   -1.992030869167422E-1    5.856777643891420E-4   -2.205222886420176E-3    5.937255445632892E-4   -2.325908553676720E-3   -4.508987799101536E-1   -9.602256439190573E-2
 8.184762836575000E9    -5.070185927095925E-1   -1.938270325028868E-1    5.759464725328821E-4   -2.226412949728580E-3    5.692970578948053E-4   -2.295340359881644E-3   -4.518109373086653E-1   -9.167909519400544E-2
 8.184842294600000E9    -5.086888618239049E-1   -1.889046424007352E-1    5.510994285513356E-4   -2.186437225583293E-3    5.317536564363867E-4   -2.336387176349986E-3   -4.524513883275885E-1   -8.725048142219713E-2
 8.184921752625000E9    -5.107779004319601E-1   -1.836039950327130E-1    5.290534355931056E-4   -2.227755964888794E-3    4.975429613282297E-4   -2.319445311054263E-3   -4.531753897206261E-1   -8.310872629562695E-2
 8.185001210650000E9    -5.125434198618407E-1   -1.782824305311424E-1    5.064708977641682E-4   -2.227849946146773E-3    4.718974568516993E-4   -2.333393148664349E-3   -4.538603883265754E-1   -7.868760672616434E-2
 8.185080668675000E9    -5.143882098805517E-1   -1.729939703703533E-1    4.650363077725957E-4   -2.233054479323030E-3    4.532663869432968E-4   -2.340323784595559E-3   -4.545797480335392E-1   -7.439974549370806E-2
 8.185160126700000E9    -5.161252103444571E-1   -1.678687405990062E-1    4.782493830900389E-4   -2.271285455167885E-3    4.300841709717854E-4   -2.317281390848223E-3   -4.550360105548343E-1   -6.993781085172170E-2
 8.185239584725000E9    -5.177734600687787E-1   -1.625636795712742E-1    3.981260846329226E-4   -2.259697454879740E-3    4.164673841716118E-4   -2.336435370781233E-3   -4.557980879787639E-1   -6.551224706706643E-2
 8.185319042750000E9    -5.192115291711626E-1   -1.572694997350577E-1    4.467458436715386E-4   -2.276970751634197E-3    3.714441970116294E-4   -2.357534789234876E-3   -4.562933125797257E-1   -6.117805418630327E-2
 8.185398500775000E9    -5.209018610585283E-1   -1.519328456392409E-1    4.013446954615323E-4   -2.261872279568217E-3    3.912669038605614E-4   -2.344503385469070E-3   -4.567375489158366E-1   -5.674606867452607E-2
 8.185477958800000E9    -5.225074987616963E-1   -1.466050442027219E-1    3.973239131672449E-4   -2.253855355402791E-3    3.806640525070279E-4   -2.346967164849015E-3   -4.571830095664056E-1   -5.250798475572976E-2
 8.185557416825000E9    -5.238161211173318E-1   -1.411908465209892E-1    3.392763426331708E-4   -2.284267966258071E-3    3.303444494597211E-4   -2.355978732893406E-3   -4.575749273462333E-1   -4.793797100562539E-2
 8.185636874850000E9    -5.252065754591265E-1   -1.360044688087147E-1    3.413538762254603E-4   -2.297675754736503E-3    3.013807915258890E-4   -2.372387717143302E-3   -4.580408283022714E-1   -4.355279874774803E-2
 8.185716332875000E9    -5.265617470452411E-1   -1.305613159986312E-1    2.825524070145839E-4   -2.271602557441177E-3    2.982302623225473E-4   -2.392789745622723E-3   -4.581751363142398E-1   -3.912111084475185E-2
 8.185795790900000E9    -5.279218862697359E-1   -1.250583336131744E-1    2.716966542497923E-4   -2.287555366791872E-3    2.864576182589136E-4   -2.370075672237228E-3   -4.586113424757371E-1   -3.494245903959342E-2
 8.185875248925000E9    -5.291433772055947E-1   -1.196967219579957E-1    2.621800593749439E-4   -2.281451038626829E-3    2.317900691226128E-4   -2.382201164147498E-3   -4.587400960392146E-1   -3.046241501831616E-2
 8.185954706950000E9    -5.301889191547510E-1   -1.142713221385379E-1    2.442444779391410E-4   -2.303107825352600E-3    2.091820124432339E-4   -2.372414141185003E-3   -4.589018906027039E-1   -2.604225292977522E-2
 8.186034164975000E9    -5.313689549295519E-1   -1.088127137975903E-1    2.166203126640791E-4   -2.292015516262187E-3    1.827343757214478E-4   -2.395214429187045E-3   -4.591004715430739E-1   -2.159318939825130E-2
 8.186113623000000E9    -5.324924221092504E-1   -1.033473367700960E-1    1.909200660093756E-4   -2.307788005193529E-3    1.717432826823725E-4   -2.387812104824391E-3   -4.591326873327339E-1   -1.728217778442558E-2
 8.186193081025000E9    -5.333366419571192E-1   -9.803797913446861E-2    1.528184584665080E-4   -2.327587715081784E-3    1.629564724112044E-4   -2.400873910238287E-3   -4.592586495387050E-1   -1.281179315179788E-2
 8.186272539050000E9    -5.344195303554832E-1   -9.240725145419938E-2    1.840247562544433E-4   -2.323201404314399E-3    1.370047775169790E-4   -2.415772546520229E-3   -4.591839681848805E-1   -8.449470369041071E-3
 8.186351997075000E9    -5.353508665614485E-1   -8.704855705917935E-2    1.516999884215386E-4   -2.300433577474636E-3    6.727447524122039E-5   -2.421364231823554E-3   -4.593378280541843E-1   -3.911664470309928E-3
 8.186431455100000E9    -5.361265258183954E-1   -8.154174564482854E-2    1.051249361829900E-4   -2.316134639164367E-3    5.894345368581820E-5   -2.398349714769318E-3   -4.592422201458872E-1    4.238577642613743E-4
 8.186510913125000E9    -5.368935451918616E-1   -7.597402206444331E-2    7.426971281747454E-5   -2.309368023500066E-3    5.179531159145738E-5   -2.425987523830769E-3   -4.590859882005937E-1    4.883546454530830E-3
 8.186590371150000E9    -5.375851532527768E-1   -7.045484026373132E-2    4.885961741074750E-5   -2.331115872542969E-3    5.422591841426867E-6   -2.417047729248791E-3   -4.589035261538160E-1    9.257129201226903E-3
 8.186669829175000E9    -5.383608337163222E-1   -6.493628102842966E-2    2.953111687333968E-5   -2.334378802285105E-3   -7.008838604697561E-6   -2.399533432850851E-3   -4.588487001643285E-1    1.369747505962087E-2
 8.186749287200000E9    -5.389919207010326E-1   -5.956508848201600E-2    4.180081820363406E-5   -2.325340846631715E-3   -6.262001701646816E-5   -2.399931957218537E-3   -4.585880744587589E-1    1.806007954936479E-2
 8.186828745225000E9    -5.394096056464205E-1   -5.395415865546829E-2   -3.702067632698028E-6   -2.335602046094822E-3   -4.405887591128506E-5   -2.417104846318217E-3   -4.582112106744031E-1    2.233424033424457E-2
 8.186908203250000E9    -5.398874426598125E-1   -4.849688437440501E-2   -8.559161245067304E-6   -2.338929260144523E-3   -6.896904332800183E-5   -2.441804793462054E-3   -4.578033191576807E-1    2.684176946546774E-2
