#  HZ   S   RI   R     50.00 
! Rohde & Schwarz Vector Network Analyzer 
! Rohde-Schwarz,ZNB20-2Port,1311601062101988,3.16
! Created: UTC 3/20/2024, 4:57:09 PM
! freq[Hz]                re:S11                  im:S11                  re:S21                  im:S21                  re:S12                  im:S12                  re:S22                  im:S22
 8.181515739000000E9    -3.861199066425739E-1   -3.825746262047869E-1    1.364083970300334E-3   -1.811051370029311E-3    1.410912242347646E-3   -1.875508628776968E-3   -3.855423651758160E-1   -2.586690032053390E-1
 8.181587190700000E9    -3.895747485547710E-1   -3.791044735426178E-1    1.315092098551331E-3   -1.818432543226752E-3    1.399879854260829E-3   -1.915284173600996E-3   -3.876765381216967E-1   -2.553047665005319E-1
 8.181658642400000E9    -3.929499266089851E-1   -3.756237115705026E-1    1.322710904673746E-3   -1.795486089720849E-3    1.370348702486149E-3   -1.886307408081039E-3   -3.898290865656961E-1   -2.518523831030882E-1
 8.181730094100000E9    -3.962993562691186E-1   -3.719150464122476E-1    1.313261473526539E-3   -1.813660325553609E-3    1.345750171480932E-3   -1.928094266206516E-3   -3.920186440473107E-1   -2.484103844093014E-1
 8.181801545800000E9    -3.996910530295631E-1   -3.684219368074628E-1    1.309873082524607E-3   -1.842720521487884E-3    1.298297183962854E-3   -1.965514039125307E-3   -3.940229335238649E-1   -2.451036357520749E-1
 8.181872997500000E9    -4.030371422918280E-1   -3.646340754799560E-1    1.290904888727064E-3   -1.870086442773264E-3    1.313355517148395E-3   -1.944749550114204E-3   -3.959984827109991E-1   -2.415140272044398E-1
 8.181944449200000E9    -4.063377828584979E-1   -3.608927575177158E-1    1.257870338478174E-3   -1.886515336570261E-3    1.312067506158594E-3   -1.948648606369938E-3   -3.980663092753426E-1   -2.380956966375641E-1
 8.182015900900000E9    -4.097330667829056E-1   -3.570969488412778E-1    1.266098214284777E-3   -1.874636987992372E-3    1.257005619506261E-3   -1.997720718435631E-3   -4.000639546224495E-1   -2.347470095796763E-1
 8.182087352600000E9    -4.128648701572745E-1   -3.533539920773860E-1    1.225935969313292E-3   -1.872377904707052E-3    1.230989119874045E-3   -1.971523233151455E-3   -4.019575418743025E-1   -2.312203960394551E-1
 8.182158804300000E9    -4.160805660748667E-1   -3.497339077868608E-1    1.209852710606167E-3   -1.909007789962067E-3    1.249192018201028E-3   -1.988596287716084E-3   -4.037451819131980E-1   -2.278182445657924E-1
 8.182230256000000E9    -4.191807962972136E-1   -3.457601400410665E-1    1.176564027211190E-3   -1.925263703854688E-3    1.207635735059270E-3   -2.035352821514648E-3   -4.056224672052166E-1   -2.241482577871089E-1
 8.182301707700000E9    -4.223167960934885E-1   -3.419005207773762E-1    1.190768692631450E-3   -1.918159733144376E-3    1.202067454539895E-3   -1.993917712280803E-3   -4.076406321106683E-1   -2.208017974275400E-1
 8.182373159400000E9    -4.254267585602307E-1   -3.380321492213769E-1    1.184649280695980E-3   -1.916563931762683E-3    1.173024775991069E-3   -2.029912060638473E-3   -4.094521411459863E-1   -2.172657589363283E-1
 8.182444611100000E9    -4.284714497115354E-1   -3.340650618741488E-1    1.139523479577685E-3   -1.933713637540376E-3    1.157165161063926E-3   -2.012430192455316E-3   -4.112057515754515E-1   -2.135680209404600E-1
 8.182516062800000E9    -4.314287378518766E-1   -3.301484467821411E-1    1.140334964164368E-3   -1.944479418683654E-3    1.161422722993010E-3   -2.049356245991698E-3   -4.129288325512140E-1   -2.100729631346560E-1
 8.182587514500000E9    -4.344188867474526E-1   -3.263552346299533E-1    1.133176705299721E-3   -1.967660990213439E-3    1.141874355696741E-3   -2.048373304312982E-3   -4.146377602888932E-1   -2.064484863239731E-1
 8.182658966200000E9    -4.375357377659215E-1   -3.222948959093855E-1    1.095589017840047E-3   -1.984764817977630E-3    1.120750313010480E-3   -2.088288909294329E-3   -4.164357313250802E-1   -2.028750759576429E-1
 8.182730417900000E9    -4.403080042415991E-1   -3.182622008273055E-1    1.104693332715458E-3   -1.993198942319220E-3    1.106533346467404E-3   -2.066429863052938E-3   -4.179518091635246E-1   -1.993400433955670E-1
 8.182801869600000E9    -4.432616825149030E-1   -3.142931977050555E-1    1.079563486848007E-3   -2.005904692920394E-3    1.092020056939029E-3   -2.081795411225920E-3   -4.196740503805892E-1   -1.955600343090725E-1
 8.182873321300000E9    -4.460433084082476E-1   -3.100684434884072E-1    1.032321515436557E-3   -2.005610657280708E-3    1.085647785001892E-3   -2.085657189847412E-3   -4.211650429945270E-1   -1.918959982613336E-1
 8.182944773000000E9    -4.489877424260071E-1   -3.060136531708194E-1    1.011788971606089E-3   -2.039347825537334E-3    1.041601252928264E-3   -2.088272170749931E-3   -4.226852964606975E-1   -1.882625930462548E-1
 8.183016224700000E9    -4.516366248790455E-1   -3.018954039911622E-1    1.045486096952269E-3   -2.032239116891591E-3    1.039165243491221E-3   -2.133985987465106E-3   -4.244435899300023E-1   -1.845890329426918E-1
 8.183087676400000E9    -4.543487921275619E-1   -2.976913394505851E-1    1.012252155367304E-3   -2.054265242743315E-3    1.012122189825808E-3   -2.115452074783617E-3   -4.258218226581595E-1   -1.808900792625655E-1
 8.183159128100000E9    -4.570062973409629E-1   -2.936524457198045E-1    9.855717129095692E-4   -2.028715547828177E-3    9.718371660448861E-4   -2.156527954086077E-3   -4.272474444714672E-1   -1.772860086939523E-1
 8.183230579800000E9    -4.596803690919594E-1   -2.893787618922826E-1    9.357713213411758E-4   -2.058413255716315E-3    9.727888447141259E-4   -2.164056787002234E-3   -4.287206044291686E-1   -1.735780855636814E-1
 8.183302031500000E9    -4.623844098017477E-1   -2.852424095362106E-1    9.466715483910185E-4   -2.084511327257020E-3    9.407178211314872E-4   -2.154810030508789E-3   -4.301425663973863E-1   -1.698580011001883E-1
 8.183373483200000E9    -4.649012445956900E-1   -2.809184643947469E-1    9.400560844623252E-4   -2.060392786888908E-3    9.211799461330446E-4   -2.165266270840551E-3   -4.314770699911812E-1   -1.662272178285234E-1
 8.183444934900000E9    -4.674990892203595E-1   -2.765802910168682E-1    9.186144274336029E-4   -2.077354111117007E-3    9.192627786118069E-4   -2.157101473681566E-3   -4.329160453587179E-1   -1.623004762919921E-1
 8.183516386600000E9    -4.699248203088299E-1   -2.722896145631669E-1    9.021096764966094E-4   -2.097597968651282E-3    8.855430461686679E-4   -2.156528925791990E-3   -4.340350940000411E-1   -1.585736155582626E-1
 8.183587838300000E9    -4.724108685416124E-1   -2.680362146913837E-1    8.641064609833365E-4   -2.088192861629188E-3    9.249796356406351E-4   -2.186804231092763E-3   -4.355040774960753E-1   -1.548038513622316E-1
 8.183659290000000E9    -4.748049332782874E-1   -2.635574004455126E-1    8.568734144554654E-4   -2.093357227196001E-3    8.445469408255862E-4   -2.207091207313142E-3   -4.366568035824956E-1   -1.510565704532962E-1
 8.183730741700000E9    -4.771499222216068E-1   -2.594152429456291E-1    8.218691098153236E-4   -2.113083539854158E-3    8.531856621542000E-4   -2.206212760460218E-3   -4.379092283824449E-1   -1.473185957383424E-1
 8.183802193400000E9    -4.793511305341628E-1   -2.548960447868934E-1    8.074189445310051E-4   -2.107266108254312E-3    8.248491401015427E-4   -2.198680164813002E-3   -4.391456693540924E-1   -1.435632996122318E-1
 8.183873645100000E9    -4.817948189431973E-1   -2.504823810925468E-1    8.032565746626428E-4   -2.151190677194980E-3    8.298006151092579E-4   -2.185387851707162E-3   -4.402140296832645E-1   -1.397778831652885E-1
 8.183945096800000E9    -4.839267714129459E-1   -2.461544404101237E-1    7.917554137768042E-4   -2.147045375952270E-3    8.014140724683532E-4   -2.230885574560274E-3   -4.413639636824837E-1   -1.358049126876828E-1
 8.184016548500000E9    -4.862370940615973E-1   -2.416061492352363E-1    7.238327801535898E-4   -2.129104461787800E-3    7.602753322166478E-4   -2.219696112483475E-3   -4.423927449964118E-1   -1.321323704469836E-1
 8.184088000200000E9    -4.883915869346295E-1   -2.372395271701088E-1    7.376252003536829E-4   -2.182433000777683E-3    7.609449197060375E-4   -2.228347990183397E-3   -4.435360988139646E-1   -1.283127657493771E-1
 8.184159451900000E9    -4.905496971279588E-1   -2.326044061212877E-1    7.390642884613115E-4   -2.172036656470819E-3    7.405003646680241E-4   -2.248141511667018E-3   -4.445892659052441E-1   -1.244024212611091E-1
 8.184230903600000E9    -4.926676404402991E-1   -2.283832115956267E-1    7.240986749469161E-4   -2.135043922490267E-3    6.722466560454718E-4   -2.265224663270314E-3   -4.455733500924249E-1   -1.206176207815547E-1
 8.184302355300000E9    -4.947420111053663E-1   -2.235173449155431E-1    7.128016587674834E-4   -2.179758464308594E-3    6.916615182685381E-4   -2.259100041454936E-3   -4.464991699613198E-1   -1.166578069483529E-1
 8.184373807000000E9    -4.967791509820776E-1   -2.191874579260678E-1    7.054914094605591E-4   -2.186614463451359E-3    6.561860987167326E-4   -2.303458030171617E-3   -4.473111616224952E-1   -1.129743051449506E-1
 8.184445258700000E9    -4.987618606306057E-1   -2.144476229940457E-1    6.447703533276658E-4   -2.216766221276487E-3    6.676323013435890E-4   -2.282478944488066E-3   -4.482669828564873E-1   -1.089057391633378E-1
 8.184516710400000E9    -5.006638496613337E-1   -2.098763638113884E-1    6.494396333616317E-4   -2.202601178136844E-3    6.176865740439329E-4   -2.313896636171921E-3   -4.492491718671587E-1   -1.050849298506010E-1
 8.184588162100000E9    -5.024840929632166E-1   -2.052410133508497E-1    6.323999370771918E-4   -2.203502480150800E-3    5.962713945724254E-4   -2.287409239980000E-3   -4.498344070744308E-1   -1.010795925168294E-1
 8.184659613800000E9    -5.043296737591260E-1   -2.006121319017437E-1    5.998322262488300E-4   -2.201022911695084E-3    5.584064450296314E-4   -2.310989454651358E-3   -4.506925967463776E-1   -9.719233523031336E-2
 8.184731065500000E9    -5.061560162387532E-1   -1.960587963167571E-1    5.557214982881484E-4   -2.207741194914037E-3    5.532372613503413E-4   -2.309252581953191E-3   -4.514477634409390E-1   -9.336633511741542E-2
 8.184802517200000E9    -5.079264837201545E-1   -1.914068930041715E-1    5.781959449930008E-4   -2.228768790217898E-3    5.509782225226786E-4   -2.316441022887198E-3   -4.522624333953813E-1   -8.952570980671065E-2
 8.184873968900000E9    -5.096691280860781E-1   -1.867871578540588E-1    5.587000400827950E-4   -2.231717755174544E-3    5.327751130360948E-4   -2.304889842881801E-3   -4.529120568400538E-1   -8.558977862459738E-2
 8.184945420600000E9    -5.112413518714611E-1   -1.820326385591022E-1    5.201520589208984E-4   -2.232949197204930E-3    4.807896967499650E-4   -2.313272289405830E-3   -4.535344227546646E-1   -8.167828995816664E-2
 8.185016872300000E9    -5.130107657783466E-1   -1.774533441280674E-1    5.146648422332068E-4   -2.233490586065643E-3    4.797928881404322E-4   -2.332228727657796E-3   -4.540205898972987E-1   -7.789281953959652E-2
 8.185088324000000E9    -5.144377142560276E-1   -1.726831751174347E-1    5.064680758074732E-4   -2.241495383883877E-3    4.916253063868345E-4   -2.327299210931372E-3   -4.547097304590743E-1   -7.379345727481593E-2
 8.185159775700000E9    -5.161434517354343E-1   -1.679484279351631E-1    4.554013683471648E-4   -2.246463593973669E-3    4.216834571609013E-4   -2.363478143186643E-3   -4.552626637039768E-1   -6.972407049450609E-2
 8.185231227400000E9    -5.175101346024956E-1   -1.631392052830269E-1    4.569006854850477E-4   -2.268407150965507E-3    4.150214541956519E-4   -2.344846766331353E-3   -4.557926538658528E-1   -6.584773318404590E-2
 8.185302679100000E9    -5.189593847514478E-1   -1.583635453198515E-1    3.942400161001596E-4   -2.279698899164650E-3    3.982001451757250E-4   -2.334682328441855E-3   -4.561757139855674E-1   -6.203158314329041E-2
 8.185374130800000E9    -5.203597895600237E-1   -1.534885004317814E-1    4.287073075972607E-4   -2.253685723095097E-3    3.640253840523192E-4   -2.356150192879434E-3   -4.567882794933388E-1   -5.811383884293980E-2
 8.185445582500000E9    -5.217867065612147E-1   -1.487512163192417E-1    3.859167258453098E-4   -2.265422982802441E-3    3.467774415400031E-4   -2.350125494425290E-3   -4.572615462810114E-1   -5.409013831363980E-2
 8.185517034200000E9    -5.231554876338024E-1   -1.440760831639871E-1    3.785623172303166E-4   -2.282681234015242E-3    3.525835147464176E-4   -2.334365278834213E-3   -4.576132076757683E-1   -5.015936658280613E-2
 8.185588485900000E9    -5.243326893859463E-1   -1.392481569490902E-1    3.363953530812407E-4   -2.259651611743505E-3    3.191590145166647E-4   -2.415623782636753E-3   -4.577963861833175E-1   -4.616268290451094E-2
 8.185659937600000E9    -5.255884067048742E-1   -1.342894134789576E-1    3.151354217355622E-4   -2.306437701910499E-3    3.163299693497394E-4   -2.369109452329196E-3   -4.582401589798050E-1   -4.233527646295598E-2
 8.185731389300000E9    -5.268594862333151E-1   -1.294754672461787E-1    3.023700901310213E-4   -2.290917497108049E-3    2.392597025560864E-4   -2.367033497146040E-3   -4.583879158351049E-1   -3.829922524071821E-2
 8.185802841000000E9    -5.280110516448643E-1   -1.246441271769562E-1    2.825190137883559E-4   -2.296891558315960E-3    2.579152266630396E-4   -2.393290074693309E-3   -4.586617981561876E-1   -3.449008508397954E-2
 8.185874292700000E9    -5.291360603572611E-1   -1.198108971548944E-1    2.732247462370671E-4   -2.270835765171154E-3    2.207213039010015E-4   -2.397784187664640E-3   -4.589847508351884E-1   -3.042047860451281E-2
 8.185945744400000E9    -5.300955869473577E-1   -1.149522672156029E-1    2.145882294973693E-4   -2.268318116100303E-3    2.361526983959624E-4   -2.364159516508308E-3   -4.590202980247390E-1   -2.635520703174988E-2
 8.186017196100000E9    -5.312116130782500E-1   -1.099638887773348E-1    2.250723383711994E-4   -2.310802410020159E-3    2.058089349151379E-4   -2.401266239334507E-3   -4.592275798184206E-1   -2.255623760810584E-2
 8.186088647800000E9    -5.321779785807292E-1   -1.051603057872939E-1    1.835953418135606E-4   -2.279573007938456E-3    1.887318436550899E-4   -2.390010743517378E-3   -4.591919586857527E-1   -1.853934665512745E-2
 8.186160099500000E9    -5.329136960379119E-1   -1.003589366148765E-1    2.158678128393262E-4   -2.309757159897887E-3    1.480990514972026E-4   -2.392522162822396E-3   -4.592714543688787E-1   -1.454383407453770E-2
 8.186231551200000E9    -5.339368864044248E-1   -9.517946023568259E-2    1.545055234622340E-4   -2.323928448180333E-3    1.346884487044516E-4   -2.385946127531236E-3   -4.593973780792038E-1   -1.054142330413256E-2
 8.186303002900000E9    -5.347559175276978E-1   -9.036555762143723E-2    1.480610051317296E-4   -2.316774277212374E-3    1.107251941443377E-4   -2.391368947753224E-3   -4.595125545665328E-1   -6.633780841639806E-3
 8.186374454600000E9    -5.355680902058821E-1   -8.560789537182230E-2    1.426700500015304E-4   -2.315859915990726E-3    9.689505640159912E-5   -2.420475735799427E-3   -4.593774267072424E-1   -2.569655919305384E-3
 8.186445906300000E9    -5.362996655655836E-1   -8.052543735942587E-2    1.060493405708260E-4   -2.328209925595555E-3    2.592956859306632E-5   -2.396775691596566E-3   -4.592250755005873E-1    1.173417070820007E-3
 8.186517358000000E9    -5.369860552576609E-1   -7.556172263982328E-2    8.491829059073210E-5   -2.292597957562689E-3    5.121474034757946E-5   -2.374361171128702E-3   -4.592761989767193E-1    5.246646844336173E-3
 8.186588809700000E9    -5.376734846210803E-1   -7.061102796133586E-2    7.774706022576331E-5   -2.327729820916307E-3    3.798319435465485E-5   -2.403850040673268E-3   -4.590501754009784E-1    9.277311744466461E-3
 8.186660261400000E9    -5.382156992513428E-1   -6.561418792375241E-2    3.662892333784321E-5   -2.323741100691353E-3    1.925025074643429E-5   -2.426847571271528E-3   -4.588920396684554E-1    1.312239701800588E-2
 8.186731713100000E9    -5.387695035566700E-1   -6.080505267716481E-2    1.405562962965047E-5   -2.305677617519786E-3   -1.936973483936383E-5   -2.424623579325921E-3   -4.587472065332325E-1    1.711055649074910E-2
 8.186803164800000E9    -5.392035733133963E-1   -5.585917478506901E-2   -2.522574222597953E-6   -2.350102538212700E-3   -4.317722980612337E-5   -2.378414461132991E-3   -4.585171894510125E-1    2.111790210835491E-2
 8.186874616500000E9    -5.397170335336146E-1   -5.089154242077389E-2   -1.747964767683839E-5   -2.346202010527349E-3   -6.510677047946771E-5   -2.430210412606968E-3   -4.581757900905674E-1    2.494111998577443E-2
 8.186946068200000E9    -5.402847940794494E-1   -4.589684446833447E-2   -2.661149542876158E-5   -2.327893908294618E-3   -1.044575410875888E-4   -2.449527093467940E-3   -4.579165937769897E-1    2.902374807543319E-2
 8.187017519900000E9    -5.406691730344083E-1   -4.087322711491993E-2   -5.528624755137430E-5   -2.318814472463440E-3   -1.125735616044430E-4   -2.409552642066229E-3   -4.574701626234187E-1    3.287352858453917E-2
 8.187088971600000E9    -5.408075491089396E-1   -3.584113597083783E-2   -6.700429038809336E-5   -2.341868037636354E-3   -1.571464137443699E-4   -2.407368712901140E-3   -4.571977736983694E-1    3.695000903885882E-2
 8.187160423300000E9    -5.411653385543822E-1   -3.100659175106896E-2   -7.529295225627243E-5   -2.344969264511883E-3   -1.599146524889045E-4   -2.441113745892429E-3   -4.566955323465205E-1    4.087222920749254E-2
 8.187231875000000E9    -5.414343828005544E-1   -2.593378921605736E-2   -1.294927393288276E-4   -2.352118656779179E-3   -1.863101534867496E-4   -2.398526742439047E-3   -4.562681670924604E-1    4.481119288613879E-2
 8.187303326700000E9    -5.417150326452255E-1   -2.085695680275866E-2   -1.339782194890315E-4   -2.328509381426831E-3   -1.965360032390492E-4   -2.385051919045502E-3   -4.557372469730365E-1    4.880620765724603E-2
 8.187374778400000E9    -5.416321827814153E-1   -1.593147425446263E-2   -1.815932068598597E-4   -2.369733240810165E-3   -2.403281983927971E-4   -2.414872601201469E-3   -4.551866590390328E-1    5.261038616363403E-2
 8.187446230100000E9    -5.418788060788329E-1   -1.095870578113414E-2   -1.742261309063827E-4   -2.331914063161416E-3   -2.066762047155419E-4   -2.388001186155543E-3   -4.546662515572560E-1    5.654403940093324E-2
 8.187517681800000E9    -5.418353647317670E-1   -6.013161551393462E-3   -2.099608151929144E-4   -2.333788535944395E-3   -2.866948701109391E-4   -2.375080790149510E-3   -4.541454742522831E-1    6.061138287372051E-2
 8.187589133500000E9    -5.417936483212339E-1   -8.608898429512434E-4   -2.222811427427753E-4   -2.333953321005471E-3   -2.599576499993280E-4   -2.434615101946424E-3   -4.534831972375672E-1    6.443260038582316E-2
 8.187660585200000E9    -5.418019660508964E-1    4.026480837890371E-3   -2.557266882600231E-4   -2.345431060496935E-3   -3.232138496675523E-4   -2.407515169063210E-3   -4.528787931468145E-1    6.850497982573191E-2
 8.187732036900000E9    -5.418215116137972E-1    9.122313601291600E-3   -2.627744112638864E-4   -2.377240119502404E-3   -3.355786880406478E-4   -2.393203163464279E-3   -4.521546117351825E-1    7.218570526880033E-2
 8.187803488600000E9    -5.416266894142098E-1    1.388319424428695E-2   -3.005968605229572E-4   -2.327182162936350E-3   -3.424093909554084E-4   -2.367909727213586E-3   -4.513907844880637E-1    7.626955999449683E-2
 8.187874940300000E9    -5.415188187396587E-1    1.903392754881660E-2   -3.294995227158381E-4   -2.325802133437576E-3   -3.714078676190346E-4   -2.418952768757304E-3   -4.505461035194431E-1    8.011347136973887E-2
 8.187946392000000E9    -5.411506198395488E-1    2.395165528143954E-2   -3.274344442689410E-4   -2.325431712388053E-3   -3.912540290122205E-4   -2.388268272564871E-3   -4.499137862698716E-1    8.405989785124442E-2
