#  HZ   S   RI   R     50.00 
! Rohde & Schwarz Vector Network Analyzer 
! Rohde-Schwarz,ZNB20-2Port,1311601062101988,3.16
! Created: UTC 3/20/2024, 4:57:12 PM
! freq[Hz]                re:S11                  im:S11                  re:S21                  im:S21                  re:S12                  im:S12                  re:S22                  im:S22
 8.177419606000000E9    -1.450174625738875E-1   -5.246551053779214E-1    2.059128324857240E-3   -9.317421437206142E-4    2.098218999700622E-3   -9.947103900837726E-4   -2.195096927017601E-1   -4.143002241052964E-1
 8.177509675100000E9    -1.511269362553696E-1   -5.228946004473202E-1    2.025027414164394E-3   -9.613442152934639E-4    2.064831425549024E-3   -9.895992215090551E-4   -2.238652358642162E-1   -4.116967891317720E-1
 8.177599744200000E9    -1.570379036410685E-1   -5.211382761392006E-1    2.044684286129303E-3   -9.713302482902092E-4    2.091165815456749E-3   -1.020170812672980E-3   -2.282895977208983E-1   -4.092720686106476E-1
 8.177689813300000E9    -1.628548323558128E-1   -5.193529927005515E-1    1.988563083095465E-3   -1.002689054651660E-3    2.059033444912981E-3   -1.057641341674528E-3   -2.325137429199904E-1   -4.065459976713828E-1
 8.177779882400000E9    -1.687406488767786E-1   -5.173342534976967E-1    1.996668721854326E-3   -1.019276219530726E-3    2.056911261489237E-3   -1.055206875912887E-3   -2.371010855993097E-1   -4.040221654320400E-1
 8.177869951500000E9    -1.747348348595712E-1   -5.155150804082712E-1    2.007515640892690E-3   -1.022913600476830E-3    2.066926697124712E-3   -1.108819636312113E-3   -2.412743351883976E-1   -4.015013126627822E-1
 8.177960020600000E9    -1.805408568607036E-1   -5.134318083295136E-1    1.986001097125577E-3   -1.073803758379421E-3    2.017251920573927E-3   -1.104692813742380E-3   -2.455886535092177E-1   -3.985164690144711E-1
 8.178050089700000E9    -1.863150233295685E-1   -5.111808180160768E-1    1.975772849924335E-3   -1.065321821973147E-3    2.010641621605883E-3   -1.131230281835137E-3   -2.498572478002366E-1   -3.957624476238970E-1
 8.178140158800000E9    -1.922044964398882E-1   -5.091487876320130E-1    1.958402639970927E-3   -1.077288033875569E-3    1.997156582618643E-3   -1.163619804916822E-3   -2.540593919259131E-1   -3.929569550052157E-1
 8.178230227900000E9    -1.980087096818688E-1   -5.068574871900512E-1    1.929737159679798E-3   -1.137792825401205E-3    2.014125070448099E-3   -1.169098200003891E-3   -2.582685731619421E-1   -3.901377731180029E-1
 8.178320297000000E9    -2.037570502163106E-1   -5.046300920714903E-1    1.929587549227130E-3   -1.145778214874714E-3    1.961652256080568E-3   -1.189597106773885E-3   -2.624269994682965E-1   -3.871704568672605E-1
 8.178410366100000E9    -2.096193391017866E-1   -5.021880612480399E-1    1.944655393374339E-3   -1.146430049497793E-3    1.976644509967684E-3   -1.249264214590845E-3   -2.666227125611967E-1   -3.841902631874654E-1
 8.178500435200000E9    -2.151341230888402E-1   -4.997476459457248E-1    1.906550138814142E-3   -1.181066514791884E-3    1.921144391201210E-3   -1.265749913552126E-3   -2.706800525582595E-1   -3.810479794536568E-1
 8.178590504300000E9    -2.208609659235688E-1   -4.973919518677387E-1    1.882050555993484E-3   -1.199170735278380E-3    1.908142135451901E-3   -1.253278324044015E-3   -2.746512934718265E-1   -3.782631666298175E-1
 8.178680573400000E9    -2.265663214323469E-1   -4.945855935871017E-1    1.893641110918231E-3   -1.203933884529320E-3    1.964744197710782E-3   -1.269780105427384E-3   -2.787719108721895E-1   -3.751822064217483E-1
 8.178770642500000E9    -2.322295009737552E-1   -4.920623803706367E-1    1.869992147661435E-3   -1.251580564301751E-3    1.892241588909187E-3   -1.288654876969360E-3   -2.827890797598174E-1   -3.719203263940167E-1
 8.178860711600000E9    -2.378107189641769E-1   -4.893392078535887E-1    1.842798366618475E-3   -1.285984335674448E-3    1.905206141421224E-3   -1.364093009114229E-3   -2.867238592391903E-1   -3.687807998171083E-1
 8.178950780700000E9    -2.434423415465418E-1   -4.865263392802738E-1    1.827193326698193E-3   -1.289342653879348E-3    1.862867089808744E-3   -1.361553449323490E-3   -2.905008228487911E-1   -3.655908894819363E-1
 8.179040849800000E9    -2.488702855818805E-1   -4.836504469117893E-1    1.807797833848078E-3   -1.329123790367661E-3    1.864845466791339E-3   -1.363716875534992E-3   -2.945928730835221E-1   -3.623768489863669E-1
 8.179130918900000E9    -2.543689862445486E-1   -4.808550901300677E-1    1.797937235965931E-3   -1.324000908655903E-3    1.864337210631051E-3   -1.416619435133320E-3   -2.982808535920605E-1   -3.590003121423509E-1
 8.179220988000000E9    -2.598137710796419E-1   -4.779227681218674E-1    1.788368168475133E-3   -1.343499749162555E-3    1.829136029525267E-3   -1.378413871830403E-3   -3.020710501997726E-1   -3.556514749854035E-1
 8.179311057100000E9    -2.654641480121082E-1   -4.749955640514702E-1    1.797559674447163E-3   -1.371841900987761E-3    1.820647499198444E-3   -1.418014059486460E-3   -3.059744295071370E-1   -3.523394676476607E-1
 8.179401126200000E9    -2.708183923853464E-1   -4.717698515339367E-1    1.763606291346058E-3   -1.375664347119543E-3    1.814306331691843E-3   -1.455139266504633E-3   -3.097954191200544E-1   -3.489056122035485E-1
 8.179491195300000E9    -2.761494809051610E-1   -4.687019741772188E-1    1.764654937323727E-3   -1.399569306423452E-3    1.826089435664775E-3   -1.492332473410008E-3   -3.132575687858030E-1   -3.454831863993371E-1
 8.179581264400000E9    -2.814403307855352E-1   -4.653732170791235E-1    1.742148172857659E-3   -1.460951836852364E-3    1.758260015840661E-3   -1.478715393646683E-3   -3.170492355439969E-1   -3.419441246780608E-1
 8.179671333500000E9    -2.865508061158564E-1   -4.622519043826021E-1    1.678092638152656E-3   -1.432273550836757E-3    1.766817092418085E-3   -1.493619733638837E-3   -3.206640930302106E-1   -3.384821455731541E-1
 8.179761402600000E9    -2.921081397077834E-1   -4.588799162931477E-1    1.690644886708433E-3   -1.471134439837547E-3    1.767370880064368E-3   -1.536924794150990E-3   -3.242697456555593E-1   -3.349093284533971E-1
 8.179851471700000E9    -2.972695253206022E-1   -4.555929833036553E-1    1.684070220037144E-3   -1.477987637340994E-3    1.737938324442279E-3   -1.539671790343744E-3   -3.277935409243124E-1   -3.311295358012240E-1
 8.179941540800000E9    -3.023976470111160E-1   -4.519905016969689E-1    1.694536203653878E-3   -1.478310280051987E-3    1.756994238332361E-3   -1.586617406205692E-3   -3.312595437702887E-1   -3.277754137729801E-1
 8.180031609900000E9    -3.075295615958644E-1   -4.485390145695787E-1    1.660208826334991E-3   -1.514269149465694E-3    1.674439876469111E-3   -1.603858928490628E-3   -3.347061676645064E-1   -3.239804206574270E-1
 8.180121679000000E9    -3.126918472735354E-1   -4.449616122441586E-1    1.631795329319223E-3   -1.547240416066681E-3    1.669830447709360E-3   -1.610591900107733E-3   -3.380068849444604E-1   -3.201230699879283E-1
 8.180211748100000E9    -3.178593688582413E-1   -4.413652457907359E-1    1.630380069132595E-3   -1.561710607439348E-3    1.705335608406557E-3   -1.620750479146529E-3   -3.415084129588997E-1   -3.165387245569768E-1
 8.180301817200000E9    -3.228354159742325E-1   -4.376930486017099E-1    1.620975951600643E-3   -1.582978647025904E-3    1.656843200769957E-3   -1.655986996367432E-3   -3.448686374721542E-1   -3.128207789738618E-1
 8.180391886300000E9    -3.276482211611718E-1   -4.338184245816990E-1    1.593190859700026E-3   -1.574283248204292E-3    1.627760657212150E-3   -1.674645923583928E-3   -3.481980745665157E-1   -3.089138756805858E-1
 8.180481955400000E9    -3.327107872590750E-1   -4.301656506159209E-1    1.583580135201351E-3   -1.606402864487424E-3    1.602345472055982E-3   -1.663752172781105E-3   -3.514038620772283E-1   -3.051177113555212E-1
 8.180572024500000E9    -3.375938765473792E-1   -4.261925486557401E-1    1.540929447871263E-3   -1.611955726628127E-3    1.606942957258967E-3   -1.693444279393858E-3   -3.547082516848692E-1   -3.012336782032563E-1
 8.180662093600000E9    -3.425396287968526E-1   -4.223632808880385E-1    1.524658366818461E-3   -1.637255001434838E-3    1.579113077839749E-3   -1.690448369494214E-3   -3.576083190328361E-1   -2.973195263928073E-1
 8.180752162700000E9    -3.472286747072074E-1   -4.184078073169570E-1    1.496090063202843E-3   -1.673231249635283E-3    1.538645737144542E-3   -1.748701884862918E-3   -3.608935839717636E-1   -2.933448806399219E-1
 8.180842231800000E9    -3.520428520087112E-1   -4.144629547422166E-1    1.488422221071614E-3   -1.662029967302414E-3    1.524279606960871E-3   -1.737643045713218E-3   -3.640507560147495E-1   -2.893563777691214E-1
 8.180932300900000E9    -3.567628551264830E-1   -4.103010337642389E-1    1.481640121131464E-3   -1.680379595728839E-3    1.520249977205926E-3   -1.738641313698760E-3   -3.669665809211632E-1   -2.853070823417134E-1
 8.181022370000000E9    -3.613954740494132E-1   -4.062425683735029E-1    1.477543776470752E-3   -1.701437717447405E-3    1.496808144406883E-3   -1.825702329105631E-3   -3.701405773341558E-1   -2.812505429287248E-1
 8.181112439100000E9    -3.660216918228888E-1   -4.020491864950366E-1    1.441947460310271E-3   -1.726633492938639E-3    1.505954257389102E-3   -1.817497869120903E-3   -3.728747639988692E-1   -2.773394794270898E-1
 8.181202508200000E9    -3.706586302920126E-1   -3.978591391522023E-1    1.421877192446571E-3   -1.743366037215645E-3    1.462968403759425E-3   -1.825045916112171E-3   -3.758113149461101E-1   -2.731795881812200E-1
 8.181292577300000E9    -3.750722711527623E-1   -3.933247149601868E-1    1.409191067118361E-3   -1.761498849779688E-3    1.459462309851327E-3   -1.818125144174726E-3   -3.785931527384716E-1   -2.691149208017746E-1
 8.181382646400000E9    -3.795879744241419E-1   -3.891653383681589E-1    1.383983309174594E-3   -1.786286133910971E-3    1.417379679963574E-3   -1.883049206222891E-3   -3.815570211502810E-1   -2.649258993766571E-1
 8.181472715500000E9    -3.840124408317858E-1   -3.846842089866044E-1    1.367377711622585E-3   -1.773434624415287E-3    1.384080438619112E-3   -1.857412655232457E-3   -3.842051036739944E-1   -2.606649450647895E-1
 8.181562784600000E9    -3.883118286494218E-1   -3.803346072202027E-1    1.350636039199463E-3   -1.815713821307342E-3    1.382426130746647E-3   -1.848188907174908E-3   -3.869629794484213E-1   -2.564443883339532E-1
 8.181652853700000E9    -3.928318606724200E-1   -3.757659870569577E-1    1.327631295746211E-3   -1.814275174841863E-3    1.373467999627402E-3   -1.958121094457585E-3   -3.896959134519227E-1   -2.521807991880845E-1
 8.181742922800000E9    -3.970852402059358E-1   -3.710870503450592E-1    1.318401033457449E-3   -1.845350859421549E-3    1.372812114357614E-3   -1.912108406039396E-3   -3.922348021371319E-1   -2.480246854697634E-1
 8.181832991900000E9    -4.012340019466278E-1   -3.665837849329791E-1    1.324477739454027E-3   -1.857052369059425E-3    1.303785518159803E-3   -1.936863817287334E-3   -3.948413644499057E-1   -2.436721864669764E-1
 8.181923061000000E9    -4.053629033516393E-1   -3.619748952053621E-1    1.246457624604674E-3   -1.860578331848180E-3    1.300060389668413E-3   -1.986072741832001E-3   -3.974242469062325E-1   -2.392266781088091E-1
 8.182013130100000E9    -4.095713713332087E-1   -3.573048735933497E-1    1.257970537811927E-3   -1.858223594042480E-3    1.252182988979304E-3   -1.972892909381995E-3   -3.998250004478016E-1   -2.348717017273684E-1
 8.182103199200000E9    -4.135943487761877E-1   -3.524796317243610E-1    1.239039364650879E-3   -1.898420591617211E-3    1.269202418682362E-3   -1.972389341138111E-3   -4.024336910953837E-1   -2.303954753517875E-1
 8.182193268300000E9    -4.175832174778861E-1   -3.477986018565029E-1    1.208192767464056E-3   -1.879803678133997E-3    1.242456229242929E-3   -1.978379820661605E-3   -4.047885111072861E-1   -2.259889614524236E-1
 8.182283337400000E9    -4.216209451575556E-1   -3.429033618686764E-1    1.169369485062570E-3   -1.916215560722974E-3    1.215078475951717E-3   -2.023523900188178E-3   -4.070313265017900E-1   -2.215024336130228E-1
 8.182373406500000E9    -4.254469153002897E-1   -3.379988936719817E-1    1.195973682761329E-3   -1.941798535232046E-3    1.189473770915054E-3   -2.008711941363403E-3   -4.094741582642734E-1   -2.171867787233411E-1
 8.182463475600000E9    -4.292743694023747E-1   -3.329809537975589E-1    1.175966324747866E-3   -1.944157458498924E-3    1.180878853999020E-3   -2.032759763010717E-3   -4.116342485156417E-1   -2.127724948658606E-1
 8.182553544700000E9    -4.331264677063479E-1   -3.281637653986332E-1    1.143152626380269E-3   -1.963984056254124E-3    1.136023305324874E-3   -2.076447589719952E-3   -4.137252121885974E-1   -2.081010578046627E-1
 8.182643613800000E9    -4.368597639535908E-1   -3.231312882547029E-1    1.090470074544687E-3   -1.963630222793424E-3    1.107442603506454E-3   -2.064945142471427E-3   -4.159831796865380E-1   -2.035284158076582E-1
 8.182733682900000E9    -4.404711319218547E-1   -3.180445718270121E-1    1.105926242473146E-3   -1.998376029257308E-3    1.091030053641944E-3   -2.087503456985356E-3   -4.180700405284332E-1   -1.991334336610104E-1
 8.182823752000000E9    -4.441181520533685E-1   -3.129055339972143E-1    1.070402848478594E-3   -2.009174175949315E-3    1.094635791847478E-3   -2.101501320817152E-3   -4.200476672689432E-1   -1.944525026979185E-1
 8.182913821100000E9    -4.476423713607883E-1   -3.076507833744002E-1    1.053926357511761E-3   -2.014611155300676E-3    1.045549627890054E-3   -2.086479233228875E-3   -4.220936917970457E-1   -1.898459128055843E-1
 8.183003890200000E9    -4.511097289495666E-1   -3.026383182019182E-1    1.027519578710595E-3   -2.027169609293209E-3    1.030235536861559E-3   -2.099865185550221E-3   -4.241335926637299E-1   -1.853234092985995E-1
 8.183093959300000E9    -4.545538939596701E-1   -2.973676299308040E-1    9.989296662046218E-4   -2.057611026635149E-3    9.965011255112679E-4   -2.108836294490774E-3   -4.258636001298398E-1   -1.805005958348420E-1
 8.183184028400000E9    -4.578655286223318E-1   -2.922329467649375E-1    9.908908904315312E-4   -2.051480706217228E-3    9.432442033247459E-4   -2.116238528587635E-3   -4.277562350525446E-1   -1.760209817898551E-1
 8.183274097500000E9    -4.613023153804706E-1   -2.867842899701680E-1    9.560986916296736E-4   -2.063837445386059E-3    9.628893945182406E-4   -2.142005915089081E-3   -4.295334740892480E-1   -1.713335232994434E-1
 8.183364166600000E9    -4.646320632329254E-1   -2.815235681487546E-1    9.353633647410009E-4   -2.076686364098277E-3    9.428414893412036E-4   -2.162795183758900E-3   -4.314026700962466E-1   -1.666765557879747E-1
 8.183454235700000E9    -4.678657850709989E-1   -2.758574249399360E-1    9.187108016944188E-4   -2.091602124496169E-3    9.192959048326514E-4   -2.142343602296331E-3   -4.330018692838857E-1   -1.620133788067365E-1
 8.183544304800000E9    -4.709722428306826E-1   -2.705755859605612E-1    8.780335940936153E-4   -2.094914456874826E-3    9.047092922252674E-4   -2.195572914960137E-3   -4.345913199839264E-1   -1.571066047444201E-1
 8.183634373900000E9    -4.739560193726308E-1   -2.652248876444187E-1    8.662470892083225E-4   -2.117410756129952E-3    8.769436024936933E-4   -2.197871841812499E-3   -4.363126878540409E-1   -1.525226181786594E-1
 8.183724443000000E9    -4.769399157083563E-1   -2.595957364728735E-1    7.984185597050721E-4   -2.101340831737688E-3    8.237595558079485E-4   -2.228613927219349E-3   -4.378816635611625E-1   -1.476193730526288E-1
 8.183814512100000E9    -4.798084268568779E-1   -2.541873385073016E-1    8.366587343849879E-4   -2.124532311058954E-3    8.335695437749893E-4   -2.218164626970248E-3   -4.393081923478811E-1   -1.427880461609272E-1
 8.183904581200000E9    -4.827023050628849E-1   -2.485904367942066E-1    8.202326692759761E-4   -2.149458960078801E-3    7.996844879836341E-4   -2.236218610582102E-3   -4.408531354535123E-1   -1.381124074097908E-1
 8.183994650300000E9    -4.857303296770381E-1   -2.430419052221241E-1    7.754994952225738E-4   -2.142727770756546E-3    7.600453680655485E-4   -2.262079172507519E-3   -4.420320289068601E-1   -1.332953450952831E-1
 8.184084719400000E9    -4.883506915761673E-1   -2.372836728957762E-1    7.309803439929433E-4   -2.162563388331692E-3    7.627373517137580E-4   -2.245445813717114E-3   -4.435786859489091E-1   -1.284168646587134E-1
 8.184174788500000E9    -4.910708684600648E-1   -2.317776114367629E-1    7.383806033335344E-4   -2.166191808664197E-3    6.950871695938333E-4   -2.269206662610015E-3   -4.446158711274216E-1   -1.236122360288469E-1
 8.184264857600000E9    -4.936059402940887E-1   -2.259832868392417E-1    7.007483163856515E-4   -2.201116949821896E-3    6.969827679718110E-4   -2.248127454113847E-3   -4.460581675206065E-1   -1.185447053428591E-1
 8.184354926700000E9    -4.962147730000708E-1   -2.203466567012400E-1    6.773807088740832E-4   -2.203234627295223E-3    6.831240703658871E-4   -2.257440712238765E-3   -4.472177177473581E-1   -1.138792913913915E-1
 8.184444995800000E9    -4.987155747772483E-1   -2.144132089749834E-1    6.786711205030230E-4   -2.187351061711060E-3    6.421252054537221E-4   -2.291748452298059E-3   -4.484174225380833E-1   -1.089825381217834E-1
 8.184535064900000E9    -5.011690823864133E-1   -2.087043898683382E-1    6.302863727682256E-4   -2.197059126381377E-3    6.177842748553408E-4   -2.305464393492392E-3   -4.492710223050703E-1   -1.039721087511141E-1
 8.184625134000000E9    -5.034958262151871E-1   -2.029691083774551E-1    6.028573181447141E-4   -2.173425806691024E-3    5.919180217849336E-4   -2.288951833065376E-3   -4.504034403706609E-1   -9.917134477567800E-2
 8.184715203100000E9    -5.058410796431979E-1   -1.971616063656813E-1    5.911611252556882E-4   -2.229809296763458E-3    5.523842714620421E-4   -2.323005917975627E-3   -4.513194436134271E-1   -9.423107133052304E-2
 8.184805272200000E9    -5.079852237427872E-1   -1.911899102353690E-1    5.719490474665810E-4   -2.223399714164986E-3    5.137594917547484E-4   -2.319218170108338E-3   -4.522316035150898E-1   -8.924896484002409E-2
 8.184895341300000E9    -5.101833437323822E-1   -1.853799719881881E-1    5.210428796736289E-4   -2.220853070181352E-3    5.425697330911121E-4   -2.311480656092874E-3   -4.531840285249975E-1   -8.440046957916050E-2
 8.184985410400000E9    -5.122897972951878E-1   -1.793968604632813E-1    4.880706120826289E-4   -2.233577590946861E-3    5.094257172489655E-4   -2.349968421741427E-3   -4.537666202824024E-1   -7.962615452403235E-2
 8.185075479500000E9    -5.141964735098915E-1   -1.735277019842701E-1    4.875756885486824E-4   -2.256730150256109E-3    4.628471290092447E-4   -2.339126810483596E-3   -4.545425840464428E-1   -7.449648439872421E-2
 8.185165548600000E9    -5.160309541926057E-1   -1.674718807926768E-1    4.543385296828105E-4   -2.251397023720373E-3    4.373885762928754E-4   -2.350396399986321E-3   -4.554137535396898E-1   -6.954559978228499E-2
 8.185255617700000E9    -5.182133105747146E-1   -1.613002268026521E-1    4.502490139061542E-4   -2.275810610822836E-3    4.003357795519445E-4   -2.328383256321780E-3   -4.559985746582557E-1   -6.458917525076061E-2
 8.185345686800000E9    -5.198446090881927E-1   -1.555310368881489E-1    4.039570762388883E-4   -2.275797617308372E-3    3.813967549526411E-4   -2.358784607942618E-3   -4.565663958203949E-1   -5.977114139392302E-2
 8.185435755900000E9    -5.215662475092666E-1   -1.493388866395668E-1    3.914507959757457E-4   -2.275916287935755E-3    3.567278723325889E-4   -2.342228176021199E-3   -4.569789689375782E-1   -5.462625482433788E-2
 8.185525825000000E9    -5.233410254152232E-1   -1.433989186767581E-1    3.821637977380597E-4   -2.279902270326169E-3    3.116565355393082E-4   -2.342940138721101E-3   -4.575743752045401E-1   -4.976894043659955E-2
