#  HZ   S   RI   R     50.00 
! Rohde & Schwarz Vector Network Analyzer 
! Rohde-Schwarz,ZNB20-2Port,1311601062101988,3.16
! Created: UTC 3/20/2024, 4:57:19 PM
! freq[Hz]                re:S11                  im:S11                  re:S21                  im:S21                  re:S12                  im:S12                  re:S22                  im:S22
 8.177050259000000E9    -1.203529475942008E-1   -5.307663930360228E-1    2.077499970327207E-3   -8.561147235973492E-4    2.172302466888557E-3   -8.710248982555477E-4   -2.009034826431376E-1   -4.240195268454087E-1
 8.177142002325000E9    -1.265163564661263E-1   -5.293300693232654E-1    2.055307192199108E-3   -8.646306916045341E-4    2.116050288586135E-3   -9.076325940155680E-4   -2.054590471227622E-1   -4.217644614957882E-1
 8.177233745650000E9    -1.326395442893228E-1   -5.278606407148878E-1    2.060348558754681E-3   -9.043342472519547E-4    2.181476818549411E-3   -9.151781082762640E-4   -2.101743398770954E-1   -4.192802984748522E-1
 8.177325488975000E9    -1.387559351190918E-1   -5.262324828806885E-1    2.052971732268885E-3   -9.307759440098769E-4    2.111367151778999E-3   -9.398258220992806E-4   -2.147910670335885E-1   -4.170664553985189E-1
 8.177417232300000E9    -1.448607635703056E-1   -5.245872257063547E-1    2.025052190414873E-3   -9.150429420826835E-4    2.116211697891077E-3   -9.521823895136879E-4   -2.193469425205585E-1   -4.144323074970733E-1
 8.177508975625000E9    -1.508687201269908E-1   -5.228719222865880E-1    2.029553258174179E-3   -9.442106749056830E-4    2.110470552323402E-3   -9.702528342347384E-4   -2.236956824337623E-1   -4.118094428914420E-1
 8.177600718950000E9    -1.570358430718043E-1   -5.211133949031490E-1    2.044128347016331E-3   -9.567096244800696E-4    2.100895766920086E-3   -1.017393304463915E-3   -2.283259121770786E-1   -4.092905871512932E-1
 8.177692462275000E9    -1.631047770321064E-1   -5.190869645567333E-1    2.016318531676959E-3   -9.937778086774483E-4    2.081543188522413E-3   -1.036355106871160E-3   -2.328606536618636E-1   -4.067099297633768E-1
 8.177784205600000E9    -1.690903293440422E-1   -5.172873040534987E-1    1.989438962551870E-3   -1.001038021684478E-3    2.062176931901178E-3   -1.078497888600979E-3   -2.371395696535319E-1   -4.038264361542664E-1
 8.177875948925000E9    -1.750903958218291E-1   -5.152769141563573E-1    1.988505600654617E-3   -1.041736815619420E-3    2.054624947592021E-3   -1.084484849544090E-3   -2.415283846158713E-1   -4.013448596707201E-1
 8.177967692250000E9    -1.810641910933972E-1   -5.132025829364489E-1    1.986319607391132E-3   -1.070926563725832E-3    2.056822943136543E-3   -1.135168166546651E-3   -2.458954855624694E-1   -3.984282170761323E-1
 8.178059435575000E9    -1.869562436005468E-1   -5.110848877396010E-1    1.975966918881075E-3   -1.105079023560448E-3    1.996396675982035E-3   -1.145004340953215E-3   -2.502852785879295E-1   -3.956255347495183E-1
 8.178151178900000E9    -1.928592144333423E-1   -5.088388811772482E-1    1.961498177850040E-3   -1.091425094994785E-3    1.983744145147230E-3   -1.129925398968676E-3   -2.544984183030901E-1   -3.926769443712710E-1
 8.178242922225000E9    -1.988162843087405E-1   -5.065705444555143E-1    1.929791856499703E-3   -1.140258105732524E-3    1.978138135731304E-3   -1.151110629094035E-3   -2.586961035184118E-1   -3.897261143142209E-1
 8.178334665550000E9    -2.047409795871580E-1   -5.041893772008172E-1    1.941973479075309E-3   -1.143244271154488E-3    1.984210223625788E-3   -1.221778603932840E-3   -2.629603245735650E-1   -3.868254352770096E-1
 8.178426408875000E9    -2.104263223087207E-1   -5.016321950069913E-1    1.906447370441517E-3   -1.180460633756727E-3    1.967514280450222E-3   -1.234006506921884E-3   -2.671948722303842E-1   -3.837564087384179E-1
 8.178518152200000E9    -2.164111334246961E-1   -4.992608062399447E-1    1.899743591713717E-3   -1.215506176035324E-3    1.959713246837629E-3   -1.249584747627343E-3   -2.713099007902408E-1   -3.807246541799210E-1
 8.178609895525000E9    -2.220654590042065E-1   -4.966981704822458E-1    1.901758234168759E-3   -1.209186184266704E-3    1.947075630053105E-3   -1.276824790185189E-3   -2.755546317040181E-1   -3.776863165468620E-1
 8.178701638850000E9    -2.278607246871936E-1   -4.940633517961300E-1    1.885991260806073E-3   -1.229201657222130E-3    1.920982310624438E-3   -1.280880128132107E-3   -2.796687213019323E-1   -3.744652684472699E-1
 8.178793382175000E9    -2.336030278898411E-1   -4.914386719547372E-1    1.884911636739410E-3   -1.244237778577059E-3    1.928543023106230E-3   -1.245038501181504E-3   -2.837174854974045E-1   -3.711978351484210E-1
 8.178885125500000E9    -2.392836819435190E-1   -4.885481885576030E-1    1.849569497418906E-3   -1.304898508393469E-3    1.887519895574324E-3   -1.334216073434319E-3   -2.877258631327295E-1   -3.680777050794504E-1
 8.178976868825000E9    -2.449111774479907E-1   -4.857660589422490E-1    1.832886153028798E-3   -1.265350961792536E-3    1.846448716757572E-3   -1.349063099294888E-3   -2.917256408872858E-1   -3.647866499566983E-1
 8.179068612150000E9    -2.505547551246373E-1   -4.828726605130434E-1    1.826361993286858E-3   -1.328304315458689E-3    1.879899072862582E-3   -1.383073030923243E-3   -2.955590887272853E-1   -3.612477795880306E-1
 8.179160355475000E9    -2.562155855710440E-1   -4.799752925682773E-1    1.815938744278422E-3   -1.330133520728524E-3    1.882540487051843E-3   -1.377343301647565E-3   -2.995098492714873E-1   -3.579949335976141E-1
 8.179252098800000E9    -2.618009173384899E-1   -4.767724327940830E-1    1.788582273496027E-3   -1.366418824175166E-3    1.828872310896161E-3   -1.415467367649722E-3   -3.034605883072853E-1   -3.545390625975106E-1
 8.179343842125000E9    -2.673055442585416E-1   -4.738156943892142E-1    1.782209273684516E-3   -1.343818681557085E-3    1.828434195522112E-3   -1.445211732797829E-3   -3.071728593324797E-1   -3.511193913329881E-1
 8.179435585450000E9    -2.727238649097243E-1   -4.706178585596083E-1    1.766047821759059E-3   -1.400372325686491E-3    1.776852112696019E-3   -1.434392874349961E-3   -3.110343809985849E-1   -3.478099721608436E-1
 8.179527328775000E9    -2.782114241839308E-1   -4.673703509386800E-1    1.756212245775426E-3   -1.425947262725956E-3    1.812593296297030E-3   -1.514523852405887E-3   -3.148534127019700E-1   -3.442029573249704E-1
 8.179619072100000E9    -2.837001486272585E-1   -4.640500178801374E-1    1.732053313250074E-3   -1.440120439904347E-3    1.793386338850524E-3   -1.476806717323525E-3   -3.186331715213386E-1   -3.405615528993304E-1
 8.179710815425000E9    -2.890845158403467E-1   -4.608607357619310E-1    1.705308591219002E-3   -1.450629245302272E-3    1.758763315489332E-3   -1.502333503863023E-3   -3.222043357110381E-1   -3.369840422717547E-1
 8.179802558750000E9    -2.943041420218113E-1   -4.572769341023701E-1    1.710023833429597E-3   -1.494867442350125E-3    1.711161534523995E-3   -1.527170400528500E-3   -3.258580481607470E-1   -3.332174163057565E-1
 8.179894302075000E9    -2.997186113527141E-1   -4.539087545983434E-1    1.694985782487897E-3   -1.500122446323241E-3    1.749621992039812E-3   -1.531384601537224E-3   -3.293579162344660E-1   -3.295354452552810E-1
 8.179986045400000E9    -3.048838352668920E-1   -4.502688091748210E-1    1.639898176133506E-3   -1.522269303147695E-3    1.719685184912796E-3   -1.580296387690466E-3   -3.329634097604579E-1   -3.259057014938323E-1
 8.180077788725000E9    -3.101314032730021E-1   -4.467457553249086E-1    1.652908759847362E-3   -1.503953024009573E-3    1.708924480830325E-3   -1.625618338331517E-3   -3.364098838484232E-1   -3.221731969983986E-1
 8.180169532050000E9    -3.154423656874532E-1   -4.430562117894278E-1    1.630197716653770E-3   -1.553029383056532E-3    1.666876403583815E-3   -1.610350823269742E-3   -3.399187961421181E-1   -3.184109779846984E-1
 8.180261275375000E9    -3.204345840899569E-1   -4.393612136119734E-1    1.590248250444768E-3   -1.544821938996848E-3    1.671401202781988E-3   -1.654417515692271E-3   -3.433666183223218E-1   -3.144813731877494E-1
 8.180353018700000E9    -3.256360352474222E-1   -4.355296729337735E-1    1.606659081857997E-3   -1.565587874333100E-3    1.673302024240806E-3   -1.666197202557755E-3   -3.467137258401991E-1   -3.107671847090810E-1
 8.180444762025000E9    -3.305423818782821E-1   -4.317308696616549E-1    1.572804207788994E-3   -1.592912487271120E-3    1.598142872184845E-3   -1.678338969079761E-3   -3.501142806640067E-1   -3.066239732211839E-1
 8.180536505350000E9    -3.355226810656735E-1   -4.278788475567575E-1    1.573629637361719E-3   -1.640824042680655E-3    1.605322725334094E-3   -1.714454191130427E-3   -3.533215534119813E-1   -3.028363349735028E-1
 8.180628248675000E9    -3.405415366185089E-1   -4.238153809346776E-1    1.545360120633103E-3   -1.628834299936474E-3    1.628143758178427E-3   -1.747401012341110E-3   -3.567237978146133E-1   -2.987007093231115E-1
 8.180719992000000E9    -3.455606992524358E-1   -4.197967052286092E-1    1.519518975962872E-3   -1.641851538230497E-3    1.539210198361651E-3   -1.723234456068552E-3   -3.597527470377569E-1   -2.949083131184718E-1
 8.180811735325000E9    -3.505659126821987E-1   -4.157200045643036E-1    1.493789829493919E-3   -1.690570099899120E-3    1.534218963464920E-3   -1.758255554971065E-3   -3.629150740630154E-1   -2.908972049871357E-1
 8.180903478650000E9    -3.552012112030652E-1   -4.115869681195368E-1    1.471739285941358E-3   -1.697938358353906E-3    1.543789819116206E-3   -1.764245883678876E-3   -3.658635465423790E-1   -2.867688563143008E-1
 8.180995221975000E9    -3.599359960413940E-1   -4.073305202644476E-1    1.462461109371037E-3   -1.702488441801437E-3    1.513980042616887E-3   -1.775403949967686E-3   -3.690322688977090E-1   -2.826107366868630E-1
 8.181086965300000E9    -3.647489802925792E-1   -4.031611469886909E-1    1.460455305828676E-3   -1.710262568259476E-3    1.489138517133717E-3   -1.798844841514617E-3   -3.720452057714960E-1   -2.783505614466014E-1
 8.181178708625000E9    -3.694408460323982E-1   -3.988549463658159E-1    1.434781256982109E-3   -1.729347956340659E-3    1.432111346599912E-3   -1.804423976682639E-3   -3.750506068274329E-1   -2.743760612775460E-1
 8.181270451950000E9    -3.739367920690945E-1   -3.945698331676277E-1    1.407087668633470E-3   -1.777457322972194E-3    1.432699951311747E-3   -1.865249081442401E-3   -3.780403982492728E-1   -2.699565535522629E-1
 8.181362195275000E9    -3.784712060367156E-1   -3.901307422968573E-1    1.393022036066765E-3   -1.783486320791800E-3    1.418784403826256E-3   -1.897452370388844E-3   -3.807948549653269E-1   -2.658601220730433E-1
 8.181453938600000E9    -3.831587171325970E-1   -3.856935815739865E-1    1.377874849619833E-3   -1.781951933373457E-3    1.389564284259809E-3   -1.872525694730874E-3   -3.836512285337144E-1   -2.616536310004270E-1
 8.181545681925000E9    -3.875790779249942E-1   -3.811093887924311E-1    1.337870859023359E-3   -1.829617775611228E-3    1.387268090693485E-3   -1.854025541948337E-3   -3.865067491682525E-1   -2.572230839491909E-1
 8.181637425250000E9    -3.921058552788403E-1   -3.765296191134733E-1    1.337639596566153E-3   -1.808371189952079E-3    1.381240626345756E-3   -1.894261538123213E-3   -3.892434759243597E-1   -2.530398811360790E-1
 8.181729168575000E9    -3.962755234265841E-1   -3.718406135214969E-1    1.277729245900714E-3   -1.823700605955120E-3    1.345149887252263E-3   -1.905885147448262E-3   -3.917550177718824E-1   -2.486825264280316E-1
 8.181820911900000E9    -4.006391438634340E-1   -3.673094465162846E-1    1.290169056993995E-3   -1.852194424298472E-3    1.325324336607922E-3   -1.926269639537576E-3   -3.944895595102788E-1   -2.441256260257404E-1
 8.181912655225000E9    -4.048321192332991E-1   -3.625205607618872E-1    1.242876662517221E-3   -1.846464685837985E-3    1.297696733774732E-3   -1.937313345200244E-3   -3.971737849584473E-1   -2.400329574898639E-1
 8.182004398550000E9    -4.090721507668919E-1   -3.576929200287045E-1    1.262647553451354E-3   -1.872666467514250E-3    1.267731319872265E-3   -1.983424398073380E-3   -3.996417058282249E-1   -2.353658744464033E-1
 8.182096141875000E9    -4.132859071128770E-1   -3.529573434998873E-1    1.231623112155252E-3   -1.887871982062276E-3    1.261896157263087E-3   -1.948216492943319E-3   -4.022604611247509E-1   -2.308433897070905E-1
 8.182187885200000E9    -4.172963445298931E-1   -3.480347982249204E-1    1.209415557384104E-3   -1.907187345996441E-3    1.237441069990613E-3   -2.004572086528473E-3   -4.046885316514518E-1   -2.264560127473962E-1
 8.182279628525000E9    -4.213878064061303E-1   -3.430661869297231E-1    1.198207515550448E-3   -1.918432345294792E-3    1.212350311299288E-3   -2.017730815269547E-3   -4.070349002033234E-1   -2.218596176080986E-1
 8.182371371850000E9    -4.253449913358804E-1   -3.380680005167946E-1    1.178643273561637E-3   -1.930448263418136E-3    1.183961786375837E-3   -2.048582344197402E-3   -4.093816185633478E-1   -2.174025792111399E-1
 8.182463115175000E9    -4.292219340652269E-1   -3.331307584010345E-1    1.147808067488780E-3   -1.928655763646040E-3    1.180045610636471E-3   -2.032401195099983E-3   -4.116226573651901E-1   -2.129021262729496E-1
 8.182554858500000E9    -4.331574812843593E-1   -3.280477456720152E-1    1.144243098486532E-3   -1.966244527854970E-3    1.120032678056549E-3   -2.081075767543679E-3   -4.137681088046865E-1   -2.081438098794123E-1
 8.182646601825000E9    -4.369839142378131E-1   -3.228858151079410E-1    1.104237299627853E-3   -2.000347837754963E-3    1.114985782114412E-3   -2.054420335881528E-3   -4.159251903791852E-1   -2.034920999108085E-1
 8.182738345150000E9    -4.406983826263197E-1   -3.178919435095985E-1    1.077105322015236E-3   -1.963561758370573E-3    1.083118930806124E-3   -2.078320227870770E-3   -4.180803665461168E-1   -1.990034013314189E-1
 8.182830088475000E9    -4.443259521068486E-1   -3.127669119090542E-1    1.072113120937669E-3   -1.980187201973709E-3    1.124404950458872E-3   -2.151338730872188E-3   -4.202348605769631E-1   -1.941528139341676E-1
 8.182921831800000E9    -4.479559261377463E-1   -3.073309650626324E-1    1.039016209371565E-3   -2.030758043463312E-3    1.069971102999328E-3   -2.143855212458143E-3   -4.224102732363457E-1   -1.894555569708014E-1
 8.183013575125000E9    -4.514896097434409E-1   -3.020073527016520E-1    9.967835481128375E-4   -2.020128274865673E-3    1.003229536744841E-3   -2.093340366835197E-3   -4.242540863282613E-1   -1.849239474002775E-1
 8.183105318450000E9    -4.550385972989097E-1   -2.966736134722475E-1    9.780629924703538E-4   -2.034224785064330E-3    1.002536085726763E-3   -2.155811569320336E-3   -4.261786833594335E-1   -1.799745153134348E-1
 8.183197061775000E9    -4.584471836228556E-1   -2.912874411352725E-1    9.846606940395845E-4   -2.048945314318080E-3    9.984301633946234E-4   -2.151476527929465E-3   -4.280494195818821E-1   -1.753675579044414E-1
 8.183288805100000E9    -4.619117157199211E-1   -2.858762112876310E-1    9.662729345214138E-4   -2.063964371908097E-3    9.570206906139670E-4   -2.149751148160493E-3   -4.299225539136972E-1   -1.707118321857510E-1
 8.183380548425000E9    -4.651341886162834E-1   -2.805469845170038E-1    9.257343215501680E-4   -2.094430063842283E-3    9.597306452387570E-4   -2.168446325637521E-3   -4.318650327154548E-1   -1.657696276316493E-1
 8.183472291750000E9    -4.683113913599019E-1   -2.750186098664479E-1    9.138187206816466E-4   -2.086845792951282E-3    9.069595423463960E-4   -2.202245927729623E-3   -4.334186086263415E-1   -1.611758853236088E-1
 8.183564035075000E9    -4.715827860073445E-1   -2.694381971692841E-1    8.972903329198575E-4   -2.068577229034777E-3    8.978633772624340E-4   -2.200934331176811E-3   -4.350748056693395E-1   -1.561402303882237E-1
 8.183655778400000E9    -4.744890431820984E-1   -2.639316945297314E-1    8.990384566143396E-4   -2.122707671120836E-3    8.702152032701235E-4   -2.224142493214162E-3   -4.365832200540928E-1   -1.515123209333394E-1
 8.183747521725000E9    -4.777391062583354E-1   -2.584249008508019E-1    8.343977504979318E-4   -2.117752320322094E-3    8.454377413943724E-4   -2.241305868113963E-3   -4.383432281504639E-1   -1.463351052664159E-1
 8.183839265050000E9    -4.806645320628031E-1   -2.526121321474776E-1    8.336153702126046E-4   -2.146288682586584E-3    8.051927172169715E-4   -2.227250825803441E-3   -4.397138071940345E-1   -1.415137033875712E-1
 8.183931008375000E9    -4.835225053223592E-1   -2.469456504610687E-1    8.042926609685715E-4   -2.157493408594923E-3    7.918129463251158E-4   -2.225196727835671E-3   -4.412386545856442E-1   -1.366728732030963E-1
 8.184022751700000E9    -4.864237559352987E-1   -2.411799794913768E-1    7.523133356842435E-4   -2.147502239518979E-3    7.414770066239514E-4   -2.217835720135328E-3   -4.424831719441822E-1   -1.316200654024014E-1
 8.184114495025000E9    -4.891663321851594E-1   -2.355658311881374E-1    7.293022061705864E-4   -2.164939821719046E-3    7.520396461470625E-4   -2.238277769709654E-3   -4.440464988986992E-1   -1.267998167589895E-1
 8.184206238350000E9    -4.918672143581443E-1   -2.296566856215585E-1    7.169635279210921E-4   -2.173909226591193E-3    7.358202021271190E-4   -2.242899759278844E-3   -4.452725263760557E-1   -1.219824787496924E-1
 8.184297981675000E9    -4.945351352977816E-1   -2.237447417930692E-1    7.067812513621905E-4   -2.151338475514834E-3    6.808171169609531E-4   -2.284266356599374E-3   -4.462315479731927E-1   -1.170564902015717E-1
 8.184389725000000E9    -4.971935349540012E-1   -2.179969562437203E-1    6.777202870448557E-4   -2.178750683082926E-3    6.909573778612117E-4   -2.271360699667475E-3   -4.476789993592078E-1   -1.120152067818157E-1
 8.184481468325000E9    -4.997457858872980E-1   -2.122251778003046E-1    6.750820295484873E-4   -2.209750646824669E-3    6.283030370551607E-4   -2.272952280564418E-3   -4.488647380434980E-1   -1.069463197954505E-1
 8.184573211650000E9    -5.020446860647270E-1   -2.062936678681544E-1    6.103652794463131E-4   -2.186926924581324E-3    5.887628767465501E-4   -2.272786962135337E-3   -4.499085837641824E-1   -1.022615684373886E-1
 8.184664954975000E9    -5.045142898474485E-1   -2.002598378256148E-1    6.011415934287677E-4   -2.195552726625499E-3    5.798251985732941E-4   -2.318123792661653E-3   -4.509126410454555E-1   -9.703501083070530E-2
 8.184756698300000E9    -5.067723808352597E-1   -1.944554969871685E-1    5.571214958573584E-4   -2.221689014214417E-3    5.580529867689989E-4   -2.297914485274818E-3   -4.519737836397546E-1   -9.201865818862276E-2
 8.184848441625000E9    -5.089606511387902E-1   -1.885746404391135E-1    5.480656786352158E-4   -2.223838002650885E-3    5.469354824136734E-4   -2.355339341741294E-3   -4.525034850206079E-1   -8.690021542167629E-2
 8.184940184950000E9    -5.111096622712220E-1   -1.824753220739827E-1    5.077545061891857E-4   -2.258823162024611E-3    4.938274838902761E-4   -2.321073211432629E-3   -4.534664953242535E-1   -8.212928520593532E-2
 8.185031928275000E9    -5.133575606969039E-1   -1.762881578583720E-1    5.068611924886066E-4   -2.211021693068225E-3    4.714745532995169E-4   -2.350084065454409E-3   -4.543606111683843E-1   -7.682159166931217E-2
 8.185123671600000E9    -5.154336217873859E-1   -1.703218407214859E-1    4.816278903948686E-4   -2.284341780069543E-3    4.327414328732943E-4   -2.328981159320005E-3   -4.550426556472815E-1   -7.196563561197530E-2
 8.185215414925000E9    -5.171863942698082E-1   -1.642212552815981E-1    4.628505134007746E-4   -2.261110444874579E-3    4.391643529248014E-4   -2.331050833406360E-3   -4.557683631274195E-1   -6.682254548214681E-2
 8.185307158250000E9    -5.190027876244451E-1   -1.580311580434863E-1    4.259554631768434E-4   -2.256356545374748E-3    3.958114843332737E-4   -2.367455595221282E-3   -4.563843965634967E-1   -6.180217547891684E-2
