#  HZ   S   RI   R     50.00 
! Rohde & Schwarz Vector Network Analyzer 
! Rohde-Schwarz,ZNB20-2Port,1311601062101988,3.16
! Created: UTC 3/20/2024, 5:12:35 PM
! freq[Hz]                re:S11                  im:S11                  re:S21                  im:S21                  re:S12                  im:S12                  re:S22                  im:S22
 8.195631757000000E9    -2.707889625343367E-1    4.641343727708083E-1   -2.417058569155466E-3   -1.163277167805843E-3   -2.498603191341784E-3   -1.107848095802301E-3   -1.914600432021949E-1    4.055952346431239E-1
 8.195640250225000E9    -2.702713305414691E-1    4.645836834545969E-1   -2.414722305846204E-3   -1.153196435448593E-3   -2.526803536154865E-3   -1.109819561033410E-3   -1.911024189182336E-1    4.058163078046516E-1
 8.195648743450000E9    -2.696913245953478E-1    4.648760549948653E-1   -2.406265051302796E-3   -1.155179299646857E-3   -2.507851974658114E-3   -1.089921383986623E-3   -1.905763687704508E-1    4.061355997766038E-1
 8.195657236675000E9    -2.691478320207774E-1    4.650686024619400E-1   -2.415121812233349E-3   -1.185337237100293E-3   -2.502114122073076E-3   -1.105928650370683E-3   -1.902059831931150E-1    4.062827333657689E-1
 8.195665729900000E9    -2.685566091877516E-1    4.653940406410667E-1   -2.431172381521871E-3   -1.151060984655226E-3   -2.541224502175198E-3   -1.115268695578001E-3   -1.896899893220482E-1    4.063154303774139E-1
 8.195674223125000E9    -2.679473800595181E-1    4.655875890998000E-1   -2.429603608603498E-3   -1.146786790070789E-3   -2.510330121782818E-3   -1.086344171366639E-3   -1.893757029252002E-1    4.066193344780958E-1
 8.195682716350000E9    -2.674861583840540E-1    4.660489014958669E-1   -2.430031147380970E-3   -1.167906175641631E-3   -2.541680707182700E-3   -1.060516815398687E-3   -1.888759345024188E-1    4.069300450484497E-1
 8.195691209575000E9    -2.669206433669868E-1    4.662522871227669E-1   -2.467289957425632E-3   -1.166701953202886E-3   -2.536077500616915E-3   -1.073960694953852E-3   -1.884833107492438E-1    4.069020420190534E-1
 8.195699702800000E9    -2.664058034391832E-1    4.666840516243466E-1   -2.421636249909274E-3   -1.146122851232891E-3   -2.534849035665282E-3   -1.066704096887590E-3   -1.880380356049249E-1    4.073181646234743E-1
 8.195708196025000E9    -2.658366898521867E-1    4.668919111114763E-1   -2.430178188394073E-3   -1.154278470419687E-3   -2.524303710383267E-3   -1.079206711456349E-3   -1.873379480928315E-1    4.073267477299026E-1
 8.195716689250000E9    -2.654127522927481E-1    4.671457075277021E-1   -2.432305184683111E-3   -1.136668498086722E-3   -2.512031928399760E-3   -1.032388677053033E-3   -1.871487145518437E-1    4.076172545659583E-1
 8.195725182475000E9    -2.647726176493527E-1    4.673591351096560E-1   -2.444240980943199E-3   -1.130902019659284E-3   -2.543049294792864E-3   -1.092891439063078E-3   -1.866867548178713E-1    4.078476121918598E-1
 8.195733675700000E9    -2.643223691653535E-1    4.676626936069236E-1   -2.455047701858058E-3   -1.149578303854544E-3   -2.548349486613431E-3   -1.068704048227522E-3   -1.863311752244426E-1    4.079217730058425E-1
 8.195742168925000E9    -2.637169611441150E-1    4.680411839420036E-1   -2.435002167591802E-3   -1.110094219283923E-3   -2.518203805032853E-3   -1.049590435086563E-3   -1.858381866165892E-1    4.081393075371502E-1
 8.195750662150000E9    -2.632262287737930E-1    4.682290779255010E-1   -2.419808766930533E-3   -1.113249290466317E-3   -2.572870995590550E-3   -1.037516943001274E-3   -1.852925505653601E-1    4.085056053252018E-1
 8.195759155375000E9    -2.626363586821654E-1    4.686051178323180E-1   -2.444050222516518E-3   -1.127820179156028E-3   -2.557062776360043E-3   -1.076603104230487E-3   -1.850143957515731E-1    4.086633253534914E-1
 8.195767648600000E9    -2.621108567418042E-1    4.689499693635915E-1   -2.454009498128818E-3   -1.098216328548435E-3   -2.562993537446870E-3   -1.063739026513732E-3   -1.843891841230897E-1    4.087585932084510E-1
 8.195776141825000E9    -2.616057580053586E-1    4.691810426108715E-1   -2.442192721767581E-3   -1.115991449840931E-3   -2.537109811430922E-3   -1.050822039662254E-3   -1.839932791713024E-1    4.087850393201047E-1
 8.195784635050000E9    -2.609825431011306E-1    4.694057989498979E-1   -2.465073938656620E-3   -1.140658947237458E-3   -2.565481335604996E-3   -1.062159804277638E-3   -1.835490468174518E-1    4.090067477604573E-1
 8.195793128275000E9    -2.605578018894742E-1    4.697221751274053E-1   -2.447519930108673E-3   -1.140743366220784E-3   -2.555891969833288E-3   -1.048192611506828E-3   -1.832317874661822E-1    4.092076913001190E-1
 8.195801621500000E9    -2.600527234121215E-1    4.700873415811441E-1   -2.465674965320212E-3   -1.078881584842537E-3   -2.539852085180397E-3   -1.066747695194546E-3   -1.826421375454038E-1    4.094901207397028E-1
 8.195810114725000E9    -2.594495561317511E-1    4.703375685025157E-1   -2.446487078075129E-3   -1.109309710165018E-3   -2.556780453041540E-3   -1.040615089837556E-3   -1.822716492948545E-1    4.096558763593592E-1
 8.195818607950000E9    -2.590314842893661E-1    4.704455129689423E-1   -2.455621569080813E-3   -1.102879519014228E-3   -2.567389884884079E-3   -1.047971310737549E-3   -1.817704382495308E-1    4.097684011243642E-1
 8.195827101175000E9    -2.583427816784334E-1    4.708426633488758E-1   -2.452315604790932E-3   -1.103509117911448E-3   -2.566405536369612E-3   -1.064241625331480E-3   -1.812727357209610E-1    4.100007663536868E-1
 8.195835594400000E9    -2.579109879705855E-1    4.711187152853576E-1   -2.488180204330562E-3   -1.114611913347299E-3   -2.591942061723610E-3   -1.031516441844092E-3   -1.808814771510729E-1    4.101310585581129E-1
 8.195844087625000E9    -2.573830320482374E-1    4.714135776554212E-1   -2.487392623940049E-3   -1.106690387116475E-3   -2.572794951001317E-3   -1.025527724984264E-3   -1.804659432102030E-1    4.103992491449003E-1
 8.195852580850000E9    -2.568640184639958E-1    4.716399360961068E-1   -2.469186616276974E-3   -1.097343912395328E-3   -2.569791847088321E-3   -1.026259402047335E-3   -1.800649697738838E-1    4.105792567324596E-1
 8.195861074075000E9    -2.563526735447558E-1    4.719968662823930E-1   -2.464379613560286E-3   -1.095460925826425E-3   -2.587334885511047E-3   -1.041705594019297E-3   -1.795812370813622E-1    4.107653090308646E-1
 8.195869567300000E9    -2.558198434820599E-1    4.722906792298754E-1   -2.508548966426149E-3   -1.113100957690999E-3   -2.576923885106045E-3   -1.029960249710185E-3   -1.790783446591706E-1    4.108513555186862E-1
 8.195878060525000E9    -2.552612317608240E-1    4.727228842017154E-1   -2.473408202172601E-3   -1.096914355203429E-3   -2.601923969501242E-3   -1.032715223210471E-3   -1.786904580836945E-1    4.110805932617121E-1
 8.195886553750000E9    -2.548249461194223E-1    4.728733064443256E-1   -2.505507327354103E-3   -1.114987097551387E-3   -2.568532273403748E-3   -1.053236382306771E-3   -1.783010566195431E-1    4.112934954182038E-1
 8.195895046975000E9    -2.540921545746389E-1    4.731317285140100E-1   -2.477237687870765E-3   -1.107536505841815E-3   -2.576476320493882E-3   -9.953490060662094E-4   -1.778859981452602E-1    4.115031395964754E-1
 8.195903540200000E9    -2.535797892207283E-1    4.734774715502061E-1   -2.480552958633657E-3   -1.094384770365239E-3   -2.589164300119140E-3   -1.022769496320949E-3   -1.772558853889531E-1    4.116047456556652E-1
 8.195912033425000E9    -2.530653365367899E-1    4.736967566334345E-1   -2.525381182357231E-3   -1.089274135336017E-3   -2.584675560178379E-3   -1.021587212723179E-3   -1.770103793078728E-1    4.117959574004209E-1
 8.195920526650000E9    -2.525102535330001E-1    4.739397116444053E-1   -2.505846312978970E-3   -1.095070474320324E-3   -2.603604708301669E-3   -9.880699569224404E-4   -1.764281141132530E-1    4.119525045111746E-1
 8.195929019875000E9    -2.520071501393744E-1    4.742831383723136E-1   -2.502806288636092E-3   -1.105413559074448E-3   -2.592377349790923E-3   -9.897412284627226E-4   -1.759808130429534E-1    4.120936426640525E-1
 8.195937513100000E9    -2.514740378817477E-1    4.745534622924558E-1   -2.518718633763365E-3   -1.060616158289499E-3   -2.595066081995819E-3   -1.031850051141340E-3   -1.756159275425585E-1    4.124333197372178E-1
 8.195946006325000E9    -2.509260410256153E-1    4.747684840402984E-1   -2.520308872722760E-3   -1.083028492445450E-3   -2.571254072572204E-3   -1.000470826168215E-3   -1.751528109867075E-1    4.123914011446713E-1
 8.195954499550000E9    -2.503786801654129E-1    4.751006335406646E-1   -2.499973187174999E-3   -1.060980335308484E-3   -2.612666413194017E-3   -9.651334477503221E-4   -1.747284037347227E-1    4.126392596014672E-1
 8.195962992775000E9    -2.497800667927153E-1    4.754526463632340E-1   -2.512187428546271E-3   -1.087601193192427E-3   -2.604697685074234E-3   -9.745823608451722E-4   -1.742427429916449E-1    4.128549755658578E-1
 8.195971486000000E9    -2.492866111448498E-1    4.756147541343794E-1   -2.508526475322083E-3   -1.081478978853514E-3   -2.646599601792038E-3   -1.001967273573607E-3   -1.738818339235919E-1    4.129743286587801E-1
 8.195979979225000E9    -2.487312173530550E-1    4.758600634547347E-1   -2.480682427086725E-3   -1.079711459457923E-3   -2.618706716778443E-3   -1.001898332195042E-3   -1.734956052351046E-1    4.131209818771485E-1
 8.195988472450000E9    -2.481978581470705E-1    4.762328333336833E-1   -2.506662517290661E-3   -1.067625937944084E-3   -2.623027324820241E-3   -1.002783492600222E-3   -1.728909030305172E-1    4.134624015201036E-1
 8.195996965675000E9    -2.477434837795563E-1    4.764295165019143E-1   -2.514719568300214E-3   -1.082550362781717E-3   -2.614549014344939E-3   -9.861213538803967E-4   -1.723964639047654E-1    4.135443530578745E-1
 8.196005458900000E9    -2.472438151993379E-1    4.766788257679538E-1   -2.504126753733081E-3   -1.049486954837771E-3   -2.616938275300457E-3   -9.657908581790818E-4   -1.720821200214072E-1    4.138195276338663E-1
 8.196013952125000E9    -2.465472582035390E-1    4.770025479772185E-1   -2.551774809969042E-3   -1.048665290249329E-3   -2.626946281314528E-3   -9.884757038348571E-4   -1.715447376301098E-1    4.140292995033811E-1
 8.196022445350000E9    -2.460397182614210E-1    4.773303209633356E-1   -2.505462508986732E-3   -1.051152928956808E-3   -2.633552639451427E-3   -9.975745144883714E-4   -1.712933040148516E-1    4.139266335546780E-1
 8.196030938575000E9    -2.453587407679995E-1    4.775881454508719E-1   -2.530005281415452E-3   -1.054202933932069E-3   -2.641557163535655E-3   -1.008604363193368E-3   -1.707650403576388E-1    4.142429100895029E-1
 8.196039431800000E9    -2.449166770200096E-1    4.777850503470031E-1   -2.530291518792924E-3   -1.034646829120475E-3   -2.628829879469327E-3   -9.587890164891358E-4   -1.703049984585801E-1    4.144765882916790E-1
 8.196047925025000E9    -2.444746517407923E-1    4.781621477580738E-1   -2.522292701981062E-3   -1.052600680257657E-3   -2.607664940280780E-3   -9.945408533945130E-4   -1.696824879874966E-1    4.146181906994666E-1
 8.196056418250000E9    -2.438755613290080E-1    4.783498267789615E-1   -2.539387086547596E-3   -1.059288272074538E-3   -2.638750070249047E-3   -9.764839908257283E-4   -1.692625439476874E-1    4.145366769582908E-1
 8.196064911475000E9    -2.433857750547255E-1    4.787830100332227E-1   -2.551628303420136E-3   -1.051209336389087E-3   -2.597134867636529E-3   -1.002724332729711E-3   -1.689277667441958E-1    4.148117787843860E-1
 8.196073404700000E9    -2.427386252520891E-1    4.789701452488921E-1   -2.540437539511828E-3   -1.042381449151032E-3   -2.644547044878283E-3   -9.704654571001602E-4   -1.684254088772751E-1    4.151330234280063E-1
 8.196081897925000E9    -2.422308366298584E-1    4.791614254877915E-1   -2.590236216726697E-3   -1.051970440690216E-3   -2.623714885304316E-3   -9.590185657006482E-4   -1.680582437083247E-1    4.151349079179918E-1
 8.196090391150000E9    -2.417479977858123E-1    4.795008176557221E-1   -2.553198430347597E-3   -1.074309439080525E-3   -2.650942548418395E-3   -9.669648030053035E-4   -1.675917062865908E-1    4.154177600514951E-1
 8.196098884375000E9    -2.411445657373695E-1    4.797720553881235E-1   -2.551913475995297E-3   -1.056732638933507E-3   -2.631733582062667E-3   -9.330735557124967E-4   -1.670740477132631E-1    4.156061311846758E-1
 8.196107377600000E9    -2.406317903215446E-1    4.800194803532527E-1   -2.558731069598983E-3   -1.016528751371090E-3   -2.659398023506257E-3   -9.625755791760794E-4   -1.666969711408933E-1    4.156536136096629E-1
 8.196115870825000E9    -2.401110375946182E-1    4.801344126939006E-1   -2.552137335063367E-3   -1.051572566437382E-3   -2.644437193731219E-3   -9.760327528081070E-4   -1.662717944443656E-1    4.158663535935113E-1
 8.196124364050000E9    -2.395519456550688E-1    4.805129975950559E-1   -2.569948727842048E-3   -1.038100828152610E-3   -2.655340982719564E-3   -9.367445065092032E-4   -1.657506474124580E-1    4.160972411758121E-1
 8.196132857275000E9    -2.388958016414256E-1    4.807189106023534E-1   -2.545242698239164E-3   -1.035677879646317E-3   -2.686888659715795E-3   -9.518107937497116E-4   -1.654102044078582E-1    4.161591057913339E-1
 8.196141350500000E9    -2.384323886314082E-1    4.810901380433569E-1   -2.571424676358103E-3   -1.005382681705128E-3   -2.682773737551756E-3   -9.385447612890200E-4   -1.649224152797142E-1    4.164036748056200E-1
 8.196149843725000E9    -2.378831358553922E-1    4.812074581390004E-1   -2.574066315562275E-3   -1.040919212022833E-3   -2.654934056344178E-3   -9.257341626156732E-4   -1.644044084473673E-1    4.164604102134094E-1
 8.196158336950000E9    -2.372903952693936E-1    4.815187838400590E-1   -2.578256334680978E-3   -1.000854606954480E-3   -2.707577917285904E-3   -9.427671967782305E-4   -1.638706787376020E-1    4.166960119814123E-1
 8.196166830175000E9    -2.367374352007925E-1    4.817927278091745E-1   -2.564464442766179E-3   -1.006027966644835E-3   -2.666879654954856E-3   -9.198535876817739E-4   -1.635529268946455E-1    4.168618377499776E-1
 8.196175323400000E9    -2.362324269473435E-1    4.819899453917917E-1   -2.581257842357518E-3   -1.019859695376726E-3   -2.668104600643472E-3   -9.703653501201730E-4   -1.631066781756370E-1    4.169922897424502E-1
 8.196183816625000E9    -2.356594923643275E-1    4.823327394975233E-1   -2.570687100526545E-3   -1.012959537851314E-3   -2.656162982463953E-3   -9.164690950066555E-4   -1.627890025954567E-1    4.171730619833825E-1
 8.196192309850000E9    -2.351762965079707E-1    4.825171888335671E-1   -2.588597092292929E-3   -9.965020346142438E-4   -2.641286751302594E-3   -9.260973668748868E-4   -1.621542934946506E-1    4.173961318187594E-1
 8.196200803075000E9    -2.346325281189384E-1    4.828821024091692E-1   -2.581966969459094E-3   -1.021520165489223E-3   -2.700259113267994E-3   -9.146478842464445E-4   -1.617472177628030E-1    4.174505134051811E-1
 8.196209296300000E9    -2.339467917271214E-1    4.830717335730756E-1   -2.581877772115359E-3   -1.008124522269198E-3   -2.673268080412690E-3   -9.255161969875259E-4   -1.613498396333901E-1    4.176856280189959E-1
 8.196217789525000E9    -2.335756590323647E-1    4.832878247038460E-1   -2.602364082156581E-3   -1.010445581111735E-3   -2.708688019805303E-3   -9.537124673966044E-4   -1.606989035073213E-1    4.178398898982523E-1
 8.196226282750000E9    -2.328995936111777E-1    4.836178615443418E-1   -2.582761426172160E-3   -1.006638915154302E-3   -2.683564057725016E-3   -8.955625160974111E-4   -1.602540680254062E-1    4.179945713768088E-1
 8.196234775975000E9    -2.323799447509330E-1    4.837208551157030E-1   -2.600258197814436E-3   -1.012484956148647E-3   -2.695356558385170E-3   -9.161134928692626E-4   -1.598461138268224E-1    4.180376387787885E-1
 8.196243269200000E9    -2.318896983184272E-1    4.840192136931135E-1   -2.590371023947250E-3   -9.911734554938667E-4   -2.720740811320498E-3   -9.083008553277931E-4   -1.594773904721529E-1    4.182231156994871E-1
 8.196251762425000E9    -2.314607117595063E-1    4.843559023210137E-1   -2.586117497079514E-3   -9.954738289253094E-4   -2.699760038525843E-3   -8.915714452284165E-4   -1.590611961281366E-1    4.185365847565693E-1
 8.196260255650000E9    -2.307773515491021E-1    4.845730931494410E-1   -2.603100589752623E-3   -1.001945960316974E-3   -2.723983805379589E-3   -9.281415770697760E-4   -1.586121047885032E-1    4.186189587295359E-1
 8.196268748875000E9    -2.302698280025002E-1    4.848392959933320E-1   -2.599826353070578E-3   -9.654670611607221E-4   -2.701373214933528E-3   -9.162407793295944E-4   -1.581613782777699E-1    4.187419993284091E-1
 8.196277242100000E9    -2.296615348246493E-1    4.850687828472657E-1   -2.612662157436773E-3   -9.828383169544130E-4   -2.725480028879129E-3   -9.046017771816245E-4   -1.576631027936762E-1    4.190251956882585E-1
 8.196285735325000E9    -2.291277855124920E-1    4.853780736796053E-1   -2.601372729995335E-3   -1.002381015625637E-3   -2.710096266538373E-3   -9.308106235804042E-4   -1.571906748371454E-1    4.190624431273913E-1
 8.196294228550000E9    -2.284700800730561E-1    4.856852865549535E-1   -2.611354241675227E-3   -1.009842796302656E-3   -2.706720409221511E-3   -8.808701833269072E-4   -1.567644146382371E-1    4.191134704982710E-1
 8.196302721775000E9    -2.279094281789745E-1    4.859252119046693E-1   -2.622863926346516E-3   -9.925410493239655E-4   -2.702595998901937E-3   -8.958678672941722E-4   -1.564809439974873E-1    4.193582857481008E-1
 8.196311215000000E9    -2.272966691941778E-1    4.860316576893966E-1   -2.621210580969320E-3   -9.634859119839407E-4   -2.714640829872698E-3   -9.044128054843729E-4   -1.559077747103530E-1    4.195827276440215E-1
 8.196319708225000E9    -2.268258689781495E-1    4.865684113020301E-1   -2.632610270798670E-3   -9.912531052412603E-4   -2.706332037971399E-3   -8.940571181607945E-4   -1.553339210327168E-1    4.198235131787489E-1
 8.196328201450000E9    -2.262929206723195E-1    4.866197215291321E-1   -2.673078275606305E-3   -9.602034127928443E-4   -2.718328514201409E-3   -9.052355805347420E-4   -1.549780222652234E-1    4.199104247489379E-1
 8.196336694675000E9    -2.256873982710053E-1    4.869083457929313E-1   -2.649289664598733E-3   -9.642925046614523E-4   -2.738154945344798E-3   -8.856952289329132E-4   -1.545673030416071E-1    4.200157364531106E-1
 8.196345187900000E9    -2.251203051160877E-1    4.870463125965098E-1   -2.640843822366665E-3   -9.752261577836332E-4   -2.720723898178669E-3   -8.904495929821100E-4   -1.539954012571084E-1    4.201675334206335E-1
 8.196353681125000E9    -2.246603311651002E-1    4.872632415408794E-1   -2.634243324938158E-3   -9.357744560836733E-4   -2.721907440350301E-3   -8.776299849461628E-4   -1.537034324604323E-1    4.203398001219473E-1
 8.196362174350000E9    -2.241078043610648E-1    4.875033434316786E-1   -2.626237700015046E-3   -9.752495892576126E-4   -2.733238034865486E-3   -8.919522302475172E-4   -1.531070039135742E-1    4.205803334360430E-1
 8.196370667575000E9    -2.234873304392060E-1    4.878706391033104E-1   -2.653349474688529E-3   -9.609546218267172E-4   -2.737082563506750E-3   -8.914105121811514E-4   -1.526604917812182E-1    4.206264230051334E-1
 8.196379160800000E9    -2.228386170912832E-1    4.880854258714526E-1   -2.662289679254357E-3   -9.683384482033220E-4   -2.757113049640633E-3   -8.655086612151944E-4   -1.522543660729636E-1    4.207124957810436E-1
 8.196387654025000E9    -2.223001136644107E-1    4.883114608701006E-1   -2.663049152535157E-3   -9.555043333937474E-4   -2.739403998213141E-3   -8.464645185743616E-4   -1.519589169077061E-1    4.209604522317243E-1
 8.196396147250000E9    -2.218666518208464E-1    4.884766675132436E-1   -2.647790150188151E-3   -9.837784690005054E-4   -2.758234518917306E-3   -9.113666483979080E-4   -1.513007729531222E-1    4.210186226565913E-1
