#  HZ   S   RI   R     50.00 
! Rohde & Schwarz Vector Network Analyzer 
! Rohde-Schwarz,ZNB20-2Port,1311601062101988,3.16
! Created: UTC 3/20/2024, 4:57:24 PM
! freq[Hz]                re:S11                  im:S11                  re:S21                  im:S21                  re:S12                  im:S12                  re:S22                  im:S22
 8.178996255000000E9    -2.460511577180283E-1   -4.852144280679965E-1    1.842527761151823E-3   -1.311941798905103E-3    1.849596819541093E-3   -1.375001891125153E-3   -2.925269447969477E-1   -3.640674116856585E-1
 8.179079132700000E9    -2.511055483262596E-1   -4.825378536981135E-1    1.800974689433348E-3   -1.335156403882290E-3    1.877542875057001E-3   -1.369439652514437E-3   -2.961976445976142E-1   -3.611568874379924E-1
 8.179162010400000E9    -2.561282472875103E-1   -4.797917014996404E-1    1.809381841985924E-3   -1.355942140450196E-3    1.868379887829738E-3   -1.380497586042103E-3   -2.996644152740102E-1   -3.579967540570230E-1
 8.179244888100000E9    -2.612560055766550E-1   -4.771823205912389E-1    1.786232826269862E-3   -1.337881362932897E-3    1.856491814193439E-3   -1.423664802254908E-3   -3.031398497994525E-1   -3.549081302241676E-1
 8.179327765800000E9    -2.662593767729612E-1   -4.743470756096972E-1    1.788856321132703E-3   -1.362515856407150E-3    1.786548461457062E-3   -1.449242255002544E-3   -3.065894256089793E-1   -3.520463279413067E-1
 8.179410643500000E9    -2.712435810418706E-1   -4.715224340514930E-1    1.754085423330537E-3   -1.383514800687948E-3    1.805009902545635E-3   -1.447126888651310E-3   -3.101371701589059E-1   -3.486469577197280E-1
 8.179493521200000E9    -2.760591163152155E-1   -4.686281497485332E-1    1.755951618521504E-3   -1.385363418231025E-3    1.789081332615725E-3   -1.476021721149926E-3   -3.134007822752710E-1   -3.455045853947688E-1
 8.179576398900000E9    -2.810953314664659E-1   -4.657065642920193E-1    1.728369967097397E-3   -1.448251621517034E-3    1.773709797984127E-3   -1.499818475546413E-3   -3.166452245587987E-1   -3.422366399974964E-1
 8.179659276600000E9    -2.861203868011168E-1   -4.626719133700685E-1    1.735693793380540E-3   -1.466305504044064E-3    1.763463579465413E-3   -1.500551674835699E-3   -3.201403171630778E-1   -3.390002521861140E-1
 8.179742154300000E9    -2.908274775086708E-1   -4.596405809627120E-1    1.704122342258216E-3   -1.478149605130602E-3    1.757405204745695E-3   -1.539372650940162E-3   -3.234758448630690E-1   -3.358149095497010E-1
 8.179825032000000E9    -2.956263670716721E-1   -4.566165859638406E-1    1.707928499039242E-3   -1.466533898356630E-3    1.732451221751353E-3   -1.572140824020740E-3   -3.266959674607552E-1   -3.325077323919102E-1
 8.179907909700000E9    -3.004869975222760E-1   -4.534749650763831E-1    1.696875345339065E-3   -1.469963515792601E-3    1.700149631073206E-3   -1.597803415165557E-3   -3.299057507156559E-1   -3.291819757812956E-1
 8.179990787400000E9    -3.051478388129131E-1   -4.502314644104615E-1    1.656117105241638E-3   -1.498719579638556E-3    1.709579793493673E-3   -1.560508462927087E-3   -3.331616952047219E-1   -3.258493106985197E-1
 8.180073665100000E9    -3.099133940866631E-1   -4.468242050864701E-1    1.659378941721227E-3   -1.541436860091266E-3    1.714467420696319E-3   -1.587982585841306E-3   -3.362116696667636E-1   -3.223421207832136E-1
 8.180156542800000E9    -3.146528263942694E-1   -4.436339161179678E-1    1.644723076065613E-3   -1.541912411611585E-3    1.659305540063904E-3   -1.610900936708317E-3   -3.392436084212347E-1   -3.189938905378893E-1
 8.180239420500000E9    -3.192203297552859E-1   -4.403417669035787E-1    1.596690805538873E-3   -1.558397468263915E-3    1.644096088334302E-3   -1.602708550404848E-3   -3.423322396460468E-1   -3.154047862403815E-1
 8.180322298200000E9    -3.239840906344433E-1   -4.369230090313668E-1    1.622577087430269E-3   -1.563093330245445E-3    1.614167773267963E-3   -1.657523747870600E-3   -3.454134072994772E-1   -3.118979282953295E-1
 8.180405175900000E9    -3.284619133099589E-1   -4.334072022824683E-1    1.588281300558047E-3   -1.590562980940107E-3    1.633862600682183E-3   -1.667928040596715E-3   -3.484793016261670E-1   -3.086036415247506E-1
 8.180488053600000E9    -3.329323585360066E-1   -4.299542369850635E-1    1.566552681591105E-3   -1.609116272271769E-3    1.598407168832430E-3   -1.708272436212250E-3   -3.514357199672485E-1   -3.049177221855388E-1
 8.180570931300000E9    -3.374941930577489E-1   -4.263567316651045E-1    1.551901184306494E-3   -1.632131135465133E-3    1.599680394207491E-3   -1.733653675631510E-3   -3.543886852620819E-1   -3.012880314745069E-1
 8.180653809000000E9    -3.419661969400932E-1   -4.226363143612969E-1    1.543785662557657E-3   -1.638166943660925E-3    1.595542056323415E-3   -1.710145757347886E-3   -3.575278301579320E-1   -2.976827814668111E-1
 8.180736686700000E9    -3.462867479483073E-1   -4.191270790480779E-1    1.548253128031637E-3   -1.663884843281449E-3    1.527574369862761E-3   -1.738964078952782E-3   -3.604080028315239E-1   -2.943065275048923E-1
 8.180819564400000E9    -3.507887398285576E-1   -4.153321212317292E-1    1.515497403039382E-3   -1.648488477813478E-3    1.549707044172974E-3   -1.742944850697246E-3   -3.632478814670228E-1   -2.903930112791327E-1
 8.180902442100000E9    -3.551452301030056E-1   -4.117049560632185E-1    1.474440132804387E-3   -1.680504321398579E-3    1.521868130824155E-3   -1.776136272966550E-3   -3.659205070510943E-1   -2.867705196831840E-1
 8.180985319800000E9    -3.594236045726859E-1   -4.079255199925967E-1    1.477218055202252E-3   -1.704521633921778E-3    1.494528951642589E-3   -1.765080167529450E-3   -3.686517934529058E-1   -2.832250495721017E-1
 8.181068197500000E9    -3.635721931719689E-1   -4.040346368544298E-1    1.447001683986087E-3   -1.706818993331067E-3    1.498123540905437E-3   -1.806965056844795E-3   -3.714517064785764E-1   -2.793735075588133E-1
 8.181151075200000E9    -3.681009482683041E-1   -4.002470964546143E-1    1.444782348440413E-3   -1.752179185900738E-3    1.434549091254946E-3   -1.808516870651483E-3   -3.741894212072774E-1   -2.755776672932493E-1
 8.181233952900000E9    -3.720499847315195E-1   -3.962567786408426E-1    1.431479008562350E-3   -1.730227269659412E-3    1.458651216234368E-3   -1.826901745341192E-3   -3.768336873902075E-1   -2.718945329906414E-1
 8.181316830600000E9    -3.762953983399931E-1   -3.922614499679008E-1    1.383787372212960E-3   -1.746085824530941E-3    1.408658490615371E-3   -1.854611762375724E-3   -3.795289204427459E-1   -2.679162387075480E-1
 8.181399708300000E9    -3.804202435165118E-1   -3.881544889140548E-1    1.386920977720150E-3   -1.787954982028345E-3    1.423945852029739E-3   -1.881151977077897E-3   -3.819420498177087E-1   -2.642196733056924E-1
 8.181482586000000E9    -3.845780264908911E-1   -3.842299110803476E-1    1.366150182125842E-3   -1.798219583878460E-3    1.373697640428153E-3   -1.860410629852608E-3   -3.844943512613506E-1   -2.603827006759800E-1
 8.181565463700000E9    -3.884920222340061E-1   -3.801509811631968E-1    1.368722073998754E-3   -1.789548152418990E-3    1.363010500822369E-3   -1.911539850457137E-3   -3.872160417924520E-1   -2.563365945894464E-1
 8.181648341400000E9    -3.925009684423522E-1   -3.760241492974928E-1    1.356901816861396E-3   -1.836730458568136E-3    1.360736824210918E-3   -1.900449147878709E-3   -3.895249393248257E-1   -2.524473940592880E-1
 8.181731219100000E9    -3.963531161328656E-1   -3.719306817471622E-1    1.327594387455196E-3   -1.843131220404363E-3    1.334611318753025E-3   -1.907553449255783E-3   -3.918960098793782E-1   -2.484919875265343E-1
 8.181814096800000E9    -4.003035502006775E-1   -3.676865168976546E-1    1.270527636054327E-3   -1.838213018972330E-3    1.329222462851693E-3   -1.915231807111161E-3   -3.944752511504359E-1   -2.446253305032114E-1
 8.181896974500000E9    -4.042128903179922E-1   -3.633698490546927E-1    1.294671085133778E-3   -1.848768365211206E-3    1.322557722407785E-3   -1.961886322310105E-3   -3.967888299903230E-1   -2.406103197401011E-1
 8.181979852200000E9    -4.079434417239136E-1   -3.591091874733975E-1    1.289068477572140E-3   -1.865557442859428E-3    1.267424998781115E-3   -1.969433365156110E-3   -3.990699429381849E-1   -2.365776953128384E-1
 8.182062729900000E9    -4.117522589091915E-1   -3.546377306738904E-1    1.226507407530885E-3   -1.908448645533195E-3    1.264926092842954E-3   -1.969811613209892E-3   -4.013027343458074E-1   -2.324904177049429E-1
 8.182145607600000E9    -4.156144823466069E-1   -3.502868410589985E-1    1.220693311446380E-3   -1.892547380411262E-3    1.263861114147136E-3   -1.988780133126894E-3   -4.034818366575401E-1   -2.286024419851536E-1
 8.182228485300000E9    -4.190578571725045E-1   -3.458668909489550E-1    1.213056833844639E-3   -1.916140751292362E-3    1.216920549414494E-3   -1.991994523026335E-3   -4.056812021546766E-1   -2.243467534773188E-1
 8.182311363000000E9    -4.227201223269326E-1   -3.413990027874799E-1    1.203551256853278E-3   -1.928691767207844E-3    1.185446563477387E-3   -2.017135207212502E-3   -4.077969580120867E-1   -2.202750204539865E-1
 8.182394240700000E9    -4.263648458534692E-1   -3.369384587167421E-1    1.171627828567325E-3   -1.949628531798250E-3    1.178996273675794E-3   -2.027587522068686E-3   -4.099064846147573E-1   -2.163123524428875E-1
 8.182477118400000E9    -4.298435904305343E-1   -3.324406884793094E-1    1.149091038604009E-3   -1.938362652577006E-3    1.182476667700889E-3   -2.047933679284135E-3   -4.119807235113092E-1   -2.121703738416466E-1
 8.182559996100000E9    -4.332492870494440E-1   -3.278333179919938E-1    1.108409315071762E-3   -1.961080142757585E-3    1.129145250424902E-3   -2.007955269768143E-3   -4.140477690596789E-1   -2.080075684571898E-1
 8.182642873800000E9    -4.367706129780899E-1   -3.232197483021019E-1    1.118292143930090E-3   -1.999977147690546E-3    1.099539038899319E-3   -2.084611803475794E-3   -4.160013617191563E-1   -2.036294667992545E-1
 8.182725751500000E9    -4.401783057725049E-1   -3.184981872897499E-1    1.080654225661454E-3   -1.987780632273097E-3    1.097021119486060E-3   -2.047039594728739E-3   -4.179250082815411E-1   -1.995585325992324E-1
 8.182808629200000E9    -4.435570345558393E-1   -3.138230067711233E-1    1.072218125503769E-3   -1.995926334044270E-3    1.136692794949016E-3   -2.074049799765108E-3   -4.198969198927080E-1   -1.954086774403023E-1
 8.182891506900000E9    -4.468225330028910E-1   -3.091859749232026E-1    1.071095757872240E-3   -1.967292725839932E-3    1.079963141062263E-3   -2.090226764619867E-3   -4.216559314898791E-1   -1.912089607170551E-1
 8.182974384600000E9    -4.499598842810585E-1   -3.044146207110582E-1    1.040328913901569E-3   -2.023452928658639E-3    1.017991665813543E-3   -2.115358669291148E-3   -4.234403674494388E-1   -1.869767853861601E-1
 8.183057262300000E9    -4.532090997249749E-1   -2.994747935892179E-1    9.860561437117095E-4   -2.027597153419290E-3    9.995351618518197E-4   -2.099084141461726E-3   -4.251810020601313E-1   -1.826718376267730E-1
 8.183140140000000E9    -4.563296506792905E-1   -2.947899897268874E-1    9.512139319589262E-4   -2.056014342325123E-3    9.815495838908185E-4   -2.130194945916182E-3   -4.267938456114831E-1   -1.783672012417345E-1
 8.183223017700000E9    -4.595493634569732E-1   -2.898448562252151E-1    9.623727183154479E-4   -2.050993066088625E-3    9.821376504789952E-4   -2.125041514783250E-3   -4.285870072745894E-1   -1.740512855528303E-1
 8.183305895400000E9    -4.625215209984202E-1   -2.848634881947384E-1    9.539384624704329E-4   -2.087894104066870E-3    9.301970432267843E-4   -2.158576922442763E-3   -4.303202201888441E-1   -1.697370002430272E-1
 8.183388773100000E9    -4.654030356968481E-1   -2.799667384929045E-1    9.313371072362269E-4   -2.083685090910419E-3    9.119619798276242E-4   -2.163518852784385E-3   -4.317840466217049E-1   -1.654576836029195E-1
 8.183471650800000E9    -4.683726137925578E-1   -2.750448764501607E-1    8.784253074732023E-4   -2.075660056026406E-3    8.842588451768696E-4   -2.178549645887642E-3   -4.334399005226559E-1   -1.610426977346776E-1
 8.183554528500000E9    -4.711403037072936E-1   -2.700341903653930E-1    9.098311343510756E-4   -2.090649360334149E-3    8.780118765311493E-4   -2.184922166806552E-3   -4.348327077972906E-1   -1.566368222661288E-1
 8.183637406200000E9    -4.739498266200970E-1   -2.651682411813563E-1    8.409016521633584E-4   -2.118632296994983E-3    8.928998041684026E-4   -2.198622819807523E-3   -4.364250931840713E-1   -1.523812203777561E-1
 8.183720283900000E9    -4.766590536236220E-1   -2.600378994189945E-1    8.315147111125231E-4   -2.112210392689483E-3    8.527900070355899E-4   -2.207590608204226E-3   -4.378539189912073E-1   -1.478712136509183E-1
 8.183803161600000E9    -4.795383487792743E-1   -2.548189291118816E-1    8.225471395469701E-4   -2.127311424463812E-3    8.311471234193924E-4   -2.222157741920603E-3   -4.392025996261835E-1   -1.435338452983954E-1
 8.183886039300000E9    -4.822020216493715E-1   -2.496507027048422E-1    7.993195163538504E-4   -2.132998873010532E-3    8.331923838278542E-4   -2.233011613805314E-3   -4.403903059439458E-1   -1.391027366689455E-1
 8.183968917000000E9    -4.848013580227774E-1   -2.445069941289468E-1    7.832589221327612E-4   -2.107465167113296E-3    7.587150297338828E-4   -2.244678654730112E-3   -4.417537782942354E-1   -1.347390174913063E-1
 8.184051794700000E9    -4.873054337259607E-1   -2.394990459499479E-1    7.490028292380325E-4   -2.155153813940717E-3    7.246993893602842E-4   -2.234191101985594E-3   -4.430098416228883E-1   -1.304497129173879E-1
 8.184134672400000E9    -4.898699358999954E-1   -2.341167803572954E-1    7.620953811418637E-4   -2.163912000533814E-3    7.564666865352415E-4   -2.251135725358123E-3   -4.440987554179964E-1   -1.258500875234320E-1
 8.184217550100000E9    -4.922394197750317E-1   -2.289327911225380E-1    7.172263514499081E-4   -2.192786529464247E-3    7.241099736000916E-4   -2.243915454329869E-3   -4.453763496521311E-1   -1.213368872820560E-1
 8.184300427800000E9    -4.947275724159116E-1   -2.237930200648933E-1    6.560971528269304E-4   -2.165582956984812E-3    6.957316518823388E-4   -2.259910835046701E-3   -4.466434232814485E-1   -1.168069192196835E-1
 8.184383305500000E9    -4.969987714864496E-1   -2.184710983299095E-1    6.718542313453478E-4   -2.203539785784725E-3    6.499349438853032E-4   -2.242345228022401E-3   -4.476443852385569E-1   -1.123904303109883E-1
 8.184466183200000E9    -4.992476453401531E-1   -2.131240833385723E-1    6.236485107237937E-4   -2.178335829080541E-3    6.345363779881531E-4   -2.287839474286655E-3   -4.485320432883378E-1   -1.079506073227886E-1
 8.184549060900000E9    -5.014312417531042E-1   -2.077496966907034E-1    6.049870117402278E-4   -2.204989176637617E-3    6.257792305604631E-4   -2.302172987007151E-3   -4.494772346748108E-1   -1.034960926998321E-1
 8.184631938600000E9    -5.036845847083345E-1   -2.025154619966054E-1    6.408034894065019E-4   -2.189723190704635E-3    6.118093984112937E-4   -2.305806666296225E-3   -4.504305761726602E-1   -9.895794502968933E-2
 8.184714816300000E9    -5.057964633649111E-1   -1.971337505949533E-1    5.928867474223578E-4   -2.228819524873769E-3    5.699090955342172E-4   -2.295146127330992E-3   -4.514352778670511E-1   -9.447108511658814E-2
 8.184797694000000E9    -5.077397659391423E-1   -1.917194155006512E-1    5.589601997594974E-4   -2.224572810507754E-3    5.369080959527436E-4   -2.332248367442023E-3   -4.521889424095443E-1   -8.982224860344586E-2
 8.184880571700000E9    -5.097350851785747E-1   -1.862640856180206E-1    5.403847972595881E-4   -2.255873278534909E-3    5.505559945045863E-4   -2.293555303216008E-3   -4.530628588075006E-1   -8.530432931399198E-2
 8.184963449400000E9    -5.116661770357148E-1   -1.809023743952962E-1    5.173329575796691E-4   -2.255430668021884E-3    4.979999756383638E-4   -2.334505340203546E-3   -4.536077571727585E-1   -8.092581477940183E-2
 8.185046327100000E9    -5.135901919790311E-1   -1.753979398730959E-1    5.065846836783082E-4   -2.224149940923780E-3    4.648489741249271E-4   -2.316058499378628E-3   -4.543902185200851E-1   -7.611909920983422E-2
 8.185129204800000E9    -5.154366509360607E-1   -1.698944759551664E-1    4.606828702178161E-4   -2.261129449199438E-3    4.391276078322844E-4   -2.341773650318866E-3   -4.550788275388914E-1   -7.146595609152165E-2
 8.185212082500000E9    -5.171467542721968E-1   -1.643288518362409E-1    4.246576614858605E-4   -2.269862244949389E-3    4.283544816983878E-4   -2.345741408482072E-3   -4.557842406025294E-1   -6.710120339763984E-2
 8.185294960200000E9    -5.188276138681078E-1   -1.588297642499829E-1    4.266362846709837E-4   -2.256967269727554E-3    3.982215085005936E-4   -2.338805110635275E-3   -4.563157490496534E-1   -6.257626875296773E-2
 8.185377837900000E9    -5.204489062101820E-1   -1.533933275468427E-1    3.986965655953056E-4   -2.265699250729968E-3    3.797331151962408E-4   -2.327626511410037E-3   -4.566170232608525E-1   -5.782703757240976E-2
 8.185460715600000E9    -5.220610681825998E-1   -1.477583748300478E-1    3.978272546503506E-4   -2.278218588902587E-3    3.503331057057881E-4   -2.365485910504730E-3   -4.572672646272399E-1   -5.340709105519575E-2
 8.185543593300000E9    -5.236156318889105E-1   -1.422574428524057E-1    3.346882203303991E-4   -2.262809691461074E-3    3.171748551852270E-4   -2.403666098221896E-3   -4.576272026202315E-1   -4.870377398503246E-2
 8.185626471000000E9    -5.249823214257273E-1   -1.364866461041050E-1    3.539570876952141E-4   -2.301822748300052E-3    3.060643842312122E-4   -2.403476348412574E-3   -4.582370714189691E-1   -4.426163352513857E-2
 8.185709348700000E9    -5.264248945256021E-1   -1.310589274254079E-1    3.297318645461071E-4   -2.307052519433671E-3    2.837682577401671E-4   -2.351620754830545E-3   -4.584749796224424E-1   -3.956084584325228E-2
 8.185792226400000E9    -5.277133105076253E-1   -1.253543728334442E-1    2.927320170948939E-4   -2.307632297790061E-3    2.343861198983565E-4   -2.383331427737587E-3   -4.586541863586741E-1   -3.514176366618375E-2
 8.185875104100000E9    -5.289476228169436E-1   -1.197590255944152E-1    2.525066921031043E-4   -2.306919842315472E-3    2.506339465885773E-4   -2.386258308835121E-3   -4.589478583474269E-1   -3.045831545114533E-2
 8.185957981800000E9    -5.301989826009472E-1   -1.142051850684534E-1    2.387268310103793E-4   -2.292743449561177E-3    2.173275658292397E-4   -2.384469808978422E-3   -4.591246895002815E-1   -2.582109845759505E-2
 8.186040859500000E9    -5.314372700370685E-1   -1.084745792752582E-1    2.281289897473066E-4   -2.289065703855518E-3    2.070687290542517E-4   -2.402330099592422E-3   -4.593065314142113E-1   -2.115305761205018E-2
 8.186123737200000E9    -5.327043645788676E-1   -1.028087050450158E-1    2.114040779756692E-4   -2.323660148533455E-3    1.290165177917705E-4   -2.412242845220221E-3   -4.593547210288108E-1   -1.673508892532543E-2
 8.186206614900000E9    -5.335447379354421E-1   -9.713826593590143E-2    1.836746600275972E-4   -2.306140196554500E-3    1.255709624914323E-4   -2.441259249781769E-3   -4.594579519218142E-1   -1.204455366333387E-2
 8.186289492600000E9    -5.345782984868077E-1   -9.142724543929218E-2    1.595623242678841E-4   -2.300382600106372E-3    1.165867588056340E-4   -2.422484850614200E-3   -4.594743883531464E-1   -7.368407324183535E-3
 8.186372370300000E9    -5.355426670711331E-1   -8.560051588294397E-2    9.726281129399624E-5   -2.299101811371830E-3    7.811947260203031E-5   -2.364864074510195E-3   -4.593790379364811E-1   -2.793632097689736E-3
 8.186455248000000E9    -5.363261343834806E-1   -7.997303965588955E-2    1.050985000110129E-4   -2.323078833383135E-3    5.312055446926563E-5   -2.403773084567978E-3   -4.594579601618640E-1    1.686347274596618E-3
