#  HZ   S   RI   R     50.00 
! Rohde & Schwarz Vector Network Analyzer 
! Rohde-Schwarz,ZNB20-2Port,1311601062101988,3.16
! Created: UTC 3/20/2024, 5:04:36 PM
! freq[Hz]                re:S11                  im:S11                  re:S21                  im:S21                  re:S12                  im:S12                  re:S22                  im:S22
 8.160257904000000E9     5.143984100980992E-1    1.597731043323080E-1   -3.488935052990019E-4    2.542051676069867E-3   -3.119551786462643E-4    2.530940067511485E-3    4.947313469414525E-1    1.122716875506359E-2
 8.160425899125000E9     5.178126902418672E-1    1.491462812117781E-1   -2.895152099139374E-4    2.539153700756862E-3   -2.750721767914030E-4    2.570204571462575E-3    4.945186829887698E-1    1.061337071853806E-3
 8.160593894250000E9     5.209196668551248E-1    1.381468367277917E-1   -2.161472846830378E-4    2.560506081731096E-3   -2.151457273061066E-4    2.569547120127293E-3    4.942023687418020E-1   -9.314051044330677E-3
 8.160761889375000E9     5.240719067527161E-1    1.273054482818183E-1   -1.825113942506482E-4    2.539435597523580E-3   -1.638828217177265E-4    2.561805413007788E-3    4.936140197350094E-1   -1.950499544803897E-2
 8.160929884500000E9     5.266582337644025E-1    1.164127143261407E-1   -8.983696272732607E-5    2.547984019532047E-3   -1.412275508435817E-4    2.537031146272545E-3    4.928856058171560E-1   -2.949593613290078E-2
 8.161097879625000E9     5.291470705898660E-1    1.053499617042284E-1   -5.099949753726758E-5    2.540697258367697E-3   -5.523869885325740E-5    2.547956788452108E-3    4.920365804391442E-1   -3.971529625784070E-2
 8.161265874750000E9     5.312793536706979E-1    9.417047903314894E-2    1.725059187151309E-5    2.543776489834222E-3    4.349706197009122E-5    2.536931418080676E-3    4.906998304217547E-1   -4.981141186600985E-2
 8.161433869875000E9     5.333827473564657E-1    8.323994889129079E-2    5.093333213564597E-5    2.540270553554155E-3    6.427982480977878E-5    2.532226510669830E-3    4.894859370310176E-1   -5.967076287956830E-2
 8.161601865000000E9     5.351895999824006E-1    7.193808504498163E-2    1.318470751438618E-4    2.538500974421222E-3    1.284905922687832E-4    2.526390881812908E-3    4.876960813874976E-1   -6.969584635945675E-2
 8.161769860125000E9     5.365560142388545E-1    6.087726340286289E-2    1.666708175495755E-4    2.518248653642641E-3    1.655893566695762E-4    2.545690257637126E-3    4.860166045800347E-1   -7.978228394894174E-2
 8.161937855250000E9     5.379598191707755E-1    4.956742756623999E-2    2.220269514799772E-4    2.514369632968117E-3    2.377806033369115E-4    2.551535766930565E-3    4.839246867586485E-1   -8.963512299152197E-2
 8.162105850375000E9     5.390678530130931E-1    3.838193507478679E-2    3.011076862882599E-4    2.478818516695649E-3    2.692231633212016E-4    2.516509037802383E-3    4.818863894923890E-1   -9.942417710963911E-2
 8.162273845500000E9     5.398343531649342E-1    2.721874200908433E-2    3.476874797083859E-4    2.481167368035818E-3    3.334933765676809E-4    2.518183921857630E-3    4.794259860000825E-1   -1.092238688233078E-1
 8.162441840625000E9     5.404168933698916E-1    1.591051760002920E-2    3.826749821303373E-4    2.491660156633259E-3    3.815997670544281E-4    2.508936527704975E-3    4.769019708871965E-1   -1.189867802041988E-1
 8.162609835750000E9     5.407081694007547E-1    4.473712276193306E-3    4.240791319567021E-4    2.456186886711853E-3    4.304562035609612E-4    2.507652936620610E-3    4.740362555516388E-1   -1.286900914204523E-1
 8.162777830875000E9     5.407558276976151E-1   -6.636014384565024E-3    4.828310040114732E-4    2.433969954922034E-3    4.733029788320997E-4    2.448537639505192E-3    4.710018946661934E-1   -1.382499537651654E-1
 8.162945826000000E9     5.406918996498260E-1   -1.818813037408959E-2    5.360206254990223E-4    2.403049965396008E-3    5.553507450063580E-4    2.477336589563143E-3    4.678557510308411E-1   -1.478043962868341E-1
 8.163113821125000E9     5.403303478332019E-1   -2.928338283660011E-2    5.921429089146935E-4    2.411552163284853E-3    5.493576986619932E-4    2.451335190352661E-3    4.643817779090699E-1   -1.573396267259803E-1
 8.163281816250000E9     5.397174590687644E-1   -4.054590403833010E-2    6.252152960879839E-4    2.401440363020190E-3    6.266381890816653E-4    2.442639648642702E-3    4.608674856909630E-1   -1.667785271717060E-1
 8.163449811375000E9     5.389320970439982E-1   -5.179298946964457E-2    6.760120757258943E-4    2.376148856022332E-3    6.962951995560323E-4    2.401902085953253E-3    4.572759988214710E-1   -1.759392770687933E-1
 8.163617806500000E9     5.377513541165946E-1   -6.304850956479148E-2    7.502548244030387E-4    2.335908494947885E-3    7.372446883842085E-4    2.377422783108950E-3    4.532640879166047E-1   -1.852129676888337E-1
 8.163785801625000E9     5.364146267198245E-1   -7.425158096321084E-2    7.731160673417191E-4    2.323986691927617E-3    7.675412446335822E-4    2.358373500337687E-3    4.490235902479093E-1   -1.942766095044308E-1
 8.163953796750000E9     5.349048890913610E-1   -8.538035156111203E-2    8.329458288591348E-4    2.311475783625014E-3    8.350078866800196E-4    2.360815090110345E-3    4.447921790006988E-1   -2.033309603230709E-1
 8.164121791875000E9     5.330486749290286E-1   -9.662751539154008E-2    8.749426073015368E-4    2.302175496617786E-3    8.461946579592230E-4    2.345041896073959E-3    4.403958484038260E-1   -2.122457308859967E-1
 8.164289787000000E9     5.310247503733277E-1   -1.076565780980610E-1    9.267484663749467E-4    2.277998511019177E-3    9.034891955830442E-4    2.313797096945500E-3    4.354813636194619E-1   -2.211394762062241E-1
 8.164457782125000E9     5.287954588942312E-1   -1.187533498318600E-1    9.683221871803955E-4    2.231701651108743E-3    9.658586251369637E-4    2.286992269102197E-3    4.306842185437402E-1   -2.298974493932296E-1
 8.164625777250000E9     5.263654772604971E-1   -1.299200248561911E-1    1.019007843842755E-3    2.222847973200881E-3    1.008356676354305E-3    2.242440858492351E-3    4.256572643301876E-1   -2.383657078849114E-1
 8.164793772375000E9     5.236659817853827E-1   -1.408411706284166E-1    1.067107925772925E-3    2.211517620007366E-3    1.070342218092892E-3    2.204352253215029E-3    4.206960131167838E-1   -2.470282369205770E-1
 8.164961767500000E9     5.207367321978983E-1   -1.517477416049760E-1    1.097609354630482E-3    2.178158955724332E-3    1.095904732823986E-3    2.213823147248781E-3    4.152596501967040E-1   -2.554911450241275E-1
 8.165129762625000E9     5.174445004403576E-1   -1.626057221115802E-1    1.142531210955933E-3    2.137079068446221E-3    1.150005567445472E-3    2.191615209595870E-3    4.098287271728180E-1   -2.636794739745871E-1
 8.165297757750000E9     5.139888899779191E-1   -1.733377153145551E-1    1.207167835587226E-3    2.114621086997816E-3    1.183957719758554E-3    2.154509625280939E-3    4.039445265737087E-1   -2.719004044890002E-1
 8.165465752875000E9     5.103897183886430E-1   -1.840712636520827E-1    1.222141524688997E-3    2.081261062952342E-3    1.237896847147776E-3    2.146274756836413E-3    3.981650089141569E-1   -2.799572918154116E-1
 8.165633748000000E9     5.065029872557700E-1   -1.946917524644506E-1    1.269858723220987E-3    2.046394123767522E-3    1.297959022389761E-3    2.068276376983619E-3    3.921465817748387E-1   -2.876998486874770E-1
 8.165801743125000E9     5.024641952445470E-1   -2.052594188526650E-1    1.302918841405775E-3    2.039237400566960E-3    1.305238440367372E-3    2.064311921862085E-3    3.859513148426088E-1   -2.955995678031355E-1
 8.165969738250000E9     4.980604934557817E-1   -2.157448107356914E-1    1.368871896903846E-3    1.998198292230858E-3    1.353507225613727E-3    2.004822062960833E-3    3.797815445969048E-1   -3.031111369431884E-1
 8.166137733375000E9     4.935674079528545E-1   -2.260268618239020E-1    1.375537665614868E-3    1.953178161589718E-3    1.417814895250650E-3    1.984882866533888E-3    3.732851856415333E-1   -3.108031179104185E-1
 8.166305728500000E9     4.887632552614307E-1   -2.363665627681852E-1    1.430330618445025E-3    1.922000924689659E-3    1.437227730350712E-3    1.974873930167839E-3    3.665710130059917E-1   -3.180651580767129E-1
 8.166473723625000E9     4.838680566777298E-1   -2.466414740174792E-1    1.475736810477053E-3    1.869948780434218E-3    1.464787735360292E-3    1.920026675791496E-3    3.599300195374409E-1   -3.255139621979223E-1
 8.166641718750000E9     4.786616028997682E-1   -2.567254186825682E-1    1.520594969448573E-3    1.846927677013908E-3    1.512909673634935E-3    1.897817540323473E-3    3.530487007376220E-1   -3.324662784669054E-1
 8.166809713875000E9     4.732940917358038E-1   -2.665771096409296E-1    1.550111336632195E-3    1.841514897012105E-3    1.540355065650799E-3    1.878220611284910E-3    3.458788952945486E-1   -3.393610913415331E-1
 8.166977709000000E9     4.676202931185602E-1   -2.764956200030843E-1    1.578015926150066E-3    1.771487403519005E-3    1.614092356496552E-3    1.846841956089288E-3    3.387752395076706E-1   -3.461187245950981E-1
 8.167145704125000E9     4.617690740001161E-1   -2.860990899588857E-1    1.616359908829095E-3    1.743768035738997E-3    1.647426365518730E-3    1.789455779788961E-3    3.316181036566897E-1   -3.527978890090961E-1
 8.167313699250000E9     4.558226047627446E-1   -2.957341675214554E-1    1.624900323931314E-3    1.696435894630748E-3    1.662775501469577E-3    1.761173648015821E-3    3.240219308953795E-1   -3.592514886405098E-1
 8.167481694375000E9     4.496308554243616E-1   -3.051226783634644E-1    1.669883238907783E-3    1.673249865491410E-3    1.672124652474856E-3    1.711154253693902E-3    3.164856144932746E-1   -3.656199530784737E-1
 8.167649689500000E9     4.431957753027291E-1   -3.146706158689060E-1    1.704497588670739E-3    1.627371165355060E-3    1.745672185859835E-3    1.706664236912116E-3    3.089479819838722E-1   -3.718215490040082E-1
 8.167817684625000E9     4.364986889785887E-1   -3.237618033165530E-1    1.719079165681532E-3    1.586884265536389E-3    1.744847754097404E-3    1.639234352396430E-3    3.010997426981912E-1   -3.776769837434187E-1
 8.167985679750000E9     4.297922425682559E-1   -3.329324373042536E-1    1.754058362950330E-3    1.521354916471976E-3    1.817553255453167E-3    1.620942647939997E-3    2.931465815142313E-1   -3.835424917800302E-1
 8.168153674875000E9     4.227213028137992E-1   -3.418803529889937E-1    1.799404923531127E-3    1.513035626502845E-3    1.816190223689984E-3    1.564498794632697E-3    2.850643041073250E-1   -3.893152687535072E-1
 8.168321670000000E9     4.154699098295335E-1   -3.506968932718788E-1    1.824673155318608E-3    1.498082293097057E-3    1.827865403492829E-3    1.521633240896768E-3    2.770121938860600E-1   -3.947600235056232E-1
 8.168489665125000E9     4.081034488259285E-1   -3.593063058783396E-1    1.868043539930373E-3    1.410062672061200E-3    1.863132337876466E-3    1.487558944970992E-3    2.687930708845904E-1   -4.001904216187123E-1
 8.168657660250000E9     4.005035791463027E-1   -3.676820237711332E-1    1.878175301263986E-3    1.395182454165228E-3    1.935521679603889E-3    1.460755218238941E-3    2.605221678403544E-1   -4.052901798313296E-1
 8.168825655375000E9     3.928348796036692E-1   -3.759475380748056E-1    1.899556748894658E-3    1.352229716014627E-3    1.959731142490849E-3    1.386972067184836E-3    2.520383675359015E-1   -4.102422682758495E-1
 8.168993650500000E9     3.849706839115804E-1   -3.841663447176069E-1    1.928603612868964E-3    1.339906475976644E-3    1.980583077527627E-3    1.344578246821227E-3    2.434319183827376E-1   -4.150724526465553E-1
 8.169161645625000E9     3.768193013482613E-1   -3.922650432693901E-1    1.955421399691431E-3    1.253839529746781E-3    2.011421891746195E-3    1.297930302030375E-3    2.349562594392851E-1   -4.197408175089622E-1
 8.169329640750000E9     3.684617693699058E-1   -4.000706291946289E-1    1.979537499272801E-3    1.224636923148324E-3    2.019968742513945E-3    1.294112692355462E-3    2.261809676289702E-1   -4.244541339857323E-1
 8.169497635875000E9     3.601825261837315E-1   -4.078225456214577E-1    1.996962337560967E-3    1.193697454111317E-3    2.025154185528310E-3    1.247370341240847E-3    2.174919687853547E-1   -4.285150445941311E-1
 8.169665631000000E9     3.515657153842879E-1   -4.152050009755912E-1    2.018254749064866E-3    1.143316729718601E-3    2.065222456933422E-3    1.209996086021180E-3    2.086785427495614E-1   -4.326534395494125E-1
 8.169833626125000E9     3.428762535233998E-1   -4.225245087154877E-1    2.043146788426219E-3    1.119094788583870E-3    2.061484124816472E-3    1.160569676170858E-3    1.996898136556074E-1   -4.365925182969684E-1
 8.170001621250000E9     3.339836400162218E-1   -4.296341846523802E-1    2.092089125002935E-3    1.082104885342125E-3    2.131578154764362E-3    1.054660839413564E-3    1.907685023736148E-1   -4.402508744439321E-1
 8.170169616375000E9     3.249676219777294E-1   -4.364874183461077E-1    2.103803158111288E-3    1.029492136521091E-3    2.125523004041047E-3    1.060932205094797E-3    1.816259867516185E-1   -4.437562951432734E-1
 8.170337611500000E9     3.158106114743941E-1   -4.432119599443011E-1    2.111636710315128E-3    9.467350470819733E-4    2.158872188727371E-3    9.950573909029902E-4    1.723209785362896E-1   -4.471477035788508E-1
 8.170505606625000E9     3.063719706382686E-1   -4.497227762287307E-1    2.122236325143335E-3    9.395690269148060E-4    2.141827226243582E-3    9.781846245708902E-4    1.632820849240406E-1   -4.503784010763621E-1
 8.170673601750000E9     2.968576477583115E-1   -4.561981937685055E-1    2.140437740213764E-3    9.153689244550989E-4    2.201509528628634E-3    9.073389232739108E-4    1.541224037184936E-1   -4.533502849835727E-1
 8.170841596875000E9     2.873412771134577E-1   -4.622282961422144E-1    2.154742163985153E-3    8.425596606607624E-4    2.199340792106838E-3    8.646167483318690E-4    1.448316893905165E-1   -4.559858925375013E-1
 8.171009592000000E9     2.775718363060405E-1   -4.681837079119003E-1    2.150179976087152E-3    7.836408543450086E-4    2.212957461162088E-3    8.609205790045527E-4    1.353212352324631E-1   -4.587113637197596E-1
 8.171177587125000E9     2.677001667600508E-1   -4.739119989368984E-1    2.184832098452594E-3    7.594776274315021E-4    2.214895004985399E-3    7.719599149966950E-4    1.260102481494892E-1   -4.612180399684706E-1
 8.171345582250000E9     2.577145467639091E-1   -4.793366032729363E-1    2.206216045716192E-3    7.089244783441896E-4    2.253793479026983E-3    7.482421692788690E-4    1.165574594487170E-1   -4.633522634291206E-1
 8.171513577375000E9     2.475599741047897E-1   -4.846649133111576E-1    2.210194887875432E-3    6.288224720807646E-4    2.270358595039808E-3    6.865906077837778E-4    1.070329543818501E-1   -4.656119639611012E-1
 8.171681572500000E9     2.373115687178005E-1   -4.899045862271589E-1    2.217579410142582E-3    6.092990048892391E-4    2.252610799573366E-3    6.395059484970683E-4    9.751453086864036E-2   -4.671987432848590E-1
 8.171849567625000E9     2.269839931867946E-1   -4.947830401419221E-1    2.210782113241831E-3    5.890276209723243E-4    2.283228751122244E-3    5.746761355142460E-4    8.798677524659446E-2   -4.689410075136229E-1
 8.172017562750000E9     2.166080132282734E-1   -4.993534027477937E-1    2.231040409693668E-3    5.323932312361888E-4    2.272749917379767E-3    5.642769661536484E-4    7.836878101811075E-2   -4.703862351233959E-1
 8.172185557875000E9     2.059767737710194E-1   -5.039575796780910E-1    2.226411064698252E-3    4.700816711641543E-4    2.278640788461952E-3    4.903205493793618E-4    6.881123986913300E-2   -4.716865220264445E-1
 8.172353553000000E9     1.954938781302806E-1   -5.081077366747199E-1    2.235103355645026E-3    3.964386002481923E-4    2.295058488025729E-3    4.295577558247728E-4    5.915447920720791E-2   -4.726057880112629E-1
 8.172521548125000E9     1.847284666756171E-1   -5.122254366794948E-1    2.244823310732560E-3    3.853390898440195E-4    2.317719864982085E-3    4.038940626327937E-4    4.951242721616725E-2   -4.735920324827370E-1
 8.172689543250000E9     1.739113071130076E-1   -5.159799793141556E-1    2.253331348137962E-3    3.334307600831096E-4    2.341736027089810E-3    3.496631604219708E-4    4.000483860399465E-2   -4.742861693719126E-1
 8.172857538375000E9     1.631369455573915E-1   -5.194748057405526E-1    2.258946960511105E-3    2.803774223927978E-4    2.320776823316808E-3    2.799613021228804E-4    3.032464226754540E-2   -4.749233810628433E-1
 8.173025533500000E9     1.520243300519632E-1   -5.228394039511716E-1    2.262090516648085E-3    2.180192584091762E-4    2.312548430610479E-3    2.543401414594608E-4    2.080065251997340E-2   -4.750873588917929E-1
 8.173193528625000E9     1.410797064658862E-1   -5.259679021550043E-1    2.289664079070235E-3    1.904730992200279E-4    2.328230777331697E-3    2.084151658952780E-4    1.120759305743391E-2   -4.751957914030817E-1
 8.173361523750000E9     1.298190967182248E-1   -5.287578553250445E-1    2.257964668176766E-3    1.155471837376001E-4    2.310426789527321E-3    1.767384957542675E-4    1.441528667165749E-3   -4.752410395560197E-1
 8.173529518875000E9     1.186343317479303E-1   -5.314241944623499E-1    2.284802458183994E-3    1.075364515895366E-4    2.322051686681619E-3    1.188217915047330E-4   -8.208316965193828E-3   -4.747275726744890E-1
 8.173697514000000E9     1.076326661197438E-1   -5.337689534551159E-1    2.289058746928744E-3    5.448231925129241E-5    2.333510080624959E-3    4.840821653491369E-5   -1.770020487842636E-2   -4.743916053295861E-1
 8.173865509125000E9     9.633199448746305E-2   -5.358635337532592E-1    2.282338557992638E-3   -2.882671088015538E-6    2.313719938901254E-3    1.949412507326003E-5   -2.729842194467697E-2   -4.735164387726751E-1
 8.174033504250000E9     8.501814315704818E-2   -5.378016819116803E-1    2.271251980487681E-3   -5.243277634790215E-5    2.354407387403811E-3   -5.463414724882073E-5   -3.686010457360769E-2   -4.728433371671367E-1
 8.174201499375000E9     7.366871883933726E-2   -5.394812144125770E-1    2.253476639933517E-3   -9.964189016304233E-5    2.301884180278941E-3   -8.468351453216300E-5   -4.656775883487350E-2   -4.717616966128637E-1
 8.174369494500000E9     6.207898962991505E-2   -5.408486351707804E-1    2.247412562107664E-3   -1.138296518746785E-4    2.324202928575575E-3   -1.261569524471238E-4   -5.591825673051051E-2   -4.704894917176270E-1
 8.174537489625000E9     5.092309416050503E-2   -5.419276950622013E-1    2.265293561004442E-3   -1.766660191074887E-4    2.322480962754110E-3   -2.061015015819877E-4   -6.547754671947474E-2   -4.689858776692350E-1
 8.174705484750000E9     3.930183353075820E-2   -5.429454805304672E-1    2.246588328551151E-3   -2.384696122477698E-4    2.303379625364300E-3   -2.201342041651333E-4   -7.482127315538241E-2   -4.676450164278659E-1
 8.174873479875000E9     2.787515831944227E-2   -5.437283299206302E-1    2.232373218867182E-3   -2.970297342210044E-4    2.294253989870016E-3   -2.707382102228419E-4   -8.418426860148345E-2   -4.656002876242583E-1
 8.175041475000000E9     1.638902931329433E-2   -5.441220732860400E-1    2.232001412796852E-3   -3.384808976506145E-4    2.304344910082176E-3   -3.613451185743857E-4   -9.366252983953240E-2   -4.634968048929084E-1
 8.175209470125000E9     4.906415339596805E-3   -5.443251664487567E-1    2.225749655843502E-3   -3.422978831101092E-4    2.318843876417326E-3   -3.483401512749848E-4   -1.030176442432513E-1   -4.615327774615278E-1
 8.175377465250000E9    -6.571560210476108E-3   -5.442395465471636E-1    2.240700935067811E-3   -3.963445620595080E-4    2.287985205152985E-3   -4.489087191790573E-4   -1.124184059878045E-1   -4.591531255243927E-1
