#  HZ   S   RI   R     50.00 
! Rohde & Schwarz Vector Network Analyzer 
! Rohde-Schwarz,ZNB20-2Port,1311601062101988,3.16
! Created: UTC 3/20/2024, 4:48:37 PM
! freq[Hz]                re:S11                  im:S11                  re:S21                  im:S21                  re:S12                  im:S12                  re:S22                  im:S22
 8.196987936000000E9    -1.800255747991836E-1    5.048414237669296E-1   -3.121051173792107E-3   -8.021188711370235E-4   -3.210130744577398E-3   -7.050370003871006E-4   -1.152891749538359E-1    4.289234137390232E-1
 8.196990216500000E9    -1.798882270870938E-1    5.050181967141973E-1   -3.103793136974591E-3   -8.071107009177000E-4   -3.214219081166683E-3   -7.081848337379742E-4   -1.150339769088087E-1    4.288084605219118E-1
 8.196992497000000E9    -1.797417484396809E-1    5.050799729370147E-1   -3.096840649533454E-3   -8.078630540748249E-4   -3.212761510500737E-3   -7.062565222557064E-4   -1.149468155690915E-1    4.289430341412400E-1
 8.196994777500000E9    -1.794485809350025E-1    5.051521487037521E-1   -3.117092046255603E-3   -7.980203229562017E-4   -3.208079223573502E-3   -6.645376336072152E-4   -1.148424816924584E-1    4.289604624014130E-1
 8.196997058000000E9    -1.793682929306866E-1    5.051696781507035E-1   -3.135391652110693E-3   -7.986148318489172E-4   -3.187685646393643E-3   -6.936726360557885E-4   -1.146261788045366E-1    4.289859156201341E-1
 8.196999338500000E9    -1.792730072667548E-1    5.051847968456100E-1   -3.102881071329036E-3   -8.124331914157197E-4   -3.199361862271711E-3   -6.946359230753775E-4   -1.145548948071529E-1    4.289421169080128E-1
 8.197001619000000E9    -1.789717449122697E-1    5.053128157054605E-1   -3.130123323351009E-3   -8.162260556967084E-4   -3.175999874396783E-3   -6.810788273299729E-4   -1.144674529631217E-1    4.288385492657086E-1
 8.197003899500000E9    -1.788113529746158E-1    5.054157750842968E-1   -3.097831267722553E-3   -8.175468029321819E-4   -3.209017714135563E-3   -6.882976558065979E-4   -1.142490002421661E-1    4.290451603722483E-1
 8.197006180000000E9    -1.785211843461836E-1    5.054252478094491E-1   -3.118899942653743E-3   -7.879651533487431E-4   -3.233174910590859E-3   -6.734648394978283E-4   -1.143175817519433E-1    4.290932064239186E-1
 8.197008460500000E9    -1.784654117513624E-1    5.053637198865085E-1   -3.145250702734827E-3   -8.180450226638000E-4   -3.240574243068465E-3   -6.821645873363098E-4   -1.140687639069273E-1    4.291114808349764E-1
 8.197010741000000E9    -1.782657804170448E-1    5.055364538531139E-1   -3.145800265574976E-3   -8.028316509831337E-4   -3.247437400015592E-3   -7.034372932059840E-4   -1.139769470993034E-1    4.291148809065847E-1
 8.197013021500000E9    -1.781324260374670E-1    5.055585781291710E-1   -3.135712812871947E-3   -7.871081660012063E-4   -3.252218518976126E-3   -6.948500349180481E-4   -1.137940551355736E-1    4.291280853752453E-1
 8.197015302000000E9    -1.779092076607956E-1    5.055949554887811E-1   -3.130654263532973E-3   -8.087499022210752E-4   -3.233805855167644E-3   -6.793157720642293E-4   -1.137176431241873E-1    4.291945326455988E-1
 8.197017582500000E9    -1.778158631882190E-1    5.056505266907881E-1   -3.135949790074094E-3   -8.037629441965182E-4   -3.230860068745669E-3   -7.193656671180506E-4   -1.135596146817763E-1    4.291567969615106E-1
 8.197019863000000E9    -1.776393954922147E-1    5.057081139045844E-1   -3.124782099957953E-3   -7.879966407985472E-4   -3.257505841728448E-3   -6.764864085805735E-4   -1.134755097361059E-1    4.293727970261420E-1
 8.197022143500000E9    -1.774994275005806E-1    5.058623695778240E-1   -3.160037458686371E-3   -7.935023728805701E-4   -3.230329537914972E-3   -6.484375295164895E-4   -1.132865905895483E-1    4.292120808511253E-1
 8.197024424000000E9    -1.772603323499410E-1    5.058303988308017E-1   -3.160974433808604E-3   -8.031486564056362E-4   -3.257953611583113E-3   -6.766442384062473E-4   -1.133001594189138E-1    4.290815763169497E-1
 8.197026704500000E9    -1.770284636460108E-1    5.058951299848020E-1   -3.160862910903487E-3   -8.042472885914298E-4   -3.245608313007989E-3   -6.613278378867919E-4   -1.130698274165476E-1    4.294075308431972E-1
 8.197028985000000E9    -1.768235545759848E-1    5.059420261120525E-1   -3.177254997694586E-3   -7.708221368114867E-4   -3.264972382574715E-3   -6.851432155827865E-4   -1.129165877802619E-1    4.294331847907212E-1
 8.197031265500000E9    -1.766903731431827E-1    5.060176460546575E-1   -3.199331933478250E-3   -7.863178459544603E-4   -3.269745968174538E-3   -6.599789398581747E-4   -1.127608025600036E-1    4.294388239860003E-1
 8.197033546000000E9    -1.764382492849108E-1    5.060904525307877E-1   -3.174303348462885E-3   -7.929679925048155E-4   -3.252102654995426E-3   -6.996009456597729E-4   -1.127134065823736E-1    4.293134906100667E-1
 8.197035826500000E9    -1.763471755135022E-1    5.060348493640592E-1   -3.177635349853691E-3   -7.777129378821751E-4   -3.299653151563900E-3   -6.450186225048467E-4   -1.125559243476755E-1    4.294403070541752E-1
 8.197038107000000E9    -1.761095359120948E-1    5.061159250166428E-1   -3.210342970115397E-3   -7.828661334956910E-4   -3.303761615335857E-3   -6.727574736598699E-4   -1.126135548404064E-1    4.294465860521323E-1
 8.197040387500000E9    -1.760618117855801E-1    5.063081017699499E-1   -3.179424609028193E-3   -7.974729487115490E-4   -3.325904844886793E-3   -6.860944148189008E-4   -1.121862436620711E-1    4.296325168185411E-1
 8.197042668000000E9    -1.757359097589608E-1    5.061966077372431E-1   -3.187394913407780E-3   -7.775545488974000E-4   -3.292446697229657E-3   -6.631051105168020E-4   -1.121237287014465E-1    4.294685598366326E-1
 8.197044948500000E9    -1.755412834003846E-1    5.064624397239842E-1   -3.213370542164669E-3   -7.708000128411438E-4   -3.275356771143034E-3   -6.681989009261467E-4   -1.121119953770198E-1    4.295934591175645E-1
 8.197047229000000E9    -1.754292117160221E-1    5.063990930340916E-1   -3.186060430444386E-3   -7.866811829461002E-4   -3.307193488042958E-3   -6.833700014321956E-4   -1.120918269277481E-1    4.296552106727160E-1
 8.197049509500000E9    -1.753423271385469E-1    5.064724973951003E-1   -3.218975139098284E-3   -7.741438375997240E-4   -3.306108588983560E-3   -6.523071920598570E-4   -1.119308913254962E-1    4.294690755415736E-1
 8.197051790000000E9    -1.749558180522102E-1    5.064523189879415E-1   -3.235807799844607E-3   -8.144287153224399E-4   -3.296429753586410E-3   -6.338448919848563E-4   -1.116692157390810E-1    4.296713048586682E-1
 8.197054070500000E9    -1.749312386475023E-1    5.065809547884392E-1   -3.180777559476068E-3   -7.750165671681488E-4   -3.308078915481182E-3   -6.514649882352639E-4   -1.115077933224675E-1    4.297045860056027E-1
 8.197056351000000E9    -1.747244308403533E-1    5.065543369309228E-1   -3.234491530563532E-3   -7.883192328996491E-4   -3.299884152471010E-3   -6.708289120283326E-4   -1.114685069432094E-1    4.297362159040495E-1
 8.197058631500000E9    -1.745124518960318E-1    5.066528629339693E-1   -3.221588696495356E-3   -7.612832886077607E-4   -3.334909640360882E-3   -6.667648679580702E-4   -1.113245654641543E-1    4.296783985607007E-1
 8.197060912000000E9    -1.744605075796127E-1    5.066565783494552E-1   -3.226407178249352E-3   -7.811654454135706E-4   -3.364348448577337E-3   -6.878720767080414E-4   -1.113274959899456E-1    4.297684297259747E-1
 8.197063192500000E9    -1.740920178906209E-1    5.067467551189698E-1   -3.239281537380907E-3   -7.963371117919438E-4   -3.323570893005973E-3   -6.796836520955999E-4   -1.111228777548269E-1    4.297293588491127E-1
 8.197065473000000E9    -1.739984881718989E-1    5.068589350242506E-1   -3.250696846861505E-3   -7.757261719619665E-4   -3.323684209350966E-3   -6.607122687452846E-4   -1.108697129218632E-1    4.298884876707065E-1
 8.197067753500000E9    -1.738169592577805E-1    5.069043138713235E-1   -3.247461697152256E-3   -7.733035136907602E-4   -3.324929562586008E-3   -6.741078993553612E-4   -1.108522010432086E-1    4.298604004392956E-1
 8.197070034000000E9    -1.736618192926827E-1    5.069229484899686E-1   -3.243286996673331E-3   -7.708380054901932E-4   -3.324946945762076E-3   -6.677885565996188E-4   -1.106444459331836E-1    4.297647455671235E-1
 8.197072314500000E9    -1.734236115899018E-1    5.068674716136520E-1   -3.218536436865350E-3   -7.747054639575529E-4   -3.328936137754708E-3   -6.443806029104196E-4   -1.104743015302013E-1    4.298242476748588E-1
 8.197074595000000E9    -1.733082637841167E-1    5.069322925151717E-1   -3.247720809759527E-3   -7.648399172550925E-4   -3.347457170943692E-3   -6.577486773001784E-4   -1.104934396454668E-1    4.298130021571523E-1
 8.197076875500000E9    -1.729882335647454E-1    5.070082048256387E-1   -3.291639374541522E-3   -7.900020946748659E-4   -3.335953853800821E-3   -6.511076920204039E-4   -1.100946879917450E-1    4.299131240234789E-1
 8.197079156000000E9    -1.729016546660188E-1    5.071017381514351E-1   -3.239322324358597E-3   -7.881668962417140E-4   -3.383613995441126E-3   -6.813859796806911E-4   -1.102295385731057E-1    4.299863716429422E-1
 8.197081436500000E9    -1.727473900279824E-1    5.071408374816669E-1   -3.284498473049003E-3   -7.744148148728389E-4   -3.377794686308090E-3   -6.377802291381137E-4   -1.100785235692760E-1    4.301443989870498E-1
 8.197083717000000E9    -1.725756626709264E-1    5.071309222771170E-1   -3.260851576642140E-3   -7.838311750203536E-4   -3.371630774642634E-3   -6.857775188630572E-4   -1.099488683696955E-1    4.301503216243234E-1
 8.197085997500000E9    -1.724096356638672E-1    5.072614104786544E-1   -3.256207065171275E-3   -7.633298631487731E-4   -3.387936359377417E-3   -6.778208440968939E-4   -1.097501346412379E-1    4.300418234045340E-1
 8.197088278000000E9    -1.722202785402243E-1    5.072535255152346E-1   -3.321952207377111E-3   -7.614852691215628E-4   -3.365088424554516E-3   -6.469638242398828E-4   -1.098214266656023E-1    4.301453391404066E-1
 8.197090558500000E9    -1.720189140256937E-1    5.073920441424415E-1   -3.301130284432481E-3   -7.360498683719960E-4   -3.354466576344638E-3   -6.427789798817402E-4   -1.095988176858605E-1    4.301057385794737E-1
 8.197092839000000E9    -1.719563844508432E-1    5.074498932964643E-1   -3.275606273620288E-3   -7.613487093435801E-4   -3.367294567284954E-3   -6.673874035117859E-4   -1.094321707462539E-1    4.301302293995778E-1
 8.197095119500000E9    -1.714936576979006E-1    5.075530145716369E-1   -3.324994461859871E-3   -7.771054535806085E-4   -3.390871757467279E-3   -6.635849755457087E-4   -1.092760237650054E-1    4.302564523509050E-1
 8.197097400000000E9    -1.714738438642761E-1    5.074040453423698E-1   -3.308098149769955E-3   -7.729025419434104E-4   -3.386118241784404E-3   -6.646552246535193E-4   -1.091740773519012E-1    4.302116053724597E-1
 8.197099680500000E9    -1.712519296115646E-1    5.075347714761579E-1   -3.314358227356953E-3   -7.723797246744548E-4   -3.394313735917986E-3   -6.458766613603995E-4   -1.090665697918427E-1    4.302180319109509E-1
 8.197101961000000E9    -1.710568187877526E-1    5.077152842224213E-1   -3.321457103004910E-3   -7.655262024255805E-4   -3.432607564146229E-3   -6.461495689557344E-4   -1.089365339286411E-1    4.302532112267428E-1
 8.197104241500000E9    -1.708436732143901E-1    5.076636634991522E-1   -3.315991535908641E-3   -7.641916343477123E-4   -3.427307446089550E-3   -6.649600778813379E-4   -1.088502575748192E-1    4.301847175758005E-1
 8.197106522000000E9    -1.707143078131708E-1    5.078363622722210E-1   -3.319166130977256E-3   -7.767028324187158E-4   -3.436636817194755E-3   -6.501136881326599E-4   -1.086321765468628E-1    4.303700323483472E-1
 8.197108802500000E9    -1.705668046571772E-1    5.077643953533412E-1   -3.341718012874371E-3   -7.780425200402311E-4   -3.428070865061639E-3   -6.436052039787718E-4   -1.085714869711826E-1    4.303151251444413E-1
 8.197111083000000E9    -1.704473765289633E-1    5.079757313523878E-1   -3.338451278259753E-3   -7.698896140482990E-4   -3.458019670917466E-3   -6.436252035934005E-4   -1.084251942102031E-1    4.303976770005922E-1
 8.197113363500000E9    -1.701637387004433E-1    5.079363144427800E-1   -3.354686227090248E-3   -7.767596987578789E-4   -3.475557869875839E-3   -6.521898763748333E-4   -1.083742520912401E-1    4.305195075920574E-1
 8.197115644000000E9    -1.699472272954123E-1    5.079988191805568E-1   -3.327360479549508E-3   -7.867577517405626E-4   -3.445476789138330E-3   -6.566336601410349E-4   -1.080718608511797E-1    4.305014441270683E-1
 8.197117924500000E9    -1.697207656393208E-1    5.080040510409631E-1   -3.365967730805683E-3   -7.643727155074145E-4   -3.485212486391243E-3   -6.532892406891968E-4   -1.081536213759019E-1    4.304305784603938E-1
 8.197120205000000E9    -1.696421956850597E-1    5.079767174870007E-1   -3.359894954768436E-3   -7.609283507231087E-4   -3.475310503614434E-3   -6.481771566886768E-4   -1.079100133482900E-1    4.306501823675277E-1
 8.197122485500000E9    -1.693533010340403E-1    5.079822154391891E-1   -3.350076773827954E-3   -7.537303185955916E-4   -3.446629971820651E-3   -6.006226294623914E-4   -1.077020852165895E-1    4.303469445542343E-1
 8.197124766000000E9    -1.691314129277087E-1    5.081553193792226E-1   -3.374259515123436E-3   -7.628548417591655E-4   -3.447397013492818E-3   -6.548126822246818E-4   -1.077566143991717E-1    4.304896684605031E-1
 8.197127046500000E9    -1.689734043337027E-1    5.081505566514967E-1   -3.383428889773442E-3   -7.757854807774212E-4   -3.472432383628168E-3   -6.263700083960478E-4   -1.075994324012235E-1    4.305206020516198E-1
 8.197129327000000E9    -1.687925528729043E-1    5.083389989556797E-1   -3.386039303369162E-3   -7.403696267303943E-4   -3.497011513850462E-3   -6.137878875475080E-4   -1.073736441008577E-1    4.306414963932454E-1
 8.197131607500000E9    -1.686009908541984E-1    5.082749910557438E-1   -3.392215221730169E-3   -7.647504478134608E-4   -3.513261536736240E-3   -6.575006642941406E-4   -1.073411997212021E-1    4.306389587375035E-1
 8.197133888000000E9    -1.684262220500713E-1    5.082892359535925E-1   -3.391877696268944E-3   -7.332048282426721E-4   -3.474966949479277E-3   -6.423153089016706E-4   -1.071598359729599E-1    4.306224510652050E-1
 8.197136168500000E9    -1.682611453985842E-1    5.085131529675754E-1   -3.417947354872519E-3   -7.484469044599671E-4   -3.517740312597196E-3   -5.925965264450237E-4   -1.068903492636851E-1    4.305646756787010E-1
 8.197138449000000E9    -1.679605559840941E-1    5.086221870640002E-1   -3.430705183480170E-3   -7.462835573045744E-4   -3.520206294667437E-3   -6.441625390952709E-4   -1.069883932750346E-1    4.306354907781575E-1
 8.197140729500000E9    -1.678057435882524E-1    5.086532156913459E-1   -3.446423517885505E-3   -7.823339421855532E-4   -3.537631940808038E-3   -6.377211739152875E-4   -1.068000168924017E-1    4.307455142570087E-1
 8.197143010000000E9    -1.676027738251643E-1    5.086328072397265E-1   -3.409752590515261E-3   -7.308210643181266E-4   -3.509260106884420E-3   -6.033053591657548E-4   -1.068325797085462E-1    4.307432768330821E-1
 8.197145290500000E9    -1.675509494761790E-1    5.085613175979897E-1   -3.435009329831084E-3   -7.341955070651841E-4   -3.536665207197248E-3   -6.344173020014138E-4   -1.064881823507906E-1    4.307210400809632E-1
 8.197147571000000E9    -1.672937956492773E-1    5.087921335622319E-1   -3.444764095941679E-3   -7.639787425836953E-4   -3.549285731000798E-3   -6.124393305739756E-4   -1.063263794098779E-1    4.308229826709116E-1
 8.197149851500000E9    -1.669760399846188E-1    5.088036957659640E-1   -3.463658141940265E-3   -7.589620425015941E-4   -3.536356474726516E-3   -6.431597844072900E-4   -1.063734329429026E-1    4.308438886281699E-1
 8.197152132000000E9    -1.668624217144896E-1    5.087730490254398E-1   -3.462583641005775E-3   -7.638432386728497E-4   -3.569531790449621E-3   -6.326977570811363E-4   -1.062524720471632E-1    4.308650715525053E-1
 8.197154412500000E9    -1.666951744456685E-1    5.088581474015066E-1   -3.464920144611647E-3   -7.443906721369146E-4   -3.571600044773685E-3   -6.419855675075883E-4   -1.059497055083329E-1    4.309199820213347E-1
 8.197156693000000E9    -1.666277434613277E-1    5.088694446497911E-1   -3.470955261287426E-3   -7.662369149595249E-4   -3.582388771533813E-3   -6.120158028279652E-4   -1.058636496324694E-1    4.309443026956333E-1
 8.197158973500000E9    -1.662113161317123E-1    5.089581289471847E-1   -3.478743827664613E-3   -7.386743106396136E-4   -3.567896477136488E-3   -6.450680410235880E-4   -1.058049340839622E-1    4.308027785516604E-1
 8.197161254000000E9    -1.660751654318918E-1    5.089538847533784E-1   -3.468899416029755E-3   -7.353953785283223E-4   -3.576762915389669E-3   -6.197549224669390E-4   -1.056035765764338E-1    4.309496489732462E-1
 8.197163534500000E9    -1.660038158147210E-1    5.090106976462808E-1   -3.507885238299208E-3   -7.810692254675295E-4   -3.600703066043344E-3   -6.162894199819855E-4   -1.054811675034358E-1    4.309440040099713E-1
 8.197165815000000E9    -1.657276923017720E-1    5.090722602966428E-1   -3.518675223136702E-3   -7.610643628194649E-4   -3.585120594272792E-3   -6.296362363099524E-4   -1.052696837998071E-1    4.310173211399343E-1
 8.197168095500000E9    -1.654563892173951E-1    5.090725284625041E-1   -3.524624878566889E-3   -7.509985054412882E-4   -3.608350363161798E-3   -6.317822787570063E-4   -1.053426189041097E-1    4.310394258795310E-1
 8.197170376000000E9    -1.653076800444934E-1    5.092176195908029E-1   -3.528475988178059E-3   -7.508361264756879E-4   -3.599734518010135E-3   -5.991544583530132E-4   -1.051640728064100E-1    4.309604418797993E-1
 8.197172656500000E9    -1.650553906857145E-1    5.092920462272075E-1   -3.532290473337156E-3   -7.537672459412241E-4   -3.657809454301245E-3   -6.046567436670593E-4   -1.049126421061603E-1    4.309688635544819E-1
 8.197174937000000E9    -1.649319054948769E-1    5.092241477562613E-1   -3.520741129451895E-3   -7.536714375296541E-4   -3.656448450147636E-3   -6.222951287643386E-4   -1.049057486816732E-1    4.311810259691012E-1
 8.197177217500000E9    -1.647097728294878E-1    5.094472190098643E-1   -3.571287454089701E-3   -7.540965689985206E-4   -3.677809713245667E-3   -5.950560059308753E-4   -1.046370483905716E-1    4.311444509246653E-1
 8.197179498000000E9    -1.644040058690356E-1    5.094508915950641E-1   -3.563703521204123E-3   -7.424202584323233E-4   -3.633138126731239E-3   -5.727502471351975E-4   -1.046537761445852E-1    4.312088079800312E-1
 8.197181778500000E9    -1.643412029951393E-1    5.094215486745585E-1   -3.575281725749680E-3   -7.515242017488081E-4   -3.686842041245185E-3   -6.016511398286019E-4   -1.045596635186252E-1    4.312154172237545E-1
 8.197184059000000E9    -1.640563978770044E-1    5.094432639269344E-1   -3.584273567763884E-3   -7.366195470273315E-4   -3.654586113122944E-3   -5.997910384284803E-4   -1.043001150850421E-1    4.312347193169969E-1
 8.197186339500000E9    -1.638384988929608E-1    5.095763012870890E-1   -3.548539915417735E-3   -7.352053233379607E-4   -3.687913841680809E-3   -6.214942268960452E-4   -1.041478287363103E-1    4.312212207966827E-1
 8.197188620000000E9    -1.636284914678752E-1    5.095443055564225E-1   -3.592814701686293E-3   -7.119868098044534E-4   -3.659929363820286E-3   -5.991040266237113E-4   -1.042629766307996E-1    4.313461750621940E-1
 8.197190900500000E9    -1.634979922133958E-1    5.095753486148298E-1   -3.605144973159230E-3   -7.430681450081982E-4   -3.735653851915495E-3   -6.269917312335202E-4   -1.040711594894233E-1    4.312620662061618E-1
 8.197193181000000E9    -1.632937743970202E-1    5.096458915493745E-1   -3.588958563044947E-3   -7.236711530314552E-4   -3.692732507065089E-3   -6.083852671434521E-4   -1.039238239715488E-1    4.312757425512731E-1
