#  HZ   S   RI   R     50.00 
! Rohde & Schwarz Vector Network Analyzer 
! Rohde-Schwarz,ZNB20-2Port,1311601062101988,3.16
! Created: UTC 3/20/2024, 5:12:42 PM
! freq[Hz]                re:S11                  im:S11                  re:S21                  im:S21                  re:S12                  im:S12                  re:S22                  im:S22
 8.195729902000000E9    -2.647647151362662E-1    4.674479487199790E-1   -2.435061821001587E-3   -1.133239772743846E-3   -2.530923464555386E-3   -1.086547099308570E-3   -1.863105567902329E-1    4.078885228859261E-1
 8.195737973250000E9    -2.640181958997348E-1    4.677994241597742E-1   -2.469415219764149E-3   -1.114114449535837E-3   -2.530630839370115E-3   -1.081763107562768E-3   -1.860079716684593E-1    4.081911046444621E-1
 8.195746044500000E9    -2.635437122629076E-1    4.680359592512003E-1   -2.451669488002104E-3   -1.136705855538083E-3   -2.533608717730233E-3   -1.039213737184487E-3   -1.853565503196064E-1    4.082945897294805E-1
 8.195754115750000E9    -2.630355511884574E-1    4.684303315264529E-1   -2.456274842443341E-3   -1.144926083377366E-3   -2.535174632566005E-3   -1.059681458990663E-3   -1.849691916447646E-1    4.084262191343570E-1
 8.195762187000000E9    -2.626254024948209E-1    4.686683580803908E-1   -2.477876476328593E-3   -1.127972215561291E-3   -2.542905248286531E-3   -1.055587020303540E-3   -1.846868049994007E-1    4.085794235845081E-1
 8.195770258250000E9    -2.620146608284037E-1    4.688674320044638E-1   -2.445869386665838E-3   -1.095468932415704E-3   -2.523079806805419E-3   -1.063382655759728E-3   -1.842555198761927E-1    4.087931895719626E-1
 8.195778329500000E9    -2.615895130469769E-1    4.691882537266754E-1   -2.456895436549162E-3   -1.127720230843927E-3   -2.561714121714331E-3   -1.059566704971174E-3   -1.838139173024654E-1    4.089755018877398E-1
 8.195786400750000E9    -2.611395079819455E-1    4.694822996996029E-1   -2.446486700043537E-3   -1.118659981467221E-3   -2.563508498218679E-3   -1.052532557930180E-3   -1.833966512186119E-1    4.091703099794469E-1
 8.195794472000000E9    -2.605110787264865E-1    4.698092547691651E-1   -2.469985732580694E-3   -1.082204554620586E-3   -2.541004851106308E-3   -1.045154779522772E-3   -1.831119105816289E-1    4.092718104047239E-1
 8.195802543250000E9    -2.598931448691112E-1    4.700461423765608E-1   -2.480109314216195E-3   -1.123868723006904E-3   -2.594283695553657E-3   -1.082105738555863E-3   -1.825745693488833E-1    4.094504727423374E-1
 8.195810614500000E9    -2.595796207403236E-1    4.703217675893242E-1   -2.455106839248937E-3   -1.101815570304313E-3   -2.541478166732056E-3   -1.020205812981219E-3   -1.820579523884905E-1    4.096713104660765E-1
 8.195818685750000E9    -2.589429260810150E-1    4.705813563805251E-1   -2.455246684223302E-3   -1.106184589369471E-3   -2.585349662586041E-3   -1.068899150049000E-3   -1.817172069386791E-1    4.097686618153536E-1
 8.195826757000000E9    -2.584671274402225E-1    4.707812500413634E-1   -2.449079603434426E-3   -1.097021750451448E-3   -2.578444484720452E-3   -1.052505508922835E-3   -1.814180335627780E-1    4.100343765680107E-1
 8.195834828250000E9    -2.580220644569644E-1    4.710411405545801E-1   -2.485997897531277E-3   -1.105642891282805E-3   -2.578282464760261E-3   -1.036050951412173E-3   -1.809835848409220E-1    4.102886016809604E-1
 8.195842899500000E9    -2.575579271316332E-1    4.713255229685421E-1   -2.464453745612467E-3   -1.122763090207802E-3   -2.583928705773713E-3   -1.059692189822948E-3   -1.806079962307752E-1    4.101657738216972E-1
 8.195850970750000E9    -2.569460579128438E-1    4.717250129679372E-1   -2.480030445690386E-3   -1.112034359243132E-3   -2.574233000839655E-3   -1.044714694287506E-3   -1.802539141498566E-1    4.105169653453736E-1
 8.195859042000000E9    -2.564390468923540E-1    4.719773504103734E-1   -2.455696086234482E-3   -1.128083893042934E-3   -2.569792689882125E-3   -1.028615707321787E-3   -1.798220539097171E-1    4.105901546123403E-1
 8.195867113250000E9    -2.559556445725891E-1    4.721709486086404E-1   -2.443723838831411E-3   -1.113577962417602E-3   -2.592742893275971E-3   -1.052847655111632E-3   -1.792063221998677E-1    4.108602737614362E-1
 8.195875184500000E9    -2.554396337725016E-1    4.725148347284684E-1   -2.451060570042729E-3   -1.119541821498579E-3   -2.543097377927542E-3   -1.012753947740384E-3   -1.788226076528965E-1    4.110809940862563E-1
 8.195883255750000E9    -2.549894188182124E-1    4.727034826036448E-1   -2.520112156510749E-3   -1.103641795846510E-3   -2.576216452897049E-3   -1.049103512894328E-3   -1.783380738438809E-1    4.111462764306709E-1
 8.195891327000000E9    -2.543865409612558E-1    4.730161350505490E-1   -2.485804997844298E-3   -1.073363604516802E-3   -2.578955490944400E-3   -1.012655113080326E-3   -1.779385260022534E-1    4.114160894368927E-1
 8.195899398250000E9    -2.539165269523602E-1    4.731756837427388E-1   -2.492104953458188E-3   -1.069388586018861E-3   -2.568374073225965E-3   -1.040408867985573E-3   -1.776788990994874E-1    4.115586917778826E-1
 8.195907469500000E9    -2.534310616950260E-1    4.735330752716308E-1   -2.517971791285189E-3   -1.093752177089027E-3   -2.573381356378587E-3   -9.999871848742649E-4   -1.771579054742421E-1    4.116725531054004E-1
 8.195915540750000E9    -2.529362501506138E-1    4.739250285131515E-1   -2.505936762760293E-3   -1.086059169341133E-3   -2.591207645985868E-3   -1.001208765919512E-3   -1.767782809781983E-1    4.118599860861208E-1
 8.195923612000000E9    -2.522864714301165E-1    4.741598574409571E-1   -2.505509952368709E-3   -1.064241115502716E-3   -2.592979128474193E-3   -1.021048878428478E-3   -1.762766937341666E-1    4.120763285964772E-1
 8.195931683250000E9    -2.519331634358519E-1    4.743896327250372E-1   -2.494287304355417E-3   -1.093925667755393E-3   -2.597027363324562E-3   -1.009495303106845E-3   -1.759215504722527E-1    4.121721283391492E-1
 8.195939754500000E9    -2.513904244085895E-1    4.746604595696166E-1   -2.520480790845739E-3   -1.065087128803068E-3   -2.596422925870738E-3   -9.996261923063637E-4   -1.756078506313221E-1    4.124944104894802E-1
 8.195947825750000E9    -2.508837502917456E-1    4.747905443220410E-1   -2.475621737618656E-3   -1.069557256507707E-3   -2.605682220027587E-3   -1.016689477240937E-3   -1.750127732940071E-1    4.125992453652080E-1
 8.195955897000000E9    -2.503518043334919E-1    4.750364851490976E-1   -2.498017464763526E-3   -1.066430830055142E-3   -2.581952285397492E-3   -1.032328143028267E-3   -1.746159257747973E-1    4.127483781537355E-1
 8.195963968250000E9    -2.497512832432995E-1    4.754735934962606E-1   -2.508560091871249E-3   -1.089103207769215E-3   -2.621554095171356E-3   -1.015889213388162E-3   -1.741296634819709E-1    4.128237490018881E-1
 8.195972039500000E9    -2.492656944623783E-1    4.756184210673438E-1   -2.508242112215213E-3   -1.062120546584703E-3   -2.618635671361830E-3   -9.945829401310224E-4   -1.738292333862521E-1    4.130739084206237E-1
 8.195980110750000E9    -2.487902075727619E-1    4.758569889594573E-1   -2.521797366457551E-3   -1.065390154075850E-3   -2.604204823657261E-3   -9.907220991388543E-4   -1.733329243222876E-1    4.131507795608304E-1
 8.195988182000000E9    -2.483612668744989E-1    4.761174004144246E-1   -2.504142408784251E-3   -1.050594663312946E-3   -2.632781527081808E-3   -9.785616524063305E-4   -1.728682343435153E-1    4.133564341258760E-1
 8.195996253250000E9    -2.477173845093462E-1    4.763972609111913E-1   -2.508922235496083E-3   -1.054991065250458E-3   -2.601108159661325E-3   -9.411712858327721E-4   -1.726147239142613E-1    4.134407305477167E-1
 8.196004324500000E9    -2.473012158434101E-1    4.767624677027276E-1   -2.512822899035468E-3   -1.072965129894573E-3   -2.658847707131379E-3   -1.010458401031128E-3   -1.721087642227621E-1    4.136692060122912E-1
 8.196012395750000E9    -2.467438795042743E-1    4.769370941765115E-1   -2.511366610158785E-3   -1.066147577591530E-3   -2.631962503655031E-3   -1.015739000951113E-3   -1.716703790159575E-1    4.136968386004774E-1
 8.196020467000000E9    -2.463385912815481E-1    4.772011917803985E-1   -2.536969922209729E-3   -1.058135176075742E-3   -2.615201773277963E-3   -9.840679307183357E-4   -1.713486218963843E-1    4.140437265632733E-1
 8.196028538250000E9    -2.456844819335460E-1    4.774212422062065E-1   -2.548125905826043E-3   -1.062609487882231E-3   -2.640014161595434E-3   -1.007291025132666E-3   -1.707899881285727E-1    4.142390098593781E-1
 8.196036609500000E9    -2.452472663944313E-1    4.777049011700490E-1   -2.573618637086451E-3   -1.048327547704820E-3   -2.634714826145531E-3   -1.032725655807544E-3   -1.704785800966680E-1    4.142637326722427E-1
 8.196044680750000E9    -2.447254623712656E-1    4.780143999579737E-1   -2.537373530431938E-3   -1.081312797202040E-3   -2.637240293426100E-3   -9.582842568589989E-4   -1.698854921459273E-1    4.144757015156911E-1
 8.196052752000000E9    -2.442372848440816E-1    4.781966172694184E-1   -2.529679555540378E-3   -1.048143679074151E-3   -2.641723993248551E-3   -9.876409774252602E-4   -1.695551749733895E-1    4.145298749149661E-1
 8.196060823250000E9    -2.436771796109378E-1    4.785360654070349E-1   -2.565506424453083E-3   -1.051644450574550E-3   -2.619848797676064E-3   -9.754844752793075E-4   -1.691108861579297E-1    4.147707733534603E-1
 8.196068894500000E9    -2.431622726512857E-1    4.787139282152408E-1   -2.548669783196728E-3   -1.040345639489699E-3   -2.628569563698384E-3   -9.507186352519028E-4   -1.687175123061332E-1    4.149810287401035E-1
 8.196076965750000E9    -2.426353087847161E-1    4.789765547662776E-1   -2.524951156108869E-3   -1.037037927715069E-3   -2.634091960166700E-3   -9.400085477126539E-4   -1.683772773261963E-1    4.152387356755795E-1
 8.196085037000000E9    -2.420339101628314E-1    4.792384542377409E-1   -2.573847262323568E-3   -1.036179078914234E-3   -2.650801960159280E-3   -9.732831595224353E-4   -1.678569953667644E-1    4.153594956490989E-1
 8.196093108250000E9    -2.415683625957278E-1    4.795049634001657E-1   -2.538875652303123E-3   -1.048425064493275E-3   -2.629343646718502E-3   -9.615420997014573E-4   -1.673794704900653E-1    4.153839755871105E-1
 8.196101179500000E9    -2.410143856855224E-1    4.797718575041555E-1   -2.553477311853598E-3   -1.040299299858580E-3   -2.632604564706235E-3   -9.836666303085207E-4   -1.669722889344070E-1    4.155233924086976E-1
 8.196109250750000E9    -2.405896600414597E-1    4.799479105794138E-1   -2.561431889691155E-3   -1.038604150105619E-3   -2.640980907360731E-3   -9.518617185561999E-4   -1.664011046325682E-1    4.158371130327766E-1
 8.196117322000000E9    -2.400014992791880E-1    4.802155216742557E-1   -2.543175868729003E-3   -1.044893422839635E-3   -2.657221608050829E-3   -9.458826767352043E-4   -1.661308527362280E-1    4.159815184099064E-1
 8.196125393250000E9    -2.395118617594292E-1    4.804324064009779E-1   -2.557366840802454E-3   -1.045842055363884E-3   -2.668228877435156E-3   -9.577064531411434E-4   -1.658573364728791E-1    4.160910205489869E-1
 8.196133464500000E9    -2.389025307936684E-1    4.807144091126681E-1   -2.554406460267822E-3   -1.019670197118411E-3   -2.657573189573582E-3   -9.211844784121404E-4   -1.651286768091809E-1    4.162116518309919E-1
 8.196141535750000E9    -2.384045128735638E-1    4.810627875589911E-1   -2.564162289759965E-3   -1.007735677571355E-3   -2.670710825370323E-3   -9.650684813932129E-4   -1.648692867984821E-1    4.163490556152512E-1
 8.196149607000000E9    -2.378475579835362E-1    4.812325770011172E-1   -2.573645223374540E-3   -1.024860217332599E-3   -2.671727448633491E-3   -9.662932796055863E-4   -1.643343319595677E-1    4.164138353231751E-1
 8.196157678250000E9    -2.374270888372669E-1    4.814964955486143E-1   -2.602568393656810E-3   -1.004141584474876E-3   -2.701477253923161E-3   -9.321197037142030E-4   -1.640443667618740E-1    4.167372814942048E-1
 8.196165749500000E9    -2.368024511611663E-1    4.816709585932331E-1   -2.585801296802949E-3   -9.988259807375539E-4   -2.640065633441967E-3   -9.135441235788569E-4   -1.635103372068493E-1    4.169015131070831E-1
 8.196173820750000E9    -2.362530485217260E-1    4.820228812081769E-1   -2.591238987652868E-3   -1.013572561020163E-3   -2.651099377338736E-3   -9.417263518081208E-4   -1.632462368751572E-1    4.169970836170369E-1
 8.196181892000000E9    -2.357492371050524E-1    4.821289777598901E-1   -2.570752756658645E-3   -1.002200107555844E-3   -2.673403044895292E-3   -9.654208258573477E-4   -1.625751884483428E-1    4.171418221100705E-1
 8.196189963250000E9    -2.352996686577594E-1    4.824100828597612E-1   -2.608328361396406E-3   -1.003433938697499E-3   -2.639089609667895E-3   -9.324707416420845E-4   -1.622401922995331E-1    4.172751437114459E-1
 8.196198034500000E9    -2.347252120591435E-1    4.826301155655640E-1   -2.568729507742109E-3   -9.900679473668463E-4   -2.694276630402363E-3   -8.991692634840217E-4   -1.618636899292394E-1    4.173642852761972E-1
 8.196206105750000E9    -2.343025666172783E-1    4.829623883874017E-1   -2.574526568881195E-3   -1.013053310342365E-3   -2.679901614359083E-3   -9.416214342549187E-4   -1.614164003660458E-1    4.175773188559949E-1
 8.196214177000000E9    -2.337795716873697E-1    4.831815479846213E-1   -2.591112860627195E-3   -1.001284806035725E-3   -2.696325544798221E-3   -9.279523474204600E-4   -1.610543484622431E-1    4.176748995554478E-1
 8.196222248250000E9    -2.331187851279331E-1    4.835246518893726E-1   -2.582119176124123E-3   -1.001731704800456E-3   -2.687969584281161E-3   -9.057572417151621E-4   -1.606197550852954E-1    4.177794371307522E-1
 8.196230319500000E9    -2.326896599437272E-1    4.838067576486444E-1   -2.584770166891266E-3   -9.884455245420902E-4   -2.697254761316653E-3   -9.125595233135678E-4   -1.600724584386098E-1    4.180572853575647E-1
 8.196238390750000E9    -2.322682354482371E-1    4.839207020883389E-1   -2.594113089480679E-3   -9.999626120188818E-4   -2.709306450249020E-3   -9.034870080098750E-4   -1.595686642377367E-1    4.183912729757700E-1
 8.196246462000000E9    -2.315750673398409E-1    4.841682665263460E-1   -2.613847038913662E-3   -9.894346885109102E-4   -2.682253056807676E-3   -9.218254268780782E-4   -1.591818001637067E-1    4.183748497130246E-1
 8.196254533250000E9    -2.311832617558428E-1    4.843755536214037E-1   -2.620526143072829E-3   -9.924255120185991E-4   -2.716445669008100E-3   -9.251144375519867E-4   -1.587753714223016E-1    4.183994289793342E-1
 8.196262604500000E9    -2.305912288706576E-1    4.846182590322209E-1   -2.602767497837183E-3   -9.755543939702389E-4   -2.711448317127706E-3   -9.201059487820413E-4   -1.583814143597908E-1    4.188090957606722E-1
 8.196270675750000E9    -2.300485139671833E-1    4.849177944406015E-1   -2.610811115548934E-3   -9.961279832721070E-4   -2.711676666602971E-3   -9.399339245692383E-4   -1.578299155284194E-1    4.188310403454900E-1
 8.196278747000000E9    -2.295356522422998E-1    4.852611912557074E-1   -2.607688896327229E-3   -9.757109596796540E-4   -2.702797136292240E-3   -9.240466829216606E-4   -1.575587715852025E-1    4.190614127543240E-1
 8.196286818250000E9    -2.290497272828823E-1    4.853223476960793E-1   -2.639688785464454E-3   -9.788444444407945E-4   -2.741052797179128E-3   -9.080741282188884E-4   -1.571254171719179E-1    4.190945385442599E-1
 8.196294889500000E9    -2.284493019064381E-1    4.855703162231969E-1   -2.625822872291597E-3   -1.011814971384639E-3   -2.720210702436319E-3   -9.154521241157107E-4   -1.567037192501640E-1    4.192094008030513E-1
 8.196302960750000E9    -2.280532985576775E-1    4.858397397238756E-1   -2.613254739056191E-3   -1.003012497391560E-3   -2.740229795540929E-3   -9.409060480011908E-4   -1.562023513283402E-1    4.193709605370562E-1
 8.196311032000000E9    -2.275173788317642E-1    4.861053961942380E-1   -2.624221458336878E-3   -9.890910197421956E-4   -2.738516439859244E-3   -9.032554817798074E-4   -1.558347170246552E-1    4.195030940212919E-1
 8.196319103250000E9    -2.268076564710798E-1    4.863094757806377E-1   -2.658300668683244E-3   -9.763857255013002E-4   -2.742618170845954E-3   -8.841164103553394E-4   -1.555625463944832E-1    4.197635630337786E-1
 8.196327174500000E9    -2.264402779370302E-1    4.865893337220890E-1   -2.644416505797255E-3   -1.002092714662063E-3   -2.709893751624479E-3   -8.827673256031462E-4   -1.549949022416355E-1    4.197275137231037E-1
 8.196335245750000E9    -2.258151798670640E-1    4.868095072502810E-1   -2.631060833028761E-3   -9.544675148381450E-4   -2.702735016556742E-3   -8.795727968567672E-4   -1.546311766256503E-1    4.199398095364619E-1
 8.196343317000000E9    -2.252364758618963E-1    4.870419155849255E-1   -2.624762739292774E-3   -9.660073319930144E-4   -2.758190888602993E-3   -8.569671272550678E-4   -1.542313339130003E-1    4.201618998356568E-1
 8.196351388250000E9    -2.248470594615607E-1    4.873754124448576E-1   -2.632408338765335E-3   -9.642565982014897E-4   -2.724579964351747E-3   -8.796889426110174E-4   -1.537516133634770E-1    4.203817539018717E-1
 8.196359459500000E9    -2.243664276644282E-1    4.876608724816792E-1   -2.635488966508415E-3   -9.513790684062226E-4   -2.729065240783981E-3   -8.606631987317978E-4   -1.533680415489456E-1    4.204882176777747E-1
 8.196367530750000E9    -2.237722924261576E-1    4.877292315138613E-1   -2.645205189139915E-3   -9.825037829581569E-4   -2.715289105270110E-3   -8.821521655696712E-4   -1.529973539717137E-1    4.205763560391774E-1
 8.196375602000000E9    -2.232647155453045E-1    4.879475597195964E-1   -2.658193335994022E-3   -9.796455904626999E-4   -2.719059598701419E-3   -9.032041276106850E-4   -1.522593865587689E-1    4.207504958832475E-1
 8.196383673250000E9    -2.227159202997644E-1    4.882303064464478E-1   -2.643648631077222E-3   -9.624144375145294E-4   -2.745487075123078E-3   -8.517098777942014E-4   -1.518417284224423E-1    4.208572231002472E-1
 8.196391744500000E9    -2.220662199855099E-1    4.884900769489970E-1   -2.647094996627892E-3   -9.302082286577446E-4   -2.744109697766980E-3   -8.635991715068490E-4   -1.514860327444674E-1    4.209641570738191E-1
 8.196399815750000E9    -2.216218986073223E-1    4.886833511760613E-1   -2.654385327921305E-3   -9.366378226026925E-4   -2.719237673568366E-3   -8.951514487798778E-4   -1.510384996390489E-1    4.212791314117129E-1
 8.196407887000000E9    -2.210634407715464E-1    4.889079066213037E-1   -2.664941015304652E-3   -9.496164018719944E-4   -2.766599480218112E-3   -8.527287003702134E-4   -1.506711823104768E-1    4.212381134062377E-1
 8.196415958250000E9    -2.204673246949511E-1    4.892311555197265E-1   -2.672142273635946E-3   -9.666013696074290E-4   -2.776907505563316E-3   -8.532858575509747E-4   -1.502008968070007E-1    4.214408819425021E-1
 8.196424029500000E9    -2.199514302964622E-1    4.893927542309224E-1   -2.647000912893466E-3   -9.250591492374356E-4   -2.762367739965119E-3   -8.597343746159120E-4   -1.496732403578070E-1    4.214666174215472E-1
 8.196432100750000E9    -2.195019823121214E-1    4.896030781572943E-1   -2.652566318930010E-3   -9.143948169436642E-4   -2.750842869288604E-3   -8.516416041308971E-4   -1.494653153607532E-1    4.216561520290156E-1
 8.196440172000000E9    -2.189695228305249E-1    4.898263509159252E-1   -2.663969721060096E-3   -9.255900910454627E-4   -2.755845792743126E-3   -8.386014271153986E-4   -1.489696682023714E-1    4.217158181795059E-1
 8.196448243250000E9    -2.184274495974510E-1    4.900416398896850E-1   -2.664803181165467E-3   -9.545745835191448E-4   -2.756775280889783E-3   -8.457260112551179E-4   -1.484571550311713E-1    4.219943440073460E-1
 8.196456314500000E9    -2.177749717562971E-1    4.902454734640326E-1   -2.678316044929460E-3   -9.277241675790089E-4   -2.771252970913618E-3   -8.166033976997334E-4   -1.481148276535751E-1    4.222134411724815E-1
