#  HZ   S   RI   R     50.00 
! Rohde & Schwarz Vector Network Analyzer 
! Rohde-Schwarz,ZNB20-2Port,1311601062101988,3.16
! Created: UTC 3/20/2024, 5:12:45 PM
! freq[Hz]                re:S11                  im:S11                  re:S21                  im:S21                  re:S12                  im:S12                  re:S22                  im:S22
 8.195790675000000E9    -2.608079554590498E-1    4.695936829332658E-1   -2.466060664836244E-3   -1.139103465488016E-3   -2.571682658042839E-3   -1.041367504175553E-3   -1.831491847357291E-1    4.091462822005686E-1
 8.195798485350000E9    -2.603009462998754E-1    4.698964463723496E-1   -2.428992521236796E-3   -1.109953553302892E-3   -2.558168257307601E-3   -1.073904223841256E-3   -1.827390978156853E-1    4.094038369093996E-1
 8.195806295700000E9    -2.599493679696980E-1    4.700782983676422E-1   -2.474698247085769E-3   -1.115696216412537E-3   -2.565877496635977E-3   -1.065950657334710E-3   -1.823764438404878E-1    4.096201098125813E-1
 8.195814106050000E9    -2.593481680712226E-1    4.703872468847723E-1   -2.476123500473931E-3   -1.136091538152217E-3   -2.579012075099286E-3   -1.028153705186029E-3   -1.821389135976262E-1    4.097528055632134E-1
 8.195821916400000E9    -2.587944189322131E-1    4.706600149241150E-1   -2.470567581226333E-3   -1.108072080724125E-3   -2.564745978540446E-3   -1.063828513875538E-3   -1.817124510494570E-1    4.099404047432099E-1
 8.195829726750000E9    -2.583261774019484E-1    4.708915946152316E-1   -2.474365891306477E-3   -1.106321682404651E-3   -2.536067733986547E-3   -1.039227991564008E-3   -1.812969639749248E-1    4.100388144824393E-1
 8.195837537100000E9    -2.579296033463520E-1    4.711243391350909E-1   -2.456395970333451E-3   -1.117094524207371E-3   -2.598504515111723E-3   -1.068072641576538E-3   -1.809562361709772E-1    4.102344846507317E-1
 8.195845347450000E9    -2.573465771402413E-1    4.715445747066201E-1   -2.474810209367797E-3   -1.082586341575701E-3   -2.559058285883813E-3   -1.026694936057465E-3   -1.804303870433055E-1    4.104985320011147E-1
 8.195853157800000E9    -2.568642711208445E-1    4.717242078878505E-1   -2.472535168533976E-3   -1.105850744130918E-3   -2.565530900866106E-3   -1.018182825909549E-3   -1.799497660948019E-1    4.105523753671082E-1
 8.195860968150000E9    -2.564610239922104E-1    4.718807915253699E-1   -2.489688141809469E-3   -1.103921227037583E-3   -2.549500511827696E-3   -1.031650765100393E-3   -1.796119507250987E-1    4.108838104622013E-1
 8.195868778500000E9    -2.559198829310416E-1    4.721370906707745E-1   -2.469865974761109E-3   -1.104419084248250E-3   -2.591757001076804E-3   -1.002909517788952E-3   -1.793386493624396E-1    4.110165371089470E-1
 8.195876588850000E9    -2.554126881386791E-1    4.724309397201301E-1   -2.445523840926217E-3   -1.109563770403606E-3   -2.564418286739553E-3   -1.035845293487935E-3   -1.788065970358557E-1    4.110701031918473E-1
 8.195884399200000E9    -2.547988138578283E-1    4.727474671852294E-1   -2.476370018643638E-3   -1.082190290265653E-3   -2.576417440908459E-3   -1.000877004245455E-3   -1.783674974163969E-1    4.112093672315732E-1
 8.195892209550000E9    -2.543392265854033E-1    4.730555836501899E-1   -2.491678045085109E-3   -1.115880197385949E-3   -2.581940820685840E-3   -1.034576055038209E-3   -1.779410180693206E-1    4.115231850548641E-1
 8.195900019900000E9    -2.538729738788963E-1    4.732869562010090E-1   -2.483095242593250E-3   -1.101352563185982E-3   -2.608462381383255E-3   -1.043199853927551E-3   -1.775004370292168E-1    4.116002754938686E-1
 8.195907830250000E9    -2.533706168341704E-1    4.735353072502901E-1   -2.463234822713221E-3   -1.109211412674799E-3   -2.593417785439139E-3   -1.039269702358251E-3   -1.771128151314403E-1    4.116700078051569E-1
 8.195915640600000E9    -2.529499258210455E-1    4.737888983606833E-1   -2.521443681830915E-3   -1.096399063068786E-3   -2.566904577754348E-3   -1.032102045701895E-3   -1.766854273157188E-1    4.118488693097465E-1
 8.195923450950000E9    -2.524568955353214E-1    4.740362223225021E-1   -2.504817042252072E-3   -1.075613688539620E-3   -2.598031568687177E-3   -1.014277358814201E-3   -1.763400587423677E-1    4.119798729234812E-1
 8.195931261300000E9    -2.518555627340267E-1    4.742813047628817E-1   -2.500883891179569E-3   -1.083296361645317E-3   -2.604949422356849E-3   -1.028357057563783E-3   -1.757558259624403E-1    4.123090124254118E-1
 8.195939071650000E9    -2.515379664608604E-1    4.745312766072027E-1   -2.504817435597000E-3   -1.096748231389941E-3   -2.560761983392998E-3   -9.969647303418028E-4   -1.754984644070767E-1    4.122841043530695E-1
 8.195946882000000E9    -2.510132448518852E-1    4.748284132199463E-1   -2.474779675128818E-3   -1.104165591381826E-3   -2.587823783668481E-3   -1.000516733099620E-3   -1.750319180075659E-1    4.124529197568520E-1
 8.195954692350000E9    -2.505082818873349E-1    4.751282970912476E-1   -2.495760359683889E-3   -1.088384415000034E-3   -2.612016629084508E-3   -9.927914765227230E-4   -1.745659248893086E-1    4.126309968562223E-1
 8.195962502700000E9    -2.498867247348902E-1    4.752381658410649E-1   -2.527279044414960E-3   -1.079833181768709E-3   -2.609364912978192E-3   -9.899184884597035E-4   -1.744580909669742E-1    4.128687376254329E-1
 8.195970313050000E9    -2.493992844121886E-1    4.755207097908775E-1   -2.512945995605133E-3   -1.082597844151492E-3   -2.621995242642341E-3   -9.995752082173773E-4   -1.739837972474920E-1    4.129720687009488E-1
 8.195978123400000E9    -2.488595987773341E-1    4.758959855953316E-1   -2.497658806319781E-3   -1.055579961842241E-3   -2.601183543289480E-3   -1.000929285919609E-3   -1.735384622011586E-1    4.131355637085913E-1
 8.195985933750000E9    -2.484618409562080E-1    4.760259252530084E-1   -2.508466756763850E-3   -1.055891170862286E-3   -2.605316196743800E-3   -1.020755148924949E-3   -1.730298978605905E-1    4.133152630679998E-1
 8.195993744100000E9    -2.478533428355789E-1    4.762158254833421E-1   -2.554080386499355E-3   -1.071033907066069E-3   -2.629874455791575E-3   -9.917855333060836E-4   -1.725198726882553E-1    4.134914262402533E-1
 8.196001554450000E9    -2.475873517784494E-1    4.765539394937555E-1   -2.485258146426281E-3   -1.061533003009318E-3   -2.614052539228650E-3   -9.879066617080776E-4   -1.720405448571062E-1    4.135171927333614E-1
 8.196009364800000E9    -2.468157145014158E-1    4.768133765311095E-1   -2.502698528204578E-3   -1.055210969275588E-3   -2.621529032231087E-3   -1.011570706278775E-3   -1.717816217775092E-1    4.137388827344212E-1
 8.196017175150000E9    -2.465031946005970E-1    4.769239046684604E-1   -2.528136312118972E-3   -1.034476033552922E-3   -2.636342150878730E-3   -9.696577065033662E-4   -1.714216400377112E-1    4.140438618594381E-1
 8.196024985500000E9    -2.459583733940195E-1    4.773827313925931E-1   -2.528612725489785E-3   -1.073344097667619E-3   -2.647553923095026E-3   -1.000675243571988E-3   -1.711535422521094E-1    4.140705866691861E-1
 8.196032795850000E9    -2.455064230142127E-1    4.775629871710014E-1   -2.513808399069833E-3   -1.058068283728332E-3   -2.652709882020263E-3   -9.543902956963480E-4   -1.705085818943044E-1    4.142498987396369E-1
 8.196040606200000E9    -2.449461814383236E-1    4.778053442678148E-1   -2.532339588817993E-3   -1.056575100294897E-3   -2.637919096445306E-3   -1.005452904496897E-3   -1.700525962413615E-1    4.145074408449792E-1
 8.196048416550000E9    -2.444967218766381E-1    4.779106388256043E-1   -2.558662018298244E-3   -1.042904409893764E-3   -2.628332323092948E-3   -1.009319177734177E-3   -1.697972781930981E-1    4.146419282034529E-1
 8.196056226900000E9    -2.439882499029107E-1    4.783256397070769E-1   -2.547448642644360E-3   -1.046500108265021E-3   -2.647987085187857E-3   -9.981317490189044E-4   -1.694447510051754E-1    4.147771629020205E-1
 8.196064037250000E9    -2.433919327464845E-1    4.786830313834152E-1   -2.539708510238680E-3   -1.036755673023828E-3   -2.619974596790545E-3   -9.638753480008197E-4   -1.689199157576551E-1    4.147388441225709E-1
 8.196071847600000E9    -2.429809219654782E-1    4.788391325371902E-1   -2.547007848827651E-3   -1.060638932015522E-3   -2.604218612104774E-3   -1.001177553111338E-3   -1.685370973418821E-1    4.151524186873842E-1
 8.196079657950000E9    -2.425695109284810E-1    4.788300393302942E-1   -2.551178799791666E-3   -1.030548222331542E-3   -2.634697481029468E-3   -9.551832732787341E-4   -1.680178420549587E-1    4.151035220279582E-1
 8.196087468300000E9    -2.418759261696818E-1    4.793625976923326E-1   -2.532480433047485E-3   -1.019671629498928E-3   -2.663168885398006E-3   -9.890619015987142E-4   -1.676906770225871E-1    4.153895913313407E-1
 8.196095278650000E9    -2.415498849088622E-1    4.795693459267852E-1   -2.542868298375071E-3   -1.042120391861488E-3   -2.673551158066156E-3   -9.436151296775176E-4   -1.672701137925867E-1    4.154879907510065E-1
 8.196103089000000E9    -2.408446168859927E-1    4.797511829239262E-1   -2.551448827480323E-3   -1.031960740203465E-3   -2.645999397566661E-3   -9.563011022222133E-4   -1.668403795773877E-1    4.155400113556778E-1
 8.196110899350000E9    -2.405517519147221E-1    4.798963609873244E-1   -2.557981534181789E-3   -1.027600940224914E-3   -2.651194029215697E-3   -9.683928631193861E-4   -1.664126295795514E-1    4.159429590823528E-1
 8.196118709700000E9    -2.400116471202857E-1    4.801315145205838E-1   -2.546455505622994E-3   -1.015014237964456E-3   -2.645769750029859E-3   -9.831248725008718E-4   -1.660403007353662E-1    4.159037319654700E-1
 8.196126520050000E9    -2.394475854517706E-1    4.804549416363949E-1   -2.575739955748500E-3   -1.037815602816510E-3   -2.677871798107143E-3   -9.778961867316863E-4   -1.656348257705906E-1    4.159565731480222E-1
 8.196134330400000E9    -2.389170751057629E-1    4.807793164774591E-1   -2.565379312559645E-3   -1.031706775057441E-3   -2.646124538550383E-3   -9.701483025075851E-4   -1.652842433641402E-1    4.162969245931138E-1
 8.196142140750000E9    -2.384024535037618E-1    4.809535846666513E-1   -2.539120740829391E-3   -1.019434806508978E-3   -2.689203181082381E-3   -9.490505995425074E-4   -1.647453354046748E-1    4.163073774266678E-1
 8.196149951100000E9    -2.379195305690036E-1    4.813351431698311E-1   -2.576259783481028E-3   -1.018243438334967E-3   -2.629227880701154E-3   -9.464292297239231E-4   -1.644762157999520E-1    4.165156528347131E-1
 8.196157761450000E9    -2.374257586128162E-1    4.814393830293503E-1   -2.570272498270057E-3   -1.029516509452134E-3   -2.679742982776581E-3   -9.278427398941940E-4   -1.640882912536732E-1    4.167362305799200E-1
 8.196165571800000E9    -2.368092831760957E-1    4.817471454364617E-1   -2.555275010847892E-3   -1.027924458070388E-3   -2.674060769083961E-3   -8.864997493850707E-4   -1.635300920586945E-1    4.169038268519586E-1
 8.196173382150000E9    -2.364165817368553E-1    4.819379944733933E-1   -2.564060352543949E-3   -1.025396487179076E-3   -2.681442527271684E-3   -9.493476463320276E-4   -1.631526143813755E-1    4.169263698704710E-1
 8.196181192500000E9    -2.358061514221698E-1    4.822307523942626E-1   -2.593105992455665E-3   -1.026242664523035E-3   -2.691352486249386E-3   -9.438163764148742E-4   -1.627190858028149E-1    4.170678163608553E-1
 8.196189002850000E9    -2.354600171496463E-1    4.824148918077611E-1   -2.601853089532479E-3   -1.008564914031820E-3   -2.688840040695516E-3   -9.204680922682443E-4   -1.624329129410130E-1    4.172650400040932E-1
 8.196196813200000E9    -2.347563804648383E-1    4.827626543621326E-1   -2.569778362603935E-3   -1.009489618466070E-3   -2.659697462228028E-3   -9.481726102235805E-4   -1.619198986444906E-1    4.175006451626747E-1
 8.196204623550000E9    -2.343171629744653E-1    4.828298447339088E-1   -2.576264308436114E-3   -1.020475747176425E-3   -2.714437464784980E-3   -9.363070541139847E-4   -1.615319527953461E-1    4.176052626052664E-1
 8.196212433900000E9    -2.338918508719868E-1    4.831305765999565E-1   -2.587353050900613E-3   -1.001394433158234E-3   -2.695315636475821E-3   -9.410426565420881E-4   -1.610740536238004E-1    4.177287168106705E-1
 8.196220244250000E9    -2.334884716078838E-1    4.834508451810692E-1   -2.594836374549954E-3   -1.017853414533882E-3   -2.688650569203629E-3   -9.284051646042318E-4   -1.607363981474904E-1    4.177679059725794E-1
 8.196228054600000E9    -2.328955604984418E-1    4.836032316882761E-1   -2.616119036636894E-3   -9.957720317257340E-4   -2.699014994917509E-3   -9.118815886667651E-4   -1.602250616840796E-1    4.179509259062325E-1
 8.196235864950000E9    -2.322398884780594E-1    4.838708587373587E-1   -2.581486543739087E-3   -9.848017805264568E-4   -2.683208147180348E-3   -8.885212617079476E-4   -1.600263275117546E-1    4.180519454631486E-1
 8.196243675300000E9    -2.317034856695263E-1    4.840998053069805E-1   -2.630744028225597E-3   -9.964652623866807E-4   -2.717971775901458E-3   -9.097174872592283E-4   -1.593657821926346E-1    4.182953321731647E-1
 8.196251485650000E9    -2.313637679870565E-1    4.843821179432294E-1   -2.611606619199588E-3   -9.723464645668919E-4   -2.703091664537160E-3   -9.144879390452603E-4   -1.589830982015882E-1    4.185494916416101E-1
 8.196259296000000E9    -2.309002876200626E-1    4.843787451995762E-1   -2.588807554461708E-3   -9.876439166252207E-4   -2.705143393121351E-3   -9.329991136104492E-4   -1.585572254956453E-1    4.186584988137677E-1
 8.196267106350000E9    -2.304052285565157E-1    4.847027798825222E-1   -2.618660124086391E-3   -1.025642880593014E-3   -2.666284164070967E-3   -9.202059852261491E-4   -1.581903638943714E-1    4.188122171765229E-1
 8.196274916700000E9    -2.297920856900305E-1    4.850213393484002E-1   -2.589064570596821E-3   -9.943448554186735E-4   -2.688999149562917E-3   -9.019258267062300E-4   -1.577339116676326E-1    4.188617668054262E-1
 8.196282727050000E9    -2.293241816838682E-1    4.853401574001032E-1   -2.612398888006546E-3   -1.003944396933299E-3   -2.693888663954701E-3   -9.073816846594943E-4   -1.571825702741865E-1    4.189743245878719E-1
 8.196290537400000E9    -2.287814603832006E-1    4.856102438100832E-1   -2.591046085045203E-3   -9.613549105221098E-4   -2.695191136761403E-3   -8.750650186743217E-4   -1.569476688060481E-1    4.191912151823835E-1
 8.196298347750000E9    -2.282921551224598E-1    4.856426084293148E-1   -2.622258754375903E-3   -9.705824706971616E-4   -2.725488847321122E-3   -8.990052799927685E-4   -1.565326135313483E-1    4.192887906193634E-1
 8.196306158100000E9    -2.277572679183671E-1    4.858983270202907E-1   -2.640316140198349E-3   -9.626106219934651E-4   -2.687753063173171E-3   -9.067180012350186E-4   -1.560480663655607E-1    4.194406249477632E-1
 8.196313968450000E9    -2.272421509742095E-1    4.861233338204926E-1   -2.638935232164530E-3   -9.691157793714081E-4   -2.702677008424367E-3   -8.839663743011795E-4   -1.557887305644401E-1    4.195800462932937E-1
 8.196321778800000E9    -2.267090362758147E-1    4.863534084946918E-1   -2.618981171998057E-3   -9.901209249340423E-4   -2.731479847615805E-3   -8.620645941077821E-4   -1.551619058884425E-1    4.197270837276171E-1
 8.196329589150000E9    -2.262107562363758E-1    4.866965982502259E-1   -2.628267036204226E-3   -1.000965745324786E-3   -2.730940429799169E-3   -8.810288004719026E-4   -1.548823743960981E-1    4.198386499305187E-1
 8.196337399500000E9    -2.257200268486912E-1    4.868418430913615E-1   -2.627124145304341E-3   -9.722080923586512E-4   -2.739178729191394E-3   -9.024622493909171E-4   -1.543475404641435E-1    4.199711916043155E-1
 8.196345209850000E9    -2.252531726537737E-1    4.870988792536554E-1   -2.640435919256493E-3   -9.420331454515605E-4   -2.755882771317196E-3   -9.166358214125274E-4   -1.541012520514018E-1    4.202517416859565E-1
 8.196353020200000E9    -2.247340688461159E-1    4.873218901727002E-1   -2.637217185382414E-3   -9.780122234094011E-4   -2.718220894989013E-3   -8.785941383916765E-4   -1.536252817838723E-1    4.201580827893612E-1
 8.196360830550000E9    -2.241483320914893E-1    4.875245638822031E-1   -2.639371065416783E-3   -9.812302289314608E-4   -2.736633289110520E-3   -8.781549313748914E-4   -1.530716871611056E-1    4.203229350505426E-1
 8.196368640900000E9    -2.236893294020581E-1    4.876679453471038E-1   -2.662536034171619E-3   -1.010776498524894E-3   -2.771154127978901E-3   -8.974322150659723E-4   -1.528129184598711E-1    4.205694203790574E-1
 8.196376451250000E9    -2.232651943971703E-1    4.878681658730384E-1   -2.645469550900258E-3   -9.341363682816574E-4   -2.747849663878860E-3   -8.658726498382953E-4   -1.523654223226784E-1    4.207867346493310E-1
 8.196384261600000E9    -2.226782102880339E-1    4.882234695274812E-1   -2.650240867059105E-3   -9.736201788936983E-4   -2.763627907592308E-3   -8.710043771832864E-4   -1.519094588300362E-1    4.208100768173509E-1
 8.196392071950000E9    -2.221925662335217E-1    4.883735648491327E-1   -2.667023882404020E-3   -9.704316851670606E-4   -2.738339919997242E-3   -8.829760831728958E-4   -1.514091629459823E-1    4.211845587526931E-1
 8.196399882300000E9    -2.215328083036373E-1    4.885824537901143E-1   -2.673846019853564E-3   -9.746962565526955E-4   -2.770382509070256E-3   -8.545515966958314E-4   -1.511704264989024E-1    4.211737990820990E-1
 8.196407692650000E9    -2.210117109522344E-1    4.888177502525053E-1   -2.661950032286264E-3   -9.240806414816103E-4   -2.710768858939803E-3   -8.746485320361211E-4   -1.506827159613146E-1    4.212784312869653E-1
 8.196415503000000E9    -2.204977772557416E-1    4.890345714258130E-1   -2.659562182731395E-3   -9.577595455756716E-4   -2.757925600167970E-3   -8.771246041977394E-4   -1.501706852836740E-1    4.212135911304986E-1
 8.196423313350000E9    -2.200814934013451E-1    4.893305632279188E-1   -2.662028261714370E-3   -9.164080553497334E-4   -2.789496973826765E-3   -8.785671680659297E-4   -1.498759019701590E-1    4.216000990375222E-1
 8.196431123700000E9    -2.195923536146854E-1    4.895245676266232E-1   -2.701871091611810E-3   -9.348827889600914E-4   -2.785443963108073E-3   -8.494488366159945E-4   -1.493768257015238E-1    4.216417216278749E-1
 8.196438934050000E9    -2.191247344910364E-1    4.898553359810124E-1   -2.685874410516949E-3   -9.527724116711018E-4   -2.783737277764251E-3   -8.798612960370334E-4   -1.490577636789378E-1    4.217552161737388E-1
 8.196446744400000E9    -2.185274897684133E-1    4.899405866546823E-1   -2.680962148833488E-3   -9.477214990268262E-4   -2.739878668421253E-3   -8.094774589360819E-4   -1.485520335560447E-1    4.218589941400752E-1
 8.196454554750000E9    -2.178980027230674E-1    4.901842026698254E-1   -2.672144800762319E-3   -9.571236615739373E-4   -2.799437559423979E-3   -8.395977328921763E-4   -1.481774106240033E-1    4.221079598437898E-1
 8.196462365100000E9    -2.174740165239051E-1    4.903872506650642E-1   -2.683330317507094E-3   -9.497061743812574E-4   -2.807274385904933E-3   -8.545916657736766E-4   -1.477852095872880E-1    4.222012232495025E-1
 8.196470175450000E9    -2.169173653797550E-1    4.906648171848790E-1   -2.667448589027179E-3   -9.243061305069934E-4   -2.767438455389487E-3   -8.576487538489952E-4   -1.473624379589353E-1    4.223795113778630E-1
 8.196477985800000E9    -2.163071117278870E-1    4.909579266911087E-1   -2.673587308872417E-3   -9.446707348402005E-4   -2.830872964471016E-3   -8.682482191580291E-4   -1.469019592638770E-1    4.225242302422330E-1
 8.196485796150000E9    -2.158239881719063E-1    4.910729063884858E-1   -2.683680836924018E-3   -9.164399459799750E-4   -2.792388990485129E-3   -8.396392792283722E-4   -1.465749426495315E-1    4.225246699753946E-1
 8.196493606500000E9    -2.153434102955500E-1    4.913223826221397E-1   -2.708787996200653E-3   -9.321522668084706E-4   -2.776539033273628E-3   -8.155514333568091E-4   -1.461237882401108E-1    4.227031146377893E-1
