#  HZ   S   RI   R     50.00 
! Rohde & Schwarz Vector Network Analyzer 
! Rohde-Schwarz,ZNB20-2Port,1311601062101988,3.16
! Created: UTC 3/20/2024, 5:12:47 PM
! freq[Hz]                re:S11                  im:S11                  re:S21                  im:S21                  re:S12                  im:S12                  re:S22                  im:S22
 8.195824602000000E9    -2.587429671239329E-1    4.705637063058088E-1   -2.480767466462743E-3   -1.116625328888355E-3   -2.562049070882841E-3   -1.037793369196747E-3   -1.813968558259375E-1    4.099104424317973E-1
 8.195832267625000E9    -2.581913170013767E-1    4.708764454696058E-1   -2.472355655430563E-3   -1.106737677829962E-3   -2.578028540061865E-3   -1.031364468674817E-3   -1.809854423819326E-1    4.102288612932901E-1
 8.195839933250000E9    -2.577538056295799E-1    4.712006444433527E-1   -2.463123940971204E-3   -1.120164679373947E-3   -2.599014474702539E-3   -1.036716323939727E-3   -1.806758500228688E-1    4.102560822084069E-1
 8.195847598875000E9    -2.573656019646905E-1    4.714485055917329E-1   -2.493090301616858E-3   -1.117623980934598E-3   -2.583223474417174E-3   -1.024721806602850E-3   -1.802552959153139E-1    4.104303794459183E-1
 8.195855264500000E9    -2.568137201912271E-1    4.716773745160944E-1   -2.526449650787536E-3   -1.109383227060108E-3   -2.540524554531166E-3   -9.988687085666903E-4   -1.799120748470032E-1    4.105832895733690E-1
 8.195862930125000E9    -2.563256553664436E-1    4.719682897828862E-1   -2.474117060098041E-3   -1.107842962533801E-3   -2.601345175072620E-3   -1.033932510473714E-3   -1.795064549244827E-1    4.107719293463668E-1
 8.195870595750000E9    -2.558317935596782E-1    4.723091530993191E-1   -2.468837778500230E-3   -1.103742507809509E-3   -2.587399524287061E-3   -1.032357971011270E-3   -1.789817642460367E-1    4.108910897364370E-1
 8.195878261375000E9    -2.554427068088744E-1    4.725084498124222E-1   -2.490642768870460E-3   -1.069661451263168E-3   -2.591669421073093E-3   -1.016224143142561E-3   -1.785590794682545E-1    4.110671873306094E-1
 8.195885927000000E9    -2.546605140473546E-1    4.728569907904705E-1   -2.465355194892957E-3   -1.109108523614534E-3   -2.598350305254170E-3   -1.037615550198120E-3   -1.782863292615026E-1    4.110966004578024E-1
 8.195893592625000E9    -2.543918453927894E-1    4.729913344474960E-1   -2.442581646247188E-3   -1.080038510466339E-3   -2.556677806325985E-3   -1.039308392124486E-3   -1.780005520130963E-1    4.113875147374941E-1
 8.195901258250000E9    -2.538077159724663E-1    4.733723383381410E-1   -2.488002613620731E-3   -1.067896953767640E-3   -2.562345298603463E-3   -1.027711838913789E-3   -1.775072343768729E-1    4.116069292501181E-1
 8.195908923875000E9    -2.533408154936790E-1    4.735771673222060E-1   -2.506403583515420E-3   -1.090585053875833E-3   -2.571537700841339E-3   -1.059435308548588E-3   -1.770641323582295E-1    4.117783004502045E-1
 8.195916589500000E9    -2.529067864710719E-1    4.738659337210309E-1   -2.502042458717854E-3   -1.080434108548683E-3   -2.600125187131690E-3   -1.027754892338271E-3   -1.767671643959130E-1    4.117588711210588E-1
 8.195924255125000E9    -2.524400009343324E-1    4.740469779687514E-1   -2.484856160334987E-3   -1.066015868237072E-3   -2.587341986558653E-3   -1.022369081574225E-3   -1.762798486626758E-1    4.120375077376071E-1
 8.195931920750000E9    -2.518094562454268E-1    4.743014722373928E-1   -2.518509589846385E-3   -1.066352442386524E-3   -2.604856047961039E-3   -1.022887357089625E-3   -1.757224687824194E-1    4.121335036769895E-1
 8.195939586375000E9    -2.513564759957808E-1    4.745491138808361E-1   -2.497153242861936E-3   -1.084188222236626E-3   -2.638323211255018E-3   -9.932397655824520E-4   -1.755283101494222E-1    4.124253005260963E-1
 8.195947252000000E9    -2.510075766420074E-1    4.747817652568658E-1   -2.482813896628820E-3   -1.078441377243755E-3   -2.622229577260939E-3   -9.848504782090327E-4   -1.749731112653466E-1    4.125287888114402E-1
 8.195954917625000E9    -2.504655285545432E-1    4.750714694475724E-1   -2.498335314109777E-3   -1.049197306779758E-3   -2.602552964222675E-3   -9.999746808426319E-4   -1.747198224610929E-1    4.126903159699346E-1
 8.195962583250000E9    -2.499199180093266E-1    4.753202535092538E-1   -2.504836294084637E-3   -1.096103564317605E-3   -2.601934505482140E-3   -9.838304493239561E-4   -1.742906698713732E-1    4.128037416461521E-1
 8.195970248875000E9    -2.494486695021544E-1    4.754821224024208E-1   -2.514251005765204E-3   -1.098155996020211E-3   -2.612060303442265E-3   -1.015155237614099E-3   -1.739337809415824E-1    4.130186590640929E-1
 8.195977914500000E9    -2.490476522682783E-1    4.756680175517367E-1   -2.521973850341720E-3   -1.060369131085490E-3   -2.605466637215880E-3   -1.006841032540168E-3   -1.734050680106250E-1    4.131969872610463E-1
 8.195985580125000E9    -2.485344834649895E-1    4.761798157741327E-1   -2.516613023068930E-3   -1.063460762807573E-3   -2.604916033094361E-3   -9.957172741459246E-4   -1.729635396121888E-1    4.132362549731827E-1
 8.195993245750000E9    -2.478683269165848E-1    4.762848959655586E-1   -2.544397052108405E-3   -1.051357201506014E-3   -2.599129831965166E-3   -9.646523750966416E-4   -1.726956239142320E-1    4.134245306871852E-1
 8.196000911375000E9    -2.475906551904021E-1    4.766062864901761E-1   -2.511677133016814E-3   -1.085712012257872E-3   -2.637914222059344E-3   -9.974678909584361E-4   -1.721808889350793E-1    4.136441160390073E-1
 8.196008577000000E9    -2.470759657124601E-1    4.767953673983100E-1   -2.520191151257700E-3   -1.074370005776051E-3   -2.628737607548047E-3   -9.785832562898406E-4   -1.718020738832524E-1    4.137754835243485E-1
 8.196016242625000E9    -2.465858356152463E-1    4.770820625594387E-1   -2.507290594374712E-3   -1.067608475030977E-3   -2.601180309572636E-3   -9.776868581792503E-4   -1.715702630326983E-1    4.139765616231406E-1
 8.196023908250000E9    -2.460063152469379E-1    4.772892664462355E-1   -2.534342193726512E-3   -1.052892543067008E-3   -2.624551370326846E-3   -9.887651862130827E-4   -1.709843740050640E-1    4.139880642218581E-1
 8.196031573875000E9    -2.455365399022958E-1    4.775615392757108E-1   -2.516240907462734E-3   -1.043873849990577E-3   -2.626579178499790E-3   -9.748207743758147E-4   -1.705990608243609E-1    4.142839116064024E-1
 8.196039239500000E9    -2.450093717296288E-1    4.776730236213282E-1   -2.521591877573556E-3   -1.028693346910300E-3   -2.647160404212797E-3   -9.831613550567192E-4   -1.703638667383911E-1    4.144379591463838E-1
 8.196046905125000E9    -2.444678382716181E-1    4.779315624411513E-1   -2.538598781211607E-3   -1.044099297440637E-3   -2.627179012918642E-3   -9.650743201350395E-4   -1.698322525071436E-1    4.145033320213947E-1
 8.196054570750000E9    -2.440214340733546E-1    4.782015151645374E-1   -2.525899628949208E-3   -1.042574585335013E-3   -2.618145740051115E-3   -9.841788689531005E-4   -1.693829624104902E-1    4.146955682056402E-1
 8.196062236375000E9    -2.436346442441634E-1    4.784230319507924E-1   -2.534277554800709E-3   -1.039176651958755E-3   -2.640533830532670E-3   -9.723285345824619E-4   -1.691223183059203E-1    4.148121077669733E-1
 8.196069902000000E9    -2.430212912220040E-1    4.787856610454146E-1   -2.527526113602544E-3   -1.035293039238670E-3   -2.673104238472608E-3   -9.456845061672107E-4   -1.685915132622259E-1    4.150306723993488E-1
 8.196077567625000E9    -2.425567522002270E-1    4.790173577718440E-1   -2.533407088093964E-3   -1.060558310235950E-3   -2.639306222927996E-3   -9.626555682636672E-4   -1.681465993009691E-1    4.152981452952371E-1
 8.196085233250000E9    -2.421702947292613E-1    4.792124488613077E-1   -2.546137438905826E-3   -1.026182811273366E-3   -2.657316052839766E-3   -9.454819110960576E-4   -1.677132333023824E-1    4.152973927543903E-1
 8.196092898875000E9    -2.416557279873302E-1    4.795003170302216E-1   -2.531437629650221E-3   -1.038450107042355E-3   -2.650145843197604E-3   -9.963631057378448E-4   -1.675739483300550E-1    4.154894063379750E-1
 8.196100564500000E9    -2.411808478645149E-1    4.796776155129119E-1   -2.527041563954369E-3   -1.047592227056827E-3   -2.666971944130687E-3   -9.506826305508998E-4   -1.670432548537632E-1    4.156215541477590E-1
 8.196108230125000E9    -2.406202683265851E-1    4.798436302528357E-1   -2.578528863513115E-3   -1.053604533259555E-3   -2.658847576357479E-3   -9.457081875764869E-4   -1.666173584745738E-1    4.157482478584499E-1
 8.196115895750000E9    -2.400256856747499E-1    4.800725563592028E-1   -2.547544145488807E-3   -1.042533872376460E-3   -2.625537057894837E-3   -9.424310702052282E-4   -1.661759893554179E-1    4.158457107637179E-1
 8.196123561375000E9    -2.395838348532959E-1    4.804291299464881E-1   -2.567922703443682E-3   -1.045893250252864E-3   -2.652307141683363E-3   -9.178616519912719E-4   -1.657598301584473E-1    4.159189861938837E-1
 8.196131227000000E9    -2.392112611659611E-1    4.807623741978389E-1   -2.557474864948930E-3   -1.004302033600335E-3   -2.679094827504767E-3   -9.371851258901283E-4   -1.654189584760234E-1    4.162237725263714E-1
 8.196138892625000E9    -2.385479695844766E-1    4.809183003032121E-1   -2.530636017927670E-3   -1.021423271289608E-3   -2.657396806814213E-3   -9.322301311340805E-4   -1.650012885901476E-1    4.162623801038251E-1
 8.196146558250000E9    -2.379975970824116E-1    4.810970042857366E-1   -2.560886993600491E-3   -1.026779000546013E-3   -2.677305250479171E-3   -9.410661570022847E-4   -1.646451063280512E-1    4.165390076293995E-1
 8.196154223875000E9    -2.375885661609155E-1    4.814275172309233E-1   -2.576454951790658E-3   -1.026079913707478E-3   -2.665946999437927E-3   -9.463766584535116E-4   -1.641369168018370E-1    4.165218788479617E-1
 8.196161889500000E9    -2.370918837079248E-1    4.816073539989841E-1   -2.573152537011229E-3   -1.024997291696602E-3   -2.677735846886043E-3   -9.346375526120707E-4   -1.636673910139207E-1    4.168161450724504E-1
 8.196169555125000E9    -2.367187454931410E-1    4.819903173467125E-1   -2.566631637965808E-3   -1.006103928723717E-3   -2.664546347471203E-3   -9.039616245445915E-4   -1.633410276427549E-1    4.169926467796023E-1
 8.196177220750000E9    -2.361749759060534E-1    4.820804617891911E-1   -2.577385314190405E-3   -1.022476979300035E-3   -2.696052358533848E-3   -9.562451416463042E-4   -1.630121276685716E-1    4.170348180713482E-1
 8.196184886375000E9    -2.356449145802340E-1    4.823365775162299E-1   -2.571647385179819E-3   -1.024420925004703E-3   -2.683889312054906E-3   -9.192080018371778E-4   -1.624722341535897E-1    4.172721235553632E-1
 8.196192552000000E9    -2.351885872974427E-1    4.825507504156321E-1   -2.593201237012362E-3   -9.969370380545487E-4   -2.711077736365725E-3   -9.388626740766151E-4   -1.619739810512046E-1    4.174036553919554E-1
 8.196200217625000E9    -2.346571568333863E-1    4.827318639998827E-1   -2.587994111551401E-3   -9.851225667788985E-4   -2.655556652142379E-3   -9.096787134261098E-4   -1.618457592687295E-1    4.175571224619610E-1
 8.196207883250000E9    -2.342314909466019E-1    4.829018630248336E-1   -2.593187208120772E-3   -1.015573821413102E-3   -2.715543964720062E-3   -9.263895550000236E-4   -1.614239811561191E-1    4.176767929269725E-1
 8.196215548875000E9    -2.336584174911163E-1    4.832361723470489E-1   -2.567993098047414E-3   -9.946397243925079E-4   -2.662090388975653E-3   -8.991057512307138E-4   -1.608496331540223E-1    4.175912008087716E-1
 8.196223214500000E9    -2.331545642978649E-1    4.835776449085997E-1   -2.590093300557922E-3   -9.896454102289467E-4   -2.678071980688356E-3   -9.236390671935134E-4   -1.604935492807714E-1    4.180518732484194E-1
 8.196230880125000E9    -2.327164134025613E-1    4.837260375845389E-1   -2.596049212696222E-3   -1.007713157209639E-3   -2.664385756504004E-3   -9.290249791219593E-4   -1.601321911569334E-1    4.181179367856388E-1
 8.196238545750000E9    -2.321859030030705E-1    4.839781096327869E-1   -2.600927899917109E-3   -9.969288105514164E-4   -2.743234543871001E-3   -8.756653825220306E-4   -1.595874381530488E-1    4.182759848680634E-1
 8.196246211375000E9    -2.317787426021805E-1    4.842094054670508E-1   -2.601725460369984E-3   -9.950828646656230E-4   -2.690673561026779E-3   -9.236496045987946E-4   -1.592502810266385E-1    4.183441053131352E-1
 8.196253877000000E9    -2.312178235764269E-1    4.843952571246194E-1   -2.594965923972391E-3   -9.899631069926933E-4   -2.709305155126858E-3   -8.878780821906862E-4   -1.589139233283177E-1    4.185583060544305E-1
 8.196261542625000E9    -2.307166720128930E-1    4.845678889916629E-1   -2.574803572467439E-3   -9.729014478136308E-4   -2.723072698153819E-3   -9.299522740300404E-4   -1.583515953774461E-1    4.185645011789683E-1
 8.196269208250000E9    -2.302314684438520E-1    4.848489328744597E-1   -2.607261470942290E-3   -9.875391869639998E-4   -2.693624171669720E-3   -9.055022320989310E-4   -1.580124235845860E-1    4.187983399474524E-1
 8.196276873875000E9    -2.297461559474729E-1    4.850056155280697E-1   -2.617611930937900E-3   -9.788303322715794E-4   -2.684443465277491E-3   -8.779839691189124E-4   -1.577104844957869E-1    4.189501102663217E-1
 8.196284539500000E9    -2.292589859004483E-1    4.852800501208238E-1   -2.585060913395921E-3   -9.886167538852206E-4   -2.710029354970111E-3   -9.000854248925079E-4   -1.572721580389249E-1    4.191343540865685E-1
 8.196292205125000E9    -2.287194604350919E-1    4.854697339038905E-1   -2.610897613249203E-3   -9.647516284985686E-4   -2.729334335077542E-3   -8.698052247887054E-4   -1.568254314334601E-1    4.191604368063458E-1
 8.196299870750000E9    -2.281539787190122E-1    4.858631001255527E-1   -2.620128064128725E-3   -9.977361860918860E-4   -2.689093287562050E-3   -9.055877425989116E-4   -1.563526404904281E-1    4.194333892362256E-1
 8.196307536375000E9    -2.276542118050523E-1    4.860006045376760E-1   -2.619386974555965E-3   -9.835097349713965E-4   -2.713087941024610E-3   -9.174333617762685E-4   -1.559953442849097E-1    4.193732526414314E-1
 8.196315202000000E9    -2.271741452515321E-1    4.861179110548207E-1   -2.636365071228200E-3   -9.848725581457938E-4   -2.727931956737152E-3   -9.256612709038309E-4   -1.556680489879804E-1    4.195320801471529E-1
 8.196322867625000E9    -2.266492019683999E-1    4.863785493881717E-1   -2.619138190959612E-3   -9.720286344703161E-4   -2.701169077937252E-3   -8.879549274605523E-4   -1.552566673621141E-1    4.196783227252770E-1
 8.196330533250000E9    -2.261292666073442E-1    4.867017346400672E-1   -2.600174710549724E-3   -9.528628848033477E-4   -2.742800561150989E-3   -8.823849208534914E-4   -1.548815642732969E-1    4.198314867896328E-1
 8.196338198875000E9    -2.257301277188397E-1    4.869254331211250E-1   -2.638773289437851E-3   -9.653754259004389E-4   -2.725551557896637E-3   -9.042459269810151E-4   -1.543896190763424E-1    4.198893028748888E-1
 8.196345864500000E9    -2.251579201964810E-1    4.870395276809559E-1   -2.627960977617947E-3   -9.533588354290391E-4   -2.739381137537650E-3   -9.207841777097969E-4   -1.540425229740178E-1    4.202757760331032E-1
 8.196353530125000E9    -2.247208975919869E-1    4.873235250698243E-1   -2.627218652744285E-3   -9.587249232563594E-4   -2.709641908849983E-3   -8.857127655573785E-4   -1.535452407574422E-1    4.203268949895742E-1
 8.196361195750000E9    -2.240950776787684E-1    4.875859491761377E-1   -2.628017903923826E-3   -9.732418349007352E-4   -2.709671367263369E-3   -8.834807028605471E-4   -1.531619125486372E-1    4.205886560411130E-1
 8.196368861375000E9    -2.236774592531120E-1    4.878311409139692E-1   -2.642767496075887E-3   -9.418854714224755E-4   -2.723152847564053E-3   -8.828813378554942E-4   -1.527899873058779E-1    4.206108415417433E-1
 8.196376527000000E9    -2.232719129782942E-1    4.881216885344196E-1   -2.648499845513176E-3   -9.682540466302974E-4   -2.747360932863304E-3   -8.663996246251704E-4   -1.524309100544450E-1    4.206863960885383E-1
 8.196384192625000E9    -2.226474620643326E-1    4.881497864791627E-1   -2.627319450966522E-3   -9.611604110961499E-4   -2.745828904412232E-3   -8.856396988938513E-4   -1.517945564733597E-1    4.209145692838400E-1
 8.196391858250000E9    -2.220918790766613E-1    4.884187233881351E-1   -2.660700683742853E-3   -9.617424917849617E-4   -2.738416310289940E-3   -8.568183306650240E-4   -1.515449395990317E-1    4.210071334869121E-1
 8.196399523875000E9    -2.216787672202759E-1    4.886598157545606E-1   -2.659828103559729E-3   -9.617535736217302E-4   -2.741385706355498E-3   -8.827740491350749E-4   -1.512497024148514E-1    4.211806185177986E-1
 8.196407189500000E9    -2.211301507974471E-1    4.888182959991746E-1   -2.643954627718321E-3   -9.226330611390915E-4   -2.791129147629842E-3   -8.513703235162252E-4   -1.507175031854170E-1    4.212419023019705E-1
 8.196414855125000E9    -2.205420105209435E-1    4.892295636326884E-1   -2.683751481235416E-3   -9.734484450537541E-4   -2.760866879919973E-3   -8.681764752504798E-4   -1.501857407241818E-1    4.213533059732341E-1
 8.196422520750000E9    -2.201475714432207E-1    4.894347828926683E-1   -2.649416435349934E-3   -9.234081295049558E-4   -2.750366366092795E-3   -8.535178310673721E-4   -1.498111363717607E-1    4.214312980964435E-1
 8.196430186375000E9    -2.197701672018294E-1    4.895727485765273E-1   -2.661594986928383E-3   -9.467981019820964E-4   -2.765260937533637E-3   -8.415019727148723E-4   -1.494881548133283E-1    4.217454277233646E-1
 8.196437852000000E9    -2.191779310210010E-1    4.897463407332351E-1   -2.658573226110423E-3   -9.284512575688409E-4   -2.750176491121489E-3   -8.661775158588756E-4   -1.492486614581466E-1    4.217102161925388E-1
 8.196445517625000E9    -2.185515298230182E-1    4.899992500446354E-1   -2.679178977463625E-3   -9.782138898781724E-4   -2.775814546632964E-3   -8.608618565336403E-4   -1.486220556188953E-1    4.219133703248512E-1
 8.196453183250000E9    -2.180786821600962E-1    4.901747980290408E-1   -2.662609995571125E-3   -9.396536901405214E-4   -2.734744873975600E-3   -8.262679406131635E-4   -1.482360889672084E-1    4.218928910595852E-1
 8.196460848875000E9    -2.176365205441683E-1    4.904054956020934E-1   -2.678404223944775E-3   -9.537075304841693E-4   -2.778008188139001E-3   -8.708513930730004E-4   -1.479711481368221E-1    4.222564420918919E-1
 8.196468514500000E9    -2.169690391768141E-1    4.906625495104150E-1   -2.675242646708052E-3   -9.553665260869445E-4   -2.790697333282019E-3   -8.514944981694305E-4   -1.474608941438892E-1    4.222346016000262E-1
 8.196476180125000E9    -2.164947446073656E-1    4.908727377934682E-1   -2.682190914841512E-3   -9.054928229036876E-4   -2.751998713054983E-3   -8.442381174696954E-4   -1.470847524040902E-1    4.224450939556396E-1
 8.196483845750000E9    -2.160751562646888E-1    4.909963269932517E-1   -2.703824785986382E-3   -9.170413011104850E-4   -2.766884406564231E-3   -8.446284717543771E-4   -1.466070433745427E-1    4.225770895032604E-1
 8.196491511375000E9    -2.155340184604426E-1    4.912081049212056E-1   -2.723883929625210E-3   -9.164455094419147E-4   -2.770645839838505E-3   -8.455329809470951E-4   -1.462037933567603E-1    4.227774142561695E-1
 8.196499177000000E9    -2.150663667354384E-1    4.915060375033584E-1   -2.720348385603609E-3   -9.179880652078596E-4   -2.820055220656282E-3   -8.263858524162024E-4   -1.458535170970699E-1    4.227964307079855E-1
 8.196506842625000E9    -2.145239856979046E-1    4.916294032398619E-1   -2.702797074559647E-3   -9.315482791150987E-4   -2.807257785878957E-3   -8.326844787805294E-4   -1.453902883373485E-1    4.229671002597731E-1
 8.196514508250000E9    -2.140361304080530E-1    4.918513342597398E-1   -2.717102128009410E-3   -9.291037298442664E-4   -2.782937914579022E-3   -8.297432233062029E-4   -1.449697658710723E-1    4.230566736794839E-1
