#  HZ   S   RI   R     50.00 
! Rohde & Schwarz Vector Network Analyzer 
! Rohde-Schwarz,ZNB20-2Port,1311601062101988,3.16
! Created: UTC 3/20/2024, 5:12:50 PM
! freq[Hz]                re:S11                  im:S11                  re:S21                  im:S21                  re:S12                  im:S12                  re:S22                  im:S22
 8.195855395000000E9    -2.568150085362233E-1    4.716817260556262E-1   -2.462320530632418E-3   -1.092934533849676E-3   -2.571188521950419E-3   -1.037213744074228E-3   -1.798201067739585E-1    4.106427185868405E-1
 8.195862926475000E9    -2.563585607163945E-1    4.720098622692732E-1   -2.482957110213094E-3   -1.121569420213445E-3   -2.586826963262187E-3   -1.036825203003997E-3   -1.795623546476864E-1    4.107400805785809E-1
 8.195870457950000E9    -2.558741918215962E-1    4.722719278091497E-1   -2.488259300223856E-3   -1.095116784359975E-3   -2.598418258462246E-3   -1.018931347083393E-3   -1.791700206380078E-1    4.109110643298960E-1
 8.195877989425000E9    -2.555242317695663E-1    4.725716160371567E-1   -2.508928639317533E-3   -1.115492700491525E-3   -2.581042328129335E-3   -1.010266726930385E-3   -1.786430699687805E-1    4.110764482539649E-1
 8.195885520900000E9    -2.548167555189311E-1    4.727697189372574E-1   -2.484558802291452E-3   -1.091043890525962E-3   -2.586768848024037E-3   -1.016526789120907E-3   -1.783748115081877E-1    4.111648257082477E-1
 8.195893052375000E9    -2.543262562340832E-1    4.729976582916225E-1   -2.465513548915139E-3   -1.064911811914875E-3   -2.569271627205434E-3   -1.016077862021037E-3   -1.779989322981302E-1    4.113526161584850E-1
 8.195900583850000E9    -2.537922480128144E-1    4.732724592406680E-1   -2.489046415502882E-3   -1.094560609481333E-3   -2.585517389076286E-3   -1.000387049031019E-3   -1.775930850426491E-1    4.115153721198249E-1
 8.195908115325000E9    -2.534082984956650E-1    4.735979575799674E-1   -2.494573082013300E-3   -1.089760594568084E-3   -2.578432591688786E-3   -1.016528463750911E-3   -1.771199074724556E-1    4.118335605501681E-1
 8.195915646800000E9    -2.529231088641565E-1    4.739019820643443E-1   -2.512026119798818E-3   -1.062647595444867E-3   -2.581775495736017E-3   -1.010047667622838E-3   -1.767195204255103E-1    4.118482753204096E-1
 8.195923178275000E9    -2.525429541757155E-1    4.740685237300630E-1   -2.477694473847739E-3   -1.106880991451415E-3   -2.595359598508711E-3   -1.016130639512376E-3   -1.762724478903362E-1    4.120059573392500E-1
 8.195930709750000E9    -2.520336127177425E-1    4.742098825609391E-1   -2.494034489421744E-3   -1.079942320245388E-3   -2.585765106660749E-3   -1.007686539079235E-3   -1.758531449905880E-1    4.122022541184814E-1
 8.195938241225000E9    -2.515281760962759E-1    4.745563159040339E-1   -2.511021482092867E-3   -1.089728164119651E-3   -2.604920867783763E-3   -1.004125005730864E-3   -1.755524347901727E-1    4.123555039847966E-1
 8.195945772700000E9    -2.511455358441336E-1    4.748512102733359E-1   -2.505705247083602E-3   -1.073946863841508E-3   -2.623929243771500E-3   -1.011632719490495E-3   -1.750909059355380E-1    4.124333416887109E-1
 8.195953304175000E9    -2.504719043363994E-1    4.749841522392033E-1   -2.486389957475500E-3   -1.048620914564846E-3   -2.604225867319845E-3   -1.028144887470989E-3   -1.746794734984670E-1    4.126225265704953E-1
 8.195960835650000E9    -2.500443554586376E-1    4.752715350234398E-1   -2.501380987255108E-3   -1.070984608464071E-3   -2.606963249383292E-3   -1.015422511549004E-3   -1.743889581324573E-1    4.129079264487337E-1
 8.195968367125000E9    -2.496381839813792E-1    4.755353523486166E-1   -2.513976049268384E-3   -1.073836010993556E-3   -2.620980733553989E-3   -9.954038369483606E-4   -1.739484636281215E-1    4.129222301176090E-1
 8.195975898600000E9    -2.491395801068103E-1    4.757992449137337E-1   -2.523009829453385E-3   -1.048974545899532E-3   -2.596395948546436E-3   -1.005737154728055E-3   -1.735124054210380E-1    4.130954796076224E-1
 8.195983430075000E9    -2.486046318386398E-1    4.759283318323037E-1   -2.517078624310631E-3   -1.072648218774967E-3   -2.597699631188595E-3   -1.013224242160108E-3   -1.732348295739013E-1    4.132305468425143E-1
 8.195990961550000E9    -2.481961146995689E-1    4.762928828425886E-1   -2.548033460374631E-3   -1.080060883259822E-3   -2.646025853675852E-3   -9.834089490819526E-4   -1.727896196955930E-1    4.134317714529843E-1
 8.195998493025000E9    -2.476912249629983E-1    4.765234063052186E-1   -2.525318025157011E-3   -1.065574555676712E-3   -2.639511221871328E-3   -1.010665131999999E-3   -1.722960717936095E-1    4.136090294210271E-1
 8.196006024500000E9    -2.472030633650313E-1    4.766521301586208E-1   -2.517550066347824E-3   -1.044189143779833E-3   -2.573441839712133E-3   -1.006143447814288E-3   -1.720251457765408E-1    4.137142243862917E-1
 8.196013555975000E9    -2.466951326802102E-1    4.770415747526645E-1   -2.531192648610025E-3   -1.064396341153674E-3   -2.616260197959618E-3   -9.856469836477463E-4   -1.714646913127377E-1    4.137102916329286E-1
 8.196021087450000E9    -2.462767150290373E-1    4.771445357945037E-1   -2.537572977089394E-3   -1.063859960042753E-3   -2.656143168155538E-3   -9.840063606799578E-4   -1.712146156724855E-1    4.140750988908820E-1
 8.196028618925000E9    -2.457159198365930E-1    4.774161562264512E-1   -2.535074243849429E-3   -1.029997148698068E-3   -2.618171172315478E-3   -1.002705236699230E-3   -1.707208260602814E-1    4.141641708656092E-1
 8.196036150400000E9    -2.452487948545333E-1    4.777127568754675E-1   -2.512680005993681E-3   -1.081140164507589E-3   -2.613472837973336E-3   -9.989104368774580E-4   -1.703949210778183E-1    4.142567972865629E-1
 8.196043681875000E9    -2.447631827998641E-1    4.778907381835767E-1   -2.532495337131485E-3   -1.059149398588822E-3   -2.595705814371001E-3   -9.698994030825934E-4   -1.700204336489080E-1    4.143456979110168E-1
 8.196051213350000E9    -2.443132472257151E-1    4.781092298092371E-1   -2.539306885231563E-3   -1.078958840276675E-3   -2.619171976942874E-3   -9.579928201302022E-4   -1.695576564421861E-1    4.144975167163243E-1
 8.196058744825000E9    -2.437720906628863E-1    4.784239652429127E-1   -2.550731073605937E-3   -1.047764920019405E-3   -2.657437099484933E-3   -9.816862345458713E-4   -1.690781740921471E-1    4.147285456339802E-1
 8.196066276300000E9    -2.434430020776594E-1    4.786457687361968E-1   -2.559594442939032E-3   -1.063438230959741E-3   -2.644308500198142E-3   -9.521480900177657E-4   -1.688589375952705E-1    4.148085562565333E-1
 8.196073807775000E9    -2.429329761552294E-1    4.789513506292328E-1   -2.538318905380014E-3   -1.053294731086775E-3   -2.626649595269565E-3   -9.611943172989342E-4   -1.684234450727330E-1    4.150631926701590E-1
 8.196081339250000E9    -2.423931881280673E-1    4.791630265242633E-1   -2.538384862271884E-3   -1.050032502414233E-3   -2.630664843538509E-3   -9.562881389388210E-4   -1.680358968133388E-1    4.152766551347722E-1
 8.196088870725000E9    -2.418563839097786E-1    4.792629601310034E-1   -2.568883941133748E-3   -1.038673347427740E-3   -2.631785497335572E-3   -9.401253005318645E-4   -1.674968482112803E-1    4.155446511905256E-1
 8.196096402200000E9    -2.413496934730329E-1    4.795535802371395E-1   -2.549022385144935E-3   -1.059512114733148E-3   -2.644754137928369E-3   -9.678883412903232E-4   -1.671969483431959E-1    4.156080972127332E-1
 8.196103933675000E9    -2.409636084108891E-1    4.799107996838162E-1   -2.553580350191181E-3   -1.033522248262517E-3   -2.649020485558849E-3   -9.789264090097850E-4   -1.666759338588237E-1    4.156990634290029E-1
 8.196111465150000E9    -2.404435936080691E-1    4.800101091574706E-1   -2.547887800667253E-3   -1.010570243884562E-3   -2.654178719809849E-3   -9.740223551020633E-4   -1.663230539941188E-1    4.157295036383025E-1
 8.196118996625000E9    -2.399262682420227E-1    4.803468211644682E-1   -2.549200765918656E-3   -1.032248155357830E-3   -2.657159143671455E-3   -9.740401088209181E-4   -1.660073984573917E-1    4.158905033361965E-1
 8.196126528100000E9    -2.394913223354284E-1    4.805762886793263E-1   -2.571481845728584E-3   -1.026740131111564E-3   -2.637963937819691E-3   -9.485657451276187E-4   -1.656631637278831E-1    4.160356901012446E-1
 8.196134059575000E9    -2.389109824510032E-1    4.808064609409773E-1   -2.570741485849678E-3   -1.047503585178404E-3   -2.648447915359144E-3   -9.542127106065352E-4   -1.652604168452892E-1    4.162425847031936E-1
 8.196141591050000E9    -2.383642472580657E-1    4.810842908875607E-1   -2.560783849159992E-3   -1.015945144913470E-3   -2.653505611776089E-3   -9.570867270472779E-4   -1.647154411899576E-1    4.163737486587099E-1
 8.196149122525000E9    -2.381089080820479E-1    4.812918841901000E-1   -2.569465236976015E-3   -1.034836768677985E-3   -2.694313903491014E-3   -9.268407414801081E-4   -1.643953640067911E-1    4.166388706767657E-1
 8.196156654000000E9    -2.375609601644596E-1    4.812563269382971E-1   -2.582335211235126E-3   -1.009209800327048E-3   -2.628623601501986E-3   -9.575293887273498E-4   -1.639291742833984E-1    4.167459647751445E-1
 8.196164185475000E9    -2.370307551345133E-1    4.816882206576208E-1   -2.577467315677042E-3   -1.001927722635573E-3   -2.629920140254846E-3   -9.299219257535568E-4   -1.636920940190815E-1    4.167874982244129E-1
 8.196171716950000E9    -2.365269305644787E-1    4.818858162622974E-1   -2.571885732179854E-3   -9.927608765744446E-4   -2.688251929824973E-3   -9.513403590096411E-4   -1.633330139422180E-1    4.169940544051739E-1
 8.196179248425000E9    -2.361219315329194E-1    4.821969277216657E-1   -2.581024872773955E-3   -1.007023376701896E-3   -2.686105129380741E-3   -9.412082812706669E-4   -1.627606511835652E-1    4.170731237974107E-1
 8.196186779900000E9    -2.356197164302039E-1    4.823928424855908E-1   -2.582908620415772E-3   -1.016476060969760E-3   -2.679425769566498E-3   -9.214582827857888E-4   -1.624004141194074E-1    4.172751696634633E-1
 8.196194311375000E9    -2.350166420539166E-1    4.826576257374183E-1   -2.548894897947489E-3   -1.027708469376752E-3   -2.683346292341968E-3   -9.626285393940498E-4   -1.620093732620275E-1    4.173484930010221E-1
 8.196201842850000E9    -2.345857536772311E-1    4.828169715860320E-1   -2.588482963721687E-3   -1.000676928695334E-3   -2.703102102411847E-3   -9.127450459026638E-4   -1.616892227188090E-1    4.175687442438714E-1
 8.196209374325000E9    -2.339736821031091E-1    4.829723927965663E-1   -2.606464283785269E-3   -1.001854495099606E-3   -2.687726234174361E-3   -9.435850187666364E-4   -1.613335569053540E-1    4.176060437465429E-1
 8.196216905800000E9    -2.335878368391809E-1    4.832826886141159E-1   -2.578813662185549E-3   -1.022367100434464E-3   -2.691970258014966E-3   -9.614425479372446E-4   -1.609081153495569E-1    4.177778534200994E-1
 8.196224437275000E9    -2.331950320529966E-1    4.835822954906412E-1   -2.628349742069035E-3   -9.812957887010820E-4   -2.701090188834076E-3   -9.210113017462053E-4   -1.603333015399223E-1    4.179301321143385E-1
 8.196231968750000E9    -2.326577565258099E-1    4.837973459406673E-1   -2.594945997331545E-3   -9.881305008262941E-4   -2.662129326947025E-3   -9.006790035484428E-4   -1.599275016827566E-1    4.180616533734751E-1
 8.196239500225000E9    -2.322084193356702E-1    4.838636275438560E-1   -2.580195269312429E-3   -9.792739187606554E-4   -2.705595656953289E-3   -9.352056387510321E-4   -1.596726124906520E-1    4.182672341326775E-1
 8.196247031700000E9    -2.315873959243349E-1    4.842149481659385E-1   -2.618230582943665E-3   -9.895015543704294E-4   -2.692767013317185E-3   -9.126460289791930E-4   -1.592712105469878E-1    4.184717984543916E-1
 8.196254563175000E9    -2.312011729006442E-1    4.844969308119818E-1   -2.588844635307277E-3   -1.009806172876735E-3   -2.678030352865260E-3   -9.285163105258133E-4   -1.587936810938908E-1    4.184153459567152E-1
 8.196262094650000E9    -2.306864242652059E-1    4.846225749553978E-1   -2.602979185821168E-3   -9.928914863310762E-4   -2.722420480447821E-3   -9.065653843217456E-4   -1.585716732955944E-1    4.187307856392459E-1
 8.196269626125000E9    -2.301714055705964E-1    4.848890639119341E-1   -2.584814582916598E-3   -9.858787343356690E-4   -2.702424329411409E-3   -9.374334338142621E-4   -1.580475733430529E-1    4.187939310809149E-1
 8.196277157600000E9    -2.297803078754770E-1    4.850334996369125E-1   -2.579097729529758E-3   -9.861610980637914E-4   -2.681875904731977E-3   -9.138817365506348E-4   -1.577886710272404E-1    4.189076055675189E-1
 8.196284689075000E9    -2.291802597896343E-1    4.853162080998868E-1   -2.595729575769130E-3   -9.951424029541731E-4   -2.723454855962632E-3   -9.152081733250783E-4   -1.572168279085084E-1    4.189975063703956E-1
 8.196292220550000E9    -2.286363522067004E-1    4.854864138888338E-1   -2.608964964011285E-3   -9.757562421288014E-4   -2.695674026121723E-3   -8.928877369308176E-4   -1.569336900829676E-1    4.192900133997216E-1
 8.196299752025000E9    -2.281441717049463E-1    4.857475941991084E-1   -2.599813276581167E-3   -9.706459481265128E-4   -2.698859620988639E-3   -8.623256940041795E-4   -1.563934392744032E-1    4.193913099905218E-1
 8.196307283500000E9    -2.276645010396947E-1    4.859533795820307E-1   -2.636064768436564E-3   -9.692199537847572E-4   -2.716336513324083E-3   -9.018238337230727E-4   -1.560517569356063E-1    4.195287031206078E-1
 8.196314814975000E9    -2.271790904055154E-1    4.862030675186236E-1   -2.588686112905495E-3   -9.915828288465502E-4   -2.723330093745804E-3   -8.821974447545232E-4   -1.556307472409656E-1    4.195180076594979E-1
 8.196322346450000E9    -2.267364527456986E-1    4.864098363803501E-1   -2.635148418015174E-3   -9.702853543089625E-4   -2.703712576042371E-3   -8.830902163178036E-4   -1.552589172822515E-1    4.197811816165670E-1
 8.196329877925000E9    -2.262281530376594E-1    4.866195655060141E-1   -2.617564356373344E-3   -9.867810439480819E-4   -2.733911991855426E-3   -9.014845710549914E-4   -1.548089717468535E-1    4.197631418959062E-1
 8.196337409400000E9    -2.257579770593605E-1    4.869428757408749E-1   -2.636693052217570E-3   -9.725767307227007E-4   -2.727910711251751E-3   -8.939940479782885E-4   -1.544895659124479E-1    4.199448468756211E-1
 8.196344940875000E9    -2.251343653704918E-1    4.871360207979663E-1   -2.638066676816229E-3   -9.680961758366008E-4   -2.759778534766274E-3   -8.987027195966034E-4   -1.540268310953696E-1    4.200110631266338E-1
 8.196352472350000E9    -2.247643688683132E-1    4.872963000935170E-1   -2.630187338607121E-3   -9.822365408551808E-4   -2.746203981084566E-3   -8.631288880109072E-4   -1.536393358424936E-1    4.202325610035753E-1
 8.196360003825000E9    -2.242929436431886E-1    4.875195098207937E-1   -2.621363130474842E-3   -9.671234707570620E-4   -2.755488892302783E-3   -8.918629505923026E-4   -1.531952286408318E-1    4.203694267956596E-1
 8.196367535300000E9    -2.237645469664747E-1    4.877009508071379E-1   -2.657155761686706E-3   -9.605972047357780E-4   -2.732092141698306E-3   -8.797418600337237E-4   -1.528641238304133E-1    4.206826686552114E-1
 8.196375066775000E9    -2.232647345709036E-1    4.879871131597238E-1   -2.634414240108128E-3   -9.635100926627573E-4   -2.776714054770979E-3   -8.867772289395407E-4   -1.523831193007797E-1    4.206899955379161E-1
 8.196382598250000E9    -2.229073496880179E-1    4.881801009270250E-1   -2.662574403826455E-3   -9.415527969714889E-4   -2.710665944621752E-3   -8.559512837732093E-4   -1.519825893371333E-1    4.208471465156218E-1
 8.196390129725000E9    -2.222597109270244E-1    4.883522946036082E-1   -2.649963037061748E-3   -9.393787470733653E-4   -2.776992684413735E-3   -8.884389774757805E-4   -1.515836575808246E-1    4.210092583589413E-1
 8.196397661200000E9    -2.216742919784479E-1    4.886000077024601E-1   -2.646438922613133E-3   -9.507958428091727E-4   -2.730597744989249E-3   -8.484254375870757E-4   -1.513455981728224E-1    4.211342577566969E-1
 8.196405192675000E9    -2.212253801885090E-1    4.888442573153658E-1   -2.648592511909422E-3   -9.393436540914184E-4   -2.729293065608218E-3   -8.841873462455119E-4   -1.508296901421140E-1    4.211904290278806E-1
 8.196412724150000E9    -2.207883664456310E-1    4.890141488274550E-1   -2.667389426190023E-3   -9.336916513909305E-4   -2.770115032969749E-3   -8.565447675465927E-4   -1.503244771425927E-1    4.214654366966036E-1
 8.196420255625000E9    -2.202295629228875E-1    4.893670774258587E-1   -2.668724919278814E-3   -9.536083502743628E-4   -2.768540026470661E-3   -8.919092747607546E-4   -1.500004462878768E-1    4.214533762276911E-1
 8.196427787100000E9    -2.197587581900280E-1    4.894336121141387E-1   -2.658035545389894E-3   -9.559591865769671E-4   -2.726286918561703E-3   -9.059960873934785E-4   -1.495985827910878E-1    4.216291760050281E-1
 8.196435318575000E9    -2.192202195976270E-1    4.897610267840345E-1   -2.661592283942842E-3   -9.526071468494857E-4   -2.801868254497993E-3   -8.504762056223631E-4   -1.492210515230563E-1    4.218268313031625E-1
 8.196442850050000E9    -2.186612985821924E-1    4.899063675188576E-1   -2.664518470545403E-3   -9.399840937134785E-4   -2.779697490814219E-3   -8.849138694081108E-4   -1.488246038362650E-1    4.218079446819992E-1
 8.196450381525000E9    -2.182177692087236E-1    4.901202330596102E-1   -2.692622695467801E-3   -9.357101435493986E-4   -2.779118925093668E-3   -8.337453800703130E-4   -1.483768386514975E-1    4.220916064650204E-1
 8.196457913000000E9    -2.177678847538811E-1    4.903134262030600E-1   -2.672543477158043E-3   -9.388853721314067E-4   -2.782720544880448E-3   -8.580636357660047E-4   -1.479311085006490E-1    4.223135701199042E-1
 8.196465444475000E9    -2.172632858422003E-1    4.905898550389654E-1   -2.662984861577999E-3   -9.378628956991728E-4   -2.791358553627073E-3   -8.481556999691031E-4   -1.476070141829702E-1    4.224014100784908E-1
 8.196472975950000E9    -2.168411694573544E-1    4.906589085133231E-1   -2.672909325141102E-3   -9.469454267086032E-4   -2.768480247139743E-3   -8.480942609070002E-4   -1.470951126028113E-1    4.223442340170901E-1
 8.196480507425000E9    -2.161913285905101E-1    4.909514034792152E-1   -2.661258038405884E-3   -9.360739747936215E-4   -2.793300762999137E-3   -8.238745287174661E-4   -1.467685378061522E-1    4.223678452423567E-1
 8.196488038900000E9    -2.157855564219247E-1    4.912624353609661E-1   -2.698551172737415E-3   -9.296412664346669E-4   -2.773134990655932E-3   -8.306649682791533E-4   -1.463278871356503E-1    4.224376288131761E-1
 8.196495570375000E9    -2.152458557071441E-1    4.914167538441884E-1   -2.720864843352023E-3   -9.429603018638369E-4   -2.769449900943555E-3   -7.966183159414778E-4   -1.459480579387584E-1    4.227894637349697E-1
 8.196503101850000E9    -2.146055504074469E-1    4.915366420021793E-1   -2.700260804403296E-3   -9.192731685439199E-4   -2.783470387377416E-3   -8.536020453309176E-4   -1.454982119148225E-1    4.228690669218147E-1
 8.196510633325000E9    -2.142816805760230E-1    4.918129351409261E-1   -2.693681033820129E-3   -9.237280030405746E-4   -2.789791133111388E-3   -8.243518071324733E-4   -1.452353499802981E-1    4.229914714286547E-1
 8.196518164800000E9    -2.137998102214293E-1    4.920024042913012E-1   -2.717624950127930E-3   -9.102077570232709E-4   -2.776925440201747E-3   -8.423239991401983E-4   -1.446162025141055E-1    4.231153402009791E-1
 8.196525696275000E9    -2.133229500640279E-1    4.921928931407638E-1   -2.748659712624881E-3   -9.287775827775243E-4   -2.779591283658618E-3   -8.313377714080644E-4   -1.442199420037521E-1    4.232752755979658E-1
 8.196533227750000E9    -2.127755607613782E-1    4.925403639181037E-1   -2.727734662460806E-3   -9.003774235413328E-4   -2.818069034569624E-3   -8.338501665287391E-4   -1.439804928646533E-1    4.234315724606166E-1
