#  HZ   S   RI   R     50.00 
! Rohde & Schwarz Vector Network Analyzer 
! Rohde-Schwarz,ZNB20-2Port,1311601062101988,3.16
! Created: UTC 3/20/2024, 4:57:42 PM
! freq[Hz]                re:S11                  im:S11                  re:S21                  im:S21                  re:S12                  im:S12                  re:S22                  im:S22
 8.181100103000000E9    -3.653236395671813E-1   -4.026631336218024E-1    1.427507837064447E-3   -1.748318241929610E-3    1.486230892789573E-3   -1.808488616436409E-3   -3.724060003412990E-1   -2.780382416894212E-1
 8.181173383600000E9    -3.690750637375703E-1   -3.991971000187746E-1    1.440647040397313E-3   -1.742243264748562E-3    1.454428396731423E-3   -1.826012813808457E-3   -3.750586737008617E-1   -2.748274852469237E-1
 8.181246664200000E9    -3.727876706425167E-1   -3.957297199210914E-1    1.427356528090388E-3   -1.757776894345331E-3    1.458170125946661E-3   -1.832024226375980E-3   -3.772452215823215E-1   -2.715198118590191E-1
 8.181319944800000E9    -3.763527359689082E-1   -3.921537689136002E-1    1.372410035248503E-3   -1.773169449445332E-3    1.436167854157586E-3   -1.839990727406583E-3   -3.794755298744085E-1   -2.679534622853740E-1
 8.181393225400000E9    -3.799326671422223E-1   -3.885688848861049E-1    1.372214872684070E-3   -1.788007462718054E-3    1.430931977791098E-3   -1.853167629793913E-3   -3.817350839222756E-1   -2.646349695070130E-1
 8.181466506000000E9    -3.835707105906124E-1   -3.850508349847777E-1    1.380967033924712E-3   -1.798792313174876E-3    1.409346893472513E-3   -1.862015241370840E-3   -3.838979087403640E-1   -2.611720477519861E-1
 8.181539786600000E9    -3.872018158064741E-1   -3.814410125245983E-1    1.362090211733619E-3   -1.807768904285193E-3    1.378104129784447E-3   -1.867845220499620E-3   -3.863027856755845E-1   -2.577140321708631E-1
 8.181613067200000E9    -3.906406061095952E-1   -3.778404222525582E-1    1.351055391850881E-3   -1.804771320118646E-3    1.344781842941335E-3   -1.910839140585302E-3   -3.884940122393579E-1   -2.543854665425636E-1
 8.181686347800000E9    -3.940537770434907E-1   -3.740251574778060E-1    1.331471474578588E-3   -1.836383193169500E-3    1.344005609974050E-3   -1.902508081526991E-3   -3.905476932919095E-1   -2.508969055231189E-1
 8.181759628400000E9    -3.977244298470003E-1   -3.703955628393859E-1    1.310680485654725E-3   -1.829407413661800E-3    1.323024346239373E-3   -1.944401239276720E-3   -3.927938745397348E-1   -2.473736570697593E-1
 8.181832909000000E9    -4.011286682232041E-1   -3.667381080690947E-1    1.297537561075312E-3   -1.850208532255742E-3    1.328222488909970E-3   -1.939244776502444E-3   -3.947378961727276E-1   -2.438573623067736E-1
 8.181906189600000E9    -4.045646195937823E-1   -3.628116378691617E-1    1.298203123459219E-3   -1.831991719383634E-3    1.301993764983601E-3   -1.934728217981897E-3   -3.968568905222720E-1   -2.402769506611797E-1
 8.181979470200000E9    -4.079767486008686E-1   -3.590639765994457E-1    1.257408110399378E-3   -1.862272835683757E-3    1.307369859658777E-3   -1.969868163401455E-3   -3.989548495473725E-1   -2.368927348121036E-1
 8.182052750800000E9    -4.112363233300517E-1   -3.552356080214660E-1    1.258346198338838E-3   -1.902578530314964E-3    1.254803352636653E-3   -1.979568869485486E-3   -4.010229588403900E-1   -2.333836796202574E-1
 8.182126031400000E9    -4.145309332506198E-1   -3.513365933160844E-1    1.215908154312101E-3   -1.918040000257659E-3    1.252095533794004E-3   -2.005345402012385E-3   -4.029953895791322E-1   -2.295934632856342E-1
 8.182199312000000E9    -4.181199480532458E-1   -3.474649342460934E-1    1.210590285888014E-3   -1.912935262195628E-3    1.231602626908869E-3   -1.992956438373544E-3   -4.049214345272728E-1   -2.260053094823429E-1
 8.182272592600000E9    -4.210236315075237E-1   -3.435749170937214E-1    1.196183753120134E-3   -1.901823367316955E-3    1.216124819425038E-3   -2.013472439633363E-3   -4.067069198922283E-1   -2.226308608661054E-1
 8.182345873200000E9    -4.242494976756755E-1   -3.395915820667324E-1    1.174611215077305E-3   -1.925556848303137E-3    1.214696892725677E-3   -2.057117512464810E-3   -4.085922126809181E-1   -2.188836905430103E-1
 8.182419153800000E9    -4.274000461954257E-1   -3.353574487662097E-1    1.172075388657702E-3   -1.946784933286690E-3    1.176741333865726E-3   -2.022709925343841E-3   -4.104325996386895E-1   -2.152305512540713E-1
 8.182492434400000E9    -4.305354094797703E-1   -3.315964193392092E-1    1.156374978058883E-3   -1.951693390304664E-3    1.148487969752155E-3   -2.061530048557812E-3   -4.122377129720302E-1   -2.115604588454204E-1
 8.182565715000000E9    -4.335948234049329E-1   -3.275094195539914E-1    1.112552225233604E-3   -1.963615068327287E-3    1.137088654746535E-3   -2.041378217364464E-3   -4.141081245430843E-1   -2.079284520659781E-1
 8.182638995600000E9    -4.366380342268863E-1   -3.234253519656508E-1    1.089830411988769E-3   -1.978319256162401E-3    1.144365724276017E-3   -2.051190267894989E-3   -4.157837415757307E-1   -2.041713697765656E-1
 8.182712276200000E9    -4.395615660033729E-1   -3.191100291791873E-1    1.063278834205539E-3   -2.001524245498149E-3    1.086697927057343E-3   -2.062679583288814E-3   -4.175704678168806E-1   -2.004730899887533E-1
 8.182785556800000E9    -4.425252146211410E-1   -3.150112393041693E-1    1.074616575575363E-3   -2.015127673653505E-3    1.107300017587380E-3   -2.093357563965443E-3   -4.192848641092908E-1   -1.966785828552742E-1
 8.182858837400000E9    -4.455602838860505E-1   -3.109285031309180E-1    1.063947818313953E-3   -1.976572398818589E-3    1.071271247888008E-3   -2.071352188569209E-3   -4.209076160065893E-1   -1.929915225177020E-1
 8.182932118000000E9    -4.483959375618700E-1   -3.067251480853674E-1    1.031010693757145E-3   -2.025098594579776E-3    1.032768056330247E-3   -2.098414319373838E-3   -4.226206594370168E-1   -1.892804209819619E-1
 8.183005398600000E9    -4.513402334876763E-1   -3.025008158526318E-1    1.021732341128527E-3   -2.011265927854990E-3    1.016768521040883E-3   -2.131679402159872E-3   -4.241567132651742E-1   -1.853773318800240E-1
 8.183078679200000E9    -4.540847194074555E-1   -2.982719371113838E-1    1.012571915415537E-3   -2.030554607857866E-3    9.949404141890664E-4   -2.121721288335153E-3   -4.256890585640010E-1   -1.816787792171642E-1
 8.183151959800000E9    -4.566811215222809E-1   -2.940113364076792E-1    9.806061952853521E-4   -2.067889184944504E-3    1.005766887509742E-3   -2.163825238378008E-3   -4.271043844232149E-1   -1.780008672870984E-1
 8.183225240400000E9    -4.594341554166017E-1   -2.896060527961911E-1    9.768789751505482E-4   -2.037920558089212E-3    9.752503075780876E-4   -2.166654459991682E-3   -4.286240944825147E-1   -1.739985745866143E-1
 8.183298521000000E9    -4.622562324970210E-1   -2.853447248552345E-1    9.653491801959276E-4   -2.075974368610711E-3    9.616732871525588E-4   -2.167072179643018E-3   -4.300407653458600E-1   -1.704236698389340E-1
 8.183371801600000E9    -4.648191109104385E-1   -2.811018653081563E-1    9.508460189245066E-4   -2.080076414213015E-3    9.285330641605546E-4   -2.131894867568125E-3   -4.314867621674785E-1   -1.663988000571376E-1
 8.183445082200000E9    -4.674620618976294E-1   -2.766650003176819E-1    9.061023932915574E-4   -2.101813953059393E-3    9.404780978637845E-4   -2.187938111165790E-3   -4.329471259480678E-1   -1.626598799559555E-1
 8.183518362800000E9    -4.699950157903403E-1   -2.721912061650307E-1    8.918761677638850E-4   -2.067161423976605E-3    9.100986752412294E-4   -2.165277239873617E-3   -4.343534930535901E-1   -1.588620308007514E-1
 8.183591643400000E9    -4.724471590979418E-1   -2.677494003813276E-1    8.832967500398633E-4   -2.098855132346744E-3    8.714221785809243E-4   -2.177460860537434E-3   -4.354677986248737E-1   -1.548752538737638E-1
 8.183664924000000E9    -4.749032197974550E-1   -2.634141903212057E-1    8.460693213568952E-4   -2.105425113209882E-3    8.887941270066943E-4   -2.167042568826702E-3   -4.366989150576165E-1   -1.510172298142038E-1
 8.183738204600000E9    -4.774409576619782E-1   -2.588451470499206E-1    8.133280885432666E-4   -2.139836421851027E-3    8.447622928872829E-4   -2.205129433828887E-3   -4.381295808238226E-1   -1.472407273490424E-1
 8.183811485200000E9    -4.796994013996990E-1   -2.543892653041849E-1    8.247997319694222E-4   -2.112432060068029E-3    7.951648884554000E-4   -2.218343891536890E-3   -4.393883751696506E-1   -1.432417769922162E-1
 8.183884765800000E9    -4.821372822251255E-1   -2.498978154472523E-1    7.947070286593227E-4   -2.158599482576739E-3    7.956407690810897E-4   -2.206673749341326E-3   -4.403902230829984E-1   -1.393618606040316E-1
 8.183958046400000E9    -4.845101786233280E-1   -2.453123796321586E-1    7.778192386998028E-4   -2.140195831959690E-3    7.968190679468017E-4   -2.244634193325698E-3   -4.416012164502920E-1   -1.356196267947620E-1
 8.184031327000000E9    -4.867804851639747E-1   -2.406593796346735E-1    7.738769740598649E-4   -2.169812281664890E-3    7.643397376755617E-4   -2.235194690101820E-3   -4.426306781108920E-1   -1.316603662052990E-1
 8.184104607600000E9    -4.889760378810132E-1   -2.361214516783068E-1    7.189072859461557E-4   -2.167140463662232E-3    7.197143155835215E-4   -2.255722392431029E-3   -4.439001074148847E-1   -1.276110098268738E-1
 8.184177888200000E9    -4.910486848263594E-1   -2.314467971535196E-1    7.208444867516327E-4   -2.176681524217326E-3    6.748210644434217E-4   -2.240301827810755E-3   -4.448029663945116E-1   -1.237026778388956E-1
 8.184251168800000E9    -4.932293561967320E-1   -2.267625925030955E-1    7.059901511629577E-4   -2.166977982333500E-3    7.315459197362145E-4   -2.263350512684702E-3   -4.457740658102546E-1   -1.198181311193043E-1
 8.184324449400000E9    -4.952145579036650E-1   -2.222172268333184E-1    6.919857029740378E-4   -2.174077700879989E-3    6.738143842365460E-4   -2.256054968302963E-3   -4.467021803161147E-1   -1.158380401970902E-1
 8.184397730000000E9    -4.973091687217652E-1   -2.175955146118807E-1    6.857429513202388E-4   -2.206804114637711E-3    6.484454671450507E-4   -2.292408002716639E-3   -4.476537366102766E-1   -1.119557689725763E-1
 8.184471010600000E9    -4.993498864282848E-1   -2.129637457990274E-1    6.359067231425905E-4   -2.184088027434940E-3    6.077700200087072E-4   -2.284113932400067E-3   -4.485864670175799E-1   -1.079156428799998E-1
 8.184544291200000E9    -5.013768391127889E-1   -2.080530022333648E-1    6.241370310260417E-4   -2.199878029320788E-3    6.195010921576901E-4   -2.306456883411651E-3   -4.495357981600132E-1   -1.037885387855932E-1
 8.184617571800000E9    -5.032422564571233E-1   -2.033501954462078E-1    6.185727344137977E-4   -2.216134345584473E-3    6.099371022494036E-4   -2.276322032616238E-3   -4.502429768795078E-1   -9.997460881114655E-2
 8.184690852400000E9    -5.050484086729048E-1   -1.986858835475039E-1    5.669075248685227E-4   -2.205193905296069E-3    5.670759615967017E-4   -2.292490714037744E-3   -4.509784331827193E-1   -9.588796143082773E-2
 8.184764133000000E9    -5.069576727081740E-1   -1.939232531833353E-1    5.485519980418076E-4   -2.208685418112794E-3    5.552768580865222E-4   -2.326729146364660E-3   -4.519036014824189E-1   -9.184748274715458E-2
 8.184837413600000E9    -5.087341431426248E-1   -1.891249133310415E-1    5.790895915695200E-4   -2.234040640780704E-3    5.191056538338932E-4   -2.306354550159871E-3   -4.526937751868734E-1   -8.790940893950101E-2
 8.184910694200000E9    -5.105281849546206E-1   -1.841809335395972E-1    5.297073718712933E-4   -2.255399724033340E-3    5.012269437700926E-4   -2.313250672733208E-3   -4.533666898102639E-1   -8.393228867631175E-2
 8.184983974800000E9    -5.121879496985182E-1   -1.794595667246617E-1    5.054685064619405E-4   -2.234896896944973E-3    5.016144045830915E-4   -2.330145481884888E-3   -4.539337014995511E-1   -7.979839101464234E-2
 8.185057255400000E9    -5.138922507728141E-1   -1.745579619499580E-1    4.735110381287180E-4   -2.265003089833941E-3    4.616924063442050E-4   -2.323426968821853E-3   -4.544781028133694E-1   -7.579310477974173E-2
 8.185130536000000E9    -5.154825846901928E-1   -1.698720569276653E-1    4.862629648928094E-4   -2.247832818942078E-3    4.787650252036373E-4   -2.360763008884278E-3   -4.551517971467790E-1   -7.186596897591975E-2
 8.185203816600000E9    -5.169589173723002E-1   -1.649478383027335E-1    4.713309727708571E-4   -2.282053915774656E-3    4.320464992451523E-4   -2.353714629884905E-3   -4.556261582965666E-1   -6.763784306815221E-2
 8.185277097200000E9    -5.185600460533266E-1   -1.601892170224484E-1    4.188122054057500E-4   -2.290970509874641E-3    4.043471418279516E-4   -2.364095432086571E-3   -4.560975747700168E-1   -6.378706171408756E-2
 8.185350377800000E9    -5.199842942604193E-1   -1.552285148097980E-1    4.103305060504272E-4   -2.260770581819626E-3    4.200193753224397E-4   -2.317821742107344E-3   -4.566904392208711E-1   -5.970164785245848E-2
 8.185423658400000E9    -5.213796174099613E-1   -1.502772221165792E-1    3.994800821388069E-4   -2.265673212060353E-3    3.500478288960714E-4   -2.351942361269429E-3   -4.571421858944842E-1   -5.572111860071895E-2
 8.185496939000000E9    -5.227148087854242E-1   -1.453374018595306E-1    3.920659825945504E-4   -2.284350087249060E-3    3.220453601573354E-4   -2.373740556983603E-3   -4.574881157317534E-1   -5.170680581172447E-2
 8.185570219600000E9    -5.240350900637724E-1   -1.403842642333122E-1    3.731286706870858E-4   -2.265964150444830E-3    3.184604043439867E-4   -2.378395565254808E-3   -4.577305764667888E-1   -4.763363937266477E-2
 8.185643500200000E9    -5.253251073977083E-1   -1.353962462783228E-1    3.424303888782214E-4   -2.269059286134299E-3    2.889854779371572E-4   -2.395570181542543E-3   -4.582268416991357E-1   -4.351624540318860E-2
 8.185716780800000E9    -5.265495887502225E-1   -1.304915723412625E-1    3.008906313372307E-4   -2.289993290805988E-3    2.607488447441425E-4   -2.371868690386265E-3   -4.584340648401429E-1   -3.932910285871059E-2
 8.185790061400000E9    -5.276463785721618E-1   -1.255079514098488E-1    3.096798096670108E-4   -2.289322405873979E-3    2.460526236297472E-4   -2.367081341902535E-3   -4.586180931375157E-1   -3.534177834266586E-2
 8.185863342000000E9    -5.288602094565172E-1   -1.205071811012622E-1    2.423282635544947E-4   -2.310571384929517E-3    2.270832519121637E-4   -2.428463529090754E-3   -4.590062628737857E-1   -3.133817520493168E-2
 8.185936622600000E9    -5.299148912295935E-1   -1.156842466111653E-1    2.576767811521141E-4   -2.299691988051852E-3    2.025879385786506E-4   -2.377654575618907E-3   -4.590011102975066E-1   -2.718939542380347E-2
 8.186009903200000E9    -5.309598388619579E-1   -1.105373542913787E-1    2.580910495803881E-4   -2.286090223237320E-3    1.850103519093172E-4   -2.413598879676640E-3   -4.594091934107314E-1   -2.315103166433031E-2
 8.186083183800000E9    -5.319702990916102E-1   -1.055153358222013E-1    2.168683022359779E-4   -2.307706419596798E-3    1.682327429644146E-4   -2.379937236153100E-3   -4.594730013292646E-1   -1.913947442415917E-2
 8.186156464400000E9    -5.330610109006060E-1   -1.004389799583338E-1    1.876015944349396E-4   -2.297213623671979E-3    1.467689810569099E-4   -2.431342513327992E-3   -4.594730237029594E-1   -1.492556822648578E-2
 8.186229745000000E9    -5.338469134385122E-1   -9.539913442488844E-2    1.359629217805186E-4   -2.315487312649213E-3    1.373982211198598E-4   -2.419671965570731E-3   -4.594608473696090E-1   -1.094041674061830E-2
 8.186303025600000E9    -5.347552879528277E-1   -9.035802856967366E-2    1.633574838767269E-4   -2.333755071920974E-3    1.206930066440305E-4   -2.401168953130785E-3   -4.594249525459257E-1   -6.956053262714312E-3
 8.186376306200000E9    -5.355685208171086E-1   -8.530189539398436E-2    1.600601690245176E-4   -2.328812830286954E-3    1.041208712138558E-4   -2.379707007986886E-3   -4.595586805751369E-1   -2.748896601766444E-3
 8.186449586800000E9    -5.362984373936069E-1   -8.042407962807549E-2    9.133161861042772E-5   -2.304685517395704E-3    3.979329692668270E-5   -2.395822599530973E-3   -4.594511801815660E-1    1.193360227072674E-3
 8.186522867400000E9    -5.370137265859267E-1   -7.529093783519260E-2    6.444684476885368E-5   -2.336354515492895E-3   -6.017711206111893E-6   -2.434285158237560E-3   -4.592755185491970E-1    5.299413780693965E-3
 8.186596148000000E9    -5.376304487770909E-1   -7.004785997160226E-2    5.140170079591375E-5   -2.330935301840359E-3    3.172178462845099E-5   -2.382019291265510E-3   -4.593254327368210E-1    9.401230350888063E-3
 8.186669428600000E9    -5.382810997370753E-1   -6.507580698277091E-2    1.546405384236230E-5   -2.322577558115745E-3   -1.174223520984871E-5   -2.420338559552023E-3   -4.590126954116229E-1    1.336982956781449E-2
 8.186742709200000E9    -5.388079875420045E-1   -6.006066242635562E-2    1.649017677519351E-5   -2.310348559108307E-3   -3.199917768380151E-5   -2.418689410238253E-3   -4.587816489120519E-1    1.758786584736509E-2
 8.186815989800000E9    -5.393154313672743E-1   -5.481728013227238E-2   -7.743033898090110E-6   -2.331200529191035E-3   -5.416062721575397E-5   -2.426275308009243E-3   -4.585329550833124E-1    2.141350106549046E-2
 8.186889270400000E9    -5.398564678525736E-1   -4.969930703916881E-2   -1.858141698187577E-5   -2.349149752223617E-3   -6.189754670699831E-5   -2.440377747589129E-3   -4.583318279488600E-1    2.567945678723921E-2
 8.186962551000000E9    -5.403750793429762E-1   -4.473584675722492E-2   -4.810296461460096E-5   -2.325520456142860E-3   -9.509887129915986E-5   -2.404474962080066E-3   -4.577182535104100E-1    2.954088679213119E-2
 8.187035831600000E9    -5.406690959296024E-1   -3.961813132524291E-2   -9.458146919518875E-5   -2.334506598205170E-3   -9.577575051747739E-5   -2.405195546557362E-3   -4.576529458978261E-1    3.386829956447723E-2
 8.187109112200000E9    -5.410814176787829E-1   -3.447600619306296E-2   -7.626992805228458E-5   -2.345083654566067E-3   -1.498830257348099E-4   -2.420176271946082E-3   -4.570595716600763E-1    3.767902023316368E-2
 8.187182392800000E9    -5.412182036291301E-1   -2.944276418623719E-2   -1.228336312090240E-4   -2.339427999182886E-3   -1.582402933880760E-4   -2.411818444276153E-3   -4.567025111864709E-1    4.196928580699229E-2
 8.187255673400000E9    -5.415029951235951E-1   -2.431250174913666E-2   -1.517157945832537E-4   -2.355487154665227E-3   -1.929861480216130E-4   -2.404112672095348E-3   -4.561983186785048E-1    4.582542741652735E-2
 8.187328954000000E9    -5.415996755097030E-1   -1.914997464740509E-2   -1.358506246332848E-4   -2.354128405398721E-3   -2.178110431119723E-4   -2.435732383733666E-3   -4.557551643797024E-1    5.004740853562049E-2
 8.187402234600000E9    -5.417827572582694E-1   -1.398803940666998E-2   -1.554113844920984E-4   -2.340030219264104E-3   -2.278144912930376E-4   -2.407944551575123E-3   -4.552022855653496E-1    5.380788486145902E-2
 8.187475515200000E9    -5.418394549033807E-1   -8.956585452552693E-3   -2.027561831985558E-4   -2.337715813445395E-3   -2.433137315885386E-4   -2.412130145990462E-3   -4.547241544698643E-1    5.788735605763583E-2
 8.187548795800000E9    -5.418976469486255E-1   -3.847641310773174E-3   -2.203836750732050E-4   -2.325909590543971E-3   -2.838110327226267E-4   -2.405832225389764E-3   -4.540427341269050E-1    6.197297578983955E-2
 8.187622076400000E9    -5.418506549013562E-1    1.383365558678443E-3   -2.333447719290505E-4   -2.349506516981361E-3   -2.872604118112803E-4   -2.387949640747383E-3   -4.534731056008793E-1    6.591212916203140E-2
 8.187695357000000E9    -5.418258082946827E-1    6.431106127411546E-3   -2.759930065255827E-4   -2.337827785402776E-3   -3.401058375617208E-4   -2.418672144602699E-3   -4.527601528721711E-1    6.990977717680608E-2
