#  HZ   S   RI   R     50.00 
! Rohde & Schwarz Vector Network Analyzer 
! Rohde-Schwarz,ZNB20-2Port,1311601062101988,3.16
! Created: UTC 3/20/2024, 5:12:57 PM
! freq[Hz]                re:S11                  im:S11                  re:S21                  im:S21                  re:S12                  im:S12                  re:S22                  im:S22
 8.195951632000000E9    -2.507681777488675E-1    4.748481096529643E-1   -2.513391379705316E-3   -1.088319902003538E-3   -2.628570876034933E-3   -1.018843626858931E-3   -1.748255776626499E-1    4.126925017032859E-1
 8.195958755675000E9    -2.501960264053051E-1    4.749799720160751E-1   -2.501220194250945E-3   -1.088108735253422E-3   -2.604355674638649E-3   -9.630188143332564E-4   -1.744290446399600E-1    4.127535098422687E-1
 8.195965879350000E9    -2.498645558308066E-1    4.755657712616309E-1   -2.498899522363243E-3   -1.066883369127953E-3   -2.616860070388891E-3   -9.759282450499798E-4   -1.741563383968250E-1    4.129439245742465E-1
 8.195973003025000E9    -2.492511185806079E-1    4.756629272432346E-1   -2.494793434168974E-3   -1.074518342616658E-3   -2.618064629529138E-3   -1.020173289927042E-3   -1.737760444642213E-1    4.131439046262410E-1
 8.195980126700000E9    -2.488338383404578E-1    4.758950248969317E-1   -2.525570549525617E-3   -1.065487059228119E-3   -2.605430099797038E-3   -1.015170071797006E-3   -1.731624989131719E-1    4.131978745437384E-1
 8.195987250375000E9    -2.485038573468610E-1    4.761582281003426E-1   -2.497569442327386E-3   -1.078322486173105E-3   -2.618981232403273E-3   -9.840057778411420E-4   -1.728737628776462E-1    4.133510922699927E-1
 8.195994374050000E9    -2.479651825413807E-1    4.762592939937991E-1   -2.510656272985874E-3   -1.047391339076438E-3   -2.635361238303160E-3   -1.014131573044286E-3   -1.724375876936831E-1    4.135275260497381E-1
 8.196001497725000E9    -2.474600478870209E-1    4.766240504869127E-1   -2.517938326485696E-3   -1.066862884111716E-3   -2.627438313120620E-3   -9.805932746293721E-4   -1.722295712891676E-1    4.135540881956106E-1
 8.196008621400000E9    -2.469522808392747E-1    4.768673487109864E-1   -2.551318899655210E-3   -1.056631896258358E-3   -2.608953743584382E-3   -9.886288163954593E-4   -1.717787315317006E-1    4.136769359460875E-1
 8.196015745075000E9    -2.466535893799527E-1    4.769516397702475E-1   -2.502999109468293E-3   -1.042250315823330E-3   -2.602846515297966E-3   -9.820511347011186E-4   -1.714568025875771E-1    4.137287611815275E-1
 8.196022868750000E9    -2.461435661968726E-1    4.773106768866440E-1   -2.521317217367101E-3   -1.080807378755343E-3   -2.634596676826521E-3   -1.003560356371101E-3   -1.712394569715525E-1    4.140570115967299E-1
 8.196029992425000E9    -2.457144344687091E-1    4.773662955256321E-1   -2.524757922168642E-3   -1.057618198924492E-3   -2.612211103177520E-3   -9.702234396117383E-4   -1.707253846013624E-1    4.141993212543884E-1
 8.196037116100000E9    -2.451343598797918E-1    4.776310910030673E-1   -2.532369984427028E-3   -1.057438374415080E-3   -2.643854018913225E-3   -1.006951418692663E-3   -1.703059953973631E-1    4.143306305297739E-1
 8.196044239775000E9    -2.446060918516850E-1    4.779049799060612E-1   -2.513325159435827E-3   -1.055933616764260E-3   -2.638867918327576E-3   -9.918210884757861E-4   -1.699624143633026E-1    4.144625244706022E-1
 8.196051363450000E9    -2.442760709737475E-1    4.780740586813316E-1   -2.538806928173354E-3   -1.073826731846078E-3   -2.609485980258966E-3   -9.819986877802711E-4   -1.694840136133838E-1    4.147360476164534E-1
 8.196058487125000E9    -2.439443644007428E-1    4.784004480547167E-1   -2.539634807196143E-3   -1.044687708273188E-3   -2.655005710228231E-3   -9.909728894457845E-4   -1.692449554940780E-1    4.148989047015776E-1
 8.196065610800000E9    -2.433450007979849E-1    4.786509780564733E-1   -2.542688430949530E-3   -1.043741133167300E-3   -2.637444043544317E-3   -9.652500080393424E-4   -1.687371333414190E-1    4.148821487200830E-1
 8.196072734475000E9    -2.428524561078792E-1    4.786925764186594E-1   -2.537648943781582E-3   -1.028023879040370E-3   -2.669782355597621E-3   -9.877942624113628E-4   -1.684950166319161E-1    4.150944292118951E-1
 8.196079858150000E9    -2.423874984456963E-1    4.790887347913025E-1   -2.531347474149088E-3   -1.045821215313202E-3   -2.647024792975852E-3   -9.554414469326683E-4   -1.682374645752687E-1    4.152457674019097E-1
 8.196086981825000E9    -2.419668723851074E-1    4.793084666662270E-1   -2.514558471403473E-3   -1.046976502181914E-3   -2.643528468008221E-3   -9.712878269573168E-4   -1.676920169168079E-1    4.153582640221254E-1
 8.196094105500000E9    -2.414132732468133E-1    4.794587028428360E-1   -2.545645702376614E-3   -1.056460321164335E-3   -2.655328344612293E-3   -9.291627848904666E-4   -1.673378541961392E-1    4.154582628136192E-1
 8.196101229175000E9    -2.411141583728588E-1    4.797545116526885E-1   -2.539925236088797E-3   -1.034276068533147E-3   -2.650204312738361E-3   -9.747334790229541E-4   -1.668478495574013E-1    4.156326623194739E-1
 8.196108352850000E9    -2.406183099963367E-1    4.799345385415749E-1   -2.563080815043478E-3   -1.040588628167961E-3   -2.657980859904383E-3   -9.344079939600051E-4   -1.664247166537331E-1    4.157595092029816E-1
 8.196115476525000E9    -2.402111701394066E-1    4.801056661577397E-1   -2.546921082141326E-3   -1.020855396170988E-3   -2.651279334304174E-3   -9.421509343716517E-4   -1.661150081580066E-1    4.158402289898311E-1
 8.196122600200000E9    -2.396137270191787E-1    4.804382380121109E-1   -2.557843920188516E-3   -1.042489178043436E-3   -2.637211403894181E-3   -9.470027603242670E-4   -1.658000333934349E-1    4.160376818424778E-1
 8.196129723875000E9    -2.392810266990549E-1    4.806094199085547E-1   -2.587574802372886E-3   -1.029854265932934E-3   -2.656186790649541E-3   -9.444046979573577E-4   -1.653721106187805E-1    4.160403741153713E-1
 8.196136847550000E9    -2.386372598950190E-1    4.808454500930041E-1   -2.549762968819371E-3   -1.000901132538069E-3   -2.648941940895834E-3   -9.486301568507073E-4   -1.650604297453687E-1    4.161482931397472E-1
 8.196143971225000E9    -2.382306114434846E-1    4.809972679539362E-1   -2.552431004241506E-3   -1.002832930989841E-3   -2.651230276375927E-3   -9.227646102686583E-4   -1.647083016284677E-1    4.164537704259364E-1
 8.196151094900000E9    -2.377739484797474E-1    4.811082944180544E-1   -2.574023648825080E-3   -1.003018217245635E-3   -2.675914930479847E-3   -9.651544421082600E-4   -1.643856728525048E-1    4.167069385234779E-1
 8.196158218575000E9    -2.373312003422699E-1    4.814895799650180E-1   -2.567766053942030E-3   -9.958821876345199E-4   -2.636689334902796E-3   -9.339607188096937E-4   -1.640712847322531E-1    4.166559703469306E-1
 8.196165342250000E9    -2.369897181444811E-1    4.817086228661046E-1   -2.535683603677439E-3   -1.037307413323130E-3   -2.681401725406768E-3   -9.599047475549807E-4   -1.635001604278292E-1    4.169604581273111E-1
 8.196172465925000E9    -2.364502805772531E-1    4.819361788501567E-1   -2.577856820890304E-3   -1.032625374458658E-3   -2.642484490207143E-3   -9.460266250550335E-4   -1.630745175074535E-1    4.169973596848641E-1
 8.196179589600000E9    -2.360140280335559E-1    4.820810658315547E-1   -2.560936282094980E-3   -9.974547541233632E-4   -2.702402836821966E-3   -9.306881939400648E-4   -1.627801377886442E-1    4.171769001228883E-1
 8.196186713275000E9    -2.355191551564470E-1    4.823550484764300E-1   -2.603234140486248E-3   -1.023312407904016E-3   -2.687752435153085E-3   -9.193558716315680E-4   -1.623040343663076E-1    4.174610872490885E-1
 8.196193836950000E9    -2.351381997288522E-1    4.825227617808438E-1   -2.598403095469305E-3   -1.004914922498658E-3   -2.691543203026217E-3   -9.220425570073285E-4   -1.620028127372893E-1    4.173272339998498E-1
 8.196200960625000E9    -2.346458255853105E-1    4.828854697317869E-1   -2.573910711569423E-3   -1.015896126574014E-3   -2.682155522579378E-3   -9.186971985627434E-4   -1.616426052365189E-1    4.176371563925582E-1
 8.196208084300000E9    -2.342052738569463E-1    4.830437921679853E-1   -2.589163342865936E-3   -1.015078574333758E-3   -2.697428962247867E-3   -9.367077800734852E-4   -1.612467518822308E-1    4.176569108836637E-1
 8.196215207975000E9    -2.336908882786331E-1    4.832550698411592E-1   -2.599720778151497E-3   -1.032365385941118E-3   -2.689838346464402E-3   -9.417964405097152E-4   -1.609653571080858E-1    4.177935978341670E-1
 8.196222331650000E9    -2.332119089111056E-1    4.834128131643031E-1   -2.602741835469987E-3   -1.016279225949590E-3   -2.670684966739912E-3   -9.188829017989660E-4   -1.606400345434603E-1    4.179388118238355E-1
 8.196229455325000E9    -2.326894355145961E-1    4.836729494505917E-1   -2.589222517445001E-3   -1.019360561503809E-3   -2.675235817778123E-3   -9.255392027611843E-4   -1.602864716407733E-1    4.179642797084262E-1
 8.196236579000000E9    -2.324732222264758E-1    4.838580878533841E-1   -2.608522725862128E-3   -9.809964986012565E-4   -2.670493405098510E-3   -9.473100508095330E-4   -1.597582977981928E-1    4.181572311341358E-1
 8.196243702675000E9    -2.318436862147892E-1    4.841218916549389E-1   -2.609414831683481E-3   -1.024114125621935E-3   -2.695261735420253E-3   -9.063452552489576E-4   -1.594308486219298E-1    4.182887142351394E-1
 8.196250826350000E9    -2.313880658827089E-1    4.843973775530101E-1   -2.605967480216163E-3   -1.018003540725701E-3   -2.725703751606001E-3   -9.674855735733212E-4   -1.589415788714152E-1    4.182963559311875E-1
 8.196257950025000E9    -2.308525160536331E-1    4.845138035588958E-1   -2.588156400897154E-3   -1.004669950508647E-3   -2.689646044698131E-3   -8.790623508167417E-4   -1.586957778073208E-1    4.184854227807911E-1
 8.196265073700000E9    -2.304719847303306E-1    4.847523001263797E-1   -2.604006824973355E-3   -1.000078140691187E-3   -2.687123759480841E-3   -9.225638014037138E-4   -1.582870407591358E-1    4.186345614632517E-1
 8.196272197375000E9    -2.300591578924498E-1    4.849473547748323E-1   -2.628221562114108E-3   -1.004836006078912E-3   -2.688847675711239E-3   -8.912395692526424E-4   -1.578415983260374E-1    4.188767488082484E-1
 8.196279321050000E9    -2.295185406840724E-1    4.851943036580796E-1   -2.598933296703691E-3   -9.865027441437293E-4   -2.714275868848454E-3   -9.108994993917856E-4   -1.575356808293701E-1    4.188650191163016E-1
 8.196286444725000E9    -2.289391239470102E-1    4.852852073723596E-1   -2.617718042125346E-3   -9.775074664984901E-4   -2.721007811839324E-3   -9.147762228026013E-4   -1.570848159954313E-1    4.189894244506282E-1
 8.196293568400000E9    -2.285339185032276E-1    4.856852747386092E-1   -2.611560009882307E-3   -9.594713742845502E-4   -2.723382179944731E-3   -9.034927423526577E-4   -1.566787147378892E-1    4.192473258545973E-1
 8.196300692075000E9    -2.282141791984311E-1    4.857833452111542E-1   -2.605460548546016E-3   -9.751240769528989E-4   -2.719065672728527E-3   -8.950705339398579E-4   -1.563497062834011E-1    4.194040923952853E-1
 8.196307815750000E9    -2.277348135645182E-1    4.859930794696337E-1   -2.616861200538130E-3   -1.001036057522806E-3   -2.694423136057191E-3   -9.396058635191001E-4   -1.559498683397718E-1    4.195204079527436E-1
 8.196314939425000E9    -2.271413067225113E-1    4.861652311529135E-1   -2.624425517867251E-3   -9.818939028870971E-4   -2.718698015103123E-3   -8.930310838394111E-4   -1.554575906657231E-1    4.194354605378490E-1
 8.196322063100000E9    -2.266805632209129E-1    4.863598545938323E-1   -2.627622462868321E-3   -9.688639600609532E-4   -2.732401991560942E-3   -9.124418925474758E-4   -1.552290310605895E-1    4.197482958163090E-1
 8.196329186775000E9    -2.262126676572673E-1    4.865507909867905E-1   -2.638764239538671E-3   -9.649513240689855E-4   -2.736281238065490E-3   -8.842604224043375E-4   -1.549060797371431E-1    4.197508346728916E-1
 8.196336310450000E9    -2.258002746712218E-1    4.869134083248755E-1   -2.654610901143743E-3   -9.876227579421479E-4   -2.720338671386076E-3   -8.633209733954179E-4   -1.544625790436043E-1    4.198494493810894E-1
 8.196343434125000E9    -2.253607081995077E-1    4.870708860581296E-1   -2.635249776924394E-3   -9.948549550548528E-4   -2.741834447511082E-3   -8.962065727249864E-4   -1.540815440749397E-1    4.201706910338198E-1
 8.196350557800000E9    -2.249124951881424E-1    4.870994303292016E-1   -2.632483056078077E-3   -9.627216645074941E-4   -2.759408884127402E-3   -8.722245470205281E-4   -1.538086531039618E-1    4.201060850896948E-1
 8.196357681475000E9    -2.243534757923380E-1    4.873232386980089E-1   -2.630747314367812E-3   -9.802230060630618E-4   -2.719118910445464E-3   -8.668709125991007E-4   -1.533003259945714E-1    4.204313091009824E-1
 8.196364805150000E9    -2.239605287170453E-1    4.875750315046328E-1   -2.631756545366291E-3   -9.540984674138954E-4   -2.721889453030635E-3   -8.700933042828647E-4   -1.528232286304949E-1    4.205502492705313E-1
 8.196371928825000E9    -2.235553489211261E-1    4.878828281576201E-1   -2.672833279842928E-3   -9.657998442838559E-4   -2.732426178834286E-3   -8.842139324842283E-4   -1.525930203404768E-1    4.205076243067277E-1
 8.196379052500000E9    -2.230382882281535E-1    4.880372444038050E-1   -2.645431617874088E-3   -9.629573539277719E-4   -2.740741107104548E-3   -8.983747813365124E-4   -1.522297766281711E-1    4.207076868540995E-1
 8.196386176175000E9    -2.223462921695367E-1    4.882095306157454E-1   -2.660442969288013E-3   -9.625410439618828E-4   -2.736524743890429E-3   -8.509094958294744E-4   -1.517289891330238E-1    4.207406108706034E-1
 8.196393299850000E9    -2.219738242409002E-1    4.884921171491095E-1   -2.639912177446477E-3   -9.345643276755737E-4   -2.740667702321246E-3   -8.502490736959509E-4   -1.515727763166021E-1    4.209500646249146E-1
 8.196400423525000E9    -2.215959468575162E-1    4.887880059803614E-1   -2.649681657968912E-3   -9.721337655657921E-4   -2.764864526393146E-3   -8.602970566548228E-4   -1.511358070377136E-1    4.211566497702323E-1
 8.196407547200000E9    -2.210664389202728E-1    4.889105791732251E-1   -2.674248856974400E-3   -9.390881347690786E-4   -2.746867156539174E-3   -8.597391450726749E-4   -1.506767640925676E-1    4.213935842188027E-1
 8.196414670875000E9    -2.206514479820426E-1    4.890946999214990E-1   -2.685627902793657E-3   -9.581167062738943E-4   -2.780995014373167E-3   -8.811662959164598E-4   -1.503693438945489E-1    4.214688062705271E-1
 8.196421794550000E9    -2.201105166402091E-1    4.893020708656639E-1   -2.662966968478896E-3   -9.579075878434709E-4   -2.762726406902755E-3   -8.621454169912173E-4   -1.497886702202170E-1    4.215346017698592E-1
 8.196428918225000E9    -2.196853297475317E-1    4.895182515441891E-1   -2.664850336868394E-3   -9.233640843566786E-4   -2.750308647940817E-3   -8.949514940903199E-4   -1.496193809006847E-1    4.216620000882171E-1
 8.196436041900000E9    -2.192219214674382E-1    4.897803516109244E-1   -2.668844408175165E-3   -9.359795192136199E-4   -2.798984632226765E-3   -8.226317442414140E-4   -1.489868359582945E-1    4.217127469229500E-1
 8.196443165575000E9    -2.187284058075396E-1    4.899043364168250E-1   -2.666200680912178E-3   -9.051683734174465E-4   -2.774504589250474E-3   -8.603123099571632E-4   -1.487573218882723E-1    4.217977225094531E-1
 8.196450289250000E9    -2.181322656261331E-1    4.902240615276462E-1   -2.671090561318241E-3   -9.192388030731890E-4   -2.780804272214439E-3   -8.372993688558852E-4   -1.484513937393538E-1    4.219627618339059E-1
 8.196457412925000E9    -2.177305306417936E-1    4.904370604477223E-1   -2.687051555125492E-3   -9.409713098139177E-4   -2.773844618433012E-3   -8.449878992847801E-4   -1.479737700802393E-1    4.221558631549994E-1
 8.196464536600000E9    -2.174289074148849E-1    4.904322684743795E-1   -2.670186379793046E-3   -9.199462980257585E-4   -2.756388288078259E-3   -8.390264287806833E-4   -1.474820647118796E-1    4.222466521793840E-1
 8.196471660275000E9    -2.168459193714090E-1    4.907982624843610E-1   -2.687872206519177E-3   -9.059666391216171E-4   -2.776878938793412E-3   -8.454550831299074E-4   -1.472025230009167E-1    4.224802965883336E-1
 8.196478783950000E9    -2.163882693793641E-1    4.908917778795618E-1   -2.709403023139501E-3   -9.137514200800827E-4   -2.803844485587324E-3   -8.317263835255215E-4   -1.470434225350908E-1    4.225756386233372E-1
 8.196485907625000E9    -2.160054753793161E-1    4.911392610800697E-1   -2.699485596954691E-3   -9.632432896223151E-4   -2.795441072232949E-3   -8.182266404333411E-4   -1.465035935097621E-1    4.225112443349630E-1
 8.196493031300000E9    -2.153938763620153E-1    4.913798154439102E-1   -2.678079719390173E-3   -9.347027067368431E-4   -2.796754207397921E-3   -8.452817268345271E-4   -1.460096668518538E-1    4.227583655692470E-1
 8.196500154975000E9    -2.149292033375547E-1    4.916342618566486E-1   -2.664382047046035E-3   -9.415519916158662E-4   -2.820130219598635E-3   -8.675100159833579E-4   -1.456041289962513E-1    4.227763011875551E-1
 8.196507278650000E9    -2.144474432961424E-1    4.916336812600419E-1   -2.694426007475539E-3   -9.326516801296526E-4   -2.791997823387444E-3   -8.214072896908730E-4   -1.453922054436874E-1    4.230727682198364E-1
 8.196514402325000E9    -2.140291646911006E-1    4.919004188434765E-1   -2.730807664891674E-3   -9.144323532225434E-4   -2.801306009044924E-3   -8.244572063634326E-4   -1.449640725150511E-1    4.231071984880990E-1
 8.196521526000000E9    -2.135653507155397E-1    4.921550490238317E-1   -2.719763507803885E-3   -9.206355909014693E-4   -2.815420731448572E-3   -8.320475262874715E-4   -1.446123803734029E-1    4.230947004431425E-1
 8.196528649675000E9    -2.130254778759761E-1    4.922160309837731E-1   -2.729115200027402E-3   -9.269229813496025E-4   -2.806101475786118E-3   -8.384679173320824E-4   -1.440764887244764E-1    4.233994016952509E-1
 8.196535773350000E9    -2.125260606684319E-1    4.925998342777519E-1   -2.696528199634050E-3   -9.211991000934807E-4   -2.817474912903854E-3   -8.097870106797624E-4   -1.436908424257798E-1    4.234487382904767E-1
 8.196542897025000E9    -2.120935979832661E-1    4.927475349654004E-1   -2.724507704510192E-3   -9.222225459630571E-4   -2.836311884160910E-3   -8.210316102428170E-4   -1.433559175080201E-1    4.235381810871014E-1
 8.196550020700000E9    -2.114825360845501E-1    4.929428975012425E-1   -2.722867687899496E-3   -8.994260492851947E-4   -2.804275715600814E-3   -8.343973179099646E-4   -1.429511291241715E-1    4.237110894737651E-1
 8.196557144375000E9    -2.110914765361690E-1    4.931665955580881E-1   -2.704308775752492E-3   -9.002656427945951E-4   -2.796725510151782E-3   -8.011089003857454E-4   -1.426383976189744E-1    4.238653077835112E-1
 8.196564268050000E9    -2.107313144044584E-1    4.933586824099799E-1   -2.751521662417101E-3   -9.306076068425699E-4   -2.828877935181836E-3   -8.216172790971734E-4   -1.422506786453706E-1    4.239765540528636E-1
 8.196571391725000E9    -2.102182830889955E-1    4.933935937579879E-1   -2.743625087626490E-3   -8.971595429129027E-4   -2.863633859536647E-3   -8.033194976243568E-4   -1.417492047769329E-1    4.239552347195246E-1
 8.196578515400000E9    -2.097793454568735E-1    4.936698973859784E-1   -2.739132319827527E-3   -9.004803782015345E-4   -2.829809504743971E-3   -8.105866613423209E-4   -1.415229469393982E-1    4.241984425974610E-1
 8.196585639075000E9    -2.091458769717138E-1    4.938005102742092E-1   -2.732141190822913E-3   -9.201503716628876E-4   -2.838550359351717E-3   -7.828239431168623E-4   -1.411673761250897E-1    4.242813696128968E-1
 8.196592762750000E9    -2.087205437542685E-1    4.941204264029536E-1   -2.734319280615143E-3   -9.121036070583990E-4   -2.842718346844561E-3   -8.375256755739087E-4   -1.407328370946229E-1    4.241775275128297E-1
