#  HZ   S   RI   R     50.00 
! Rohde & Schwarz Vector Network Analyzer 
! Rohde-Schwarz,ZNB20-2Port,1311601062101988,3.16
! Created: UTC 3/20/2024, 4:57:52 PM
! freq[Hz]                re:S11                  im:S11                  re:S21                  im:S21                  re:S12                  im:S12                  re:S22                  im:S22
 8.175080707000000E9     1.363969432421609E-2   -5.443347176311105E-1    2.242320957226062E-3   -3.194050432101163E-4    2.305085050248970E-3   -3.315737423183308E-4   -9.601757744710121E-2   -4.619496940968769E-1
 8.175181357950000E9     6.746390687899531E-3   -5.444375936908562E-1    2.256117010189720E-3   -3.466034920730013E-4    2.287576983478395E-3   -4.116856256085817E-4   -1.017585185001122E-1   -4.606210865298068E-1
 8.175282008900000E9    -2.966088531565910E-5   -5.444964829528964E-1    2.226099060267909E-3   -3.758309782985844E-4    2.300203689288309E-3   -4.095181996541695E-4   -1.070485018730765E-1   -4.593934902338782E-1
 8.175382659850000E9    -7.090433049968000E-3   -5.445253127249632E-1    2.228879718848019E-3   -4.053846990899676E-4    2.268326707994919E-3   -4.220227715759622E-4   -1.126477358510450E-1   -4.579011115843839E-1
 8.175483310800000E9    -1.389052167125428E-2   -5.442979806930230E-1    2.222447082215803E-3   -4.227902541338958E-4    2.273230555816983E-3   -4.515815404710268E-4   -1.181969122407218E-1   -4.562640132448779E-1
 8.175583961750000E9    -2.076951338445813E-2   -5.440707971572132E-1    2.233410750214017E-3   -4.605942604646609E-4    2.277064678562869E-3   -4.827678977447768E-4   -1.236595002248002E-1   -4.547081000035902E-1
 8.175684612700000E9    -2.774155841577975E-2   -5.436914680498061E-1    2.212576301078717E-3   -4.890742038057964E-4    2.283769850112465E-3   -4.892521331621441E-4   -1.290381435234472E-1   -4.530436632941359E-1
 8.175785263650000E9    -3.470172735089300E-2   -5.434533383290360E-1    2.205527921947514E-3   -5.087124386204929E-4    2.233473236046708E-3   -5.629250497670459E-4   -1.345057590944946E-1   -4.514087841587284E-1
 8.175885914600000E9    -4.145846095757912E-2   -5.428847001389340E-1    2.189746456202527E-3   -5.420335977504588E-4    2.257709624327814E-3   -5.671470935650377E-4   -1.399731028068860E-1   -4.496274983592541E-1
 8.175986565550000E9    -4.843578330446394E-2   -5.423100111687671E-1    2.188991328895141E-3   -5.790563935587586E-4    2.250358665006342E-3   -5.800392221822521E-4   -1.454415252666954E-1   -4.478628827593814E-1
 8.176087216500000E9    -5.536509513888815E-2   -5.415727759170362E-1    2.176702238664430E-3   -5.885976422198859E-4    2.244780095743848E-3   -6.294390989355006E-4   -1.507067140838888E-1   -4.457948614736242E-1
 8.176187867450000E9    -6.213410922707510E-2   -5.409226880976210E-1    2.163880970014548E-3   -6.382938723723441E-4    2.231634417842060E-3   -6.203477450506291E-4   -1.560860695309885E-1   -4.438498069299052E-1
 8.176288518400000E9    -6.889608563014811E-2   -5.401068006030981E-1    2.136023538903735E-3   -6.537868145557379E-4    2.237916131619977E-3   -6.342449378839017E-4   -1.614433343723622E-1   -4.418578930525597E-1
 8.176389169350000E9    -7.577155516814996E-2   -5.391048970568052E-1    2.124908547823999E-3   -6.539652197218829E-4    2.209172832971275E-3   -7.175173527021116E-4   -1.666996801536698E-1   -4.396484410352788E-1
 8.176489820300000E9    -8.277209171879091E-2   -5.381044308351003E-1    2.143470580000547E-3   -6.955447282618190E-4    2.200568638082111E-3   -7.061087532987261E-4   -1.720990287339779E-1   -4.375368569690102E-1
 8.176590471250000E9    -8.955347905507763E-2   -5.369172135600488E-1    2.150223072256475E-3   -7.206852559990802E-4    2.200701972713042E-3   -7.774775260211829E-4   -1.772357996529760E-1   -4.351312518775718E-1
 8.176691122200000E9    -9.640658274598744E-2   -5.358150631373257E-1    2.107847688228931E-3   -7.393485219909473E-4    2.179182206875573E-3   -7.909017776460826E-4   -1.824826085442303E-1   -4.329285195140912E-1
 8.176791773150000E9    -1.030633600225652E-1   -5.345793637315454E-1    2.125743333696091E-3   -7.634730498313856E-4    2.183347814203284E-3   -8.207676745474361E-4   -1.875913954228523E-1   -4.305858546145989E-1
 8.176892424100000E9    -1.099572537979985E-1   -5.331790539239014E-1    2.105733861423860E-3   -8.105310393136230E-4    2.204529313782251E-3   -8.329629135652119E-4   -1.927089683749608E-1   -4.282869382050139E-1
 8.176993075050000E9    -1.167566909203590E-1   -5.316735541655141E-1    2.057185334985051E-3   -8.410630281904341E-4    2.156179863998706E-3   -8.564915740857225E-4   -1.979515280056835E-1   -4.257512099647656E-1
 8.177093726000000E9    -1.234866314302548E-1   -5.301113369208649E-1    2.086905594498046E-3   -8.543536412510802E-4    2.166393050860720E-3   -8.595772128248931E-4   -2.031048937901865E-1   -4.231638022710795E-1
 8.177194376950000E9    -1.301935813052332E-1   -5.284972564752048E-1    2.062773315574712E-3   -8.305106532353147E-4    2.139885164470732E-3   -8.906968714053598E-4   -2.080958591196960E-1   -4.205568485109035E-1
 8.177295027900000E9    -1.368270477064494E-1   -5.267887385035886E-1    2.065363653831343E-3   -9.241954968623654E-4    2.114534400205094E-3   -9.475390973534589E-4   -2.132312631953832E-1   -4.178870459328772E-1
 8.177395678850000E9    -1.436403226982030E-1   -5.250369762301715E-1    2.032407530566110E-3   -9.556639836052990E-4    2.151265708071700E-3   -9.713625653292341E-4   -2.181537246631278E-1   -4.152534994282657E-1
 8.177496329800000E9    -1.503484245436901E-1   -5.231864600841866E-1    2.055471767868740E-3   -9.430140679570920E-4    2.074574549638856E-3   -1.001267322764667E-3   -2.231679407408358E-1   -4.124055267627069E-1
 8.177596980750000E9    -1.568186967142040E-1   -5.212522377313163E-1    2.036941900612929E-3   -9.375094683509273E-4    2.098572181622076E-3   -1.034893986020453E-3   -2.281003647005326E-1   -4.096862524740783E-1
 8.177697631700000E9    -1.636742213396709E-1   -5.191369281405412E-1    2.037376274579059E-3   -9.919494263927087E-4    2.046565027930388E-3   -1.021568366262647E-3   -2.329534764963676E-1   -4.067111551703487E-1
 8.177798282650000E9    -1.702006535660612E-1   -5.169948379697877E-1    1.999346717148962E-3   -1.000594426062318E-3    2.053399718048749E-3   -1.052768416960763E-3   -2.377218223167623E-1   -4.037541359010865E-1
 8.177898933600000E9    -1.765801712561986E-1   -5.148053382251402E-1    1.974302468017019E-3   -1.058505895443986E-3    2.034372242964103E-3   -1.081304370128563E-3   -2.424003805750193E-1   -4.007305067526334E-1
 8.177999584550000E9    -1.832816468205978E-1   -5.123958812644799E-1    1.981343124278031E-3   -1.069082676408484E-3    2.012279559651236E-3   -1.133373436888908E-3   -2.472999739452592E-1   -3.977620999028562E-1
 8.178100235500000E9    -1.898274890487230E-1   -5.101040506349197E-1    1.980555345106814E-3   -1.069498088407303E-3    2.001806993013700E-3   -1.120362423895716E-3   -2.519027285323258E-1   -3.946107195852909E-1
 8.178200886450000E9    -1.961875509121870E-1   -5.075644861390879E-1    1.926579056197119E-3   -1.106262543107898E-3    1.991618514219961E-3   -1.158775256381508E-3   -2.567286947860880E-1   -3.912494728156945E-1
 8.178301537400000E9    -2.026088018062175E-1   -5.050237333085216E-1    1.915984527165851E-3   -1.153076959678865E-3    1.967199241837427E-3   -1.169286534104237E-3   -2.613777767098521E-1   -3.881613077062578E-1
 8.178402188350000E9    -2.090911611389834E-1   -5.023428409853316E-1    1.915759098972432E-3   -1.170269315292462E-3    1.956841112713296E-3   -1.223730679665797E-3   -2.659850434049028E-1   -3.849488872807719E-1
 8.178502839300000E9    -2.153690297774640E-1   -4.995922542994174E-1    1.901251797448291E-3   -1.188330066679427E-3    1.978556490260372E-3   -1.274162509545938E-3   -2.705245000628475E-1   -3.816453595625559E-1
 8.178603490250000E9    -2.217836257916902E-1   -4.967671141946362E-1    1.890573029628883E-3   -1.202096036827374E-3    1.945230190164518E-3   -1.285825695423583E-3   -2.750502449903501E-1   -3.781053442518038E-1
 8.178704141200000E9    -2.280656892706746E-1   -4.938443533278803E-1    1.878375111565309E-3   -1.249846845095208E-3    1.932304399543792E-3   -1.277791152603829E-3   -2.797657384805557E-1   -3.747080410435772E-1
 8.178804792150000E9    -2.342498653191480E-1   -4.909465412246570E-1    1.863137492888216E-3   -1.272766172785015E-3    1.956366456470764E-3   -1.322113046211214E-3   -2.840314776274699E-1   -3.711456503265432E-1
 8.178905443100000E9    -2.406983008137996E-1   -4.879746722703630E-1    1.839671619242989E-3   -1.274358380688062E-3    1.900267518787549E-3   -1.364298435582503E-3   -2.883733376047331E-1   -3.676772839516727E-1
 8.179006094050000E9    -2.467956305151948E-1   -4.848496520334932E-1    1.826777321912974E-3   -1.300487857265257E-3    1.889433396347814E-3   -1.367162971136967E-3   -2.928092523496820E-1   -3.639837600282304E-1
 8.179106745000000E9    -2.529007968984984E-1   -4.815403444208977E-1    1.788710906371349E-3   -1.298501088362130E-3    1.868983573629553E-3   -1.393009125864314E-3   -2.971048313217245E-1   -3.603061105406207E-1
 8.179207395950000E9    -2.590214232089367E-1   -4.783266383362668E-1    1.802959424191869E-3   -1.356319221317967E-3    1.852711318548403E-3   -1.383056892750155E-3   -3.013238163768607E-1   -3.566295475173272E-1
 8.179308046900000E9    -2.652226874900341E-1   -4.749713882069733E-1    1.773155384169246E-3   -1.363874300634723E-3    1.854614392151638E-3   -1.442416535090239E-3   -3.056468652812841E-1   -3.527185562174237E-1
 8.179408697850000E9    -2.712647157756941E-1   -4.714821902698061E-1    1.770495415414939E-3   -1.410066205129703E-3    1.774281231107333E-3   -1.464068081888225E-3   -3.098936540278617E-1   -3.489247955429788E-1
 8.179509348800000E9    -2.773057802710245E-1   -4.679654753237754E-1    1.732807150344120E-3   -1.402602885432924E-3    1.836340579581646E-3   -1.530796466620097E-3   -3.140059808117849E-1   -3.451540112242484E-1
 8.179609999750000E9    -2.831680177859970E-1   -4.644439055406141E-1    1.711549949525653E-3   -1.428687982581327E-3    1.770003229875356E-3   -1.496930926068333E-3   -3.179701996389119E-1   -3.411445399228906E-1
 8.179710650700000E9    -2.891633151107063E-1   -4.607729919169619E-1    1.703788084025768E-3   -1.435261006294944E-3    1.756459584921409E-3   -1.520894584607429E-3   -3.222839923933695E-1   -3.371546131342848E-1
 8.179811301650000E9    -2.949755413634259E-1   -4.568698806919281E-1    1.683302525287684E-3   -1.477390972144849E-3    1.742023367467988E-3   -1.526893991729860E-3   -3.260445434602901E-1   -3.331353134313919E-1
 8.179911952600000E9    -3.007577057049988E-1   -4.532003165592715E-1    1.687049525282319E-3   -1.482785525319460E-3    1.729648253356084E-3   -1.578253576726909E-3   -3.299671557500263E-1   -3.292867099584971E-1
 8.180012603550000E9    -3.065314003208304E-1   -4.490587340725319E-1    1.686715298042969E-3   -1.530301610178352E-3    1.742528669596472E-3   -1.592233962069395E-3   -3.339472267213268E-1   -3.251993285548185E-1
 8.180113254500000E9    -3.122686304374781E-1   -4.452620651018954E-1    1.660629611883020E-3   -1.511848818658696E-3    1.691147211463306E-3   -1.628829477507951E-3   -3.378562069456796E-1   -3.208521779590779E-1
 8.180213905450000E9    -3.179932843842318E-1   -4.412287330370512E-1    1.625663389494562E-3   -1.548430037647275E-3    1.636398023615097E-3   -1.617800626669614E-3   -3.414298064479468E-1   -3.168509738884865E-1
 8.180314556400000E9    -3.235593897855527E-1   -4.371150469742696E-1    1.624464524184238E-3   -1.551337641199020E-3    1.630453145330124E-3   -1.676529535910355E-3   -3.453295911111760E-1   -3.125517195700447E-1
 8.180415207350000E9    -3.291109217746108E-1   -4.329977209521647E-1    1.597664660483619E-3   -1.580871247536076E-3    1.627272180016627E-3   -1.645764761350800E-3   -3.489986639225191E-1   -3.082720265871240E-1
 8.180515858300000E9    -3.345956562658896E-1   -4.285583812976257E-1    1.583593224784759E-3   -1.621934916785449E-3    1.621263119794727E-3   -1.680405853184719E-3   -3.525945308704392E-1   -3.041617388443975E-1
 8.180616509250000E9    -3.400049800811654E-1   -4.242879409350487E-1    1.548940872965600E-3   -1.643215944653019E-3    1.573823496574733E-3   -1.697492622042127E-3   -3.560291027622909E-1   -2.997130975255559E-1
 8.180717160200000E9    -3.454887386364821E-1   -4.199257295490921E-1    1.540316275337515E-3   -1.648161375122647E-3    1.560734689044327E-3   -1.773796242544300E-3   -3.595853994848835E-1   -2.951531964121809E-1
 8.180817811150000E9    -3.507220826957538E-1   -4.153717648436024E-1    1.518028012927670E-3   -1.678949562787330E-3    1.538251261720721E-3   -1.757695124435396E-3   -3.631073644902828E-1   -2.908417696571188E-1
 8.180918462100000E9    -3.560048958048246E-1   -4.109235585508897E-1    1.498750568405970E-3   -1.680208548863027E-3    1.538427051927144E-3   -1.776862311199996E-3   -3.664091976220349E-1   -2.864486298182425E-1
 8.181019113050000E9    -3.613431828495012E-1   -4.062125830911572E-1    1.465180004018448E-3   -1.684091149988843E-3    1.467374450275237E-3   -1.789166374587650E-3   -3.698725162960197E-1   -2.820048775201843E-1
 8.181119764000000E9    -3.664167157213143E-1   -4.014561043840950E-1    1.464476314528280E-3   -1.738940314765006E-3    1.451099611758385E-3   -1.804195410395473E-3   -3.730225329403867E-1   -2.771366048938197E-1
 8.181220414950000E9    -3.716134844740283E-1   -3.968914544622903E-1    1.430914592157684E-3   -1.761237181594327E-3    1.481146946682800E-3   -1.809053854901954E-3   -3.765373024201620E-1   -2.726119317156501E-1
 8.181321065900000E9    -3.764849034564406E-1   -3.921265797912125E-1    1.387031577078334E-3   -1.762342210844461E-3    1.419362215338628E-3   -1.801349080608271E-3   -3.794761936724093E-1   -2.679369955557566E-1
 8.181421716850000E9    -3.815500361105199E-1   -3.871167629215863E-1    1.367933718710241E-3   -1.768196514846528E-3    1.413052722949849E-3   -1.889445779435795E-3   -3.826893767006503E-1   -2.634880648265683E-1
 8.181522367800000E9    -3.865450463422041E-1   -3.823326009047296E-1    1.358179259910609E-3   -1.776796149598750E-3    1.379569616472139E-3   -1.876810032154460E-3   -3.857156945918615E-1   -2.586697573032084E-1
 8.181623018750000E9    -3.913686788679772E-1   -3.772700864396129E-1    1.354370778648118E-3   -1.806176841615075E-3    1.376555148867764E-3   -1.880701058342937E-3   -3.887078299780638E-1   -2.537968813787156E-1
 8.181723669700000E9    -3.960399323584498E-1   -3.721299822030270E-1    1.323728050077844E-3   -1.832418971151597E-3    1.351135545647024E-3   -1.924991023032605E-3   -3.916588022912341E-1   -2.490024665167315E-1
 8.181824320650000E9    -4.009011229434047E-1   -3.670259965736872E-1    1.304193151558479E-3   -1.848255167856055E-3    1.296052559051490E-3   -1.948065732245560E-3   -3.947686523583215E-1   -2.444297335599880E-1
 8.181924971600000E9    -4.056255470205226E-1   -3.619225187255796E-1    1.257991512674544E-3   -1.867006757631755E-3    1.280973902730112E-3   -1.966740060374260E-3   -3.973777774191026E-1   -2.394002968517509E-1
 8.182025622550000E9    -4.100487228759375E-1   -3.565006900488621E-1    1.287141387200314E-3   -1.889933350394955E-3    1.243947257383597E-3   -1.956219266220626E-3   -4.001734386525454E-1   -2.345563187037638E-1
 8.182126273500000E9    -4.146825701366293E-1   -3.513304737493546E-1    1.221897891394189E-3   -1.916656944010836E-3    1.282120823345319E-3   -1.980483768150544E-3   -4.030173603068388E-1   -2.296414764948640E-1
 8.182226924450000E9    -4.191460976217952E-1   -3.459285551449724E-1    1.179220073852137E-3   -1.930141122087681E-3    1.227396976504395E-3   -1.987916251633976E-3   -4.056307089696650E-1   -2.247402194108387E-1
 8.182327575400000E9    -4.233942760901338E-1   -3.404445698051763E-1    1.176098256599501E-3   -1.921403324929543E-3    1.170466794377972E-3   -1.999806162901211E-3   -4.081978619691990E-1   -2.197801928322659E-1
 8.182428226350000E9    -4.279292533306969E-1   -3.350085901241568E-1    1.151147388943586E-3   -1.949093086509144E-3    1.205532598477238E-3   -2.020494296592825E-3   -4.107930479620263E-1   -2.147725981382140E-1
 8.182528877300000E9    -4.319574532248999E-1   -3.292810534196305E-1    1.143511714967730E-3   -1.961962283187650E-3    1.155659571638648E-3   -2.087702622027036E-3   -4.133072879902656E-1   -2.097679987656032E-1
 8.182629528250000E9    -4.362105307699838E-1   -3.238720629224686E-1    1.099869789239202E-3   -1.965789275991502E-3    1.133881760743967E-3   -2.070083104760321E-3   -4.158642031006834E-1   -2.046819480382804E-1
 8.182730179200000E9    -4.402578719272175E-1   -3.181494618768309E-1    1.089891699809579E-3   -1.983033472496119E-3    1.109753095549703E-3   -2.062567254836192E-3   -4.179044781766278E-1   -1.997962945444751E-1
 8.182830830150000E9    -4.444959484780166E-1   -3.125007099638911E-1    1.046519216523714E-3   -1.988206891549646E-3    1.063819640069168E-3   -2.059229187937114E-3   -4.202787722677786E-1   -1.945383808949975E-1
 8.182931481100000E9    -4.483531847630390E-1   -3.066946077341795E-1    1.023725204393189E-3   -2.022865192891511E-3    1.057592623102461E-3   -2.126453495984928E-3   -4.225713466447487E-1   -1.893848339364094E-1
 8.183032132050000E9    -4.522394870085282E-1   -3.009718012786921E-1    1.036679077438689E-3   -2.054200182194311E-3    1.048057161909468E-3   -2.114707322504251E-3   -4.245242078995168E-1   -1.842734252281815E-1
 8.183132783000000E9    -4.561011661481109E-1   -2.950854587814404E-1    1.000140232226519E-3   -2.064916948485560E-3    1.054476922302641E-3   -2.162564592516067E-3   -4.269570532672370E-1   -1.788882428174429E-1
 8.183233433950000E9    -4.598100297836370E-1   -2.890147921195286E-1    9.600145425082081E-4   -2.054656241837984E-3    9.735947120572236E-4   -2.167685982261116E-3   -4.288809330958368E-1   -1.736501882174483E-1
 8.183334084900000E9    -4.635374290538543E-1   -2.831556374441027E-1    9.754404641777943E-4   -2.067912092194040E-3    9.504956493435353E-4   -2.126760553402217E-3   -4.307704687949888E-1   -1.684848621847400E-1
 8.183434735850000E9    -4.670895241266854E-1   -2.771851456983508E-1    9.130845725817714E-4   -2.071394675399389E-3    9.355689710027472E-4   -2.171584457211324E-3   -4.328173865541755E-1   -1.631954571439699E-1
 8.183535386800000E9    -4.706227190297417E-1   -2.711544576427562E-1    8.942786794902377E-4   -2.086029646918838E-3    8.978255886949814E-4   -2.196305101943338E-3   -4.346128460706085E-1   -1.579492671427285E-1
 8.183636037750000E9    -4.740874547100359E-1   -2.649821173150440E-1    8.620922684569744E-4   -2.107724557611707E-3    8.296318313062392E-4   -2.203569635505543E-3   -4.364992433653529E-1   -1.526504349653182E-1
 8.183736688700000E9    -4.773810626180866E-1   -2.589047222682186E-1    8.489481146087155E-4   -2.106486952494642E-3    8.204067440096838E-4   -2.205106096209615E-3   -4.379557381587813E-1   -1.473826887149859E-1
 8.183837339650000E9    -4.806751866048560E-1   -2.527465797215514E-1    8.039952571681740E-4   -2.125346368413276E-3    8.514512614751082E-4   -2.219245367548295E-3   -4.398131937309357E-1   -1.419282143108200E-1
 8.183937990600000E9    -4.838963027389397E-1   -2.464645889896301E-1    7.895839738324608E-4   -2.147112721899643E-3    7.848097225084282E-4   -2.228978402297295E-3   -4.414777105405373E-1   -1.366062792480115E-1
 8.184038641550000E9    -4.867928577461608E-1   -2.401950534950874E-1    7.675740056793198E-4   -2.139027906403567E-3    7.677226890455935E-4   -2.226298787626154E-3   -4.428748479956047E-1   -1.312359332782530E-1
 8.184139292500000E9    -4.899354769401945E-1   -2.338445814905515E-1    7.346831307271952E-4   -2.150289788237452E-3    7.538435830376768E-4   -2.237113298377668E-3   -4.443818993875206E-1   -1.259522614516977E-1
