#  HZ   S   RI   R     50.00 
! Rohde & Schwarz Vector Network Analyzer 
! Rohde-Schwarz,ZNB20-2Port,1311601062101988,3.16
! Created: UTC 3/20/2024, 5:13:02 PM
! freq[Hz]                re:S11                  im:S11                  re:S21                  im:S21                  re:S12                  im:S12                  re:S22                  im:S22
 8.196024907000000E9    -2.461619248551839E-1    4.773132956090261E-1   -2.532671155195000E-3   -1.050310442028935E-3   -2.622446965097528E-3   -9.604041871767765E-4   -1.709315653105412E-1    4.140852347867424E-1
 8.196031714825000E9    -2.457194787168654E-1    4.775159112311968E-1   -2.529806375968176E-3   -1.056351793762929E-3   -2.604606595692189E-3   -9.546784352781634E-4   -1.705709297910831E-1    4.140648216403275E-1
 8.196038522650000E9    -2.451352191982881E-1    4.777934132089746E-1   -2.502003672376779E-3   -1.055519297522101E-3   -2.616378051270213E-3   -1.005565644008521E-3   -1.701435461159062E-1    4.143810806704510E-1
 8.196045330475000E9    -2.447759294721078E-1    4.779623437693267E-1   -2.542360434942285E-3   -1.062479616106797E-3   -2.610081422774268E-3   -9.766971803716194E-4   -1.697682678557066E-1    4.146651654833521E-1
 8.196052138300000E9    -2.442482938159418E-1    4.781071675441130E-1   -2.519387336104315E-3   -1.051155018738488E-3   -2.637605119481508E-3   -9.782135979524251E-4   -1.694631930398842E-1    4.146194011653475E-1
 8.196058946125000E9    -2.438078615220850E-1    4.783908261238325E-1   -2.536071493525574E-3   -1.053375841828285E-3   -2.625653505834519E-3   -9.775678672537820E-4   -1.691540817059321E-1    4.147508212108487E-1
 8.196065753950000E9    -2.435136223095571E-1    4.785978719027698E-1   -2.569004257356097E-3   -1.043284701548379E-3   -2.628113758024405E-3   -9.604784496068452E-4   -1.689352239441931E-1    4.149715265354789E-1
 8.196072561775000E9    -2.429478215681434E-1    4.788027793304160E-1   -2.574389530747062E-3   -1.052482736965792E-3   -2.611220596212572E-3   -9.596056826352375E-4   -1.685288583725814E-1    4.151596501808494E-1
 8.196079369600000E9    -2.425901023456294E-1    4.789759340687225E-1   -2.569634089027177E-3   -1.053273873180122E-3   -2.646084603650425E-3   -9.814269492979411E-4   -1.681426388913785E-1    4.151217629207770E-1
 8.196086177425000E9    -2.419980828198765E-1    4.792498524754982E-1   -2.532061981202018E-3   -1.047161906635789E-3   -2.650087548973354E-3   -9.578260064796284E-4   -1.676898543644946E-1    4.154344395917223E-1
 8.196092985250000E9    -2.416951076994701E-1    4.794505616026707E-1   -2.532611837222382E-3   -1.017985240692713E-3   -2.657774194583388E-3   -9.494124459623554E-4   -1.672820364331266E-1    4.154771505392099E-1
 8.196099793075000E9    -2.412028059484224E-1    4.796918838592136E-1   -2.546892851308036E-3   -1.044811588701508E-3   -2.619683707250808E-3   -9.564716224247364E-4   -1.667618058296790E-1    4.155810115931997E-1
 8.196106600900000E9    -2.408516345124891E-1    4.797815457644279E-1   -2.548715762072740E-3   -1.042011748578998E-3   -2.669091421650355E-3   -9.450605453110818E-4   -1.667310211700621E-1    4.156124484632585E-1
 8.196113408725000E9    -2.401922212595952E-1    4.800627613878492E-1   -2.562657643676255E-3   -1.040642359869691E-3   -2.649520907042970E-3   -9.642370215745346E-4   -1.663030617767067E-1    4.157527747229651E-1
 8.196120216550000E9    -2.398475781224661E-1    4.803358180134534E-1   -2.538175780135026E-3   -1.040564645185845E-3   -2.629065622995947E-3   -9.571751270097084E-4   -1.658882091027070E-1    4.159741392605452E-1
 8.196127024375000E9    -2.394786492243326E-1    4.805543869339350E-1   -2.557686072368929E-3   -1.054651067393551E-3   -2.657266769384434E-3   -9.233843354484522E-4   -1.657205525336697E-1    4.160773539747480E-1
 8.196133832200000E9    -2.389576333675618E-1    4.807572584568151E-1   -2.574208742772261E-3   -9.900883352296766E-4   -2.674333175750920E-3   -9.640464818307925E-4   -1.652470603928942E-1    4.162739207993018E-1
 8.196140640025000E9    -2.384458635226959E-1    4.808799030393480E-1   -2.565231586792981E-3   -1.021510477652535E-3   -2.660882325126112E-3   -9.400659709956819E-4   -1.648659905224627E-1    4.163998657542709E-1
 8.196147447850000E9    -2.381383279837142E-1    4.811619987409765E-1   -2.581823914413549E-3   -1.021588894707485E-3   -2.652462853778215E-3   -9.168444925167854E-4   -1.644693378195588E-1    4.166354583068407E-1
 8.196154255675000E9    -2.376624768495173E-1    4.813684983499717E-1   -2.564863282426611E-3   -1.019603429414714E-3   -2.688768915072067E-3   -9.186468812800690E-4   -1.641477654171102E-1    4.166212262561361E-1
 8.196161063500000E9    -2.372709221986042E-1    4.815857853056632E-1   -2.574075505075304E-3   -1.024940543251464E-3   -2.640946470668044E-3   -9.558071890627384E-4   -1.638206879057154E-1    4.167274365980206E-1
 8.196167871325000E9    -2.368329075179489E-1    4.818020732167501E-1   -2.562309932426149E-3   -1.014416494206761E-3   -2.643913885229589E-3   -9.237630798987981E-4   -1.634116188683125E-1    4.169036997165733E-1
 8.196174679150000E9    -2.363945518957442E-1    4.820072922203255E-1   -2.582130275324436E-3   -9.913604646356185E-4   -2.685919306164438E-3   -9.354327942070875E-4   -1.630720241986135E-1    4.169848168206902E-1
 8.196181486975000E9    -2.359459987110754E-1    4.822538062789173E-1   -2.591710453263840E-3   -1.034404703848768E-3   -2.684878058164763E-3   -9.654053458586200E-4   -1.627533793046946E-1    4.172243326108195E-1
 8.196188294800000E9    -2.353778250281989E-1    4.823802953994324E-1   -2.581764462804707E-3   -1.018529434764805E-3   -2.706479131102997E-3   -9.371754503405608E-4   -1.622636607986433E-1    4.172628246215485E-1
 8.196195102625000E9    -2.350009118723802E-1    4.825602978439067E-1   -2.583034460991257E-3   -1.017047515119290E-3   -2.656393320266176E-3   -9.141886075260384E-4   -1.619931053061937E-1    4.174682556330635E-1
 8.196201910450000E9    -2.346491453722244E-1    4.827360970683440E-1   -2.598829279120537E-3   -1.011403426837187E-3   -2.679448188969850E-3   -9.408308862595394E-4   -1.615976446550130E-1    4.176595281683578E-1
 8.196208718275000E9    -2.342271330153740E-1    4.830255785707436E-1   -2.566791322629831E-3   -1.007328369756383E-3   -2.702563450251918E-3   -9.357052728701343E-4   -1.611608648314612E-1    4.178221630838289E-1
 8.196215526100000E9    -2.337046500281385E-1    4.833044447454406E-1   -2.581431384891538E-3   -9.961501912892458E-4   -2.663225187017530E-3   -9.203351809621106E-4   -1.608510824757859E-1    4.177270900597580E-1
 8.196222333925000E9    -2.332441109463816E-1    4.835886133129698E-1   -2.589754694727763E-3   -9.860175524676390E-4   -2.674038838883049E-3   -9.421174201880521E-4   -1.605653607991814E-1    4.179349254653272E-1
 8.196229141750000E9    -2.329225870076281E-1    4.837023178896100E-1   -2.598983601135401E-3   -1.007104576593510E-3   -2.681204994061568E-3   -9.231518741209646E-4   -1.602509250345110E-1    4.181849533713609E-1
 8.196235949575000E9    -2.323206017500891E-1    4.838632839043661E-1   -2.572845360644081E-3   -9.970842738936509E-4   -2.690902891304899E-3   -9.171361563144756E-4   -1.598448969843115E-1    4.181374487646475E-1
 8.196242757400000E9    -2.319475091162351E-1    4.840903933849351E-1   -2.610359862461338E-3   -9.774228770595905E-4   -2.673424633431865E-3   -8.960571146817487E-4   -1.594614674956678E-1    4.183067146412299E-1
 8.196249565225000E9    -2.314245321251300E-1    4.841783128065795E-1   -2.575886959266546E-3   -1.012530793146920E-3   -2.702967838794068E-3   -9.281710917182893E-4   -1.588690121007476E-1    4.183662748931835E-1
 8.196256373050000E9    -2.310877446854676E-1    4.844637473765016E-1   -2.583082069567770E-3   -1.006503219177931E-3   -2.683488959554025E-3   -9.198412875151362E-4   -1.586210233332632E-1    4.185543758812070E-1
 8.196263180875000E9    -2.305493315478139E-1    4.846341331073211E-1   -2.582384842274067E-3   -1.011081057991284E-3   -2.699237750280779E-3   -9.092509096083418E-4   -1.583801769612341E-1    4.187203491593213E-1
 8.196269988700000E9    -2.302173810134610E-1    4.849283460433488E-1   -2.583878351992497E-3   -9.910326754621640E-4   -2.717557933155297E-3   -9.081186463620121E-4   -1.579538173490621E-1    4.187307651339442E-1
 8.196276796525000E9    -2.297168586808363E-1    4.849654733485986E-1   -2.604189187755724E-3   -9.984086362056590E-4   -2.692368148033015E-3   -9.162542637717003E-4   -1.577068528594857E-1    4.190000808062452E-1
 8.196283604350000E9    -2.292987640560452E-1    4.852777385426515E-1   -2.618809095975217E-3   -9.844672137242915E-4   -2.707432093578773E-3   -8.895950139065465E-4   -1.572735510580090E-1    4.190468758727497E-1
 8.196290412175000E9    -2.287672325262701E-1    4.854963052514230E-1   -2.635894068865829E-3   -9.773967009586071E-4   -2.727677009763646E-3   -9.078643164952812E-4   -1.569484651788399E-1    4.191857259767215E-1
 8.196297220000000E9    -2.283713722663476E-1    4.858882870093777E-1   -2.616745082544927E-3   -9.702503017742290E-4   -2.714669513762027E-3   -9.212545020876573E-4   -1.566064166759984E-1    4.191647225134091E-1
 8.196304027825000E9    -2.280260237044216E-1    4.859225562607124E-1   -2.608333934588990E-3   -1.003276421446409E-3   -2.701555937514474E-3   -8.978115915334517E-4   -1.561781834857321E-1    4.194488892150329E-1
 8.196310835650000E9    -2.275507803246321E-1    4.861303730755546E-1   -2.619367700833452E-3   -9.678306192776868E-4   -2.708336540256336E-3   -9.117514744988844E-4   -1.557889852492727E-1    4.195555021369449E-1
 8.196317643475000E9    -2.269826007469036E-1    4.863720322065084E-1   -2.659198228790411E-3   -9.704960877707384E-4   -2.711917619627565E-3   -9.333254952005916E-4   -1.554916136490848E-1    4.197934195309208E-1
 8.196324451300000E9    -2.265775517184001E-1    4.864779286994892E-1   -2.631301655978454E-3   -9.376726085010314E-4   -2.716931578492704E-3   -8.688488473791658E-4   -1.551256094619128E-1    4.197255440310703E-1
 8.196331259125000E9    -2.262225751667762E-1    4.866565892554968E-1   -2.630308060511503E-3   -9.655859400535223E-4   -2.729163754102256E-3   -8.842189070556374E-4   -1.547158917442730E-1    4.199039196647700E-1
 8.196338066950000E9    -2.258232167018888E-1    4.869166773426408E-1   -2.622357645697061E-3   -9.647835410002290E-4   -2.710330904645327E-3   -8.996578139290026E-4   -1.543625166126592E-1    4.200262536633404E-1
 8.196344874775000E9    -2.253031252037253E-1    4.870675812018272E-1   -2.642806700857387E-3   -9.667759654305637E-4   -2.722549225553989E-3   -8.893792111528666E-4   -1.538907390112149E-1    4.201960725091702E-1
 8.196351682600000E9    -2.248862537104988E-1    4.873145805245697E-1   -2.659392542827024E-3   -9.768215413535667E-4   -2.743109019476209E-3   -8.689568262141544E-4   -1.537203098992676E-1    4.202102973775719E-1
 8.196358490425000E9    -2.243115370587350E-1    4.875256200822203E-1   -2.616886482370226E-3   -9.929887242815759E-4   -2.723729296491582E-3   -9.033060432120064E-4   -1.532544498663523E-1    4.203568691534113E-1
 8.196365298250000E9    -2.238138080191139E-1    4.877844313922216E-1   -2.637441648570767E-3   -9.420675822267012E-4   -2.738024385777943E-3   -8.644507398048838E-4   -1.529948179131681E-1    4.206456464877825E-1
 8.196372106075000E9    -2.235301262109071E-1    4.879089972913763E-1   -2.627971416536711E-3   -9.283522097731635E-4   -2.763919842151308E-3   -8.666424906247096E-4   -1.525814736614548E-1    4.207002655988692E-1
 8.196378913900000E9    -2.230828554975157E-1    4.880258501106626E-1   -2.631649924738535E-3   -9.669067960895571E-4   -2.723185880911032E-3   -8.648441092882100E-4   -1.521627219577630E-1    4.207451126929033E-1
 8.196385721725000E9    -2.225170753466019E-1    4.882525745206673E-1   -2.655036240537136E-3   -9.679252428322564E-4   -2.741990122083242E-3   -8.759080080002588E-4   -1.518613583951473E-1    4.208983564728760E-1
 8.196392529550000E9    -2.221932855244045E-1    4.883665137818664E-1   -2.652059031202968E-3   -9.519260190178411E-4   -2.729682795566333E-3   -8.380174268359388E-4   -1.515643653043595E-1    4.210378388615351E-1
 8.196399337375000E9    -2.216629546930431E-1    4.885985397252071E-1   -2.669593052381577E-3   -9.388716625401087E-4   -2.783956606493816E-3   -8.527238182079460E-4   -1.510999977966286E-1    4.211676233938751E-1
 8.196406145200000E9    -2.212011136793824E-1    4.888272836962528E-1   -2.648960583568432E-3   -9.650410090298832E-4   -2.749754988914324E-3   -8.360066489369005E-4   -1.507724135818386E-1    4.212325160038168E-1
 8.196412953025000E9    -2.207314530516762E-1    4.890397032417736E-1   -2.655436754333722E-3   -9.521184297298620E-4   -2.729231828382921E-3   -8.723939652108756E-4   -1.504512641309126E-1    4.213704955320541E-1
 8.196419760850000E9    -2.202275661318948E-1    4.891376304282568E-1   -2.652221660764144E-3   -9.561129910451802E-4   -2.751491397581954E-3   -8.413770661447287E-4   -1.499584175482544E-1    4.214377013315472E-1
 8.196426568675000E9    -2.198790737761317E-1    4.894672131272999E-1   -2.670342649527439E-3   -9.376763442579606E-4   -2.788369555393855E-3   -8.798633666995993E-4   -1.495736618557501E-1    4.215697414141887E-1
 8.196433376500000E9    -2.194781609418016E-1    4.895825000027269E-1   -2.674822265181316E-3   -9.312374439867687E-4   -2.763778735744586E-3   -8.704878538271740E-4   -1.490260432027414E-1    4.215087925820900E-1
 8.196440184325000E9    -2.190245755076045E-1    4.899240707774309E-1   -2.672109958858042E-3   -9.425838674304182E-4   -2.782410280252790E-3   -9.172183162125200E-4   -1.489662155868807E-1    4.217768090766026E-1
 8.196446992150000E9    -2.186173676603483E-1    4.899627138719208E-1   -2.670646352988464E-3   -9.378532943144356E-4   -2.754858702057182E-3   -8.636246621439544E-4   -1.485856036196343E-1    4.218187154760892E-1
 8.196453799975000E9    -2.180320280237971E-1    4.902597851512873E-1   -2.710824796797582E-3   -9.244671512022099E-4   -2.782700183271160E-3   -8.453525908612599E-4   -1.483426399454218E-1    4.220542302486400E-1
 8.196460607800000E9    -2.175994941230885E-1    4.903862380979929E-1   -2.678386668870570E-3   -9.475556980533525E-4   -2.765433311425286E-3   -8.751154493369515E-4   -1.476755378473909E-1    4.222548583084560E-1
 8.196467415625000E9    -2.172084095778996E-1    4.906391757396432E-1   -2.693519006147794E-3   -9.456091944733160E-4   -2.769700497251797E-3   -8.273806725167815E-4   -1.474701351618148E-1    4.221085606096360E-1
 8.196474223450000E9    -2.167701210941202E-1    4.908508320582711E-1   -2.674184767680860E-3   -9.139796707296721E-4   -2.769437809036896E-3   -8.422340784048502E-4   -1.470376965345090E-1    4.224566060050183E-1
 8.196481031275000E9    -2.162598730369169E-1    4.909456867172746E-1   -2.683776059179398E-3   -9.389630525884248E-4   -2.778487881035641E-3   -8.419168447807930E-4   -1.466529141300159E-1    4.225507622190550E-1
 8.196487839100000E9    -2.158088008517907E-1    4.911975918300850E-1   -2.708744323389859E-3   -9.383342235846022E-4   -2.765387969438397E-3   -8.603777413843475E-4   -1.463163702192457E-1    4.224930428079846E-1
 8.196494646925000E9    -2.153050586331915E-1    4.912711652657473E-1   -2.683177976769744E-3   -9.436487758438658E-4   -2.777103323841961E-3   -8.354352996133783E-4   -1.460049151089471E-1    4.225948354097419E-1
 8.196501454750000E9    -2.148945833944800E-1    4.915940928846175E-1   -2.698369875367743E-3   -9.103482628097460E-4   -2.832262810454921E-3   -8.404947035224692E-4   -1.456076865950134E-1    4.228670038586831E-1
 8.196508262575000E9    -2.144469434132894E-1    4.917548745952189E-1   -2.718776055951744E-3   -9.386625224635672E-4   -2.831767635345802E-3   -8.525825806497487E-4   -1.452717169431512E-1    4.229258899526592E-1
 8.196515070400000E9    -2.139643822148126E-1    4.918905780380562E-1   -2.729893064097284E-3   -9.215564526940904E-4   -2.824046707282308E-3   -8.529741316506809E-4   -1.449376175561320E-1    4.230301406261754E-1
 8.196521878225000E9    -2.135295008629586E-1    4.920813407477202E-1   -2.686799662355088E-3   -9.181737276371805E-4   -2.812722739414562E-3   -8.528923512243987E-4   -1.443841730253639E-1    4.231839869188579E-1
 8.196528686050000E9    -2.131256817344694E-1    4.922451265584485E-1   -2.712054994745454E-3   -8.952666417564975E-4   -2.800226747827782E-3   -8.559186866544210E-4   -1.441765093699792E-1    4.232735377200632E-1
 8.196535493875000E9    -2.125262073155421E-1    4.925887364065016E-1   -2.733722406770152E-3   -9.144263043351856E-4   -2.819747695199672E-3   -8.328328649043202E-4   -1.436869499508451E-1    4.232553707198913E-1
 8.196542301700000E9    -2.121565694092632E-1    4.927312722000288E-1   -2.741515313335182E-3   -9.200500524531595E-4   -2.844775648255332E-3   -8.194631837119637E-4   -1.434792558236216E-1    4.235381156879174E-1
 8.196549109525000E9    -2.117026535914926E-1    4.928812547053535E-1   -2.720495631899481E-3   -9.008627742820011E-4   -2.812081965516453E-3   -8.419484243515739E-4   -1.431422489845892E-1    4.237369492602221E-1
 8.196555917350000E9    -2.113287408687423E-1    4.930906039840155E-1   -2.710850066619689E-3   -8.880198457878934E-4   -2.840111630879075E-3   -7.976312378162638E-4   -1.425866030969595E-1    4.237877829391862E-1
 8.196562725175000E9    -2.108215147513758E-1    4.932488640970448E-1   -2.719542093784085E-3   -9.056246209327405E-4   -2.820982630382423E-3   -8.397736497632160E-4   -1.425127689232003E-1    4.239049310889215E-1
 8.196569533000000E9    -2.103351865823118E-1    4.935029614703364E-1   -2.752380947550249E-3   -9.018561924470797E-4   -2.824838052152372E-3   -8.251729822592303E-4   -1.419633299930979E-1    4.240230357951152E-1
 8.196576340825000E9    -2.099630846176672E-1    4.936190950328661E-1   -2.713059966998922E-3   -8.776738755772016E-4   -2.848944451990105E-3   -7.875697547262691E-4   -1.416444792319438E-1    4.241065980565214E-1
 8.196583148650000E9    -2.093966332513881E-1    4.938811826325396E-1   -2.750067827837978E-3   -8.907064008339219E-4   -2.797921335637262E-3   -8.034322076934189E-4   -1.412077569190636E-1    4.243009328510094E-1
 8.196589956475000E9    -2.089713212146158E-1    4.939775914542182E-1   -2.727292505582552E-3   -8.910176035277292E-4   -2.826467940851186E-3   -7.877392721866851E-4   -1.408696161338095E-1    4.242120125546059E-1
 8.196596764300000E9    -2.083726241357194E-1    4.941463350211178E-1   -2.739244936961365E-3   -9.104354286250212E-4   -2.854011563875216E-3   -8.129106878165199E-4   -1.404586701892269E-1    4.243884218956439E-1
 8.196603572125000E9    -2.080002535009697E-1    4.944710364601619E-1   -2.754741088447344E-3   -8.868479361820301E-4   -2.857107782697441E-3   -7.985877742157362E-4   -1.400885917037449E-1    4.246154122282538E-1
 8.196610379950000E9    -2.074951248144558E-1    4.945207860748986E-1   -2.731070896749755E-3   -8.809062489168043E-4   -2.837243744648793E-3   -7.712831607708233E-4   -1.397519066088567E-1    4.245269001430447E-1
 8.196617187775000E9    -2.072316347133949E-1    4.946516655073952E-1   -2.740465821699150E-3   -8.771192364147519E-4   -2.847441104685941E-3   -7.824744708934140E-4   -1.394753883657161E-1    4.247763496135666E-1
 8.196623995600000E9    -2.067142974683083E-1    4.949693013556941E-1   -2.757936313472947E-3   -8.730877520804765E-4   -2.850060393490445E-3   -7.741304953145691E-4   -1.388745612901501E-1    4.249231891117360E-1
 8.196630803425000E9    -2.061787225590553E-1    4.950102215787943E-1   -2.779521489414679E-3   -8.554298096059603E-4   -2.859340701584848E-3   -8.064179108741262E-4   -1.386038310998052E-1    4.249527570857910E-1
 8.196637611250000E9    -2.056998092868208E-1    4.952326235222423E-1   -2.780492940618243E-3   -8.885426230007403E-4   -2.866635396268913E-3   -7.931077359916526E-4   -1.382652768929652E-1    4.250355075141298E-1
