#  HZ   S   RI   R     50.00 
! Rohde & Schwarz Vector Network Analyzer 
! Rohde-Schwarz,ZNB20-2Port,1311601062101988,3.16
! Created: UTC 3/20/2024, 4:58:02 PM
! freq[Hz]                re:S11                  im:S11                  re:S21                  im:S21                  re:S12                  im:S12                  re:S22                  im:S22
 8.175195008000000E9     5.936240896111955E-3   -5.444485617376628E-1    2.228390174346644E-3   -3.506255808610502E-4    2.315837676972585E-3   -3.897096521853707E-4   -1.022710839707703E-1   -4.605478502300378E-1
 8.175295096700000E9    -1.055890232518105E-3   -5.445809363652822E-1    2.205372346423704E-3   -3.984799328596480E-4    2.314925443605068E-3   -4.068060110531427E-4   -1.077983318762340E-1   -4.590086251724902E-1
 8.175395185400000E9    -8.007210684383611E-3   -5.444431362667609E-1    2.219167556976766E-3   -4.180560745572177E-4    2.277736962507849E-3   -4.215260788726261E-4   -1.135470730171615E-1   -4.576121239768936E-1
 8.175495274100000E9    -1.465589038795444E-2   -5.442271708450169E-1    2.216580863742931E-3   -4.486330604991892E-4    2.332463711900535E-3   -4.593133170260427E-4   -1.187665347977327E-1   -4.561964064784976E-1
 8.175595362800000E9    -2.169994736354303E-2   -5.439744762227708E-1    2.216065647722151E-3   -4.426799834074661E-4    2.261266808382369E-3   -4.945457406602122E-4   -1.241627463849780E-1   -4.545408160833468E-1
 8.175695451500000E9    -2.850138951244567E-2   -5.436676996819643E-1    2.224865254819577E-3   -4.958669668901896E-4    2.257365278842689E-3   -5.184386944158663E-4   -1.296738452496381E-1   -4.527849023780093E-1
 8.175795540200000E9    -3.536215927669304E-2   -5.433509881593127E-1    2.213465196424795E-3   -5.206081032522531E-4    2.300015910006837E-3   -5.101879833075638E-4   -1.351072495993274E-1   -4.512531470741229E-1
 8.175895628900000E9    -4.212609040457328E-2   -5.428234920502157E-1    2.183810059261794E-3   -5.579892645132432E-4    2.246661545502222E-3   -5.893703774167299E-4   -1.404855507769402E-1   -4.494209864770002E-1
 8.175995717600000E9    -4.903770148220486E-2   -5.421272528536005E-1    2.161907422573368E-3   -5.789089401743292E-4    2.239436574282098E-3   -5.964188156994663E-4   -1.457212468612333E-1   -4.474819218585521E-1
 8.176095806300000E9    -5.579955831093327E-2   -5.416499029437021E-1    2.193297498088140E-3   -6.022988093940346E-4    2.211464855595387E-3   -6.012122385100429E-4   -1.511209597052005E-1   -4.456087768265603E-1
 8.176195895000000E9    -6.273382402869340E-2   -5.406936160160305E-1    2.165523468374088E-3   -6.293608991877890E-4    2.246475985234020E-3   -6.387387096599515E-4   -1.564372074533960E-1   -4.435632239465958E-1
 8.176295983700000E9    -6.942916855912185E-2   -5.399802322609970E-1    2.153568530780772E-3   -6.560326255863189E-4    2.235122579229390E-3   -6.533475315300305E-4   -1.618142566541454E-1   -4.416394382451420E-1
 8.176396072400000E9    -7.630857218436395E-2   -5.389560910612485E-1    2.139310881280091E-3   -6.610444231055989E-4    2.192244033704684E-3   -6.738963284281200E-4   -1.670354669159679E-1   -4.395351483383537E-1
 8.176496161100000E9    -8.305981379128745E-2   -5.379620951605427E-1    2.152606076032224E-3   -6.877896796913485E-4    2.207991659657074E-3   -7.219033921229161E-4   -1.722548222991983E-1   -4.374608995691749E-1
 8.176596249800000E9    -8.992460850470368E-2   -5.369319422310407E-1    2.120984269979867E-3   -7.118212942658145E-4    2.198846071487840E-3   -7.962428195006747E-4   -1.774852371240153E-1   -4.352314313266202E-1
 8.176696338500000E9    -9.673483322711232E-2   -5.356978785445502E-1    2.098110533064577E-3   -7.435281189649099E-4    2.189440667186162E-3   -7.939395619125995E-4   -1.828069727834054E-1   -4.329299972265637E-1
 8.176796427200000E9    -1.035578672208673E-1   -5.343860270974808E-1    2.115582811348566E-3   -7.536495852611210E-4    2.188969801860834E-3   -8.020459466366014E-4   -1.878862754113559E-1   -4.305143401103509E-1
 8.176896515900000E9    -1.101382072049710E-1   -5.330833159274994E-1    2.103848115696950E-3   -8.076612525826687E-4    2.160087357909315E-3   -8.482787510843743E-4   -1.931388119321540E-1   -4.280720189843810E-1
 8.176996604600000E9    -1.169645344116651E-1   -5.315798811081033E-1    2.106947605552253E-3   -8.419528620174082E-4    2.192699623304125E-3   -8.550254748755422E-4   -1.980867904602833E-1   -4.256889640125327E-1
 8.177096693300000E9    -1.236870916269653E-1   -5.299748881092088E-1    2.100477379956525E-3   -8.533343106477865E-4    2.161274530252122E-3   -9.056146215239857E-4   -2.031679824957108E-1   -4.231953195574955E-1
 8.177196782000000E9    -1.303785342054730E-1   -5.284344189877440E-1    2.072333937458683E-3   -8.548662748406713E-4    2.147031318993503E-3   -8.958050969955083E-4   -2.081529026264894E-1   -4.205462608851032E-1
 8.177296870700000E9    -1.370284597776744E-1   -5.267373212102259E-1    2.062306979874662E-3   -9.234055719332169E-4    2.155550590788184E-3   -9.419267276649521E-4   -2.131830380141253E-1   -4.179408743512202E-1
 8.177396959400000E9    -1.435591915859580E-1   -5.248510689482901E-1    2.058743932299816E-3   -9.284176892658330E-4    2.103021744991965E-3   -9.871431553112016E-4   -2.181418275471149E-1   -4.152415774315502E-1
 8.177497048100000E9    -1.503350288336833E-1   -5.230304722693694E-1    2.050502055562832E-3   -9.351425397813446E-4    2.080580783828504E-3   -9.658023433565699E-4   -2.230945303427433E-1   -4.123995388276860E-1
 8.177597136800000E9    -1.569493977071411E-1   -5.211848144714841E-1    1.994032541273131E-3   -9.707655600834729E-4    2.109487310711241E-3   -1.012966318186219E-3   -2.280864384168384E-1   -4.096131846277985E-1
 8.177697225500000E9    -1.635028440195050E-1   -5.190615164975745E-1    1.998365980542475E-3   -9.787159204921849E-4    2.077391116442837E-3   -1.049574155043125E-3   -2.328313744124820E-1   -4.066965084721661E-1
 8.177797314200000E9    -1.701407912508006E-1   -5.169352597515160E-1    2.011394561881672E-3   -1.023429555098053E-3    2.062413039222051E-3   -1.088878167892102E-3   -2.377364431152563E-1   -4.038391702726776E-1
 8.177897402900000E9    -1.766714386281420E-1   -5.147184896889055E-1    1.971576306662092E-3   -1.052142006359817E-3    2.014573656896700E-3   -1.078281299201236E-3   -2.424786869411039E-1   -4.008897413420602E-1
 8.177997491600000E9    -1.829699556448535E-1   -5.125448057640194E-1    1.965905339146998E-3   -1.082901139079344E-3    2.039576414629766E-3   -1.124767386378126E-3   -2.472589155641214E-1   -3.977867579203355E-1
 8.178097580300000E9    -1.894509748573417E-1   -5.101195808589395E-1    1.947975255741289E-3   -1.111104341537478E-3    2.034477328532790E-3   -1.140196906429403E-3   -2.520489849591490E-1   -3.946711492349732E-1
 8.178197669000000E9    -1.960123885845408E-1   -5.076576747352235E-1    1.943172521925563E-3   -1.120529924539256E-3    2.027954200983602E-3   -1.184044543422504E-3   -2.567187572645117E-1   -3.914967952574823E-1
 8.178297757700000E9    -2.023727441612723E-1   -5.050379748910053E-1    1.956137361099810E-3   -1.147891511350813E-3    1.966987148434947E-3   -1.195418628221790E-3   -2.611575682060753E-1   -3.882396346298294E-1
 8.178397846400000E9    -2.087439482346006E-1   -5.023896440093704E-1    1.914945668924150E-3   -1.126739535141995E-3    1.972329102842932E-3   -1.208506233486502E-3   -2.658676828883759E-1   -3.849104502489474E-1
 8.178497935100000E9    -2.151214485896425E-1   -4.998454912938753E-1    1.896063100687312E-3   -1.160733402681443E-3    1.933766434396381E-3   -1.243525554078455E-3   -2.703995908718075E-1   -3.817303425517373E-1
 8.178598023800000E9    -2.215146593995671E-1   -4.969377806507650E-1    1.895063749017933E-3   -1.210467349882844E-3    1.964702874265173E-3   -1.253436376964500E-3   -2.750949632536248E-1   -3.782136197702172E-1
 8.178698112500000E9    -2.276529504482158E-1   -4.941391038405193E-1    1.876115639100656E-3   -1.228912369670420E-3    1.942487416336310E-3   -1.297730189298742E-3   -2.793275111380193E-1   -3.749117231559701E-1
 8.178798201200000E9    -2.341287519877401E-1   -4.911128907976074E-1    1.871070503996544E-3   -1.264104531785124E-3    1.913206983606724E-3   -1.313773613954737E-3   -2.839201950001642E-1   -3.713810532480761E-1
 8.178898289900000E9    -2.401161432083334E-1   -4.880110816416001E-1    1.855387066141583E-3   -1.251829955926567E-3    1.904536286361909E-3   -1.384977998992184E-3   -2.881012072143422E-1   -3.678037164991557E-1
 8.178998378600000E9    -2.462487381342559E-1   -4.850170053791534E-1    1.839884878587424E-3   -1.313961737700710E-3    1.887481313179484E-3   -1.378092862024849E-3   -2.926785017123545E-1   -3.642687904906154E-1
 8.179098467300000E9    -2.525374903624948E-1   -4.816937723934698E-1    1.809599942815663E-3   -1.329099652760497E-3    1.903714626965774E-3   -1.394180258938262E-3   -2.969738133671501E-1   -3.606555506282925E-1
 8.179198556000000E9    -2.585484674443662E-1   -4.785396903602772E-1    1.778735569310310E-3   -1.328835986067010E-3    1.835526471913692E-3   -1.419068515715380E-3   -3.010650333646911E-1   -3.570316268716505E-1
 8.179298644700000E9    -2.645426846646041E-1   -4.753394776426422E-1    1.788588681091625E-3   -1.355886986866558E-3    1.800489335785598E-3   -1.427918274514333E-3   -3.053871911937831E-1   -3.531193057142161E-1
 8.179398733400000E9    -2.706250090762303E-1   -4.719228795696713E-1    1.777316931889210E-3   -1.370809936383281E-3    1.817367782778354E-3   -1.433734700959851E-3   -3.093435857034936E-1   -3.492580779904236E-1
 8.179498822100000E9    -2.767013014266432E-1   -4.684424667107907E-1    1.753297560261623E-3   -1.418094405889929E-3    1.808302197015706E-3   -1.488572509868606E-3   -3.135971910305862E-1   -3.455338254604127E-1
 8.179598910800000E9    -2.825404830088996E-1   -4.648448881788017E-1    1.736968296569876E-3   -1.411995506156176E-3    1.766864618164057E-3   -1.515966931249947E-3   -3.176155755820242E-1   -3.416724598819905E-1
 8.179698999500000E9    -2.884057342187597E-1   -4.612775125558229E-1    1.697911760336848E-3   -1.455454814973651E-3    1.760506148318688E-3   -1.505869154484991E-3   -3.215804131453637E-1   -3.378487378081118E-1
 8.179799088200000E9    -2.942602209119260E-1   -4.574304327643658E-1    1.743591748355346E-3   -1.475251527460196E-3    1.743757957209905E-3   -1.546299511166033E-3   -3.254931612461082E-1   -3.338141202967343E-1
 8.179899176900000E9    -3.000132161738680E-1   -4.536337482349095E-1    1.657801663459243E-3   -1.486540009828478E-3    1.736283877949782E-3   -1.533466448489539E-3   -3.296186674869252E-1   -3.299078385658918E-1
 8.179999265600000E9    -3.058214421353342E-1   -4.497389037717666E-1    1.684721242868706E-3   -1.524517292403270E-3    1.699585212595564E-3   -1.565217105574307E-3   -3.333864431536990E-1   -3.256441458558409E-1
 8.180099354300000E9    -3.114946760835850E-1   -4.457302489313614E-1    1.674793732716973E-3   -1.504530371440815E-3    1.676295913797967E-3   -1.634047876610634E-3   -3.373149513308415E-1   -3.215655255864109E-1
 8.180199443000000E9    -3.171406361614394E-1   -4.418623948468284E-1    1.621223204337861E-3   -1.550541548570308E-3    1.662278525802674E-3   -1.612709112552258E-3   -3.409710156556004E-1   -3.174171608735706E-1
 8.180299531700000E9    -3.227678224611243E-1   -4.377210548125770E-1    1.608073461075832E-3   -1.585675653238508E-3    1.634021453729991E-3   -1.639677181811309E-3   -3.446372843650453E-1   -3.133073901097770E-1
 8.180399620400000E9    -3.281805771494591E-1   -4.335501867566445E-1    1.575833065501299E-3   -1.618260804839638E-3    1.644194098804280E-3   -1.661119214760137E-3   -3.485360102753817E-1   -3.090837403653241E-1
 8.180499709100000E9    -3.337003354219042E-1   -4.293038749363882E-1    1.567701285539767E-3   -1.591193270218160E-3    1.627090459676447E-3   -1.687288081253054E-3   -3.520059060824192E-1   -3.048183275032920E-1
 8.180599797800000E9    -3.390413546992147E-1   -4.251075314469343E-1    1.531123420055814E-3   -1.624197663593035E-3    1.585936389125038E-3   -1.699888561343072E-3   -3.555000537621514E-1   -3.003599662719963E-1
 8.180699886500000E9    -3.445035790234374E-1   -4.207830599148466E-1    1.529135226585560E-3   -1.641779491614544E-3    1.548898349144209E-3   -1.724250794967104E-3   -3.590242372010992E-1   -2.960536594456802E-1
 8.180799975200000E9    -3.498302101790262E-1   -4.162812293784762E-1    1.521421901970842E-3   -1.680852976599247E-3    1.510934215307996E-3   -1.803707852194873E-3   -3.624184602751878E-1   -2.916228587552874E-1
 8.180900063900000E9    -3.549905973815506E-1   -4.118506676879930E-1    1.511407370491662E-3   -1.680821109552629E-3    1.498913330286317E-3   -1.750839945861384E-3   -3.659007780931669E-1   -2.871549070370863E-1
 8.181000152600000E9    -3.602262567518651E-1   -4.072683481376306E-1    1.468446430344005E-3   -1.679136172195653E-3    1.459218717173905E-3   -1.795045158085583E-3   -3.691259026000518E-1   -2.826783053425603E-1
 8.181100241300000E9    -3.653563033356894E-1   -4.024822190576324E-1    1.448341249108308E-3   -1.734018347046291E-3    1.480898650156734E-3   -1.785494102400333E-3   -3.726098100418839E-1   -2.781569013418049E-1
 8.181200330000000E9    -3.704492661218518E-1   -3.977644318541652E-1    1.447175110740087E-3   -1.747762843920034E-3    1.436479710353019E-3   -1.852403537852974E-3   -3.758125180867611E-1   -2.735998898856318E-1
 8.181300418700000E9    -3.756116297361366E-1   -3.929699415116575E-1    1.425705585905780E-3   -1.746485568610444E-3    1.465652639781267E-3   -1.864847998631089E-3   -3.787859268358103E-1   -2.690401667360928E-1
 8.181400507400000E9    -3.805449154565926E-1   -3.882670972663771E-1    1.393115361958328E-3   -1.775635716719753E-3    1.407612452519216E-3   -1.854903141769026E-3   -3.820934708357622E-1   -2.645536895036276E-1
 8.181500596100000E9    -3.855471027769782E-1   -3.833195726899501E-1    1.374406029056677E-3   -1.773144613357501E-3    1.447474825146160E-3   -1.870528270276549E-3   -3.851463927897013E-1   -2.597967406611436E-1
 8.181600684800000E9    -3.902969351868121E-1   -3.782910418860850E-1    1.323787549790067E-3   -1.807473443631598E-3    1.351315612375596E-3   -1.885091197136338E-3   -3.880991571802819E-1   -2.549169258757027E-1
 8.181700773500000E9    -3.950770284009041E-1   -3.732133018342563E-1    1.334297149614259E-3   -1.831120918314258E-3    1.330838432798663E-3   -1.908532727545377E-3   -3.911967495737107E-1   -2.501887388885254E-1
 8.181800862200000E9    -3.998443541341093E-1   -3.681603782698611E-1    1.338186172315962E-3   -1.851124395113087E-3    1.319594439092291E-3   -1.932056679503906E-3   -3.940344974495469E-1   -2.455823960129381E-1
 8.181900950900000E9    -4.044860590568768E-1   -3.630799860413743E-1    1.299505580573835E-3   -1.858685458372420E-3    1.308568142637642E-3   -1.960951920883295E-3   -3.967802624401161E-1   -2.407584303444079E-1
 8.182001039600000E9    -4.089258690953377E-1   -3.578014975083341E-1    1.269619390129144E-3   -1.843693941733144E-3    1.276415996466815E-3   -1.999351982117229E-3   -3.995860073710885E-1   -2.359647112922688E-1
 8.182101128300000E9    -4.135455263196289E-1   -3.525922143730887E-1    1.248245186810342E-3   -1.897361673394440E-3    1.242916168182673E-3   -1.956617253043599E-3   -4.023343674149224E-1   -2.309275313086830E-1
 8.182201217000000E9    -4.178323871275222E-1   -3.473112227505111E-1    1.219953919671844E-3   -1.896142041991895E-3    1.240703217827139E-3   -1.990785402635072E-3   -4.051029573447580E-1   -2.260758990267940E-1
 8.182301305700000E9    -4.223514902853557E-1   -3.418011772239642E-1    1.205712237588075E-3   -1.919976788404545E-3    1.194138347724118E-3   -2.002931644931021E-3   -4.076213907392562E-1   -2.211326294191352E-1
 8.182401394400000E9    -4.265826560654603E-1   -3.363698071610433E-1    1.167217395209186E-3   -1.956028848999622E-3    1.214262198137511E-3   -2.001872935429012E-3   -4.100361482722065E-1   -2.163078993199527E-1
 8.182501483100000E9    -4.309046511983478E-1   -3.309304943735575E-1    1.166627702582674E-3   -1.938303630123595E-3    1.149159986448464E-3   -2.046257652900052E-3   -4.125696346692865E-1   -2.112251031225569E-1
 8.182601571800000E9    -4.350328051971125E-1   -3.254125027906879E-1    1.105320909161813E-3   -1.987810762687248E-3    1.134158169948233E-3   -2.081708796472020E-3   -4.150993170971042E-1   -2.061395188513898E-1
 8.182701660500000E9    -4.392429899775743E-1   -3.197789308785585E-1    1.099211596724073E-3   -1.989171192683430E-3    1.087085384670546E-3   -2.073753571582855E-3   -4.174190890086837E-1   -2.011100018063925E-1
 8.182801749200000E9    -4.432562063487854E-1   -3.140620080014774E-1    1.071442984980751E-3   -2.011461391415249E-3    1.103556610949373E-3   -2.072103414796268E-3   -4.196472183090942E-1   -1.959976028924711E-1
 8.182901837900000E9    -4.471489515523867E-1   -3.083828705258178E-1    1.056157351283941E-3   -2.031127721994810E-3    1.088031575403591E-3   -2.118748236081789E-3   -4.218730428671039E-1   -1.909024708398381E-1
 8.183001926600000E9    -4.511727403093462E-1   -3.028150834950569E-1    1.047070096026292E-3   -2.030252905728596E-3    1.031583162911865E-3   -2.126908860154486E-3   -4.242219806051529E-1   -1.858764802757848E-1
 8.183102015300000E9    -4.548573204304056E-1   -2.967724788399869E-1    1.021973213729501E-3   -2.047770685663082E-3    1.025138502416427E-3   -2.143476247952818E-3   -4.262455791257157E-1   -1.805417942176826E-1
 8.183202104000000E9    -4.585951133965644E-1   -2.909295429889828E-1    9.551998620453473E-4   -2.042733499030022E-3    9.977813143201594E-4   -2.170875567624024E-3   -4.282351353889084E-1   -1.755375345335340E-1
 8.183302192700000E9    -4.622475455816215E-1   -2.850865273666439E-1    9.436053110545630E-4   -2.074658439899711E-3    9.381723936371499E-4   -2.173297531094019E-3   -4.301487868166527E-1   -1.701906424997323E-1
 8.183402281400000E9    -4.659725820056437E-1   -2.790509379298171E-1    9.612334459016414E-4   -2.064221814691616E-3    9.171282234960430E-4   -2.186520188807477E-3   -4.320938885851956E-1   -1.650000659319251E-1
 8.183502370100000E9    -4.694442287827561E-1   -2.730590518629527E-1    8.779409124846880E-4   -2.102733934755554E-3    8.967729350717104E-4   -2.174393062171573E-3   -4.340022855835371E-1   -1.596398019110053E-1
 8.183602458800000E9    -4.728846191819488E-1   -2.669887822378665E-1    8.672800534385391E-4   -2.096047189281866E-3    9.006592327528842E-4   -2.198221361411641E-3   -4.360073304967160E-1   -1.545979840590873E-1
 8.183702547500000E9    -4.762619718050746E-1   -2.608848808788575E-1    8.621647731062074E-4   -2.119504880015883E-3    8.642894428734992E-4   -2.197909552107991E-3   -4.375438796108949E-1   -1.491678838115665E-1
 8.183802636200000E9    -4.795986900512738E-1   -2.548295117947203E-1    7.999480806168800E-4   -2.145053107761506E-3    8.348588399367188E-4   -2.235815930310353E-3   -4.392448657144589E-1   -1.440177148830985E-1
 8.183902724900000E9    -4.827251433717798E-1   -2.487709050951365E-1    8.059089923903313E-4   -2.136500705886368E-3    7.844035442187774E-4   -2.250568142589522E-3   -4.408147173549489E-1   -1.386283467922474E-1
 8.184002813600000E9    -4.858511213027452E-1   -2.424981312766202E-1    8.135885260487836E-4   -2.157374243425045E-3    7.774927063928172E-4   -2.246820271399746E-3   -4.423330209490403E-1   -1.330560956447535E-1
 8.184102902300000E9    -4.888725826453745E-1   -2.361970165067418E-1    7.476617129269306E-4   -2.156028271489059E-3    7.381537573547802E-4   -2.260801143902381E-3   -4.438873024335787E-1   -1.277544896613651E-1
 8.184202991000000E9    -4.917426736970555E-1   -2.299186555345628E-1    7.053218871231324E-4   -2.180917000303950E-3    6.983876038643429E-4   -2.251851932003141E-3   -4.453539019294827E-1   -1.224418093489766E-1
