#  HZ   S   RI   R     50.00 
! Rohde & Schwarz Vector Network Analyzer 
! Rohde-Schwarz,ZNB20-2Port,1311601062101988,3.16
! Created: UTC 3/20/2024, 5:13:09 PM
! freq[Hz]                re:S11                  im:S11                  re:S21                  im:S21                  re:S12                  im:S12                  re:S22                  im:S22
 8.196128950000000E9    -2.394417928003735E-1    4.804838394403214E-1   -2.555985802368885E-3   -1.041267091596706E-3   -2.654562475916609E-3   -9.402870114703612E-4   -1.654560596521064E-1    4.161224927582674E-1
 8.196135309875000E9    -2.390947109499681E-1    4.807156097544363E-1   -2.581152386094738E-3   -9.944794617847343E-4   -2.645702780835963E-3   -9.306451807462920E-4   -1.651137578408831E-1    4.162633132287064E-1
 8.196141669750000E9    -2.386640053677097E-1    4.808542709427395E-1   -2.562458613279393E-3   -1.018867290218432E-3   -2.658760480481425E-3   -9.689790243731276E-4   -1.648141848566042E-1    4.164802250422057E-1
 8.196148029625000E9    -2.380840500828584E-1    4.810464616855578E-1   -2.549271282103578E-3   -1.012171167674695E-3   -2.637529612016620E-3   -9.838198671406849E-4   -1.643275234090645E-1    4.166060983862396E-1
 8.196154389500000E9    -2.377685374898408E-1    4.813016135737335E-1   -2.551146706509615E-3   -1.024577565673079E-3   -2.629580690181702E-3   -9.405014937456264E-4   -1.640106213116163E-1    4.166150211004418E-1
 8.196160749375000E9    -2.372763940713328E-1    4.815730594957087E-1   -2.564089954379558E-3   -1.018293691016992E-3   -2.658485434023731E-3   -9.626383252228307E-4   -1.637289041017096E-1    4.167457442806509E-1
 8.196167109250000E9    -2.368507089835249E-1    4.817952033051725E-1   -2.559798701077789E-3   -9.869766826249879E-4   -2.658830961383516E-3   -9.490130735024933E-4   -1.634095020188849E-1    4.169031817902648E-1
 8.196173469125000E9    -2.364964197621835E-1    4.818828582044974E-1   -2.583087319502744E-3   -1.026672974370161E-3   -2.667709489518115E-3   -9.398447923569064E-4   -1.630632926693084E-1    4.170766210209671E-1
 8.196179829000000E9    -2.360692249116041E-1    4.820895217825851E-1   -2.570948673173426E-3   -9.975920801683813E-4   -2.670612934290793E-3   -9.600731514658525E-4   -1.626755408296466E-1    4.171841124588785E-1
 8.196186188875000E9    -2.356040809486517E-1    4.823484774679197E-1   -2.608195646254097E-3   -1.009606676137883E-3   -2.659307865612046E-3   -9.261096780637096E-4   -1.624464184588879E-1    4.173335217564731E-1
 8.196192548750000E9    -2.352205528466400E-1    4.824433035068941E-1   -2.572824469866303E-3   -1.018548472486642E-3   -2.691430130917745E-3   -9.363220934249004E-4   -1.621234266117800E-1    4.174320567765876E-1
 8.196198908625000E9    -2.347949669712195E-1    4.827452406960496E-1   -2.580763160051543E-3   -9.803427207774869E-4   -2.698550607031282E-3   -9.475763364721576E-4   -1.617941795847910E-1    4.174177346149652E-1
 8.196205268500000E9    -2.343937011930246E-1    4.828693017417880E-1   -2.561664237792314E-3   -1.011319306516229E-3   -2.695137241358604E-3   -9.231952418624428E-4   -1.614029690114152E-1    4.176193392309235E-1
 8.196211628375000E9    -2.340724212583234E-1    4.831213549112447E-1   -2.602029417187836E-3   -9.876336056000828E-4   -2.685364515141926E-3   -9.070722026551435E-4   -1.611394330006142E-1    4.177028794917436E-1
 8.196217988250000E9    -2.335700176980264E-1    4.832761083855017E-1   -2.573215165927789E-3   -1.006122201474583E-3   -2.671834278267569E-3   -9.335677850894476E-4   -1.607194651232305E-1    4.178263367114344E-1
 8.196224348125000E9    -2.331794186237406E-1    4.834749723369086E-1   -2.584697770039304E-3   -9.921233200117768E-4   -2.670727017508179E-3   -9.328967659410277E-4   -1.603419967705981E-1    4.180047120619394E-1
 8.196230708000000E9    -2.326923949978053E-1    4.836898195574013E-1   -2.583786168261958E-3   -1.002409214210240E-3   -2.690570493957036E-3   -9.020368613053478E-4   -1.600494373190661E-1    4.181291839371640E-1
 8.196237067875000E9    -2.323938324091990E-1    4.839004045409426E-1   -2.588730721172402E-3   -9.902745727875409E-4   -2.695258619942513E-3   -8.885430159654784E-4   -1.596622681647522E-1    4.182003359904136E-1
 8.196243427750000E9    -2.319838668583481E-1    4.839860167559644E-1   -2.616115123733498E-3   -9.850707527435225E-4   -2.676689987007116E-3   -9.295593680682743E-4   -1.592350012087086E-1    4.183203992364242E-1
 8.196249787625000E9    -2.314589974504149E-1    4.843462506162482E-1   -2.600708920473270E-3   -1.004868868250683E-3   -2.693251581875353E-3   -9.059863044946929E-4   -1.589419058716730E-1    4.183729537534849E-1
 8.196256147500000E9    -2.311157214867817E-1    4.844499022352606E-1   -2.605346120232241E-3   -9.735614402718357E-4   -2.677099990999078E-3   -9.080303241933533E-4   -1.587268834986965E-1    4.185883964480754E-1
 8.196262507375000E9    -2.306560931786759E-1    4.846615537650251E-1   -2.615832880843352E-3   -9.710106153317853E-4   -2.694678934255135E-3   -8.956729679855421E-4   -1.583593229226923E-1    4.186275731482574E-1
 8.196268867250000E9    -2.302841299471349E-1    4.847493140222243E-1   -2.601553184325726E-3   -9.897211810390649E-4   -2.700724437107056E-3   -9.409539672926873E-4   -1.580474297907793E-1    4.187594051804223E-1
 8.196275227125000E9    -2.296880018276891E-1    4.850110708313139E-1   -2.629337905442151E-3   -9.885457177644136E-4   -2.683760953413729E-3   -8.844643040426015E-4   -1.576420884447910E-1    4.188711124467389E-1
 8.196281587000000E9    -2.294557072041402E-1    4.851776532829962E-1   -2.625893366170562E-3   -9.687820980104459E-4   -2.685826388892753E-3   -9.207268730803862E-4   -1.573574764508266E-1    4.188269855288331E-1
 8.196287946875000E9    -2.290416125920184E-1    4.854563434921425E-1   -2.614628211365850E-3   -9.703453346291232E-4   -2.699040571381068E-3   -9.225690635695111E-4   -1.570037889438978E-1    4.190916872203269E-1
 8.196294306750000E9    -2.286817414612647E-1    4.856682853145945E-1   -2.616970230623765E-3   -9.689451772485276E-4   -2.708581785731654E-3   -9.217303576776557E-4   -1.565810814230925E-1    4.192504432866664E-1
 8.196300666625000E9    -2.282201284361431E-1    4.858661146289143E-1   -2.627483122095097E-3   -9.801870975378413E-4   -2.727785118716999E-3   -8.802936639656770E-4   -1.562906718968344E-1    4.193755101129252E-1
 8.196307026500000E9    -2.277080479779685E-1    4.859294872696742E-1   -2.624444063198627E-3   -9.806287269070171E-4   -2.687491664242613E-3   -8.952568470881133E-4   -1.560359628265342E-1    4.194322927320177E-1
 8.196313386375000E9    -2.273224427937932E-1    4.862230260605383E-1   -2.628412256086253E-3   -9.700907468545614E-4   -2.693734585909487E-3   -8.858826325541218E-4   -1.555999633051523E-1    4.196119997071007E-1
 8.196319746250000E9    -2.269067177646221E-1    4.863418216065182E-1   -2.632602644657204E-3   -9.673455479975401E-4   -2.709507165215513E-3   -9.235815870877150E-4   -1.553430076560479E-1    4.197330494168129E-1
 8.196326106125000E9    -2.264608289407620E-1    4.865419104642530E-1   -2.607148345474358E-3   -9.831960138795615E-4   -2.708890411443102E-3   -9.044510111753751E-4   -1.551367404628329E-1    4.197850773531367E-1
 8.196332466000000E9    -2.260764034824956E-1    4.867063666192372E-1   -2.628886224332267E-3   -9.597643920522536E-4   -2.715334098600106E-3   -8.760322429584155E-4   -1.545086842014325E-1    4.200015089896886E-1
 8.196338825875000E9    -2.255950632569995E-1    4.869880187044149E-1   -2.637379492353068E-3   -9.606240588203587E-4   -2.703833472274207E-3   -8.954638879586792E-4   -1.542860874342302E-1    4.199348793352002E-1
 8.196345185750000E9    -2.251396281113796E-1    4.871189671192135E-1   -2.630187927410938E-3   -9.671235589140623E-4   -2.722133931242178E-3   -8.827856520999430E-4   -1.539503392639743E-1    4.200530630166760E-1
 8.196351545625000E9    -2.249476371753465E-1    4.871963439637120E-1   -2.626392575840561E-3   -9.609541128322563E-4   -2.705609375867265E-3   -8.960827030775590E-4   -1.534669182511670E-1    4.202019315219053E-1
 8.196357905500000E9    -2.243709549942227E-1    4.874503869523110E-1   -2.639154277965931E-3   -9.546818553528580E-4   -2.740939321122966E-3   -9.087532572696524E-4   -1.532249813379509E-1    4.203002062590476E-1
 8.196364265375000E9    -2.239723439684075E-1    4.875819527032403E-1   -2.654748680829884E-3   -9.706393642321847E-4   -2.707293422796603E-3   -8.742904251013077E-4   -1.528916516186418E-1    4.205614526930996E-1
 8.196370625250000E9    -2.235515920178824E-1    4.877995085518699E-1   -2.650448309808348E-3   -9.485537723482482E-4   -2.712018103087568E-3   -8.881749252650785E-4   -1.526053091403710E-1    4.205307949933189E-1
 8.196376985125000E9    -2.232562543619263E-1    4.878990365804097E-1   -2.637881103907923E-3   -9.687257687106129E-4   -2.763309654923382E-3   -8.589452015734654E-4   -1.522401410761290E-1    4.206120985703891E-1
 8.196383345000000E9    -2.228459519776550E-1    4.881843677563887E-1   -2.641272017073091E-3   -9.404692611018617E-4   -2.706666070004601E-3   -8.902517406065356E-4   -1.520428327439273E-1    4.208930955915662E-1
 8.196389704875000E9    -2.222444954153159E-1    4.883930103157045E-1   -2.644804724888022E-3   -9.562472404287059E-4   -2.751139364178913E-3   -8.825542175939354E-4   -1.516429779804472E-1    4.208647725106748E-1
 8.196396064750000E9    -2.218450322767545E-1    4.886081291791845E-1   -2.633908418765939E-3   -9.470236881734963E-4   -2.749198922616101E-3   -8.834787767197191E-4   -1.511523158817383E-1    4.211242401703502E-1
 8.196402424625000E9    -2.214243989135888E-1    4.886655814909022E-1   -2.662811021112662E-3   -9.502847643493937E-4   -2.746146288707763E-3   -8.930598564904648E-4   -1.508088337932048E-1    4.212184842435328E-1
 8.196408784500000E9    -2.211114146040335E-1    4.888796453316007E-1   -2.652996188327747E-3   -9.271209803203248E-4   -2.743346032508762E-3   -8.346065030390045E-4   -1.506715204495416E-1    4.213077033269860E-1
 8.196415144375000E9    -2.205663354758134E-1    4.890984131539856E-1   -2.652963808425378E-3   -9.436099037192444E-4   -2.775012867002010E-3   -8.656774286793567E-4   -1.501266370754908E-1    4.213796502407607E-1
 8.196421504250000E9    -2.201894510510121E-1    4.893642236401934E-1   -2.646262227610613E-3   -9.249675617403214E-4   -2.767067066092452E-3   -8.727968350328267E-4   -1.498309045347714E-1    4.213207951834511E-1
 8.196427864125000E9    -2.197283910287500E-1    4.894766099437626E-1   -2.680919904867524E-3   -9.530379564619586E-4   -2.748951309878243E-3   -8.777711561456517E-4   -1.495926028975040E-1    4.216652289852280E-1
 8.196434224000000E9    -2.193947755475082E-1    4.896085034613137E-1   -2.667256697053762E-3   -9.501581522055440E-4   -2.788967198468626E-3   -8.916753347630855E-4   -1.489863614120956E-1    4.218140318305143E-1
 8.196440583875000E9    -2.188877488311425E-1    4.897076317141426E-1   -2.674782188815464E-3   -9.386284642480135E-4   -2.784168769808989E-3   -8.296886936416595E-4   -1.488652035928389E-1    4.216232844105335E-1
 8.196446943750000E9    -2.186162503285436E-1    4.899462453624066E-1   -2.649809319340691E-3   -8.902618796772261E-4   -2.725034497130626E-3   -8.563843308879182E-4   -1.485271730653715E-1    4.218338339550398E-1
 8.196453303625000E9    -2.182166520354239E-1    4.901981245438512E-1   -2.686183388498557E-3   -9.374376893904475E-4   -2.772688978982554E-3   -8.306275352591652E-4   -1.482253590649577E-1    4.221396092678180E-1
 8.196459663500000E9    -2.178033794034999E-1    4.905041255792179E-1   -2.682229505236753E-3   -9.282490985640636E-4   -2.744003037576409E-3   -8.605721785521794E-4   -1.478989990418939E-1    4.220404437490287E-1
 8.196466023375000E9    -2.172940354121461E-1    4.905200488319926E-1   -2.702839942141770E-3   -9.407519240730186E-4   -2.777674372514883E-3   -8.580482280233735E-4   -1.474495174172764E-1    4.223082324867573E-1
 8.196472383250000E9    -2.167688157713002E-1    4.906572766474764E-1   -2.710259999888777E-3   -9.621520647439529E-4   -2.764930802232586E-3   -8.253906662666614E-4   -1.471013780808045E-1    4.223180313678493E-1
 8.196478743125000E9    -2.165083626957721E-1    4.910130582112497E-1   -2.667591973574164E-3   -9.354314614997731E-4   -2.769518667171015E-3   -8.451753424294628E-4   -1.468242780883360E-1    4.223728879273027E-1
 8.196485103000000E9    -2.161535342478378E-1    4.911802998839641E-1   -2.690110544124246E-3   -9.243590622425296E-4   -2.774994867167988E-3   -8.222691389158595E-4   -1.465190792400529E-1    4.224687014406755E-1
 8.196491462875000E9    -2.156754380485377E-1    4.911333413432864E-1   -2.652735718011108E-3   -9.263054391611703E-4   -2.740374294814021E-3   -8.357127739580266E-4   -1.461122767393608E-1    4.227027811173018E-1
 8.196497822750000E9    -2.151691423396234E-1    4.914073858362025E-1   -2.696109525815614E-3   -9.315765086006566E-4   -2.753469278399978E-3   -8.442763309934973E-4   -1.457040923394634E-1    4.228485670089995E-1
 8.196504182625000E9    -2.147237229042702E-1    4.916905573238451E-1   -2.704706826387230E-3   -9.448557095348624E-4   -2.787533087589136E-3   -8.245595082339807E-4   -1.454956936463250E-1    4.229686546496954E-1
 8.196510542500000E9    -2.141706022773639E-1    4.918589661869959E-1   -2.691314047127987E-3   -9.078408425650479E-4   -2.782098768211767E-3   -8.483589332420024E-4   -1.451501067567247E-1    4.229996284806594E-1
 8.196516902375000E9    -2.139160524553145E-1    4.919790383108992E-1   -2.667446328863922E-3   -9.373935497869006E-4   -2.777790572135955E-3   -8.383129736477401E-4   -1.447131394113944E-1    4.230798942708113E-1
 8.196523262250000E9    -2.135548880088987E-1    4.921751483874764E-1   -2.700600716607443E-3   -9.279544173906527E-4   -2.793113243885755E-3   -8.334592087066674E-4   -1.443529382020358E-1    4.232720577882738E-1
 8.196529622125000E9    -2.130876364057480E-1    4.923465346448869E-1   -2.703908519535868E-3   -9.378681369992205E-4   -2.830594458801308E-3   -8.293103595397682E-4   -1.440660703129296E-1    4.233366816521625E-1
 8.196535982000000E9    -2.125763166902771E-1    4.925509369058600E-1   -2.716735672511673E-3   -9.258196573732800E-4   -2.793604255628508E-3   -8.192681046486388E-4   -1.437789469116918E-1    4.234083646984881E-1
 8.196542341875000E9    -2.121306274264513E-1    4.927118659402007E-1   -2.718331349088795E-3   -8.873359314861071E-4   -2.807242072124068E-3   -7.960858482890338E-4   -1.433677690607883E-1    4.234877712524888E-1
 8.196548701750000E9    -2.116979815980390E-1    4.928201133525489E-1   -2.692311349696425E-3   -8.939624365285562E-4   -2.808254757622912E-3   -8.125828404429592E-4   -1.429650847394217E-1    4.236041881570640E-1
 8.196555061625000E9    -2.113534149515679E-1    4.929849719827348E-1   -2.704614238160805E-3   -9.061471542985534E-4   -2.837092182169886E-3   -7.948062773914891E-4   -1.426620632092513E-1    4.236621318290002E-1
 8.196561421500000E9    -2.108533487834154E-1    4.931402068172925E-1   -2.724816395769501E-3   -8.916046038914610E-4   -2.830631957496226E-3   -8.258428681664786E-4   -1.422320771266966E-1    4.238811842673860E-1
 8.196567781375000E9    -2.104987869413927E-1    4.934048716550545E-1   -2.750994289025293E-3   -9.082883045123618E-4   -2.784291593005232E-3   -8.246682682495179E-4   -1.420597104121219E-1    4.240431813238949E-1
 8.196574141250000E9    -2.099925862474293E-1    4.936362967271229E-1   -2.704859304848577E-3   -9.069497180081109E-4   -2.791226056149916E-3   -8.160816847460311E-4   -1.416948220480843E-1    4.239867976822631E-1
 8.196580501125000E9    -2.096260104980193E-1    4.936764124595316E-1   -2.736081718730500E-3   -9.228028773852397E-4   -2.835256735283384E-3   -8.146303944310882E-4   -1.413504176592995E-1    4.241988336211834E-1
 8.196586861000000E9    -2.091878790588786E-1    4.938604758356925E-1   -2.744719641940456E-3   -9.179738274515940E-4   -2.828997156451364E-3   -7.877431335015297E-4   -1.409480003143655E-1    4.242056875716006E-1
 8.196593220875000E9    -2.087718140368066E-1    4.941472039668244E-1   -2.747343020781616E-3   -9.104037564363706E-4   -2.810285221812499E-3   -8.033140624822457E-4   -1.406896224585413E-1    4.244368781809352E-1
 8.196599580750000E9    -2.083501912016659E-1    4.941725974931164E-1   -2.750887344825633E-3   -8.886808014945874E-4   -2.851165039398390E-3   -7.771207536491239E-4   -1.403280806339075E-1    4.243586479034999E-1
 8.196605940625000E9    -2.077953296027305E-1    4.943512535163932E-1   -2.746833244702052E-3   -8.754121904108950E-4   -2.846162982205598E-3   -7.932494165785295E-4   -1.399328384349005E-1    4.245573902055387E-1
 8.196612300500000E9    -2.074682234573822E-1    4.944801997307255E-1   -2.752892023311050E-3   -8.844438935089136E-4   -2.824462878724391E-3   -8.097623050897598E-4   -1.396659249215724E-1    4.247512172694691E-1
 8.196618660375000E9    -2.070263198537214E-1    4.947697265668830E-1   -2.734215321967224E-3   -9.082624109188772E-4   -2.861836489084366E-3   -8.053033888993231E-4   -1.392783525744624E-1    4.248193294435227E-1
 8.196625020250000E9    -2.065745881535358E-1    4.948830108642885E-1   -2.739385311780410E-3   -9.191434035707580E-4   -2.828068446861021E-3   -7.658053729828406E-4   -1.390417404807315E-1    4.248652424540662E-1
 8.196631380125000E9    -2.062017750896706E-1    4.951191188593809E-1   -2.745581899763893E-3   -8.949001936016652E-4   -2.839664984193497E-3   -8.122399588821830E-4   -1.386575627801762E-1    4.250079183988696E-1
 8.196637740000000E9    -2.058294145461216E-1    4.952556188360711E-1   -2.770888676990184E-3   -9.047110167091185E-4   -2.867970545356275E-3   -8.134889895875201E-4   -1.383256731175377E-1    4.251171467025715E-1
 8.196644099875000E9    -2.053588739532428E-1    4.954010578671357E-1   -2.775637330858830E-3   -8.920246377256835E-4   -2.838558929293829E-3   -7.776537212003332E-4   -1.378388818956044E-1    4.252356819374001E-1
 8.196650459750000E9    -2.048789263044695E-1    4.956073789506895E-1   -2.781334064989021E-3   -8.765121135382676E-4   -2.868105598295001E-3   -8.210348561966377E-4   -1.375769650219854E-1    4.253047059300057E-1
 8.196656819625000E9    -2.044351429858828E-1    4.956327473227188E-1   -2.770413627740991E-3   -8.734684302907055E-4   -2.882622120674094E-3   -7.878343174141787E-4   -1.370709468443979E-1    4.254941725655687E-1
 8.196663179500000E9    -2.040571393492455E-1    4.959848755607350E-1   -2.770462540859816E-3   -8.692394926402579E-4   -2.889057243875999E-3   -7.873073118958571E-4   -1.369113565573589E-1    4.253350943999924E-1
 8.196669539375000E9    -2.036182206840799E-1    4.962373431417699E-1   -2.774360953930749E-3   -8.483468622947312E-4   -2.860438887708431E-3   -8.164448674969164E-4   -1.363991130360176E-1    4.255600046295647E-1
 8.196675899250000E9    -2.030602999522141E-1    4.962862948500587E-1   -2.777391349034287E-3   -8.585137298744046E-4   -2.888210288889393E-3   -7.879045669799562E-4   -1.361298858795338E-1    4.255660199370104E-1
 8.196682259125000E9    -2.027120080910089E-1    4.964361569196128E-1   -2.791152524072312E-3   -8.791119260987122E-4   -2.901689203696089E-3   -7.709961617104108E-4   -1.357914991785789E-1    4.259328908658344E-1
 8.196688619000000E9    -2.022354782022222E-1    4.965767416982470E-1   -2.764257449264089E-3   -8.801365034298100E-4   -2.879381220150561E-3   -7.695492602343304E-4   -1.353727912814369E-1    4.258644799903036E-1
 8.196694978875000E9    -2.018567975210287E-1    4.967177740851790E-1   -2.821515651103250E-3   -8.741191839986630E-4   -2.891118777803405E-3   -8.103159288138633E-4   -1.350177830714853E-1    4.259231383281181E-1
 8.196701338750000E9    -2.014038528673615E-1    4.969497605801322E-1   -2.782814127454634E-3   -8.303327503065758E-4   -2.900764032675235E-3   -7.366227755204789E-4   -1.347540136867187E-1    4.259254350440462E-1
