#  HZ   S   RI   R     50.00 
! Rohde & Schwarz Vector Network Analyzer 
! Rohde-Schwarz,ZNB20-2Port,1311601062101988,3.16
! Created: UTC 3/20/2024, 5:13:19 PM
! freq[Hz]                re:S11                  im:S11                  re:S21                  im:S21                  re:S12                  im:S12                  re:S22                  im:S22
 8.196216376000000E9    -2.337675886866331E-1    4.831045504269769E-1   -2.575213892850375E-3   -9.844170137149923E-4   -2.673209387717589E-3   -9.007804659215946E-4   -1.608567112342204E-1    4.176913262738853E-1
 8.196222379275000E9    -2.334164961455364E-1    4.832991778964231E-1   -2.592517800606197E-3   -1.004425622915432E-3   -2.667332363872296E-3   -9.380238563072199E-4   -1.603877670008480E-1    4.179473886570662E-1
 8.196228382550000E9    -2.330998007313403E-1    4.835151487677299E-1   -2.583852764580266E-3   -9.959930456271092E-4   -2.687871411424468E-3   -9.178915232370138E-4   -1.600810740932116E-1    4.179449584187814E-1
 8.196234385825000E9    -2.326467574926912E-1    4.837694918383827E-1   -2.601915642224273E-3   -9.910423387384439E-4   -2.693391226952653E-3   -9.531290571168102E-4   -1.598276215809166E-1    4.182192688410589E-1
 8.196240389100000E9    -2.321035769257377E-1    4.839928654911304E-1   -2.575357219793247E-3   -9.962239299513911E-4   -2.699083883732624E-3   -9.134780366439185E-4   -1.595318739556563E-1    4.182372493793304E-1
 8.196246392375000E9    -2.317272817572984E-1    4.840636572757401E-1   -2.575983294248705E-3   -9.915148266436656E-4   -2.668792878561605E-3   -9.171454683163692E-4   -1.592655295782725E-1    4.183682498772134E-1
 8.196252395650000E9    -2.313546988778774E-1    4.843074458202076E-1   -2.601167842153185E-3   -9.915094167183751E-4   -2.669105748695858E-3   -9.332279626229469E-4   -1.589279649029909E-1    4.184093868278039E-1
 8.196258398925000E9    -2.309565769971390E-1    4.846104136807524E-1   -2.592933166017498E-3   -9.805983876567358E-4   -2.704435405987166E-3   -9.166159343452426E-4   -1.586719237174637E-1    4.186440113826523E-1
 8.196264402200000E9    -2.305368114948807E-1    4.846174946694411E-1   -2.603095600300817E-3   -9.979791538740142E-4   -2.679564290187851E-3   -8.806302625923442E-4   -1.582341171011092E-1    4.185785267480645E-1
 8.196270405475000E9    -2.302026013696828E-1    4.847863627724266E-1   -2.586291189829161E-3   -9.844012983543184E-4   -2.683499038290952E-3   -9.135668857767043E-4   -1.578247808998303E-1    4.187751710915984E-1
 8.196276408750000E9    -2.298750916170841E-1    4.850415113424913E-1   -2.582266770252830E-3   -9.763285568182392E-4   -2.701027149194787E-3   -9.185513884163918E-4   -1.575858449590984E-1    4.188451725339468E-1
 8.196282412025000E9    -2.294683273001455E-1    4.851386603841388E-1   -2.594436221095963E-3   -9.710023963745802E-4   -2.676288252246930E-3   -9.130039564899778E-4   -1.573464152281587E-1    4.189689583227504E-1
 8.196288415300000E9    -2.290169032167144E-1    4.853695739466826E-1   -2.610823812253949E-3   -9.621505727039000E-4   -2.714018206236391E-3   -9.343553727260903E-4   -1.569523732026798E-1    4.191862169061212E-1
 8.196294418575000E9    -2.286301603818612E-1    4.856519585211477E-1   -2.598677426560985E-3   -9.697911919821301E-4   -2.684278458238793E-3   -9.258661387448803E-4   -1.565998909099746E-1    4.192261877021600E-1
 8.196300421850000E9    -2.282326048015144E-1    4.858857348307229E-1   -2.608596533020020E-3   -9.977826506122399E-4   -2.699770933951652E-3   -9.007605714350761E-4   -1.563298761898355E-1    4.192754598078399E-1
 8.196306425125000E9    -2.277701129837883E-1    4.860229800420987E-1   -2.629145355403610E-3   -9.747778618481030E-4   -2.718796808303490E-3   -9.141117099158916E-4   -1.560319628024277E-1    4.194268784508196E-1
 8.196312428400000E9    -2.275060801371944E-1    4.861818782254699E-1   -2.623267733829881E-3   -9.878469434951669E-4   -2.701141998855275E-3   -8.593226446087393E-4   -1.557618204209289E-1    4.194272030040095E-1
 8.196318431675000E9    -2.270639163822510E-1    4.863449171230801E-1   -2.617944163529247E-3   -9.655794055716940E-4   -2.714688837393753E-3   -9.002699681321932E-4   -1.554447323983090E-1    4.197303481169538E-1
 8.196324434950000E9    -2.265620234665856E-1    4.864845638939777E-1   -2.629164705135952E-3   -9.578929296504950E-4   -2.699704870940151E-3   -8.842621807981137E-4   -1.551446906819553E-1    4.197917588632150E-1
 8.196330438225000E9    -2.262021917620125E-1    4.866281768989068E-1   -2.626778745474161E-3   -9.437194907590815E-4   -2.702050625931851E-3   -8.975932158933246E-4   -1.547839798451092E-1    4.198407311835886E-1
 8.196336441500000E9    -2.258380112148029E-1    4.868758048067799E-1   -2.613912818136630E-3   -9.666776346565411E-4   -2.709233499157530E-3   -8.878782279800177E-4   -1.544949700147179E-1    4.200057407057696E-1
 8.196342444775000E9    -2.254340807864025E-1    4.870047216785108E-1   -2.628107019558825E-3   -9.474377099658406E-4   -2.706699385106556E-3   -8.769860296985846E-4   -1.541048592271514E-1    4.200551644742619E-1
 8.196348448050000E9    -2.250608111691345E-1    4.871675487674750E-1   -2.628503972269197E-3   -9.468603309814164E-4   -2.716165173735180E-3   -9.069924129220179E-4   -1.537498931448056E-1    4.201027698937492E-1
 8.196354451325000E9    -2.246792430397068E-1    4.873889279846886E-1   -2.637962273321573E-3   -9.679897159420476E-4   -2.751960140392118E-3   -9.067387416253547E-4   -1.535350684611983E-1    4.203593224154758E-1
 8.196360454600000E9    -2.242678642703070E-1    4.874867595379704E-1   -2.650136763196618E-3   -9.426596433541246E-4   -2.745009829881366E-3   -9.055564647837310E-4   -1.530872551967068E-1    4.204430462256532E-1
 8.196366457875000E9    -2.238339178270490E-1    4.877297862293522E-1   -2.640137064548658E-3   -9.750794423080336E-4   -2.731096140269065E-3   -9.000039363199898E-4   -1.528600317634860E-1    4.206045116669515E-1
 8.196372461150000E9    -2.235096900940794E-1    4.880181246851706E-1   -2.628815399135238E-3   -9.447941755446338E-4   -2.710239717708281E-3   -8.878369666353487E-4   -1.524179061724824E-1    4.206738069841193E-1
 8.196378464425000E9    -2.230455998534896E-1    4.879900438542562E-1   -2.642875042434335E-3   -9.609484233985479E-4   -2.740398867645268E-3   -8.653538451798284E-4   -1.520557570521904E-1    4.207535185835011E-1
 8.196384467700000E9    -2.227596652156869E-1    4.882280034298706E-1   -2.631749459128582E-3   -9.560794323531542E-4   -2.751430601133988E-3   -8.789196243430346E-4   -1.518571915655568E-1    4.207475357875053E-1
 8.196390470975000E9    -2.223611813026328E-1    4.883468587015263E-1   -2.658611189604759E-3   -9.720396980071990E-4   -2.740484175732413E-3   -8.571404807095434E-4   -1.514911478881914E-1    4.208742267257565E-1
 8.196396474250000E9    -2.219711949746629E-1    4.886061499842799E-1   -2.647336324880716E-3   -9.600836075624506E-4   -2.748513175445549E-3   -8.401137284499836E-4   -1.512687582125264E-1    4.210422710530249E-1
 8.196402477525000E9    -2.216274616975642E-1    4.888382872320022E-1   -2.678798606984812E-3   -9.489642573085168E-4   -2.748108101782544E-3   -8.888175932540241E-4   -1.508241408315853E-1    4.211540184818471E-1
 8.196408480800000E9    -2.211702808454837E-1    4.889547973212854E-1   -2.638451502926953E-3   -9.353765480266183E-4   -2.737696318234197E-3   -8.737349758759330E-4   -1.503758466493087E-1    4.213302485474539E-1
 8.196414484075000E9    -2.207533234578524E-1    4.891095986699333E-1   -2.658356757273250E-3   -9.373933364947734E-4   -2.767467655893957E-3   -8.373370592347997E-4   -1.500684292235745E-1    4.212519817159571E-1
 8.196420487350000E9    -2.203899357644603E-1    4.892375237983679E-1   -2.669894563391076E-3   -9.336626025327179E-4   -2.761173486883457E-3   -8.870585221291620E-4   -1.499163186807720E-1    4.215174912191915E-1
 8.196426490625000E9    -2.198730896363659E-1    4.893842064849929E-1   -2.650573190036581E-3   -9.678548570934640E-4   -2.751022716439048E-3   -8.394434844351688E-4   -1.495956019617047E-1    4.213473670478335E-1
 8.196432493900000E9    -2.195154255733461E-1    4.895290373771701E-1   -2.678603359151587E-3   -9.449834422514512E-4   -2.736804787518782E-3   -8.695904476870864E-4   -1.492740120259521E-1    4.216248095291544E-1
 8.196438497175000E9    -2.191698069104463E-1    4.898777846851903E-1   -2.682049267703825E-3   -9.463230104423563E-4   -2.755652936051727E-3   -8.148079042998628E-4   -1.489364246019607E-1    4.218541725291800E-1
 8.196444500450000E9    -2.187621472809939E-1    4.899054972185262E-1   -2.688604282852035E-3   -9.437284681122861E-4   -2.742801217053100E-3   -8.610648979942585E-4   -1.486251745151015E-1    4.218560816963695E-1
 8.196450503725000E9    -2.184663202721997E-1    4.901202134707931E-1   -2.657798046431058E-3   -9.595676790196765E-4   -2.755310096944869E-3   -8.549541968511186E-4   -1.482228569825606E-1    4.218978059705788E-1
 8.196456507000000E9    -2.179664816528477E-1    4.903235847041216E-1   -2.659802139686173E-3   -9.364970989262354E-4   -2.736059495014542E-3   -8.361976725552349E-4   -1.480662090165999E-1    4.221369743684152E-1
 8.196462510275000E9    -2.175842659934514E-1    4.904717372630038E-1   -2.689567407771789E-3   -9.400932452922879E-4   -2.748663471701813E-3   -8.365517219988532E-4   -1.477077751592039E-1    4.220453380351054E-1
 8.196468513550000E9    -2.171790559753057E-1    4.906685571069089E-1   -2.674414990660615E-3   -9.548614969185958E-4   -2.793632049219368E-3   -8.839522868054051E-4   -1.473950600018116E-1    4.222345411991085E-1
 8.196474516825000E9    -2.168949030004110E-1    4.906920493654925E-1   -2.678001820345517E-3   -9.477814121837124E-4   -2.771129983314485E-3   -8.478445158341130E-4   -1.470723868503350E-1    4.223807101828109E-1
 8.196480520100000E9    -2.162553860451057E-1    4.909944625651811E-1   -2.696256696814513E-3   -9.288989586681489E-4   -2.777104541093325E-3   -8.427636894792795E-4   -1.465724367293156E-1    4.224432349012244E-1
 8.196486523375000E9    -2.159189598684146E-1    4.910885413513458E-1   -2.672458687149065E-3   -9.239424373843417E-4   -2.784489401435809E-3   -8.481646004455777E-4   -1.463858733649673E-1    4.225655010464522E-1
 8.196492526650000E9    -2.154968909241760E-1    4.912820597878649E-1   -2.674123518808660E-3   -9.463737926630827E-4   -2.798832865944369E-3   -8.362161770881328E-4   -1.461371431120739E-1    4.225610164212038E-1
 8.196498529925000E9    -2.150470587754063E-1    4.915718345083415E-1   -2.692954389556998E-3   -9.409158426143758E-4   -2.759741888090632E-3   -8.537028238550227E-4   -1.457411812110752E-1    4.227102038314820E-1
 8.196504533200000E9    -2.148473065346949E-1    4.916951944765829E-1   -2.701968006307306E-3   -9.244983215726442E-4   -2.809273962031607E-3   -8.217580231069309E-4   -1.453784167876361E-1    4.229164741562698E-1
 8.196510536475000E9    -2.143860183148817E-1    4.917747641127427E-1   -2.719684363539570E-3   -8.824716671325607E-4   -2.802402336079602E-3   -8.380923107702952E-4   -1.451016184016736E-1    4.229265244106867E-1
 8.196516539750000E9    -2.140039763824994E-1    4.918894183666097E-1   -2.728502031040272E-3   -9.513145195353805E-4   -2.786616971947754E-3   -8.188312258944605E-4   -1.447517719610944E-1    4.230565163994182E-1
 8.196522543025000E9    -2.135308619729807E-1    4.921150916398271E-1   -2.690066943672870E-3   -9.070787489717900E-4   -2.796316666780055E-3   -8.193287306655655E-4   -1.443884688933419E-1    4.232903857402168E-1
 8.196528546300000E9    -2.131208614278462E-1    4.922472342707357E-1   -2.693726146906629E-3   -8.979019023404714E-4   -2.804864682639094E-3   -8.258859549437878E-4   -1.440844062283900E-1    4.232126025659758E-1
 8.196534549575000E9    -2.127744358583536E-1    4.924302654657670E-1   -2.707624011426090E-3   -9.044438785844903E-4   -2.784370084221235E-3   -8.343199696209013E-4   -1.439487735114997E-1    4.232442253363418E-1
 8.196540552850000E9    -2.124151369782677E-1    4.926306055004295E-1   -2.691125431800266E-3   -9.075403404239631E-4   -2.805387958437652E-3   -8.159804652645988E-4   -1.435140497371890E-1    4.234252800376499E-1
 8.196546556125000E9    -2.119620645794854E-1    4.928247253229806E-1   -2.722334484764530E-3   -9.155777287369423E-4   -2.770234412608245E-3   -8.206980811787129E-4   -1.432696435916579E-1    4.235194186104575E-1
 8.196552559400000E9    -2.114391259742350E-1    4.929472482875034E-1   -2.718913329460867E-3   -8.941469267784802E-4   -2.791549742510599E-3   -8.030302722008347E-4   -1.428447232459273E-1    4.236431717201987E-1
 8.196558562675000E9    -2.111394839439633E-1    4.931412178496142E-1   -2.734963037499077E-3   -9.002849792340689E-4   -2.817171298038611E-3   -8.142858210686854E-4   -1.424925600150054E-1    4.238508855380316E-1
 8.196564565950000E9    -2.106068000478656E-1    4.932492918426334E-1   -2.711821930911624E-3   -9.232379939755226E-4   -2.830930314828311E-3   -8.167817686975024E-4   -1.421265386455927E-1    4.239924827678107E-1
 8.196570569225000E9    -2.102645604343882E-1    4.934656095487674E-1   -2.730609118731139E-3   -8.887022454833503E-4   -2.813682282506318E-3   -8.263684603156633E-4   -1.418136970047926E-1    4.239496854916877E-1
 8.196576572500000E9    -2.099106850517513E-1    4.935162766134056E-1   -2.717398959861034E-3   -8.817360725883661E-4   -2.820455854195426E-3   -8.037232319551054E-4   -1.414529110073297E-1    4.240426185603760E-1
 8.196582575775000E9    -2.095088701886478E-1    4.937845007580405E-1   -2.745441790459582E-3   -9.121767746820931E-4   -2.824897688512096E-3   -8.222701907830323E-4   -1.409982139677048E-1    4.242282121558109E-1
 8.196588579050000E9    -2.090727238243786E-1    4.939167504473890E-1   -2.726194482158772E-3   -9.103930759413192E-4   -2.807290247329809E-3   -8.104598368056431E-4   -1.408826313678774E-1    4.241575914791010E-1
 8.196594582325000E9    -2.087401540498501E-1    4.941537019830640E-1   -2.747342081065025E-3   -8.930260036787239E-4   -2.844737809465907E-3   -8.058021362167685E-4   -1.406928447960334E-1    4.243781711131211E-1
 8.196600585600000E9    -2.082242469128643E-1    4.943149946208669E-1   -2.738802896700939E-3   -9.202273071429081E-4   -2.843327862436439E-3   -8.199252101216646E-4   -1.402343671707705E-1    4.244075921926685E-1
 8.196606588875000E9    -2.079161115096370E-1    4.944913378978634E-1   -2.744096153679753E-3   -8.976549012272686E-4   -2.826536268661379E-3   -8.247033740397334E-4   -1.399192387713968E-1    4.244663355538422E-1
 8.196612592150000E9    -2.074782555683771E-1    4.946603007172448E-1   -2.748636333796773E-3   -8.988374331839867E-4   -2.842854505447314E-3   -8.094070559777041E-4   -1.395647792574770E-1    4.247341314824538E-1
 8.196618595425000E9    -2.070624923832067E-1    4.946791206341044E-1   -2.737391673346539E-3   -8.857672588298886E-4   -2.830120967120524E-3   -7.794722882157318E-4   -1.392274041896676E-1    4.248854168175960E-1
 8.196624598700000E9    -2.066267442421719E-1    4.949601671032568E-1   -2.745955712222112E-3   -9.066914861845706E-4   -2.854600435112487E-3   -7.799689916707439E-4   -1.389585312733378E-1    4.248024740065567E-1
 8.196630601975000E9    -2.062699211735747E-1    4.950903950134967E-1   -2.722340829070456E-3   -8.844588347897226E-4   -2.844944531669052E-3   -7.771242810786059E-4   -1.385729919424867E-1    4.249098470727281E-1
 8.196636605250000E9    -2.058138572098227E-1    4.952386115663370E-1   -2.750649892462427E-3   -8.852876250015166E-4   -2.847663903840547E-3   -7.887291468072496E-4   -1.382385795094949E-1    4.250939061069920E-1
 8.196642608525000E9    -2.053653875956638E-1    4.954113261822792E-1   -2.746138031259411E-3   -8.194653233987892E-4   -2.829142696005351E-3   -7.860422979832966E-4   -1.379914196774760E-1    4.251163696713919E-1
 8.196648611800000E9    -2.050980001214499E-1    4.955892735382929E-1   -2.772706388774489E-3   -8.770814493360703E-4   -2.831898590741490E-3   -7.933805525161367E-4   -1.377708804963328E-1    4.252980861694474E-1
 8.196654615075000E9    -2.045988921367928E-1    4.958164792142652E-1   -2.787030034746263E-3   -8.589946140612155E-4   -2.852850742890068E-3   -7.868192524878636E-4   -1.372507293706224E-1    4.254628636257081E-1
 8.196660618350000E9    -2.041528218472821E-1    4.959352986060157E-1   -2.761570396818910E-3   -8.632409032278892E-4   -2.874997977289244E-3   -7.971756384006488E-4   -1.370593885057704E-1    4.253377020121088E-1
 8.196666621625000E9    -2.037909493930517E-1    4.959433909643740E-1   -2.787951205698544E-3   -8.942100031930140E-4   -2.883298191319004E-3   -7.932745571140220E-4   -1.366560730380078E-1    4.253437872116290E-1
 8.196672624900000E9    -2.033225709258358E-1    4.961911236098106E-1   -2.774685035212759E-3   -8.750017416896489E-4   -2.868241384528657E-3   -8.060188221115691E-4   -1.362992474720235E-1    4.255911997842253E-1
 8.196678628175000E9    -2.030386115838127E-1    4.963927545422187E-1   -2.778612808927924E-3   -8.951327159985548E-4   -2.859504239795249E-3   -7.474487018941217E-4   -1.360993498088231E-1    4.256552761078364E-1
 8.196684631450000E9    -2.025459095097192E-1    4.965463066353194E-1   -2.809345807706234E-3   -8.508044863794620E-4   -2.871924923603122E-3   -7.887840357247002E-4   -1.355505683084539E-1    4.258822226663076E-1
 8.196690634725000E9    -2.020791529909350E-1    4.967089641317933E-1   -2.774246534821734E-3   -8.612322911310376E-4   -2.878380801141396E-3   -7.940338187480578E-4   -1.354415995347448E-1    4.258905245960474E-1
 8.196696638000000E9    -2.017043259563315E-1    4.967561019136685E-1   -2.805220373540488E-3   -8.602632097336697E-4   -2.877682693061386E-3   -7.692984251861579E-4   -1.349162069339871E-1    4.260233430065940E-1
 8.196702641275000E9    -2.013149064500944E-1    4.969313595259440E-1   -2.804955733170127E-3   -8.711361929479455E-4   -2.876343928060499E-3   -7.561819858424428E-4   -1.347799940776039E-1    4.260073654233898E-1
 8.196708644550000E9    -2.009443844759246E-1    4.971868777290405E-1   -2.798983768023113E-3   -8.637814484804241E-4   -2.905743994100263E-3   -7.760683622922355E-4   -1.343129857051578E-1    4.261051251281952E-1
 8.196714647825000E9    -2.005988240925426E-1    4.970651633501059E-1   -2.790756841001935E-3   -8.487256132021340E-4   -2.890045736629166E-3   -7.632150729650277E-4   -1.340686609938897E-1    4.262087047079309E-1
 8.196720651100000E9    -2.001633913015029E-1    4.974405162648821E-1   -2.814183310778944E-3   -8.725798650359405E-4   -2.910945048919345E-3   -7.677067759448472E-4   -1.335821788117149E-1    4.262887240396900E-1
 8.196726654375000E9    -1.997649121544001E-1    4.976508265787632E-1   -2.823721819254148E-3   -8.570357538678911E-4   -2.898645371654118E-3   -7.460623728827525E-4   -1.334179765344357E-1    4.266256710396288E-1
 8.196732657650000E9    -1.993057543835070E-1    4.977773894149485E-1   -2.843707068555719E-3   -8.386519222671232E-4   -2.925642161984222E-3   -7.778024525135265E-4   -1.329931677829095E-1    4.265791646559276E-1
 8.196738660925000E9    -1.988572184407860E-1    4.977883889318025E-1   -2.792943925976784E-3   -8.371588110986089E-4   -2.884986123753571E-3   -7.636147714675404E-4   -1.327723219168405E-1    4.265767545828320E-1
 8.196744664200000E9    -1.984821234148167E-1    4.981005530089479E-1   -2.817517626447785E-3   -8.495232345792545E-4   -2.926213629070202E-3   -7.805671088947153E-4   -1.323615471155106E-1    4.266962339724515E-1
 8.196750667475000E9    -1.980982576960205E-1    4.982315316618416E-1   -2.829712472067260E-3   -8.509669414752187E-4   -2.929178267658142E-3   -7.435095420353513E-4   -1.321347469622439E-1    4.268006334674657E-1
 8.196756670750000E9    -1.976043453478873E-1    4.984364166166852E-1   -2.845422470971513E-3   -8.290516844250672E-4   -2.902275126641202E-3   -7.448800290356091E-4   -1.318707865970796E-1    4.268364166800250E-1
