#  HZ   S   RI   R     50.00 
! Rohde & Schwarz Vector Network Analyzer 
! Rohde-Schwarz,ZNB20-2Port,1311601062101988,3.16
! Created: UTC 3/20/2024, 4:58:21 PM
! freq[Hz]                re:S11                  im:S11                  re:S21                  im:S21                  re:S12                  im:S12                  re:S22                  im:S22
 8.170949439000000E9     2.811351831070519E-1   -4.661441288830833E-1    2.155934618979612E-3    8.171195076551340E-4    2.172677111017514E-3    8.133480716908678E-4    1.375652146551642E-1   -4.575130990599477E-1
 8.171068821700000E9     2.740578547278690E-1   -4.703687159240887E-1    2.156926599035138E-3    7.943990512679627E-4    2.200406458821060E-3    8.208438005041950E-4    1.311404359129515E-1   -4.593589916149863E-1
 8.171188204400000E9     2.668923801161460E-1   -4.743312414467850E-1    2.188554771003562E-3    7.608142359434565E-4    2.203399993933835E-3    7.547571705572922E-4    1.243235598965434E-1   -4.609644588620401E-1
 8.171307587100000E9     2.599686227156639E-1   -4.783119718950987E-1    2.197058731321839E-3    7.086489881801124E-4    2.272792874960605E-3    7.096888649960718E-4    1.176377887246181E-1   -4.626022633127937E-1
 8.171426969800000E9     2.528203119732854E-1   -4.820916782470668E-1    2.188345736781858E-3    6.811696797584801E-4    2.246118962511487E-3    7.092358141479815E-4    1.108107398541709E-1   -4.639617833709333E-1
 8.171546352500000E9     2.455099736755215E-1   -4.858040286756396E-1    2.212896009812117E-3    6.543550684223477E-4    2.261532730264554E-3    7.080134831099127E-4    1.040823766390423E-1   -4.655093192140712E-1
 8.171665735200000E9     2.382951104557406E-1   -4.894703262183279E-1    2.201888250086513E-3    6.169721697318276E-4    2.219659132157938E-3    6.571062104137122E-4    9.731319489494265E-2   -4.667290095843761E-1
 8.171785117900000E9     2.309561976229501E-1   -4.930385737291095E-1    2.220524174779128E-3    5.751080207760229E-4    2.251832422188738E-3    6.100833501605404E-4    9.064457682444375E-2   -4.677976742770786E-1
 8.171904500600000E9     2.235057209127577E-1   -4.964743161796760E-1    2.246241721030539E-3    5.718054140748249E-4    2.241735624117471E-3    5.753830738546854E-4    8.381936834369180E-2   -4.688988321065485E-1
 8.172023883300000E9     2.160214624972327E-1   -4.997507731566050E-1    2.222123473667253E-3    4.940842104212040E-4    2.308052093824749E-3    5.531690729480670E-4    7.698544678906391E-2   -4.701009111067478E-1
 8.172143266000000E9     2.086535493535095E-1   -5.028763850410088E-1    2.210707706504052E-3    4.939283731883031E-4    2.280493271181343E-3    4.859982248070798E-4    7.021590175247197E-2   -4.709325961880522E-1
 8.172262648700000E9     2.011243035389698E-1   -5.059376029010971E-1    2.241347511105465E-3    4.523198809551286E-4    2.299241755641127E-3    4.834956383283096E-4    6.352639204767399E-2   -4.716394328503768E-1
 8.172382031400000E9     1.934977465581567E-1   -5.088648021585875E-1    2.237564916483538E-3    3.727961756564395E-4    2.306187589554852E-3    4.500828327292327E-4    5.663868391240589E-2   -4.722711833732016E-1
 8.172501414100000E9     1.859054688011552E-1   -5.117403355600163E-1    2.263346727401141E-3    3.675139753320928E-4    2.318123898229566E-3    3.894407610019797E-4    4.984438156245813E-2   -4.729753141121226E-1
 8.172620796800000E9     1.782483675888359E-1   -5.144527691197476E-1    2.254284495499773E-3    3.560368096971892E-4    2.304275965686809E-3    3.968015183873885E-4    4.300379240957888E-2   -4.734047425746271E-1
 8.172740179500000E9     1.705451093207914E-1   -5.170377058318227E-1    2.267822479513845E-3    2.940913507668796E-4    2.293696336430675E-3    3.396541736447253E-4    3.616905967874216E-2   -4.739239677783469E-1
 8.172859562200000E9     1.628185685985595E-1   -5.195615667604140E-1    2.281521128513740E-3    2.547926898823255E-4    2.300433910258036E-3    2.738461392413781E-4    2.921049451159637E-2   -4.742354231402185E-1
 8.172978944900000E9     1.551335243313867E-1   -5.220210584844912E-1    2.284757109787071E-3    2.578098633108764E-4    2.327824866495023E-3    2.493756251809294E-4    2.250735044812617E-2   -4.744734855573854E-1
 8.173098327600000E9     1.472439378333014E-1   -5.243128803320818E-1    2.255908584608899E-3    2.085174049778522E-4    2.334003869322040E-3    2.346265158211481E-4    1.560988586016433E-2   -4.745502603464691E-1
 8.173217710300000E9     1.393450634001056E-1   -5.264449651445126E-1    2.256290284803662E-3    1.775667201846367E-4    2.338849721757433E-3    1.633084241613500E-4    8.729454781103327E-3   -4.744494136436858E-1
 8.173337093000000E9     1.313969832270941E-1   -5.284607647080213E-1    2.267182490486001E-3    1.588598426778173E-4    2.363553306504915E-3    1.725352792712951E-4    2.063120814586868E-3   -4.743884364963760E-1
 8.173456475700000E9     1.235668844381375E-1   -5.303763850745555E-1    2.259994163499521E-3    1.129980042686592E-4    2.300017813501140E-3    9.856174606504800E-5   -4.720780279557315E-3   -4.742345148117252E-1
 8.173575858400000E9     1.155333423584442E-1   -5.321033026204177E-1    2.260951458944145E-3    8.678887660228448E-5    2.365104537989005E-3    4.950829416096046E-5   -1.166917261204124E-2   -4.740461488084990E-1
 8.173695241100000E9     1.076303081285222E-1   -5.337557007855246E-1    2.238085735271377E-3    5.197852591702047E-5    2.318438858524776E-3    5.559782907572861E-5   -1.847318265948093E-2   -4.736925240227909E-1
 8.173814623800000E9     9.964782338658534E-2   -5.353128558632165E-1    2.248197182676009E-3    2.579368933569013E-5    2.337671986712761E-3    3.305053625142212E-5   -2.528615926108791E-2   -4.732543888817914E-1
 8.173934006500000E9     9.149367564664022E-2   -5.367284678705299E-1    2.288039466965320E-3   -1.584795327254611E-5    2.326535342090442E-3   -5.402769441136785E-6   -3.204170376442428E-2   -4.726696770064121E-1
 8.174053389200000E9     8.356189547819605E-2   -5.382117110076343E-1    2.278170084369156E-3   -3.619657679421322E-5    2.359305075796757E-3   -5.634363075897806E-5   -3.892867620436406E-2   -4.719275566797290E-1
 8.174172771900000E9     7.536077265047210E-2   -5.393212030947460E-1    2.309336150128861E-3   -7.263330047549700E-5    2.332448668728458E-3   -1.196645460893927E-4   -4.565168483456130E-2   -4.712707004005279E-1
 8.174292154600000E9     6.720523554646339E-2   -5.403513733820263E-1    2.250848470020218E-3   -1.305645448688555E-4    2.354901418476121E-3   -1.108614402255883E-4   -5.243260427195998E-2   -4.702270769980766E-1
 8.174411537300000E9     5.929174240340532E-2   -5.413338122815189E-1    2.256473733989974E-3   -1.515052455331841E-4    2.327211447683997E-3   -1.537659283642095E-4   -5.918449839318005E-2   -4.692982747737061E-1
 8.174530920000000E9     5.104612018163305E-2   -5.422187697630387E-1    2.250402521711149E-3   -1.558068272210422E-4    2.318113890504866E-3   -2.136227024047776E-4   -6.585369299666186E-2   -4.682648425657654E-1
 8.174650302700000E9     4.297663005569995E-2   -5.427780960441898E-1    2.249023156845459E-3   -1.961037455744962E-4    2.315340826720351E-3   -2.008846509127785E-4   -7.262355006882013E-2   -4.671168286627932E-1
 8.174769685400000E9     3.474221086234092E-2   -5.433953681279704E-1    2.266071109842551E-3   -2.405315078411392E-4    2.317960495511024E-3   -2.339923870502926E-4   -7.939391783622482E-2   -4.659546859575209E-1
 8.174889068100000E9     2.671833080679593E-2   -5.438914803632042E-1    2.239971624142251E-3   -2.724262599621639E-4    2.309945118026073E-3   -2.632351978339897E-4   -8.596161039732483E-2   -4.645562593693318E-1
 8.175008450800000E9     1.858461987360525E-2   -5.442352752586074E-1    2.239289392395878E-3   -3.200824875390707E-4    2.279608751402986E-3   -2.525603941538185E-4   -9.271015016972023E-2   -4.631464897408992E-1
 8.175127833500000E9     1.034034561701021E-2   -5.444689621293889E-1    2.278634535484115E-3   -3.474850399326185E-4    2.317011347390974E-3   -3.579716741318707E-4   -9.927205085192006E-2   -4.614959909250931E-1
 8.175247216200000E9     2.086065397862847E-3   -5.443857882468190E-1    2.244710024248684E-3   -3.818334010402711E-4    2.272423028249810E-3   -3.639229687952060E-4   -1.058352259123102E-1   -4.599841561432485E-1
 8.175366598900000E9    -6.103042438093811E-3   -5.443964468627343E-1    2.233397752892647E-3   -4.129085004831220E-4    2.264500330758700E-3   -4.346511207240581E-4   -1.124439564951941E-1   -4.584154404460875E-1
 8.175485981600000E9    -1.413694125188904E-2   -5.442827013421232E-1    2.206607129285889E-3   -4.324661400134995E-4    2.278290940410879E-3   -4.325007089583723E-4   -1.189132243067703E-1   -4.565418609077974E-1
 8.175605364300000E9    -2.244167261945872E-2   -5.439696683364317E-1    2.213090544101925E-3   -4.517352146650477E-4    2.249395618266588E-3   -4.996288226576987E-4   -1.254493730343914E-1   -4.544792147454085E-1
 8.175724747000000E9    -3.054832198748049E-2   -5.436826026686611E-1    2.196604978076111E-3   -5.146779083013007E-4    2.264122363058532E-3   -5.165477704335848E-4   -1.318968930298914E-1   -4.525679824862104E-1
 8.175844129700000E9    -3.873095709352414E-2   -5.429146267855767E-1    2.184155818797399E-3   -4.910563436756885E-4    2.265123199672708E-3   -5.111271641762187E-4   -1.384401748074701E-1   -4.504539737389616E-1
 8.175963512400000E9    -4.688555391529162E-2   -5.424049886922236E-1    2.166554427950114E-3   -5.378673819154237E-4    2.222685423817483E-3   -5.707244424202827E-4   -1.448272453732125E-1   -4.484385448264884E-1
 8.176082895100000E9    -5.511526408331292E-2   -5.415931911875980E-1    2.174366027861769E-3   -5.789823850907546E-4    2.193967338044495E-3   -6.262281511312795E-4   -1.511857936216367E-1   -4.460168511063906E-1
 8.176202277800000E9    -6.329154810194410E-2   -5.408130707081511E-1    2.167791124077275E-3   -6.257808820963537E-4    2.224579756426843E-3   -6.576214530216155E-4   -1.574760393837651E-1   -4.436778506286663E-1
 8.176321660500000E9    -7.131187410095866E-2   -5.396062254103378E-1    2.139323294594449E-3   -6.571771350702468E-4    2.236240139648272E-3   -6.655045942443423E-4   -1.637006995000630E-1   -4.413773124878804E-1
 8.176441043200000E9    -7.949134911451169E-2   -5.386096615627491E-1    2.133213616529629E-3   -6.759734607595387E-4    2.222733524594351E-3   -7.160192597969921E-4   -1.701201926200103E-1   -4.387323992353475E-1
 8.176560425900000E9    -8.762726123912352E-2   -5.371804648027816E-1    2.135331581766087E-3   -7.163712152759952E-4    2.182090052214483E-3   -7.340173696034609E-4   -1.763311990621663E-1   -4.360384766357783E-1
 8.176679808600000E9    -9.558236085173395E-2   -5.359693179966684E-1    2.137354665633965E-3   -7.375039671149850E-4    2.187808492782200E-3   -7.830244345079482E-4   -1.826040129886344E-1   -4.333634005170794E-1
 8.176799191300000E9    -1.037228705959957E-1   -5.345405334044397E-1    2.093099510448428E-3   -7.793303385845211E-4    2.185639177026427E-3   -8.198651228166548E-4   -1.886349986236784E-1   -4.304617455069560E-1
 8.176918574000000E9    -1.118060063700666E-1   -5.327645177288979E-1    2.078568743305324E-3   -7.863269576479629E-4    2.157721866322981E-3   -8.322899240726476E-4   -1.948090773675970E-1   -4.276177358745374E-1
 8.177037956700000E9    -1.197895696165509E-1   -5.310800336784649E-1    2.094163180454298E-3   -8.061378223858617E-4    2.141108970342073E-3   -8.606940516335692E-4   -2.008744857470395E-1   -4.245763353956972E-1
 8.177157339400000E9    -1.277829395104921E-1   -5.290899418062811E-1    2.094071089497562E-3   -8.518190566433524E-4    2.132357376266377E-3   -8.646076669116845E-4   -2.069673518982971E-1   -4.217114358606788E-1
 8.177276722100000E9    -1.356920647844968E-1   -5.270403805391595E-1    2.080989377869402E-3   -8.865198766163793E-4    2.161375915280268E-3   -9.248993852941161E-4   -2.129946824097708E-1   -4.185025743017722E-1
 8.177396104800000E9    -1.436903377427719E-1   -5.250474410808083E-1    2.048158475921982E-3   -9.250782488498947E-4    2.110681283650012E-3   -9.649021492550176E-4   -2.188896593463956E-1   -4.151784114508772E-1
 8.177515487500000E9    -1.516659216959046E-1   -5.226817745655636E-1    2.019441673764480E-3   -9.738332746440031E-4    2.089854657458756E-3   -9.972220961625301E-4   -2.246172782836256E-1   -4.118519210006691E-1
 8.177634870200000E9    -1.594106450881878E-1   -5.203564147842823E-1    2.040195373495783E-3   -9.877637445186937E-4    2.100775466021886E-3   -1.019109079235956E-3   -2.305767526122677E-1   -4.084655840705657E-1
 8.177754252900000E9    -1.671718119214329E-1   -5.178382161910680E-1    1.992197148186062E-3   -1.021591835652765E-3    2.068298776984028E-3   -1.059715848130013E-3   -2.363070637557567E-1   -4.052205365772367E-1
 8.177873635600000E9    -1.751511900511789E-1   -5.152575145465619E-1    1.986200769512707E-3   -1.026644684572715E-3    2.045643514116350E-3   -1.093209541107532E-3   -2.419418348587342E-1   -4.015229867035108E-1
 8.177993018300000E9    -1.827921069675429E-1   -5.125488407937918E-1    1.980997903933224E-3   -1.062170870699371E-3    2.042218329569236E-3   -1.161890585917145E-3   -2.478550251888676E-1   -3.978264042879978E-1
 8.178112401000000E9    -1.905224943589100E-1   -5.097932849482547E-1    1.943744691293866E-3   -1.089081514860544E-3    2.022656118739268E-3   -1.138519681406177E-3   -2.533159732975836E-1   -3.941113090372234E-1
 8.178231783700000E9    -1.982067470347993E-1   -5.067180270481382E-1    1.950824011468046E-3   -1.147023632720003E-3    2.024620559303849E-3   -1.218676877167734E-3   -2.589427557086011E-1   -3.903317219003152E-1
 8.178351166400000E9    -2.059158839749540E-1   -5.038093711479900E-1    1.945229701518985E-3   -1.137406481225525E-3    1.990524223018955E-3   -1.234251578311918E-3   -2.644361209502502E-1   -3.865578953493857E-1
 8.178470549100000E9    -2.135802861136894E-1   -5.004586549711058E-1    1.908121208467345E-3   -1.198778259206620E-3    1.957457500620635E-3   -1.230465949824535E-3   -2.699611444608290E-1   -3.825282067311850E-1
 8.178589931800000E9    -2.210257752218355E-1   -4.970738917929359E-1    1.907757989906643E-3   -1.209489802619202E-3    1.963508163124530E-3   -1.252282274763145E-3   -2.752779900515926E-1   -3.786226686628598E-1
 8.178709314500000E9    -2.285754616750852E-1   -4.938172155008201E-1    1.881745597684358E-3   -1.243005996586214E-3    1.918974275917598E-3   -1.319652531927926E-3   -2.805811587114264E-1   -3.743756134425401E-1
 8.178828697200000E9    -2.359333664113259E-1   -4.901300672185327E-1    1.839356777633479E-3   -1.264455710626360E-3    1.929392197811216E-3   -1.350985260740611E-3   -2.858719756005975E-1   -3.703128543243330E-1
 8.178948079900000E9    -2.433001402292234E-1   -4.865983388667570E-1    1.856954808888051E-3   -1.292152384998875E-3    1.904145570328404E-3   -1.356900628209469E-3   -2.909507926092252E-1   -3.660710985550870E-1
 8.179067462600000E9    -2.505722083231251E-1   -4.828319764203661E-1    1.802419183718631E-3   -1.295259242925708E-3    1.867232770197044E-3   -1.388832179058847E-3   -2.961598539053258E-1   -3.616042039086220E-1
 8.179186845300000E9    -2.578325284105809E-1   -4.789374411416625E-1    1.797826937924726E-3   -1.334492050802081E-3    1.852633447510202E-3   -1.416719195029241E-3   -3.014115238654357E-1   -3.573648106964670E-1
 8.179306228000000E9    -2.652276793372179E-1   -4.750137070822883E-1    1.808334832654879E-3   -1.375322315915720E-3    1.839127277104000E-3   -1.450323572104072E-3   -3.062583644999394E-1   -3.528981138237812E-1
 8.179425610700000E9    -2.721865021298675E-1   -4.709181514789666E-1    1.790884962914969E-3   -1.383230583772135E-3    1.837047958451982E-3   -1.461862639164644E-3   -3.111987821942261E-1   -3.482075368506596E-1
 8.179544993400000E9    -2.793384532968874E-1   -4.667260580625855E-1    1.760516156846541E-3   -1.414973020421360E-3    1.775692488050275E-3   -1.491840805736346E-3   -3.162073618095185E-1   -3.435782261133714E-1
 8.179664376100000E9    -2.863447120811973E-1   -4.623398736767183E-1    1.730187589164063E-3   -1.431635110843302E-3    1.765932884746485E-3   -1.506702316200348E-3   -3.209022022675417E-1   -3.389930546583212E-1
 8.179783758800000E9    -2.932753547733197E-1   -4.579411083947519E-1    1.682928492742829E-3   -1.488788576515581E-3    1.751966958307831E-3   -1.523608466985280E-3   -3.257389539560631E-1   -3.341421696139336E-1
 8.179903141500000E9    -3.002483167893908E-1   -4.533123731037209E-1    1.689430811724221E-3   -1.498985769533723E-3    1.726768487936039E-3   -1.573440022217219E-3   -3.303300660021395E-1   -3.296124536720370E-1
 8.180022524200000E9    -3.071873104959720E-1   -4.488932353519525E-1    1.668993641972749E-3   -1.546898463304212E-3    1.701977341817193E-3   -1.587712718925839E-3   -3.351053464592040E-1   -3.245977844130538E-1
 8.180141906900000E9    -3.139124664611392E-1   -4.441164238741235E-1    1.646691482570021E-3   -1.525918138575857E-3    1.671083182685422E-3   -1.640829215046973E-3   -3.394208176908661E-1   -3.195906274968754E-1
 8.180261289600000E9    -3.206043228095141E-1   -4.390563665843649E-1    1.621502567249898E-3   -1.573540698067312E-3    1.660326782121279E-3   -1.596527935363891E-3   -3.440101893544456E-1   -3.146097215752598E-1
 8.180380672300000E9    -3.271901968181063E-1   -4.342521534519940E-1    1.603266207053473E-3   -1.586496238116363E-3    1.649035533475575E-3   -1.674486880777033E-3   -3.483685357829825E-1   -3.096085470755557E-1
 8.180500055000000E9    -3.337523999823664E-1   -4.292930884653097E-1    1.569164139461501E-3   -1.615534642150214E-3    1.605867874472182E-3   -1.680682294319547E-3   -3.526043040588364E-1   -3.045734733994938E-1
 8.180619437700000E9    -3.402172447333954E-1   -4.241474424437419E-1    1.525652632970578E-3   -1.623932985790419E-3    1.588834365303549E-3   -1.699990528915790E-3   -3.568257098263231E-1   -2.994501423904801E-1
 8.180738820400000E9    -3.466053036129855E-1   -4.190054040793654E-1    1.529513056009060E-3   -1.639678870690652E-3    1.557873926543953E-3   -1.729303473911847E-3   -3.611236926049163E-1   -2.940742908855847E-1
 8.180858203100000E9    -3.528520425521009E-1   -4.135276499712809E-1    1.520361533366321E-3   -1.714297623574851E-3    1.506067838889024E-3   -1.733628599290750E-3   -3.650579804353840E-1   -2.888104342296062E-1
 8.180977585800000E9    -3.591555147375866E-1   -4.081399132999127E-1    1.480920365680974E-3   -1.699472760072793E-3    1.488989744573429E-3   -1.805442662966206E-3   -3.690763108523978E-1   -2.833392624372112E-1
 8.181096968500000E9    -3.652043794060895E-1   -4.025935556208112E-1    1.442809452922208E-3   -1.718147701243327E-3    1.489406802100185E-3   -1.831802356254515E-3   -3.730698662777469E-1   -2.781076025196442E-1
 8.181216351200000E9    -3.713481800410224E-1   -3.969921482715008E-1    1.422747060628832E-3   -1.753860295663897E-3    1.432743205407125E-3   -1.824256289536837E-3   -3.768381357807378E-1   -2.726492406828737E-1
 8.181335733900000E9    -3.774419491398066E-1   -3.913264321891700E-1    1.433682109194114E-3   -1.754135036520375E-3    1.440462403715687E-3   -1.856341681812250E-3   -3.806388721605344E-1   -2.671524428895455E-1
 8.181455116600000E9    -3.832770866921706E-1   -3.854985795049559E-1    1.401556876239252E-3   -1.778655548141832E-3    1.433398147377318E-3   -1.863797700084436E-3   -3.843134464031859E-1   -2.614361444525105E-1
 8.181574499300000E9    -3.890467739422421E-1   -3.797144009668564E-1    1.360337573810493E-3   -1.813741184396240E-3    1.378661325439916E-3   -1.899579574886988E-3   -3.881105191338685E-1   -2.558995974626029E-1
 8.181693882000000E9    -3.947494136515929E-1   -3.734521588475604E-1    1.316837765054630E-3   -1.834358912447818E-3    1.321004868956020E-3   -1.944473482871540E-3   -3.915112700574850E-1   -2.502807549020140E-1
