#  HZ   S   RI   R     50.00 
! Rohde & Schwarz Vector Network Analyzer 
! Rohde-Schwarz,ZNB20-2Port,1311601062101988,3.16
! Created: UTC 3/20/2024, 4:58:33 PM
! freq[Hz]                re:S11                  im:S11                  re:S21                  im:S21                  re:S12                  im:S12                  re:S22                  im:S22
 8.172027873000000E9     2.160119535495865E-1   -4.997513078675480E-1    2.240051377804014E-3    5.306234124065078E-4    2.294500246911743E-3    5.179736191973998E-4    7.686197480550692E-2   -4.700324599933547E-1
 8.172142340100000E9     2.088555043853196E-1   -5.028429936502814E-1    2.232471692744007E-3    4.566180490871539E-4    2.288990308762917E-3    5.224186724825333E-4    7.025942890897953E-2   -4.709109622846045E-1
 8.172256807200000E9     2.015770328255078E-1   -5.058682181326202E-1    2.240567929916022E-3    4.567531041455137E-4    2.316315329593648E-3    4.683347862817607E-4    6.377307027153281E-2   -4.716207262615172E-1
 8.172371274300000E9     1.941717222360374E-1   -5.086885586750383E-1    2.250152342431280E-3    4.181477900230795E-4    2.309997048037866E-3    4.708762278695496E-4    5.722589225938539E-2   -4.723944391536529E-1
 8.172485741400000E9     1.870706511767765E-1   -5.114349288502021E-1    2.240591564680741E-3    3.802412702573390E-4    2.320545658431955E-3    4.252812795035870E-4    5.065454260922957E-2   -4.730289985109806E-1
 8.172600208500000E9     1.795573749975476E-1   -5.141198614229907E-1    2.263714449790303E-3    3.556153626820268E-4    2.309950375812920E-3    3.976723495900790E-4    4.410459123731367E-2   -4.734338899108479E-1
 8.172714675600000E9     1.722054140074792E-1   -5.165644485528625E-1    2.245320763301402E-3    3.093144128023972E-4    2.317527388184041E-3    3.284491654964637E-4    3.758855586946739E-2   -4.739444224990835E-1
 8.172829142700000E9     1.648091461933769E-1   -5.190662215145203E-1    2.280514788971205E-3    3.185162228142606E-4    2.311596412688927E-3    3.428698671552165E-4    3.105485717479199E-2   -4.741567184275389E-1
 8.172943609800000E9     1.572598752106924E-1   -5.212602201268481E-1    2.270207791953653E-3    2.610632653876381E-4    2.320868282614429E-3    2.910072175216055E-4    2.445303238494343E-2   -4.743411003676445E-1
 8.173058076900000E9     1.497811455868771E-1   -5.234234517607010E-1    2.250649054659146E-3    2.225779689589708E-4    2.294557626496203E-3    2.501478779868864E-4    1.781692817883721E-2   -4.745583123930563E-1
 8.173172544000000E9     1.423274775781691E-1   -5.256372102397899E-1    2.264518242387059E-3    2.027253831122429E-4    2.326147002235873E-3    2.127674624738492E-4    1.134075163487086E-2   -4.746229913755721E-1
 8.173287011100000E9     1.347022330696161E-1   -5.276180761780047E-1    2.265697647107252E-3    1.352132484894905E-4    2.306012793705035E-3    1.452575708021562E-4    4.849029353394413E-3   -4.747106961189264E-1
 8.173401478200000E9     1.271295989762960E-1   -5.294086012071444E-1    2.267153752344906E-3    1.231337869732770E-4    2.326969086489165E-3    1.564883052398932E-4   -1.705572804116869E-3   -4.743438923821590E-1
 8.173515945300000E9     1.195905452920223E-1   -5.312828547654828E-1    2.290895490305696E-3    1.116103237527409E-4    2.320440173969608E-3    1.309961715770540E-4   -8.256305069755542E-3   -4.742431446338187E-1
 8.173630412400000E9     1.119010983883008E-1   -5.328731478517018E-1    2.242437719073399E-3    6.298739192991533E-5    2.340521169594037E-3    9.790352407515830E-5   -1.472621817961819E-2   -4.739512127767466E-1
 8.173744879500000E9     1.042617487702970E-1   -5.345092501800469E-1    2.283517018964920E-3    2.685368132681681E-5    2.333856224716082E-3    3.697226968687378E-5   -2.138836665955969E-2   -4.734504243517042E-1
 8.173859346600000E9     9.652711062403847E-2   -5.359129191771982E-1    2.295994081400737E-3    2.055275429230893E-6    2.326083531289635E-3    1.956586742994602E-5   -2.794145227126538E-2   -4.730038182628911E-1
 8.173973813700000E9     8.892132000547015E-2   -5.371154972141964E-1    2.254674567124236E-3   -7.171433282329145E-6    2.345425520747520E-3   -2.093058683169460E-5   -3.439155053305127E-2   -4.725678925138375E-1
 8.174088280800000E9     8.121867677456081E-2   -5.384184901083933E-1    2.250835503357891E-3   -8.032059472780708E-5    2.296467858545106E-3   -7.902403181609213E-5   -4.097083441110404E-2   -4.718459353229327E-1
 8.174202747900000E9     7.345826324284291E-2   -5.395510654548187E-1    2.273298931603830E-3   -9.677558352941681E-5    2.325765278506341E-3   -6.033049286736492E-5   -4.722372877464257E-2   -4.709676683689000E-1
 8.174317215000000E9     6.565479736522944E-2   -5.405328865211211E-1    2.262651742257217E-3   -1.181406494701888E-4    2.316177261123274E-3   -1.533511965540672E-4   -5.381396165028986E-2   -4.703554858579091E-1
 8.174431682100000E9     5.780257378980608E-2   -5.414480105090749E-1    2.286956134953761E-3   -1.593278087836675E-4    2.317940412523484E-3   -1.638328906988721E-4   -6.035774247329021E-2   -4.692147238763727E-1
 8.174546149200000E9     5.009670414782526E-2   -5.422352690485092E-1    2.267703553943888E-3   -1.740361310901363E-4    2.330195175947535E-3   -1.890277036493038E-4   -6.685799465129237E-2   -4.682184005235383E-1
 8.174660616300000E9     4.237464338682855E-2   -5.429475766827734E-1    2.246980838133602E-3   -1.899973601562828E-4    2.306642508975091E-3   -2.035172857285063E-4   -7.321106410790103E-2   -4.672055139984451E-1
 8.174775083400000E9     3.447551591408333E-2   -5.433953614814604E-1    2.257929106783891E-3   -2.420516174269337E-4    2.319045893592308E-3   -2.641522656705614E-4   -7.957992145363815E-2   -4.658686610877013E-1
 8.174889550500000E9     2.668416125427853E-2   -5.439739363209488E-1    2.250632922108284E-3   -2.697193865321738E-4    2.310593812640958E-3   -2.707491438620869E-4   -8.589591958417571E-2   -4.646510580479808E-1
 8.175004017600000E9     1.877209388562217E-2   -5.441567939790034E-1    2.213809186936578E-3   -3.178760008481519E-4    2.325739711153326E-3   -3.234036598057679E-4   -9.238364908545671E-2   -4.631476295619722E-1
 8.175118484700000E9     1.086038549993054E-2   -5.443606408061809E-1    2.229192713764303E-3   -3.545533302463709E-4    2.304181306622613E-3   -3.462757607212175E-4   -9.873369649060686E-2   -4.617903749937444E-1
 8.175232951800000E9     3.049834412909702E-3   -5.445397928758077E-1    2.238699743103598E-3   -3.481401051252911E-4    2.321079717032699E-3   -3.873594396264867E-4   -1.049995083557585E-1   -4.602207397164839E-1
 8.175347418900000E9    -4.707521714150664E-3   -5.444948673524197E-1    2.224321459464700E-3   -3.941764587931798E-4    2.279045762017937E-3   -3.936794798579039E-4   -1.113827191627910E-1   -4.586707758902660E-1
 8.175461886000000E9    -1.262356803317468E-2   -5.442041702356044E-1    2.191777815777917E-3   -4.319314348727277E-4    2.255214587726448E-3   -4.243172101582080E-4   -1.175544703561948E-1   -4.568956347962255E-1
 8.175576353100000E9    -2.038864269910446E-2   -5.440283534485596E-1    2.192716270043477E-3   -4.158340638947660E-4    2.279038710695464E-3   -4.586477558870604E-4   -1.238626056546139E-1   -4.550453589884517E-1
 8.175690820200000E9    -2.827531067553105E-2   -5.436385998339001E-1    2.190875740955063E-3   -4.772931040887828E-4    2.236907729624540E-3   -5.006644939050264E-4   -1.302171103763831E-1   -4.532189979888391E-1
 8.175805287300000E9    -3.607752146882034E-2   -5.433301619577192E-1    2.189032061624094E-3   -5.167252580051440E-4    2.274214661203093E-3   -5.567029997894758E-4   -1.363109277153166E-1   -4.513337396438848E-1
 8.175919754400000E9    -4.390036321928283E-2   -5.427760688267771E-1    2.202769656483654E-3   -5.472088582823818E-4    2.249452255066316E-3   -5.781610618960570E-4   -1.425921155080062E-1   -4.491682521374871E-1
 8.176034221500000E9    -5.180396985060012E-2   -5.418301595055247E-1    2.178369841647885E-3   -5.703271293218828E-4    2.246113030260061E-3   -6.186179151030324E-4   -1.486615519826270E-1   -4.470803981255455E-1
 8.176148688600000E9    -5.972914634530317E-2   -5.411468004935083E-1    2.183308856136769E-3   -6.105184266400877E-4    2.240711992905024E-3   -6.220431064591785E-4   -1.547040562760555E-1   -4.448574814405847E-1
 8.176263155700000E9    -6.739646352572692E-2   -5.401000005116277E-1    2.160551432104681E-3   -6.580647735334238E-4    2.222924074495377E-3   -6.657057946625970E-4   -1.609021097918413E-1   -4.425043136808633E-1
 8.176377622800000E9    -7.513532034477000E-2   -5.392793360493930E-1    2.124715450382023E-3   -6.748492828295337E-4    2.217467947804007E-3   -6.738476757811281E-4   -1.668283228719411E-1   -4.401550108953270E-1
 8.176492089900000E9    -8.285140381830843E-2   -5.379943500053016E-1    2.164313618997040E-3   -6.961263038838460E-4    2.235946472216711E-3   -7.183238664463154E-4   -1.727924964812120E-1   -4.375442842132743E-1
 8.176606557000000E9    -9.074289997505978E-2   -5.368145361331667E-1    2.126432611310278E-3   -7.273437887251598E-4    2.196717956985107E-3   -7.669371203882160E-4   -1.790240472808113E-1   -4.351935919736127E-1
 8.176721024100000E9    -9.844340242236416E-2   -5.354670879991993E-1    2.109330855763003E-3   -7.620971075849554E-4    2.199888793279906E-3   -7.532845011731727E-4   -1.847244373989411E-1   -4.324118997658112E-1
 8.176835491200000E9    -1.060826413235944E-1   -5.338231033278937E-1    2.074446384564484E-3   -8.006804319695280E-4    2.181080799834724E-3   -8.239111077792274E-4   -1.905679078354877E-1   -4.298270089446167E-1
 8.176949958300000E9    -1.139211551147762E-1   -5.323889320064944E-1    2.098560898492581E-3   -8.233156595842146E-4    2.163406915227237E-3   -8.415233415007075E-4   -1.963970015506434E-1   -4.270274767992157E-1
 8.177064425400000E9    -1.215527704191687E-1   -5.305187818176081E-1    2.073761795405016E-3   -8.661331354024150E-4    2.143158567253863E-3   -8.568666565961597E-4   -2.021181047595212E-1   -4.241634322221229E-1
 8.177178892500000E9    -1.291964480744473E-1   -5.288286863321646E-1    2.069343430885362E-3   -8.552085392027647E-4    2.157634197065989E-3   -8.975860065612653E-4   -2.081119391817033E-1   -4.211774072144061E-1
 8.177293359600000E9    -1.367096176706391E-1   -5.267008606985312E-1    2.064053884409507E-3   -8.860818448562308E-4    2.101455806342010E-3   -9.418312073747124E-4   -2.137748331300698E-1   -4.180163552771560E-1
 8.177407826700000E9    -1.444327230137250E-1   -5.247771345002772E-1    2.028279282327047E-3   -9.061471675479561E-4    2.082099584065541E-3   -9.772520533737729E-4   -2.194799704741507E-1   -4.149284016284312E-1
 8.177522293800000E9    -1.520396382573831E-1   -5.226017350869964E-1    2.010689651530475E-3   -9.608515671431498E-4    2.101557008448312E-3   -1.035585956129884E-3   -2.250539984440509E-1   -4.118440209967623E-1
 8.177636760900000E9    -1.594727737308843E-1   -5.202435140390360E-1    2.046965822410643E-3   -1.009158017603632E-3    2.091690396632697E-3   -1.030593904933372E-3   -2.305676294856574E-1   -4.085522753397162E-1
 8.177751228000000E9    -1.670049789502051E-1   -5.179978988297759E-1    2.025574265005759E-3   -1.025519106105947E-3    2.030005502736772E-3   -1.082045197988310E-3   -2.361479727603226E-1   -4.051492089634274E-1
 8.177865695100000E9    -1.746059011941448E-1   -5.154796977612215E-1    1.976815287986560E-3   -1.063978829689079E-3    2.059101829335185E-3   -1.101877575901281E-3   -2.417445750465685E-1   -4.020616590536195E-1
 8.177980162200000E9    -1.819843874908434E-1   -5.128005229284138E-1    1.985084588816040E-3   -1.053908463938977E-3    2.043782768491464E-3   -1.108548745757283E-3   -2.471432210116045E-1   -3.983724868896094E-1
 8.178094629300000E9    -1.894388643648879E-1   -5.100813014475863E-1    1.964263153955230E-3   -1.097940883887736E-3    2.019840088116787E-3   -1.138823920213763E-3   -2.525820656827890E-1   -3.948817967423790E-1
 8.178209096400000E9    -1.968781653008358E-1   -5.072342747584792E-1    1.955772846197380E-3   -1.099635214292170E-3    2.010554567413210E-3   -1.164479161655429E-3   -2.578715404802126E-1   -3.912124821951689E-1
 8.178323563500000E9    -2.040940494212900E-1   -5.042680434934360E-1    1.934707647912172E-3   -1.142108615588493E-3    1.990804639875044E-3   -1.219842542791571E-3   -2.631603508177475E-1   -3.875375910320126E-1
 8.178438030600000E9    -2.113604778242806E-1   -5.012409398512456E-1    1.910982646515027E-3   -1.196670981103296E-3    1.983615960204101E-3   -1.249181344118330E-3   -2.684432938547011E-1   -3.836928509045262E-1
 8.178552497700000E9    -2.185988619942061E-1   -4.982426261880035E-1    1.919075822130100E-3   -1.203224975609045E-3    1.927732200334269E-3   -1.222505071171845E-3   -2.735755189606109E-1   -3.798580157765478E-1
 8.178666964800000E9    -2.258310238140866E-1   -4.950338537780721E-1    1.875073480502992E-3   -1.213450429397663E-3    1.934192456792640E-3   -1.310710426205574E-3   -2.786687201133289E-1   -3.759389965722977E-1
 8.178781431900000E9    -2.330032829847776E-1   -4.916948403921491E-1    1.853659370187026E-3   -1.251520503504721E-3    1.933681736524145E-3   -1.320782303638677E-3   -2.839528272859432E-1   -3.719176800243642E-1
 8.178895899000000E9    -2.400818803140778E-1   -4.881464186890481E-1    1.879243240666294E-3   -1.289477693344069E-3    1.907525475409714E-3   -1.338898847807981E-3   -2.888280274400034E-1   -3.678268028809789E-1
 8.179010366100000E9    -2.470334807057442E-1   -4.846130189136584E-1    1.842382410252104E-3   -1.331102315175942E-3    1.882301524823009E-3   -1.361346084746849E-3   -2.938078435692812E-1   -3.636492149598863E-1
 8.179124833200000E9    -2.542192710966526E-1   -4.809678058519910E-1    1.797188791885896E-3   -1.302140201790327E-3    1.858847599185913E-3   -1.414565953333022E-3   -2.987679416661453E-1   -3.595491647269656E-1
 8.179239300300000E9    -2.611381488357842E-1   -4.772233962435975E-1    1.802115067577297E-3   -1.341174997062377E-3    1.805443993903458E-3   -1.423158125947282E-3   -3.035801697749380E-1   -3.552270358944019E-1
 8.179353767400000E9    -2.680160188693190E-1   -4.734205243920612E-1    1.782279206690130E-3   -1.399051321552765E-3    1.794991125152553E-3   -1.439382456900016E-3   -3.081368349036838E-1   -3.510414173196564E-1
 8.179468234500000E9    -2.747607898271224E-1   -4.694783132211984E-1    1.770826703520791E-3   -1.406485867591026E-3    1.803199235460817E-3   -1.467360592995268E-3   -3.130763721869935E-1   -3.466060132020753E-1
 8.179582701600000E9    -2.816186755417244E-1   -4.653002245743689E-1    1.762806504794358E-3   -1.437142122829106E-3    1.811129847308868E-3   -1.477761808201029E-3   -3.178016313748806E-1   -3.423162259574014E-1
 8.179697168700000E9    -2.882420784330867E-1   -4.612230337089954E-1    1.729138152338748E-3   -1.442712807246829E-3    1.752145406776240E-3   -1.560840986268881E-3   -3.224440028552815E-1   -3.377852061176611E-1
 8.179811635800000E9    -2.949384675158458E-1   -4.568876659953445E-1    1.686813366343665E-3   -1.490799539078469E-3    1.718612198461923E-3   -1.577781889005896E-3   -3.267186138967176E-1   -3.333097278845004E-1
 8.179926102900000E9    -3.015511929064816E-1   -4.525727249494408E-1    1.649612870590566E-3   -1.495413066490163E-3    1.723809492070918E-3   -1.566679276931751E-3   -3.313596202164854E-1   -3.285063320809802E-1
 8.180040570000000E9    -3.081504279040537E-1   -4.481598037741095E-1    1.635611113590228E-3   -1.526399522511642E-3    1.698514149874435E-3   -1.606996990830511E-3   -3.357171437453726E-1   -3.238153300643669E-1
 8.180155037100000E9    -3.145543945940587E-1   -4.435719578541722E-1    1.625396316982308E-3   -1.514074412486737E-3    1.726335836865503E-3   -1.614243225380466E-3   -3.400834033820258E-1   -3.191465206773176E-1
 8.180269504200000E9    -3.210582511814507E-1   -4.389125083682207E-1    1.620745718378284E-3   -1.540547752676599E-3    1.663228906704800E-3   -1.655806772923984E-3   -3.441993809200232E-1   -3.144518509477851E-1
 8.180383971300000E9    -3.273788213605900E-1   -4.341368670653560E-1    1.585177509077144E-3   -1.576633464334316E-3    1.622407002776981E-3   -1.682880960819588E-3   -3.486492928297240E-1   -3.094500823675550E-1
 8.180498438400000E9    -3.337080130246469E-1   -4.293351673270743E-1    1.589122778675127E-3   -1.622960694699506E-3    1.611194886837503E-3   -1.692289896163670E-3   -3.525934848197577E-1   -3.045696719275571E-1
 8.180612905500000E9    -3.398795814821507E-1   -4.244986452386607E-1    1.526247828774369E-3   -1.645262442612163E-3    1.579866624956069E-3   -1.698396474083045E-3   -3.567571238470391E-1   -2.996669749860332E-1
 8.180727372600000E9    -3.460511719028473E-1   -4.195517540621466E-1    1.529465149285210E-3   -1.633808284696821E-3    1.571699448867350E-3   -1.726198059354087E-3   -3.607588042213892E-1   -2.946460384688853E-1
 8.180841839700000E9    -3.521317810773621E-1   -4.142707043179755E-1    1.505686367595647E-3   -1.687045640722672E-3    1.540546851680723E-3   -1.781992778260737E-3   -3.647546539699830E-1   -2.896780434435225E-1
 8.180956306800000E9    -3.580257433061610E-1   -4.090628206174829E-1    1.468026782688605E-3   -1.687180347549101E-3    1.480096254479128E-3   -1.785490319592412E-3   -3.684922676224203E-1   -2.843369991709440E-1
 8.181070773900000E9    -3.638863879328783E-1   -4.038241151821467E-1    1.466197479062804E-3   -1.694242965705968E-3    1.487240750686326E-3   -1.770440853099860E-3   -3.723001332781590E-1   -2.793612413006954E-1
 8.181185241000000E9    -3.698212554344805E-1   -3.984738203512910E-1    1.417732722922394E-3   -1.740358735617632E-3    1.477486248564034E-3   -1.817337699528026E-3   -3.758768900053713E-1   -2.739413349718255E-1
 8.181299708100000E9    -3.756885199498608E-1   -3.931852684839424E-1    1.379939625171967E-3   -1.759475998421589E-3    1.425576478958426E-3   -1.851803129000933E-3   -3.796086298947400E-1   -2.688075055725674E-1
 8.181414175200000E9    -3.812651521360583E-1   -3.874564344883269E-1    1.377669704486881E-3   -1.764943694392509E-3    1.460298444894723E-3   -1.872047421153148E-3   -3.832478779426366E-1   -2.634491260066874E-1
 8.181528642300000E9    -3.868201201910252E-1   -3.818318094618785E-1    1.343849417259001E-3   -1.813789827934597E-3    1.401159358281952E-3   -1.857164619934242E-3   -3.867202255522729E-1   -2.581992959431190E-1
 8.181643109400000E9    -3.923967993005043E-1   -3.760551109159175E-1    1.293635523866282E-3   -1.815498639080164E-3    1.374628358304445E-3   -1.895216467211236E-3   -3.901138977143808E-1   -2.526581091984382E-1
 8.181757576500000E9    -3.977800364017222E-1   -3.703946492020817E-1    1.303772765640325E-3   -1.830153940684178E-3    1.361784736295078E-3   -1.931568984823855E-3   -3.935143671813158E-1   -2.471995017611896E-1
 8.181872043600000E9    -4.031731536801672E-1   -3.644625750705252E-1    1.297512771709785E-3   -1.881717959097016E-3    1.311316613563055E-3   -1.920867529018094E-3   -3.967389285458007E-1   -2.417472718961245E-1
 8.181986510700000E9    -4.083341079542966E-1   -3.585502925055947E-1    1.259440644455310E-3   -1.872423151118050E-3    1.265316598601781E-3   -1.959885912477294E-3   -3.999320114060438E-1   -2.362251657492431E-1
 8.182100977800000E9    -4.135208263662358E-1   -3.524994065148006E-1    1.238774543757879E-3   -1.899974425657521E-3    1.251882793932877E-3   -1.968497274969290E-3   -4.028895024161994E-1   -2.305474511025505E-1
 8.182215444900000E9    -4.185882532875044E-1   -3.464337835293897E-1    1.200742557553214E-3   -1.909861906081159E-3    1.226932977631118E-3   -1.974005953488308E-3   -4.059996420581702E-1   -2.250255266902883E-1
 8.182329912000000E9    -4.236340172529883E-1   -3.402836449569266E-1    1.197989119428318E-3   -1.940428274274946E-3    1.200069260784142E-3   -2.019164676451777E-3   -4.090904652283257E-1   -2.193119997423342E-1
