#  HZ   S   RI   R     50.00 
! Rohde & Schwarz Vector Network Analyzer 
! Rohde-Schwarz,ZNB20-2Port,1311601062101988,3.16
! Created: UTC 3/20/2024, 5:13:41 PM
! freq[Hz]                re:S11                  im:S11                  re:S21                  im:S21                  re:S12                  im:S12                  re:S22                  im:S22
 8.196487270000000E9    -2.161502258777624E-1    4.911103514044269E-1   -2.671174377670627E-3   -9.093566723452253E-4   -2.759492135938073E-3   -8.224962271881545E-4   -1.463030542908258E-1    4.225535772360109E-1
 8.196492128300000E9    -2.157328003380344E-1    4.911831013144675E-1   -2.695195629812233E-3   -9.074459285619667E-4   -2.765924160157696E-3   -8.333248090308521E-4   -1.459064613613026E-1    4.227767897084596E-1
 8.196496986600000E9    -2.154274513402787E-1    4.914071128283078E-1   -2.713809050028474E-3   -9.297995668539848E-4   -2.790875657538487E-3   -8.076377443811230E-4   -1.458240044083915E-1    4.226053627349423E-1
 8.196501844900000E9    -2.149348291136081E-1    4.915016670716064E-1   -2.666229478588148E-3   -9.094675095186535E-4   -2.816279886939999E-3   -8.268356778949291E-4   -1.455291821027837E-1    4.227415521186894E-1
 8.196506703200000E9    -2.146947275272366E-1    4.916697107265940E-1   -2.693066778137045E-3   -9.109093107084988E-4   -2.789652492351539E-3   -7.957408642268619E-4   -1.451044547056385E-1    4.230121210315952E-1
 8.196511561500000E9    -2.143952005773792E-1    4.918137598885365E-1   -2.659186955724847E-3   -9.052752528321779E-4   -2.810960530045977E-3   -8.413198055650384E-4   -1.449442663611137E-1    4.228381737938837E-1
 8.196516419800000E9    -2.141807988544877E-1    4.919647835885381E-1   -2.668590910243179E-3   -9.065894180106588E-4   -2.786055929734671E-3   -8.538880702145746E-4   -1.447659931440428E-1    4.229966809919117E-1
 8.196521278100000E9    -2.136566328810596E-1    4.920020519480279E-1   -2.677793251710422E-3   -9.166462604654537E-4   -2.782092012382569E-3   -8.302088214451814E-4   -1.444824967486482E-1    4.232156684466604E-1
 8.196526136400000E9    -2.134041594353625E-1    4.921577584021863E-1   -2.652591777673411E-3   -9.246032666513170E-4   -2.798638141817320E-3   -8.405103347450335E-4   -1.440940974447419E-1    4.231946620084469E-1
 8.196530994700000E9    -2.131740668585827E-1    4.923868138143010E-1   -2.705567674916953E-3   -9.389909204159034E-4   -2.807160263361829E-3   -8.307991085694862E-4   -1.438867958652689E-1    4.233858447673780E-1
 8.196535853000000E9    -2.126525493137905E-1    4.924819652452301E-1   -2.679632901368284E-3   -9.276089750477062E-4   -2.804302480784666E-3   -8.341300787568037E-4   -1.436855905799088E-1    4.234388072706991E-1
 8.196540711300000E9    -2.124058136135593E-1    4.926884101634527E-1   -2.704951357470728E-3   -9.035770856064349E-4   -2.793721709352066E-3   -8.596347463763932E-4   -1.435806288063830E-1    4.234329247197910E-1
 8.196545569600000E9    -2.120756868924304E-1    4.927120679935096E-1   -2.708954261824321E-3   -9.012153876165556E-4   -2.771306166631671E-3   -8.139112755486571E-4   -1.430594865996365E-1    4.235741312113124E-1
 8.196550427900000E9    -2.118053770589848E-1    4.928476115396108E-1   -2.700945937196665E-3   -8.832243349533549E-4   -2.814622089728626E-3   -8.494319935714886E-4   -1.428240234302874E-1    4.236640006822912E-1
 8.196555286200000E9    -2.113746711879990E-1    4.929885293547218E-1   -2.689957670828051E-3   -8.940035629838484E-4   -2.795348596875365E-3   -8.533544302477587E-4   -1.426223055713972E-1    4.236018051007442E-1
 8.196560144500000E9    -2.111410199921136E-1    4.931124254506786E-1   -2.709671782150619E-3   -8.997041100152234E-4   -2.806666906300618E-3   -8.432342501383550E-4   -1.423088125072701E-1    4.237751257385821E-1
 8.196565002800000E9    -2.107555491121126E-1    4.932921130010230E-1   -2.706577513886149E-3   -9.109618947139289E-4   -2.799077669780243E-3   -8.122997350943659E-4   -1.421028476193655E-1    4.239815757729778E-1
 8.196569861100000E9    -2.104820448708555E-1    4.934946739104692E-1   -2.710732994181271E-3   -9.149764585025306E-4   -2.806678754283266E-3   -8.237505789532668E-4   -1.419332923435078E-1    4.239853413582407E-1
 8.196574719400000E9    -2.101993457281295E-1    4.935199396436675E-1   -2.715440116204213E-3   -8.926762960043274E-4   -2.811320270210425E-3   -7.944207144626752E-4   -1.415070467477347E-1    4.241326407541986E-1
 8.196579577700000E9    -2.097561430402643E-1    4.936748644775691E-1   -2.720940787920882E-3   -9.279059287610102E-4   -2.827396929244219E-3   -8.267983808205428E-4   -1.413049623747858E-1    4.241121226343934E-1
 8.196584436000000E9    -2.094156911990567E-1    4.937717508994092E-1   -2.729747048559632E-3   -8.986502415604771E-4   -2.811140795069432E-3   -7.954419472298967E-4   -1.409276554553440E-1    4.242021825864228E-1
 8.196589294300000E9    -2.091375273121325E-1    4.939845513713841E-1   -2.727839577427093E-3   -8.823271717094989E-4   -2.799392856721649E-3   -8.159409813606858E-4   -1.408095313410319E-1    4.242644571977455E-1
 8.196594152600000E9    -2.088336084234510E-1    4.941264832597043E-1   -2.731630767725953E-3   -9.011332460561222E-4   -2.802295189548289E-3   -8.032139072263663E-4   -1.404302030791084E-1    4.243447985149335E-1
 8.196599010900000E9    -2.085202840015831E-1    4.942631307050561E-1   -2.729300736676700E-3   -8.886368789491378E-4   -2.801841722431006E-3   -8.085866889870197E-4   -1.402776331786502E-1    4.243805686627510E-1
 8.196603869200000E9    -2.081102333344618E-1    4.942411954660326E-1   -2.727725839374529E-3   -9.087945680783001E-4   -2.839687062552571E-3   -7.943584474709638E-4   -1.400067715894386E-1    4.245238866006458E-1
 8.196608727500000E9    -2.077613548900497E-1    4.944582992096703E-1   -2.740138456751438E-3   -8.848342133797588E-4   -2.802986085289309E-3   -7.963561909578579E-4   -1.395938692236769E-1    4.246381441823508E-1
 8.196613585800000E9    -2.074958372620778E-1    4.946250606527572E-1   -2.726640267593747E-3   -9.000243864139632E-4   -2.826418113206080E-3   -7.686228362483388E-4   -1.394791342449583E-1    4.246529706763920E-1
 8.196618444100000E9    -2.072217106220639E-1    4.947535443416714E-1   -2.729502640347050E-3   -9.070447366214678E-4   -2.827681821564016E-3   -8.100210611587573E-4   -1.391754333147354E-1    4.248554241389293E-1
 8.196623302400000E9    -2.068402559586695E-1    4.947564929304611E-1   -2.772745216222657E-3   -8.828079214977116E-4   -2.852234432523129E-3   -7.975419646502585E-4   -1.390333868342298E-1    4.248412287623989E-1
 8.196628160700000E9    -2.065101099313962E-1    4.949351891220727E-1   -2.743895225107758E-3   -8.695568441571086E-4   -2.827840888045864E-3   -7.970704791689913E-4   -1.385638433594956E-1    4.249061808643414E-1
 8.196633019000000E9    -2.062147162555952E-1    4.952018960951514E-1   -2.739117724944473E-3   -8.979898718272593E-4   -2.818548810797589E-3   -8.003667091837307E-4   -1.382673470505231E-1    4.250984704297954E-1
 8.196637877300000E9    -2.058849437084271E-1    4.952213842015517E-1   -2.746319582270187E-3   -8.985945304434694E-4   -2.796138709861587E-3   -7.758515384932558E-4   -1.381278744751044E-1    4.249900921698960E-1
 8.196642735600000E9    -2.055809172278688E-1    4.954327796817581E-1   -2.755701466943752E-3   -8.679756693399292E-4   -2.830037590290791E-3   -8.068142842186401E-4   -1.379361484950341E-1    4.252056981306594E-1
 8.196647593900000E9    -2.051523509185680E-1    4.955757612960157E-1   -2.759132035884713E-3   -9.076568618270946E-4   -2.830495942123896E-3   -7.820012687981036E-4   -1.376927976667578E-1    4.251860977658954E-1
 8.196652452200000E9    -2.047330044552163E-1    4.956455856556446E-1   -2.774267191482751E-3   -8.806294775688438E-4   -2.869625861049150E-3   -7.670952911801759E-4   -1.373109688202147E-1    4.254245062294256E-1
 8.196657310500000E9    -2.045003491224215E-1    4.958164567361995E-1   -2.759586142186336E-3   -8.561244006941046E-4   -2.825055888634271E-3   -7.916002842869325E-4   -1.370565331798140E-1    4.253939428491794E-1
 8.196662168800000E9    -2.042082366707014E-1    4.960524062120508E-1   -2.764680492445201E-3   -8.875421387879661E-4   -2.834420255237644E-3   -7.798182025924409E-4   -1.368543023339252E-1    4.253807852364982E-1
 8.196667027100000E9    -2.038552990022239E-1    4.960967668784264E-1   -2.739708830564309E-3   -8.981877434427124E-4   -2.873751423821767E-3   -7.917755248041558E-4   -1.365313946556881E-1    4.255300778241169E-1
 8.196671885400000E9    -2.035102609205750E-1    4.962366131728208E-1   -2.755694960058428E-3   -8.814162684789539E-4   -2.853038419460427E-3   -7.965676191321650E-4   -1.362181798534030E-1    4.255767366900734E-1
 8.196676743700000E9    -2.030558394888602E-1    4.962555535439091E-1   -2.801293038610665E-3   -8.703177723555527E-4   -2.871173226214274E-3   -7.717860372858037E-4   -1.360630063351410E-1    4.255654460726276E-1
 8.196681602000000E9    -2.029363537587429E-1    4.963957283180254E-1   -2.777533902028813E-3   -8.631013923195094E-4   -2.838629983235608E-3   -8.016935652048891E-4   -1.358266647485193E-1    4.257797113923364E-1
 8.196686460300000E9    -2.025240120892012E-1    4.966445530753552E-1   -2.777264616374714E-3   -8.585095959017664E-4   -2.868401185007593E-3   -7.849093819320256E-4   -1.356106194134850E-1    4.257736822453499E-1
 8.196691318600000E9    -2.021060547620447E-1    4.966783555188468E-1   -2.788421895813043E-3   -8.534650760445240E-4   -2.873460243142619E-3   -7.852857198328501E-4   -1.353264033551409E-1    4.257954446707495E-1
 8.196696176900000E9    -2.018390498651766E-1    4.967896990348942E-1   -2.776434777503369E-3   -8.731989299815734E-4   -2.864616766884332E-3   -7.723220679792371E-4   -1.350759382065679E-1    4.259432705980049E-1
 8.196701035200000E9    -2.014622393882424E-1    4.970062449133264E-1   -2.755420158971795E-3   -8.892569676706831E-4   -2.904583950364224E-3   -7.683827536964827E-4   -1.348193727834854E-1    4.261592645287114E-1
 8.196705893500000E9    -2.012846879745498E-1    4.971461787458530E-1   -2.784087938455938E-3   -8.500405832840483E-4   -2.897054536342502E-3   -7.680650785661332E-4   -1.344679368524452E-1    4.260216101847215E-1
 8.196710751800000E9    -2.008521748284287E-1    4.972540416005410E-1   -2.780498938284570E-3   -8.682123545053553E-4   -2.857527069151424E-3   -7.537156041442506E-4   -1.342816123552741E-1    4.263559546352551E-1
 8.196715610100000E9    -2.005215452180119E-1    4.973983731423136E-1   -2.788079712967328E-3   -8.739116019716772E-4   -2.858250421990146E-3   -7.730093270795261E-4   -1.339484832272061E-1    4.262032457312863E-1
 8.196720468400000E9    -2.001914455752451E-1    4.973942695156627E-1   -2.800956839282962E-3   -8.796166195731906E-4   -2.893346686637368E-3   -7.700199242254357E-4   -1.336831135837608E-1    4.262796028804262E-1
 8.196725326700000E9    -1.998925702731348E-1    4.976404075362933E-1   -2.802025693015113E-3   -8.609770045765074E-4   -2.913875991411512E-3   -7.584399232412166E-4   -1.334216326267101E-1    4.264082027189037E-1
 8.196730185000000E9    -1.995994685426078E-1    4.976226347459415E-1   -2.807463021478137E-3   -8.587728563077358E-4   -2.907296880856347E-3   -7.511963145132851E-4   -1.330656976346360E-1    4.264400557458116E-1
 8.196735043300000E9    -1.991286143985894E-1    4.978837767848457E-1   -2.802581664697087E-3   -8.778392888982640E-4   -2.910068617459675E-3   -7.763766679067081E-4   -1.328494870397758E-1    4.263986071397781E-1
 8.196739901600000E9    -1.988812514627212E-1    4.978639926107368E-1   -2.816709265376887E-3   -8.773954813584297E-4   -2.925438796806875E-3   -7.557813835703089E-4   -1.326950551769836E-1    4.265973445681966E-1
 8.196744759900000E9    -1.985340851558915E-1    4.980928976051612E-1   -2.803075301297921E-3   -8.723520815544362E-4   -2.895650850614429E-3   -7.533576538328810E-4   -1.323091573911223E-1    4.266400611297294E-1
 8.196749618200000E9    -1.983031427898714E-1    4.981701885483028E-1   -2.813717853674854E-3   -8.537126387497567E-4   -2.930145373288457E-3   -7.172363688447176E-4   -1.321550405368836E-1    4.267679867183207E-1
 8.196754476500000E9    -1.978198548125611E-1    4.983180625421068E-1   -2.814517027862069E-3   -8.630418331284993E-4   -2.913665003179047E-3   -7.530976822209032E-4   -1.318852338292564E-1    4.267657448026256E-1
 8.196759334800000E9    -1.976145241115231E-1    4.984360792333018E-1   -2.807143304428821E-3   -8.444158536271608E-4   -2.934566766194148E-3   -7.563199466272755E-4   -1.316883087468782E-1    4.267356867389777E-1
 8.196764193100000E9    -1.971019542303854E-1    4.985268648683657E-1   -2.817054424542146E-3   -8.404949257282980E-4   -2.909240781120213E-3   -7.617948348822222E-4   -1.313841534658781E-1    4.271183298878650E-1
 8.196769051400000E9    -1.968459337968549E-1    4.986592101362174E-1   -2.821308045534178E-3   -8.421909039471869E-4   -2.918148691003826E-3   -7.506194177733421E-4   -1.310255240526156E-1    4.270411872182351E-1
 8.196773909700000E9    -1.964451996686779E-1    4.988482895658488E-1   -2.809769425549246E-3   -8.298135398449274E-4   -2.924051882911283E-3   -7.303160328186767E-4   -1.307089629016940E-1    4.271880463483543E-1
 8.196778768000000E9    -1.960873242834428E-1    4.988718330800522E-1   -2.854407494416128E-3   -8.518440806569545E-4   -2.915950873530543E-3   -7.793629735751862E-4   -1.304400693726909E-1    4.272447600973867E-1
 8.196783626300000E9    -1.959258317755677E-1    4.990508277281502E-1   -2.841468815397412E-3   -8.573479229747650E-4   -2.933543239569485E-3   -7.436896481799929E-4   -1.302369670668954E-1    4.272527831793501E-1
 8.196788484600000E9    -1.954801739325893E-1    4.991320755204103E-1   -2.826958057402333E-3   -8.785295681051057E-4   -2.931400949681494E-3   -7.507985233921757E-4   -1.300496662441111E-1    4.273385488373014E-1
 8.196793342900000E9    -1.952431685039301E-1    4.993304027888963E-1   -2.827072175891769E-3   -8.400016297193275E-4   -2.936931511425579E-3   -7.166038002249144E-4   -1.296649314866032E-1    4.274048070405632E-1
 8.196798201200000E9    -1.948294097603966E-1    4.995002180172248E-1   -2.835508687601640E-3   -8.397213984983211E-4   -2.947334935117423E-3   -7.539248145158320E-4   -1.293850290777276E-1    4.274745949326147E-1
 8.196803059500000E9    -1.944422438622121E-1    4.994802270678035E-1   -2.851612017837987E-3   -8.608750727044924E-4   -2.930226952924264E-3   -7.477318456638115E-4   -1.293303319934989E-1    4.276962581163039E-1
 8.196807917800000E9    -1.942067328174658E-1    4.997300281451503E-1   -2.846712382829372E-3   -8.453584108097350E-4   -2.924920547499287E-3   -7.604970557478254E-4   -1.289490826688141E-1    4.276656484954403E-1
 8.196812776100000E9    -1.938372762203515E-1    4.997249344466864E-1   -2.841003065804195E-3   -8.397523271860787E-4   -2.928206788295460E-3   -7.330301407496320E-4   -1.286343083720995E-1    4.277606697810363E-1
 8.196817634400000E9    -1.936015446301620E-1    4.999090024880988E-1   -2.848169779870811E-3   -8.308163235070794E-4   -2.945817049577235E-3   -7.170681348330608E-4   -1.282911335195491E-1    4.277956771104467E-1
 8.196822492700000E9    -1.931353182223403E-1    5.000530819658652E-1   -2.855283524906635E-3   -8.189314097033193E-4   -2.937757517740832E-3   -7.470993104846497E-4   -1.280726594257383E-1    4.278549391594955E-1
 8.196827351000000E9    -1.927975801029948E-1    5.001877786827876E-1   -2.857882079442532E-3   -8.012438610672160E-4   -2.928504521257245E-3   -7.081290906995371E-4   -1.279131127989346E-1    4.279620585018561E-1
 8.196832209300000E9    -1.925326992075732E-1    5.002080252772677E-1   -2.889254863811739E-3   -8.279432118992644E-4   -2.975434104705230E-3   -7.280671160722341E-4   -1.275403282217117E-1    4.280848381811963E-1
 8.196837067600000E9    -1.921510991672079E-1    5.004446215740653E-1   -2.866757486425659E-3   -8.422513987968374E-4   -2.965439227274346E-3   -7.248731190399843E-4   -1.273827174259874E-1    4.280714373993303E-1
 8.196841925900000E9    -1.917886166825488E-1    5.004553098663964E-1   -2.872580370223810E-3   -7.959769169463194E-4   -2.955032840882475E-3   -7.207914599387481E-4   -1.269793938011135E-1    4.280926345007574E-1
 8.196846784200000E9    -1.913833408118244E-1    5.006437846558349E-1   -2.868942739378371E-3   -8.104656286783811E-4   -2.970911426279078E-3   -7.465289997398476E-4   -1.267861228611820E-1    4.283038735091518E-1
 8.196851642500000E9    -1.910751422840416E-1    5.007577523156315E-1   -2.876782972571984E-3   -8.194599176993434E-4   -2.982004753311729E-3   -7.642193073157344E-4   -1.264713176520767E-1    4.281905236337691E-1
 8.196856500800000E9    -1.906190241860186E-1    5.008724744484105E-1   -2.906118653315127E-3   -8.459478122203647E-4   -2.980297498964088E-3   -7.004383123009786E-4   -1.262442282913923E-1    4.283588858184084E-1
 8.196861359100000E9    -1.905064749758032E-1    5.009758790062938E-1   -2.890712454781469E-3   -8.055261978637451E-4   -3.018342905434900E-3   -7.077439228187942E-4   -1.260448402220770E-1    4.285090251408887E-1
 8.196866217400000E9    -1.901629392108781E-1    5.012275182842398E-1   -2.932274223788902E-3   -8.202013207867818E-4   -3.011215759404556E-3   -7.278381217116512E-4   -1.257627144265125E-1    4.283052839354139E-1
 8.196871075700000E9    -1.897386603409073E-1    5.012196011080832E-1   -2.897469142134154E-3   -8.179691832540756E-4   -2.988066253247263E-3   -7.089928123063430E-4   -1.254779359285152E-1    4.286077288778847E-1
 8.196875934000000E9    -1.894438845580433E-1    5.012868419076616E-1   -2.890984460861816E-3   -8.034477609929722E-4   -3.001221224367969E-3   -6.996664603270058E-4   -1.252452331943851E-1    4.286031643730734E-1
 8.196880792300000E9    -1.891729324207362E-1    5.016080518712884E-1   -2.914416671867625E-3   -8.173041133592422E-4   -2.972724040091536E-3   -7.142944948249137E-4   -1.249422859708317E-1    4.287918949573676E-1
 8.196885650600000E9    -1.886380179462397E-1    5.016195648710872E-1   -2.933753132722466E-3   -8.305636902781633E-4   -2.994065440434116E-3   -6.894134193461489E-4   -1.246999966178182E-1    4.287825287096211E-1
 8.196890508900000E9    -1.883969364994595E-1    5.018330573311814E-1   -2.922105099175752E-3   -8.161954464402182E-4   -2.978893261505030E-3   -6.838185939429815E-4   -1.245272626130447E-1    4.289127437128741E-1
 8.196895367200000E9    -1.880477622192099E-1    5.018298479761891E-1   -2.922906614413192E-3   -7.790453970840688E-4   -3.003021849873962E-3   -7.004916551192535E-4   -1.241378472120588E-1    4.289423965740542E-1
 8.196900225500000E9    -1.877445293056309E-1    5.019236362226686E-1   -2.925896986549890E-3   -7.981237098904887E-4   -3.004514131669951E-3   -6.790435910837087E-4   -1.240870686966727E-1    4.289391593246973E-1
 8.196905083800000E9    -1.873926499548483E-1    5.022362793358950E-1   -2.925779934206175E-3   -8.092374078917102E-4   -3.007957340675092E-3   -7.097027832731326E-4   -1.236861612843292E-1    4.289162200356061E-1
 8.196909942100000E9    -1.869658729132491E-1    5.023347391334565E-1   -2.945278858260612E-3   -8.198824973809759E-4   -3.029223741265020E-3   -7.234380102017737E-4   -1.234877092586463E-1    4.291553186563168E-1
 8.196914800400000E9    -1.865986974937396E-1    5.023734991919473E-1   -2.906326400328410E-3   -7.969891134356319E-4   -2.997361235025105E-3   -7.070286370708177E-4   -1.229848559935283E-1    4.291976567260011E-1
 8.196919658700000E9    -1.862373222594838E-1    5.024021454820966E-1   -2.936330540613455E-3   -8.336988557869898E-4   -3.015358543884790E-3   -7.074601527270808E-4   -1.227206417126750E-1    4.292234602240183E-1
 8.196924517000000E9    -1.860465887320262E-1    5.026242060755006E-1   -2.967529955013492E-3   -8.164388872262017E-4   -3.024557344393667E-3   -6.914580148904666E-4   -1.224474344865401E-1    4.293310830690860E-1
