#  HZ   S   RI   R     50.00 
! Rohde & Schwarz Vector Network Analyzer 
! Rohde-Schwarz,ZNB20-2Port,1311601062101988,3.16
! Created: UTC 3/20/2024, 5:13:44 PM
! freq[Hz]                re:S11                  im:S11                  re:S21                  im:S21                  re:S12                  im:S12                  re:S22                  im:S22
 8.196501206000000E9    -2.150943622003846E-1    4.914058311045905E-1   -2.685933965051408E-3   -9.013446313586893E-4   -2.773588239123420E-3   -8.448073444624697E-4   -1.454939837685086E-1    4.228842090514428E-1
 8.196506012000000E9    -2.148574596768477E-1    4.916249779100196E-1   -2.654871443515582E-3   -9.401647916618920E-4   -2.730819710808283E-3   -8.286456034145702E-4   -1.452513527614121E-1    4.230414354472323E-1
 8.196510818000000E9    -2.144354542404244E-1    4.917214932574278E-1   -2.665363187203692E-3   -9.147539164649803E-4   -2.779822781580999E-3   -8.387557500613638E-4   -1.449282306417307E-1    4.230988549529387E-1
 8.196515624000000E9    -2.142693552021406E-1    4.918135298280601E-1   -2.714846540829015E-3   -9.112222055575592E-4   -2.773977139906268E-3   -8.188380340444531E-4   -1.447470920776978E-1    4.230865953402212E-1
 8.196520430000000E9    -2.138505156153678E-1    4.921602708773369E-1   -2.659850692222328E-3   -9.419807764069731E-4   -2.750440513734045E-3   -8.153761859008781E-4   -1.444119049541454E-1    4.230040124502407E-1
 8.196525236000000E9    -2.135129135209292E-1    4.920868926019605E-1   -2.663626592453429E-3   -9.193582254221215E-4   -2.791250490698895E-3   -8.174556735263213E-4   -1.442581256124488E-1    4.232470817084641E-1
 8.196530042000000E9    -2.131433135298678E-1    4.922014969510285E-1   -2.679694927877563E-3   -9.250714107401399E-4   -2.770474622536122E-3   -8.514745759467370E-4   -1.439887345364955E-1    4.234008000668050E-1
 8.196534848000000E9    -2.129439847771430E-1    4.923649112696059E-1   -2.681211161390771E-3   -8.960375878709919E-4   -2.804807573539012E-3   -8.362382389798309E-4   -1.436058197877762E-1    4.233583119808806E-1
 8.196539654000000E9    -2.124310673973357E-1    4.925593357800053E-1   -2.685979064522532E-3   -8.894833564145489E-4   -2.797166043752334E-3   -8.444263947886248E-4   -1.434335212374412E-1    4.235143166834680E-1
 8.196544460000000E9    -2.122269926335198E-1    4.926626455302395E-1   -2.703948336217089E-3   -8.896987801889146E-4   -2.804655876743983E-3   -8.145153436323741E-4   -1.431886054004191E-1    4.235515954205052E-1
 8.196549266000000E9    -2.118966950743562E-1    4.928570577054979E-1   -2.694325558050333E-3   -9.051949513307866E-4   -2.791350433366259E-3   -8.221163435602513E-4   -1.430260574351857E-1    4.235735449091894E-1
 8.196554072000000E9    -2.115573019701031E-1    4.930041267294982E-1   -2.699377053186186E-3   -9.387463383766022E-4   -2.794641836960197E-3   -8.267607921098203E-4   -1.426001812478120E-1    4.235855262256562E-1
 8.196558878000000E9    -2.112278976061377E-1    4.931013699826271E-1   -2.713003075723950E-3   -9.041463407737487E-4   -2.785292587839294E-3   -8.069544824613413E-4   -1.423862453491319E-1    4.238438518249699E-1
 8.196563684000000E9    -2.109090324331147E-1    4.932692822239012E-1   -2.709513614523476E-3   -9.121228866216782E-4   -2.787807902092770E-3   -8.278204750906890E-4   -1.421245010845114E-1    4.238424710516491E-1
 8.196568490000000E9    -2.104817798339450E-1    4.933316294346901E-1   -2.706664112359882E-3   -9.199519290649498E-4   -2.815226295325861E-3   -8.019598148646433E-4   -1.417967625927400E-1    4.239946514153383E-1
 8.196573296000000E9    -2.103219176667201E-1    4.934667955448708E-1   -2.723994875566603E-3   -9.146821990963519E-4   -2.810669212320158E-3   -8.126573353497264E-4   -1.416462653649153E-1    4.240041748693597E-1
 8.196578102000000E9    -2.099937245910406E-1    4.936073044648208E-1   -2.704077560942919E-3   -8.975081178787972E-4   -2.832684790412787E-3   -7.960650815280343E-4   -1.413477356955977E-1    4.239598670771758E-1
 8.196582908000000E9    -2.096761113355021E-1    4.938151913891681E-1   -2.709295179344768E-3   -9.091792885166398E-4   -2.816094229442876E-3   -8.490045875721504E-4   -1.411160408733397E-1    4.241898824253085E-1
 8.196587714000000E9    -2.093335245169315E-1    4.939012199382711E-1   -2.724562883945315E-3   -9.094636823215283E-4   -2.832703152072446E-3   -7.961088598949773E-4   -1.408628434705750E-1    4.242560463470432E-1
 8.196592520000000E9    -2.090313073323348E-1    4.940713982669545E-1   -2.705744116894550E-3   -8.831873645819764E-4   -2.837874758358989E-3   -8.254296891650029E-4   -1.405634086097765E-1    4.242770358659449E-1
 8.196597326000000E9    -2.086105761030632E-1    4.941274789393748E-1   -2.726344074556329E-3   -8.863121386678370E-4   -2.829312623194765E-3   -7.950581441267119E-4   -1.402807975890078E-1    4.243329373556319E-1
 8.196602132000000E9    -2.082974933572921E-1    4.943563172974570E-1   -2.722166839657509E-3   -8.910140587949986E-4   -2.809829729335637E-3   -8.061698325182054E-4   -1.401117762885692E-1    4.243412133019750E-1
 8.196606938000000E9    -2.080938710166417E-1    4.944725081481858E-1   -2.746248041708307E-3   -8.864339728563927E-4   -2.807928200082903E-3   -7.965436636278227E-4   -1.399542146885284E-1    4.245717745533570E-1
 8.196611744000000E9    -2.076870526182677E-1    4.943993691619493E-1   -2.736351632196340E-3   -8.867733042202968E-4   -2.802410051659254E-3   -8.181669662898161E-4   -1.396025068306213E-1    4.244865941334990E-1
 8.196616550000000E9    -2.073773170932732E-1    4.946755041877425E-1   -2.736579904524950E-3   -8.898649960001202E-4   -2.820696837365157E-3   -8.194898324043621E-4   -1.392238898398193E-1    4.247915237420948E-1
 8.196621356000000E9    -2.070166597533413E-1    4.947677818603652E-1   -2.737587605204069E-3   -9.180892823131771E-4   -2.826443333057799E-3   -7.957342740206947E-4   -1.390713224562503E-1    4.248726141761843E-1
 8.196626162000000E9    -2.067430666147904E-1    4.948676926954440E-1   -2.752636146909831E-3   -9.085424982155131E-4   -2.859112449832614E-3   -7.485924758686005E-4   -1.388340342666048E-1    4.249289494078941E-1
 8.196630968000000E9    -2.062705209891853E-1    4.952181699330952E-1   -2.736496886848975E-3   -8.732857116019976E-4   -2.874093692687213E-3   -8.231120004508172E-4   -1.383896800966296E-1    4.248630795657222E-1
 8.196635774000000E9    -2.059731227707877E-1    4.951313193827033E-1   -2.750665979869796E-3   -8.721409873426548E-4   -2.855744167346124E-3   -7.976835601152880E-4   -1.382383866286482E-1    4.249850610966224E-1
 8.196640580000000E9    -2.056909197430460E-1    4.954268714196093E-1   -2.754412437483942E-3   -8.975916265059611E-4   -2.853700093557202E-3   -7.772261341673519E-4   -1.380599816608880E-1    4.249369817986181E-1
 8.196645386000000E9    -2.052643594574198E-1    4.953572328934063E-1   -2.747841046005790E-3   -8.739169671593139E-4   -2.833403846717137E-3   -7.863883850193526E-4   -1.377287401249432E-1    4.253072352756121E-1
 8.196650192000000E9    -2.050834644538084E-1    4.956170252875522E-1   -2.767355544609603E-3   -8.840461382779586E-4   -2.825668115079003E-3   -7.877038234113596E-4   -1.374834602029542E-1    4.251862873273740E-1
 8.196654998000000E9    -2.047682137947018E-1    4.957484728231052E-1   -2.742491923022107E-3   -8.685472544392861E-4   -2.880594181688940E-3   -7.943040204344376E-4   -1.370829491137993E-1    4.252546143458893E-1
 8.196659804000000E9    -2.043465324160252E-1    4.957937872122339E-1   -2.765519534209265E-3   -8.559910728994312E-4   -2.868594067355009E-3   -7.976654762993097E-4   -1.368919008355014E-1    4.254615714331978E-1
 8.196664610000000E9    -2.040593679446181E-1    4.960179528364165E-1   -2.779635355779149E-3   -8.875150653343666E-4   -2.866408501257888E-3   -7.728680878233891E-4   -1.367005403902658E-1    4.254263835515171E-1
 8.196669416000000E9    -2.036267334428634E-1    4.960647231308913E-1   -2.766869453281094E-3   -8.743207358615436E-4   -2.850065098137324E-3   -7.916510137644557E-4   -1.363839499528215E-1    4.255239777467705E-1
 8.196674222000000E9    -2.034432148540471E-1    4.962533583531910E-1   -2.743059607089716E-3   -8.792634428541483E-4   -2.858468723819780E-3   -8.136571464981674E-4   -1.362583445245146E-1    4.254961669003098E-1
 8.196679028000000E9    -2.030689548781162E-1    4.962964931671554E-1   -2.777265309097251E-3   -8.646014955305441E-4   -2.831756450219901E-3   -7.668459110329244E-4   -1.357865208014477E-1    4.256826545205850E-1
 8.196683834000000E9    -2.027362287575832E-1    4.964904041217760E-1   -2.742410422704569E-3   -8.737959451256126E-4   -2.873641326906320E-3   -7.752294628216797E-4   -1.357343970652734E-1    4.257457505573926E-1
 8.196688640000000E9    -2.023764038468047E-1    4.966219317239216E-1   -2.789566895643379E-3   -8.806454059854703E-4   -2.845491292420275E-3   -8.006267321719987E-4   -1.353912628003137E-1    4.258323343530245E-1
 8.196693446000000E9    -2.021285335410255E-1    4.967750467066938E-1   -2.778252373848957E-3   -8.726884793247166E-4   -2.854255588244972E-3   -7.363744812977760E-4   -1.351451799611198E-1    4.259487457693089E-1
 8.196698252000000E9    -2.018542811859394E-1    4.969045064010594E-1   -2.787949190099917E-3   -8.171050233428352E-4   -2.885478623364115E-3   -7.874621592580462E-4   -1.347919860754745E-1    4.260054133472128E-1
 8.196703058000000E9    -2.013031710371024E-1    4.968607050916661E-1   -2.781299236991715E-3   -8.760237356666407E-4   -2.866587068386545E-3   -7.481177096927704E-4   -1.345746669049010E-1    4.260166766198665E-1
 8.196707864000000E9    -2.011460856937167E-1    4.970987736864833E-1   -2.812345767171518E-3   -8.652435464613602E-4   -2.880922462421691E-3   -7.922042284160945E-4   -1.343077666357737E-1    4.261621920500104E-1
 8.196712670000000E9    -2.007008073007963E-1    4.971563264774044E-1   -2.799186436446694E-3   -8.974599732939130E-4   -2.840000086506476E-3   -7.832194232416441E-4   -1.341648524857550E-1    4.262214559658494E-1
 8.196717476000000E9    -2.004250829982334E-1    4.974204596884786E-1   -2.795993562621989E-3   -8.765946787813054E-4   -2.875445726304251E-3   -7.767631594494295E-4   -1.338741738539083E-1    4.262904802377265E-1
 8.196722282000000E9    -2.000081963252766E-1    4.974104794202135E-1   -2.802567210217162E-3   -8.593500202321551E-4   -2.914350105584725E-3   -7.513770029616874E-4   -1.336032895185429E-1    4.264371192643486E-1
 8.196727088000000E9    -1.997333809310861E-1    4.976255960029492E-1   -2.789431890684308E-3   -8.595704594113890E-4   -2.892178872688348E-3   -7.316884006017396E-4   -1.332413915593835E-1    4.263478297771536E-1
 8.196731894000000E9    -1.994743327347973E-1    4.977154194343827E-1   -2.783029846090044E-3   -8.421638437056994E-4   -2.913029225837670E-3   -7.564220356008722E-4   -1.329867053938366E-1    4.264506791661840E-1
 8.196736700000000E9    -1.991384163460021E-1    4.979387245597968E-1   -2.813670414689284E-3   -8.596106138293089E-4   -2.910192191251915E-3   -7.682907865016508E-4   -1.327567748181610E-1    4.265743378614864E-1
 8.196741506000000E9    -1.987504949755041E-1    4.979932931170737E-1   -2.839728698771262E-3   -8.302141171351026E-4   -2.916165198328126E-3   -7.739023690088313E-4   -1.324592855276091E-1    4.267233024562626E-1
 8.196746312000000E9    -1.985469116894211E-1    4.980165454937367E-1   -2.790417372519926E-3   -8.498715889551204E-4   -2.915760646958881E-3   -7.615481229619471E-4   -1.322892752886080E-1    4.267890760548440E-1
 8.196751118000000E9    -1.981397029785104E-1    4.982206032968670E-1   -2.803521443944059E-3   -8.414776620278237E-4   -2.911109239030497E-3   -7.313375825152312E-4   -1.319814402096137E-1    4.268396147694292E-1
 8.196755924000000E9    -1.977402863651023E-1    4.983604520182709E-1   -2.814993925955591E-3   -8.416790956382736E-4   -2.885482481390710E-3   -7.675546715086615E-4   -1.316116985540150E-1    4.269226577431988E-1
 8.196760730000000E9    -1.973954494055203E-1    4.985033585801758E-1   -2.844026539205934E-3   -8.482021392162661E-4   -2.921817652249685E-3   -7.557652156706878E-4   -1.315331318890592E-1    4.268064987748992E-1
 8.196765536000000E9    -1.971185502941298E-1    4.985995077033264E-1   -2.819831233183272E-3   -8.475685556063592E-4   -2.920683028630122E-3   -7.577546379454573E-4   -1.311390661392783E-1    4.270715248797373E-1
 8.196770342000000E9    -1.967985703374441E-1    4.988137731493010E-1   -2.808784644314965E-3   -8.622736566750370E-4   -2.916491744731413E-3   -7.461698297254166E-4   -1.308772653443508E-1    4.270895047781834E-1
 8.196775148000000E9    -1.965622072086755E-1    4.988408694859875E-1   -2.810677572953692E-3   -8.450749236963091E-4   -2.899949691796574E-3   -7.633524624227111E-4   -1.305494881322836E-1    4.270896314166710E-1
 8.196779954000000E9    -1.961273953045942E-1    4.989719206308850E-1   -2.823831333038024E-3   -8.514244909625017E-4   -2.898436640979965E-3   -7.348105784675208E-4   -1.305015465542878E-1    4.272315279608451E-1
 8.196784760000000E9    -1.957789484984475E-1    4.990575463630972E-1   -2.811480343658568E-3   -8.537724286454393E-4   -2.943722603670489E-3   -7.346825757702466E-4   -1.302495112475371E-1    4.271931748141532E-1
 8.196789566000000E9    -1.955830002361694E-1    4.992176378598124E-1   -2.820719954052979E-3   -8.548452288884463E-4   -2.968183306136031E-3   -7.496751833546546E-4   -1.298486444064443E-1    4.274183864596438E-1
 8.196794372000000E9    -1.950991774063073E-1    4.993451770860334E-1   -2.836359840434831E-3   -8.562956931116135E-4   -2.913734697316276E-3   -7.342252341670514E-4   -1.296024409480472E-1    4.275515899220357E-1
 8.196799178000000E9    -1.948913007877408E-1    4.993244675624631E-1   -2.840730423710915E-3   -8.285327841552090E-4   -2.952215830983990E-3   -7.400492925419395E-4   -1.294109378082737E-1    4.274063261992777E-1
 8.196803984000000E9    -1.943549535965836E-1    4.995382853268341E-1   -2.838708078828105E-3   -8.210572443141901E-4   -2.906766377148017E-3   -7.312514431777029E-4   -1.292386123607087E-1    4.276561645884234E-1
 8.196808790000000E9    -1.941730274659964E-1    4.996536188911330E-1   -2.860011701102447E-3   -8.619023684542632E-4   -2.941518649406393E-3   -7.395318701011652E-4   -1.287532052034891E-1    4.276343427970969E-1
 8.196813596000000E9    -1.937941155819313E-1    4.997591125991121E-1   -2.859223184634487E-3   -8.267222405983737E-4   -2.937987132296617E-3   -7.525444033801031E-4   -1.285830389192427E-1    4.277160701241606E-1
 8.196818402000000E9    -1.934350442108889E-1    5.000085926468337E-1   -2.865013489908065E-3   -8.406399722239092E-4   -2.957014091472363E-3   -7.144461513952458E-4   -1.283472284096029E-1    4.278288844638899E-1
 8.196823208000000E9    -1.931479140206872E-1    5.002066801436842E-1   -2.853562239242804E-3   -8.479500352882875E-4   -2.938162884628667E-3   -7.111085329972530E-4   -1.281814527377851E-1    4.277666836018696E-1
 8.196828014000000E9    -1.927369197717326E-1    5.001951149671674E-1   -2.883914834111356E-3   -8.421926817499473E-4   -2.953324100132562E-3   -7.257682812248579E-4   -1.277014952695797E-1    4.281230283602632E-1
 8.196832820000000E9    -1.924092474604813E-1    5.003722099931065E-1   -2.859578526829284E-3   -8.232493839077465E-4   -2.965611785844116E-3   -7.393905506552747E-4   -1.275021678729592E-1    4.281698117207845E-1
 8.196837626000000E9    -1.921329883535119E-1    5.004251415049874E-1   -2.854204316076212E-3   -8.258485155853912E-4   -2.946861557901963E-3   -7.171625616562975E-4   -1.272047367779169E-1    4.280281730393544E-1
 8.196842432000000E9    -1.917687721686624E-1    5.006171116031748E-1   -2.872058493535429E-3   -8.166682015226779E-4   -2.972078486333861E-3   -7.263314793937841E-4   -1.271945781029413E-1    4.281674730196034E-1
 8.196847238000000E9    -1.914736495974423E-1    5.007122700906048E-1   -2.876713444230487E-3   -8.145728530638324E-4   -2.973978458928216E-3   -7.171981142907150E-4   -1.268314199492664E-1    4.281289635685125E-1
 8.196852044000000E9    -1.910773677574679E-1    5.007538265011774E-1   -2.873999440176210E-3   -8.174398995894688E-4   -2.986585678331980E-3   -7.206655490527645E-4   -1.265327641929626E-1    4.282262281317162E-1
 8.196856850000000E9    -1.907039469379490E-1    5.009348141491403E-1   -2.888988872836780E-3   -8.268784106346607E-4   -2.972976158264105E-3   -7.150479974935817E-4   -1.262540843672655E-1    4.285591166711926E-1
 8.196861656000000E9    -1.904311524209902E-1    5.009484392800495E-1   -2.892703021444633E-3   -8.268699975219078E-4   -2.992966067526678E-3   -7.209659972704198E-4   -1.259999436068063E-1    4.284319985856867E-1
 8.196866462000000E9    -1.900474203930280E-1    5.012109460887897E-1   -2.889987751765426E-3   -8.006915559614059E-4   -2.983118532960146E-3   -6.961045899803140E-4   -1.257320408986633E-1    4.285294088643377E-1
 8.196871268000000E9    -1.897948765513310E-1    5.012517059518827E-1   -2.879386638915629E-3   -8.053820040945744E-4   -2.993899576630247E-3   -6.888927853438439E-4   -1.255329990716512E-1    4.285876132453320E-1
 8.196876074000000E9    -1.894554347440214E-1    5.013552120813979E-1   -2.887262528032476E-3   -8.169906470441590E-4   -2.992490809572269E-3   -6.992655472590064E-4   -1.252730086977222E-1    4.286455740465367E-1
 8.196880880000000E9    -1.890304853228408E-1    5.015332824451192E-1   -2.906691291795214E-3   -8.175114514302483E-4   -3.009322622395652E-3   -7.314450221872831E-4   -1.249293719131047E-1    4.288037336374794E-1
 8.196885686000000E9    -1.886964126648685E-1    5.017270643946451E-1   -2.898763787567349E-3   -8.085536350357512E-4   -2.990185795007323E-3   -7.188048783654065E-4   -1.246534625279591E-1    4.289212640181105E-1
 8.196890492000000E9    -1.883495555972708E-1    5.017865486116854E-1   -2.927856073489059E-3   -8.291554781042398E-4   -2.979868607422942E-3   -7.195298789872660E-4   -1.243894984498727E-1    4.288057821410057E-1
 8.196895298000000E9    -1.880354604052122E-1    5.019495340786828E-1   -2.913693447661105E-3   -8.140336826173224E-4   -2.997270844710570E-3   -7.214674977433841E-4   -1.242542663282258E-1    4.289247039748013E-1
 8.196900104000000E9    -1.876384814123646E-1    5.019027371113268E-1   -2.932469519917061E-3   -8.010573717871402E-4   -3.041859313078572E-3   -7.155397151843209E-4   -1.239155748661351E-1    4.290088285404882E-1
 8.196904910000000E9    -1.872459735047274E-1    5.021576697131739E-1   -2.974330329573848E-3   -8.073907636104351E-4   -3.035438966547136E-3   -7.148724297987276E-4   -1.236200753448832E-1    4.291294631689869E-1
 8.196909716000000E9    -1.868925125881085E-1    5.022999984908644E-1   -2.951047106785206E-3   -8.261157496902762E-4   -3.005415459133725E-3   -7.444673188219960E-4   -1.233879005883362E-1    4.290794077798966E-1
 8.196914522000000E9    -1.867102224812568E-1    5.022117843839725E-1   -2.915584946954564E-3   -7.946977417515662E-4   -3.049269694713393E-3   -7.010502534570922E-4   -1.232062699529791E-1    4.290936856744630E-1
 8.196919328000000E9    -1.862468084201242E-1    5.023972195363349E-1   -2.936143077284782E-3   -8.144346121592134E-4   -3.046233615580556E-3   -6.883545655434098E-4   -1.228731115760807E-1    4.291576723679169E-1
 8.196924134000000E9    -1.859548807758271E-1    5.026158928076171E-1   -2.958016394303556E-3   -7.990788531956864E-4   -3.055611393637264E-3   -6.903172049121143E-4   -1.226320038344835E-1    4.291792499196213E-1
 8.196928940000000E9    -1.855872225466319E-1    5.026254057354229E-1   -2.981717508530801E-3   -7.997157714650170E-4   -3.032350696019975E-3   -6.860640223364209E-4   -1.224044890258787E-1    4.292796547581023E-1
 8.196933746000000E9    -1.854471429247559E-1    5.028371978985112E-1   -2.968067205871710E-3   -7.979271898325219E-4   -3.046411650704279E-3   -6.975229409199664E-4   -1.219477921431698E-1    4.294810562178339E-1
