#  HZ   S   RI   R     50.00 
! Rohde & Schwarz Vector Network Analyzer 
! Rohde-Schwarz,ZNB20-2Port,1311601062101988,3.16
! Created: UTC 3/20/2024, 4:58:42 PM
! freq[Hz]                re:S11                  im:S11                  re:S21                  im:S21                  re:S12                  im:S12                  re:S22                  im:S22
 8.172983382000000E9     1.549380515430198E-1   -5.220145689508124E-1    2.283580908836801E-3    2.548628943606433E-4    2.346350726250625E-3    2.569342030371770E-4    2.209068919926321E-2   -4.745512542437924E-1
 8.173093473550000E9     1.474924959861853E-1   -5.241161202716286E-1    2.287538731137096E-3    2.086802033041150E-4    2.343441683125009E-3    2.327175698474679E-4    1.581144271318230E-2   -4.746678552345011E-1
 8.173203565100000E9     1.403447597537566E-1   -5.261612324892749E-1    2.262669828240675E-3    2.037322198095965E-4    2.303897109853910E-3    1.989530950772777E-4    9.589709195002306E-3   -4.745763838865497E-1
 8.173313656650000E9     1.330298393293992E-1   -5.279979202256657E-1    2.245832520925470E-3    1.389669712079133E-4    2.379212634156322E-3    1.635706879188053E-4    3.289684998645666E-3   -4.746744895206711E-1
 8.173423748200000E9     1.256913177637900E-1   -5.298968943892973E-1    2.259239462258498E-3    1.165081300711141E-4    2.375870171504104E-3    1.248576324892172E-4   -3.179772769186086E-3   -4.744464954931846E-1
 8.173533839750000E9     1.184633046570605E-1   -5.314270225470835E-1    2.285774588223240E-3    9.899117527063000E-5    2.335464039779025E-3    1.072849615551853E-4   -9.231868189138152E-3   -4.742019853473774E-1
 8.173643931300000E9     1.110824658438102E-1   -5.329062946575660E-1    2.299555906668664E-3    5.646521540107326E-5    2.334535232899899E-3    6.337207259608794E-5   -1.570728980097020E-2   -4.739590344288319E-1
 8.173754022850000E9     1.037653680962997E-1   -5.345105452724854E-1    2.272236814586711E-3    4.055442919584455E-5    2.309427468274878E-3    1.015493366984178E-5   -2.203371575134271E-2   -4.735073762987264E-1
 8.173864114400000E9     9.620118899714263E-2   -5.359251773522165E-1    2.281054166016423E-3    1.201444507398359E-5    2.355549487308584E-3    3.146464645231691E-5   -2.806479178248295E-2   -4.729289903116357E-1
 8.173974205950000E9     8.891391193012406E-2   -5.372536337964255E-1    2.250965895117288E-3   -3.243959020322090E-5    2.312416223207768E-3   -9.824104318160800E-6   -3.448419732445396E-2   -4.723160543951868E-1
 8.174084297500000E9     8.151477494567015E-2   -5.382976515546863E-1    2.274754877342846E-3   -6.830228439679671E-5    2.324540260875093E-3   -5.920914397436880E-5   -4.058189036064772E-2   -4.718460344063589E-1
 8.174194389050000E9     7.404484456176007E-2   -5.395175440474357E-1    2.272107552735972E-3   -1.067923633464481E-4    2.327080341560746E-3   -7.566065988612562E-5   -4.708948589767473E-2   -4.711164079664004E-1
 8.174304480600000E9     6.651501961403401E-2   -5.404255669846844E-1    2.256657541467775E-3   -1.397423646497390E-4    2.325477809271588E-3   -1.256178149924093E-4   -5.324827416975787E-2   -4.703306775360567E-1
 8.174414572150000E9     5.901947360648294E-2   -5.412457087925074E-1    2.297470751567513E-3   -1.709458167031303E-4    2.322489883003237E-3   -1.877086379199106E-4   -5.931325217928627E-2   -4.694365522405839E-1
 8.174524663700000E9     5.164018356848019E-2   -5.420966767555616E-1    2.255593227624106E-3   -2.031412517597849E-4    2.304255893107959E-3   -1.704042107056898E-4   -6.563596126062145E-2   -4.685418225813197E-1
 8.174634755250000E9     4.400389450506037E-2   -5.427040262884325E-1    2.245024090362847E-3   -2.153873023464190E-4    2.321679757631776E-3   -1.988896981465286E-4   -7.184709348835745E-2   -4.673924002700165E-1
 8.174744846800000E9     3.670287215758281E-2   -5.431120789731692E-1    2.248952493931293E-3   -2.123116995031102E-4    2.310823913706240E-3   -2.394336170643994E-4   -7.800967210035434E-2   -4.662622883694776E-1
 8.174854938350000E9     2.907292832899446E-2   -5.436859764668276E-1    2.219446154815713E-3   -2.490037956913739E-4    2.323003032622831E-3   -2.803657690283056E-4   -8.413855620400926E-2   -4.649489145589318E-1
 8.174965029900000E9     2.148360466911456E-2   -5.441743342335451E-1    2.255833633586785E-3   -2.943120300842278E-4    2.326099813550810E-3   -3.084604769630313E-4   -9.026822628490537E-2   -4.637341533078296E-1
 8.175075121450000E9     1.398047564885354E-2   -5.443836658895556E-1    2.228296580417307E-3   -3.319434969521444E-4    2.315813564522611E-3   -3.459928663605415E-4   -9.642605705725943E-2   -4.623445275393427E-1
 8.175185213000000E9     6.371253691124647E-3   -5.444736209938195E-1    2.217047185212366E-3   -3.441490029661934E-4    2.286781281473741E-3   -3.740071774730887E-4   -1.024084947703111E-1   -4.609141135872473E-1
 8.175295304550000E9    -1.089850946055559E-3   -5.444670138214041E-1    2.243602866086958E-3   -3.624844602961507E-4    2.286010868588737E-3   -3.866779434157410E-4   -1.085752951244958E-1   -4.592202407620579E-1
 8.175405396100000E9    -8.660645472346771E-3   -5.442928649991393E-1    2.206277050646601E-3   -4.300833893706012E-4    2.276749493447863E-3   -4.341106345768917E-4   -1.145891114465301E-1   -4.578949970398466E-1
 8.175515487650000E9    -1.617045642559297E-2   -5.443656940747549E-1    2.218560579284359E-3   -4.690253276508067E-4    2.282017410368329E-3   -4.515719254398401E-4   -1.206138162333548E-1   -4.560545981481937E-1
 8.175625579200000E9    -2.381816208181244E-2   -5.438077099519644E-1    2.222877144513147E-3   -4.684819743509693E-4    2.256881653456605E-3   -4.905592802637920E-4   -1.265494184611825E-1   -4.541496955902781E-1
 8.175735670750000E9    -3.131949693842080E-2   -5.435786750766400E-1    2.236257203608584E-3   -4.943515100329246E-4    2.242463542502010E-3   -4.906668964172253E-4   -1.326472943200702E-1   -4.523930543532346E-1
 8.175845762300000E9    -3.883487144079015E-2   -5.429741769258845E-1    2.198087289936057E-3   -5.320171124358041E-4    2.260529785318489E-3   -5.309660218021919E-4   -1.385606566327133E-1   -4.504798865485984E-1
 8.175955853850000E9    -4.634919096902972E-2   -5.424556447081238E-1    2.176412214518018E-3   -5.561119414572846E-4    2.212288613098887E-3   -5.726358518445377E-4   -1.444413236916771E-1   -4.485096521557616E-1
 8.176065945400000E9    -5.392854263998970E-2   -5.417328168468505E-1    2.178877352006096E-3   -5.566385778928765E-4    2.221646785416329E-3   -6.295799390105807E-4   -1.504762807644855E-1   -4.465673763617777E-1
 8.176176036950000E9    -6.138589883144965E-2   -5.409303189102387E-1    2.187239572363729E-3   -6.284746270013110E-4    2.240921126821489E-3   -6.464429502124332E-4   -1.562092370802196E-1   -4.443076387535913E-1
 8.176286128500000E9    -6.896307195235026E-2   -5.398625279471774E-1    2.132464351227637E-3   -6.505979061023452E-4    2.204330666777665E-3   -6.816804744111890E-4   -1.620263295434804E-1   -4.420342757648515E-1
 8.176396220050000E9    -7.656228201191749E-2   -5.389528417745418E-1    2.162843808326154E-3   -6.870560733744444E-4    2.200649514483817E-3   -6.982274636980877E-4   -1.678136408132007E-1   -4.396817240912012E-1
 8.176506311600000E9    -8.395412484867050E-2   -5.378427001460536E-1    2.136916693172434E-3   -7.195671647803290E-4    2.203965058450550E-3   -7.314529273866347E-4   -1.736932542356335E-1   -4.372263174030894E-1
 8.176616403150000E9    -9.143664035001729E-2   -5.367178797432121E-1    2.140286398678157E-3   -7.491021696800626E-4    2.185941596089790E-3   -7.389154742507371E-4   -1.793064460617261E-1   -4.348809197814688E-1
 8.176726494700000E9    -9.875543890949913E-2   -5.352797560465299E-1    2.120364048560730E-3   -7.560819876084355E-4    2.178673196486846E-3   -8.222745211200308E-4   -1.849319043392539E-1   -4.324387470722654E-1
 8.176836586250000E9    -1.062427489051221E-1   -5.339561553465650E-1    2.094948574492713E-3   -7.771544551986716E-4    2.186280211753306E-3   -7.986291807625832E-4   -1.906952539823578E-1   -4.297749562687977E-1
 8.176946677800000E9    -1.136676733080779E-1   -5.322842591862216E-1    2.092528962390760E-3   -8.221519852868643E-4    2.144951192194623E-3   -8.586302449819757E-4   -1.963429967026369E-1   -4.269579392369091E-1
 8.177056769350000E9    -1.208581645293524E-1   -5.305662687608877E-1    2.051439122940384E-3   -8.331508209900344E-4    2.149609140997409E-3   -8.827820395935496E-4   -2.018130381079697E-1   -4.243265085150678E-1
 8.177166860900000E9    -1.283981690056391E-1   -5.289735938702858E-1    2.086251904120078E-3   -8.682337511854739E-4    2.150215952772665E-3   -9.136355474224421E-4   -2.075252202727959E-1   -4.215700811783877E-1
 8.177276952450000E9    -1.356564024427135E-1   -5.270982908833833E-1    2.082877111066630E-3   -8.940478317754216E-4    2.127753322771740E-3   -9.329144234337671E-4   -2.129289097420235E-1   -4.186096791380788E-1
 8.177387044000000E9    -1.430740832079351E-1   -5.251788719317600E-1    2.014601749314006E-3   -9.219477629985938E-4    2.108239357413099E-3   -9.727608503187015E-4   -2.183193814525409E-1   -4.156275892060777E-1
 8.177497135550000E9    -1.503305516519589E-1   -5.231016615238889E-1    2.028907969259783E-3   -9.451098992698940E-4    2.085884576993569E-3   -1.011522136228606E-3   -2.239665318479083E-1   -4.124793525157819E-1
 8.177607227100000E9    -1.574391168845182E-1   -5.209445192138999E-1    2.019401977122156E-3   -9.836271585470192E-4    2.057825797084123E-3   -1.023568582619564E-3   -2.292971837283290E-1   -4.093490524303922E-1
 8.177717318650000E9    -1.648551391529223E-1   -5.186177668764169E-1    2.004975848752527E-3   -9.989801334818792E-4    2.057370745526609E-3   -1.022239403253429E-3   -2.345204360692035E-1   -4.061531469221968E-1
 8.177827410200000E9    -1.719671133281589E-1   -5.162439646762585E-1    2.000503740610133E-3   -1.006433927703819E-3    2.055652668615572E-3   -1.037965476934864E-3   -2.399526729211197E-1   -4.028250034845877E-1
 8.177937501750000E9    -1.791130362776937E-1   -5.138515258885495E-1    1.988595035953106E-3   -1.045173369100242E-3    2.066772492628400E-3   -1.131869274944084E-3   -2.452053759896914E-1   -3.996531087259856E-1
 8.178047593300000E9    -1.863328205045188E-1   -5.111501707694247E-1    1.987622438810801E-3   -1.080284512781025E-3    2.021794227877044E-3   -1.114376127298014E-3   -2.504138412106107E-1   -3.962853596271190E-1
 8.178157684850000E9    -1.934405061211734E-1   -5.084243295574787E-1    1.966194467596335E-3   -1.101342548896553E-3    2.036810404489435E-3   -1.114065881475192E-3   -2.554939799964063E-1   -3.928058605235696E-1
 8.178267776400000E9    -2.004547813229942E-1   -5.058031421649563E-1    1.929439056536939E-3   -1.131316380857197E-3    2.015369616973159E-3   -1.169180709619155E-3   -2.607472748246273E-1   -3.892539417196026E-1
 8.178377867950000E9    -2.075875712670712E-1   -5.031010032152746E-1    1.919126566491372E-3   -1.139280259484539E-3    1.921235101899194E-3   -1.202484368762452E-3   -2.657104165420508E-1   -3.857161914274295E-1
 8.178487959500000E9    -2.145428211919354E-1   -5.000598164282108E-1    1.890759971028732E-3   -1.170466882743687E-3    1.941969796207718E-3   -1.228793715192250E-3   -2.706591391011232E-1   -3.819887631033051E-1
 8.178598051050000E9    -2.213371815947338E-1   -4.969087562434222E-1    1.868498273756441E-3   -1.200060838692092E-3    1.940400956151538E-3   -1.314978477130935E-3   -2.757862472320824E-1   -3.783086373925630E-1
 8.178708142600000E9    -2.284215985937705E-1   -4.937984391497325E-1    1.877529250756278E-3   -1.237099944013663E-3    1.931533607236987E-3   -1.297825641912462E-3   -2.806857912572282E-1   -3.744381197460191E-1
 8.178818234150000E9    -2.352107882423586E-1   -4.906737257976537E-1    1.870033581760929E-3   -1.246217783696851E-3    1.945021052948315E-3   -1.326201803451618E-3   -2.855100333754019E-1   -3.706514342368982E-1
 8.178928325700000E9    -2.420827934656669E-1   -4.873110678065202E-1    1.839432634455009E-3   -1.273243992781339E-3    1.853800246644376E-3   -1.338514790998099E-3   -2.903716370098623E-1   -3.669122740312892E-1
 8.179038417250000E9    -2.487878481242096E-1   -4.836861640334798E-1    1.839390482871664E-3   -1.293219348347967E-3    1.872409227390923E-3   -1.363541261897307E-3   -2.951938362835345E-1   -3.626526234008977E-1
 8.179148508800000E9    -2.555524731705333E-1   -4.802288204869791E-1    1.819750829058254E-3   -1.318488237080785E-3    1.870043206859674E-3   -1.392757754771486E-3   -2.998495287830362E-1   -3.586728335352715E-1
 8.179258600350000E9    -2.622812470236218E-1   -4.766386565941335E-1    1.798148612038828E-3   -1.371833428923965E-3    1.823655694670157E-3   -1.439736578216895E-3   -3.043308432116954E-1   -3.547820710717332E-1
 8.179368691900000E9    -2.688338827555016E-1   -4.728967397930175E-1    1.790435317310539E-3   -1.368908167960469E-3    1.822405469318377E-3   -1.467871491517222E-3   -3.089901088553291E-1   -3.502356378121931E-1
 8.179478783450000E9    -2.754644918945475E-1   -4.691614390130324E-1    1.745510032334599E-3   -1.378787444646457E-3    1.806135401174691E-3   -1.447936223633031E-3   -3.137142066879051E-1   -3.462888726143561E-1
 8.179588875000000E9    -2.818449146005293E-1   -4.651498111799905E-1    1.723499161918259E-3   -1.438361977952489E-3    1.797283268205570E-3   -1.548326598238808E-3   -3.181433001767913E-1   -3.419058727612734E-1
 8.179698966550000E9    -2.884366739933950E-1   -4.610924514578500E-1    1.714519818031593E-3   -1.451282183861838E-3    1.777673018374115E-3   -1.530142985440787E-3   -3.224277336232620E-1   -3.376129893470700E-1
 8.179809058100000E9    -2.949326087006142E-1   -4.569465696698649E-1    1.685132448463308E-3   -1.471836623602776E-3    1.753519380582187E-3   -1.547615585043702E-3   -3.267212089066093E-1   -3.331521859046352E-1
 8.179919149650000E9    -3.011713690926625E-1   -4.528113882565468E-1    1.666936309352524E-3   -1.485869490311621E-3    1.731331087488468E-3   -1.586563056817769E-3   -3.310876957120834E-1   -3.288403760700002E-1
 8.180029241200000E9    -3.075332739444350E-1   -4.485207356485153E-1    1.660915484915105E-3   -1.546532793400119E-3    1.696808077309747E-3   -1.578422165279631E-3   -3.355516923684120E-1   -3.242344424974359E-1
 8.180139332750000E9    -3.136903661776100E-1   -4.441981421104617E-1    1.645957209599397E-3   -1.538183629849678E-3    1.660839575816087E-3   -1.617938794160025E-3   -3.395127474962183E-1   -3.197294034036509E-1
 8.180249424300000E9    -3.198603584732545E-1   -4.397378439625438E-1    1.644973259531773E-3   -1.568431296112942E-3    1.677559990817537E-3   -1.627267186295625E-3   -3.436705696673062E-1   -3.151976847082931E-1
 8.180359515850000E9    -3.259183768670578E-1   -4.352327516699505E-1    1.600489147677234E-3   -1.541127675964312E-3    1.635210941005437E-3   -1.665911434811938E-3   -3.476800076462457E-1   -3.105493324125307E-1
 8.180469607400000E9    -3.319176815550387E-1   -4.305804441652755E-1    1.589850527122226E-3   -1.603850344060188E-3    1.593374223211119E-3   -1.667190769947740E-3   -3.517709916771727E-1   -3.058446128311325E-1
 8.180579698950000E9    -3.380811469277600E-1   -4.258642237897926E-1    1.560688298213792E-3   -1.616383362729391E-3    1.585591313427099E-3   -1.726506450956941E-3   -3.555713348598359E-1   -3.008605845477478E-1
 8.180689790500000E9    -3.438260413611703E-1   -4.209734767246414E-1    1.523623976053627E-3   -1.641849633682285E-3    1.580885240629560E-3   -1.703409212891539E-3   -3.595185038965866E-1   -2.961994391666810E-1
 8.180799882050000E9    -3.497946779713723E-1   -4.161273385757699E-1    1.514131686862469E-3   -1.659688157792435E-3    1.543776370202030E-3   -1.769390222724030E-3   -3.632509496867205E-1   -2.913525387514300E-1
 8.180909973600000E9    -3.554572895402418E-1   -4.112819484600008E-1    1.461351093448696E-3   -1.669054373378466E-3    1.516198526647089E-3   -1.757193179559520E-3   -3.670084236261288E-1   -2.864733330619762E-1
 8.181020065150000E9    -3.612944470327388E-1   -4.062187131824504E-1    1.448956120610971E-3   -1.691352297825883E-3    1.487878797131671E-3   -1.832760096650039E-3   -3.706990724645578E-1   -2.816423771912974E-1
 8.181130156700000E9    -3.669260958741500E-1   -4.011513852529271E-1    1.445233512735310E-3   -1.751540474214536E-3    1.461342934000499E-3   -1.799213291573574E-3   -3.743019703718860E-1   -2.766499771666623E-1
 8.181240248250000E9    -3.725203197771846E-1   -3.958583080778905E-1    1.432298581867577E-3   -1.760400588936896E-3    1.466594871716370E-3   -1.820331687218515E-3   -3.779446336198547E-1   -2.714362870254115E-1
 8.181350339800000E9    -3.781041709040816E-1   -3.905653140026192E-1    1.404480193603868E-3   -1.777921177309608E-3    1.418639565498207E-3   -1.860336404455911E-3   -3.812231767301965E-1   -2.664036114631766E-1
 8.181460431350000E9    -3.833548999386121E-1   -3.852401683040516E-1    1.365242252091453E-3   -1.772390876472333E-3    1.386537231750180E-3   -1.896985436468758E-3   -3.847159928493571E-1   -2.612901857700636E-1
 8.181570522900000E9    -3.888519784121454E-1   -3.797392265321755E-1    1.337142206070099E-3   -1.823883525226003E-3    1.362116143038656E-3   -1.876482240910171E-3   -3.878825704192752E-1   -2.561014800003333E-1
 8.181680614450000E9    -3.941224547021930E-1   -3.743686602415540E-1    1.321589588943012E-3   -1.809381885094398E-3    1.367356883395916E-3   -1.919727025600524E-3   -3.913149361932499E-1   -2.509407949879094E-1
 8.181790706000000E9    -3.992464435206264E-1   -3.686823561468057E-1    1.294406620027725E-3   -1.839741769995416E-3    1.322513816943886E-3   -1.951628373847332E-3   -3.943296528020987E-1   -2.457693829300418E-1
 8.181900797550000E9    -4.043866613562770E-1   -3.629782299001400E-1    1.288092065462347E-3   -1.868683789471404E-3    1.284904929585173E-3   -1.960565417392192E-3   -3.975775048521134E-1   -2.403534594276933E-1
 8.182010889100000E9    -4.094692270702677E-1   -3.572999330555368E-1    1.235483318208242E-3   -1.890790891806873E-3    1.246759990341057E-3   -1.973891428241054E-3   -4.005797485126611E-1   -2.350067328306238E-1
 8.182120980650000E9    -4.144119387417519E-1   -3.515091131451913E-1    1.221670358220609E-3   -1.918571911822703E-3    1.243836821349112E-3   -1.987375390442075E-3   -4.037390814575816E-1   -2.296514828916831E-1
 8.182231072200000E9    -4.192921266778115E-1   -3.456414093425769E-1    1.216637729671827E-3   -1.959200819634039E-3    1.242902265939255E-3   -1.973422104855435E-3   -4.064725858291467E-1   -2.243027278115164E-1
 8.182341163750000E9    -4.239938129147420E-1   -3.396180275505669E-1    1.182468934433634E-3   -1.949966277110882E-3    1.206695838298429E-3   -2.003954913105635E-3   -4.092912562333702E-1   -2.188905319673898E-1
 8.182451255300000E9    -4.288887804450546E-1   -3.336040114900896E-1    1.120541185252074E-3   -1.981498682248549E-3    1.174431707234183E-3   -2.015183285838790E-3   -4.121396681135851E-1   -2.132988392705516E-1
 8.182561346850000E9    -4.334197122612199E-1   -3.275835841364447E-1    1.111218734840518E-3   -1.959709523521798E-3    1.138124318253632E-3   -2.078160967968833E-3   -4.147823192907545E-1   -2.079349597665155E-1
 8.182671438400000E9    -4.379305223986590E-1   -3.213727061265815E-1    1.088597179861312E-3   -2.005623757984262E-3    1.093365240597489E-3   -2.095276556670540E-3   -4.173478348524219E-1   -2.022030052194694E-1
 8.182781529950000E9    -4.425560573990695E-1   -3.152177734329865E-1    1.080711405552556E-3   -1.986041554900045E-3    1.092423616731148E-3   -2.085401808227066E-3   -4.199178171502914E-1   -1.965599754157163E-1
 8.182891621500000E9    -4.467771717473455E-1   -3.090357263550158E-1    1.079543062783347E-3   -2.000634117040740E-3    1.046148791861509E-3   -2.118090319527158E-3   -4.225565200227839E-1   -1.909616169629405E-1
