#  HZ   S   RI   R     50.00 
! Rohde & Schwarz Vector Network Analyzer 
! Rohde-Schwarz,ZNB20-2Port,1311601062101988,3.16
! Created: UTC 3/20/2024, 4:58:54 PM
! freq[Hz]                re:S11                  im:S11                  re:S21                  im:S21                  re:S12                  im:S12                  re:S22                  im:S22
 8.162268352000000E9     5.399684721667027E-1    2.746614710911598E-2    3.257433815888142E-4    2.485111632695763E-3    3.307985969244173E-4    2.495013750762017E-3    4.789711839050168E-1   -1.096773364668844E-1
 8.162427182400000E9     5.403812683387439E-1    1.684081706289437E-2    3.866714105770593E-4    2.469538813371319E-3    3.795063220134980E-4    2.493354965963866E-3    4.765682488471006E-1   -1.188878413875355E-1
 8.162586012800000E9     5.407758825392006E-1    6.103030502410880E-3    4.196156682696384E-4    2.452505678775599E-3    4.188945316638830E-4    2.466790066151915E-3    4.739182553014785E-1   -1.281346544807684E-1
 8.162744843200000E9     5.409132565167837E-1   -4.519793592005688E-3    4.949661978136438E-4    2.443982892823065E-3    5.039437332480673E-4    2.453569811228386E-3    4.709404657047579E-1   -1.372071362279743E-1
 8.162903673600000E9     5.408017136162686E-1   -1.527290039345645E-2    5.262361305865563E-4    2.422959819099949E-3    5.235044135745708E-4    2.494485743247914E-3    4.679013331679188E-1   -1.461037599789020E-1
 8.163062504000000E9     5.405591199958720E-1   -2.594367553591468E-2    5.925058121942220E-4    2.432785752383177E-3    5.762014967191959E-4    2.425144647645396E-3    4.648202195236467E-1   -1.551644538638427E-1
 8.163221334400000E9     5.400935223960757E-1   -3.672072455988146E-2    6.168134236772930E-4    2.387333902564230E-3    6.465812211506033E-4    2.427588272238549E-3    4.615351777645270E-1   -1.640252305633130E-1
 8.163380164800000E9     5.393236903219862E-1   -4.726950564014651E-2    6.665582361489461E-4    2.379497337114710E-3    6.582027015985852E-4    2.408967691668421E-3    4.580114301109216E-1   -1.726665303324854E-1
 8.163538995200000E9     5.385499679382083E-1   -5.780641297899560E-2    7.072905210701698E-4    2.362837593475566E-3    7.086650701226849E-4    2.413478556160387E-3    4.544497415535538E-1   -1.815160653050998E-1
 8.163697825600000E9     5.371693942590455E-1   -6.846605624519597E-2    7.527454786660974E-4    2.338672710372420E-3    7.229084514243533E-4    2.373745353551390E-3    4.507162007331613E-1   -1.901857621234851E-1
 8.163856656000000E9     5.359568731812336E-1   -7.923153594751373E-2    8.064268243959114E-4    2.327347971996272E-3    7.947132342224660E-4    2.347268318620595E-3    4.465685481586594E-1   -1.987776066042558E-1
 8.164015486400000E9     5.344441852253580E-1   -8.963469025447214E-2    8.384826678506204E-4    2.280519956536729E-3    8.300829104235979E-4    2.295586439656759E-3    4.424102917815822E-1   -2.073807125440955E-1
 8.164174316800000E9     5.325573206601492E-1   -1.002287470506480E-1    8.894849539370197E-4    2.295807717868116E-3    8.601862881976752E-4    2.306504057628646E-3    4.379486080317581E-1   -2.156268310750479E-1
 8.164333147200000E9     5.305495633479491E-1   -1.108195082901991E-1    9.409314405338852E-4    2.243649287668334E-3    9.287191650491726E-4    2.269819098777887E-3    4.336103831440477E-1   -2.240218811441334E-1
 8.164491977600000E9     5.284585852534419E-1   -1.211781437500264E-1    9.832348422789475E-4    2.235523512405890E-3    9.823383134773868E-4    2.279545104906553E-3    4.290211248812843E-1   -2.322524036088779E-1
 8.164650808000000E9     5.259867779341663E-1   -1.317776315587114E-1    1.008997393959865E-3    2.221060463230130E-3    1.037499093807503E-3    2.230034909926354E-3    4.241971656982260E-1   -2.403148493252455E-1
 8.164809638400000E9     5.233210283696216E-1   -1.420182124438167E-1    1.063627344033196E-3    2.189111808524917E-3    1.045041907973224E-3    2.192857146054511E-3    4.192566067330049E-1   -2.483414992171574E-1
 8.164968468800000E9     5.206251679407794E-1   -1.522984205075699E-1    1.109755595638413E-3    2.160331053906238E-3    1.104030420313571E-3    2.226072592376492E-3    4.142134268428811E-1   -2.561601888510158E-1
 8.165127299200000E9     5.175450822689761E-1   -1.626021389041291E-1    1.136525573059192E-3    2.117180865934361E-3    1.139906222649010E-3    2.173067662873024E-3    4.088166137984973E-1   -2.641874964332583E-1
 8.165286129600000E9     5.143215456347460E-1   -1.727210451623060E-1    1.201057927825233E-3    2.111156086660100E-3    1.213150665707881E-3    2.165554659813867E-3    4.035305323907806E-1   -2.717528353600110E-1
 8.165444960000000E9     5.109394711439332E-1   -1.829026193219756E-1    1.233015402135461E-3    2.079463181978792E-3    1.189055758925517E-3    2.129012457317586E-3    3.980480545647970E-1   -2.794875838723578E-1
 8.165603790400000E9     5.072372694195179E-1   -1.929976935433797E-1    1.257503666594320E-3    2.073511151863135E-3    1.234235039088517E-3    2.115337223260694E-3    3.923293616056902E-1   -2.869051231504461E-1
 8.165762620800000E9     5.034512054089648E-1   -2.029286765921569E-1    1.307706536103394E-3    2.014334916880873E-3    1.345037156191090E-3    2.085051949664628E-3    3.865718297777356E-1   -2.942509442510162E-1
 8.165921451200000E9     4.993855055167392E-1   -2.129360186351887E-1    1.336368757203181E-3    1.981568653382193E-3    1.329859102458113E-3    2.032617815437265E-3    3.806759096486589E-1   -3.014097960901612E-1
 8.166080281600000E9     4.951025710750933E-1   -2.227131024644649E-1    1.367922175303609E-3    1.969094229108511E-3    1.373450312797594E-3    2.015475476619784E-3    3.746039904852412E-1   -3.085714099717379E-1
 8.166239112000000E9     4.906771365460660E-1   -2.324164524728150E-1    1.405622215861188E-3    1.981370813449252E-3    1.427798710218066E-3    1.969742728529246E-3    3.683488645869654E-1   -3.155720397722606E-1
 8.166397942400000E9     4.861215879089289E-1   -2.421715547070049E-1    1.472813380901478E-3    1.920621127339115E-3    1.472813814359915E-3    1.955751255013734E-3    3.619984580020564E-1   -3.224897797602966E-1
 8.166556772800000E9     4.813322949810332E-1   -2.517150605737020E-1    1.484109945644259E-3    1.859947938112710E-3    1.524359646454423E-3    1.898615762627414E-3    3.555400672148280E-1   -3.291663434683553E-1
 8.166715603200000E9     4.763179767800637E-1   -2.611966897041977E-1    1.537193209736923E-3    1.828207636105364E-3    1.520856865009579E-3    1.910056219663439E-3    3.489209160167533E-1   -3.358266597789431E-1
 8.166874433600000E9     4.712271022258589E-1   -2.706144839496147E-1    1.542369514404574E-3    1.801731445158966E-3    1.542244089208180E-3    1.857841222597786E-3    3.421955926686483E-1   -3.423317704063547E-1
 8.167033264000000E9     4.658583319437172E-1   -2.799074208690442E-1    1.615220059015790E-3    1.781814891766330E-3    1.587371726556613E-3    1.786893862121912E-3    3.353347732495021E-1   -3.485902483312133E-1
 8.167192094400000E9     4.602858122495345E-1   -2.890417398753046E-1    1.610559441633673E-3    1.739299191723167E-3    1.646968780602880E-3    1.803827901456470E-3    3.285035015202311E-1   -3.547622423224721E-1
 8.167350924800000E9     4.545160706485467E-1   -2.980321464782910E-1    1.661103845875986E-3    1.664069129834360E-3    1.619303382672931E-3    1.742363472648712E-3    3.214388288552026E-1   -3.608838923654441E-1
 8.167509755200000E9     4.485907949808672E-1   -3.070225940526220E-1    1.672377813684796E-3    1.650072028432508E-3    1.704693410868173E-3    1.686917321781041E-3    3.142014849794921E-1   -3.668291228616864E-1
 8.167668585600000E9     4.424235693610462E-1   -3.158500584091690E-1    1.735190857784284E-3    1.662625202019603E-3    1.733349303484444E-3    1.698564784892562E-3    3.069104749518297E-1   -3.727220319895907E-1
 8.167827416000000E9     4.361550771855776E-1   -3.245893374622188E-1    1.757709762888457E-3    1.598989410511118E-3    1.755971318881489E-3    1.616044525094855E-3    2.996450624323633E-1   -3.783274017566817E-1
 8.167986246400000E9     4.296378545663724E-1   -3.330772459385418E-1    1.776370281468230E-3    1.571829920983821E-3    1.795987201336270E-3    1.587176563469111E-3    2.920455733818501E-1   -3.837254711239432E-1
 8.168145076800000E9     4.230274853669897E-1   -3.414345338170376E-1    1.803641223414262E-3    1.507975833653526E-3    1.828927103335763E-3    1.594269412249633E-3    2.845587662678556E-1   -3.892183420913103E-1
 8.168303907200000E9     4.163113364442906E-1   -3.498713818693894E-1    1.836579278271733E-3    1.490446912582545E-3    1.827139372738366E-3    1.523424370646689E-3    2.767258950213742E-1   -3.944688208958810E-1
 8.168462737600000E9     4.093245085859917E-1   -3.580878221923169E-1    1.843255636797294E-3    1.449324572440502E-3    1.904244446878071E-3    1.474557554268546E-3    2.690650082341138E-1   -3.994415927972778E-1
 8.168621568000000E9     4.022841339614880E-1   -3.660798494359416E-1    1.879624979085544E-3    1.430783776249783E-3    1.903598863659656E-3    1.459480683281693E-3    2.612312012973603E-1   -4.043050523793292E-1
 8.168780398400000E9     3.948208489904703E-1   -3.740326008122573E-1    1.871670864596026E-3    1.346200714426583E-3    1.916859048780698E-3    1.423796115771054E-3    2.533828309406891E-1   -4.089839159454554E-1
 8.168939228800000E9     3.874621754387398E-1   -3.817762428620834E-1    1.915497881652881E-3    1.319474524306645E-3    1.968470996337510E-3    1.383306023787270E-3    2.451574303188067E-1   -4.136203118948970E-1
 8.169098059200000E9     3.797777278456080E-1   -3.894894962755436E-1    1.958779706497482E-3    1.282457613297304E-3    1.979303339574627E-3    1.360977466748525E-3    2.371362759011833E-1   -4.180929339722383E-1
 8.169256889600000E9     3.722394401970885E-1   -3.967784392343151E-1    2.000510265597818E-3    1.259205707374179E-3    2.043413687292858E-3    1.318124776878123E-3    2.288725471038044E-1   -4.222300706854887E-1
 8.169415720000000E9     3.642288446739202E-1   -4.040768357408864E-1    1.982734753523008E-3    1.203032538108886E-3    2.048841633478136E-3    1.251622178839317E-3    2.206645294029488E-1   -4.264095745239612E-1
 8.169574550400000E9     3.561907473378886E-1   -4.112950815963637E-1    2.024752668591585E-3    1.157909389158974E-3    2.064869604196138E-3    1.227792840654654E-3    2.123339653905547E-1   -4.303643723465470E-1
 8.169733380800000E9     3.479361994947237E-1   -4.182490123599097E-1    2.040108405940777E-3    1.138401907370324E-3    2.064701857187246E-3    1.190870977667645E-3    2.038823800914622E-1   -4.341172774661990E-1
 8.169892211200000E9     3.396982029827262E-1   -4.251907129950974E-1    2.068702310466716E-3    1.117022864685522E-3    2.099055954931892E-3    1.129028204332631E-3    1.954388454571421E-1   -4.377854426203172E-1
 8.170051041600000E9     3.312589103328815E-1   -4.317526454488975E-1    2.067640174844099E-3    1.046868352030134E-3    2.102831596926592E-3    1.078763683625533E-3    1.867802725770660E-1   -4.411980251458568E-1
 8.170209872000000E9     3.226454865807670E-1   -4.383161618638730E-1    2.080484978062108E-3    1.003055757073767E-3    2.124973287734244E-3    1.030867366729211E-3    1.783002006248641E-1   -4.446071016733554E-1
 8.170368702400000E9     3.139701863710244E-1   -4.445935104694893E-1    2.106398702590236E-3    9.414258925452978E-4    2.138641942612340E-3    9.644330310159051E-4    1.696512881962118E-1   -4.476273408659105E-1
 8.170527532800000E9     3.050398402681742E-1   -4.506952943934119E-1    2.114587596145376E-3    9.254387044701788E-4    2.162247963064883E-3    9.535311036778616E-4    1.609226969099751E-1   -4.506957653920723E-1
 8.170686363200000E9     2.961342671547911E-1   -4.567544228478425E-1    2.137307031272758E-3    8.548796923186720E-4    2.185216834208448E-3    8.880095160240303E-4    1.521447299396443E-1   -4.533453585606209E-1
 8.170845193600000E9     2.869823671660896E-1   -4.625518884753497E-1    2.137860774679551E-3    8.437371804946764E-4    2.202810767668174E-3    8.534926810570444E-4    1.433831421932007E-1   -4.561345550497540E-1
 8.171004024000000E9     2.778008083024972E-1   -4.680621935676633E-1    2.145852785199069E-3    8.209650227085912E-4    2.232439330321169E-3    7.786507080166159E-4    1.345768651095944E-1   -4.583097271037406E-1
 8.171162854400000E9     2.684168199152233E-1   -4.736847699281594E-1    2.193761640845901E-3    7.598858729331305E-4    2.196725042064064E-3    8.229562778018804E-4    1.256508744904718E-1   -4.607004945322291E-1
 8.171321684800000E9     2.590753135824890E-1   -4.788771330470004E-1    2.186106713956689E-3    7.160238559375493E-4    2.247246479202153E-3    7.323701880098138E-4    1.166948220310359E-1   -4.628611325728704E-1
 8.171480515200000E9     2.495380358974000E-1   -4.839509176252127E-1    2.187625781670695E-3    6.771499629449304E-4    2.239776901339184E-3    6.696125469884539E-4    1.078606257017029E-1   -4.649382989552461E-1
 8.171639345600000E9     2.398601779486226E-1   -4.887142929111381E-1    2.226697072979868E-3    6.354814205398143E-4    2.262474669360389E-3    6.331442481789699E-4    9.890662394637988E-2   -4.665173759005698E-1
 8.171798176000000E9     2.301207069094009E-1   -4.933534375575258E-1    2.230404176307724E-3    5.698159152519994E-4    2.264990794372230E-3    6.036795997896669E-4    8.976373760960375E-2   -4.681185354828017E-1
 8.171957006400000E9     2.202718839364276E-1   -4.979192689623957E-1    2.216074091199603E-3    5.369767212422116E-4    2.310623849991635E-3    5.455694589172485E-4    8.091694515924643E-2   -4.694437667174621E-1
 8.172115836800000E9     2.103991556038822E-1   -5.022254043966304E-1    2.248811026517672E-3    5.013059526680094E-4    2.356768753881998E-3    5.006074796992737E-4    7.172989986128760E-2   -4.708175457735743E-1
 8.172274667200000E9     2.003877150975392E-1   -5.063118177869954E-1    2.227602800372099E-3    4.342050592281940E-4    2.275692596308172E-3    5.126282914531055E-4    6.257300143634402E-2   -4.720039845436518E-1
 8.172433497600000E9     1.902225724706389E-1   -5.101998677734467E-1    2.238283681365000E-3    4.160404972328216E-4    2.289179637183265E-3    4.010458367371925E-4    5.358078853407135E-2   -4.726972716554634E-1
 8.172592328000000E9     1.801754889615116E-1   -5.138625615562492E-1    2.255860965209730E-3    3.413019106359676E-4    2.322015900046479E-3    3.623357034692507E-4    4.454678548963466E-2   -4.736075650923900E-1
 8.172751158400000E9     1.697525764239351E-1   -5.172767472267856E-1    2.256173231194730E-3    3.069285780710079E-4    2.313211020100145E-3    3.137334491305861E-4    3.535460922199746E-2   -4.741088955411094E-1
 8.172909988800000E9     1.594433758838311E-1   -5.205618432201444E-1    2.267782000392840E-3    2.878102070710424E-4    2.316381101556577E-3    2.557898089345818E-4    2.623470084116583E-2   -4.745278827548354E-1
 8.173068819200000E9     1.490334770554195E-1   -5.236866786923442E-1    2.270787273266673E-3    2.114759578507676E-4    2.320462984898526E-3    2.833921738578036E-4    1.718837705687239E-2   -4.746112806909272E-1
 8.173227649600000E9     1.385983368785861E-1   -5.266761271782464E-1    2.268624840976854E-3    1.791414594770496E-4    2.344400276353425E-3    1.959986622531561E-4    7.932483327688098E-3   -4.746258251175562E-1
 8.173386480000000E9     1.281214755566332E-1   -5.292710498881661E-1    2.283460638397839E-3    1.538149384357650E-4    2.338899920791965E-3    1.606171775002185E-4   -9.033309462267138E-4   -4.745603996657367E-1
 8.173545310400000E9     1.175983873267300E-1   -5.316572273615172E-1    2.266793100609022E-3    4.815111418567499E-5    2.360206909670971E-3    1.329383357756282E-4   -9.984426154336579E-3   -4.740911873666300E-1
 8.173704140800000E9     1.069539531891627E-1   -5.338573378935303E-1    2.266197627692563E-3    6.622134914324589E-5    2.325815035606789E-3    6.201505749923661E-5   -1.924040163919210E-2   -4.736513613183481E-1
 8.173862971200000E9     9.639980789227830E-2   -5.359601625354684E-1    2.237213840138022E-3    1.832039044679674E-5    2.368084603102108E-3   -1.699358919090049E-6   -2.821081183016760E-2   -4.730548974502806E-1
 8.174021801600000E9     8.558082135413043E-2   -5.377328164734151E-1    2.263354610589972E-3   -3.624114844754646E-5    2.333593651356491E-3   -9.564081706924040E-6   -3.739833317553573E-2   -4.723784929083674E-1
 8.174180632000000E9     7.479432374668962E-2   -5.392622959497145E-1    2.266685652629899E-3   -7.798930371434350E-5    2.313225566728118E-3   -8.185869081948000E-5   -4.616509339019012E-2   -4.712317967072853E-1
 8.174339462400000E9     6.414752623843543E-2   -5.407254444979834E-1    2.253827258165211E-3   -1.262173265821435E-4    2.292693609001261E-3   -1.157581729603906E-4   -5.518259783776781E-2   -4.700957277129074E-1
 8.174498292800000E9     5.334180169158297E-2   -5.418434004092935E-1    2.274349249602209E-3   -1.741675099796734E-4    2.320370653838541E-3   -1.840401522966661E-4   -6.411509367664216E-2   -4.686803154269244E-1
 8.174657123200000E9     4.249633192438505E-2   -5.428658570708799E-1    2.242915573511920E-3   -2.195908118680923E-4    2.300238663657695E-3   -2.440685525575663E-4   -7.294744783272043E-2   -4.671805665746806E-1
 8.174815953600000E9     3.147044192044186E-2   -5.435281826941554E-1    2.241739346877402E-3   -2.593142566601143E-4    2.324846219896254E-3   -2.500970037794582E-4   -8.190648681302863E-2   -4.653637435117933E-1
 8.174974784000000E9     2.075952843848837E-2   -5.441836751786416E-1    2.247245465816141E-3   -3.187056053654186E-4    2.277515605089146E-3   -2.919869823563172E-4   -9.089154936032268E-2   -4.636653048684140E-1
 8.175133614400000E9     9.864882257613578E-3   -5.443804734362208E-1    2.220691290579682E-3   -3.343092215438067E-4    2.302525027879619E-3   -3.313537752771153E-4   -9.965948767205406E-2   -4.615997783580656E-1
 8.175292444800000E9    -9.213212660243011E-4   -5.443554800224972E-1    2.226705603482083E-3   -3.808502141876361E-4    2.278072029380307E-3   -3.999812033959691E-4   -1.084309317483644E-1   -4.594221983123769E-1
 8.175451275200000E9    -1.178021465067525E-2   -5.443078061006295E-1    2.193577433356641E-3   -4.390289502683873E-4    2.277011513088077E-3   -4.107004715667213E-4   -1.172246567539445E-1   -4.569951790673102E-1
 8.175610105600000E9    -2.280003564227868E-2   -5.439651905159822E-1    2.212006168912090E-3   -4.670278416786797E-4    2.282300780139487E-3   -4.699083209978410E-4   -1.257888744127746E-1   -4.544644848651322E-1
 8.175768936000000E9    -3.371058496828002E-2   -5.432692938574010E-1    2.187219709893537E-3   -5.107565871843514E-4    2.246397588441191E-3   -5.087254049388769E-4   -1.343899516267061E-1   -4.519222814125926E-1
 8.175927766400000E9    -4.447740766842345E-2   -5.427526846816008E-1    2.175320759572553E-3   -5.414310427640769E-4    2.262756116649538E-3   -5.819422093663077E-4   -1.429313542202023E-1   -4.490143481777841E-1
 8.176086596800000E9    -5.533158248034899E-2   -5.416235429080672E-1    2.178112871443180E-3   -5.946753470328030E-4    2.255759376484883E-3   -6.142643826269235E-4   -1.514498608398369E-1   -4.460363670714676E-1
 8.176245427200000E9    -6.616558126958219E-2   -5.403800564760337E-1    2.162711625808313E-3   -6.389795173352467E-4    2.244278422778708E-3   -6.867228833125908E-4   -1.600806709484357E-1   -4.428411360720681E-1
 8.176404257600000E9    -7.695357017059841E-2   -5.388518489078604E-1    2.136385522254615E-3   -6.805332689356068E-4    2.177983596013248E-3   -6.739434634265669E-4   -1.682533991282282E-1   -4.396358343535958E-1
 8.176563088000000E9    -8.781580658824219E-2   -5.371779036832244E-1    2.137573799305746E-3   -7.269136726674634E-4    2.192139777397809E-3   -7.400723541087141E-4   -1.765931646547111E-1   -4.361143124215630E-1
