#  HZ   S   RI   R     50.00 
! Rohde & Schwarz Vector Network Analyzer 
! Rohde-Schwarz,ZNB20-2Port,1311601062101988,3.16
! Created: UTC 3/20/2024, 5:14:18 PM
! freq[Hz]                re:S11                  im:S11                  re:S21                  im:S21                  re:S12                  im:S12                  re:S22                  im:S22
 8.196762958000000E9    -1.974420290624068E-1    4.984998412707574E-1   -2.788815294160296E-3   -8.494897585131099E-4   -2.897509625757288E-3   -7.552336140271886E-4   -1.313052936798511E-1    4.268757954150728E-1
 8.196766718375000E9    -1.973449224498240E-1    4.987180922238220E-1   -2.791478213998363E-3   -8.791796858242147E-4   -2.924256301236950E-3   -7.506110305249665E-4   -1.310262693805838E-1    4.270939914294907E-1
 8.196770478750000E9    -1.970310659514871E-1    4.985002871986192E-1   -2.775113634713521E-3   -8.445246355546374E-4   -2.875231836651140E-3   -7.615368631448068E-4   -1.306737900818930E-1    4.270748880162502E-1
 8.196774239125000E9    -1.967486540365501E-1    4.987426870006322E-1   -2.803547446211767E-3   -8.244281972753332E-4   -2.887847215661835E-3   -7.617907933475259E-4   -1.307316710992779E-1    4.270622966284146E-1
 8.196777999500000E9    -1.965481048544751E-1    4.988644504106224E-1   -2.813327279622724E-3   -8.477167201989778E-4   -2.925843794327734E-3   -7.338812309444095E-4   -1.303900991656922E-1    4.271821164539699E-1
 8.196781759875000E9    -1.962419770373539E-1    4.990064717955393E-1   -2.834120633482517E-3   -8.596561188531264E-4   -2.924415583555193E-3   -7.640224180035705E-4   -1.301914067697510E-1    4.272435018483450E-1
 8.196785520250000E9    -1.960265410881376E-1    4.990599736815746E-1   -2.813249812177092E-3   -8.816135692951682E-4   -2.920037353819538E-3   -7.726869410553736E-4   -1.300674547657545E-1    4.272990819832825E-1
 8.196789280625000E9    -1.957023154219562E-1    4.991956753720511E-1   -2.822428346604544E-3   -8.378357821002277E-4   -2.928119195432716E-3   -7.453003581512510E-4   -1.298794272702117E-1    4.272751136660474E-1
 8.196793041000000E9    -1.954518155479699E-1    4.992433844831161E-1   -2.823100412221141E-3   -8.455714983667659E-4   -2.937078120189667E-3   -7.518293504997215E-4   -1.295195530704265E-1    4.273726386020200E-1
 8.196796801375000E9    -1.952184138066665E-1    4.993716320300328E-1   -2.815110037453569E-3   -8.383038237673121E-4   -2.912234485169295E-3   -7.562684350443263E-4   -1.294327219141933E-1    4.273472422536555E-1
 8.196800561750000E9    -1.948367714392839E-1    4.994836069642406E-1   -2.836574150611399E-3   -8.459935595186483E-4   -2.911374527235635E-3   -7.446788903439144E-4   -1.292257214952145E-1    4.275071651484688E-1
 8.196804322125000E9    -1.946567245692078E-1    4.996063909782678E-1   -2.842873196963328E-3   -8.356569815682070E-4   -2.903199011130989E-3   -7.463031913631969E-4   -1.291497381551252E-1    4.275768516657688E-1
 8.196808082500000E9    -1.943401213911990E-1    4.995120607456545E-1   -2.827187718638444E-3   -8.411713410199974E-4   -2.925515465387272E-3   -7.454981742978152E-4   -1.287687795225282E-1    4.275522060828110E-1
 8.196811842875000E9    -1.942137890583955E-1    4.998135195222166E-1   -2.817291007655054E-3   -8.554921644707125E-4   -2.941424771094091E-3   -7.503109973604320E-4   -1.284734187952287E-1    4.275747107088625E-1
 8.196815603250000E9    -1.939105140961114E-1    4.998392189062172E-1   -2.833819653505531E-3   -8.420628236418689E-4   -2.912924217313919E-3   -7.329927375863680E-4   -1.285277305686286E-1    4.277605941230729E-1
 8.196819363625000E9    -1.934823740002635E-1    4.999444140301368E-1   -2.851194394707909E-3   -8.145794156034941E-4   -2.935803727453976E-3   -7.560899780393816E-4   -1.282621126261259E-1    4.276446545426425E-1
 8.196823124000000E9    -1.933262065960166E-1    5.001309405496955E-1   -2.848743813092274E-3   -8.209044305491325E-4   -2.945533533815281E-3   -7.554518627126871E-4   -1.279587017490117E-1    4.277398194639721E-1
 8.196826884375000E9    -1.931341834270956E-1    5.001775343466367E-1   -2.833874092227032E-3   -8.106652388006646E-4   -2.952512407646637E-3   -7.297110593520020E-4   -1.277401122461453E-1    4.278454419406854E-1
 8.196830644750000E9    -1.927227254986209E-1    5.002330965416705E-1   -2.845621934988929E-3   -8.379127894974424E-4   -2.935726158774085E-3   -7.364468530864776E-4   -1.275077917040458E-1    4.278904633829737E-1
 8.196834405125000E9    -1.926366858066274E-1    5.003384947406037E-1   -2.859612986591831E-3   -8.257121009736557E-4   -2.941609680679818E-3   -7.442190446389463E-4   -1.272819018130315E-1    4.281167285683997E-1
 8.196838165500000E9    -1.923013178090013E-1    5.004601735279428E-1   -2.835793806690058E-3   -8.181716435242945E-4   -2.909229333332002E-3   -7.432871588744102E-4   -1.272511686976690E-1    4.280017559417281E-1
 8.196841925875000E9    -1.920401526684370E-1    5.005985625103441E-1   -2.839571593079548E-3   -8.380817687749156E-4   -2.962472588819223E-3   -7.306348533707117E-4   -1.270132225435099E-1    4.280468317470708E-1
 8.196845686250000E9    -1.918001620397946E-1    5.005881841409578E-1   -2.882735513531535E-3   -8.200231342840250E-4   -2.953386118044741E-3   -6.990660694967206E-4   -1.267594515464618E-1    4.281357340594334E-1
 8.196849446625000E9    -1.913191976092664E-1    5.008767360751667E-1   -2.882200592833233E-3   -8.452854122741680E-4   -2.946066549091671E-3   -6.980901584554706E-4   -1.264942986097489E-1    4.281216819844491E-1
 8.196853207000000E9    -1.911944868234680E-1    5.007380984299845E-1   -2.854899680362658E-3   -8.330761204441567E-4   -2.951297685595829E-3   -7.121318256470906E-4   -1.264497006233758E-1    4.281280613678083E-1
 8.196856967375000E9    -1.909086560548398E-1    5.007452482350432E-1   -2.875874953116633E-3   -8.053458625611175E-4   -2.933742929079724E-3   -7.354922534646873E-4   -1.261724828373541E-1    4.283206802019017E-1
 8.196860727750000E9    -1.906814895588512E-1    5.009841408151858E-1   -2.874570876336784E-3   -8.248937786393198E-4   -2.916145537548326E-3   -7.411856342907782E-4   -1.259734815426638E-1    4.284206528724396E-1
 8.196864488125000E9    -1.904484491984185E-1    5.010207304582113E-1   -2.870061556682874E-3   -8.399752491220199E-4   -2.949380058149645E-3   -7.631285289934325E-4   -1.256897749495195E-1    4.283973620075419E-1
 8.196868248500000E9    -1.902826716076470E-1    5.012482848905069E-1   -2.876326384870595E-3   -8.327383057528794E-4   -2.967226918109423E-3   -7.145124639130537E-4   -1.255092736846619E-1    4.284555813741699E-1
 8.196872008875000E9    -1.899479957268876E-1    5.013138868960962E-1   -2.877001245421023E-3   -7.977747037821964E-4   -2.967079665790958E-3   -6.967276245993104E-4   -1.253062538755768E-1    4.286529428218440E-1
 8.196875769250000E9    -1.895957593720822E-1    5.013799734201851E-1   -2.868120197576961E-3   -8.306340606872815E-4   -2.950952111946791E-3   -7.457619107355153E-4   -1.251632318015051E-1    4.286472048062185E-1
 8.196879529625000E9    -1.893082508916878E-1    5.014088070024219E-1   -2.884552230888348E-3   -8.281663052456089E-4   -2.993741688741566E-3   -7.269637161992359E-4   -1.248400000850004E-1    4.285491461183837E-1
 8.196883290000000E9    -1.891348287201954E-1    5.015611565190350E-1   -2.902303982839841E-3   -8.383819570042208E-4   -2.980282280058933E-3   -7.206235671196998E-4   -1.247513773412865E-1    4.288532248720374E-1
 8.196887050375000E9    -1.889874386085848E-1    5.017206492053822E-1   -2.892507721056939E-3   -8.353273470221818E-4   -2.949834710253643E-3   -7.420240885617165E-4   -1.245809475635181E-1    4.286292160798612E-1
 8.196890810750000E9    -1.886858492900526E-1    5.017031026410760E-1   -2.887015476602672E-3   -7.769234419834164E-4   -2.994578532673670E-3   -7.078471226204133E-4   -1.242610733253922E-1    4.287676492880498E-1
 8.196894571125000E9    -1.883625712681379E-1    5.019516060315775E-1   -2.899897774569440E-3   -8.241627431226685E-4   -3.008524643391908E-3   -7.155288806243222E-4   -1.241239412879614E-1    4.288099587215253E-1
 8.196898331500000E9    -1.880332986252527E-1    5.019030342371598E-1   -2.900922160548365E-3   -8.106803533105097E-4   -2.982831131517768E-3   -7.053649733177908E-4   -1.238265519952985E-1    4.289030936264324E-1
 8.196902091875000E9    -1.878630505183684E-1    5.019809906299521E-1   -2.913760818471551E-3   -8.129038195449299E-4   -3.008974097271253E-3   -7.162386342239994E-4   -1.237935754501189E-1    4.288072611036477E-1
 8.196905852250000E9    -1.875089323394198E-1    5.020483754019669E-1   -2.910810083565033E-3   -8.360944773692863E-4   -2.992723589956803E-3   -7.105443687914563E-4   -1.235445045905883E-1    4.290133766695480E-1
 8.196909612625000E9    -1.872289075881574E-1    5.023152761470422E-1   -2.890725980359799E-3   -8.360297121797820E-4   -2.998189858087114E-3   -7.191645286582368E-4   -1.233326842806522E-1    4.289300333666210E-1
 8.196913373000000E9    -1.869509881815106E-1    5.023842996276872E-1   -2.926128472299900E-3   -8.124640312676267E-4   -3.030115021319414E-3   -7.239952047018828E-4   -1.229792926559085E-1    4.290298721309485E-1
 8.196917133375000E9    -1.866585245882069E-1    5.025020382444545E-1   -2.916276435289459E-3   -7.987391522931459E-4   -3.007033426088848E-3   -7.274892864400518E-4   -1.228382269545784E-1    4.292542959765731E-1
 8.196920893750000E9    -1.864027256960963E-1    5.024966654857818E-1   -2.902671860250445E-3   -8.038803649206935E-4   -2.988197880224029E-3   -7.013013048716439E-4   -1.226265550474566E-1    4.292653290962660E-1
 8.196924654125000E9    -1.861020916634652E-1    5.025184699906233E-1   -2.923716553757675E-3   -8.154021951183877E-4   -3.006429209581349E-3   -7.198224562121135E-4   -1.224503178074741E-1    4.292501739141908E-1
 8.196928414500000E9    -1.858905779328867E-1    5.027781555115999E-1   -2.920922147043824E-3   -7.863467727226646E-4   -3.030256328878880E-3   -7.012425642990226E-4   -1.223260223144207E-1    4.292875911907674E-1
 8.196932174875000E9    -1.855686642799753E-1    5.027907783869928E-1   -2.916564416439463E-3   -8.023199722314808E-4   -2.986882463498314E-3   -6.888324288463925E-4   -1.220706942243720E-1    4.294977989344130E-1
 8.196935935250000E9    -1.853587882312077E-1    5.028022272457319E-1   -2.956723847479823E-3   -8.145472507819425E-4   -3.011812979965596E-3   -6.928822183240507E-4   -1.219001494985332E-1    4.292566394482596E-1
 8.196939695625000E9    -1.852113848136365E-1    5.028341124298973E-1   -2.931227453277608E-3   -7.985354813450114E-4   -3.038661152706803E-3   -6.774109267484396E-4   -1.215970631870769E-1    4.295518475273910E-1
 8.196943456000000E9    -1.849332996731133E-1    5.030922996730475E-1   -2.949217705958060E-3   -7.987153881921422E-4   -3.028410801744771E-3   -6.747957981566240E-4   -1.214004934007561E-1    4.294482153712951E-1
 8.196947216375000E9    -1.846274219762783E-1    5.030922585389240E-1   -2.939806647972458E-3   -8.253354425305144E-4   -3.064863626998488E-3   -7.083335678844602E-4   -1.213543365641381E-1    4.294744407766317E-1
 8.196950976750000E9    -1.843984251846683E-1    5.032175973633637E-1   -2.961288616550654E-3   -7.845519397606925E-4   -3.009997063748174E-3   -7.070420416511934E-4   -1.210759996116346E-1    4.297351707825208E-1
 8.196954737125000E9    -1.840950543625760E-1    5.034123038975103E-1   -2.929555075834875E-3   -8.228518570338142E-4   -3.066619117642822E-3   -6.846283193637541E-4   -1.208740869845566E-1    4.297624596160450E-1
 8.196958497500000E9    -1.837848800144138E-1    5.032135186813067E-1   -2.951037287051665E-3   -7.865967086027114E-4   -3.064857086858037E-3   -6.749291122098075E-4   -1.207038933594800E-1    4.298586811965164E-1
 8.196962257875000E9    -1.835471828564829E-1    5.034767378605691E-1   -2.944115241001708E-3   -7.869192896219604E-4   -3.037144832628831E-3   -6.728738408050549E-4   -1.204690310242947E-1    4.297592309345471E-1
 8.196966018250000E9    -1.832130171463857E-1    5.036365631548970E-1   -2.946346200292097E-3   -8.069260789661367E-4   -3.066291550424254E-3   -6.879480637160024E-4   -1.201020350433483E-1    4.299651046756593E-1
 8.196969778625000E9    -1.829889233451527E-1    5.036314624389148E-1   -2.952656691470365E-3   -8.139788202692100E-4   -3.033294818149836E-3   -7.110007414420583E-4   -1.199985559857213E-1    4.300392906596318E-1
 8.196973539000000E9    -1.827248385910513E-1    5.036955482777905E-1   -2.951607812960468E-3   -8.067033824060195E-4   -3.025310437834340E-3   -6.973017540297505E-4   -1.198470780585520E-1    4.299361515084891E-1
 8.196977299375000E9    -1.824447096100057E-1    5.039195963630492E-1   -2.967246850586284E-3   -7.841352328307032E-4   -3.061834412948575E-3   -6.926966761266846E-4   -1.195795340133675E-1    4.300892520613200E-1
 8.196981059750000E9    -1.821778200012387E-1    5.040685254832084E-1   -2.995220952223548E-3   -7.906716802130192E-4   -3.054118099660263E-3   -6.830572894172611E-4   -1.193553115991459E-1    4.301342874627878E-1
 8.196984820125000E9    -1.819078418944118E-1    5.041378893861070E-1   -2.950443967447303E-3   -7.987310253306351E-4   -3.087397940316874E-3   -6.888572410745077E-4   -1.191702154202258E-1    4.300367899203588E-1
 8.196988580500000E9    -1.816163718214176E-1    5.042030257654845E-1   -2.972046249322341E-3   -7.843529460042074E-4   -3.072185233494346E-3   -6.848163279541683E-4   -1.189295813657374E-1    4.299706527272900E-1
 8.196992340875000E9    -1.813465830040722E-1    5.042027886704565E-1   -3.000152009747857E-3   -7.742874517147833E-4   -3.061990993141314E-3   -6.865404037036521E-4   -1.188375762215161E-1    4.302488366608773E-1
 8.196996101250000E9    -1.810215521878420E-1    5.042722922176185E-1   -2.993858764826206E-3   -7.857858609395586E-4   -3.075889361349139E-3   -6.790452751290376E-4   -1.185423311297150E-1    4.301595796889968E-1
 8.196999861625000E9    -1.807595762510848E-1    5.044195611981377E-1   -3.011805484051077E-3   -7.565884417019016E-4   -3.097323164089442E-3   -6.900587916491371E-4   -1.182187203109949E-1    4.302758540023591E-1
 8.197003622000000E9    -1.805919152560074E-1    5.045128657968900E-1   -3.012553997664567E-3   -7.847968980373230E-4   -3.091153719404664E-3   -6.744574605400921E-4   -1.182047450412245E-1    4.302634388687353E-1
 8.197007382375000E9    -1.802534549392145E-1    5.045584330614981E-1   -2.992413208062885E-3   -7.859898495898462E-4   -3.112150163907799E-3   -6.710737884383505E-4   -1.179920884908187E-1    4.303799800229997E-1
 8.197011142750000E9    -1.799717751150047E-1    5.046010823353435E-1   -3.014961294389589E-3   -7.968473817751478E-4   -3.049826864627047E-3   -7.056394476627316E-4   -1.177621277449878E-1    4.305095598104818E-1
 8.197014903125000E9    -1.797223012662869E-1    5.048042504114217E-1   -2.995335821294133E-3   -7.847649597085388E-4   -3.104686527734699E-3   -6.415911902728364E-4   -1.173205426830580E-1    4.305430840026071E-1
 8.197018663500000E9    -1.794068707823117E-1    5.048744973722887E-1   -3.030669482717540E-3   -7.801127908567276E-4   -3.110851811426639E-3   -6.747027992246715E-4   -1.171316426837852E-1    4.303887403984038E-1
 8.197022423875000E9    -1.791992843747305E-1    5.048958962407972E-1   -3.020543419972451E-3   -7.533727568486853E-4   -3.124812580625661E-3   -6.720378688719557E-4   -1.172187079708201E-1    4.306579582876784E-1
 8.197026184250000E9    -1.788188480310929E-1    5.050023923331853E-1   -3.024054766258349E-3   -7.868782142848216E-4   -3.125680618181417E-3   -6.668635316041703E-4   -1.169286149380532E-1    4.306583458905892E-1
 8.197029944625000E9    -1.785975210150571E-1    5.049902392298609E-1   -2.997050544621001E-3   -7.577737254973396E-4   -3.129538799219189E-3   -6.726171909308507E-4   -1.166855576403496E-1    4.305997624392843E-1
 8.197033705000000E9    -1.782641030363414E-1    5.051952343102832E-1   -3.038851593565658E-3   -7.747204525088238E-4   -3.098798140422539E-3   -6.501400073800608E-4   -1.164697293048878E-1    4.307117535098111E-1
 8.197037465375000E9    -1.781481961693197E-1    5.052178090262849E-1   -3.041888098877351E-3   -7.810133851708477E-4   -3.144767525681226E-3   -6.691092432342600E-4   -1.163896791604148E-1    4.307406842953757E-1
 8.197041225750000E9    -1.778083938709663E-1    5.053326579056987E-1   -3.046667996840794E-3   -7.738335475814473E-4   -3.123878896150865E-3   -6.608227410606099E-4   -1.161276587406433E-1    4.309420004636586E-1
 8.197044986125000E9    -1.776073180625923E-1    5.054032475331396E-1   -3.045822448737626E-3   -7.730815495907993E-4   -3.138302944624445E-3   -6.355739456288923E-4   -1.158272907499931E-1    4.309766761072574E-1
 8.197048746500000E9    -1.772263722473097E-1    5.054299181748904E-1   -3.064256188668549E-3   -7.805388988827026E-4   -3.137039172123640E-3   -6.683428172194238E-4   -1.156358042686221E-1    4.308842889379256E-1
 8.197052506875000E9    -1.769457080931958E-1    5.055993797743418E-1   -3.068777791039911E-3   -7.863886822010959E-4   -3.159761228686385E-3   -6.487621766342705E-4   -1.154207225636187E-1    4.309859577455892E-1
 8.197056267250000E9    -1.767587102021461E-1    5.057341460389646E-1   -3.052438244577469E-3   -7.683554155039593E-4   -3.141550990860292E-3   -6.595565356588341E-4   -1.152659716874977E-1    4.310022408341344E-1
 8.197060027625000E9    -1.764204545717178E-1    5.058177642356616E-1   -3.076376553801373E-3   -7.935527062952542E-4   -3.140559149536644E-3   -6.634263268376329E-4   -1.149685360419435E-1    4.310546934519794E-1
 8.197063788000000E9    -1.761885559326849E-1    5.058633274342340E-1   -3.033360471956868E-3   -7.578771072490398E-4   -3.151807068101429E-3   -6.545952469281933E-4   -1.148570417349556E-1    4.311330091301965E-1
 8.197067548375000E9    -1.758794977115786E-1    5.059392831874659E-1   -3.061725225479516E-3   -7.588778146246390E-4   -3.141044400140298E-3   -6.388808117136324E-4   -1.146074152040762E-1    4.310728802084640E-1
 8.197071308750000E9    -1.756127541584298E-1    5.060707174719959E-1   -3.080003047703342E-3   -7.755370220601494E-4   -3.161889347930822E-3   -6.550043385830065E-4   -1.143321312404815E-1    4.312871145399294E-1
 8.197075069125000E9    -1.752474376929510E-1    5.061586793805679E-1   -3.083192345116471E-3   -7.742318631010559E-4   -3.176183261205333E-3   -6.979395272036060E-4   -1.143026177859784E-1    4.312599177196897E-1
 8.197078829500000E9    -1.749395017863937E-1    5.062409450433920E-1   -3.090779213670135E-3   -7.712579506342425E-4   -3.180169039977418E-3   -6.495654743055448E-4   -1.139939492527824E-1    4.312332036541751E-1
 8.197082589875000E9    -1.746701179270156E-1    5.063666590913861E-1   -3.104414877690426E-3   -7.399777305221431E-4   -3.184575265109934E-3   -6.516575675960644E-4   -1.137096717775181E-1    4.313693231943088E-1
 8.197086350250000E9    -1.743908494378186E-1    5.063640791579799E-1   -3.111819126879847E-3   -7.523080537488266E-4   -3.195437922778167E-3   -6.340363507733877E-4   -1.137152369568956E-1    4.315272957502153E-1
 8.197090110625000E9    -1.741726285338405E-1    5.064863934727802E-1   -3.099519803407485E-3   -7.687326461966442E-4   -3.205461849859200E-3   -6.184864590354903E-4   -1.133894878451882E-1    4.314797035603225E-1
 8.197093871000000E9    -1.738686452773989E-1    5.065202035949372E-1   -3.135412592196374E-3   -7.642707525985575E-4   -3.192906606028370E-3   -6.359790372442397E-4   -1.132757291083896E-1    4.316135615826294E-1
 8.197097631375000E9    -1.735679346421003E-1    5.066393331873315E-1   -3.108881715965218E-3   -7.708253677182851E-4   -3.249844719434749E-3   -6.258821635984000E-4   -1.130233385690654E-1    4.316471862502857E-1
 8.197101391750000E9    -1.732523497547140E-1    5.066861562517833E-1   -3.119408062847001E-3   -7.506224230888070E-4   -3.202827830775613E-3   -6.296460848731368E-4   -1.127260658292208E-1    4.315992683133797E-1
