#  HZ   S   RI   R     50.00 
! Rohde & Schwarz Vector Network Analyzer 
! Rohde-Schwarz,ZNB20-2Port,1311601062101988,3.16
! Created: UTC 3/20/2024, 4:59:14 PM
! freq[Hz]                re:S11                  im:S11                  re:S21                  im:S21                  re:S12                  im:S12                  re:S22                  im:S22
 8.156376743000000E9     3.773487704265711E-1    3.782679245507812E-1   -1.607816201683985E-3    2.181414510205574E-3   -1.599499529249100E-3    2.163022105257229E-3    4.391543581881515E-1    2.393431338652073E-1
 8.156562334075000E9     3.862577125378360E-1    3.695350100698449E-1   -1.515223316850855E-3    2.238983288304363E-3   -1.531678099807667E-3    2.208726328463093E-3    4.440874595870782E-1    2.290641200404039E-1
 8.156747925150000E9     3.950177310015851E-1    3.604868925945668E-1   -1.462707766203807E-3    2.249079123455059E-3   -1.453447692013042E-3    2.265752678293689E-3    4.491470611496786E-1    2.186560317736717E-1
 8.156933516225000E9     4.035027233455761E-1    3.512998791486707E-1   -1.415060190889720E-3    2.264827557909065E-3   -1.403251377210580E-3    2.286212346227254E-3    4.538364317635382E-1    2.081580410883465E-1
 8.157119107300000E9     4.117441001911795E-1    3.420312522875272E-1   -1.357292362738093E-3    2.318675246046591E-3   -1.376664457692360E-3    2.305156862646442E-3    4.581467374802760E-1    1.976013560273394E-1
 8.157304698375000E9     4.198097489966257E-1    3.325391282461753E-1   -1.292244607601414E-3    2.317763341869305E-3   -1.313978369853421E-3    2.331862575164370E-3    4.623845181148289E-1    1.870912526668382E-1
 8.157490289450000E9     4.276642108144805E-1    3.227736429972632E-1   -1.229215553128810E-3    2.358311502589498E-3   -1.259193026017460E-3    2.385150908461761E-3    4.662419059300852E-1    1.763383141708781E-1
 8.157675880525000E9     4.352196312077402E-1    3.128284526066848E-1   -1.171759529395129E-3    2.360810087920078E-3   -1.192379503523306E-3    2.389384905642641E-3    4.701188669029795E-1    1.654540162643774E-1
 8.157861471600000E9     4.425193035100512E-1    3.027843836197520E-1   -1.134976766417838E-3    2.393590589335113E-3   -1.137877261089594E-3    2.412349674715186E-3    4.733540163207675E-1    1.545689418796328E-1
 8.158047062675000E9     4.496414702187169E-1    2.925291709406069E-1   -1.046094741177266E-3    2.429556167962961E-3   -1.058972619039982E-3    2.440357580333636E-3    4.765314697843663E-1    1.436122264489618E-1
 8.158232653750000E9     4.564431522568034E-1    2.821383273019515E-1   -1.032981880230561E-3    2.436608478644208E-3   -9.900558335450519E-4    2.450030827721002E-3    4.794487102156370E-1    1.327210460768189E-1
 8.158418244825000E9     4.630871582769701E-1    2.714380449426489E-1   -9.204393676928855E-4    2.465152080130708E-3   -9.218451135041697E-4    2.474508238099588E-3    4.821172684579996E-1    1.215458211805464E-1
 8.158603835900000E9     4.695171063276649E-1    2.608218020121353E-1   -8.953747686910728E-4    2.487732539373780E-3   -8.866023590501722E-4    2.496429205450013E-3    4.844867313264163E-1    1.105655738200642E-1
 8.158789426975000E9     4.755220836480251E-1    2.499331531188924E-1   -8.322381096862408E-4    2.509946405672718E-3   -8.015737296476060E-4    2.506058833368219E-3    4.864600393479708E-1    9.923920057064387E-2
 8.158975018050000E9     4.814152009457109E-1    2.389749460372966E-1   -7.572545734976951E-4    2.510847126775474E-3   -7.606138150945840E-4    2.500801139890264E-3    4.884498696209090E-1    8.813339835006727E-2
 8.159160609125000E9     4.871468661606512E-1    2.277933514895204E-1   -6.980315186221554E-4    2.535341278725105E-3   -6.944471187111304E-4    2.524896142743287E-3    4.900897261472968E-1    7.684299635739394E-2
 8.159346200200000E9     4.923700442611866E-1    2.164852974455133E-1   -6.292940302580917E-4    2.508703028175965E-3   -6.154566210919249E-4    2.523728660813848E-3    4.913870241676434E-1    6.581927221935210E-2
 8.159531791275000E9     4.973491930454967E-1    2.052061124878725E-1   -5.504947701035910E-4    2.518227968326068E-3   -5.842283029354565E-4    2.556816129361053E-3    4.925444532050168E-1    5.430230777464550E-2
 8.159717382350000E9     5.021060320008156E-1    1.937172734723547E-1   -4.947432669337880E-4    2.542253744757033E-3   -4.666970378539107E-4    2.541470720582824E-3    4.933738520545914E-1    4.312711641059538E-2
 8.159902973425000E9     5.067569721104018E-1    1.821393686313521E-1   -4.625302226092261E-4    2.564727556724749E-3   -4.322252111679367E-4    2.595441905659004E-3    4.938912995156241E-1    3.196519720010838E-2
 8.160088564500000E9     5.108487254110955E-1    1.704036089806741E-1   -3.818619088004265E-4    2.538548568799718E-3   -3.791136084924440E-4    2.579372048900583E-3    4.942626969232201E-1    2.055670656934431E-2
 8.160274155575000E9     5.149267915427992E-1    1.585888491476473E-1   -3.051571440756090E-4    2.540234322073094E-3   -3.212257705449662E-4    2.582484491275436E-3    4.941726850419370E-1    9.461713328628593E-3
 8.160459746650000E9     5.186162993086761E-1    1.466770058210930E-1   -2.566485591125540E-4    2.558991254016282E-3   -2.630563979859580E-4    2.580249823515401E-3    4.941418902976770E-1   -1.915592223763106E-3
 8.160645337725000E9     5.221847799144701E-1    1.346874476608731E-1   -1.952258715766298E-4    2.546232085752976E-3   -2.022264350973510E-4    2.560999928719964E-3    4.937235894111631E-1   -1.308481060607114E-2
 8.160830928800000E9     5.251976655679440E-1    1.226068576337531E-1   -1.420563782932178E-4    2.545742575969282E-3   -1.432289794109003E-4    2.554745598045837E-3    4.928668359426460E-1   -2.440220936462204E-2
 8.161016519875000E9     5.281289569486383E-1    1.104947883282962E-1   -6.714324822662342E-5    2.552056099129396E-3   -8.235763875043357E-5    2.571784894821906E-3    4.920263063696301E-1   -3.569726252746380E-2
 8.161202110950000E9     5.306308213256401E-1    9.835472192459892E-2   -1.398616615617652E-5    2.539204819291109E-3   -2.817874307173117E-5    2.550948184725754E-3    4.908900562408410E-1   -4.667835520235478E-2
 8.161387702025000E9     5.329276252244025E-1    8.605337938470901E-2    5.411878454444524E-5    2.540400786958590E-3    2.295126939305693E-5    2.547112058835119E-3    4.892540827291241E-1   -5.765461701397220E-2
 8.161573293100000E9     5.350217077104998E-1    7.381255751898635E-2    8.978565450579123E-5    2.528933709410580E-3    9.008302955485304E-5    2.539978008087300E-3    4.875938663696697E-1   -6.880677701502108E-2
 8.161758884175000E9     5.366343322277739E-1    6.124698435659209E-2    1.726312844214579E-4    2.521641711170362E-3    1.646360835794953E-4    2.566796158371492E-3    4.854756067223553E-1   -7.963066158668015E-2
 8.161944475250000E9     5.381174075099132E-1    4.895676224626202E-2    2.250510572591927E-4    2.515181877800033E-3    2.396799030495782E-4    2.514068150162260E-3    4.833977397632631E-1   -9.069434251421417E-2
 8.162130066325000E9     5.391474665398456E-1    3.653007724971796E-2    2.753640570466117E-4    2.506469300633689E-3    2.724426491045425E-4    2.503582059212461E-3    4.809385941670653E-1   -1.014565738324476E-1
 8.162315657400000E9     5.400502105361168E-1    2.413227242127466E-2    3.724646377078926E-4    2.479597632054055E-3    3.229495521577396E-4    2.501197673828800E-3    4.781421748551175E-1   -1.123937011268231E-1
 8.162501248475000E9     5.406953634177223E-1    1.168736199560276E-2    3.923665044912317E-4    2.459991276166091E-3    4.082262616750923E-4    2.500355289419351E-3    4.752518553523289E-1   -1.231366623377611E-1
 8.162686839550000E9     5.408955977122156E-1   -7.634058604679137E-4    4.480270545696419E-4    2.439069989240358E-3    4.330663345337124E-4    2.477122030024635E-3    4.722298250977457E-1   -1.337851145451710E-1
 8.162872430625000E9     5.409265987864245E-1   -1.324319743155826E-2    5.012598538829460E-4    2.442526702650093E-3    4.969500610385825E-4    2.473326880169329E-3    4.687124820815420E-1   -1.442944278213647E-1
 8.163058021700000E9     5.405782599885297E-1   -2.576481469168765E-2    5.590753148833040E-4    2.386218934578196E-3    5.987586325773490E-4    2.449216916785743E-3    4.649669541153088E-1   -1.548729594991745E-1
 8.163243612775000E9     5.399928128813548E-1   -3.821544366309659E-2    6.100351790628371E-4    2.402695925983985E-3    6.171649886141816E-4    2.450213938303490E-3    4.611717871440582E-1   -1.651958638115319E-1
 8.163429203850000E9     5.389966861730613E-1   -5.061125129404833E-2    7.019585576791001E-4    2.379863843810329E-3    6.418242399152226E-4    2.394766797464656E-3    4.568965740199785E-1   -1.756804685456268E-1
 8.163614794925000E9     5.379402321806740E-1   -6.304757052814303E-2    7.285298350923262E-4    2.350649701977273E-3    7.273039498730603E-4    2.394427866015589E-3    4.526051179794394E-1   -1.857392491652895E-1
 8.163800386000000E9     5.362297421226503E-1   -7.538789664296046E-2    7.941714602319685E-4    2.327461464882996E-3    7.579889413069476E-4    2.399753482478232E-3    4.479076303762051E-1   -1.957498123371142E-1
 8.163985977075000E9     5.346316143077857E-1   -8.786764304435921E-2    8.552106572369444E-4    2.309484605367005E-3    8.315714262503079E-4    2.377150055133308E-3    4.433262407222248E-1   -2.057344559739978E-1
 8.164171568150000E9     5.326003290521779E-1   -1.001306677401601E-1    9.352829795606953E-4    2.283289433306436E-3    8.881128792535460E-4    2.341584584990027E-3    4.381524463166704E-1   -2.155722744482726E-1
 8.164357159225000E9     5.302710383485925E-1   -1.124459615263399E-1    9.341906397361436E-4    2.243685870169816E-3    9.073377116033080E-4    2.297777109910285E-3    4.329776422143158E-1   -2.252611472041608E-1
 8.164542750300000E9     5.274333125780394E-1   -1.244701808567586E-1    9.833235104518077E-4    2.208017421322550E-3    1.039497897154580E-3    2.255511714350843E-3    4.274220411877285E-1   -2.347462358200866E-1
 8.164728341375000E9     5.246742799340947E-1   -1.368679433303384E-1    1.059403794957720E-3    2.199315618213158E-3    1.033685617442013E-3    2.243792536199595E-3    4.218145818145317E-1   -2.442811889297733E-1
 8.164913932450000E9     5.216031074028378E-1   -1.486945326775441E-1    1.096112649017671E-3    2.170364014064108E-3    1.100921170326058E-3    2.189221507401701E-3    4.159368904611321E-1   -2.534863292951061E-1
 8.165099523525000E9     5.180240297765655E-1   -1.608852438283329E-1    1.164795029948135E-3    2.135666696628802E-3    1.130531050082214E-3    2.163797326160589E-3    4.100587193613016E-1   -2.627071868371407E-1
 8.165285114600000E9     5.143053989964107E-1   -1.726291199858014E-1    1.205628616281115E-3    2.116012414476899E-3    1.199328635498799E-3    2.134843272507211E-3    4.035869576838283E-1   -2.716993846636134E-1
 8.165470705675000E9     5.101881241601973E-1   -1.845169861032360E-1    1.237970548644131E-3    2.074363958010855E-3    1.242310668223052E-3    2.127601599136377E-3    3.971072225201749E-1   -2.806033412478039E-1
 8.165656296750000E9     5.058279915461145E-1   -1.963024722203132E-1    1.306151683151475E-3    2.019961111256167E-3    1.307661212690881E-3    2.122611512436448E-3    3.904122852742792E-1   -2.892175907246580E-1
 8.165841887825000E9     5.015066152748097E-1   -2.079680585894221E-1    1.333409022818398E-3    2.009868563796728E-3    1.331292540166055E-3    2.049958271212049E-3    3.837049980555594E-1   -2.978871539617297E-1
 8.166027478900000E9     4.965813457484469E-1   -2.194770889267496E-1    1.370391595920377E-3    1.965328867021466E-3    1.389675359539096E-3    2.045616087588865E-3    3.764641854797617E-1   -3.063513647953701E-1
 8.166213069975000E9     4.914465010265114E-1   -2.309538479693723E-1    1.424580251880006E-3    1.937108333499011E-3    1.454473168808787E-3    1.960632891283311E-3    3.693803887875795E-1   -3.144483034654934E-1
 8.166398661050000E9     4.859589846076744E-1   -2.422244611973246E-1    1.455277339749275E-3    1.927972159765359E-3    1.439673853038351E-3    1.960280856621414E-3    3.619083969158898E-1   -3.224643044739059E-1
 8.166584252125000E9     4.804861353568552E-1   -2.534045586839840E-1    1.485843115899811E-3    1.842018117064221E-3    1.518634983440393E-3    1.910691804647632E-3    3.544317312846478E-1   -3.303928027908812E-1
 8.166769843200000E9     4.745145217157961E-1   -2.643989468243325E-1    1.530465644811434E-3    1.809905647190636E-3    1.523418273095989E-3    1.870144293144969E-3    3.467182480655193E-1   -3.380795177999844E-1
 8.166955434275000E9     4.683427856478068E-1   -2.753735505201457E-1    1.579569403086174E-3    1.795406046001204E-3    1.604964544288138E-3    1.805454569709451E-3    3.386958877590401E-1   -3.455994211316457E-1
 8.167141025350000E9     4.620132906396265E-1   -2.860906850655643E-1    1.609806600854726E-3    1.753694915241287E-3    1.630374547494512E-3    1.825148803245561E-3    3.306726396241201E-1   -3.527971067246660E-1
 8.167326616425000E9     4.553044042994701E-1   -2.966181965277717E-1    1.632969608494160E-3    1.709476722710378E-3    1.636408708604596E-3    1.728929606457216E-3    3.224619111493149E-1   -3.601099169474595E-1
 8.167512207500000E9     4.484190314295375E-1   -3.071039466743535E-1    1.662030674629507E-3    1.646711620138225E-3    1.707036229869550E-3    1.709415776079329E-3    3.141086477432459E-1   -3.668554019486206E-1
 8.167697798575000E9     4.411971344389944E-1   -3.174968672062565E-1    1.704087393323725E-3    1.631867135594678E-3    1.728018135710386E-3    1.695980955321853E-3    3.056683078726163E-1   -3.737595314288667E-1
 8.167883389650000E9     4.338688783702281E-1   -3.275494578292065E-1    1.738710141180669E-3    1.569061153733765E-3    1.783115916465594E-3    1.654241614833194E-3    2.969519156210694E-1   -3.803866982342345E-1
 8.168068980725000E9     4.261848006715694E-1   -3.375626543704541E-1    1.773359613450691E-3    1.526212491751631E-3    1.800113508804816E-3    1.599071354075976E-3    2.882632099958473E-1   -3.868407478520098E-1
 8.168254571800000E9     4.184143560384432E-1   -3.473223454374833E-1    1.833778120648944E-3    1.508476431961960E-3    1.856430758576204E-3    1.523194043073304E-3    2.792995861426794E-1   -3.928052346244358E-1
 8.168440162875000E9     4.102771264770385E-1   -3.569420121837319E-1    1.860385203870188E-3    1.456070037641477E-3    1.860489698536243E-3    1.474876360971050E-3    2.702628338661187E-1   -3.987449469270360E-1
 8.168625753950000E9     4.018959680748753E-1   -3.663519166401245E-1    1.878593527395135E-3    1.393983996994744E-3    1.892406324772956E-3    1.424879484967396E-3    2.610643824589151E-1   -4.044034881261847E-1
 8.168811345025000E9     3.934310542313537E-1   -3.756570716568294E-1    1.898161081702823E-3    1.363436287987573E-3    1.913417168297540E-3    1.401127043869444E-3    2.516350960376599E-1   -4.100237519687552E-1
 8.168996936100000E9     3.846518486353925E-1   -3.846409694703783E-1    1.939042261171337E-3    1.305826971505915E-3    1.969434974109452E-3    1.352324566122459E-3    2.424033744675563E-1   -4.151668210787514E-1
 8.169182527175000E9     3.758240758550649E-1   -3.934018420281820E-1    1.975045161433872E-3    1.275911561984134E-3    2.010825862465029E-3    1.316226997827582E-3    2.326878379489664E-1   -4.205475220253037E-1
 8.169368118250000E9     3.665968191710250E-1   -4.019955868728597E-1    1.995245517961161E-3    1.227067395230498E-3    2.035204979071293E-3    1.280451631851069E-3    2.231717076980329E-1   -4.252173664872669E-1
 8.169553709325000E9     3.573303067522234E-1   -4.104521528981860E-1    2.019580556479037E-3    1.190177992441763E-3    2.037584350165593E-3    1.209003965254553E-3    2.134463426570481E-1   -4.298378677982402E-1
 8.169739300400000E9     3.477074823915537E-1   -4.185405069803555E-1    2.027127173783745E-3    1.118310496983419E-3    2.065021938918850E-3    1.155900702372342E-3    2.035469555477134E-1   -4.342824662403446E-1
 8.169924891475000E9     3.378493501690181E-1   -4.265174930322556E-1    2.060715556095144E-3    1.060747769538127E-3    2.102303847696568E-3    1.107015495324615E-3    1.936641017683245E-1   -4.384245165671420E-1
 8.170110482550000E9     3.280396515029113E-1   -4.341694751651057E-1    2.071636951655049E-3    1.015782165824996E-3    2.139291026924482E-3    1.091222117955210E-3    1.837951354658291E-1   -4.424722270307533E-1
 8.170296073625000E9     3.179040571442440E-1   -4.417442561835850E-1    2.101978675555570E-3    1.007053219783013E-3    2.122240580011584E-3    9.847308709353105E-4    1.737058893284186E-1   -4.462497276382569E-1
 8.170481664700000E9     3.075882771360733E-1   -4.490996802856297E-1    2.120314033398787E-3    9.125419378862108E-4    2.146091746470858E-3    9.706291267842346E-4    1.633912461984501E-1   -4.499046451612820E-1
 8.170667255775000E9     2.972207508478212E-1   -4.561044557950297E-1    2.135842889364009E-3    8.979136985959949E-4    2.183699076283933E-3    9.210566010587632E-4    1.533058058955389E-1   -4.531456423762204E-1
 8.170852846850000E9     2.864375114380717E-1   -4.628151688839925E-1    2.162281879126814E-3    8.193581393045507E-4    2.197703375444851E-3    8.672713808083016E-4    1.431095472796183E-1   -4.561924014742675E-1
 8.171038437925000E9     2.757702351773376E-1   -4.693709111372593E-1    2.173755831294703E-3    7.994173476185735E-4    2.209442925043948E-3    8.345709773564361E-4    1.327101247765374E-1   -4.590899007125798E-1
 8.171224029000000E9     2.647837250936901E-1   -4.755178739479632E-1    2.163361880898769E-3    7.260585380368695E-4    2.203256630402398E-3    7.642042782921455E-4    1.224188827249208E-1   -4.616922731273407E-1
 8.171409620075000E9     2.536534946997258E-1   -4.817055061977970E-1    2.190893537907109E-3    6.477982558991078E-4    2.227432966905594E-3    7.029440528904592E-4    1.119862157226402E-1   -4.641140888199407E-1
 8.171595211150000E9     2.425212723457937E-1   -4.874054118058451E-1    2.196565218217283E-3    6.282976427273219E-4    2.257546697796088E-3    6.538542345400141E-4    1.013573331199123E-1   -4.659998364511475E-1
 8.171780802225000E9     2.311102961277438E-1   -4.929029460258855E-1    2.206219518101292E-3    5.754211111829098E-4    2.284070402356850E-3    6.122012260228329E-4    9.078722538191666E-2   -4.681520667273085E-1
 8.171966393300000E9     2.196338027134985E-1   -4.982373140223429E-1    2.253283642883529E-3    5.111806157391673E-4    2.260171240787332E-3    5.509955116863431E-4    8.032647209029882E-2   -4.698923358848757E-1
 8.172151984375000E9     2.081702749442896E-1   -5.031039268469102E-1    2.257058482834094E-3    4.779066858113388E-4    2.294718802249139E-3    5.073357999617942E-4    6.972701664572507E-2   -4.710410554556528E-1
 8.172337575450000E9     1.964120556093851E-1   -5.078945550784570E-1    2.254340125933529E-3    4.402825868992876E-4    2.312980846790211E-3    4.200353376511923E-4    5.922606916719608E-2   -4.722451436950310E-1
 8.172523166525000E9     1.844944890307623E-1   -5.123102835224445E-1    2.251684947211696E-3    3.821623625349841E-4    2.295072154083132E-3    4.087831778680302E-4    4.847637971337636E-2   -4.731949741060779E-1
 8.172708757600000E9     1.725129470857412E-1   -5.164362082007322E-1    2.280298200785558E-3    3.122118176554474E-4    2.327949289834174E-3    3.483404231897274E-4    3.785226771013123E-2   -4.740466839574502E-1
 8.172894348675000E9     1.605957458259210E-1   -5.202789108102651E-1    2.289739270434272E-3    2.862074461121363E-4    2.315343418652282E-3    2.551020374953147E-4    2.710859126755480E-2   -4.743563104291142E-1
 8.173079939750000E9     1.484366062668184E-1   -5.239736923972176E-1    2.273456716696329E-3    1.972784154187948E-4    2.325163867989100E-3    2.557943134550652E-4    1.677003478067658E-2   -4.747024082789027E-1
