#  HZ   S   RI   R     50.00 
! Rohde & Schwarz Vector Network Analyzer 
! Rohde-Schwarz,ZNB20-2Port,1311601062101988,3.16
! Created: UTC 3/20/2024, 4:49:36 PM
! freq[Hz]                re:S11                  im:S11                  re:S21                  im:S21                  re:S12                  im:S12                  re:S22                  im:S22
 8.196787875000000E9    -1.944132684784933E-1    4.998036994226278E-1   -2.891458749595829E-3   -8.438159392472754E-4   -3.001973711021071E-3   -7.618323070889739E-4   -1.261931702656474E-1    4.259772389077940E-1
 8.196791010775000E9    -1.943155398837851E-1    4.998235557418966E-1   -2.864743734196053E-3   -8.161023325549741E-4   -2.991047824498164E-3   -7.540017519513536E-4   -1.262448338894844E-1    4.261360356948084E-1
 8.196794146550000E9    -1.940733172110477E-1    5.001001308538131E-1   -2.904737997583905E-3   -8.353727746681909E-4   -3.014179226014397E-3   -7.549486255151271E-4   -1.258555140717758E-1    4.261319856464913E-1
 8.196797282325000E9    -1.937075064870776E-1    5.001075767959868E-1   -2.900208929690301E-3   -8.390496009378494E-4   -3.010681879826178E-3   -7.314677712555827E-4   -1.257057669644224E-1    4.260569423725913E-1
 8.196800418100000E9    -1.935141429660863E-1    5.001803754384041E-1   -2.909172490322796E-3   -8.593325566900156E-4   -2.998034868290918E-3   -7.564293070857892E-4   -1.256102521540097E-1    4.262548634517875E-1
 8.196803553875000E9    -1.933465333025332E-1    5.002615350284819E-1   -2.877569717283071E-3   -8.659880265156816E-4   -2.962156420606560E-3   -7.657142794698236E-4   -1.255248678436269E-1    4.262781036078537E-1
 8.196806689650000E9    -1.930377548851213E-1    5.003762278926999E-1   -2.907698893489641E-3   -8.474258104675159E-4   -3.008535770080571E-3   -7.301019123749311E-4   -1.252053582508870E-1    4.262339422731808E-1
 8.196809825425000E9    -1.927684688084134E-1    5.004594433009742E-1   -2.933000969302458E-3   -8.453247919258078E-4   -3.023298945264713E-3   -7.297964590748978E-4   -1.251266310795054E-1    4.263370664346935E-1
 8.196812961200000E9    -1.926981639851948E-1    5.004964561772651E-1   -2.899177669722881E-3   -8.292159485667060E-4   -3.024733273253737E-3   -7.774166921984644E-4   -1.248680717721579E-1    4.264071530506333E-1
 8.196816096975000E9    -1.924137954215587E-1    5.005697615350098E-1   -2.910313094175242E-3   -8.268658894369818E-4   -3.001286346623634E-3   -7.147471824382591E-4   -1.248693000644922E-1    4.266085391368536E-1
 8.196819232750000E9    -1.922142678228008E-1    5.006886991453350E-1   -2.919954562974016E-3   -8.410844644858751E-4   -3.026494131736773E-3   -7.195558278239157E-4   -1.245525776861219E-1    4.263990879388158E-1
 8.196822368525000E9    -1.919495506921940E-1    5.007165991394040E-1   -2.893982303176468E-3   -8.385013384569933E-4   -3.028222664519481E-3   -7.503460829704506E-4   -1.244308755193980E-1    4.265024013284783E-1
 8.196825504300000E9    -1.917279249028729E-1    5.008039018952267E-1   -2.943976872644333E-3   -8.060381188204279E-4   -3.014885400697874E-3   -6.958304423898716E-4   -1.241192149117230E-1    4.264606026638606E-1
 8.196828640075000E9    -1.915700101441684E-1    5.009072407761609E-1   -2.906303842262216E-3   -8.301564012604503E-4   -3.039872890632560E-3   -7.100945983046962E-4   -1.241198420238570E-1    4.266289747889033E-1
 8.196831775850000E9    -1.912776138225792E-1    5.009692436183879E-1   -2.911502070963322E-3   -8.250439921331887E-4   -2.974857039323524E-3   -7.435942944089937E-4   -1.239927900169600E-1    4.266877330979590E-1
 8.196834911625000E9    -1.911603339382122E-1    5.010372047091864E-1   -2.903790099014318E-3   -8.024232554203985E-4   -3.000285968280409E-3   -7.228941706657494E-4   -1.236131048549486E-1    4.267713272315948E-1
 8.196838047400000E9    -1.907582066230286E-1    5.011079493887998E-1   -2.934752492793009E-3   -8.475044125720335E-4   -3.017186373151908E-3   -7.513012773795980E-4   -1.235496743566225E-1    4.266682812502073E-1
 8.196841183175000E9    -1.907410035975194E-1    5.011494287336105E-1   -2.937979414034668E-3   -8.240831413114971E-4   -2.995165170914743E-3   -7.158223058138335E-4   -1.234680292962946E-1    4.268297425838293E-1
 8.196844318950000E9    -1.903913923767595E-1    5.013348290837343E-1   -2.956334254736717E-3   -8.374565133603271E-4   -3.003916511702140E-3   -7.179459760361216E-4   -1.233713322872554E-1    4.268750836911072E-1
 8.196847454725000E9    -1.901216874011401E-1    5.014836770221738E-1   -2.935663299093491E-3   -8.363065525781654E-4   -3.054660650044525E-3   -7.135644632536531E-4   -1.229570720626777E-1    4.268537398856586E-1
 8.196850590500000E9    -1.898510191722728E-1    5.015177467001314E-1   -2.964888994543133E-3   -8.458416613297075E-4   -3.051083841071358E-3   -7.216703633025040E-4   -1.230245619397455E-1    4.269142115734552E-1
 8.196853726275000E9    -1.897223115595464E-1    5.016209788802776E-1   -2.940288098218509E-3   -8.246239583535527E-4   -3.036201356142870E-3   -7.268368486362738E-4   -1.228328040266985E-1    4.269898018745272E-1
 8.196856862050000E9    -1.894487084580633E-1    5.015354834037516E-1   -2.930753514346040E-3   -7.966244292635623E-4   -3.048696312918044E-3   -7.115442567341923E-4   -1.224998530859249E-1    4.269244518597551E-1
 8.196859997825000E9    -1.892735129548445E-1    5.017436987605233E-1   -2.964962243547855E-3   -8.388761972984884E-4   -3.039415914949926E-3   -7.408113516037937E-4   -1.223146082548918E-1    4.270092167999813E-1
 8.196863133600000E9    -1.889830134417611E-1    5.018512397678344E-1   -2.963853846713048E-3   -8.341694956232020E-4   -3.097586522235616E-3   -7.130521308431236E-4   -1.219581854505080E-1    4.270922005022463E-1
 8.196866269375000E9    -1.887294066261578E-1    5.019556152494434E-1   -2.947003536630442E-3   -8.276096849973947E-4   -3.058624108817241E-3   -7.425440455018778E-4   -1.220620367700705E-1    4.272167752647618E-1
 8.196869405150000E9    -1.885737249367831E-1    5.019959089286756E-1   -2.971867170301278E-3   -8.412234943104337E-4   -3.038907244170738E-3   -7.333593577333099E-4   -1.218543318381336E-1    4.271428950736879E-1
 8.196872540925000E9    -1.882191530882949E-1    5.020013690768438E-1   -2.987330843883672E-3   -8.469280378486113E-4   -3.064210123339896E-3   -7.386091662266505E-4   -1.216036493000747E-1    4.272278705986158E-1
 8.196875676700000E9    -1.880879684915415E-1    5.021542076113349E-1   -2.974447066793917E-3   -8.309478115627683E-4   -3.060740416233490E-3   -7.163336844412965E-4   -1.215034504333982E-1    4.271893108326029E-1
 8.196878812475000E9    -1.878226688277149E-1    5.022333175052718E-1   -2.957459969246946E-3   -8.444021156812053E-4   -3.045996206082683E-3   -7.036469098452154E-4   -1.212766061545812E-1    4.273362679065880E-1
 8.196881948250000E9    -1.876545560942973E-1    5.023905260030982E-1   -2.986993751216788E-3   -7.973115040513020E-4   -3.058697392978218E-3   -7.047990046375462E-4   -1.211595497080866E-1    4.272582935873873E-1
 8.196885084025000E9    -1.874024920404244E-1    5.023185378519488E-1   -2.985040875607504E-3   -8.049724846823347E-4   -3.100557868375497E-3   -7.264765794945138E-4   -1.211311053983125E-1    4.273518919787703E-1
 8.196888219800000E9    -1.871290461212334E-1    5.023182898287943E-1   -2.970448353649238E-3   -8.067088737523877E-4   -3.058871328524528E-3   -7.284539660574804E-4   -1.208464122220751E-1    4.274037901491752E-1
 8.196891355575000E9    -1.870827533707554E-1    5.024409003768586E-1   -2.981913708570141E-3   -8.062751018088840E-4   -3.058981627342767E-3   -7.006705077006986E-4   -1.205574972474314E-1    4.275828538558309E-1
 8.196894491350000E9    -1.867051389645869E-1    5.026027254160943E-1   -2.996289595978102E-3   -8.249020118660341E-4   -3.091460741950872E-3   -7.077366558498893E-4   -1.204513114567992E-1    4.273966549048897E-1
 8.196897627125000E9    -1.864943778862050E-1    5.027776782964285E-1   -2.971008670684346E-3   -7.868302486311818E-4   -3.091869827915877E-3   -7.088852484361170E-4   -1.202984952590900E-1    4.276366188950519E-1
 8.196900762900000E9    -1.862964815041571E-1    5.027332719326101E-1   -2.990361325357157E-3   -8.260637064264917E-4   -3.091192344490597E-3   -7.203617971637972E-4   -1.199921529221753E-1    4.277037009762596E-1
 8.196903898675000E9    -1.860350842582381E-1    5.027466160178631E-1   -3.000190382667703E-3   -8.276351876696190E-4   -3.094148299513530E-3   -7.135689843139197E-4   -1.199050948856843E-1    4.275529541123680E-1
 8.196907034450000E9    -1.857567065660146E-1    5.029894287374665E-1   -2.990259554434595E-3   -8.259185040338205E-4   -3.108838214420300E-3   -7.149158771716501E-4   -1.198627894442033E-1    4.276278370979498E-1
 8.196910170225000E9    -1.856115937403000E-1    5.029739389664255E-1   -2.995345675731874E-3   -8.178174686280257E-4   -3.085456792423312E-3   -7.060133464325164E-4   -1.195250339496355E-1    4.278558186918006E-1
 8.196913306000000E9    -1.853698589131388E-1    5.031655042307178E-1   -2.994620199665319E-3   -8.145257893715068E-4   -3.104221857792538E-3   -7.081172681480845E-4   -1.194507082520624E-1    4.278425832918642E-1
 8.196916441775000E9    -1.851706949169949E-1    5.031387380138367E-1   -3.025051381024119E-3   -8.173688443108417E-4   -3.090895095990132E-3   -7.005631492015840E-4   -1.192724671824635E-1    4.278757672597798E-1
 8.196919577550000E9    -1.849180314449743E-1    5.032046087396552E-1   -3.014140884729949E-3   -8.031768038749161E-4   -3.133344372686874E-3   -6.789839608830687E-4   -1.191284165720874E-1    4.278662295118452E-1
 8.196922713325000E9    -1.847299437085561E-1    5.032170727926978E-1   -3.033284726474374E-3   -8.338792949730251E-4   -3.105982770946942E-3   -7.129583578674175E-4   -1.190116861270607E-1    4.278264526381021E-1
 8.196925849100000E9    -1.844771422640445E-1    5.033925376904836E-1   -3.021607915822799E-3   -8.179893136332149E-4   -3.135104597758946E-3   -6.933034712511152E-4   -1.187905131288726E-1    4.279570710094023E-1
 8.196928984875000E9    -1.841466431241714E-1    5.034206291042302E-1   -3.021775217156019E-3   -7.933296704700948E-4   -3.095535239440949E-3   -6.805922547860045E-4   -1.186688594783461E-1    4.279351553441340E-1
 8.196932120650000E9    -1.839433726797233E-1    5.035035355577946E-1   -3.023578098281472E-3   -7.833877173690786E-4   -3.114839367411150E-3   -6.924510313283934E-4   -1.183236977855567E-1    4.280355547367866E-1
 8.196935256425000E9    -1.837042926795922E-1    5.035905269016274E-1   -3.038703618663831E-3   -8.326340745314404E-4   -3.110664792079419E-3   -6.979729699381999E-4   -1.183420969271128E-1    4.280598616764895E-1
 8.196938392200000E9    -1.834750593979269E-1    5.035590497328436E-1   -3.048437701024388E-3   -8.042547370443618E-4   -3.147527626064385E-3   -6.921614436194357E-4   -1.179903637439953E-1    4.280817548372614E-1
 8.196941527975000E9    -1.832838758363252E-1    5.037655198217612E-1   -3.056568908049058E-3   -7.961695858661423E-4   -3.130707434291702E-3   -6.787410297955061E-4   -1.179612011914522E-1    4.281411283850520E-1
 8.196944663750000E9    -1.829867458915115E-1    5.037794432020115E-1   -3.038595429480166E-3   -7.969871609129091E-4   -3.120951695478077E-3   -7.128036609761025E-4   -1.177671183361610E-1    4.281883735253911E-1
 8.196947799525000E9    -1.828825127386523E-1    5.039203983557015E-1   -3.063373436574183E-3   -7.958334841922443E-4   -3.126643949487667E-3   -7.117686891447620E-4   -1.174785325812813E-1    4.283202524845080E-1
 8.196950935300000E9    -1.826577193543425E-1    5.039308899977986E-1   -3.092662157249661E-3   -7.976655607949550E-4   -3.148779016563185E-3   -6.917375718772000E-4   -1.174682804833158E-1    4.282973100505201E-1
 8.196954071075000E9    -1.825156944334207E-1    5.040674692734792E-1   -3.052756887049942E-3   -8.271062580689513E-4   -3.157312415143585E-3   -6.927995353851850E-4   -1.172229123647338E-1    4.283361430740452E-1
 8.196957206850000E9    -1.821724530250703E-1    5.039965577615212E-1   -3.058119102454933E-3   -8.152254098590149E-4   -3.186377445393646E-3   -7.012978104141993E-4   -1.170984714358146E-1    4.283228570405462E-1
 8.196960342625000E9    -1.819062115081787E-1    5.041975979826060E-1   -3.085722948588921E-3   -8.001838303200922E-4   -3.179633657226481E-3   -6.712214729180443E-4   -1.169642106934964E-1    4.284379768514789E-1
 8.196963478400000E9    -1.817069817841692E-1    5.042651689501642E-1   -3.058671049866127E-3   -8.099563743233993E-4   -3.180244127454141E-3   -6.907131455238287E-4   -1.167634052960629E-1    4.284958050479932E-1
 8.196966614175000E9    -1.814646228403302E-1    5.043064810059706E-1   -3.086057957268321E-3   -7.810971647303982E-4   -3.164855499555070E-3   -6.541843695858975E-4   -1.164794845048948E-1    4.285382176748411E-1
 8.196969749950000E9    -1.811894393573344E-1    5.043893287255818E-1   -3.098218858128601E-3   -8.032301733181932E-4   -3.181171147207262E-3   -6.713269763189147E-4   -1.163620673651623E-1    4.286618441580169E-1
 8.196972885725000E9    -1.809273076851800E-1    5.043699449673166E-1   -3.065157656210931E-3   -7.909747994956755E-4   -3.153787179331408E-3   -6.698246064696828E-4   -1.162168186036916E-1    4.284997141258314E-1
 8.196976021500000E9    -1.808698726833688E-1    5.045851048713109E-1   -3.092350413431443E-3   -7.829532368270668E-4   -3.202079795263956E-3   -7.065640608975987E-4   -1.159666571487373E-1    4.286765518032607E-1
 8.196979157275000E9    -1.805038325446569E-1    5.046232568876872E-1   -3.106338049324656E-3   -8.115033206856830E-4   -3.167901559007303E-3   -6.630361336240891E-4   -1.157892243340538E-1    4.286426032671596E-1
 8.196982293050000E9    -1.802662680870938E-1    5.047902579196055E-1   -3.111753245327890E-3   -7.807453953065662E-4   -3.169976491862438E-3   -6.844434832457796E-4   -1.156843431439027E-1    4.287099568121576E-1
 8.196985428825000E9    -1.801116129987220E-1    5.048489843677666E-1   -3.105030918470078E-3   -8.041964722171102E-4   -3.209518320818205E-3   -6.930243529750752E-4   -1.155032067030261E-1    4.288416508055125E-1
 8.196988564600000E9    -1.798374605856496E-1    5.048299341975802E-1   -3.118516688025961E-3   -7.942935047983626E-4   -3.217549753868675E-3   -6.473146485308177E-4   -1.153186665343942E-1    4.288005373597635E-1
 8.196991700375000E9    -1.796635084620880E-1    5.049690118083107E-1   -3.116996937764999E-3   -8.047294616721115E-4   -3.201948957885349E-3   -6.804902721294833E-4   -1.151260745860678E-1    4.287977406689430E-1
 8.196994836150000E9    -1.793048462524441E-1    5.049857336563544E-1   -3.127519196673484E-3   -7.812912704660926E-4   -3.216969849703691E-3   -6.932953799533531E-4   -1.150121215458466E-1    4.288963420319936E-1
 8.196997971925000E9    -1.789746582576823E-1    5.051281376537438E-1   -3.131048945330694E-3   -7.893796598155584E-4   -3.239961141332986E-3   -6.491815077549948E-4   -1.148786788897815E-1    4.289072027059164E-1
 8.197001107700000E9    -1.788257744898141E-1    5.051566320788801E-1   -3.121164474032304E-3   -7.843699539022751E-4   -3.211556463548245E-3   -6.729719836129222E-4   -1.144381048901764E-1    4.289195947270044E-1
 8.197004243475000E9    -1.785649245737227E-1    5.053148303020473E-1   -3.151295938042298E-3   -7.640412371727583E-4   -3.226194205098209E-3   -6.615484260164886E-4   -1.146063343389847E-1    4.290256705185018E-1
 8.197007379250000E9    -1.784010432786134E-1    5.053650135678578E-1   -3.150681683593300E-3   -8.039927231179158E-4   -3.245657398465936E-3   -6.542485402584034E-4   -1.143693517722563E-1    4.290128929958834E-1
 8.197010515025000E9    -1.780714704750141E-1    5.053778490365778E-1   -3.169317971987484E-3   -7.891531486659238E-4   -3.261051085433077E-3   -6.842951875335666E-4   -1.141245931541181E-1    4.291138045116514E-1
 8.197013650800000E9    -1.778214934032682E-1    5.054434417680874E-1   -3.154367150521220E-3   -7.820265921522876E-4   -3.236445279967912E-3   -6.903030245134444E-4   -1.139483217468451E-1    4.290342267433633E-1
 8.197016786575000E9    -1.777027926581480E-1    5.056183435671993E-1   -3.165631076461742E-3   -7.706701929798159E-4   -3.232500302244228E-3   -6.752897808535062E-4   -1.138002463475671E-1    4.292518057608992E-1
 8.197019922350000E9    -1.773813250783465E-1    5.057051483912459E-1   -3.168810557606588E-3   -7.878267347033276E-4   -3.274628207323180E-3   -6.675960553920838E-4   -1.135069497871648E-1    4.292573869163619E-1
 8.197023058125000E9    -1.771699489413978E-1    5.058395470327014E-1   -3.192528215173076E-3   -7.632759303886801E-4   -3.240987075643037E-3   -6.669126105084353E-4   -1.133822207065876E-1    4.292403969353485E-1
 8.197026193900000E9    -1.768977754265774E-1    5.057169480506286E-1   -3.171932453966087E-3   -7.783882812400910E-4   -3.259796143196741E-3   -6.794767041364729E-4   -1.132704459966306E-1    4.292645838029633E-1
 8.197029329675000E9    -1.766544476102835E-1    5.058015325239396E-1   -3.197279226494517E-3   -7.687365566699466E-4   -3.262392547570271E-3   -6.697513616614846E-4   -1.132783262552562E-1    4.293012153048638E-1
 8.197032465450000E9    -1.762576678084268E-1    5.058635665118445E-1   -3.191690574192475E-3   -7.532050063857043E-4   -3.318616933966303E-3   -6.807200801429496E-4   -1.129737810027679E-1    4.294482042166541E-1
 8.197035601225000E9    -1.761605765440555E-1    5.060211892130705E-1   -3.199127994771257E-3   -7.789786800022776E-4   -3.318384950648952E-3   -6.489621873718818E-4   -1.127383467502226E-1    4.295590645873748E-1
 8.197038737000000E9    -1.759763377658929E-1    5.061242400139858E-1   -3.189277389760593E-3   -7.648399592828152E-4   -3.275141090192724E-3   -6.465980823747822E-4   -1.126665771523459E-1    4.294498677266050E-1
 8.197041872775000E9    -1.756875912620557E-1    5.060838746539286E-1   -3.198494115217380E-3   -7.665250052429650E-4   -3.299517048001058E-3   -6.584662743471982E-4   -1.122946118231035E-1    4.294998940361216E-1
 8.197045008550000E9    -1.755393698440122E-1    5.061261096980822E-1   -3.228585883412144E-3   -7.825684269006796E-4   -3.330798442106232E-3   -6.299357582887147E-4   -1.123170196555705E-1    4.295304191871688E-1
 8.197048144325000E9    -1.751537457303110E-1    5.062426136329781E-1   -3.240119063981515E-3   -7.569777082183775E-4   -3.324039379645173E-3   -6.277586492724938E-4   -1.120096870150939E-1    4.296319541472203E-1
 8.197051280100000E9    -1.749450833633872E-1    5.062924631389404E-1   -3.208688592213518E-3   -7.753147781747094E-4   -3.316391108024170E-3   -6.702018973177127E-4   -1.118170227233600E-1    4.296885219896216E-1
 8.197054415875000E9    -1.747449769835115E-1    5.064044067653762E-1   -3.244823102912270E-3   -7.868114615282404E-4   -3.320078813264198E-3   -6.362477379305670E-4   -1.117074671566276E-1    4.295689831891354E-1
 8.197057551650000E9    -1.744667590886314E-1    5.065065621513704E-1   -3.224971440149331E-3   -7.684792370711974E-4   -3.369976758956582E-3   -6.218974850477453E-4   -1.115905353702136E-1    4.297975967051157E-1
 8.197060687425000E9    -1.742175396512446E-1    5.064796188520925E-1   -3.257838944062516E-3   -7.952703056663155E-4   -3.345737496657620E-3   -6.554236220219873E-4   -1.112729304695849E-1    4.297181825396513E-1
 8.197063823200000E9    -1.739787491202910E-1    5.066740478782494E-1   -3.245165294449991E-3   -7.355344580099111E-4   -3.381362582206714E-3   -6.139915826903243E-4   -1.110914331384973E-1    4.296511495958440E-1
 8.197066958975000E9    -1.736982765517072E-1    5.067292704562596E-1   -3.264116406978173E-3   -7.751564321406474E-4   -3.331555332096189E-3   -6.308781833107642E-4   -1.110638589895443E-1    4.297880723181753E-1
 8.197070094750000E9    -1.734821198335040E-1    5.068052830313742E-1   -3.257416151160084E-3   -7.407361023780365E-4   -3.349604192639197E-3   -6.289627939534374E-4   -1.108301651798113E-1    4.297437417269339E-1
