#  HZ   S   RI   R     50.00 
! Rohde & Schwarz Vector Network Analyzer 
! Rohde-Schwarz,ZNB20-2Port,1311601062101988,3.16
! Created: UTC 3/20/2024, 4:59:19 PM
! freq[Hz]                re:S11                  im:S11                  re:S21                  im:S21                  re:S12                  im:S12                  re:S22                  im:S22
 8.162069708000000E9     5.388412279495820E-1    4.085938167485233E-2    2.638476860837923E-4    2.521372098530213E-3    2.496285722919672E-4    2.519748763820186E-3    4.816984344223759E-1   -9.806275071865353E-2
 8.162229382075000E9     5.396505212078969E-1    3.004139247416372E-2    3.135006280341993E-4    2.477171427881413E-3    3.063844808753958E-4    2.488090499961757E-3    4.794850762895844E-1   -1.073509902884312E-1
 8.162389056150000E9     5.402858173459887E-1    1.926627321409578E-2    3.753599231397013E-4    2.484230219208640E-3    3.444992741389410E-4    2.496420889037963E-3    4.769976599382320E-1   -1.166564208893683E-1
 8.162548730225000E9     5.407553863585326E-1    8.652968363466351E-3    4.099816664675139E-4    2.454603876602026E-3    3.992339018794175E-4    2.492951922976344E-3    4.744218099968175E-1   -1.259940552494892E-1
 8.162708404300000E9     5.408676733719612E-1   -2.186944933876764E-3    4.851335159136708E-4    2.453259377381535E-3    4.279513585800619E-4    2.474027144997067E-3    4.718925173559833E-1   -1.351116359511666E-1
 8.162868078375000E9     5.408484509784884E-1   -1.293876864133254E-2    5.428576552492841E-4    2.435034256132695E-3    4.821674227142717E-4    2.450807515111652E-3    4.687474036380435E-1   -1.440613146753379E-1
 8.163027752450000E9     5.405863643027529E-1   -2.358159443067491E-2    5.497355463798627E-4    2.399416231798553E-3    5.588597772191875E-4    2.457270475293464E-3    4.655899504114298E-1   -1.530291536110317E-1
 8.163187426525000E9     5.401911271747570E-1   -3.447025243702506E-2    6.101806297217510E-4    2.418800337601146E-3    6.460230821355941E-4    2.438219228389574E-3    4.623317096076877E-1   -1.620249642293093E-1
 8.163347100600000E9     5.396062291475576E-1   -4.513427852935731E-2    6.360550542589908E-4    2.391422203156249E-3    6.823528607163929E-4    2.413583968928186E-3    4.587999114030357E-1   -1.708451072908568E-1
 8.163506774675000E9     5.385857985695817E-1   -5.583813382608895E-2    6.974538094190391E-4    2.364868550090302E-3    6.761439410354857E-4    2.392952358931466E-3    4.552830124545391E-1   -1.797474367373642E-1
 8.163666448750000E9     5.375499367562018E-1   -6.637996672688669E-2    7.473730691270532E-4    2.350488511495841E-3    7.573474949822735E-4    2.376875214403825E-3    4.513630885449486E-1   -1.885568286066112E-1
 8.163826122825000E9     5.362516241506404E-1   -7.702013267639489E-2    7.789344311457325E-4    2.338389375042675E-3    7.620726973488257E-4    2.363773928466076E-3    4.474183048425008E-1   -1.971430303819776E-1
 8.163985796900000E9     5.345693609643967E-1   -8.767146625435171E-2    8.277514697439207E-4    2.309002145432532E-3    8.374735638561212E-4    2.362986963166726E-3    4.432366778407655E-1   -2.057428691279831E-1
 8.164145470975000E9     5.329082088403183E-1   -9.839641924675452E-2    8.824417240311352E-4    2.292821876941443E-3    8.960705495086152E-4    2.318661935018929E-3    4.389602088400515E-1   -2.141238529273201E-1
 8.164305145050000E9     5.309297684869483E-1   -1.088577766587896E-1    9.438148947834551E-4    2.259074991816317E-3    9.521995047728464E-4    2.312398709911400E-3    4.344579075430051E-1   -2.225272495702338E-1
 8.164464819125000E9     5.287995549451719E-1   -1.194115966744010E-1    9.715311834234767E-4    2.206096351380362E-3    9.533040350885331E-4    2.268089291381085E-3    4.298805185509341E-1   -2.306826994973018E-1
 8.164624493200000E9     5.265127678271894E-1   -1.300267226497483E-1    1.017088069198673E-3    2.224483154537836E-3    1.014072830830791E-3    2.264537141947442E-3    4.248829458155870E-1   -2.391213033974914E-1
 8.164784167275000E9     5.238734206495856E-1   -1.403162342880853E-1    1.048310797440040E-3    2.164390098984383E-3    1.073190484991117E-3    2.219016548226438E-3    4.201335425689475E-1   -2.470152132290439E-1
 8.164943841350000E9     5.210918616267080E-1   -1.507430094728655E-1    1.092801786293626E-3    2.152780813664169E-3    1.115682579751546E-3    2.207502537194468E-3    4.151681168609202E-1   -2.550479062312412E-1
 8.165103515425000E9     5.179959263965987E-1   -1.610221495890903E-1    1.132275595968249E-3    2.147040390020537E-3    1.133819328138609E-3    2.180974954310624E-3    4.097494172332899E-1   -2.628851640825210E-1
 8.165263189500000E9     5.147565973786898E-1   -1.713155207398771E-1    1.172259697898429E-3    2.106885224490101E-3    1.215503726756844E-3    2.166603578974835E-3    4.043988392714757E-1   -2.707780993954215E-1
 8.165422863575000E9     5.113703477125014E-1   -1.815030166498904E-1    1.273462925424465E-3    2.097365873483483E-3    1.227235201893939E-3    2.137330013221651E-3    3.988319919911552E-1   -2.783219133629145E-1
 8.165582537650000E9     5.077039174334526E-1   -1.916347759760394E-1    1.282171979619219E-3    2.050748068899491E-3    1.262461489762960E-3    2.086438391571655E-3    3.931420759769052E-1   -2.859365071719158E-1
 8.165742211725000E9     5.039826562754698E-1   -2.017529742793896E-1    1.281645494242614E-3    2.043855932673454E-3    1.278160148008940E-3    2.055095713219556E-3    3.873242881264546E-1   -2.933639635060694E-1
 8.165901885800000E9     4.999409994009269E-1   -2.116769205080264E-1    1.325905364102680E-3    1.982849308773567E-3    1.354707528889985E-3    2.026364949918988E-3    3.813975524704520E-1   -3.005288461578189E-1
 8.166061559875000E9     4.956584624646622E-1   -2.216348055550733E-1    1.384853004398204E-3    1.965189784111363E-3    1.387724917936282E-3    1.994651211995413E-3    3.753301392331705E-1   -3.078056433259445E-1
 8.166221233950000E9     4.912814764657524E-1   -2.313990611540253E-1    1.427816102888690E-3    1.928813726065219E-3    1.432159003366425E-3    1.983190787717035E-3    3.691650197248458E-1   -3.147888874338943E-1
 8.166380908025000E9     4.866208506753833E-1   -2.411507135388247E-1    1.435831375949313E-3    1.891319311604793E-3    1.464771432081406E-3    1.951268165690226E-3    3.626693559720564E-1   -3.218086333601400E-1
 8.166540582100000E9     4.817910639691546E-1   -2.507330577912203E-1    1.506812087757582E-3    1.888987618330716E-3    1.464721854943945E-3    1.937709113175899E-3    3.562429249716749E-1   -3.286700465980063E-1
 8.166700256175000E9     4.767933713725744E-1   -2.603328425727508E-1    1.520031497937261E-3    1.850570402160141E-3    1.508189817416171E-3    1.891170962439955E-3    3.496576456167911E-1   -3.352177017060655E-1
 8.166859930250000E9     4.717140281250784E-1   -2.697172626665872E-1    1.555611092052697E-3    1.825738660736847E-3    1.558778590478676E-3    1.822700309699994E-3    3.428232982897239E-1   -3.416975442363571E-1
 8.167019604325000E9     4.662810993066989E-1   -2.790336449681167E-1    1.593914421623257E-3    1.759015191594533E-3    1.580978989698288E-3    1.809241742038744E-3    3.359547820129803E-1   -3.481388683270359E-1
 8.167179278400000E9     4.606543800829312E-1   -2.881908845147588E-1    1.646617448533662E-3    1.722621992295982E-3    1.610389457557854E-3    1.804035823102517E-3    3.290403681239716E-1   -3.542156857599544E-1
 8.167338952475000E9     4.549547006985709E-1   -2.973638309768086E-1    1.661002774750748E-3    1.715073654249441E-3    1.671567146247485E-3    1.723421934789230E-3    3.220249482989119E-1   -3.605233526964999E-1
 8.167498626550000E9     4.490447667928743E-1   -3.063335449150150E-1    1.684620081527516E-3    1.662233191682886E-3    1.705410457284582E-3    1.702549995255835E-3    3.148688800141862E-1   -3.663976501384842E-1
 8.167658300625000E9     4.427739498578193E-1   -3.152264542018749E-1    1.696127959951702E-3    1.630135184268847E-3    1.718124640544946E-3    1.705266648505236E-3    3.074094495482434E-1   -3.722480052358865E-1
 8.167817974700000E9     4.365017891980426E-1   -3.240181350622715E-1    1.752171175806028E-3    1.617871552930270E-3    1.728293490674375E-3    1.618324565122935E-3    2.999597028411450E-1   -3.779659999031637E-1
 8.167977648775000E9     4.300901562261901E-1   -3.326722315789216E-1    1.770549914926646E-3    1.552747386048794E-3    1.796832502556202E-3    1.588217804237699E-3    2.926253691500369E-1   -3.834497996957319E-1
 8.168137322850000E9     4.234492808399926E-1   -3.411013177344902E-1    1.806659220411252E-3    1.506845382622639E-3    1.832855574463332E-3    1.541228277974972E-3    2.849859367487670E-1   -3.888780771814251E-1
 8.168296996925000E9     4.165916618190535E-1   -3.495585792161628E-1    1.848598571744122E-3    1.471733802706947E-3    1.833538562708644E-3    1.520144753886365E-3    2.771811016478195E-1   -3.941483661932254E-1
 8.168456671000000E9     4.095680171212310E-1   -3.575757212617116E-1    1.858526696859761E-3    1.439258604497181E-3    1.875994841633285E-3    1.488349906143950E-3    2.692776841630539E-1   -3.992105053435116E-1
 8.168616345075000E9     4.024660305399189E-1   -3.657697850587347E-1    1.879609351598584E-3    1.412104411391067E-3    1.915650027474317E-3    1.451834361163125E-3    2.615307533481815E-1   -4.039899517980849E-1
 8.168776019150000E9     3.951073103552997E-1   -3.738222449197384E-1    1.912447768295960E-3    1.372794455878954E-3    1.931347441564074E-3    1.412463600963180E-3    2.535107355124399E-1   -4.089207926152513E-1
 8.168935693225000E9     3.877194518025309E-1   -3.816574491446130E-1    1.908861187539154E-3    1.354528502526790E-3    1.968672742949150E-3    1.402434527807161E-3    2.454476657673315E-1   -4.135208384118669E-1
 8.169095367300000E9     3.801575713214659E-1   -3.891960907125273E-1    1.954845602528103E-3    1.293569040267499E-3    1.961057148602503E-3    1.344126049653078E-3    2.372614566601697E-1   -4.180097287677875E-1
 8.169255041375000E9     3.721781390499433E-1   -3.967944279083996E-1    1.959750393740084E-3    1.262644082920812E-3    2.003213927739311E-3    1.293365961371242E-3    2.290787821558660E-1   -4.222256599557793E-1
 8.169414715450000E9     3.643134334638062E-1   -4.041487359332291E-1    1.983755797770745E-3    1.215025645188319E-3    2.009350323915544E-3    1.237681518579660E-3    2.206338794252273E-1   -4.264781751154530E-1
 8.169574389525000E9     3.562167443634739E-1   -4.113524824493129E-1    2.032294552577788E-3    1.154262763803952E-3    2.056842637029587E-3    1.218511912798556E-3    2.124655189323242E-1   -4.303516396330787E-1
 8.169734063600000E9     3.480098386123498E-1   -4.183728187697386E-1    2.016162593259135E-3    1.118028829324795E-3    2.049209538935670E-3    1.181089024431058E-3    2.038480556004827E-1   -4.342999936485580E-1
 8.169893737675000E9     3.396235808615265E-1   -4.251896529614326E-1    2.051255871310555E-3    1.058302175372450E-3    2.140020187299684E-3    1.089067648193403E-3    1.954545023319574E-1   -4.380089085930405E-1
 8.170053411750000E9     3.312009141917512E-1   -4.318142248220945E-1    2.086141303623163E-3    1.063276514692487E-3    2.102428947890344E-3    1.088528032617391E-3    1.867522292833698E-1   -4.414216518630457E-1
 8.170213085825000E9     3.224616885886493E-1   -4.383513641748204E-1    2.086546297281615E-3    1.001354180736978E-3    2.131561647295215E-3    1.043092537560573E-3    1.782544917868280E-1   -4.446625626443195E-1
 8.170372759900000E9     3.137270191806475E-1   -4.446959913220874E-1    2.120876816147010E-3    9.585520034043761E-4    2.171261460765077E-3    9.728600339630395E-4    1.695868656330707E-1   -4.478079132878660E-1
 8.170532433975000E9     3.047734373876753E-1   -4.509001972111798E-1    2.128684502939287E-3    9.176431227006278E-4    2.118093018424805E-3    9.656266465135286E-4    1.606758697050530E-1   -4.507591659897516E-1
 8.170692108050000E9     2.957184375885121E-1   -4.569610816818058E-1    2.160410468022718E-3    8.715110282767172E-4    2.190259401401890E-3    8.793811014471726E-4    1.519304641154414E-1   -4.535896889686329E-1
 8.170851782125000E9     2.865641438732984E-1   -4.627542679520035E-1    2.139943408470728E-3    8.132948842862113E-4    2.184672332449634E-3    8.565690842473241E-4    1.430799636669893E-1   -4.561403342647327E-1
 8.171011456200000E9     2.773078248460424E-1   -4.683946794005754E-1    2.166209956390615E-3    8.034690919833464E-4    2.200302256864437E-3    8.316803064108279E-4    1.341706579789296E-1   -4.587044266995876E-1
 8.171171130275000E9     2.680859826353644E-1   -4.737523668792836E-1    2.174187770400648E-3    7.540298400596572E-4    2.218696980221819E-3    7.555792526094627E-4    1.251935939505996E-1   -4.610580101631933E-1
 8.171330804350000E9     2.584146495709991E-1   -4.791062491243996E-1    2.139477135425629E-3    7.229436378356177E-4    2.246226499711584E-3    7.388637084292805E-4    1.162899379935547E-1   -4.630631674806013E-1
 8.171490478425000E9     2.489526084590183E-1   -4.842877024550133E-1    2.185927888682947E-3    6.577854627710049E-4    2.237547841364885E-3    6.981616182314449E-4    1.073326129400929E-1   -4.649814062910507E-1
 8.171650152500000E9     2.391771168676656E-1   -4.891859921705502E-1    2.219811363624499E-3    6.264291890756590E-4    2.257687137990212E-3    6.463219093161026E-4    9.841478060953496E-2   -4.667498035244864E-1
 8.171809826575000E9     2.293482843552242E-1   -4.937851633182764E-1    2.219536018975806E-3    5.656261830294459E-4    2.278819756057870E-3    5.973493822072446E-4    8.930390976650508E-2   -4.683548611246652E-1
 8.171969500650000E9     2.195934806158758E-1   -4.981755260522622E-1    2.199180940240961E-3    5.203435964973847E-4    2.308482973110171E-3    5.623903195701538E-4    8.014962767238479E-2   -4.696854166592314E-1
 8.172129174725000E9     2.094657984824801E-1   -5.025731090024631E-1    2.237604254701341E-3    4.778864455094375E-4    2.270053852156429E-3    4.856839661979993E-4    7.109669529947017E-2   -4.709287428875051E-1
 8.172288848800000E9     1.994789983119620E-1   -5.066970627715471E-1    2.272556737947020E-3    4.378480623990923E-4    2.322138386189885E-3    4.869842273890239E-4    6.189489277499858E-2   -4.720242675491120E-1
 8.172448522875000E9     1.892455790613519E-1   -5.104204232952766E-1    2.251665504635962E-3    4.182510343278159E-4    2.287129788853253E-3    4.286471753839855E-4    5.286992924996636E-2   -4.729075603569416E-1
 8.172608196950000E9     1.790998136776473E-1   -5.140835094183376E-1    2.273701574414456E-3    3.761006084536393E-4    2.290128197583778E-3    3.997129148900811E-4    4.363204423826333E-2   -4.735531030079495E-1
 8.172767871025000E9     1.686857981884122E-1   -5.176948431063679E-1    2.259039530854410E-3    2.744614565908706E-4    2.326207163297440E-3    3.129944298182902E-4    3.451941485163983E-2   -4.741470895143398E-1
 8.172927545100000E9     1.582748483477227E-1   -5.210115474439284E-1    2.268082305046006E-3    2.670396388760159E-4    2.335500347278807E-3    2.865350036632717E-4    2.531811841252331E-2   -4.745254179614732E-1
 8.173087219175000E9     1.479379103159593E-1   -5.240777230659539E-1    2.227973885103368E-3    2.137186021786323E-4    2.345990698556787E-3    2.701388939617153E-4    1.615347375868162E-2   -4.747234498629907E-1
 8.173246893250000E9     1.374231976145424E-1   -5.267705798793678E-1    2.241491978704794E-3    1.635263821046674E-4    2.312158622323924E-3    1.932767289120278E-4    7.139916432082691E-3   -4.747369731655676E-1
 8.173406567325000E9     1.267687756296934E-1   -5.295805242039915E-1    2.283145653271976E-3    9.714993521052828E-5    2.322361092954263E-3    1.297842040767287E-4   -2.007561588789340E-3   -4.745315019226244E-1
 8.173566241400000E9     1.163255956656717E-1   -5.319449163643371E-1    2.255799705247964E-3    8.207961696192088E-5    2.311495616542571E-3    8.353672874854660E-5   -1.124137054418914E-2   -4.741380387184884E-1
 8.173725915475000E9     1.054624210704112E-1   -5.341234512450149E-1    2.238885778797349E-3    5.098462415808918E-5    2.308166624627703E-3    3.659992552460342E-5   -2.026767161102686E-2   -4.736295438258969E-1
 8.173885589550000E9     9.486043805025494E-2   -5.362780967718110E-1    2.254410114320482E-3    3.925199771768986E-6    2.345172614907914E-3   -5.427521929441022E-6   -2.951044065587318E-2   -4.729603832447850E-1
 8.174045263625000E9     8.407286535385823E-2   -5.380022332479685E-1    2.259569176546444E-3   -5.368962942943287E-5    2.327305084392784E-3   -5.936693964456813E-5   -3.848882487044548E-2   -4.721402014889933E-1
 8.174204937700000E9     7.332733943216739E-2   -5.396169338350032E-1    2.284819464865199E-3   -7.795662111174175E-5    2.327506007913337E-3   -4.831823078609776E-5   -4.766186299068685E-2   -4.712340084741061E-1
 8.174364611775000E9     6.232163052688230E-2   -5.408983309403644E-1    2.262202476855631E-3   -1.108991755153973E-4    2.320201063156804E-3   -1.722271977948042E-4   -5.659411887758156E-2   -4.699378615264877E-1
 8.174524285850000E9     5.158844233408660E-2   -5.420645114162485E-1    2.261026142086233E-3   -1.654228755440074E-4    2.361156003741355E-3   -1.762028426484549E-4   -6.557193190772631E-2   -4.685787028466681E-1
 8.174683959925000E9     4.067602785511529E-2   -5.429635994180199E-1    2.252398739758338E-3   -2.280323512098325E-4    2.312043126551512E-3   -2.411203106729120E-4   -7.445795535618988E-2   -4.668416081533864E-1
 8.174843634000000E9     2.958732272660404E-2   -5.437887906337000E-1    2.234752114628784E-3   -2.652847013608486E-4    2.308852075724759E-3   -2.601623677450103E-4   -8.350475322412418E-2   -4.652613562595430E-1
 8.175003308075000E9     1.878318941444800E-2   -5.441795543024686E-1    2.236646927050358E-3   -3.036092042173882E-4    2.323566323812338E-3   -3.138802000295581E-4   -9.239358004093011E-2   -4.634221291433737E-1
 8.175162982150000E9     7.890154101871331E-3   -5.443369321942543E-1    2.236407493743590E-3   -3.584981703083527E-4    2.255856349134664E-3   -3.473462870937737E-4   -1.013225715359229E-1   -4.614018165170932E-1
 8.175322656225000E9    -3.063345151883101E-3   -5.443117281912798E-1    2.213101490169463E-3   -4.004426186668848E-4    2.281192865141665E-3   -4.209747604974401E-4   -1.101044888912540E-1   -4.590885103192262E-1
 8.175482330300000E9    -1.402156434826284E-2   -5.443539748410759E-1    2.223563748890350E-3   -4.474214637781330E-4    2.281085574279414E-3   -4.482663198161127E-4   -1.187870458699018E-1   -4.566854849644816E-1
 8.175642004375000E9    -2.490735674445986E-2   -5.438661402587152E-1    2.197587457573755E-3   -4.770083466971893E-4    2.259740505034477E-3   -4.816076391618711E-4   -1.274646478089914E-1   -4.540959068982003E-1
 8.175801678450000E9    -3.595788492289419E-2   -5.432660620388119E-1    2.231586117681161E-3   -5.165692465415522E-4    2.281234851349012E-3   -5.271677108123903E-4   -1.361721365848866E-1   -4.513905113391398E-1
 8.175961352525000E9    -4.677300164781168E-2   -5.424490843049232E-1    2.179498546609051E-3   -5.925437109388587E-4    2.266107860237945E-3   -6.122491291221003E-4   -1.447906608797176E-1   -4.484902449217780E-1
 8.176121026600000E9    -5.770417795298011E-2   -5.413105269628348E-1    2.167832887644960E-3   -6.173467131243486E-4    2.239763756922644E-3   -5.877212047596070E-4   -1.530991039188986E-1   -4.455834304512067E-1
 8.176280700675000E9    -6.855500023813894E-2   -5.400025113579559E-1    2.175106518029645E-3   -6.518258118551486E-4    2.212627239077615E-3   -6.868198350415267E-4   -1.617928916478971E-1   -4.421339354187546E-1
 8.176440374750000E9    -7.952168961181796E-2   -5.386026856494118E-1    2.135487299016286E-3   -7.011916932373101E-4    2.194468798255553E-3   -7.206343622075421E-4   -1.702911952375362E-1   -4.388816537573136E-1
