#  HZ   S   RI   R     50.00 
! Rohde & Schwarz Vector Network Analyzer 
! Rohde-Schwarz,ZNB20-2Port,1311601062101988,3.16
! Created: UTC 3/20/2024, 5:14:46 PM
! freq[Hz]                re:S11                  im:S11                  re:S21                  im:S21                  re:S12                  im:S12                  re:S22                  im:S22
 8.197032887000000E9    -1.788273130131447E-1    5.049428264644785E-1   -3.030595146526648E-3   -7.830559674946404E-4   -3.095464691901491E-3   -6.480761297717608E-4   -1.164530675660200E-1    4.307579066225045E-1
 8.197035543200000E9    -1.786199182270659E-1    5.051924173388227E-1   -3.000086150714940E-3   -7.880324903240406E-4   -3.077633433589110E-3   -6.812638806903404E-4   -1.163971506946355E-1    4.306501732856193E-1
 8.197038199400000E9    -1.783790461630908E-1    5.051629302627658E-1   -3.043550605578724E-3   -7.724299560768105E-4   -3.104690653494635E-3   -6.777057580644898E-4   -1.162551351379805E-1    4.307159000222311E-1
 8.197040855600000E9    -1.781265319026233E-1    5.053168721393340E-1   -3.015413153879037E-3   -8.149374054658774E-4   -3.089010594250754E-3   -6.640279207518346E-4   -1.161007422379090E-1    4.307670580639701E-1
 8.197043511800000E9    -1.780019778465342E-1    5.053881232839322E-1   -3.002598108357670E-3   -7.836130471756759E-4   -3.105642013578746E-3   -6.543470325480828E-4   -1.159695420694837E-1    4.307887478816523E-1
 8.197046168000000E9    -1.776944712731623E-1    5.054402961201511E-1   -3.009265430334683E-3   -7.781514997707791E-4   -3.126503231184096E-3   -6.580022264436012E-4   -1.157742192871291E-1    4.307869430880977E-1
 8.197048824200000E9    -1.774929419834065E-1    5.054493050594024E-1   -3.034289726662492E-3   -7.670897954794660E-4   -3.110026362266757E-3   -6.600150631006322E-4   -1.156720821968918E-1    4.307887312189162E-1
 8.197051480400000E9    -1.773839824064108E-1    5.056982814692346E-1   -3.038801471452378E-3   -7.820050766060252E-4   -3.118312366344591E-3   -6.810888622421542E-4   -1.155129747109993E-1    4.308283988346480E-1
 8.197054136600000E9    -1.771874638721609E-1    5.057238438776097E-1   -3.032734221926577E-3   -7.889220998788509E-4   -3.087806773104549E-3   -6.921052976659587E-4   -1.153637775161277E-1    4.311516562978851E-1
 8.197056792800000E9    -1.769830699730242E-1    5.055941748684657E-1   -3.042511181810783E-3   -7.738870533226418E-4   -3.139370901885005E-3   -6.681046547398366E-4   -1.152061246316424E-1    4.310973365028518E-1
 8.197059449000000E9    -1.768418073742893E-1    5.056449277221758E-1   -3.044421599621868E-3   -7.815924971778153E-4   -3.135281459272076E-3   -6.683292628904294E-4   -1.150030524276199E-1    4.310374923191897E-1
 8.197062105200000E9    -1.765602405462135E-1    5.058133948102510E-1   -3.040098740116665E-3   -7.707024068897469E-4   -3.119395125094582E-3   -6.684517396348923E-4   -1.149000995629084E-1    4.310351221187474E-1
 8.197064761400000E9    -1.763666457097848E-1    5.058494264336054E-1   -3.050375159615607E-3   -8.034186080974153E-4   -3.132198111575249E-3   -6.603453032495762E-4   -1.148241714203009E-1    4.309766753321396E-1
 8.197067417600000E9    -1.761109287122590E-1    5.058728752578751E-1   -3.010422967181130E-3   -7.814729943428769E-4   -3.138235310229907E-3   -6.517732978601645E-4   -1.144972833395945E-1    4.310894004762960E-1
 8.197070073800000E9    -1.759785347891895E-1    5.058087484391709E-1   -3.040832171101822E-3   -7.877518966700060E-4   -3.147381645760596E-3   -6.500695023402996E-4   -1.143566690844612E-1    4.312091574679485E-1
 8.197072730000000E9    -1.758418214517354E-1    5.062319842419915E-1   -3.043806793410831E-3   -7.622052851480854E-4   -3.123598402241445E-3   -6.471347624335405E-4   -1.144091725537697E-1    4.311628925843991E-1
 8.197075386200000E9    -1.755527666411591E-1    5.061551164607807E-1   -3.070001934297364E-3   -7.711989637019960E-4   -3.158614481373710E-3   -6.619771233483375E-4   -1.140811886016783E-1    4.312203432891612E-1
 8.197078042400000E9    -1.754002565212853E-1    5.061962392985363E-1   -3.032930017945851E-3   -7.677762653134570E-4   -3.153451630764292E-3   -6.626217039890989E-4   -1.138966323700020E-1    4.312042804531341E-1
 8.197080698600000E9    -1.751228403962992E-1    5.063340053860467E-1   -3.066978671654573E-3   -7.544012972745652E-4   -3.122888577656522E-3   -6.706745849901994E-4   -1.139310131333569E-1    4.312576924664447E-1
 8.197083354800000E9    -1.749837894599101E-1    5.063799616057461E-1   -3.055885163509803E-3   -7.930948356991644E-4   -3.154112804538833E-3   -6.255307479660993E-4   -1.138177887004696E-1    4.313494941031663E-1
 8.197086011000000E9    -1.747760418014986E-1    5.063636174298870E-1   -3.071306866889056E-3   -7.713832074844618E-4   -3.146505224825761E-3   -6.560030489905170E-4   -1.135767030643800E-1    4.314734168411895E-1
 8.197088667200000E9    -1.745434234390353E-1    5.063571303571583E-1   -3.078604405044554E-3   -7.654534327859353E-4   -3.134210192648297E-3   -6.521750258705716E-4   -1.133988279005016E-1    4.314608434832989E-1
 8.197091323400000E9    -1.744148785194195E-1    5.065331738011133E-1   -3.089928327952724E-3   -7.687728020717031E-4   -3.204259611469217E-3   -6.587576181434419E-4   -1.133666618653929E-1    4.315650282513881E-1
 8.197093979600000E9    -1.740680884292438E-1    5.065399765980377E-1   -3.088645200863018E-3   -7.619283204498779E-4   -3.200240476486330E-3   -6.663545031807833E-4   -1.129561946778192E-1    4.314198267313152E-1
 8.197096635800000E9    -1.741150435717837E-1    5.065541993224660E-1   -3.078201523213485E-3   -7.662488805088691E-4   -3.184412643783603E-3   -6.271509282816786E-4   -1.129194792194674E-1    4.315265543595923E-1
 8.197099292000000E9    -1.737181758263933E-1    5.066281569525449E-1   -3.088417591947745E-3   -7.567552679645369E-4   -3.189185041028521E-3   -6.438505024320880E-4   -1.128586625910920E-1    4.315292990437510E-1
 8.197101948200000E9    -1.736176535473113E-1    5.067421961078022E-1   -3.094078556826760E-3   -7.439490953626309E-4   -3.155755873985009E-3   -6.374347808774255E-4   -1.125480147851188E-1    4.315949634819956E-1
 8.197104604400000E9    -1.734641934109647E-1    5.067776594715696E-1   -3.117526870369160E-3   -7.659791743026019E-4   -3.198221806731350E-3   -6.552611606731793E-4   -1.125547198016103E-1    4.316412570677178E-1
 8.197107260600000E9    -1.730924388475005E-1    5.068735950974655E-1   -3.111187009334549E-3   -7.625553649141401E-4   -3.223059528729687E-3   -6.387384666010814E-4   -1.123940763614464E-1    4.316741663100043E-1
 8.197109916800000E9    -1.729390057676247E-1    5.068223831890364E-1   -3.082754812488500E-3   -7.603185456706131E-4   -3.190500388088541E-3   -6.511505333642228E-4   -1.121646900368280E-1    4.316052911542855E-1
 8.197112573000000E9    -1.728594474393444E-1    5.069346778152971E-1   -3.100839262139014E-3   -7.400805063911790E-4   -3.205831991835818E-3   -6.768959553239605E-4   -1.121119812487304E-1    4.316562242244857E-1
 8.197115229200000E9    -1.725334019230535E-1    5.070111969598248E-1   -3.118266641578444E-3   -7.676687455405884E-4   -3.203914433486770E-3   -6.553262235054584E-4   -1.119136427792664E-1    4.317311266743042E-1
 8.197117885400000E9    -1.724383912450596E-1    5.072030243641638E-1   -3.116412689342747E-3   -7.732106468657392E-4   -3.211626158441241E-3   -6.337376855383032E-4   -1.117757484806376E-1    4.317822453123777E-1
 8.197120541600000E9    -1.721729722434604E-1    5.071539250419358E-1   -3.093158894930653E-3   -7.525063261602950E-4   -3.214573271290159E-3   -6.543921449758415E-4   -1.116493048834404E-1    4.317454908595491E-1
 8.197123197800000E9    -1.719600690923349E-1    5.072369276671811E-1   -3.139097260917159E-3   -7.375653326595809E-4   -3.183098738581995E-3   -6.198113245979566E-4   -1.115635706179990E-1    4.318804082721422E-1
 8.197125854000000E9    -1.718959010701344E-1    5.073618408104306E-1   -3.141439526293934E-3   -7.601771403237386E-4   -3.197197033113487E-3   -6.576505152000547E-4   -1.113211775747928E-1    4.318720782788082E-1
 8.197128510200000E9    -1.716439782979124E-1    5.073445657648278E-1   -3.150372001895628E-3   -7.621366965984939E-4   -3.197496241014325E-3   -6.579124284817053E-4   -1.113568611403856E-1    4.319971034640915E-1
 8.197131166400000E9    -1.713346089997822E-1    5.074284273915528E-1   -3.121586887906771E-3   -7.317516301312718E-4   -3.238282092931912E-3   -6.289435018147273E-4   -1.110194675667117E-1    4.317642479342202E-1
 8.197133822600000E9    -1.712039215287711E-1    5.074424743976170E-1   -3.148898584442427E-3   -7.825208121456941E-4   -3.224171043646742E-3   -6.214257607190550E-4   -1.108409842803869E-1    4.319228499121834E-1
 8.197136478800000E9    -1.710469510255451E-1    5.074955616475372E-1   -3.133645448037127E-3   -7.527893206124506E-4   -3.258169437409781E-3   -6.449252712358592E-4   -1.107085600099517E-1    4.320322609550411E-1
 8.197139135000000E9    -1.707511697569843E-1    5.074862578458551E-1   -3.153796343114223E-3   -7.547656432598663E-4   -3.241224168915161E-3   -6.032790676852065E-4   -1.106108395103809E-1    4.320945486068716E-1
 8.197141791200000E9    -1.705718550161615E-1    5.077480186921511E-1   -3.143879033514731E-3   -7.562205737963126E-4   -3.240032601432652E-3   -6.436715731828024E-4   -1.105116440929341E-1    4.321362253727744E-1
 8.197144447400000E9    -1.703474799442375E-1    5.077133147911913E-1   -3.158514941456233E-3   -7.399903729289225E-4   -3.260515336366822E-3   -6.434289578722835E-4   -1.103702230540939E-1    4.320667086867814E-1
 8.197147103600000E9    -1.702970147020170E-1    5.077573502017758E-1   -3.168163704186491E-3   -7.548445500650870E-4   -3.249104917265230E-3   -6.374245146824346E-4   -1.100835587658756E-1    4.321392087126479E-1
 8.197149759800000E9    -1.699929043884738E-1    5.077097044938639E-1   -3.177495541164027E-3   -7.627203524417101E-4   -3.254312282278817E-3   -6.327192317426461E-4   -1.100329201083967E-1    4.322874458990269E-1
 8.197152416000000E9    -1.697027649381675E-1    5.079511833201460E-1   -3.155696592646816E-3   -7.412673759181779E-4   -3.260010548579052E-3   -6.534302180713590E-4   -1.098904335740732E-1    4.322617922362486E-1
 8.197155072200000E9    -1.696309691622089E-1    5.079140016749978E-1   -3.179306292228630E-3   -7.409210567351380E-4   -3.276411502228905E-3   -6.367766401955068E-4   -1.098329553700618E-1    4.322412908590306E-1
 8.197157728400000E9    -1.694510547671715E-1    5.079886793698225E-1   -3.163530176009738E-3   -7.398143982933500E-4   -3.285985888712056E-3   -6.179654914706600E-4   -1.095763304361967E-1    4.321010812185338E-1
 8.197160384600000E9    -1.691651671828802E-1    5.080812796774180E-1   -3.156914775768400E-3   -7.669450954893727E-4   -3.272960674971442E-3   -6.397456627060957E-4   -1.094130156441370E-1    4.323770705999331E-1
 8.197163040800000E9    -1.688683402695675E-1    5.081999475253867E-1   -3.174323132597792E-3   -7.643564069772231E-4   -3.265333129974211E-3   -6.363010502796671E-4   -1.094160441824876E-1    4.324060467071551E-1
 8.197165697000000E9    -1.687366316808490E-1    5.081377051007819E-1   -3.204663245357893E-3   -7.536261542418279E-4   -3.270692161583362E-3   -6.589430463389690E-4   -1.091230017651977E-1    4.323895175120898E-1
 8.197168353200000E9    -1.685706459071202E-1    5.082492267271862E-1   -3.213014409939477E-3   -7.391627053075139E-4   -3.294902502857724E-3   -6.127442876911579E-4   -1.089922673733403E-1    4.324180176982598E-1
 8.197171009400000E9    -1.683553156977782E-1    5.082856052989134E-1   -3.204994312656066E-3   -7.490253867219643E-4   -3.294730941893911E-3   -6.386830477722871E-4   -1.089511529932646E-1    4.324155012034416E-1
 8.197173665600000E9    -1.682013872916768E-1    5.083650747421045E-1   -3.173211684430690E-3   -7.323111702330522E-4   -3.319960489255634E-3   -6.398527062750966E-4   -1.087490845334757E-1    4.323924015771172E-1
 8.197176321800000E9    -1.678320314763329E-1    5.084276232528113E-1   -3.217768242835225E-3   -7.456974967197847E-4   -3.321043036335809E-3   -6.437479881901198E-4   -1.086521256716127E-1    4.325055371075056E-1
 8.197178978000000E9    -1.677820145589714E-1    5.084504228221444E-1   -3.222306836404710E-3   -7.464844696452207E-4   -3.325179533940441E-3   -5.945903967821387E-4   -1.083589733575668E-1    4.325593476663530E-1
 8.197181634200000E9    -1.674169884460695E-1    5.084667503549913E-1   -3.218941042534272E-3   -7.502850163306376E-4   -3.322288552512374E-3   -6.512660097789713E-4   -1.083029410699697E-1    4.324744667014826E-1
 8.197184290400000E9    -1.672809727626200E-1    5.086865808872997E-1   -3.214596983334535E-3   -7.414360319842430E-4   -3.293071963995314E-3   -6.086094978988391E-4   -1.081521226898929E-1    4.324289517660269E-1
 8.197186946600000E9    -1.672495035060612E-1    5.086429078647354E-1   -3.232851678125127E-3   -7.267139197380470E-4   -3.333920515966612E-3   -6.107554270216445E-4   -1.080406832009072E-1    4.325213304212421E-1
 8.197189602800000E9    -1.668596035201234E-1    5.086708347683161E-1   -3.224587448514569E-3   -7.528731911842213E-4   -3.307980741777683E-3   -6.160099220606847E-4   -1.079199017209078E-1    4.326989504646553E-1
 8.197192259000000E9    -1.667775006149616E-1    5.087903126472247E-1   -3.256219506295384E-3   -7.610674318287505E-4   -3.336436012810719E-3   -6.203061239373124E-4   -1.075695242969732E-1    4.326712469244240E-1
 8.197194915200000E9    -1.665403792504865E-1    5.088016489559835E-1   -3.224965419815938E-3   -7.366114719222027E-4   -3.337780156136916E-3   -5.949948817388571E-4   -1.075286047809549E-1    4.327341655760820E-1
 8.197197571400000E9    -1.662695303290605E-1    5.088938476162350E-1   -3.236189017004743E-3   -7.423750561108913E-4   -3.352716622619982E-3   -6.441890128896187E-4   -1.072913053396927E-1    4.326770964934880E-1
 8.197200227600000E9    -1.660444707039633E-1    5.089076372883952E-1   -3.255176705529082E-3   -7.045648563149562E-4   -3.350370379346528E-3   -6.185917274806182E-4   -1.072801565366702E-1    4.327653931807368E-1
 8.197202883800000E9    -1.659512327853356E-1    5.089855358381193E-1   -3.253325735963562E-3   -7.362363187544421E-4   -3.365567030917730E-3   -6.199494022859223E-4   -1.070784937137652E-1    4.327706676179603E-1
 8.197205540000000E9    -1.656766233359575E-1    5.090118931107559E-1   -3.254722481998007E-3   -7.205847916208246E-4   -3.358919313603472E-3   -5.754154619993514E-4   -1.068441131867952E-1    4.328712269900479E-1
 8.197208196200000E9    -1.654157664083678E-1    5.091468219989406E-1   -3.268827100616247E-3   -7.308932467332287E-4   -3.387365534570055E-3   -5.893500935040122E-4   -1.067273171639032E-1    4.328756253593035E-1
 8.197210852400000E9    -1.652769085063612E-1    5.091483835667162E-1   -3.277481909752021E-3   -7.382623575695871E-4   -3.387482648949851E-3   -6.341587286039466E-4   -1.066531758587023E-1    4.328308813102127E-1
 8.197213508600000E9    -1.650047979296960E-1    5.092818858254832E-1   -3.289240399142257E-3   -6.976657710735057E-4   -3.390414374533978E-3   -6.214334435113624E-4   -1.065279699294107E-1    4.330062365830888E-1
 8.197216164800000E9    -1.647556121786619E-1    5.091864660518101E-1   -3.280044935645445E-3   -7.323317325917750E-4   -3.438142892692368E-3   -6.131775535065867E-4   -1.063664155952841E-1    4.329638462508943E-1
 8.197218821000000E9    -1.646404344799705E-1    5.092813499060395E-1   -3.308044182714670E-3   -7.288574281081308E-4   -3.392095608109184E-3   -6.124923637599113E-4   -1.063512380302010E-1    4.330243142050229E-1
 8.197221477200000E9    -1.642960870786370E-1    5.094254352891079E-1   -3.305298097674917E-3   -7.336042950993213E-4   -3.403929449034693E-3   -5.940015330984342E-4   -1.060194507464897E-1    4.331388627739115E-1
 8.197224133400000E9    -1.640476007111432E-1    5.095065854964612E-1   -3.297736555629289E-3   -7.473497884661059E-4   -3.423108085620250E-3   -5.846863004463480E-4   -1.059461399282572E-1    4.329315068051758E-1
 8.197226789600000E9    -1.637700440822720E-1    5.095351862260410E-1   -3.356675070464282E-3   -7.202973674560343E-4   -3.426239109891337E-3   -6.113412320161451E-4   -1.057118031586371E-1    4.331546525518399E-1
 8.197229445800000E9    -1.637529937257094E-1    5.095494222404219E-1   -3.308995684417476E-3   -7.039183527670631E-4   -3.406083083726861E-3   -5.972856967174862E-4   -1.056654156608415E-1    4.331949235750116E-1
 8.197232102000000E9    -1.634757716244704E-1    5.096535176299615E-1   -3.328995881286452E-3   -7.375232550884217E-4   -3.430145186044353E-3   -5.983135788265826E-4   -1.054902171204921E-1    4.331890896578690E-1
 8.197234758200000E9    -1.631999995569970E-1    5.096699899573488E-1   -3.332973153613028E-3   -7.569206611154996E-4   -3.451594528844454E-3   -5.899925220159086E-4   -1.053053955639220E-1    4.330462038518814E-1
 8.197237414400000E9    -1.630872594091648E-1    5.098144393588169E-1   -3.353213515868192E-3   -7.229087449559536E-4   -3.416880714840574E-3   -6.192583561184680E-4   -1.051713553635759E-1    4.332733229310872E-1
 8.197240070600000E9    -1.627977906623979E-1    5.098299087589818E-1   -3.333579978431274E-3   -7.098167829816364E-4   -3.450648705372317E-3   -6.010799714862674E-4   -1.050047047452202E-1    4.332400840273002E-1
 8.197242726800000E9    -1.626007171283011E-1    5.097871255088271E-1   -3.355318801282426E-3   -7.225095391112152E-4   -3.453249355648707E-3   -5.778641810369843E-4   -1.048964145439598E-1    4.332744257823328E-1
 8.197245383000000E9    -1.623557546614922E-1    5.100703873503633E-1   -3.392291100908783E-3   -7.309159265402368E-4   -3.492961187376350E-3   -5.999412755047958E-4   -1.046608295754035E-1    4.332927566203963E-1
 8.197248039200000E9    -1.621616072769615E-1    5.099099178881591E-1   -3.367402775088476E-3   -6.924079032164341E-4   -3.462491121300740E-3   -6.060913628159793E-4   -1.045746531215507E-1    4.332575193947744E-1
 8.197250695400000E9    -1.620168610924995E-1    5.100777613686777E-1   -3.392110724974092E-3   -7.232594860788074E-4   -3.510553745795399E-3   -5.957361221925666E-4   -1.044609149910689E-1    4.333242407425797E-1
 8.197253351600000E9    -1.617508708136566E-1    5.100723128809123E-1   -3.370246674411756E-3   -6.839674008149886E-4   -3.512774172197081E-3   -5.998851321733986E-4   -1.042567512513292E-1    4.334012698367928E-1
 8.197256007800000E9    -1.615582690462085E-1    5.102106191140116E-1   -3.375993927717930E-3   -6.928142889581294E-4   -3.472040676540349E-3   -5.928127255100779E-4   -1.040349338442996E-1    4.334359931971576E-1
 8.197258664000000E9    -1.613219035087750E-1    5.102315336372766E-1   -3.416448756063145E-3   -7.258748550243207E-4   -3.505399412270026E-3   -5.874378878622314E-4   -1.039603361028252E-1    4.333738900758077E-1
 8.197261320200000E9    -1.609717219400218E-1    5.103088576101388E-1   -3.407956615283093E-3   -7.223697329072034E-4   -3.496424539940229E-3   -5.916324810995136E-4   -1.039552846026723E-1    4.335669501456466E-1
 8.197263976400000E9    -1.607647181246282E-1    5.102866173580942E-1   -3.418088874651347E-3   -7.100735818195819E-4   -3.522997251684927E-3   -5.910098134221766E-4   -1.037158463532451E-1    4.334833753701811E-1
 8.197266632600000E9    -1.605667174875144E-1    5.102905957634528E-1   -3.433564970476569E-3   -7.393021004821246E-4   -3.539195698890319E-3   -5.964263979310029E-4   -1.035714930961400E-1    4.336195210336091E-1
 8.197269288800000E9    -1.603730858539771E-1    5.104003267772146E-1   -3.403936276217848E-3   -6.584257145177797E-4   -3.514512352240447E-3   -6.064578520774508E-4   -1.033814350049488E-1    4.336409837636887E-1
 8.197271945000000E9    -1.601056701185642E-1    5.106168878034569E-1   -3.432113080622167E-3   -7.175130149026841E-4   -3.538949646636310E-3   -5.679386563836414E-4   -1.033705034338844E-1    4.334367875831804E-1
