#  HZ   S   RI   R     50.00 
! Rohde & Schwarz Vector Network Analyzer 
! Rohde-Schwarz,ZNB20-2Port,1311601062101988,3.16
! Created: UTC 3/20/2024, 5:14:48 PM
! freq[Hz]                re:S11                  im:S11                  re:S21                  im:S21                  re:S12                  im:S12                  re:S22                  im:S22
 8.197046592000000E9    -1.778119810864581E-1    5.054522784990083E-1   -3.024059367396980E-3   -7.817420495231253E-4   -3.100459006253714E-3   -6.755502322524837E-4   -1.158074383719437E-1    4.309289678830652E-1
 8.197049195325000E9    -1.775337650902437E-1    5.055187648396254E-1   -2.997768566564953E-3   -7.791569526891954E-4   -3.113430168100578E-3   -6.297459482741309E-4   -1.157000123759427E-1    4.309415951423807E-1
 8.197051798650000E9    -1.774099931430158E-1    5.054952042386774E-1   -3.031216217096935E-3   -7.770619233560695E-4   -3.128558361702248E-3   -6.651749050671304E-4   -1.155223596721709E-1    4.309645078891401E-1
 8.197054401975000E9    -1.771753845509758E-1    5.056552127231823E-1   -3.041752799035291E-3   -7.966171097468230E-4   -3.109388692650435E-3   -6.778353951334688E-4   -1.152451983558278E-1    4.309088736490084E-1
 8.197057005300000E9    -1.769645149175027E-1    5.056212351611672E-1   -3.012650069259569E-3   -7.755265466561507E-4   -3.107576257911172E-3   -6.822095206758051E-4   -1.151248682870946E-1    4.308974083981774E-1
 8.197059608625000E9    -1.768835866028380E-1    5.057078176948019E-1   -3.058755345716382E-3   -7.774415266554411E-4   -3.088177586607976E-3   -6.735468482756902E-4   -1.149987437529050E-1    4.310698383740854E-1
 8.197062211950000E9    -1.765970679564672E-1    5.057929083193805E-1   -3.018000971246873E-3   -7.768643698081734E-4   -3.123609218970626E-3   -6.457158798959961E-4   -1.149224731851553E-1    4.309715494637792E-1
 8.197064815275000E9    -1.764502727831667E-1    5.060100026657908E-1   -3.048009638396689E-3   -7.623253049749151E-4   -3.130065223172960E-3   -6.880296908465296E-4   -1.147027516081653E-1    4.311397238304709E-1
 8.197067418600000E9    -1.762112538360062E-1    5.058852057253959E-1   -3.057582317893835E-3   -7.731118586081610E-4   -3.130653122419758E-3   -6.876988994495253E-4   -1.145599259424507E-1    4.312290367481082E-1
 8.197070021925000E9    -1.760965166296681E-1    5.059640991215432E-1   -3.039621147658738E-3   -8.036787529834027E-4   -3.131824720436240E-3   -6.509634411940210E-4   -1.144461448120088E-1    4.311967600660547E-1
 8.197072625250000E9    -1.758071721775407E-1    5.061510450804957E-1   -3.096016981592625E-3   -7.596183932254950E-4   -3.130603142730129E-3   -6.707803722064861E-4   -1.143587784371356E-1    4.311586383618716E-1
 8.197075228575000E9    -1.756143423155054E-1    5.061751677666811E-1   -3.053568731165161E-3   -7.799918128307945E-4   -3.172978661585709E-3   -6.588040411523781E-4   -1.141198825919784E-1    4.311757191083974E-1
 8.197077831900000E9    -1.753683913702384E-1    5.061653688692334E-1   -3.050818780685418E-3   -7.846779344135727E-4   -3.181164023566678E-3   -6.700263033272888E-4   -1.140245462823591E-1    4.312591962245413E-1
 8.197080435225000E9    -1.752213672299447E-1    5.062595496042310E-1   -3.071503784010261E-3   -7.780198049293250E-4   -3.145344956487647E-3   -6.343736360006112E-4   -1.137315367598423E-1    4.312818845624256E-1
 8.197083038550000E9    -1.750779478548069E-1    5.062322740254933E-1   -3.065707543219075E-3   -7.632587759271896E-4   -3.167671159239052E-3   -6.765438565467680E-4   -1.137099779691479E-1    4.314537548022633E-1
 8.197085641875000E9    -1.748812024742789E-1    5.063711238613721E-1   -3.079045048052620E-3   -7.828852060494902E-4   -3.135423780308923E-3   -6.832285266145754E-4   -1.135683956449979E-1    4.314136216763143E-1
 8.197088245200000E9    -1.746672138279586E-1    5.063478595600178E-1   -3.068029534547391E-3   -7.689432626182751E-4   -3.133285112752208E-3   -6.619620581301494E-4   -1.132757502761090E-1    4.313737200743756E-1
 8.197090848525000E9    -1.743957307200384E-1    5.064117254773489E-1   -3.067140913991951E-3   -7.550351762843001E-4   -3.167127956144332E-3   -6.769604540543640E-4   -1.133062131348155E-1    4.313608604166956E-1
 8.197093451850000E9    -1.742577780110569E-1    5.065266917771759E-1   -3.084942919280366E-3   -7.893291703337087E-4   -3.169356884109275E-3   -6.461928634706987E-4   -1.130253713691684E-1    4.314829942801523E-1
 8.197096055175000E9    -1.740443448185656E-1    5.065996937880977E-1   -3.059827212359789E-3   -7.611282142368805E-4   -3.172520973008265E-3   -6.807300755270028E-4   -1.129367625415974E-1    4.315680109973590E-1
 8.197098658500000E9    -1.738767460384786E-1    5.065825086595912E-1   -3.086054798918783E-3   -7.666020921309384E-4   -3.180024952064020E-3   -6.552595860949166E-4   -1.128082742298259E-1    4.316192367066904E-1
 8.197101261825000E9    -1.736432827920185E-1    5.067677660535985E-1   -3.108616892704804E-3   -7.599000421556737E-4   -3.173652681249464E-3   -6.354658641277510E-4   -1.127181067287234E-1    4.314758046244185E-1
 8.197103865150000E9    -1.734471672465558E-1    5.069158856635115E-1   -3.095084987545900E-3   -7.572707369506526E-4   -3.180036622285788E-3   -6.574947928735010E-4   -1.125813120272207E-1    4.315175144333357E-1
 8.197106468475000E9    -1.733141927972199E-1    5.068032834462478E-1   -3.108090258855679E-3   -7.554876683429462E-4   -3.189622781013609E-3   -6.526721541011482E-4   -1.123188179151971E-1    4.315375077340227E-1
 8.197109071800000E9    -1.730681904867179E-1    5.068880497092271E-1   -3.092444370575166E-3   -7.686774301336287E-4   -3.202411580330658E-3   -6.515256677779095E-4   -1.123282378440377E-1    4.315656177183067E-1
 8.197111675125000E9    -1.728656024684052E-1    5.068709021930378E-1   -3.081105977717988E-3   -7.615622530309191E-4   -3.187589584536848E-3   -6.262847248787147E-4   -1.121083990624499E-1    4.317227138190161E-1
 8.197114278450000E9    -1.726290349495193E-1    5.070053561698311E-1   -3.109491755463371E-3   -7.397861480958776E-4   -3.182441309566002E-3   -6.444345380123146E-4   -1.120892172793375E-1    4.317257431445438E-1
 8.197116881775000E9    -1.725814031308463E-1    5.071027907614439E-1   -3.124481590126993E-3   -7.667676051169818E-4   -3.223205085132704E-3   -6.630976824031419E-4   -1.119098138928401E-1    4.317548533887479E-1
 8.197119485100000E9    -1.722973845239331E-1    5.071577418343292E-1   -3.110848073957284E-3   -7.525470367110125E-4   -3.210286008281914E-3   -6.658846113109524E-4   -1.116957278894908E-1    4.316357320740630E-1
 8.197122088425000E9    -1.721367369458152E-1    5.072137648473400E-1   -3.120616748393362E-3   -7.701535124969261E-4   -3.194553986326114E-3   -6.423938768752899E-4   -1.115487328168605E-1    4.318904954731995E-1
 8.197124691750000E9    -1.719917480734557E-1    5.071398458197114E-1   -3.127658231340333E-3   -7.476367204918004E-4   -3.236829109462447E-3   -6.232421679019405E-4   -1.113851499425415E-1    4.317510614470027E-1
 8.197127295075000E9    -1.716862335659290E-1    5.073406572084620E-1   -3.110084246974590E-3   -7.580883512933483E-4   -3.210746986513711E-3   -6.514830065243131E-4   -1.112934275691462E-1    4.317460279782951E-1
 8.197129898400000E9    -1.714371521984676E-1    5.073269800327876E-1   -3.171907556235602E-3   -7.628448727196444E-4   -3.237633774329156E-3   -6.319937574518489E-4   -1.111777839917314E-1    4.317644406296827E-1
 8.197132501725000E9    -1.713176215872377E-1    5.075486303531420E-1   -3.134773161042174E-3   -7.503382359704018E-4   -3.210978197863729E-3   -6.505534774562489E-4   -1.110837523634556E-1    4.318932897968963E-1
 8.197135105050000E9    -1.711266450999508E-1    5.075551348517577E-1   -3.153315198127732E-3   -7.706859508790838E-4   -3.224904307065680E-3   -6.559257694802123E-4   -1.107242194709873E-1    4.318587872262343E-1
 8.197137708375000E9    -1.709646964220423E-1    5.076340528306509E-1   -3.133293640290189E-3   -7.595906363985068E-4   -3.228378118715227E-3   -6.625284736640099E-4   -1.106534241815741E-1    4.319164686320859E-1
 8.197140311700000E9    -1.707439836678137E-1    5.075849909489033E-1   -3.166333783116113E-3   -7.464399126656456E-4   -3.253166517735578E-3   -6.382788649070619E-4   -1.106603246959580E-1    4.319947497857921E-1
 8.197142915025000E9    -1.704496331305521E-1    5.075928557546112E-1   -3.144940840665884E-3   -7.545140298495823E-4   -3.223116614252133E-3   -6.202741475869786E-4   -1.105323337889927E-1    4.320617265426898E-1
 8.197145518350000E9    -1.702824757482637E-1    5.077995257703336E-1   -3.146789647430496E-3   -7.553200283573455E-4   -3.212300094913242E-3   -6.357423931083080E-4   -1.103642621714053E-1    4.320957072513692E-1
 8.197148121675000E9    -1.702039089580963E-1    5.078576657490349E-1   -3.150626444337777E-3   -7.526910921558666E-4   -3.235807637164600E-3   -6.408214525880442E-4   -1.100654116928428E-1    4.322708784365191E-1
 8.197150725000000E9    -1.699009850689356E-1    5.078534978385004E-1   -3.149326038805929E-3   -7.518814916131213E-4   -3.267580825082593E-3   -6.411791571827983E-4   -1.099236935617657E-1    4.321349497194362E-1
 8.197153328325000E9    -1.696810379986716E-1    5.079949499039571E-1   -3.184714129552999E-3   -7.632023391441474E-4   -3.264967117753387E-3   -6.229317592695865E-4   -1.098157846063014E-1    4.321403160183270E-1
 8.197155931650000E9    -1.696313644355659E-1    5.078514223633213E-1   -3.151963664815129E-3   -7.409480235914671E-4   -3.262798968168415E-3   -6.410223614474768E-4   -1.096514322403005E-1    4.321393907240373E-1
 8.197158534975000E9    -1.693133994604176E-1    5.080510009698138E-1   -3.150089827375145E-3   -7.639751828856608E-4   -3.298697977593329E-3   -6.468369665641074E-4   -1.095873593590738E-1    4.323549592087200E-1
 8.197161138300000E9    -1.690676668895231E-1    5.080561187348989E-1   -3.188134425687591E-3   -7.464286078234784E-4   -3.285767896883710E-3   -6.175522204296449E-4   -1.093295479162559E-1    4.323224983632052E-1
 8.197163741625000E9    -1.689101209663358E-1    5.082424469848100E-1   -3.193847097048783E-3   -7.438517971166362E-4   -3.284315421505567E-3   -6.460315245554282E-4   -1.093210932177960E-1    4.323848292551759E-1
 8.197166344950000E9    -1.687645008122522E-1    5.082548841143579E-1   -3.202093003263246E-3   -7.413487136889282E-4   -3.270943539366408E-3   -6.509998511424738E-4   -1.091773166370915E-1    4.324682968739065E-1
 8.197168948275000E9    -1.684622294962154E-1    5.083260794600463E-1   -3.197917317966883E-3   -7.492434938414699E-4   -3.265886454450851E-3   -6.156081414336023E-4   -1.090738018610504E-1    4.324136828347069E-1
 8.197171551600000E9    -1.684457991095754E-1    5.084148276572549E-1   -3.203988125804298E-3   -7.220510154205057E-4   -3.280522140001250E-3   -6.371049965612850E-4   -1.088593283977845E-1    4.323567384698409E-1
 8.197174154925000E9    -1.680414355100016E-1    5.083548167573205E-1   -3.211678885129679E-3   -7.244172433255960E-4   -3.278663102578753E-3   -6.302560491691635E-4   -1.088463853946762E-1    4.325236142303220E-1
 8.197176758250000E9    -1.680974784052599E-1    5.084232801979768E-1   -3.201989552922339E-3   -7.582779566541042E-4   -3.311252192952297E-3   -6.375079430739793E-4   -1.086081318530304E-1    4.326343662869406E-1
 8.197179361575000E9    -1.676716647210938E-1    5.085186523219787E-1   -3.224483665538197E-3   -7.535593825843322E-4   -3.302659669346940E-3   -6.342022372280206E-4   -1.084449585793792E-1    4.324068917202556E-1
 8.197181964900000E9    -1.676015788786834E-1    5.085979521006859E-1   -3.223809479149807E-3   -7.221563960429207E-4   -3.312034275980573E-3   -6.184073064318523E-4   -1.083310815794425E-1    4.324825953507089E-1
 8.197184568225000E9    -1.673420645779468E-1    5.086190184041216E-1   -3.218769631421466E-3   -7.307857539352413E-4   -3.307059810783467E-3   -6.187455219258204E-4   -1.079094395099905E-1    4.325003259805039E-1
 8.197187171550000E9    -1.671139465331306E-1    5.087242196028029E-1   -3.245221074414079E-3   -7.398209958183882E-4   -3.300918365561915E-3   -5.953790764361403E-4   -1.080850560607091E-1    4.325531116260158E-1
 8.197189774875000E9    -1.668868360691247E-1    5.087597186014458E-1   -3.225310824220887E-3   -7.579585361511029E-4   -3.344225544067882E-3   -6.486239145365211E-4   -1.078355241662264E-1    4.327065294465852E-1
 8.197192378200000E9    -1.667027568360994E-1    5.087787241519033E-1   -3.224898621320084E-3   -7.497567439220882E-4   -3.329403730914384E-3   -6.081370230058797E-4   -1.077378833548817E-1    4.326868647309445E-1
 8.197194981525000E9    -1.665508891289796E-1    5.089170221371996E-1   -3.247834697020139E-3   -7.290259839808684E-4   -3.334518447926839E-3   -6.310448122258712E-4   -1.074659996100652E-1    4.327075476282695E-1
 8.197197584850000E9    -1.662451711414649E-1    5.089202539032924E-1   -3.232370180304246E-3   -7.207104849066129E-4   -3.353550633159287E-3   -6.405078457255016E-4   -1.074758009229700E-1    4.328501730426453E-1
 8.197200188175000E9    -1.661158431225718E-1    5.090554814707333E-1   -3.265772474015171E-3   -7.475067159104116E-4   -3.362435257541310E-3   -6.127023496220221E-4   -1.072248176399221E-1    4.328227450289573E-1
 8.197202791500000E9    -1.658922213160580E-1    5.089835056917650E-1   -3.272067344980437E-3   -7.171025548242915E-4   -3.316340205136417E-3   -6.130497346686635E-4   -1.071484048544540E-1    4.328407431260636E-1
 8.197205394825000E9    -1.655660304518499E-1    5.090525818193323E-1   -3.260048117492201E-3   -7.059784664843719E-4   -3.361731960945755E-3   -6.085217895432941E-4   -1.070713080147971E-1    4.328668921125360E-1
 8.197207998150000E9    -1.655342228356482E-1    5.090594294057501E-1   -3.268609877707757E-3   -7.273101220542403E-4   -3.376161882059629E-3   -6.310292558009199E-4   -1.067246894521970E-1    4.328353015792533E-1
 8.197210601475000E9    -1.652292394942226E-1    5.090311446266150E-1   -3.267898408981173E-3   -7.340927290472918E-4   -3.394281133040150E-3   -6.006605462342292E-4   -1.066729887881998E-1    4.329580486911526E-1
 8.197213204800000E9    -1.650991363077998E-1    5.091949319810952E-1   -3.295348085788238E-3   -7.469083884520617E-4   -3.377535262275569E-3   -6.193625668062179E-4   -1.065405760180922E-1    4.328500623492983E-1
 8.197215808125000E9    -1.648598356228259E-1    5.093643549058160E-1   -3.299564856222515E-3   -7.307443492162482E-4   -3.386963968990277E-3   -6.067930725699080E-4   -1.064054665656625E-1    4.330062251799170E-1
 8.197218411450000E9    -1.647130746973230E-1    5.094128541530045E-1   -3.294233414489381E-3   -7.112756638642136E-4   -3.381245210298127E-3   -6.070396425131936E-4   -1.062252074103087E-1    4.330289464725806E-1
 8.197221014775000E9    -1.643818488834874E-1    5.094595651532767E-1   -3.275148706665398E-3   -7.497952181536329E-4   -3.375657495699404E-3   -6.024835281243857E-4   -1.060444898321000E-1    4.330069009426504E-1
 8.197223618100000E9    -1.641953098242865E-1    5.094503296505066E-1   -3.292191430596829E-3   -7.233592155064344E-4   -3.399789122742131E-3   -5.932074724977484E-4   -1.060067995764024E-1    4.330638605792720E-1
 8.197226221425000E9    -1.639131914549382E-1    5.096177177777222E-1   -3.322740695905541E-3   -7.526111333860798E-4   -3.399445322549225E-3   -6.281687271193951E-4   -1.058199890783559E-1    4.329661506742196E-1
 8.197228824750000E9    -1.638987677207803E-1    5.095843895580783E-1   -3.326994198550375E-3   -7.046228404845433E-4   -3.403845698463824E-3   -5.982328920409994E-4   -1.057448975752431E-1    4.331011440009142E-1
 8.197231428075000E9    -1.635482240389819E-1    5.096414537160608E-1   -3.312245759532497E-3   -7.016471287091566E-4   -3.419313885564209E-3   -6.190206338271892E-4   -1.055882623160416E-1    4.332288505649662E-1
 8.197234031400000E9    -1.634235772503805E-1    5.097586859978243E-1   -3.320901601828545E-3   -7.222598886373086E-4   -3.406718498445965E-3   -5.894823846196157E-4   -1.054628442399177E-1    4.331688557047499E-1
 8.197236634725000E9    -1.631772399652232E-1    5.098041474154011E-1   -3.330026162369077E-3   -7.523605748663390E-4   -3.411984218807166E-3   -6.074375713616855E-4   -1.054036758246888E-1    4.332079304820580E-1
 8.197239238050000E9    -1.630179066902482E-1    5.097452534148204E-1   -3.332515292570675E-3   -6.991364411988892E-4   -3.445784647779587E-3   -6.243949781840766E-4   -1.051495919788123E-1    4.331586811221160E-1
 8.197241841375000E9    -1.627301196744888E-1    5.099323970828537E-1   -3.355715151403249E-3   -7.124364055743259E-4   -3.414585441966692E-3   -6.236736503712600E-4   -1.050357356101726E-1    4.333516978814655E-1
 8.197244444700000E9    -1.623864756183227E-1    5.098650110871360E-1   -3.364359429520921E-3   -7.361557488544068E-4   -3.469869838732708E-3   -5.905478104665409E-4   -1.048254450450865E-1    4.333488271429922E-1
 8.197247048025000E9    -1.623346631157540E-1    5.100782308197833E-1   -3.352743207588779E-3   -7.172782108294645E-4   -3.457707265305115E-3   -5.748880546344149E-4   -1.047341825501627E-1    4.332334674419319E-1
 8.197249651350000E9    -1.620611857857494E-1    5.100963512217012E-1   -3.376077334209892E-3   -7.191924783842324E-4   -3.463833439919007E-3   -5.720293352122028E-4   -1.044478820040983E-1    4.334433470521236E-1
 8.197252254675000E9    -1.618879315564116E-1    5.101360747120514E-1   -3.368734590331593E-3   -7.191598898703206E-4   -3.477847217303108E-3   -5.694254865451018E-4   -1.044262735775044E-1    4.334143246045744E-1
 8.197254858000000E9    -1.617787371640045E-1    5.101929038937109E-1   -3.389291324396269E-3   -7.026838673077024E-4   -3.473236112190817E-3   -6.226502813327376E-4   -1.043373238396889E-1    4.333267281154818E-1
 8.197257461325000E9    -1.613809618828674E-1    5.101978518096585E-1   -3.398818105080883E-3   -7.239696037238049E-4   -3.506778690494248E-3   -6.025304489676387E-4   -1.041298443472099E-1    4.333980506605490E-1
 8.197260064650000E9    -1.612681029570457E-1    5.102942784664103E-1   -3.412675598620506E-3   -7.182877427348877E-4   -3.499931552336825E-3   -5.672468342210774E-4   -1.039457811377863E-1    4.334769940172576E-1
 8.197262667975000E9    -1.609184578012867E-1    5.103141898404097E-1   -3.393385165861623E-3   -6.868300676298995E-4   -3.497628956613935E-3   -5.638292084153294E-4   -1.038854014065677E-1    4.336092697745050E-1
 8.197265271300000E9    -1.608417491363080E-1    5.103150339002034E-1   -3.420170373185759E-3   -7.005191232801777E-4   -3.508021350704448E-3   -5.623222154677096E-4   -1.035596886475996E-1    4.333431943090467E-1
 8.197267874625000E9    -1.604911289811962E-1    5.104180171669475E-1   -3.415922536221039E-3   -6.966394081909641E-4   -3.503150460047982E-3   -6.029035217515894E-4   -1.035647060356159E-1    4.336593844818065E-1
 8.197270477950000E9    -1.602924121576122E-1    5.105004314577067E-1   -3.435985169412409E-3   -7.157523046811455E-4   -3.512423020635386E-3   -5.366644279971843E-4   -1.033364488180211E-1    4.336184754783506E-1
 8.197273081275000E9    -1.601229718234230E-1    5.105575887554957E-1   -3.452298328712559E-3   -7.129977925895969E-4   -3.543022089207943E-3   -5.948680432246559E-4   -1.033126672382579E-1    4.334559853757135E-1
 8.197275684600000E9    -1.598298684431760E-1    5.104537889128695E-1   -3.465432394654511E-3   -7.130290883398132E-4   -3.535897816082862E-3   -5.747563681992497E-4   -1.030799819057316E-1    4.337223015086624E-1
 8.197278287925000E9    -1.597234705688023E-1    5.106918839177733E-1   -3.445130796848299E-3   -6.958491221375700E-4   -3.527008397223694E-3   -5.805740664717591E-4   -1.029269384935553E-1    4.337678718835402E-1
 8.197280891250000E9    -1.594934678520683E-1    5.106510388836327E-1   -3.442114450086766E-3   -6.857015368945750E-4   -3.559905681270650E-3   -5.795762969178108E-4   -1.029405945641341E-1    4.336795156804432E-1
