#  HZ   S   RI   R     50.00 
! Rohde & Schwarz Vector Network Analyzer 
! Rohde-Schwarz,ZNB20-2Port,1311601062101988,3.16
! Created: UTC 3/20/2024, 4:59:46 PM
! freq[Hz]                re:S11                  im:S11                  re:S21                  im:S21                  re:S12                  im:S12                  re:S22                  im:S22
 8.157576954000000E9     4.311009320110302E-1    3.181255517940007E-1   -1.230230136646422E-3    2.393257936248983E-3   -1.195564683520106E-3    2.351259615322439E-3    4.679644147304575E-1    1.713102097021188E-1
 8.157757038775000E9     4.384500962191372E-1    3.084839405195250E-1   -1.169993809971912E-3    2.411513193794246E-3   -1.147754389593192E-3    2.443129641215906E-3    4.714151149541758E-1    1.608107658169389E-1
 8.157937123550000E9     4.454293086699191E-1    2.986607284254258E-1   -1.116094534553980E-3    2.406721038101441E-3   -1.095856128981878E-3    2.442956366611001E-3    4.746502152546824E-1    1.503577471472428E-1
 8.158117208325000E9     4.521901235366169E-1    2.886003624136175E-1   -1.037726647112910E-3    2.436925666075783E-3   -1.041398483663386E-3    2.443198686159193E-3    4.776528013675823E-1    1.397487232339270E-1
 8.158297293100000E9     4.587596063348442E-1    2.785433176392112E-1   -9.826179852215264E-4    2.456009321440506E-3   -9.399508300299710E-4    2.448454140642174E-3    4.804686767643717E-1    1.288572352289683E-1
 8.158477377875000E9     4.650697351183369E-1    2.681655770181272E-1   -9.206664217707765E-4    2.452593252298624E-3   -8.920019128647526E-4    2.474406820855556E-3    4.829388930751007E-1    1.182416556202536E-1
 8.158657462650000E9     4.711662002386969E-1    2.576417329134492E-1   -8.555888025277372E-4    2.472817581686764E-3   -8.817263470316792E-4    2.492711051010798E-3    4.851331737986808E-1    1.074771666304481E-1
 8.158837547425000E9     4.771093108220935E-1    2.471107119738177E-1   -7.944347060034871E-4    2.507577530574298E-3   -8.052228697896125E-4    2.523114134573588E-3    4.871082945245053E-1    9.661218996538982E-2
 8.159017632200000E9     4.826761321105737E-1    2.363120595172799E-1   -7.234475449927342E-4    2.489699822168331E-3   -7.333059831717082E-4    2.494118784095105E-3    4.888368465140494E-1    8.577951321632658E-2
 8.159197716975000E9     4.880685827865271E-1    2.255899891170027E-1   -6.687742048922475E-4    2.521217246459419E-3   -6.738949727226659E-4    2.507087096872117E-3    4.903437292793677E-1    7.480883096949302E-2
 8.159377801750000E9     4.931547181198087E-1    2.146738165827646E-1   -6.270694428567341E-4    2.497049807968125E-3   -5.981587945512444E-4    2.524420021323571E-3    4.916080321545592E-1    6.383509457707176E-2
 8.159557886525000E9     4.981853773404213E-1    2.035058797110655E-1   -5.515469159624475E-4    2.532012236198733E-3   -5.753035857329485E-4    2.566957513287736E-3    4.927015060183138E-1    5.283650798935148E-2
 8.159737971300000E9     5.027995768333248E-1    1.923972572831040E-1   -4.903014077098512E-4    2.546008457194087E-3   -4.990984915064770E-4    2.535774872787544E-3    4.934267170502981E-1    4.196638057832401E-2
 8.159918056075000E9     5.071038069864082E-1    1.810449891273186E-1   -4.493228874601039E-4    2.554089965686040E-3   -4.406862545234148E-4    2.569873423214411E-3    4.939310192965636E-1    3.103445019454613E-2
 8.160098140850000E9     5.112145525633822E-1    1.697179218216198E-1   -3.833702049108799E-4    2.558976501376243E-3   -3.879711069703716E-4    2.571119423107871E-3    4.943163455162760E-1    2.013610025580808E-2
 8.160278225625000E9     5.150489131437156E-1    1.583067973322970E-1   -3.156213216594820E-4    2.543774538460890E-3   -3.193126598129003E-4    2.575213825256670E-3    4.944463851784385E-1    9.281131078601287E-3
 8.160458310400000E9     5.186563725892922E-1    1.467856177396175E-1   -2.585397823447821E-4    2.546316558333523E-3   -2.471673054447980E-4    2.608563642558831E-3    4.942065141955912E-1   -1.681337752715156E-3
 8.160638395175000E9     5.219428291695483E-1    1.350471259669301E-1   -1.662456998337526E-4    2.563195706771058E-3   -2.144073925210173E-4    2.566675369739159E-3    4.937311465544910E-1   -1.248378271457951E-2
 8.160818479950000E9     5.249969715595018E-1    1.232975754757631E-1   -1.331575072636625E-4    2.524449194141431E-3   -1.160632094691491E-4    2.554048474313027E-3    4.931658831792865E-1   -2.344545522199383E-2
 8.160998564725000E9     5.278382038881351E-1    1.117034894818148E-1   -7.811300870289575E-5    2.568401183868100E-3   -6.475861065833121E-5    2.547526634613902E-3    4.922157053934399E-1   -3.419044884914464E-2
 8.161178649500000E9     5.303415196440360E-1    9.974791694339395E-2   -3.900737256811479E-5    2.559686417908460E-3   -1.770609607161126E-5    2.523509254967027E-3    4.910434597234127E-1   -4.510407836896812E-2
 8.161358734275000E9     5.324788950826085E-1    8.783884503283984E-2    2.793168673990578E-5    2.530623484061106E-3    4.673972991877299E-5    2.566943059562338E-3    4.895609855634632E-1   -5.590033366495735E-2
 8.161538819050000E9     5.346409972737637E-1    7.605590597681559E-2    9.894973176599868E-5    2.533585004245092E-3    1.080071195204153E-4    2.567613075431769E-3    4.880312639308069E-1   -6.673367679914116E-2
 8.161718903825000E9     5.362962782037698E-1    6.411015441689452E-2    1.524630395817010E-4    2.525614938486494E-3    1.514908551676868E-4    2.554263315246523E-3    4.862493617339981E-1   -7.715538930663218E-2
 8.161898988600000E9     5.377930868807285E-1    5.202959835949473E-2    2.215276489285758E-4    2.534740731326557E-3    2.297438169399509E-4    2.494945037463493E-3    4.840166874249490E-1   -8.783400006328479E-2
 8.162079073375000E9     5.389468927870474E-1    4.004535339563021E-2    2.708301316539369E-4    2.508467957105633E-3    2.788483896383198E-4    2.526799283870074E-3    4.816645757535920E-1   -9.843293053296749E-2
 8.162259158150000E9     5.398002942485733E-1    2.792897487614788E-2    3.420586297579412E-4    2.478762145844423E-3    3.236858033748480E-4    2.505748836076207E-3    4.791874099878197E-1   -1.090003789211452E-1
 8.162439242925000E9     5.404755819139666E-1    1.576553366896286E-2    3.915384435425212E-4    2.479042219784863E-3    3.489537949309219E-4    2.468382919393180E-3    4.764987996467669E-1   -1.192989990542631E-1
 8.162619327700000E9     5.407693080127902E-1    3.749913164940238E-3    4.341294987615589E-4    2.456082612620981E-3    4.465309933396814E-4    2.469998021553419E-3    4.734653022846784E-1   -1.297943360455664E-1
 8.162799412475000E9     5.409170600445971E-1   -8.427957430107378E-3    5.029823405175182E-4    2.451455100896723E-3    4.828180614368681E-4    2.449145504814193E-3    4.699819574666946E-1   -1.400269427144147E-1
 8.162979497250000E9     5.407095965786594E-1   -2.053986626680802E-2    5.450926876017159E-4    2.423193871886567E-3    5.681880905204224E-4    2.432851183741935E-3    4.666665531412579E-1   -1.502346372215726E-1
 8.163159582025000E9     5.402446960700876E-1   -3.257585581785181E-2    5.644177225579731E-4    2.395757000095731E-3    6.115152276567525E-4    2.439494195188038E-3    4.630469729783362E-1   -1.604125575762330E-1
 8.163339666800000E9     5.395754441265003E-1   -4.461875799999123E-2    6.258788595872538E-4    2.376353850596649E-3    6.448586741021624E-4    2.394703452725383E-3    4.591069182847716E-1   -1.704125068437216E-1
 8.163519751575000E9     5.384465910639555E-1   -5.664929671424285E-2    7.166849929201170E-4    2.355151945899624E-3    6.813754393112536E-4    2.398495633588656E-3    4.550621891175031E-1   -1.801660066855347E-1
 8.163699836350000E9     5.372688098137622E-1   -6.878889259604222E-2    7.551566703228786E-4    2.325111423010338E-3    7.520157956741049E-4    2.384424091343568E-3    4.507199345399002E-1   -1.902738721207116E-1
 8.163879921125000E9     5.356675842479218E-1   -8.077834525504310E-2    8.185410699128637E-4    2.343905200803192E-3    8.171261127177754E-4    2.339091316910124E-3    4.462329640592526E-1   -1.999193172586679E-1
 8.164060005900000E9     5.338497372969281E-1   -9.271918967762115E-2    8.590742579803790E-4    2.302238918870869E-3    8.625228774497764E-4    2.341965510261712E-3    4.414378192700794E-1   -2.093671636167043E-1
 8.164240090675000E9     5.317122612023102E-1   -1.046808720910650E-1    8.950712500012618E-4    2.302949812946891E-3    9.091564899023093E-4    2.289491241901923E-3    4.364304147343142E-1   -2.189248383008635E-1
 8.164420175450000E9     5.294522867385058E-1   -1.166246895251309E-1    9.599011260232501E-4    2.259223403609997E-3    9.283310174253243E-4    2.263867787154671E-3    4.313019758346371E-1   -2.283998396817664E-1
 8.164600260225000E9     5.268855714044515E-1   -1.283353601316272E-1    1.018316027839544E-3    2.249103564981028E-3    1.012286280559325E-3    2.248953356569013E-3    4.258765213741522E-1   -2.375783295598445E-1
 8.164780345000000E9     5.238831667859515E-1   -1.402285466078905E-1    1.059071249345225E-3    2.196720081135506E-3    1.095907102478205E-3    2.258478326853697E-3    4.204323801509738E-1   -2.466934763065294E-1
 8.164960429775000E9     5.207009703207107E-1   -1.519045935334412E-1    1.100578049035096E-3    2.145767310911418E-3    1.123394857634332E-3    2.191127646188784E-3    4.146491552572587E-1   -2.557955652297000E-1
 8.165140514550000E9     5.173277082160606E-1   -1.633248798224320E-1    1.157553351703060E-3    2.135032466899010E-3    1.159415851309102E-3    2.196820781623973E-3    4.088560029706855E-1   -2.646142053078614E-1
 8.165320599325000E9     5.134562221972666E-1   -1.750224825643254E-1    1.217992853954496E-3    2.087609560330637E-3    1.218194265393108E-3    2.135256698491047E-3    4.025348669812451E-1   -2.733052374207908E-1
 8.165500684100000E9     5.096101824348654E-1   -1.865740759278458E-1    1.261889391794465E-3    2.080511286193483E-3    1.226751587839877E-3    2.098391237699209E-3    3.963608404056359E-1   -2.818939579224239E-1
 8.165680768875000E9     5.053886418346502E-1   -1.978046762677477E-1    1.304839955084751E-3    2.050069185810911E-3    1.304849385186719E-3    2.057753324981179E-3    3.897517691185098E-1   -2.901793991891816E-1
 8.165860853650000E9     5.009044602026563E-1   -2.091425091297819E-1    1.297268807686712E-3    2.014031309610383E-3    1.341897109674217E-3    2.043894260566501E-3    3.831815947188580E-1   -2.986258666293761E-1
 8.166040938425000E9     4.961862645610824E-1   -2.203009233348623E-1    1.356695974071862E-3    1.979075984243360E-3    1.392023690163000E-3    2.018838974163418E-3    3.763197863113493E-1   -3.067672628249324E-1
 8.166221023200000E9     4.912346580261614E-1   -2.314821336070987E-1    1.433398135769275E-3    1.948220370084260E-3    1.425390967587044E-3    1.994520289577692E-3    3.692520922549157E-1   -3.147094652735410E-1
 8.166401107975000E9     4.859979555568936E-1   -2.423328276543942E-1    1.444901259309848E-3    1.933190018963745E-3    1.454379550868153E-3    1.934252957647764E-3    3.621511585069854E-1   -3.224688102767929E-1
 8.166581192750000E9     4.804846885129690E-1   -2.531924819320234E-1    1.510035487619181E-3    1.861629833902649E-3    1.509898139885044E-3    1.895592863075202E-3    3.547340956666981E-1   -3.300947616609892E-1
 8.166761277525000E9     4.748367286184633E-1   -2.638797551993882E-1    1.564304518953725E-3    1.822615235421062E-3    1.543633991551492E-3    1.877500737890106E-3    3.472849289863211E-1   -3.376999278199433E-1
 8.166941362300000E9     4.688332490698919E-1   -2.744986679696449E-1    1.572228029684628E-3    1.812912048029584E-3    1.561773961791593E-3    1.812918877628059E-3    3.395459292990483E-1   -3.450106504215857E-1
 8.167121447075000E9     4.627175383322966E-1   -2.849617838983458E-1    1.595668261295875E-3    1.751849091672716E-3    1.637388142109111E-3    1.770321067470593E-3    3.318658750091027E-1   -3.520678952931604E-1
 8.167301531850000E9     4.563492558403320E-1   -2.952919505290821E-1    1.641364763323398E-3    1.715397234055753E-3    1.652856048101303E-3    1.752647670096391E-3    3.239310653478039E-1   -3.590378430264936E-1
 8.167481616625000E9     4.494441317665646E-1   -3.054627164109339E-1    1.684158299018027E-3    1.660925604588565E-3    1.680149293249255E-3    1.673311283231880E-3    3.156695752492540E-1   -3.657857529754777E-1
 8.167661701400000E9     4.426997425371340E-1   -3.154668608916561E-1    1.716755725458291E-3    1.628932748304082E-3    1.744311408102526E-3    1.663365337630184E-3    3.074387643902928E-1   -3.724399640532141E-1
 8.167841786175000E9     4.356622283662922E-1   -3.253356810002425E-1    1.755081893230256E-3    1.571808840638406E-3    1.755358021872259E-3    1.605545310622657E-3    2.990806397805369E-1   -3.787301828690630E-1
 8.168021870950000E9     4.281695587919800E-1   -3.350474294243235E-1    1.780728520951449E-3    1.545135485262068E-3    1.776794363639184E-3    1.590980094695464E-3    2.906857667924541E-1   -3.849956108188198E-1
 8.168201955725000E9     4.206290859530857E-1   -3.446367344818633E-1    1.825708562299245E-3    1.499493732496068E-3    1.843460978768024E-3    1.558993440239514E-3    2.821241242799666E-1   -3.910737935827753E-1
 8.168382040500000E9     4.128980510049929E-1   -3.539259583328721E-1    1.840036443877281E-3    1.471979488279837E-3    1.869130692608093E-3    1.484916022754679E-3    2.733158856483454E-1   -3.969160766773358E-1
 8.168562125275000E9     4.050215842861325E-1   -3.630729272897987E-1    1.879879398104770E-3    1.423894365991431E-3    1.907619297440254E-3    1.450211202368384E-3    2.643130205377757E-1   -4.024608611058805E-1
 8.168742210050000E9     3.966205518245697E-1   -3.722593056365857E-1    1.877696845315753E-3    1.392502140005008E-3    1.932410289209546E-3    1.408016307230801E-3    2.555775724802564E-1   -4.078690309855882E-1
 8.168922294825000E9     3.882378019125752E-1   -3.810005150656047E-1    1.923640743362177E-3    1.350956633967469E-3    1.939972920195756E-3    1.401219536493751E-3    2.462349800989984E-1   -4.130513479015109E-1
 8.169102379600000E9     3.796418472519240E-1   -3.895975666561490E-1    1.954238815828114E-3    1.260457908595846E-3    1.983130478881901E-3    1.323063654812400E-3    2.370933676749722E-1   -4.181374288687518E-1
 8.169282464375000E9     3.709459124873853E-1   -3.980768825104097E-1    1.996305128164914E-3    1.242463760598520E-3    2.033004867277189E-3    1.303987797296341E-3    2.277632333244620E-1   -4.229496270669521E-1
 8.169462549150000E9     3.618529535533991E-1   -4.062893246294113E-1    1.986374248948734E-3    1.208461073704420E-3    2.029998091674362E-3    1.235680897965012E-3    2.185411553265023E-1   -4.275105192160326E-1
 8.169642633925000E9     3.528204316760281E-1   -4.143061082994016E-1    2.013024913511787E-3    1.144336928665394E-3    2.065098329164446E-3    1.189443576970311E-3    2.090317615363612E-1   -4.320653632649458E-1
 8.169822718700000E9     3.433811503620204E-1   -4.220812375500956E-1    2.066787689538240E-3    1.074811562279532E-3    2.074337497352278E-3    1.139928850232936E-3    1.994986912552854E-1   -4.361677476831831E-1
 8.170002803475000E9     3.338250692651169E-1   -4.298313820354159E-1    2.069141493241637E-3    1.031931261943475E-3    2.107641206105421E-3    1.093723469926745E-3    1.899263919269064E-1   -4.402745253215893E-1
 8.170182888250000E9     3.241139567006749E-1   -4.372406793516372E-1    2.087160482343041E-3    9.953115382637524E-4    2.112459974941578E-3    1.016643797215681E-3    1.799470922994078E-1   -4.439367991719289E-1
 8.170362973025000E9     3.142253693212959E-1   -4.443862752287797E-1    2.102354414929007E-3    9.572080970021867E-4    2.159433794445751E-3    9.420017511520795E-4    1.703023801570715E-1   -4.475879360792994E-1
 8.170543057800000E9     3.041673176632797E-1   -4.514363690675205E-1    2.123431795140531E-3    9.050114021545275E-4    2.164161786409517E-3    9.214603250130645E-4    1.604341587636105E-1   -4.510306152295852E-1
 8.170723142575000E9     2.939952898090805E-1   -4.580955138855106E-1    2.102428049576967E-3    8.682774827108286E-4    2.203835719021734E-3    9.020901346487122E-4    1.505741558747152E-1   -4.540447248553935E-1
 8.170903227350000E9     2.836791715939981E-1   -4.646947670479882E-1    2.162286808935059E-3    8.238484310460080E-4    2.225055054273827E-3    8.497806330102079E-4    1.405841080365163E-1   -4.569557785910051E-1
 8.171083312125000E9     2.731208301702133E-1   -4.709195808348349E-1    2.155710030282916E-3    7.681734332713466E-4    2.194482712227165E-3    8.101531507138362E-4    1.304704097606084E-1   -4.597016755210216E-1
 8.171263396900000E9     2.626319926648615E-1   -4.769345396009466E-1    2.179736218067007E-3    7.004568809977332E-4    2.242005982821067E-3    7.548536049697097E-4    1.203111357663502E-1   -4.620212745412434E-1
 8.171443481675000E9     2.516524112878601E-1   -4.827303444971300E-1    2.181496759074770E-3    6.462830977574052E-4    2.278370426596360E-3    7.109445826223248E-4    1.103279356326313E-1   -4.645368708462814E-1
 8.171623566450000E9     2.407768414954038E-1   -4.882992240556769E-1    2.225200814710361E-3    6.004615676219723E-4    2.246326010329521E-3    6.330762583299827E-4    1.000343120359178E-1   -4.665184560563581E-1
 8.171803651225000E9     2.296722182880790E-1   -4.936819869508459E-1    2.247550848032136E-3    6.071886847738316E-4    2.274393049852664E-3    5.848822391402354E-4    8.971149188873717E-2   -4.683986646276747E-1
 8.171983736000000E9     2.184822173790499E-1   -4.987332803880263E-1    2.229538869641450E-3    5.255806420557661E-4    2.269077702993878E-3    5.372317604365030E-4    7.959301936697487E-2   -4.698528189644641E-1
 8.172163820775000E9     2.073547617749651E-1   -5.034644744159720E-1    2.219084802059438E-3    4.618942171190388E-4    2.298163159974395E-3    5.009544199608180E-4    6.925397884380217E-2   -4.712552229129907E-1
 8.172343905550000E9     1.958781917632328E-1   -5.080399090491873E-1    2.270010131861818E-3    4.246486930923569E-4    2.314846831458747E-3    4.431407996574417E-4    5.877856563568934E-2   -4.724190160880369E-1
 8.172523990325000E9     1.844180990288554E-1   -5.122167126044672E-1    2.249948592351917E-3    3.921963312110534E-4    2.305098984809255E-3    4.070199966640519E-4    4.869336314111296E-2   -4.733126817794046E-1
 8.172704075100000E9     1.727876393092337E-1   -5.163540867836719E-1    2.282971229472706E-3    3.510338778499843E-4    2.299643109438340E-3    3.612134220738643E-4    3.845930766343097E-2   -4.739426586297679E-1
 8.172884159875000E9     1.611983980628868E-1   -5.200321289504691E-1    2.245788610206897E-3    2.828770203907021E-4    2.336862034219135E-3    2.890050086907756E-4    2.817167702121470E-2   -4.745076150242804E-1
 8.173064244650000E9     1.493827244029123E-1   -5.236403998909648E-1    2.291009004557517E-3    2.245187606261937E-4    2.306870283162613E-3    2.253755756077437E-4    1.770310978409709E-2   -4.747643061789881E-1
 8.173244329425000E9     1.375226380791408E-1   -5.268739903903950E-1    2.260802237397378E-3    1.962268721437744E-4    2.352984967086387E-3    2.067452321528128E-4    7.471560849270722E-3   -4.746896653312728E-1
 8.173424414200000E9     1.255388019150539E-1   -5.296919227649791E-1    2.259456146561805E-3    1.282252469645558E-4    2.322613511771506E-3    1.396819512750780E-4   -2.821251572008731E-3   -4.745250218538918E-1
 8.173604498975000E9     1.135641316919599E-1   -5.326005682897980E-1    2.295680356356361E-3    8.415973819804541E-5    2.345476283939064E-3    9.176736756975856E-5   -1.311788122826493E-2   -4.742863518925679E-1
 8.173784583750000E9     1.016127790699830E-1   -5.350127638088271E-1    2.276144924880671E-3    2.367296198681807E-5    2.349146216085470E-3    4.473993223603029E-5   -2.349623736718493E-2   -4.735210066341429E-1
