#  HZ   S   RI   R     50.00 
! Rohde & Schwarz Vector Network Analyzer 
! Rohde-Schwarz,ZNB20-2Port,1311601062101988,3.16
! Created: UTC 3/20/2024, 4:59:49 PM
! freq[Hz]                re:S11                  im:S11                  re:S21                  im:S21                  re:S12                  im:S12                  re:S22                  im:S22
 8.153239721000000E9     1.999976390239159E-1    4.905313753837471E-1   -2.430995719259809E-3    1.413737951055758E-3   -2.420965557745159E-3    1.432245107147171E-3    3.174277418026550E-1    3.915755083747807E-1
 8.153439521725000E9     2.127537183259294E-1    4.853896570894865E-1   -2.371431696424078E-3    1.475390996330657E-3   -2.364572602984913E-3    1.483394874406944E-3    3.269045444322390E-1    3.835164511055088E-1
 8.153639322450000E9     2.251126394719047E-1    4.800899473525528E-1   -2.357343953226177E-3    1.529298982335064E-3   -2.344538020487154E-3    1.541289592068626E-3    3.363403204315348E-1    3.749811649803751E-1
 8.153839123175000E9     2.373450347145162E-1    4.746624997497182E-1   -2.301934544720940E-3    1.595106381902195E-3   -2.276258122970467E-3    1.663831904510664E-3    3.453091085630809E-1    3.662908832191852E-1
 8.154038923900000E9     2.495662215437737E-1    4.686202470514602E-1   -2.262335740768013E-3    1.654077972536971E-3   -2.249930658676565E-3    1.674263735832382E-3    3.541829867792716E-1    3.573962355673956E-1
 8.154238724625000E9     2.614591992444181E-1    4.625016653437439E-1   -2.198362592042469E-3    1.717084143342291E-3   -2.179733091753379E-3    1.709151704291772E-3    3.628311754907089E-1    3.482998571969799E-1
 8.154438525350000E9     2.733515022273938E-1    4.560452954133094E-1   -2.152585266984694E-3    1.761782967937011E-3   -2.148458020482900E-3    1.775192132207955E-3    3.711335824274464E-1    3.389141116211731E-1
 8.154638326075000E9     2.848738520029916E-1    4.491911620455006E-1   -2.089441308903003E-3    1.792546986075402E-3   -2.098747660448068E-3    1.820648066657441E-3    3.793064792754103E-1    3.293661525233956E-1
 8.154838126800000E9     2.962983670093353E-1    4.420227781131794E-1   -2.021523555853143E-3    1.827966228556566E-3   -2.023431381537881E-3    1.855964039062787E-3    3.872255767609832E-1    3.199166550443100E-1
 8.155037927525000E9     3.075458113488151E-1    4.346427650330356E-1   -1.992053254960483E-3    1.904540567647723E-3   -1.959658228047985E-3    1.928904450893147E-3    3.948019055401499E-1    3.099516180085985E-1
 8.155237728250000E9     3.185192758852644E-1    4.269807440224789E-1   -1.933214951813242E-3    1.943271625648056E-3   -1.932358385871655E-3    1.980077929025662E-3    4.023647636037982E-1    2.997812957849554E-1
 8.155437528975000E9     3.294058647278754E-1    4.190610366678061E-1   -1.872430943419147E-3    1.975917412339139E-3   -1.904875420976805E-3    1.955779044194701E-3    4.094261924489378E-1    2.896520763539229E-1
 8.155637329700000E9     3.400356130037133E-1    4.107377676484835E-1   -1.818970217638207E-3    2.038819377128008E-3   -1.812007631078719E-3    2.071166568673143E-3    4.160841040864049E-1    2.791804620407640E-1
 8.155837130425000E9     3.503726906107321E-1    4.021882130740852E-1   -1.757404871427248E-3    2.080192848372004E-3   -1.732104949343704E-3    2.112665540092041E-3    4.226071409160852E-1    2.687028513434281E-1
 8.156036931150000E9     3.607525245081351E-1    3.934522859240300E-1   -1.718306402336318E-3    2.114727249946871E-3   -1.654296215888553E-3    2.151182660124348E-3    4.288916765921740E-1    2.580756609067322E-1
 8.156236731875000E9     3.706851699122688E-1    3.846015237967151E-1   -1.661625696565028E-3    2.146920665777889E-3   -1.635082399283347E-3    2.183125356102102E-3    4.349721648500522E-1    2.471698397430629E-1
 8.156436532600000E9     3.803610100040192E-1    3.752858235925047E-1   -1.577307173329320E-3    2.206810199116434E-3   -1.591721877388636E-3    2.227044101737888E-3    4.406487919948597E-1    2.363277254256799E-1
 8.156636333325000E9     3.898972406514703E-1    3.658504384539114E-1   -1.526196116773036E-3    2.224969377807752E-3   -1.509950553965290E-3    2.266544575718321E-3    4.461577324114907E-1    2.251713231151310E-1
 8.156836134050000E9     3.991651381157009E-1    3.561210895058226E-1   -1.448403664977960E-3    2.238912919915942E-3   -1.446635004155245E-3    2.268087357168684E-3    4.514519255417283E-1    2.138768801227936E-1
 8.157035934775000E9     4.081521905508144E-1    3.460372810110528E-1   -1.376939286874837E-3    2.306810426068111E-3   -1.383602944106199E-3    2.314003189215436E-3    4.562793915480587E-1    2.025993684102618E-1
 8.157235735500000E9     4.168743392339996E-1    3.359314697185241E-1   -1.325599369198803E-3    2.347891465077809E-3   -1.337583163980043E-3    2.346609131283568E-3    4.608252248596896E-1    1.911260289150005E-1
 8.157435536225000E9     4.254513534235610E-1    3.255654730246655E-1   -1.268540019277352E-3    2.359277030243554E-3   -1.237695485358285E-3    2.368310443203127E-3    4.650901951024852E-1    1.796768335801449E-1
 8.157635336950000E9     4.335233403457011E-1    3.149919426321054E-1   -1.210221266974921E-3    2.377138339500673E-3   -1.216185866942357E-3    2.404701745309200E-3    4.692083482187349E-1    1.680023702863704E-1
 8.157835137675000E9     4.415864326446373E-1    3.041003563418935E-1   -1.164553122147615E-3    2.409243147860269E-3   -1.142284518718764E-3    2.405535528737384E-3    4.728417583071242E-1    1.562485739155459E-1
 8.158034938400000E9     4.492260018133754E-1    2.931830095544669E-1   -1.062506763938064E-3    2.438544414844874E-3   -1.099200456768604E-3    2.434316495413195E-3    4.763035194276486E-1    1.447350862644240E-1
 8.158234739125000E9     4.566627669177705E-1    2.819624160331147E-1   -1.016693021041529E-3    2.442344192898111E-3   -9.842507282537794E-4    2.410584911596037E-3    4.795167775048456E-1    1.327415662699271E-1
 8.158434539850000E9     4.637495777730054E-1    2.706092836370655E-1   -9.051136312466081E-4    2.473706604112721E-3   -9.412605122489294E-4    2.473051039480408E-3    4.824201808315295E-1    1.208220368820626E-1
 8.158634340575000E9     4.704552791726925E-1    2.590655914781272E-1   -8.831591357083557E-4    2.467697902974951E-3   -8.514056932194945E-4    2.498501212570291E-3    4.849121726143454E-1    1.086988506894328E-1
 8.158834141300000E9     4.770205859648837E-1    2.472482739591872E-1   -8.042877468987675E-4    2.491995830793533E-3   -8.448133033442010E-4    2.507078201253142E-3    4.870428742416009E-1    9.675908586277382E-2
 8.159033942025000E9     4.833132743663999E-1    2.353365201527152E-1   -7.412921557876531E-4    2.484733872950396E-3   -7.156774283276583E-4    2.531479229990334E-3    4.890302188308621E-1    8.473930566827248E-2
 8.159233742750000E9     4.891868012330705E-1    2.233164267689328E-1   -6.544145780390759E-4    2.533225820800017E-3   -6.670749807606708E-4    2.543258328373918E-3    4.906013953899037E-1    7.275627206644041E-2
 8.159433543475000E9     4.948463621033912E-1    2.112400307627864E-1   -6.109837771175214E-4    2.534037593120508E-3   -6.032249242977764E-4    2.531374348684379E-3    4.920224644200133E-1    6.051365348211914E-2
 8.159633344200000E9     5.000993133232365E-1    1.988187368872065E-1   -5.254773600963617E-4    2.539845779335423E-3   -5.404880735488014E-4    2.566448497572683E-3    4.930614109353861E-1    4.822630947390513E-2
 8.159833144925000E9     5.050770439578698E-1    1.864492839994375E-1   -4.551484588502140E-4    2.544511339889511E-3   -4.680732220321802E-4    2.542978099786041E-3    4.937671193172141E-1    3.635459404348151E-2
 8.160032945650000E9     5.097369255507663E-1    1.739217179545290E-1   -3.818064741801404E-4    2.544677128664084E-3   -3.926267521101141E-4    2.584252729474599E-3    4.941092464316579E-1    2.406390859052361E-2
 8.160232746375000E9     5.141701008919650E-1    1.611301195901735E-1   -3.404812576884444E-4    2.543488111811770E-3   -3.701029465257889E-4    2.560909814179707E-3    4.943137447212417E-1    1.203283799419644E-2
 8.160432547100000E9     5.180675768363606E-1    1.483774237989124E-1   -2.580782318520923E-4    2.564220109278801E-3   -2.653439261900120E-4    2.555500162633157E-3    4.942913022206376E-1   -6.987877827036386E-5
 8.160632347825000E9     5.218837512002845E-1    1.354472865863703E-1   -2.199907837180731E-4    2.553847933618481E-3   -2.080563346234809E-4    2.560442694167141E-3    4.936488890494587E-1   -1.220690383309876E-2
 8.160832148550000E9     5.252669397488350E-1    1.224707292202791E-1   -1.077283762833178E-4    2.533799015968384E-3   -1.324339624573110E-4    2.566800336284973E-3    4.929614150114244E-1   -2.427787282527590E-2
 8.161031949275000E9     5.283536171821674E-1    1.093984061270251E-1   -7.067344152595748E-5    2.548067459994634E-3   -1.049751316182473E-4    2.571348300202780E-3    4.920261069888090E-1   -3.616985533663598E-2
 8.161231750000000E9     5.310955506433728E-1    9.629482313722673E-2   -1.558700312815754E-5    2.541933702540622E-3    1.573879013888552E-5    2.569208890986714E-3    4.907627416897671E-1   -4.822020100330805E-2
 8.161431550725000E9     5.334780081859460E-1    8.304098845555538E-2    6.035503683014698E-5    2.524098338467744E-3    5.582897616940128E-5    2.560473572778641E-3    4.889223306092330E-1   -6.016317568783654E-2
 8.161631351450000E9     5.355538909622967E-1    6.983144687659516E-2    1.098241979016106E-4    2.513186429836276E-3    1.112540554552976E-4    2.550671420748360E-3    4.869582546585380E-1   -7.206698530375980E-2
 8.161831152175000E9     5.372085563527891E-1    5.649486249934368E-2    2.216103135142349E-4    2.485566499249773E-3    1.770638716349095E-4    2.513095664396634E-3    4.849571384977021E-1   -8.393578180212247E-2
 8.162030952900000E9     5.386979468961102E-1    4.321863427639522E-2    2.494407120460049E-4    2.502039433044408E-3    2.436009602316951E-4    2.527053677439136E-3    4.824265251350765E-1   -9.561104679170963E-2
 8.162230753625000E9     5.397133300675192E-1    2.981447148141259E-2    3.309979662211618E-4    2.507475681315465E-3    3.269743769340882E-4    2.543736847353719E-3    4.796371860878226E-1   -1.073832788217157E-1
 8.162430554350000E9     5.404643557231278E-1    1.633718935893676E-2    3.868961986736424E-4    2.469090309078638E-3    3.682439261131051E-4    2.477112797678949E-3    4.765172346589662E-1   -1.188791482276175E-1
 8.162630355075000E9     5.408188515346326E-1    2.943662852768753E-3    4.490530175697110E-4    2.460916246900638E-3    4.563159481000431E-4    2.456341991525636E-3    4.732699126006884E-1   -1.303948755128196E-1
 8.162830155800000E9     5.408873605704543E-1   -1.051834254759222E-2    5.175651230907912E-4    2.460872092997472E-3    5.019282550191070E-4    2.456364734287682E-3    4.696085791236970E-1   -1.417622951603178E-1
 8.163029956525000E9     5.406110382321954E-1   -2.389180729356074E-2    5.531560125791344E-4    2.401716347979250E-3    5.250748513153621E-4    2.455150145803616E-3    4.658179433984208E-1   -1.531129297170538E-1
 8.163229757250000E9     5.399423306512416E-1   -3.725824395398205E-2    6.161134929575541E-4    2.436085110781071E-3    5.846525653947307E-4    2.445335022826882E-3    4.615230994223891E-1   -1.642258413579566E-1
 8.163429557975000E9     5.391062121148662E-1   -5.064117557565343E-2    6.813777894341325E-4    2.351372986568390E-3    6.849259025202652E-4    2.439410093061389E-3    4.571073139750006E-1   -1.753866414044479E-1
 8.163629358700000E9     5.376708206404591E-1   -6.407486729434371E-2    7.486361363385091E-4    2.357439736840894E-3    7.151022998943532E-4    2.397093797115092E-3    4.524840355763603E-1   -1.863354576530588E-1
 8.163829159425000E9     5.361061471979753E-1   -7.735482904630922E-2    8.050512466882263E-4    2.312278997299283E-3    8.104628884630983E-4    2.375845964839010E-3    4.473540284311531E-1   -1.971220834049722E-1
 8.164028960150000E9     5.341806118864320E-1   -9.074257857884312E-2    8.706089370975282E-4    2.302358218683352E-3    8.819485477830858E-4    2.358042857409504E-3    4.421663455077018E-1   -2.078260514427655E-1
 8.164228760875000E9     5.319334645724945E-1   -1.038768366565496E-1    9.142466762213501E-4    2.269815932400642E-3    8.897833021759001E-4    2.288921284025533E-3    4.367419622667434E-1   -2.183347988052587E-1
 8.164428561600000E9     5.292585199595803E-1   -1.170694211327175E-1    9.557274140721819E-4    2.249611311245022E-3    9.565254824148902E-4    2.255218494368613E-3    4.311620466162694E-1   -2.288223802026246E-1
 8.164628362325000E9     5.262697058537602E-1   -1.302140524207100E-1    1.024549040826081E-3    2.206469997264707E-3    1.045188754521653E-3    2.255731995053612E-3    4.251710014075023E-1   -2.390875487773148E-1
 8.164828163050000E9     5.230499633498369E-1   -1.432164509081014E-1    1.066558173713059E-3    2.193308985719282E-3    1.084232556819134E-3    2.214683338916747E-3    4.188873447757220E-1   -2.491057731143092E-1
 8.165027963775000E9     5.192789224255238E-1   -1.561698609183077E-1    1.135433423708793E-3    2.162014304794547E-3    1.128785459943809E-3    2.164903334331061E-3    4.123999087759373E-1   -2.591955586973239E-1
 8.165227764500000E9     5.155693568984305E-1   -1.691578698186024E-1    1.178664933237428E-3    2.134489173869724E-3    1.197311669663828E-3    2.149644560017418E-3    4.057981904226944E-1   -2.688342300671279E-1
 8.165427565225000E9     5.112149222254336E-1   -1.818882774342743E-1    1.218551897840342E-3    2.074164705549079E-3    1.247761476568643E-3    2.104893438609421E-3    3.989255807609229E-1   -2.784617766121263E-1
 8.165627365950000E9     5.065364109308585E-1   -1.944285398152540E-1    1.286905989641929E-3    2.070779988445849E-3    1.269605026235478E-3    2.089545949475061E-3    3.916554846575702E-1   -2.879814755026405E-1
 8.165827166675000E9     5.018013071406775E-1   -2.071087971040232E-1    1.334346581898305E-3    2.026259728154966E-3    1.310285149959105E-3    2.052457867187378E-3    3.845010012096439E-1   -2.970184387854614E-1
 8.166026967400000E9     4.964982384790143E-1   -2.195241238667734E-1    1.375206967530804E-3    1.969029657809089E-3    1.376724179196034E-3    2.016196019952358E-3    3.769000021217380E-1   -3.059698612101173E-1
 8.166226768125000E9     4.910291519706710E-1   -2.317899953496869E-1    1.406032875485229E-3    1.926319174089707E-3    1.421081179907564E-3    1.977337206646737E-3    3.690860082558377E-1   -3.148857172394804E-1
 8.166426568850000E9     4.852521649216722E-1   -2.439108295368243E-1    1.478862306680734E-3    1.901787917826547E-3    1.445289286004584E-3    1.925525243226305E-3    3.611169915272324E-1   -3.236581718562515E-1
 8.166626369575000E9     4.790752497290315E-1   -2.560308541291330E-1    1.499978963836870E-3    1.868070999898549E-3    1.538593897682267E-3    1.882403116763376E-3    3.529908078935040E-1   -3.320956064639867E-1
 8.166826170300000E9     4.726976980489298E-1   -2.677602653485213E-1    1.564073290581357E-3    1.812134170172131E-3    1.554154536933078E-3    1.815475943385677E-3    3.444096008143997E-1   -3.402721032424980E-1
 8.167025971025000E9     4.659457438760710E-1   -2.794573707853859E-1    1.579781486834472E-3    1.773135225971055E-3    1.602719170336931E-3    1.794329589904455E-3    3.360377483873879E-1   -3.483156332471431E-1
 8.167225771750000E9     4.590571627765854E-1   -2.909907116666945E-1    1.607424293740102E-3    1.754004349154948E-3    1.644527442320422E-3    1.780725270812557E-3    3.272362589169965E-1   -3.560929986739387E-1
 8.167425572475000E9     4.516877275249598E-1   -3.024025020150500E-1    1.671951390452667E-3    1.686275646497477E-3    1.704527955465996E-3    1.731010039579284E-3    3.182609491225166E-1   -3.636967931986953E-1
 8.167625373200000E9     4.440524873042770E-1   -3.135358753992487E-1    1.709761043373298E-3    1.638799249422781E-3    1.733020817951053E-3    1.690496156008770E-3    3.092951954471779E-1   -3.710452237654948E-1
 8.167825173925000E9     4.361479748812023E-1   -3.245048195489402E-1    1.742751569874579E-3    1.589954337883908E-3    1.770201510468599E-3    1.643594995805091E-3    2.999469532321578E-1   -3.781266866151389E-1
 8.168024974650000E9     4.281085822589655E-1   -3.352482274158637E-1    1.757056345712551E-3    1.560415569396914E-3    1.801100881884740E-3    1.614625843250614E-3    2.905643305397307E-1   -3.851395549309513E-1
 8.168224775375000E9     4.196376706597732E-1   -3.457082709523762E-1    1.824993732904331E-3    1.496924443940385E-3    1.828987976751968E-3    1.560969261153538E-3    2.808761970558956E-1   -3.917102071852315E-1
 8.168424576100000E9     4.109728208467853E-1   -3.560813945275765E-1    1.854917810739236E-3    1.433187677718749E-3    1.877812766202618E-3    1.501407815921421E-3    2.711815450582027E-1   -3.981117715577330E-1
 8.168624376825000E9     4.020697061685097E-1   -3.663569384465069E-1    1.860577185222609E-3    1.424333244452540E-3    1.898666434215362E-3    1.437124715339379E-3    2.614170084871915E-1   -4.044567070170584E-1
 8.168824177550000E9     3.929636488969682E-1   -3.761461506304167E-1    1.924431635849700E-3    1.379247208796765E-3    1.917977857779801E-3    1.400977436699978E-3    2.511961726863141E-1   -4.101433120661935E-1
 8.169023978275000E9     3.834562011337533E-1   -3.859069028257113E-1    1.931951014407267E-3    1.310631681157845E-3    1.987942559869702E-3    1.368778056139402E-3    2.410419416161211E-1   -4.158879528134121E-1
 8.169223779000000E9     3.736424481781339E-1   -3.953662571238301E-1    1.968127043205224E-3    1.232930733117166E-3    2.002619293593045E-3    1.302525034302643E-3    2.309536988706095E-1   -4.215010608660791E-1
 8.169423579725000E9     3.638677986075287E-1   -4.046235495976124E-1    2.009080710979758E-3    1.189767819604987E-3    2.012393401650632E-3    1.241051263222678E-3    2.206127065106685E-1   -4.267232861462132E-1
 8.169623380450000E9     3.537089496239224E-1   -4.136074316739221E-1    2.027838815965376E-3    1.145424411426185E-3    2.055842298406900E-3    1.180429201224524E-3    2.100539781480774E-1   -4.315080353208804E-1
 8.169823181175000E9     3.433872156533597E-1   -4.222297021404621E-1    2.042559411744028E-3    1.109386346806574E-3    2.101239079546764E-3    1.148329563296442E-3    1.993208186351329E-1   -4.362493607102914E-1
 8.170022981900000E9     3.327675233694675E-1   -4.306765143416106E-1    2.026863768962472E-3    1.049166708906544E-3    2.126177928241417E-3    1.088353056881825E-3    1.888125148025381E-1   -4.408230120304498E-1
 8.170222782625000E9     3.219889281486957E-1   -4.389350104105039E-1    2.105506533474452E-3    1.000900513153637E-3    2.111700951606482E-3    1.009294760091539E-3    1.779647248379177E-1   -4.447534187097767E-1
 8.170422583350000E9     3.109325677274701E-1   -4.467311319712756E-1    2.129794470829642E-3    9.368167744063375E-4    2.163807299500588E-3    9.819404629533078E-4    1.669207971945045E-1   -4.487568379333016E-1
 8.170622384075000E9     2.996692047374523E-1   -4.543756343547544E-1    2.098863725961369E-3    9.053898938485318E-4    2.190613874456543E-3    9.476317838113242E-4    1.560382017354829E-1   -4.522313331955761E-1
 8.170822184800000E9     2.882658825226535E-1   -4.616678428772798E-1    2.171875231630562E-3    8.540234116645810E-4    2.226823605912806E-3    8.559885752098672E-4    1.449452305004382E-1   -4.556599792229166E-1
 8.171021985525000E9     2.766970897300670E-1   -4.687831201067889E-1    2.166853508342146E-3    8.053407005715109E-4    2.201797725160967E-3    7.941952970455597E-4    1.336815503310991E-1   -4.588153281891213E-1
 8.171221786250000E9     2.649510747322117E-1   -4.755422264624225E-1    2.146863684629194E-3    7.255936220115769E-4    2.205733610526304E-3    7.536570244231973E-4    1.227509837048637E-1   -4.616494131621293E-1
