#  HZ   S   RI   R     50.00 
! Rohde & Schwarz Vector Network Analyzer 
! Rohde-Schwarz,ZNB20-2Port,1311601062101988,3.16
! Created: UTC 3/20/2024, 5:14:58 PM
! freq[Hz]                re:S11                  im:S11                  re:S21                  im:S21                  re:S12                  im:S12                  re:S22                  im:S22
 8.197098157000000E9    -1.740576821524235E-1    5.066598898417319E-1   -3.094338211241072E-3   -7.533727006771832E-4   -3.154323327276836E-3   -6.644695906473786E-4   -1.128843922610466E-1    4.315923407168344E-1
 8.197100564450000E9    -1.738130531839932E-1    5.067066475835692E-1   -3.072206735650868E-3   -7.860452215858644E-4   -3.181471807589241E-3   -6.691806878038783E-4   -1.128617850260392E-1    4.315078464688060E-1
 8.197102971900000E9    -1.735784536689478E-1    5.066588410698971E-1   -3.070596852234218E-3   -7.431721407569824E-4   -3.187923208084189E-3   -6.710179784782660E-4   -1.126383939962196E-1    4.314933527711107E-1
 8.197105379350000E9    -1.733523011816180E-1    5.067951895587528E-1   -3.092090694163130E-3   -7.537793818884727E-4   -3.188227375188136E-3   -6.582297700984780E-4   -1.124941606143336E-1    4.315284456668851E-1
 8.197107786800000E9    -1.732407849882615E-1    5.067872787147629E-1   -3.085259296540709E-3   -7.551444285513199E-4   -3.173161441369506E-3   -6.404770983566000E-4   -1.124164191485814E-1    4.316639829206607E-1
 8.197110194250000E9    -1.731808555967596E-1    5.068677081016539E-1   -3.098250876071551E-3   -7.437045550168316E-4   -3.161990056551847E-3   -6.550520539175273E-4   -1.120828579140272E-1    4.316097700089000E-1
 8.197112601700000E9    -1.728877419601281E-1    5.068938490304882E-1   -3.081086745753104E-3   -7.619134180167236E-4   -3.173800022833285E-3   -6.427164293794057E-4   -1.120773243054216E-1    4.315483705091695E-1
 8.197115009150000E9    -1.728419724941305E-1    5.070381813625575E-1   -3.097550122465197E-3   -7.783541774081645E-4   -3.190286481305540E-3   -6.394308445786574E-4   -1.119674342742698E-1    4.317353599065609E-1
 8.197117416600000E9    -1.725420099980638E-1    5.071316208550930E-1   -3.103727660335948E-3   -7.811325305646062E-4   -3.211214669581327E-3   -6.532992940983435E-4   -1.117333295771142E-1    4.317949244486575E-1
 8.197119824050000E9    -1.723977655201481E-1    5.071552249088642E-1   -3.092589900803484E-3   -7.423453782768913E-4   -3.210718784607595E-3   -6.791910480605898E-4   -1.117330681268474E-1    4.317292348784910E-1
 8.197122231500000E9    -1.721108597272254E-1    5.072462794654763E-1   -3.103251331607106E-3   -7.434303604976870E-4   -3.204911430140412E-3   -6.782371978135384E-4   -1.115131810649922E-1    4.316918608791923E-1
 8.197124638950000E9    -1.719861530861288E-1    5.072091844207168E-1   -3.131467618902341E-3   -7.636134537551347E-4   -3.205936552548314E-3   -6.412718688653120E-4   -1.115359681816805E-1    4.317763356526075E-1
 8.197127046400000E9    -1.717916689688362E-1    5.072917229628284E-1   -3.115305954494412E-3   -7.616422385687935E-4   -3.223950818635325E-3   -6.299248269129462E-4   -1.112998205596621E-1    4.318856861476414E-1
 8.197129453850000E9    -1.717448083453739E-1    5.073862576613132E-1   -3.104979248657859E-3   -7.546605976466291E-4   -3.208367066630874E-3   -6.331049606638825E-4   -1.111560941307115E-1    4.318510282090443E-1
 8.197131861300000E9    -1.714528289535665E-1    5.074483566522966E-1   -3.124922795098667E-3   -7.492091024720084E-4   -3.221539854539411E-3   -6.346966863326572E-4   -1.110449727648192E-1    4.318167759428149E-1
 8.197134268750000E9    -1.712455520075103E-1    5.075513758811382E-1   -3.142063705415133E-3   -7.648014523470558E-4   -3.222205514391961E-3   -6.459444084758964E-4   -1.108974462055559E-1    4.318663259281273E-1
 8.197136676200000E9    -1.710872216855225E-1    5.076414548811101E-1   -3.148603346567784E-3   -7.726247271279574E-4   -3.249857778642300E-3   -6.466317186450691E-4   -1.106947769520563E-1    4.319350214986710E-1
 8.197139083650000E9    -1.708585546260986E-1    5.076190026329976E-1   -3.137342035725452E-3   -7.459137090280905E-4   -3.216487624289879E-3   -6.581549122188259E-4   -1.106451899748258E-1    4.319633768567993E-1
 8.197141491100000E9    -1.707336706778386E-1    5.076375694847566E-1   -3.142686187185205E-3   -7.510548757598009E-4   -3.245971682462916E-3   -6.356723884448180E-4   -1.104085517800330E-1    4.321097575298621E-1
 8.197143898550000E9    -1.705326556242019E-1    5.077188543720142E-1   -3.144082865959182E-3   -7.634894236346056E-4   -3.254569966559164E-3   -6.415154256113647E-4   -1.104324549484792E-1    4.320425412558460E-1
 8.197146306000000E9    -1.703401719749573E-1    5.077942048528766E-1   -3.132461984810874E-3   -7.528211367079502E-4   -3.229556023917738E-3   -6.432059013780683E-4   -1.102014101132021E-1    4.320982575857960E-1
 8.197148713450000E9    -1.701495839517119E-1    5.077651140441405E-1   -3.157452565614560E-3   -7.843938961376864E-4   -3.212166171509255E-3   -6.220706518149927E-4   -1.101034363231154E-1    4.321174625011863E-1
 8.197151120900000E9    -1.699944685387624E-1    5.078267088925045E-1   -3.157113974110603E-3   -7.414778894287407E-4   -3.275923225596910E-3   -6.273831965891804E-4   -1.099720098606444E-1    4.320506541899918E-1
 8.197153528350000E9    -1.697961661451755E-1    5.080199971422482E-1   -3.157446910170700E-3   -7.617382173561052E-4   -3.253172324023063E-3   -6.535981113185465E-4   -1.098237737537910E-1    4.320495098076437E-1
 8.197155935800000E9    -1.696514290307789E-1    5.079433076092171E-1   -3.174995718816926E-3   -7.665173766189313E-4   -3.267490656249898E-3   -6.451182242022617E-4   -1.097142706879097E-1    4.321351752536263E-1
 8.197158343250000E9    -1.693328590959538E-1    5.080688582921986E-1   -3.175456875684237E-3   -7.812081855691808E-4   -3.272122737974251E-3   -6.374914737267823E-4   -1.094694279685957E-1    4.322366158240332E-1
 8.197160750700000E9    -1.691446244577448E-1    5.080995062937513E-1   -3.174229013770135E-3   -7.506130539861828E-4   -3.259338525339250E-3   -6.452873444389643E-4   -1.094258688994095E-1    4.322819219377153E-1
 8.197163158150000E9    -1.690032319003701E-1    5.080460908222356E-1   -3.183127457600560E-3   -7.349890185302744E-4   -3.281904547456731E-3   -6.497104658590271E-4   -1.092219652129861E-1    4.323201983715647E-1
 8.197165565600000E9    -1.688372883157556E-1    5.081782748196650E-1   -3.199961161202735E-3   -7.529618687578680E-4   -3.293622459150322E-3   -6.197167397363476E-4   -1.092063227389538E-1    4.324130453234879E-1
 8.197167973050000E9    -1.686862103006266E-1    5.082881956814987E-1   -3.202578708067270E-3   -7.720850889467577E-4   -3.287684028304112E-3   -6.263113459824230E-4   -1.089956807343497E-1    4.323298890503716E-1
 8.197170380500000E9    -1.684203428037151E-1    5.082457882668295E-1   -3.180694013090133E-3   -7.671060583538025E-4   -3.258336301271000E-3   -6.345562742409766E-4   -1.089259835383276E-1    4.324029055518437E-1
 8.197172787950000E9    -1.682646853211670E-1    5.083177045411900E-1   -3.178078106624197E-3   -7.458782725810055E-4   -3.269846441680188E-3   -6.212430598544569E-4   -1.086688912987289E-1    4.324641139046655E-1
 8.197175195400000E9    -1.681101066020459E-1    5.084082207811137E-1   -3.204356906853317E-3   -7.553096020355343E-4   -3.276201575507441E-3   -6.314244415184226E-4   -1.087730102997710E-1    4.324715907173943E-1
 8.197177602850000E9    -1.680289527527982E-1    5.085103591981316E-1   -3.193764603003042E-3   -7.366268498472418E-4   -3.314490024976620E-3   -6.283713556209256E-4   -1.084572419560122E-1    4.325103255127957E-1
 8.197180010300000E9    -1.677563230436467E-1    5.085378972326081E-1   -3.234547715027684E-3   -7.211807207403893E-4   -3.293623593700069E-3   -6.210261679844784E-4   -1.083083849642822E-1    4.323923422247486E-1
 8.197182417750000E9    -1.674974541589848E-1    5.085843216523267E-1   -3.216515630940402E-3   -7.674971313936731E-4   -3.275958025838155E-3   -6.156771603297237E-4   -1.082216643604363E-1    4.323911656339834E-1
 8.197184825200000E9    -1.673688496056672E-1    5.086065175140225E-1   -3.200654944638095E-3   -7.449820802793708E-4   -3.336465134969151E-3   -6.409421135893718E-4   -1.081850705478685E-1    4.324483356189180E-1
 8.197187232650000E9    -1.671402100794449E-1    5.086592594087472E-1   -3.246416669732573E-3   -7.281207324897675E-4   -3.305881948319564E-3   -6.366484268768544E-4   -1.080214506445998E-1    4.325169595977962E-1
 8.197189640100000E9    -1.670397605411456E-1    5.087515937371787E-1   -3.231089657043276E-3   -7.435406339470816E-4   -3.313110496968810E-3   -6.260791207756593E-4   -1.078620581807464E-1    4.325119658720050E-1
 8.197192047550000E9    -1.667548699076803E-1    5.087213662674879E-1   -3.250488486992676E-3   -7.407291976749109E-4   -3.345488922377206E-3   -6.206363140386029E-4   -1.076094487899077E-1    4.326243670880790E-1
 8.197194455000000E9    -1.666548326963936E-1    5.087920569429413E-1   -3.252090776792195E-3   -7.455578953788948E-4   -3.323794203028392E-3   -5.798521404743492E-4   -1.075091705645199E-1    4.326213923988603E-1
 8.197196862450000E9    -1.663827409508128E-1    5.089300886293748E-1   -3.255323958330354E-3   -7.404758096770248E-4   -3.337219689105833E-3   -6.032429756845189E-4   -1.072959804171773E-1    4.326653997773195E-1
 8.197199269900000E9    -1.663304082408102E-1    5.087923911845834E-1   -3.213281518534240E-3   -7.237971042197035E-4   -3.313629973827669E-3   -6.330230144210542E-4   -1.072237414172099E-1    4.327228859374534E-1
 8.197201677350000E9    -1.660352818255552E-1    5.088994074375877E-1   -3.230108927286861E-3   -7.420833295408675E-4   -3.327669013331599E-3   -6.239358587744034E-4   -1.070979109891032E-1    4.327605992450732E-1
 8.197204084800000E9    -1.658515138557629E-1    5.090298080925340E-1   -3.245018888165128E-3   -7.363525671784534E-4   -3.344883764235831E-3   -6.268972039610104E-4   -1.070141494453353E-1    4.328445787011989E-1
 8.197206492250000E9    -1.657359586743933E-1    5.091145844588864E-1   -3.279387876584620E-3   -7.379576784041265E-4   -3.322863783911160E-3   -6.344380835915461E-4   -1.069542223309351E-1    4.329467912305986E-1
 8.197208899700000E9    -1.655662185915132E-1    5.091175911309171E-1   -3.273380041359064E-3   -7.465360875153197E-4   -3.368473234204393E-3   -5.987959747109098E-4   -1.067103241842831E-1    4.328309475682225E-1
 8.197211307150000E9    -1.652640594048463E-1    5.092553190771735E-1   -3.257128231417416E-3   -7.165063730143981E-4   -3.369173964000173E-3   -6.281125842201728E-4   -1.065839717342947E-1    4.328074801742122E-1
 8.197213714600000E9    -1.650749084313909E-1    5.092021925802309E-1   -3.256907751816997E-3   -7.650393575038307E-4   -3.372839797657745E-3   -6.088258843155014E-4   -1.064278907687563E-1    4.327289784476703E-1
 8.197216122050000E9    -1.649050907291139E-1    5.093077074338938E-1   -3.290648368495565E-3   -6.989002698512330E-4   -3.342777643079256E-3   -5.980833482168556E-4   -1.063437312586812E-1    4.329157135655146E-1
 8.197218529500000E9    -1.646965287698022E-1    5.093911019470516E-1   -3.287451220600099E-3   -7.262159547308963E-4   -3.400975838642341E-3   -6.299852086534754E-4   -1.062090571342822E-1    4.330260980073426E-1
 8.197220936950000E9    -1.644339746993349E-1    5.093956758335771E-1   -3.265667615041888E-3   -7.423998364879573E-4   -3.417494614012567E-3   -6.239922973722022E-4   -1.061217503540643E-1    4.328731022765471E-1
 8.197223344400000E9    -1.644090386560826E-1    5.095159623404319E-1   -3.284477906142854E-3   -7.129167183635416E-4   -3.379174583349718E-3   -6.236726850854696E-4   -1.059892407230506E-1    4.328593057252885E-1
 8.197225751850000E9    -1.640163630121284E-1    5.095033627402743E-1   -3.323532921503253E-3   -7.097429445662541E-4   -3.364602418126843E-3   -5.994948204716350E-4   -1.058503842717598E-1    4.330406985176309E-1
 8.197228159300000E9    -1.637858963098585E-1    5.095821280352861E-1   -3.297305850022627E-3   -7.269175831038564E-4   -3.397735159330350E-3   -6.034206281798709E-4   -1.057211121613932E-1    4.332272953741428E-1
 8.197230566750000E9    -1.636352759369888E-1    5.097175716688785E-1   -3.301860538249908E-3   -7.197962254955009E-4   -3.406164831516684E-3   -6.122752896793951E-4   -1.054662670831829E-1    4.329900721730590E-1
 8.197232974200000E9    -1.634875472077713E-1    5.095717168682005E-1   -3.325608034490757E-3   -7.511773218296055E-4   -3.423052917664391E-3   -6.061329874355412E-4   -1.053916013227815E-1    4.331214001779088E-1
 8.197235381650000E9    -1.633633978379796E-1    5.096989479212748E-1   -3.316357239068993E-3   -7.524914526906459E-4   -3.420929236904398E-3   -6.111587675603735E-4   -1.052965956755861E-1    4.331784278658187E-1
 8.197237789100000E9    -1.632266924497232E-1    5.098071339644730E-1   -3.323116057218137E-3   -7.361268061400267E-4   -3.397801607585395E-3   -6.217269800705841E-4   -1.051601792059576E-1    4.329437783789503E-1
 8.197240196550000E9    -1.629646136814951E-1    5.097832267357398E-1   -3.312879330807547E-3   -7.437990113580414E-4   -3.443426027108144E-3   -6.035513901560719E-4   -1.051680290682052E-1    4.332125220828600E-1
 8.197242604000000E9    -1.627825826164277E-1    5.099765230569694E-1   -3.329664693101162E-3   -7.028038627822408E-4   -3.448999644600330E-3   -5.846136232939670E-4   -1.048676329668593E-1    4.331258916375710E-1
 8.197245011450000E9    -1.626190453849601E-1    5.097705947321974E-1   -3.352280412117712E-3   -7.149875939564415E-4   -3.439661940539533E-3   -5.918184120838725E-4   -1.047333853918029E-1    4.332852718245623E-1
 8.197247418900000E9    -1.623340443500322E-1    5.100065498389941E-1   -3.341664015898603E-3   -7.089993994962158E-4   -3.430659348661492E-3   -5.898587480500845E-4   -1.047212901562719E-1    4.332655733130909E-1
 8.197249826350000E9    -1.622155868928018E-1    5.099654412901682E-1   -3.369008420160725E-3   -6.993839537769820E-4   -3.445699553771496E-3   -5.972259370596022E-4   -1.044622550273344E-1    4.331903096766940E-1
 8.197252233800000E9    -1.620308835247965E-1    5.099344847286044E-1   -3.357956372394823E-3   -7.235455806424031E-4   -3.463758523108449E-3   -6.002830076708229E-4   -1.042933260681453E-1    4.333971117520311E-1
 8.197254641250000E9    -1.617198966058768E-1    5.101010940446054E-1   -3.379579009701999E-3   -6.986195764421571E-4   -3.470663772503394E-3   -5.845531793581807E-4   -1.042394930493930E-1    4.332327673628243E-1
 8.197257048700000E9    -1.615604735445440E-1    5.102332986678307E-1   -3.359045895509391E-3   -7.158962314123384E-4   -3.484404690597767E-3   -5.936421873186878E-4   -1.041583304928658E-1    4.333989777663719E-1
 8.197259456150000E9    -1.614248326243056E-1    5.103078438454125E-1   -3.386128598307410E-3   -7.203335308484783E-4   -3.487444590793589E-3   -5.896556622808891E-4   -1.040591879004867E-1    4.335040819834837E-1
 8.197261863600000E9    -1.611633388651444E-1    5.103043452631248E-1   -3.390278614865686E-3   -7.375241192865517E-4   -3.473732195319584E-3   -5.853463613858195E-4   -1.038277890236783E-1    4.335524008003867E-1
 8.197264271050000E9    -1.610288159970382E-1    5.103734703217215E-1   -3.416623101195698E-3   -7.286079518509579E-4   -3.454710227080146E-3   -6.060980550358476E-4   -1.037799406623319E-1    4.333314415691041E-1
 8.197266678500000E9    -1.608194626940380E-1    5.104282283098484E-1   -3.402848984611181E-3   -7.181955705576705E-4   -3.469526675942131E-3   -6.066803698511169E-4   -1.035327548098062E-1    4.334388946006504E-1
 8.197269085950000E9    -1.605409616022157E-1    5.104814413958283E-1   -3.417411248708177E-3   -7.266712262376752E-4   -3.519092314370586E-3   -6.191411753830696E-4   -1.034104957832128E-1    4.335793450283893E-1
 8.197271493400000E9    -1.602693960851510E-1    5.104443392334175E-1   -3.429201365495770E-3   -7.243651342084934E-4   -3.520772123299543E-3   -5.819548044269872E-4   -1.032881389892992E-1    4.335176550884596E-1
 8.197273900850000E9    -1.600082383529801E-1    5.106426454753084E-1   -3.438191977552360E-3   -7.156288771375548E-4   -3.527297410287961E-3   -5.653194576110003E-4   -1.031829753408567E-1    4.336570310989403E-1
 8.197276308300000E9    -1.599055422323759E-1    5.105803580996636E-1   -3.436107565628764E-3   -7.245482790971688E-4   -3.510177683799500E-3   -5.784741904135622E-4   -1.030362639859706E-1    4.335653508364470E-1
 8.197278715750000E9    -1.596355707527715E-1    5.105024455745161E-1   -3.442894528492879E-3   -7.076105047505510E-4   -3.535052115238831E-3   -5.833195182601089E-4   -1.027446149026295E-1    4.336406172103557E-1
 8.197281123200000E9    -1.594655774146417E-1    5.107092723691439E-1   -3.474950730439278E-3   -7.167537053779425E-4   -3.519093075857601E-3   -5.733819149572286E-4   -1.026604280029292E-1    4.335578416048099E-1
 8.197283530650000E9    -1.593649552713001E-1    5.106841241886618E-1   -3.455859525019604E-3   -7.114663033682167E-4   -3.544110353680800E-3   -5.888285492425163E-4   -1.025310411629038E-1    4.336901523467538E-1
 8.197285938100000E9    -1.591267957053385E-1    5.107890189151604E-1   -3.455229761282169E-3   -6.916116875737205E-4   -3.562007643634770E-3   -5.706094090100949E-4   -1.023270197920140E-1    4.336835575467900E-1
 8.197288345550000E9    -1.588975532941242E-1    5.108169517173452E-1   -3.497119736034357E-3   -6.921146714922782E-4   -3.527491239794492E-3   -5.756932096976827E-4   -1.022664813085280E-1    4.337017953719021E-1
 8.197290753000000E9    -1.587332639812835E-1    5.108070551862630E-1   -3.464168949436928E-3   -7.132488964547495E-4   -3.591453518999828E-3   -5.763986634691738E-4   -1.020692582302264E-1    4.335880760142353E-1
 8.197293160450000E9    -1.585941803964625E-1    5.108450721700410E-1   -3.487565644154134E-3   -6.947278253754537E-4   -3.568995327516881E-3   -5.664406863355033E-4   -1.020987249834246E-1    4.336572873670186E-1
 8.197295567900000E9    -1.582721090020697E-1    5.109673882337933E-1   -3.468475794830947E-3   -6.980275326419521E-4   -3.603393009120544E-3   -5.548745211011771E-4   -1.018832657148776E-1    4.337481799088015E-1
 8.197297975350000E9    -1.580980006596548E-1    5.110625223848781E-1   -3.485586946723926E-3   -6.800657998344479E-4   -3.596828229865426E-3   -5.722549358881358E-4   -1.018512132714809E-1    4.337514293465076E-1
 8.197300382800000E9    -1.578731700039421E-1    5.110271942090040E-1   -3.509278662090472E-3   -6.907205200465272E-4   -3.635749597304858E-3   -5.473542352537524E-4   -1.016243692822509E-1    4.338859316111210E-1
 8.197302790250000E9    -1.576714989746435E-1    5.110891132151396E-1   -3.496078197741492E-3   -6.677501359069829E-4   -3.610246552504298E-3   -5.823660212345992E-4   -1.015932727379146E-1    4.340588008730333E-1
 8.197305197700000E9    -1.573305894015831E-1    5.111667285072578E-1   -3.521286340275588E-3   -6.731919008721515E-4   -3.613913993097888E-3   -5.577590319356968E-4   -1.013238803690459E-1    4.339169128007721E-1
 8.197307605150000E9    -1.572898246243170E-1    5.113254615013112E-1   -3.518083072755094E-3   -6.822878808680118E-4   -3.653667130063149E-3   -5.578522644865597E-4   -1.012002231497695E-1    4.339560660155267E-1
 8.197310012600000E9    -1.569896849649899E-1    5.113291262604093E-1   -3.534477712739303E-3   -7.204167939889495E-4   -3.622293854968013E-3   -5.357417772191439E-4   -1.011348939893384E-1    4.340319346513413E-1
 8.197312420050000E9    -1.568282937680312E-1    5.113758692304862E-1   -3.555813449020351E-3   -6.715415064929862E-4   -3.646198841396256E-3   -5.499304580365405E-4   -1.009445690746322E-1    4.341063065887327E-1
 8.197314827500000E9    -1.565690607955533E-1    5.113076960654582E-1   -3.546435186132140E-3   -6.767112000653202E-4   -3.659223806142238E-3   -5.501211733190980E-4   -1.007900287988019E-1    4.340117291233224E-1
