#  HZ   S   RI   R     50.00 
! Rohde & Schwarz Vector Network Analyzer 
! Rohde-Schwarz,ZNB20-2Port,1311601062101988,3.16
! Created: UTC 3/20/2024, 4:59:51 PM
! freq[Hz]                re:S11                  im:S11                  re:S21                  im:S21                  re:S12                  im:S12                  re:S22                  im:S22
 8.156843226000000E9     3.994351090966274E-1    3.558344119968005E-1   -1.430614347047664E-3    2.263389028420676E-3   -1.414894729636561E-3    2.300203941527224E-3    4.515770044173396E-1    2.135699130216876E-1
 8.157026587600000E9     4.077020671352805E-1    3.466322092136017E-1   -1.409600405026913E-3    2.265921981404082E-3   -1.401662391668980E-3    2.310566730973861E-3    4.559829451623877E-1    2.032423375028446E-1
 8.157209949200000E9     4.157568297974123E-1    3.372151325126677E-1   -1.335245634575466E-3    2.311082075107742E-3   -1.339358523061685E-3    2.317712941209559E-3    4.602402691113221E-1    1.927045459803624E-1
 8.157393310800000E9     4.236005932900381E-1    3.277097009928576E-1   -1.271832819066630E-3    2.380132742497926E-3   -1.275856878873015E-3    2.361805107808858E-3    4.643103163054613E-1    1.819894720951741E-1
 8.157576672400000E9     4.311769125496588E-1    3.181793628441310E-1   -1.204937919197282E-3    2.343298973212704E-3   -1.216908354323462E-3    2.374956456261070E-3    4.680282786670090E-1    1.714904205213101E-1
 8.157760034000000E9     4.384997118840535E-1    3.081998359235885E-1   -1.185033069318990E-3    2.356895664010539E-3   -1.123184438121850E-3    2.408222207612748E-3    4.715783854675116E-1    1.607705170909593E-1
 8.157943395600000E9     4.456108838931124E-1    2.982638297042004E-1   -1.100162446060055E-3    2.381959738856789E-3   -1.094775281446079E-3    2.426160165185286E-3    4.748610287224347E-1    1.498402424797272E-1
 8.158126757200000E9     4.526232506417898E-1    2.880506367730701E-1   -1.034911567401394E-3    2.416447419539888E-3   -1.014962283815551E-3    2.430020441806413E-3    4.778766405832846E-1    1.390253856466969E-1
 8.158310118800000E9     4.593542350359630E-1    2.775779630377547E-1   -9.557447289040618E-4    2.470054050217614E-3   -9.907163426111614E-4    2.465527165195286E-3    4.806312789239526E-1    1.281089083461450E-1
 8.158493480400000E9     4.657942729505896E-1    2.672413398222583E-1   -9.180803894817188E-4    2.463796501597905E-3   -9.119738033374508E-4    2.486643977855982E-3    4.830838824663431E-1    1.173683519963355E-1
 8.158676842000000E9     4.719690560238718E-1    2.564811712256855E-1   -8.528744957874709E-4    2.488359998994399E-3   -8.751958005449108E-4    2.491878083151046E-3    4.853597364640701E-1    1.061788905196372E-1
 8.158860203600000E9     4.779033311423955E-1    2.457127565432232E-1   -7.689435103935949E-4    2.501345297383036E-3   -7.671818964003449E-4    2.516869422440494E-3    4.873866933027108E-1    9.517578384814002E-2
 8.159043565200000E9     4.835579075316025E-1    2.348155691646408E-1   -7.288791106874532E-4    2.522759277668500E-3   -7.310597499113624E-4    2.549924153511373E-3    4.891492667067432E-1    8.417711545283661E-2
 8.159226926800000E9     4.889591521837186E-1    2.236872028471032E-1   -6.873241852300006E-4    2.531489984016191E-3   -6.811475975859700E-4    2.496050921461672E-3    4.906381176368420E-1    7.302802251311917E-2
 8.159410288400000E9     4.942352792619746E-1    2.126433977538207E-1   -6.074040878171137E-4    2.549227844156605E-3   -6.082935770130155E-4    2.536949937164798E-3    4.919042212271721E-1    6.185758738686691E-2
 8.159593650000000E9     4.990677232895653E-1    2.013363153360024E-1   -5.518748497253541E-4    2.538739695727354E-3   -5.343595338088318E-4    2.511055216853941E-3    4.929114549273567E-1    5.085063658685120E-2
 8.159777011600000E9     5.037050173960260E-1    1.899045113709935E-1   -4.638147500437910E-4    2.588476320527772E-3   -4.945144509434098E-4    2.565013775197357E-3    4.937824067339210E-1    3.970889466190451E-2
 8.159960373200000E9     5.079794548174688E-1    1.784526713173894E-1   -4.269932087980371E-4    2.515976813497040E-3   -4.214626147008561E-4    2.584572586492050E-3    4.941532122021704E-1    2.844696471111066E-2
 8.160143734800000E9     5.122191249601684E-1    1.668351885274662E-1   -3.644330684602748E-4    2.553023807476087E-3   -3.621027800576474E-4    2.538338591017638E-3    4.943185500048313E-1    1.737597983673552E-2
 8.160327096400000E9     5.159891104930920E-1    1.550727185470683E-1   -2.874592917401090E-4    2.572304470810573E-3   -2.879304770601446E-4    2.562567388815771E-3    4.944012305918584E-1    6.164577375719335E-3
 8.160510458000000E9     5.196172057567537E-1    1.432949465490387E-1   -2.484298270995028E-4    2.545558924414699E-3   -2.456972433060573E-4    2.558715044579401E-3    4.941310802105344E-1   -4.731780208353278E-3
 8.160693819600000E9     5.228796517106477E-1    1.314145689544678E-1   -1.742266311942088E-4    2.575607138367696E-3   -1.812622814440608E-4    2.565711639986326E-3    4.936466408139846E-1   -1.589927816553418E-2
 8.160877181200000E9     5.259140701369770E-1    1.195839702165209E-1   -1.279363574039284E-4    2.554885376798755E-3   -1.447241359258999E-4    2.568406083494415E-3    4.928356419005565E-1   -2.690877281464714E-2
 8.161060542800000E9     5.287246002083634E-1    1.076417385706455E-1   -7.407860772556770E-5    2.554261411564757E-3   -4.627621472409020E-5    2.536375356739427E-3    4.918522378663988E-1   -3.798350604257202E-2
 8.161243904400000E9     5.311985744768003E-1    9.536321875958692E-2   -1.667643682364971E-5    2.552416138877025E-3   -1.910159060359629E-5    2.542972304556781E-3    4.905420034021883E-1   -4.905797658707184E-2
 8.161427266000000E9     5.334785900496255E-1    8.329579028906245E-2    3.193661581065120E-5    2.550910909043318E-3    3.611280799677338E-5    2.533300228952163E-3    4.890812430334017E-1   -5.984684299216348E-2
 8.161610627600000E9     5.353072461204170E-1    7.122083234208648E-2    1.119397775386674E-4    2.548712624689696E-3    1.001148210044396E-4    2.572611906055830E-3    4.873494070229507E-1   -7.087259148568466E-2
 8.161793989200000E9     5.370965502366084E-1    5.896549406699526E-2    2.010095750571410E-4    2.521418516921734E-3    1.848002552414839E-4    2.550257045589891E-3    4.851477052540550E-1   -8.182306224648669E-2
 8.161977350800000E9     5.383178913236262E-1    4.672593280038904E-2    2.204439121025455E-4    2.496101692993946E-3    2.273592748702418E-4    2.495736403232282E-3    4.830153133179760E-1   -9.247171520975861E-2
 8.162160712400000E9     5.393992384570062E-1    3.444265608534971E-2    3.043617166571446E-4    2.501652281849140E-3    2.782054998383848E-4    2.473967912342214E-3    4.805491987592238E-1   -1.031535583701466E-1
 8.162344074000000E9     5.402516025150730E-1    2.212118992333581E-2    3.544552217705072E-4    2.499729478899235E-3    3.710755430308180E-4    2.519881364450471E-3    4.779012670422359E-1   -1.139758296789135E-1
 8.162527435600000E9     5.406793769242858E-1    9.856901790626291E-3    4.327031303038702E-4    2.443768516143240E-3    4.139044616487654E-4    2.481259878056285E-3    4.748750400015914E-1   -1.244858514634324E-1
 8.162710797200000E9     5.407638179831741E-1   -2.459935189505934E-3    4.772275677853587E-4    2.431910698909669E-3    4.703364322520274E-4    2.468803647206597E-3    4.717046590948888E-1   -1.350264074335416E-1
 8.162894158800000E9     5.408297873109820E-1   -1.480504007544435E-2    5.239347470318505E-4    2.448017279282746E-3    5.532335696010622E-4    2.455425920444862E-3    4.684498838462031E-1   -1.454649446981499E-1
 8.163077520400000E9     5.405321272369126E-1   -2.713896414405811E-2    5.836516736013481E-4    2.393822782750896E-3    5.704227058431871E-4    2.423218285244178E-3    4.647284322646174E-1   -1.557178851273666E-1
 8.163260882000000E9     5.397634669411482E-1   -3.941019280128703E-2    6.299867735197633E-4    2.383403811168082E-3    6.418604542094894E-4    2.425411503564727E-3    4.607459609231493E-1   -1.659985193136675E-1
 8.163444243600000E9     5.390123847366940E-1   -5.162542496347161E-2    6.918036742624051E-4    2.379166480111837E-3    6.825343495069229E-4    2.388708180163501E-3    4.567978249304801E-1   -1.760775490611695E-1
 8.163627605200000E9     5.377646342934540E-1   -6.397688701926948E-2    7.341270633792202E-4    2.366044162224617E-3    7.444264934679340E-4    2.395656931472612E-3    4.524555823485829E-1   -1.863195079389580E-1
 8.163810966800000E9     5.362804709994946E-1   -7.625225302800098E-2    7.884092004889137E-4    2.335379471765573E-3    7.957992522713337E-4    2.359832451226880E-3    4.479006328100367E-1   -1.960607397072546E-1
 8.163994328400000E9     5.344120249522195E-1   -8.837127734992546E-2    8.335831896498689E-4    2.297905030839230E-3    8.216344135478859E-4    2.336989187276780E-3    4.432345596504986E-1   -2.060602391818493E-1
 8.164177690000000E9     5.325185023695300E-1   -1.005850548676114E-1    8.973069303914112E-4    2.271889668466116E-3    8.731272427384178E-4    2.360300393014868E-3    4.382641261837236E-1   -2.158337376230449E-1
 8.164361051600000E9     5.301466017369870E-1   -1.126161283842161E-1    9.526945184287943E-4    2.259920478199989E-3    9.276406994273305E-4    2.270146340227020E-3    4.331431405893175E-1   -2.252999547727675E-1
 8.164544413200000E9     5.276966999996653E-1   -1.248114957487653E-1    9.880181615522466E-4    2.233319750539950E-3    1.000011814175439E-3    2.254440765172607E-3    4.275321183846889E-1   -2.348101745900326E-1
 8.164727774800000E9     5.247090011683332E-1   -1.366960817651518E-1    1.053126651093366E-3    2.196705864322111E-3    1.045638603313046E-3    2.219048668423365E-3    4.220133152145431E-1   -2.440951080044119E-1
 8.164911136400000E9     5.215845288901542E-1   -1.486951448632142E-1    1.098075541665919E-3    2.169418348099371E-3    1.123384761020279E-3    2.246933011203543E-3    4.163684980157500E-1   -2.532927044878148E-1
 8.165094498000000E9     5.181509569052466E-1   -1.605618462402045E-1    1.153773810376376E-3    2.129066003489178E-3    1.108685726690378E-3    2.177087155149104E-3    4.102725625764027E-1   -2.623630204329574E-1
 8.165277859600000E9     5.143986749792999E-1   -1.722937137393944E-1    1.217752052661696E-3    2.107603418184501E-3    1.182249867103383E-3    2.164585120501252E-3    4.041699521672291E-1   -2.711872687946568E-1
 8.165461221200000E9     5.103966137571245E-1   -1.839961831887328E-1    1.222411063515696E-3    2.074874062500365E-3    1.226537131052930E-3    2.132266504200660E-3    3.977150386435499E-1   -2.800560026651119E-1
 8.165644582800000E9     5.062811692159361E-1   -1.954735510235577E-1    1.266188628765826E-3    2.040722390118187E-3    1.299093242182026E-3    2.081247609108875E-3    3.911192417441635E-1   -2.886271332558220E-1
 8.165827944400000E9     5.018152143345062E-1   -2.070776206377067E-1    1.352211039132829E-3    2.022318012249850E-3    1.367006635733269E-3    2.056068970515383E-3    3.842946911603785E-1   -2.970757645402594E-1
 8.166011306000000E9     4.969981263580139E-1   -2.185139752477028E-1    1.373509254818586E-3    1.956362523883637E-3    1.390034616550187E-3    2.019171320952964E-3    3.774619241708434E-1   -3.052725998242102E-1
 8.166194667600000E9     4.920516126325284E-1   -2.297606110542381E-1    1.416487882937578E-3    1.937115093025318E-3    1.405558495400611E-3    1.980586009810064E-3    3.704872831140353E-1   -3.135074516747981E-1
 8.166378029200000E9     4.867296231527917E-1   -2.408931978918786E-1    1.435398199229042E-3    1.914474025390786E-3    1.442221591019149E-3    1.937503607888044E-3    3.629291983058786E-1   -3.215407406530688E-1
 8.166561390800000E9     4.811208945633814E-1   -2.519142233037857E-1    1.471906666074965E-3    1.861971451642554E-3    1.480728948268128E-3    1.918086283451723E-3    3.556546164916822E-1   -3.291993231638965E-1
 8.166744752400000E9     4.752215822182788E-1   -2.629895440452606E-1    1.528980662788581E-3    1.836202605221715E-3    1.533557635445334E-3    1.874456342964541E-3    3.480426008772093E-1   -3.369072404438270E-1
 8.166928114000000E9     4.692781879753473E-1   -2.738011167256733E-1    1.559676659875943E-3    1.806880942838125E-3    1.581111812354494E-3    1.813128366727406E-3    3.401523592529682E-1   -3.443523631751459E-1
 8.167111475600000E9     4.630225115328962E-1   -2.844016835712409E-1    1.605378465308146E-3    1.765717732784657E-3    1.620235181667177E-3    1.810055161535655E-3    3.322423410183420E-1   -3.517043226022170E-1
 8.167294837200000E9     4.563760265824642E-1   -2.948980356641151E-1    1.630593583924676E-3    1.687735665435489E-3    1.674510240396738E-3    1.765374080617024E-3    3.241423780313352E-1   -3.588641600528824E-1
 8.167478198800000E9     4.498192675310548E-1   -3.052595344741980E-1    1.669089645068591E-3    1.670711750287864E-3    1.687566306931218E-3    1.708463907148926E-3    3.158528817069001E-1   -3.656817958876092E-1
 8.167661560400000E9     4.426770316514638E-1   -3.155021263270945E-1    1.709099767433186E-3    1.634220284102754E-3    1.718643625849282E-3    1.674107260876986E-3    3.074764296662560E-1   -3.723706259899640E-1
 8.167844922000000E9     4.355053820190632E-1   -3.256035112646448E-1    1.750853205233133E-3    1.587314826070400E-3    1.745656180692398E-3    1.662113970123838E-3    2.991129610619677E-1   -3.789042392663656E-1
 8.168028283600000E9     4.279385877347796E-1   -3.354157657300217E-1    1.777466353114300E-3    1.540185131278835E-3    1.779482771820131E-3    1.590173232345548E-3    2.901339750676107E-1   -3.851378055083371E-1
 8.168211645200000E9     4.201732399620167E-1   -3.450838816971523E-1    1.815002557694952E-3    1.529241445570946E-3    1.838107595533793E-3    1.525102882458386E-3    2.815401193569471E-1   -3.914832241399127E-1
 8.168395006800000E9     4.123026121334159E-1   -3.545734707367728E-1    1.846199939467970E-3    1.441885591654013E-3    1.854027727840773E-3    1.507008318277442E-3    2.727711982943790E-1   -3.972526670601804E-1
 8.168578368400000E9     4.042100640397672E-1   -3.639613509357753E-1    1.891272097620809E-3    1.401957696569869E-3    1.888126721509110E-3    1.433423329425554E-3    2.636403051444780E-1   -4.030740653088947E-1
 8.168761730000000E9     3.956530520149003E-1   -3.731736651688825E-1    1.875629831332775E-3    1.385340717979363E-3    1.895475781519947E-3    1.399293543510806E-3    2.545178582447531E-1   -4.084134810108916E-1
 8.168945091600000E9     3.871133218776667E-1   -3.821369348494461E-1    1.904632632728189E-3    1.320155838576841E-3    1.949329522885935E-3    1.367880152386902E-3    2.450989147836088E-1   -4.139274529731711E-1
 8.169128453200000E9     3.783239230280347E-1   -3.909194399554023E-1    1.961368049018016E-3    1.293169213825695E-3    2.003657546797145E-3    1.330968015772007E-3    2.357244083738339E-1   -4.191082224633033E-1
 8.169311814800000E9     3.693426947688960E-1   -3.994565012301314E-1    1.952018721538361E-3    1.228688223275959E-3    2.000238679577475E-3    1.245767879806294E-3    2.266208436391541E-1   -4.237626538437522E-1
 8.169495176400000E9     3.601859556557143E-1   -4.077729661917462E-1    1.988563496192008E-3    1.190573683033099E-3    2.041074378303248E-3    1.212776845188639E-3    2.166545705942489E-1   -4.284647916865919E-1
 8.169678538000000E9     3.507770349185547E-1   -4.159558398695404E-1    2.025081619025386E-3    1.158781436948473E-3    2.064267625010556E-3    1.186129335993955E-3    2.071672335719080E-1   -4.328374573249947E-1
 8.169861899600000E9     3.412935437815234E-1   -4.238574723871817E-1    2.049891340314606E-3    1.113448678529314E-3    2.084362413779272E-3    1.120137016727860E-3    1.973024529800297E-1   -4.370736956623049E-1
 8.170045261200000E9     3.316145941929710E-1   -4.315080994118871E-1    2.079977811264332E-3    1.028250699573710E-3    2.101802554562275E-3    1.085152963816356E-3    1.875300124903485E-1   -4.410540839784662E-1
 8.170228622800000E9     3.215089828350787E-1   -4.390298488801436E-1    2.097520185243300E-3    9.983339767889450E-4    2.138493907591636E-3    1.022114539590317E-3    1.778281836670504E-1   -4.450616350599063E-1
 8.170411984400000E9     3.114611795533347E-1   -4.463565502265557E-1    2.117186327421793E-3    9.469014070742755E-4    2.138259856968130E-3    9.892439627915554E-4    1.675329477588628E-1   -4.485925965597538E-1
 8.170595346000000E9     3.011924782997282E-1   -4.533660851273951E-1    2.132619662020482E-3    8.817396647712422E-4    2.178445825895920E-3    9.249978222163168E-4    1.575186240543142E-1   -4.518380109225046E-1
 8.170778707600000E9     2.906646455273815E-1   -4.601846843945510E-1    2.116680404426841E-3    8.368323805096675E-4    2.184569477621363E-3    8.822305807747214E-4    1.472883374941547E-1   -4.550145060595582E-1
 8.170962069200000E9     2.801098165379221E-1   -4.667548968644042E-1    2.150217035538293E-3    8.074401966214611E-4    2.221997622716725E-3    8.185894772089694E-4    1.372550615872862E-1   -4.579324738161323E-1
 8.171145430800000E9     2.694280518190686E-1   -4.730092687142339E-1    2.168497312396553E-3    7.290330145873055E-4    2.227325897591270E-3    7.977379642152959E-4    1.271011025569151E-1   -4.605738131591181E-1
 8.171328792400000E9     2.585731495500843E-1   -4.790467622735456E-1    2.179201756132187E-3    7.151740569098113E-4    2.209063221502273E-3    7.370631776427821E-4    1.166791002539815E-1   -4.630158568839456E-1
 8.171512154000000E9     2.474271727851781E-1   -4.849084851775499E-1    2.204673985573608E-3    6.332630685830176E-4    2.240025692580465E-3    6.921834493411288E-4    1.062767415388689E-1   -4.652875968761898E-1
 8.171695515600000E9     2.363774333463461E-1   -4.904477339611779E-1    2.204093059922644E-3    6.039772679421331E-4    2.256777805186535E-3    6.530616722166092E-4    9.599128738348438E-2   -4.673410961378914E-1
 8.171878877200000E9     2.250937261136410E-1   -4.957350893995462E-1    2.235923633943691E-3    5.530446148113993E-4    2.295478280179220E-3    5.604773077778032E-4    8.563109644938605E-2   -4.690242235372292E-1
 8.172062238800000E9     2.136223383123010E-1   -5.008773588108781E-1    2.238338507123852E-3    5.086121517305906E-4    2.281753980478874E-3    5.206995345248008E-4    7.531103958903679E-2   -4.705236548978240E-1
 8.172245600400000E9     2.021397878923017E-1   -5.055420240586102E-1    2.248846919206962E-3    4.457573143794379E-4    2.303465510516102E-3    4.574539811861641E-4    6.463952221826974E-2   -4.717279383860684E-1
 8.172428962000000E9     1.903966772300046E-1   -5.102015400159068E-1    2.263807001077702E-3    4.013344510978612E-4    2.284687392067850E-3    4.199160895231950E-4    5.421264507447508E-2   -4.729042913145914E-1
 8.172612323600000E9     1.786852018841107E-1   -5.142571937423870E-1    2.274655598696097E-3    3.609859126647558E-4    2.324379748966803E-3    3.626157750160587E-4    4.372863439789376E-2   -4.735822810767577E-1
 8.172795685200000E9     1.669388434349977E-1   -5.184539383217289E-1    2.246133014095373E-3    2.958833586156598E-4    2.323937124156497E-3    2.867494609966829E-4    3.328629545202125E-2   -4.744266677757311E-1
 8.172979046800000E9     1.548609614417706E-1   -5.220416030553817E-1    2.262632611360407E-3    2.414744479333366E-4    2.296319172500193E-3    2.456689544080418E-4    2.275924334055666E-2   -4.746364424380371E-1
 8.173162408400000E9     1.428505400142867E-1   -5.254217958181991E-1    2.264820357155453E-3    2.000741357098106E-4    2.348158739072116E-3    1.791321599142691E-4    1.211998856117239E-2   -4.747287663623144E-1
 8.173345770000000E9     1.308765202434579E-1   -5.285668464699683E-1    2.294525222384213E-3    1.257140756125087E-4    2.318502625927684E-3    1.635011099839292E-4    1.540367977550653E-3   -4.747826026874620E-1
