#  HZ   S   RI   R     50.00 
! Rohde & Schwarz Vector Network Analyzer 
! Rohde-Schwarz,ZNB20-2Port,1311601062101988,3.16
! Created: UTC 3/20/2024, 5:15:00 PM
! freq[Hz]                re:S11                  im:S11                  re:S21                  im:S21                  re:S12                  im:S12                  re:S22                  im:S22
 8.197100968000000E9    -1.737804394786283E-1    5.066880704059538E-1   -3.086047289671893E-3   -7.881004138895300E-4   -3.169250109558083E-3   -6.403365029053402E-4   -1.126199672639773E-1    4.315404781090981E-1
 8.197103364625000E9    -1.737316347295101E-1    5.067669504235459E-1   -3.099466333698866E-3   -7.376215623429701E-4   -3.198733925678352E-3   -6.725142579188627E-4   -1.126203498314337E-1    4.314260908361723E-1
 8.197105761250000E9    -1.733849869646439E-1    5.068001689749480E-1   -3.079328978432016E-3   -7.611016396380915E-4   -3.180752675075001E-3   -6.645299501791136E-4   -1.123715857939499E-1    4.314451252532677E-1
 8.197108157875000E9    -1.733165378036147E-1    5.068687613386151E-1   -3.060246925472117E-3   -7.501223746395576E-4   -3.182741819523764E-3   -6.825934463591669E-4   -1.122758300996683E-1    4.315271936293184E-1
 8.197110554500000E9    -1.730671680964483E-1    5.069362612190820E-1   -3.097897783813716E-3   -7.795745452568750E-4   -3.192910471111635E-3   -6.447147640780223E-4   -1.121292640904126E-1    4.316060923166744E-1
 8.197112951125000E9    -1.728948686852795E-1    5.069699322555193E-1   -3.113456653212728E-3   -7.596010092304194E-4   -3.201305408397403E-3   -6.413108004235437E-4   -1.120297254817709E-1    4.317212196844385E-1
 8.197115347750000E9    -1.726309950226978E-1    5.070152812073137E-1   -3.111884440102072E-3   -7.886671691012717E-4   -3.154479426998126E-3   -6.529545038504629E-4   -1.119163684060634E-1    4.317307805718283E-1
 8.197117744375000E9    -1.724855653713436E-1    5.069580427139041E-1   -3.124655559631973E-3   -7.588921349512198E-4   -3.175356089334267E-3   -6.296661622403735E-4   -1.118788008899043E-1    4.318087095251567E-1
 8.197120141000000E9    -1.723551777806619E-1    5.070730519970225E-1   -3.085235261259112E-3   -7.639377291476931E-4   -3.208832073430425E-3   -6.377407147415191E-4   -1.116317445396418E-1    4.317202578067554E-1
 8.197122537625000E9    -1.721782844240446E-1    5.071884251023302E-1   -3.124781779160356E-3   -7.407236082900865E-4   -3.198524296219742E-3   -6.273002013912111E-4   -1.115296170758146E-1    4.317624480102568E-1
 8.197124934250000E9    -1.720107095771365E-1    5.071958809460364E-1   -3.091215954108249E-3   -7.765328475221971E-4   -3.209079413125315E-3   -6.680421213361330E-4   -1.114451241361480E-1    4.318384545940776E-1
 8.197127330875000E9    -1.718071598031827E-1    5.073726674395413E-1   -3.160239654995928E-3   -7.765411677121081E-4   -3.219825898310972E-3   -6.549138026005397E-4   -1.112695050582307E-1    4.318492337652736E-1
 8.197129727500000E9    -1.715216893255591E-1    5.074092007005907E-1   -3.106711898504877E-3   -7.616454494669314E-4   -3.244418847780162E-3   -6.462528978387482E-4   -1.110512736321542E-1    4.317942185549773E-1
 8.197132124125000E9    -1.713416111762219E-1    5.074848521617341E-1   -3.127445845466301E-3   -7.576093206333158E-4   -3.227662083303630E-3   -6.306858121883072E-4   -1.109411872387160E-1    4.319884065865972E-1
 8.197134520750000E9    -1.711872318509347E-1    5.074845695903114E-1   -3.123566362296230E-3   -7.420113530320321E-4   -3.204428395756540E-3   -6.597575345795475E-4   -1.108515896042073E-1    4.319464976678631E-1
 8.197136917375000E9    -1.710284427359265E-1    5.076461969765632E-1   -3.170827067027287E-3   -7.497057447815576E-4   -3.240043379977745E-3   -6.522292464827009E-4   -1.107766891313873E-1    4.318567294627111E-1
 8.197139314000000E9    -1.708727299402043E-1    5.076590563210784E-1   -3.145743573178607E-3   -7.554588428682351E-4   -3.234018831114900E-3   -6.508336979464644E-4   -1.106580452257992E-1    4.320668942716857E-1
 8.197141710625000E9    -1.706993337170866E-1    5.077016564121649E-1   -3.118070566015149E-3   -7.803412374523226E-4   -3.233832888570331E-3   -6.378854996443691E-4   -1.105538643076082E-1    4.319534658479980E-1
 8.197144107250000E9    -1.705095194208222E-1    5.078190849819404E-1   -3.150227444729394E-3   -7.508605735231376E-4   -3.202695989727993E-3   -6.485997381613697E-4   -1.103683522298866E-1    4.321235418861875E-1
 8.197146503875000E9    -1.704455481171540E-1    5.077554172303327E-1   -3.160005871795857E-3   -7.468319558671405E-4   -3.245958699069656E-3   -6.420352320423573E-4   -1.102361603672437E-1    4.319448527665489E-1
 8.197148900500000E9    -1.701190956662326E-1    5.079014300869538E-1   -3.153109700554054E-3   -7.511693945191813E-4   -3.240348089986706E-3   -6.367968116010672E-4   -1.101195622161966E-1    4.320706305426547E-1
 8.197151297125000E9    -1.700002531758031E-1    5.079742600629847E-1   -3.143292591629593E-3   -7.543099770491018E-4   -3.235668278396356E-3   -6.641010024097036E-4   -1.098184857446761E-1    4.321306624132392E-1
 8.197153693750000E9    -1.698672260671696E-1    5.079300394157863E-1   -3.150220326847028E-3   -7.412405030061849E-4   -3.256212654488050E-3   -6.179752363283534E-4   -1.097435419072115E-1    4.321500603333586E-1
 8.197156090375000E9    -1.694643448609412E-1    5.080009631914157E-1   -3.139017993046665E-3   -7.555070497892191E-4   -3.228875498799029E-3   -6.121360873755788E-4   -1.096794147109184E-1    4.322780726374908E-1
 8.197158487000000E9    -1.694985183219382E-1    5.080241748510420E-1   -3.162241231287290E-3   -7.821137269701368E-4   -3.271863148324243E-3   -6.487797250081305E-4   -1.094473023194485E-1    4.324078892218727E-1
 8.197160883625000E9    -1.692645366212544E-1    5.079822077847114E-1   -3.163510538244923E-3   -7.770485680813694E-4   -3.276859635546414E-3   -6.303674438420190E-4   -1.094520286383450E-1    4.322279350871016E-1
 8.197163280250000E9    -1.690884382912121E-1    5.082332687096160E-1   -3.178041398046137E-3   -7.529017286425382E-4   -3.265537961520348E-3   -6.374200294297350E-4   -1.093133996263660E-1    4.323276556623136E-1
 8.197165676875000E9    -1.688325994946897E-1    5.081420829956296E-1   -3.171529612385653E-3   -7.738546406045722E-4   -3.283763268870362E-3   -6.194910218454764E-4   -1.091881997482641E-1    4.321921581648348E-1
 8.197168073500000E9    -1.687067553002310E-1    5.082239319213318E-1   -3.183447262351053E-3   -7.477496328654172E-4   -3.246158291283190E-3   -6.350931226245729E-4   -1.090464577157829E-1    4.324624215621368E-1
 8.197170470125000E9    -1.685183282501876E-1    5.083374101793268E-1   -3.205255764562492E-3   -7.548014503289431E-4   -3.291155507363581E-3   -6.476688205273405E-4   -1.087890066106171E-1    4.323032039313288E-1
 8.197172866750000E9    -1.682863061701882E-1    5.083972752961965E-1   -3.188093375891049E-3   -7.379803509290944E-4   -3.274853392197852E-3   -6.270671032254500E-4   -1.088406822510121E-1    4.324186751735341E-1
 8.197175263375000E9    -1.680529281435833E-1    5.083054914371117E-1   -3.211925871847838E-3   -7.393414442679413E-4   -3.284196980544508E-3   -6.246877136412321E-4   -1.083903999900658E-1    4.325154972473662E-1
 8.197177660000000E9    -1.680254996450679E-1    5.085189704261110E-1   -3.192305894075030E-3   -7.389236143470804E-4   -3.286987733415259E-3   -6.059461457569545E-4   -1.085102766290355E-1    4.323492659664215E-1
 8.197180056625000E9    -1.676748005232461E-1    5.084163284721687E-1   -3.222892919935313E-3   -7.454462298470211E-4   -3.316283798437204E-3   -6.528765690424896E-4   -1.082366922471857E-1    4.323610703388145E-1
 8.197182453250000E9    -1.675166235490253E-1    5.085502620694223E-1   -3.213549557533892E-3   -7.600123918232929E-4   -3.346806967155693E-3   -6.140073417977314E-4   -1.082972624100675E-1    4.324675718879102E-1
 8.197184849875000E9    -1.673877799152231E-1    5.087756521071315E-1   -3.230798963579219E-3   -7.516317461932208E-4   -3.318025726904050E-3   -6.458758826754155E-4   -1.079257093291334E-1    4.325470261226641E-1
 8.197187246500000E9    -1.671028483538506E-1    5.086592867789367E-1   -3.223489623374841E-3   -7.394222676608594E-4   -3.295411952635385E-3   -6.284759563209892E-4   -1.078437034496743E-1    4.324216649293437E-1
 8.197189643125000E9    -1.669533219217924E-1    5.086866286995664E-1   -3.224848515801959E-3   -7.404150381779602E-4   -3.325650873179050E-3   -5.930998793883228E-4   -1.077613515705907E-1    4.326721256403456E-1
 8.197192039750000E9    -1.667855237821497E-1    5.088159388776065E-1   -3.202960930349704E-3   -7.431211964805556E-4   -3.313843717251985E-3   -6.394090653365116E-4   -1.077842483665372E-1    4.326524362396776E-1
 8.197194436375000E9    -1.665966503831361E-1    5.087454733984678E-1   -3.241084234544209E-3   -7.275898922402005E-4   -3.329618866216260E-3   -6.222097470917850E-4   -1.075747864728661E-1    4.326124234699648E-1
 8.197196833000000E9    -1.663752997016384E-1    5.086706044014799E-1   -3.241060987217504E-3   -7.554791374536737E-4   -3.345028870190551E-3   -6.006494895401617E-4   -1.073787462312791E-1    4.326591659925618E-1
 8.197199229625000E9    -1.662139252467308E-1    5.089919046476608E-1   -3.227714985145804E-3   -7.330729318561668E-4   -3.350830423011526E-3   -6.451804235177813E-4   -1.071395251122550E-1    4.327078997836665E-1
 8.197201626250000E9    -1.659701283340962E-1    5.090849787479219E-1   -3.247662295237589E-3   -7.228624362221685E-4   -3.378612883662491E-3   -6.222407317895517E-4   -1.070301136733172E-1    4.326138831164397E-1
 8.197204022875000E9    -1.657199336685007E-1    5.090338748139766E-1   -3.234121938936229E-3   -7.474725722715249E-4   -3.355824455251032E-3   -5.887021410197260E-4   -1.069148329521623E-1    4.326377241695717E-1
 8.197206419500000E9    -1.656175997527852E-1    5.090594756067278E-1   -3.238846570198177E-3   -7.501834113565227E-4   -3.353193826564293E-3   -6.079349079492650E-4   -1.067711962367155E-1    4.328191559785174E-1
 8.197208816125000E9    -1.653997570569682E-1    5.091971923194357E-1   -3.254913445092217E-3   -7.408790395970297E-4   -3.338706494612810E-3   -5.983545305002923E-4   -1.066973430433971E-1    4.327970492595402E-1
 8.197211212750000E9    -1.652294616236150E-1    5.091684463962050E-1   -3.269422842700266E-3   -7.481035647478716E-4   -3.359372245677079E-3   -5.893497067565174E-4   -1.066411867804880E-1    4.327864391675981E-1
 8.197213609375000E9    -1.650948663281402E-1    5.093983224483165E-1   -3.256730088076454E-3   -7.176815671115787E-4   -3.369642245970925E-3   -6.624337689092226E-4   -1.064023983198446E-1    4.329466723975873E-1
 8.197216006000000E9    -1.648380129549220E-1    5.091906979737945E-1   -3.271854503240586E-3   -7.105446094334149E-4   -3.372421481908954E-3   -6.325625597487396E-4   -1.062846526931916E-1    4.328691034029546E-1
 8.197218402625000E9    -1.647135427171353E-1    5.094405287600738E-1   -3.278454165672254E-3   -7.256244360179994E-4   -3.389950141854191E-3   -5.770853463658523E-4   -1.061772029681316E-1    4.328974837689930E-1
 8.197220799250000E9    -1.644862640043817E-1    5.093380832743118E-1   -3.304339500691213E-3   -7.353676036921257E-4   -3.384598566586971E-3   -5.987418717899358E-4   -1.060856687142346E-1    4.329351307464490E-1
 8.197223195875000E9    -1.642898713911409E-1    5.095170898544933E-1   -3.289220231463746E-3   -7.340472106880649E-4   -3.366518371322847E-3   -6.201193245451566E-4   -1.059453606378190E-1    4.329834449992086E-1
 8.197225592500000E9    -1.640615661052814E-1    5.095323121883605E-1   -3.289486655846653E-3   -7.295411892166530E-4   -3.402516207991655E-3   -6.039812696516338E-4   -1.057151425064765E-1    4.330609039042075E-1
 8.197227989125000E9    -1.639417709303414E-1    5.094625859361218E-1   -3.300922842441579E-3   -7.606592988942567E-4   -3.415892471921131E-3   -6.154275860589962E-4   -1.055992645320125E-1    4.330014404791050E-1
 8.197230385750000E9    -1.636790867430472E-1    5.095841621925487E-1   -3.310356634799406E-3   -7.214707521687815E-4   -3.392803879494804E-3   -6.361448592295162E-4   -1.055460091895222E-1    4.332733959933797E-1
 8.197232782375000E9    -1.634185630612946E-1    5.095610741750431E-1   -3.309211432749181E-3   -7.394857334049687E-4   -3.396895621404036E-3   -5.775528136521984E-4   -1.053034445610537E-1    4.331525318287300E-1
 8.197235179000000E9    -1.633306912772914E-1    5.096368932529842E-1   -3.334382489038450E-3   -7.490927192058895E-4   -3.411130367783664E-3   -6.019675386622892E-4   -1.053472872720624E-1    4.331941249202999E-1
 8.197237575625000E9    -1.631692392491584E-1    5.097146737129509E-1   -3.318691643894079E-3   -7.308293505535300E-4   -3.393350071832963E-3   -5.964783186614082E-4   -1.052280549424084E-1    4.332712390315990E-1
 8.197239972250000E9    -1.628322828312989E-1    5.099062432830568E-1   -3.337665538858732E-3   -7.304417708496939E-4   -3.436468168300311E-3   -6.173105398617552E-4   -1.049864656872709E-1    4.332064698939344E-1
 8.197242368875000E9    -1.626323379563474E-1    5.099347878625659E-1   -3.348300099916765E-3   -7.410699095737389E-4   -3.458259366755463E-3   -6.076562615728690E-4   -1.048120814941653E-1    4.333001700381997E-1
 8.197244765500000E9    -1.625413820593722E-1    5.098882012391319E-1   -3.372091453309580E-3   -6.971856683160753E-4   -3.385043764430528E-3   -5.961415532512149E-4   -1.047369904263024E-1    4.332996168589947E-1
 8.197247162125000E9    -1.623510097555010E-1    5.099949182534458E-1   -3.345023877734233E-3   -6.938088834806022E-4   -3.471748586294798E-3   -6.014078677098185E-4   -1.046052725274604E-1    4.334466079756404E-1
 8.197249558750000E9    -1.621219754580706E-1    5.100935465107704E-1   -3.342586014079534E-3   -7.442122376241930E-4   -3.484812991815212E-3   -5.819419143315855E-4   -1.044925238294727E-1    4.333922355297758E-1
 8.197251955375000E9    -1.620573486432902E-1    5.101468209815465E-1   -3.362692567923244E-3   -7.365443030260168E-4   -3.462381393450572E-3   -5.787349156510942E-4   -1.042942762243270E-1    4.333547717143685E-1
 8.197254352000000E9    -1.618008508505532E-1    5.100806305144772E-1   -3.377727975186304E-3   -7.138014985105216E-4   -3.466625360852920E-3   -5.736056929563806E-4   -1.042325967992827E-1    4.334553496042081E-1
 8.197256748625000E9    -1.615668416991110E-1    5.101442474653862E-1   -3.349189261831779E-3   -7.191518017884563E-4   -3.489200787661663E-3   -5.565659769183065E-4   -1.040668690588745E-1    4.332606056200202E-1
 8.197259145250000E9    -1.613131488089491E-1    5.101464091819929E-1   -3.380366750289605E-3   -7.062299745004996E-4   -3.454537297773781E-3   -5.883146190691997E-4   -1.039424987111357E-1    4.334472031861977E-1
 8.197261541875000E9    -1.611765069144519E-1    5.102152711900990E-1   -3.381393802600489E-3   -7.032935184841903E-4   -3.498741366108839E-3   -5.734131564853115E-4   -1.039245893857066E-1    4.334103716072589E-1
 8.197263938500000E9    -1.609239282122292E-1    5.103032495070389E-1   -3.377438083130031E-3   -7.109622831161057E-4   -3.482824026965641E-3   -5.860876876135812E-4   -1.036152671157735E-1    4.335698380947009E-1
 8.197266335125000E9    -1.606627450526052E-1    5.103755986509523E-1   -3.379117558214718E-3   -7.488881628812863E-4   -3.503945490083113E-3   -5.731499706114109E-4   -1.035598363121514E-1    4.335340540150892E-1
 8.197268731750000E9    -1.605212580785561E-1    5.103833412243400E-1   -3.378505125836751E-3   -7.012436063846401E-4   -3.495957777876396E-3   -5.906573224230198E-4   -1.034465437591248E-1    4.335144632268629E-1
 8.197271128375000E9    -1.605005501157726E-1    5.104734579099763E-1   -3.433414553948692E-3   -7.003368548922713E-4   -3.542682420644600E-3   -6.133725458246799E-4   -1.031715865691449E-1    4.335387269341189E-1
 8.197273525000000E9    -1.602967625035638E-1    5.105208845039207E-1   -3.388686988699991E-3   -7.283517138938904E-4   -3.501061013582484E-3   -5.732958036992583E-4   -1.030328826529101E-1    4.336338376088292E-1
 8.197275921625000E9    -1.599688804214084E-1    5.105840964968844E-1   -3.433399251369961E-3   -7.144790078575593E-4   -3.513003277302917E-3   -5.699105052350528E-4   -1.030296312619122E-1    4.337085514136289E-1
 8.197278318250000E9    -1.597505682790753E-1    5.105532561971947E-1   -3.419260282561635E-3   -7.006006983398409E-4   -3.496222633064609E-3   -5.623469126417143E-4   -1.029147541661420E-1    4.337043007936301E-1
 8.197280714875000E9    -1.594300795953055E-1    5.107338863181827E-1   -3.428651754053211E-3   -7.188811873784859E-4   -3.546893752674251E-3   -5.897271119470010E-4   -1.027603293703914E-1    4.336256761832508E-1
 8.197283111500000E9    -1.593864929094498E-1    5.106822622463226E-1   -3.461121718883781E-3   -6.837852999425709E-4   -3.550283401592756E-3   -5.848363689912132E-4   -1.025067755004758E-1    4.337142349585389E-1
 8.197285508125000E9    -1.591145771619441E-1    5.108454576409919E-1   -3.489270337234215E-3   -7.019811479625511E-4   -3.541544362829365E-3   -5.566870878718907E-4   -1.025336022628179E-1    4.336527908710670E-1
 8.197287904750000E9    -1.590194796653828E-1    5.107718730328320E-1   -3.474980063663236E-3   -7.147381909049764E-4   -3.559187528035320E-3   -5.666180182332304E-4   -1.023119256769973E-1    4.337570775533758E-1
 8.197290301375000E9    -1.587413852736428E-1    5.109903146346633E-1   -3.478866557171434E-3   -7.001160829754671E-4   -3.562866817829484E-3   -5.950725365736928E-4   -1.022279719430219E-1    4.337283081408848E-1
 8.197292698000000E9    -1.584692047154727E-1    5.109652529175226E-1   -3.471415175288318E-3   -6.805701120660404E-4   -3.559016920925658E-3   -5.682535241608824E-4   -1.022148377325973E-1    4.337211136192302E-1
 8.197295094625000E9    -1.583960145105855E-1    5.109502732173954E-1   -3.481703464917714E-3   -7.216349706492736E-4   -3.579677483654539E-3   -5.665039140423553E-4   -1.018993360252844E-1    4.338632990321328E-1
 8.197297491250000E9    -1.580553046097483E-1    5.111062756926930E-1   -3.503505303593632E-3   -7.055975950805177E-4   -3.614861107918720E-3   -5.605070994356832E-4   -1.018946537951584E-1    4.338657644163316E-1
 8.197299887875000E9    -1.578220108623967E-1    5.111166548894980E-1   -3.518075840668380E-3   -6.748917183535196E-4   -3.590263015426654E-3   -5.527241331433351E-4   -1.016258211176121E-1    4.339391247736877E-1
 8.197302284500000E9    -1.576786246068918E-1    5.112012364491693E-1   -3.526276465542837E-3   -6.920283823764957E-4   -3.595136971542073E-3   -5.749398606978470E-4   -1.015203050810770E-1    4.340044388520725E-1
 8.197304681125000E9    -1.574976379506020E-1    5.110929969446899E-1   -3.516372654847156E-3   -6.940319961390799E-4   -3.615085720046334E-3   -5.654962939542926E-4   -1.015632330266480E-1    4.338124376147651E-1
 8.197307077750000E9    -1.572560274923423E-1    5.112969801786530E-1   -3.496263148725119E-3   -7.079054227389693E-4   -3.614987871090134E-3   -5.694438252545348E-4   -1.011915421324720E-1    4.338325439940358E-1
 8.197309474375000E9    -1.570842372610575E-1    5.112853567720019E-1   -3.512930104761955E-3   -6.974213007859265E-4   -3.605402879915747E-3   -5.546789428352131E-4   -1.010330689840904E-1    4.341053356009212E-1
 8.197311871000000E9    -1.567670811848512E-1    5.114336266715253E-1   -3.527859282028578E-3   -6.953146167170674E-4   -3.651520932028087E-3   -5.474659231982146E-4   -1.008491218223515E-1    4.341438363482397E-1
 8.197314267625000E9    -1.565666534055682E-1    5.113833089242087E-1   -3.542125696971893E-3   -6.861915821238688E-4   -3.655894360717635E-3   -5.776232946954046E-4   -1.009855635776814E-1    4.340549617066407E-1
 8.197316664250000E9    -1.564284889007232E-1    5.114408606922437E-1   -3.582336495440119E-3   -7.058012152870724E-4   -3.667766292474409E-3   -5.706072805468705E-4   -1.006964413939508E-1    4.341121452446934E-1
