#  HZ   S   RI   R     50.00 
! Rohde & Schwarz Vector Network Analyzer 
! Rohde-Schwarz,ZNB20-2Port,1311601062101988,3.16
! Created: UTC 3/20/2024, 4:59:58 PM
! freq[Hz]                re:S11                  im:S11                  re:S21                  im:S21                  re:S12                  im:S12                  re:S22                  im:S22
 8.154656206000000E9     2.858413418763117E-1    4.485235560786031E-1   -2.059221179781046E-3    1.820974811475510E-3   -2.109102594281898E-3    1.829971521581559E-3    3.799229805683477E-1    3.284467837465532E-1
 8.154849544400000E9     2.970133298155511E-1    4.415908272363937E-1   -2.042874312867061E-3    1.850669446235288E-3   -2.049611240711648E-3    1.902714661845592E-3    3.876721347885236E-1    3.191581144798561E-1
 8.155042882800000E9     3.078440731673034E-1    4.343673689700247E-1   -1.966923989183058E-3    1.920078337744533E-3   -1.992915833547223E-3    1.912897493814487E-3    3.949890168462042E-1    3.096150871811750E-1
 8.155236221200000E9     3.184776638814730E-1    4.269711410020365E-1   -1.951596225036584E-3    1.959989877167773E-3   -1.960135775472507E-3    1.959168192303516E-3    4.020599732159289E-1    3.000490357272592E-1
 8.155429559600000E9     3.290090303397739E-1    4.193269869950101E-1   -1.875645476734145E-3    1.980214225071236E-3   -1.881326325968787E-3    1.991328909350496E-3    4.089653855609512E-1    2.898639807786695E-1
 8.155622898000000E9     3.392485342477174E-1    4.114279385459456E-1   -1.838900741143512E-3    2.031697267999910E-3   -1.796164271962431E-3    2.053922245252881E-3    4.155848122848698E-1    2.800030342126126E-1
 8.155816236400000E9     3.493483705553105E-1    4.033040776449602E-1   -1.758321477742757E-3    2.081879937694051E-3   -1.739581069608431E-3    2.093351732873875E-3    4.218967847266031E-1    2.697702342788969E-1
 8.156009574800000E9     3.592678482055868E-1    3.947570489284763E-1   -1.716367678103009E-3    2.118007455151307E-3   -1.699879622870166E-3    2.121950271573770E-3    4.281249281444725E-1    2.595657166942165E-1
 8.156202913200000E9     3.689274357230950E-1    3.861102665493225E-1   -1.657362439086608E-3    2.157233699632679E-3   -1.654720134557556E-3    2.209761542130124E-3    4.339529382292510E-1    2.489302108664403E-1
 8.156396251600000E9     3.784030319842525E-1    3.773106898646673E-1   -1.601360979119965E-3    2.187797617176272E-3   -1.593814282174589E-3    2.196756973210634E-3    4.397028104028242E-1    2.385448129463010E-1
 8.156589590000000E9     3.876563930177293E-1    3.681899806090125E-1   -1.510333327931088E-3    2.206889761124080E-3   -1.549599160049009E-3    2.241649721591063E-3    4.449074589020494E-1    2.276746649469536E-1
 8.156782928400000E9     3.965778035476177E-1    3.587305975206421E-1   -1.472978781322953E-3    2.233546169931659E-3   -1.462758409447404E-3    2.272030102750297E-3    4.498271334857859E-1    2.169087170644877E-1
 8.156976266800000E9     4.054003169428317E-1    3.491555809688304E-1   -1.410532082161322E-3    2.291104043808400E-3   -1.407236855916020E-3    2.303933065126645E-3    4.548550933955153E-1    2.059988172906412E-1
 8.157169605200000E9     4.139729984054706E-1    3.394303713973099E-1   -1.342663608945906E-3    2.330057424780615E-3   -1.329252296714944E-3    2.308154754846503E-3    4.593843087693728E-1    1.950122684103301E-1
 8.157362943600000E9     4.223319344473933E-1    3.294340384581693E-1   -1.278658770197254E-3    2.325047611260829E-3   -1.281684310003147E-3    2.375239550780859E-3    4.636624117176741E-1    1.838570083289227E-1
 8.157556282000000E9     4.303812718128290E-1    3.191041622167774E-1   -1.228061543890713E-3    2.377010711865283E-3   -1.220815272867495E-3    2.386899518290070E-3    4.675765478033591E-1    1.726083502932608E-1
 8.157749620400000E9     4.381765504590406E-1    3.087100364993764E-1   -1.145652567196629E-3    2.392392277692287E-3   -1.164079231604293E-3    2.389021506097635E-3    4.714269787956512E-1    1.612847994298928E-1
 8.157942958800000E9     4.457018684238980E-1    2.982225546036879E-1   -1.097052013667838E-3    2.400989365876031E-3   -1.082247450623512E-3    2.448946023490353E-3    4.749294264019446E-1    1.498187192048947E-1
 8.158136297200000E9     4.529800039664458E-1    2.874462220905968E-1   -1.037559078461958E-3    2.436268325575144E-3   -1.048860181052972E-3    2.426181740539795E-3    4.780706706327117E-1    1.386698332461031E-1
 8.158329635600000E9     4.600253473242616E-1    2.765386123174162E-1   -9.649345794567752E-4    2.445190743806161E-3   -9.738614170257824E-4    2.480660942111022E-3    4.810073131657456E-1    1.271023127330137E-1
 8.158522974000000E9     4.667200874615550E-1    2.654202844488711E-1   -9.026116372206686E-4    2.469883768789225E-3   -8.969737902599849E-4    2.466053949225194E-3    4.835223927069732E-1    1.155223795474781E-1
 8.158716312400000E9     4.732734614384219E-1    2.542568139147405E-1   -8.479180533457552E-4    2.463314363526811E-3   -8.507235896325493E-4    2.483422109141833E-3    4.857978595573313E-1    1.038866832525340E-1
 8.158909650800000E9     4.794160442811018E-1    2.427704830120509E-1   -7.544226550102599E-4    2.513042054834436E-3   -7.789132054938508E-4    2.505673172912201E-3    4.876452399586298E-1    9.212407499860262E-2
 8.159102989200000E9     4.853762771134157E-1    2.312312078338860E-1   -7.065275549112605E-4    2.524251607701789E-3   -7.190849827432733E-4    2.509679685837831E-3    4.897519392052648E-1    8.060923927682623E-2
 8.159296327600000E9     4.909072037813180E-1    2.195117199713086E-1   -6.627615074949320E-4    2.516495271666540E-3   -6.486474267464661E-4    2.524736261346573E-3    4.911282647420318E-1    6.885861559631340E-2
 8.159489666000000E9     4.963630792331933E-1    2.077125912081353E-1   -5.843950725346777E-4    2.535262928844755E-3   -5.831141631998963E-4    2.560678925085610E-3    4.924429673444214E-1    5.719400918137910E-2
 8.159683004400000E9     5.013960982577017E-1    1.957562793384393E-1   -4.948362439657166E-4    2.547570899121266E-3   -5.224777804606797E-4    2.544417149829419E-3    4.932813210699149E-1    4.531544700319343E-2
 8.159876342800000E9     5.060984822645662E-1    1.837282890656249E-1   -4.463544630945063E-4    2.542104234909564E-3   -4.698625234293580E-4    2.581873234229466E-3    4.936761235230380E-1    3.364515264719015E-2
 8.160069681200000E9     5.105917757638401E-1    1.715239318141792E-1   -3.623239866259447E-4    2.531666684392806E-3   -3.751111055217351E-4    2.573660500369906E-3    4.941801340086118E-1    2.193121614003477E-2
 8.160263019600000E9     5.147486617078519E-1    1.591574993990562E-1   -3.257916604773963E-4    2.558565802273842E-3   -3.142749723306405E-4    2.585436578467040E-3    4.944498029235305E-1    1.020911560210956E-2
 8.160456358000000E9     5.186035245263824E-1    1.468828073156664E-1   -2.559271843519833E-4    2.548921653691989E-3   -2.577323584463091E-4    2.583125365379310E-3    4.941710381389512E-1   -1.467039770947964E-3
 8.160649696400000E9     5.221502747335366E-1    1.343219143053178E-1   -1.698939861143936E-4    2.569783496823968E-3   -1.928625023279165E-4    2.568495765091804E-3    4.937868252044127E-1   -1.329465040817961E-2
 8.160843034800000E9     5.254497917753510E-1    1.218408578296256E-1   -1.206656645599592E-4    2.540003127594954E-3   -1.763706742677222E-4    2.566293180201599E-3    4.930174947158846E-1   -2.487798944206197E-2
 8.161036373200000E9     5.283394297617088E-1    1.091125228159796E-1   -4.770360097058470E-5    2.551641994911269E-3   -8.192039298832248E-5    2.524355739908745E-3    4.920032907605502E-1   -3.647338474383204E-2
 8.161229711600000E9     5.309563633220107E-1    9.643799123589114E-2    8.911919927373511E-6    2.532691760388701E-3   -7.875324511872821E-6    2.533624252024959E-3    4.907222802985470E-1   -4.797621127559137E-2
 8.161423050000000E9     5.333222885278637E-1    8.360454158750945E-2    6.970590208400454E-5    2.561547571061057E-3    5.710856695233905E-5    2.567028115958793E-3    4.891577420103205E-1   -5.980496887263887E-2
 8.161616388400000E9     5.353593019252995E-1    7.072382895677849E-2    1.405798874312340E-4    2.531883949299555E-3    1.045511513483998E-4    2.509985761687165E-3    4.872671314961313E-1   -7.128042167588312E-2
 8.161809726800000E9     5.370769976442872E-1    5.791928426218267E-2    1.795026577120408E-4    2.492991626337949E-3    1.385883828554430E-4    2.535937424134581E-3    4.851467497031036E-1   -8.257902997080621E-2
 8.162003065200000E9     5.384782787882131E-1    4.491960228177144E-2    2.455573012510791E-4    2.498547333692637E-3    2.298732883963503E-4    2.529193972907716E-3    4.827600990774188E-1   -9.389216857309809E-2
 8.162196403600000E9     5.395539622500454E-1    3.205929782507883E-2    3.054026746023755E-4    2.509527929730156E-3    2.870803245681694E-4    2.512554438130756E-3    4.800467768495644E-1   -1.052386293235698E-1
 8.162389742000000E9     5.402941574730817E-1    1.910026675570498E-2    3.549649159930744E-4    2.465455515413289E-3    3.646264420003595E-4    2.491287682303534E-3    4.772493355057820E-1   -1.165917043877784E-1
 8.162583080400000E9     5.407433710997190E-1    6.212482383421063E-3    4.262769405455374E-4    2.444352796159722E-3    4.204609582143130E-4    2.483871838943180E-3    4.739971120468530E-1   -1.276701512716839E-1
 8.162776418800000E9     5.409734941427421E-1   -6.731171189254730E-3    4.702080897708759E-4    2.422011091210577E-3    5.038534748502534E-4    2.474466048979984E-3    4.707196232673447E-1   -1.388048614221267E-1
 8.162969757200000E9     5.407382820337108E-1   -1.981453396882481E-2    5.397596289853927E-4    2.447701638338657E-3    5.727578074890500E-4    2.429761537222899E-3    4.669998472302570E-1   -1.495791787601761E-1
 8.163163095600000E9     5.401829488385803E-1   -3.285813987246174E-2    6.057005484033869E-4    2.425290797509192E-3    5.824154093398154E-4    2.428884267357979E-3    4.630700833966371E-1   -1.605899587646525E-1
 8.163356434000000E9     5.394221249646585E-1   -4.574032639030680E-2    6.611102641035193E-4    2.388477611961852E-3    6.500962335686631E-4    2.400859827743505E-3    4.588200537144995E-1   -1.713331169545885E-1
 8.163549772400000E9     5.381808285448821E-1   -5.874838245406393E-2    7.341125847466970E-4    2.363265197273623E-3    7.353023124008310E-4    2.397367165385450E-3    4.543375860177683E-1   -1.819420942326793E-1
 8.163743110800000E9     5.368981157906096E-1   -7.151621471878296E-2    7.829748590208751E-4    2.338609442242737E-3    7.503591530905698E-4    2.397938132264258E-3    4.496808689397495E-1   -1.925410598875884E-1
 8.163936449200000E9     5.350694350312355E-1   -8.447318080521542E-2    7.956982246772303E-4    2.322570329107514E-3    8.305964001242854E-4    2.329339106586901E-3    4.445844926296137E-1   -2.029492015196008E-1
 8.164129787600000E9     5.329478893435715E-1   -9.742409293278340E-2    8.964578080090295E-4    2.306837565177841E-3    8.755928589853683E-4    2.319500908746250E-3    4.393957746661725E-1   -2.131717562480658E-1
 8.164323126000000E9     5.306345602127052E-1   -1.101214216503824E-1    9.282548463051396E-4    2.256178281437116E-3    9.361282020191459E-4    2.303705561704628E-3    4.341942036183619E-1   -2.231867785253266E-1
 8.164516464400000E9     5.279819300045248E-1   -1.229370844867260E-1    9.477846889723360E-4    2.201258918180721E-3    9.696219091956731E-4    2.250802386333907E-3    4.284406525998343E-1   -2.332975111653738E-1
 8.164709802800000E9     5.250346944391174E-1   -1.355720532869025E-1    1.041549950057964E-3    2.207135027750076E-3    1.024300784772338E-3    2.252787992733470E-3    4.224873205240562E-1   -2.432829513464146E-1
 8.164903141200000E9     5.216675415033960E-1   -1.480724686984815E-1    1.074522771737117E-3    2.173393349361111E-3    1.111986819408882E-3    2.194623419750366E-3    4.163908415179523E-1   -2.529417987896325E-1
 8.165096479600000E9     5.181397722498040E-1   -1.605580807931535E-1    1.169365394115728E-3    2.129921962171399E-3    1.136868504910241E-3    2.185937596366380E-3    4.102222229932100E-1   -2.623761369996700E-1
 8.165289818000000E9     5.141760839555405E-1   -1.730693366213373E-1    1.193807485210401E-3    2.087811038881764E-3    1.183652583302016E-3    2.147503392054858E-3    4.035695166461910E-1   -2.720045176780241E-1
 8.165483156400000E9     5.099279154562474E-1   -1.854003237311733E-1    1.235818790803557E-3    2.052268556504184E-3    1.244523311402191E-3    2.103082757645018E-3    3.970640582836046E-1   -2.811229702084302E-1
 8.165676494800000E9     5.054816493732830E-1   -1.975949203097137E-1    1.296869072946390E-3    2.040932106070289E-3    1.285083085132652E-3    2.105608952966914E-3    3.898756751957774E-1   -2.899169465982975E-1
 8.165869833200000E9     5.006482859904935E-1   -2.098137249002924E-1    1.303993057856177E-3    1.975358959840154E-3    1.321571083106529E-3    2.026089009665547E-3    3.828043336644814E-1   -2.991299188900967E-1
 8.166063171600000E9     4.954849375036128E-1   -2.217116045353784E-1    1.380685669462271E-3    1.987060249477725E-3    1.399128573048367E-3    2.003090581374343E-3    3.755495128038419E-1   -3.078478232526146E-1
 8.166256510000000E9     4.903582464478399E-1   -2.335251097270920E-1    1.420049207343097E-3    1.931928195547260E-3    1.408822577648167E-3    1.966730943654806E-3    3.678920166513585E-1   -3.163714520438166E-1
 8.166449848400000E9     4.844181294876410E-1   -2.452217776348317E-1    1.467259044429839E-3    1.892789047367649E-3    1.485468807748190E-3    1.957585641121715E-3    3.600961487559375E-1   -3.248246651973443E-1
 8.166643186800000E9     4.785091127666118E-1   -2.569701473685855E-1    1.506950241112592E-3    1.874842371327316E-3    1.489986234449560E-3    1.894606747066930E-3    3.522217277863650E-1   -3.327501494688790E-1
 8.166836525200000E9     4.722735352693938E-1   -2.684132439307348E-1    1.578022282148298E-3    1.791032430184850E-3    1.539466216981819E-3    1.839998542513875E-3    3.440808431773206E-1   -3.405738342633851E-1
 8.167029863600000E9     4.657002234407160E-1   -2.795427114884713E-1    1.589058938704063E-3    1.767025389466400E-3    1.592234288175795E-3    1.760468970611643E-3    3.357365779562623E-1   -3.484459388735296E-1
 8.167223202000000E9     4.590351845835919E-1   -2.907647069246179E-1    1.621676587117507E-3    1.733192717565382E-3    1.637791721522445E-3    1.751618123165930E-3    3.273843103736261E-1   -3.561243109578895E-1
 8.167416540400000E9     4.518558443500943E-1   -3.018474979602113E-1    1.663596533606125E-3    1.693311654791057E-3    1.681655991020686E-3    1.717028589435918E-3    3.187941134456440E-1   -3.634433516844945E-1
 8.167609878800000E9     4.446807740316139E-1   -3.126128178651972E-1    1.699709940981803E-3    1.620694214616380E-3    1.761479480747507E-3    1.702438964397482E-3    3.098010966206322E-1   -3.705064904641847E-1
 8.167803217200000E9     4.371347061332944E-1   -3.232171891679170E-1    1.739164586936590E-3    1.590578792044515E-3    1.774071743163817E-3    1.657213738247590E-3    3.010614790043002E-1   -3.774488291779636E-1
 8.167996555600000E9     4.292294929114969E-1   -3.337853217157061E-1    1.762042666050962E-3    1.563967910380928E-3    1.805596397630283E-3    1.597174509403913E-3    2.918674727034802E-1   -3.841443924444600E-1
 8.168189894000000E9     4.211385752315027E-1   -3.438999347022753E-1    1.804187717749383E-3    1.539433891068432E-3    1.812808254306946E-3    1.556597885667854E-3    2.826076383416330E-1   -3.905865824316607E-1
 8.168383232400000E9     4.127857462317098E-1   -3.539655014277929E-1    1.825106983440211E-3    1.473498365379368E-3    1.860171986418230E-3    1.483318724981777E-3    2.733556899070803E-1   -3.969689222576409E-1
 8.168576570800000E9     4.042611821495709E-1   -3.639682171526681E-1    1.866630785818873E-3    1.417921896816813E-3    1.911772756593043E-3    1.443513154039877E-3    2.636167220894004E-1   -4.029847091574189E-1
 8.168769909200000E9     3.954017563334793E-1   -3.735664011426053E-1    1.926290494030491E-3    1.387087796935109E-3    1.930386593839701E-3    1.443338300548953E-3    2.539981852356736E-1   -4.086659504927876E-1
 8.168963247600000E9     3.863691568316704E-1   -3.830187500717457E-1    1.906959326850827E-3    1.306380972895553E-3    1.951527874416099E-3    1.363864513820249E-3    2.442845796763703E-1   -4.143454220073526E-1
 8.169156586000000E9     3.770502581159357E-1   -3.922312538295102E-1    1.949221716394498E-3    1.261920532311023E-3    2.010176395671071E-3    1.325262387063240E-3    2.345327136923974E-1   -4.197229252242659E-1
 8.169349924400000E9     3.675404432135980E-1   -4.011453861710391E-1    1.976011915174454E-3    1.239740561567882E-3    2.016271678774807E-3    1.291645242192817E-3    2.243950788587686E-1   -4.248567770816972E-1
 8.169543262800000E9     3.577117073950976E-1   -4.098863748527860E-1    2.008372121181110E-3    1.171943349113902E-3    2.053991958010116E-3    1.224864416501711E-3    2.141989133173729E-1   -4.296725175756083E-1
 8.169736601200000E9     3.478257008516119E-1   -4.185705328306131E-1    2.015421438483472E-3    1.111998530598962E-3    2.065254522969070E-3    1.171291087917828E-3    2.039290661870204E-1   -4.343912664458697E-1
 8.169929939600000E9     3.376309512146259E-1   -4.267311373173719E-1    2.050989799919218E-3    1.084768971598664E-3    2.100574752036389E-3    1.099314982529255E-3    1.935503586685217E-1   -4.387018808801461E-1
 8.170123278000000E9     3.273146828066220E-1   -4.347699230782139E-1    2.070053282634426E-3    1.028962761099507E-3    2.127026994548008E-3    1.070722483395653E-3    1.833448391729437E-1   -4.428498717323180E-1
 8.170316616400000E9     3.165998679861928E-1   -4.426746435502202E-1    2.115421573086709E-3    9.495392182076422E-4    2.126445436822564E-3    1.024041963560682E-3    1.728045993361143E-1   -4.467905768864717E-1
 8.170509954800000E9     3.061444505748753E-1   -4.501300210458857E-1    2.104184710939106E-3    9.063852750781877E-4    2.168930388733184E-3    9.654860744176363E-4    1.623196765041131E-1   -4.503799611225858E-1
 8.170703293200000E9     2.950639483087762E-1   -4.574125838127564E-1    2.153190144055067E-3    8.679469127022481E-4    2.219486333481201E-3    9.012886353611683E-4    1.517115148068021E-1   -4.539196790026863E-1
 8.170896631600000E9     2.840308011023379E-1   -4.642977108419046E-1    2.147191493103591E-3    8.150646877594175E-4    2.218440282063876E-3    8.552178604230509E-4    1.407750564692347E-1   -4.568187945039298E-1
 8.171089970000000E9     2.727268444352552E-1   -4.711172100017651E-1    2.161720840343101E-3    7.526971371625582E-4    2.214695721012632E-3    7.979932995850901E-4    1.300213086064010E-1   -4.598375626411548E-1
 8.171283308400000E9     2.611912750002707E-1   -4.775085348914969E-1    2.199831407304908E-3    7.186044711748688E-4    2.244543151330694E-3    7.358100745891127E-4    1.191579236249335E-1   -4.623193628546187E-1
 8.171476646800000E9     2.495196702061522E-1   -4.838183644978976E-1    2.185674461625121E-3    6.801806302504639E-4    2.255802624528123E-3    7.168114967307265E-4    1.083237633076162E-1   -4.648459770519500E-1
 8.171669985200000E9     2.380250482087058E-1   -4.896509989364585E-1    2.202591923930849E-3    5.837379424008829E-4    2.277407547060242E-3    6.556085351749509E-4    9.739331920909786E-2   -4.669244644790670E-1
 8.171863323600000E9     2.261162898722388E-1   -4.952663922137288E-1    2.220111834154691E-3    5.379281213044458E-4    2.269996021803351E-3    6.197556645126037E-4    8.641967868171455E-2   -4.689822710278856E-1
 8.172056662000000E9     2.139818551003087E-1   -5.006514367183948E-1    2.229607618769448E-3    5.150530940550465E-4    2.266790310362422E-3    5.232949492419129E-4    7.548777549076879E-2   -4.704852954395456E-1
