#  HZ   S   RI   R     50.00 
! Rohde & Schwarz Vector Network Analyzer 
! Rohde-Schwarz,ZNB20-2Port,1311601062101988,3.16
! Created: UTC 3/20/2024, 5:04:50 PM
! freq[Hz]                re:S11                  im:S11                  re:S21                  im:S21                  re:S12                  im:S12                  re:S22                  im:S22
 8.160412089000000E9     5.174763117937294E-1    1.499141414236541E-1   -2.785880287166210E-4    2.527857744390946E-3   -2.662103258014877E-4    2.584462991502841E-3    4.944446542241476E-1    1.757386465276864E-3
 8.160579393200000E9     5.207466396852427E-1    1.391081824571253E-1   -2.329724332720862E-4    2.544010138454183E-3   -2.206152144391863E-4    2.557201234814396E-3    4.941590234531959E-1   -8.299469689163060E-3
 8.160746697400000E9     5.236545462832657E-1    1.282539343241545E-1   -1.535764049280241E-4    2.529418209777111E-3   -1.654407415019711E-4    2.563290028615244E-3    4.935286786933859E-1   -1.844514125365948E-2
 8.160914001600000E9     5.263534890699456E-1    1.173796102303123E-1   -9.301498910842152E-5    2.539073775691981E-3   -1.138582829801023E-4    2.577352572164637E-3    4.930413809430896E-1   -2.843078678205709E-2
 8.161081305800000E9     5.288245676446927E-1    1.064044759965763E-1   -4.089703116234705E-5    2.564469788736605E-3   -6.430226994412809E-5    2.563588993291467E-3    4.919814780462790E-1   -3.851962650379036E-2
 8.161248610000000E9     5.311501205984790E-1    9.537460947900352E-2    1.698855053685299E-5    2.529314925221291E-3   -1.716802285807390E-6    2.533535509893266E-3    4.908504688520971E-1   -4.855427223923380E-2
 8.161415914200000E9     5.331469807569020E-1    8.428348041760036E-2    8.293601340720401E-5    2.550852848525224E-3    5.232998678613701E-5    2.538823699916111E-3    4.894038791920094E-1   -5.852470686816214E-2
 8.161583218400000E9     5.348721890933604E-1    7.327527660540037E-2    1.284405784740074E-4    2.540237876101221E-3    1.054158208005591E-4    2.560216913547800E-3    4.880120274075021E-1   -6.849627465516198E-2
 8.161750522600000E9     5.364538905614998E-1    6.215430554009903E-2    1.456329195019521E-4    2.520445433715491E-3    1.693178811265827E-4    2.536878476403153E-3    4.859367737538931E-1   -7.847523532959319E-2
 8.161917826800000E9     5.376735969788973E-1    5.097547286324181E-2    2.071508269265926E-4    2.461933067930850E-3    1.962601971874525E-4    2.483337223628194E-3    4.843120941347801E-1   -8.834077441129427E-2
 8.162085131000000E9     5.389935026206513E-1    3.979223955298362E-2    2.742299831981931E-4    2.518814243489837E-3    2.614835426434260E-4    2.512537274832942E-3    4.819866953874348E-1   -9.825325702626345E-2
 8.162252435200000E9     5.397826406890368E-1    2.854454904739870E-2    3.098918728747215E-4    2.492040154144934E-3    3.304730580553242E-4    2.474917847220675E-3    4.797097615399264E-1   -1.079110873373027E-1
 8.162419739400000E9     5.402051379519208E-1    1.727878680536299E-2    3.759377204427797E-4    2.496632814594738E-3    3.548098260732052E-4    2.510736524886625E-3    4.770446239099165E-1   -1.175642511500486E-1
 8.162587043600000E9     5.406082906235952E-1    6.000317584962511E-3    4.155370313050373E-4    2.456938454711482E-3    4.054524154031685E-4    2.482217511128202E-3    4.744680994514750E-1   -1.272389653343125E-1
 8.162754347800000E9     5.408483759596375E-1   -5.329868932770101E-3    4.976160920544290E-4    2.448930848266646E-3    4.876425349622203E-4    2.478518026218836E-3    4.713943157934932E-1   -1.368013961613940E-1
 8.162921652000000E9     5.407127393273735E-1   -1.625711168059786E-2    5.293271757699774E-4    2.440150539517145E-3    5.207008798668324E-4    2.431200989380799E-3    4.683253787859472E-1   -1.463075068324109E-1
 8.163088956200000E9     5.404324248886195E-1   -2.773836573308447E-2    5.953341390094977E-4    2.400524185837377E-3    5.520532515479359E-4    2.437664114400016E-3    4.648866576055868E-1   -1.557312926215794E-1
 8.163256260400000E9     5.397887805062019E-1   -3.890982219011516E-2    6.282493222475316E-4    2.384966703073494E-3    6.489970251515250E-4    2.413006509808452E-3    4.614585174442871E-1   -1.652534970942822E-1
 8.163423564600000E9     5.390183219775712E-1   -5.005331911008590E-2    6.758205172539646E-4    2.369997112249797E-3    6.543559483054997E-4    2.414365693892573E-3    4.577695541066757E-1   -1.744300242620676E-1
 8.163590868800000E9     5.379249410253484E-1   -6.129171991374197E-2    6.978796588944606E-4    2.326752653181347E-3    7.167216828998882E-4    2.393897460605410E-3    4.537028764626508E-1   -1.836585121931021E-1
 8.163758173000000E9     5.366384687911797E-1   -7.247130620564690E-2    7.925111655201141E-4    2.350523415262385E-3    7.751796093229543E-4    2.366611873536124E-3    4.497591613657865E-1   -1.927783176380734E-1
 8.163925477200000E9     5.350713242086108E-1   -8.358833098199925E-2    8.113101857617858E-4    2.309550797977200E-3    8.212481796401239E-4    2.316074673693966E-3    4.455145803751978E-1   -2.018088677014876E-1
 8.164092781400000E9     5.333613136701797E-1   -9.474666142784614E-2    8.708290424634754E-4    2.300609640636157E-3    8.635590917664043E-4    2.346239058249381E-3    4.410267162375182E-1   -2.106384128282751E-1
 8.164260085600000E9     5.314106740549134E-1   -1.057733115880790E-1    9.256995913698189E-4    2.293385593504361E-3    9.258564407259669E-4    2.309606023512116E-3    4.363848516070247E-1   -2.194301014291511E-1
 8.164427389800000E9     5.292602058482194E-1   -1.168596399883134E-1    9.902494935700020E-4    2.244707092747978E-3    9.513130480297051E-4    2.278353995161524E-3    4.317671228206988E-1   -2.281432073549846E-1
 8.164594694000000E9     5.267028654812529E-1   -1.278568606368083E-1    1.022597451275463E-3    2.233615211852470E-3    1.003290824555576E-3    2.275222932951920E-3    4.265826902811332E-1   -2.367792650037703E-1
 8.164761998200000E9     5.240890952390662E-1   -1.386954476204984E-1    1.053966031047219E-3    2.211377208648815E-3    1.064131694878922E-3    2.214954669789688E-3    4.216735824737186E-1   -2.452146941493318E-1
 8.164929302400000E9     5.211293200119663E-1   -1.495882963318487E-1    1.088173127916749E-3    2.159358451007556E-3    1.095541664566646E-3    2.206908706759523E-3    4.162937466045009E-1   -2.537105550943367E-1
 8.165096606600000E9     5.179885918205379E-1   -1.603618631241505E-1    1.138823648340329E-3    2.133186091080526E-3    1.130470894231119E-3    2.185624253339009E-3    4.107434857939184E-1   -2.618482459656010E-1
 8.165263910800000E9     5.147374551101602E-1   -1.711735121373616E-1    1.192218570563996E-3    2.123482242075829E-3    1.193444492631290E-3    2.125786151838433E-3    4.052274326862056E-1   -2.699810645674666E-1
 8.165431215000000E9     5.112102490560891E-1   -1.820135197317961E-1    1.222222869531748E-3    2.082543215267219E-3    1.213907505719316E-3    2.103781239879920E-3    3.994553787884228E-1   -2.780816054275896E-1
 8.165598519200000E9     5.073182409011041E-1   -1.925192147142840E-1    1.268907958498083E-3    2.066542439644954E-3    1.277023547157956E-3    2.126634738933918E-3    3.934308412313220E-1   -2.860325624810649E-1
 8.165765823400000E9     5.032821860864100E-1   -2.030300749522849E-1    1.276514295151210E-3    2.025115841074191E-3    1.316667568952773E-3    2.078970331350712E-3    3.874001287229804E-1   -2.938530090701612E-1
 8.165933127600000E9     4.990236955701878E-1   -2.134375518781436E-1    1.336689955574378E-3    1.975116160865443E-3    1.363495889904465E-3    2.044944615911402E-3    3.810971534280020E-1   -3.014245722773111E-1
 8.166100431800000E9     4.945922161439409E-1   -2.239064631162819E-1    1.377535097513632E-3    1.958775749894585E-3    1.374378125739229E-3    2.011940466799800E-3    3.746343563856053E-1   -3.089625207421221E-1
 8.166267736000000E9     4.898816036285668E-1   -2.340940562073735E-1    1.416207094698213E-3    1.935374999084564E-3    1.417875123317821E-3    1.977941870808557E-3    3.680125313767983E-1   -3.163874127384706E-1
 8.166435040200000E9     4.849857621618323E-1   -2.442423400896472E-1    1.481981739857154E-3    1.895428550691676E-3    1.433067584978774E-3    1.933127798387324E-3    3.614756862394241E-1   -3.234726964952853E-1
 8.166602344400000E9     4.798564995923215E-1   -2.541826962774400E-1    1.497846289201066E-3    1.860012145281451E-3    1.490617636050956E-3    1.901485482045171E-3    3.545915622858341E-1   -3.306714252745684E-1
 8.166769648600000E9     4.745626273143845E-1   -2.641921091757901E-1    1.525888121243132E-3    1.828636144303592E-3    1.561642888280901E-3    1.892524216571703E-3    3.476786668035959E-1   -3.376764968368959E-1
 8.166936952800000E9     4.689856645617844E-1   -2.741378148599490E-1    1.575154752325694E-3    1.794250059525486E-3    1.619545398825836E-3    1.839325183653351E-3    3.406052062397423E-1   -3.443975867126223E-1
 8.167104257000000E9     4.632507847211730E-1   -2.838328330908454E-1    1.613523338135630E-3    1.753997275349330E-3    1.610164335214305E-3    1.785716256669957E-3    3.333725689153006E-1   -3.510521517155071E-1
 8.167271561200000E9     4.572713921815887E-1   -2.934220141344774E-1    1.620757230775750E-3    1.740811715668039E-3    1.660231446760786E-3    1.783378878186293E-3    3.259931606142751E-1   -3.575464708314925E-1
 8.167438865400000E9     4.511788320622604E-1   -3.028332621880521E-1    1.671769343102941E-3    1.666695053933317E-3    1.696864415583200E-3    1.719425342473897E-3    3.183882345330979E-1   -3.638146330483304E-1
 8.167606169600000E9     4.449632079657739E-1   -3.121512101011210E-1    1.688659775063833E-3    1.627080160601884E-3    1.734963752170899E-3    1.699023020057504E-3    3.109034047718803E-1   -3.699036928339106E-1
 8.167773473800000E9     4.382841039344259E-1   -3.214247874397614E-1    1.733367626296943E-3    1.610173954319139E-3    1.720699761385208E-3    1.623646945376265E-3    3.030363039253848E-1   -3.760604655506237E-1
 8.167940778000000E9     4.315851410958952E-1   -3.305357452928717E-1    1.777956648365851E-3    1.550285695465326E-3    1.791514908040403E-3    1.628549533426163E-3    2.952399199120380E-1   -3.819753075453522E-1
 8.168108082200000E9     4.245246723705557E-1   -3.394461945958961E-1    1.785743911285797E-3    1.527007625437043E-3    1.791627459110898E-3    1.576088497850307E-3    2.874466958590104E-1   -3.876561240722969E-1
 8.168275386400000E9     4.174846558702114E-1   -3.481402145287858E-1    1.840277969755514E-3    1.479669841728987E-3    1.848452750944729E-3    1.530279654155699E-3    2.794106469528496E-1   -3.931530527244099E-1
 8.168442690600000E9     4.102255943049416E-1   -3.568046552499626E-1    1.865793136117062E-3    1.469381887777459E-3    1.876754156472179E-3    1.462563183140112E-3    2.709612348434380E-1   -3.984134799157208E-1
 8.168609994800000E9     4.027244262148419E-1   -3.653240580474610E-1    1.892289948222571E-3    1.429944305717956E-3    1.916012031942704E-3    1.444773275627086E-3    2.629546883770131E-1   -4.039333992443609E-1
 8.168777299000000E9     3.951668949445847E-1   -3.736047815978357E-1    1.888162070383143E-3    1.355933695379277E-3    1.922081377545755E-3    1.403945270624100E-3    2.544950289077945E-1   -4.088164560097974E-1
 8.168944603200000E9     3.873151455129707E-1   -3.818402319486083E-1    1.937540150488993E-3    1.332262206530873E-3    1.955947991038070E-3    1.360122623827493E-3    2.459737082779881E-1   -4.135777725465189E-1
 8.169111907400000E9     3.791747319614087E-1   -3.899260166884886E-1    1.952060707262355E-3    1.304940963369922E-3    1.995229958337152E-3    1.345791138866659E-3    2.375364772312128E-1   -4.183729995621043E-1
 8.169279211600000E9     3.710492397350640E-1   -3.977027670261341E-1    1.949301060841562E-3    1.228746864933356E-3    2.001000078357167E-3    1.256011347634938E-3    2.289282277050100E-1   -4.227458162573251E-1
 8.169446515800000E9     3.626805638129119E-1   -4.054334186784553E-1    1.997855560368750E-3    1.187702391677311E-3    2.004313742222197E-3    1.257281244702280E-3    2.200212100250637E-1   -4.271292313166773E-1
 8.169613820000000E9     3.541863244673512E-1   -4.129629636278518E-1    2.032803575546334E-3    1.153232305400258E-3    2.029207889849008E-3    1.162452291034593E-3    2.113141690434385E-1   -4.311639725886223E-1
 8.169781124200000E9     3.456150431866682E-1   -4.202686505819281E-1    2.035070412425305E-3    1.114254111811845E-3    2.064052023003198E-3    1.167539070651524E-3    2.024118178499689E-1   -4.351392072323052E-1
 8.169948428400000E9     3.367424100333352E-1   -4.272049672282182E-1    2.069684201992796E-3    1.085326286647851E-3    2.110002796274682E-3    1.125531915033726E-3    1.936159541316367E-1   -4.389563440102190E-1
 8.170115732600000E9     3.277172965453827E-1   -4.343321600025021E-1    2.054431571339756E-3    1.026011084376889E-3    2.106051962645151E-3    1.084855525377500E-3    1.845333900210589E-1   -4.425750170908686E-1
 8.170283036800000E9     3.187523312286843E-1   -4.410389011893379E-1    2.109138600723610E-3    9.870741672122645E-4    2.123315938708302E-3    1.000462614723847E-3    1.755076721015066E-1   -4.458928348866823E-1
 8.170450341000000E9     3.094503666410909E-1   -4.475641407906450E-1    2.117472253366069E-3    9.388297335789941E-4    2.162184688650958E-3    1.010318227773427E-3    1.663811578166081E-1   -4.493415924972648E-1
 8.170617645200000E9     3.001164281093585E-1   -4.539226512812484E-1    2.114659850678177E-3    8.987678096370675E-4    2.190360698884119E-3    9.040307836402342E-4    1.570369737073986E-1   -4.522945820763222E-1
 8.170784949400000E9     2.906011577790253E-1   -4.601685726296982E-1    2.137169654233103E-3    8.370840636399107E-4    2.182557748132244E-3    8.818944129427369E-4    1.478672508977551E-1   -4.551310754479619E-1
 8.170952253600000E9     2.807276000622947E-1   -4.662387666204250E-1    2.141952317759170E-3    8.285669406582813E-4    2.190473035354465E-3    8.581368492254410E-4    1.385995015624439E-1   -4.576780273590760E-1
 8.171119557800000E9     2.710588286924708E-1   -4.720254614087003E-1    2.156358215666437E-3    7.884092469032076E-4    2.220611900727996E-3    8.015371706027904E-4    1.293820640322328E-1   -4.602728775883768E-1
 8.171286862000000E9     2.611604570805954E-1   -4.775203747456245E-1    2.189911244751757E-3    7.216938313339802E-4    2.232203892017299E-3    7.703949039549563E-4    1.199946389622952E-1   -4.626673831462313E-1
 8.171454166200000E9     2.511273369485800E-1   -4.829366920752008E-1    2.189013752456840E-3    6.596871809982532E-4    2.259755203359015E-3    6.947218962606979E-4    1.103932100584288E-1   -4.646954625104162E-1
 8.171621470400000E9     2.409654859267872E-1   -4.880897301850352E-1    2.216619403874818E-3    6.304383506045175E-4    2.256991488038836E-3    6.381212984514941E-4    1.009813947493114E-1   -4.665513292082265E-1
 8.171788774600000E9     2.307461565094051E-1   -4.929035597383832E-1    2.211044429552191E-3    5.954527821835025E-4    2.268780450951783E-3    5.983297828167990E-4    9.148102664051148E-2   -4.683519445020883E-1
 8.171956078800000E9     2.203540299014012E-1   -4.977518114966064E-1    2.213155958761865E-3    5.028645813193571E-4    2.272629208009518E-3    5.189665041348023E-4    8.202442457177152E-2   -4.697030689330215E-1
 8.172123383000000E9     2.099191923770210E-1   -5.022727235294153E-1    2.223719964038670E-3    4.749117943784878E-4    2.312769982346027E-3    5.078046212930838E-4    7.245342480508771E-2   -4.710996733486414E-1
 8.172290687200000E9     1.994605468542479E-1   -5.066314701169220E-1    2.261026990954234E-3    4.412905212506287E-4    2.291968744713724E-3    4.717291422151184E-4    6.293091282769023E-2   -4.722083017770491E-1
 8.172457991400000E9     1.886582122895550E-1   -5.105546257244000E-1    2.239807044788508E-3    3.989004233092151E-4    2.318313806326370E-3    4.181457842810122E-4    5.357144783459199E-2   -4.732147140402599E-1
 8.172625295600000E9     1.781083360901969E-1   -5.145052338592747E-1    2.248956626136885E-3    3.629229957587368E-4    2.305213625158204E-3    3.695466693976827E-4    4.368454863783064E-2   -4.739333950806264E-1
 8.172792599800000E9     1.672082716176453E-1   -5.181735753933724E-1    2.246893994732797E-3    2.908305403826182E-4    2.309202385264670E-3    3.241152741992456E-4    3.426090885642299E-2   -4.745155249270659E-1
 8.172959904000000E9     1.563017045812077E-1   -5.215732400680847E-1    2.292083209155618E-3    2.623832614092458E-4    2.298072459386243E-3    2.616101654300477E-4    2.460269912879600E-2   -4.748848994069434E-1
 8.173127208200000E9     1.454028407433260E-1   -5.246389147806662E-1    2.262871455775819E-3    2.204715774881492E-4    2.349963670071678E-3    2.490705355900171E-4    1.497511659250299E-2   -4.751665719574320E-1
 8.173294512400000E9     1.343554735027289E-1   -5.276118716639848E-1    2.253989807550487E-3    1.773344692547837E-4    2.335852296080543E-3    1.371722717213790E-4    5.435872507538258E-3   -4.750089164151175E-1
 8.173461816600000E9     1.231615836489261E-1   -5.304385434362389E-1    2.276581631634144E-3    1.001709723484476E-4    2.322006179212538E-3    1.289132850420757E-4   -4.096138539957203E-3   -4.748098059393760E-1
 8.173629120800000E9     1.121336568247962E-1   -5.326752849006904E-1    2.242416886512926E-3    4.383855902179656E-5    2.342650207651302E-3    7.131056955675184E-5   -1.372718510118858E-2   -4.744070545905849E-1
 8.173796425000000E9     1.008382266857780E-1   -5.349320619602539E-1    2.257208080727514E-3    2.570179705274319E-5    2.321196715531146E-3    6.532341552617067E-5   -2.319542405903424E-2   -4.738830648294845E-1
 8.173963729200000E9     8.965814070477877E-2   -5.369968307926046E-1    2.236688176553992E-3   -2.769941091223979E-5    2.302863006997997E-3   -2.345406358967033E-5   -3.286941579641058E-2   -4.731378897869463E-1
 8.174131033400000E9     7.828385530778308E-2   -5.387187606467594E-1    2.280080007353444E-3   -6.434985672284962E-5    2.325056141861158E-3   -8.351035451198484E-5   -4.226395218034625E-2   -4.719995022085285E-1
 8.174298337600000E9     6.706807660987901E-2   -5.401918183079908E-1    2.262821782935587E-3   -1.296457859580756E-4    2.312965631917089E-3   -1.066403279549280E-4   -5.185719204919611E-2   -4.710226295172645E-1
 8.174465641800000E9     5.557664252900865E-2   -5.415209232496273E-1    2.259356502155356E-3   -1.528427422271957E-4    2.313467382198279E-3   -1.510058065583678E-4   -6.139156060400749E-2   -4.696131369165258E-1
 8.174632946000000E9     4.429721763290864E-2   -5.425841417855443E-1    2.238042267666472E-3   -2.021997627541178E-4    2.306599698558523E-3   -1.826765591906490E-4   -7.073472253354218E-2   -4.680097675009428E-1
 8.174800250200000E9     3.281302513964852E-2   -5.433895185017095E-1    2.262524423278649E-3   -2.588608379908580E-4    2.301366078936766E-3   -2.554042777825829E-4   -8.009330531728714E-2   -4.662599010319065E-1
 8.174967554400000E9     2.153698234620620E-2   -5.439870471507834E-1    2.225416982743065E-3   -3.039886929433904E-4    2.313662471549114E-3   -3.126814655532407E-4   -8.945450109460339E-2   -4.643142102608166E-1
 8.175134858600000E9     1.003231676334544E-2   -5.443385975024438E-1    2.233985661712204E-3   -3.088952600686859E-4    2.306288191456620E-3   -3.527225500377871E-4   -9.868500878429518E-2   -4.621455250337181E-1
 8.175302162800000E9    -1.504173736912698E-3   -5.443104348527835E-1    2.252631289992685E-3   -3.775072297820315E-4    2.299528920165800E-3   -3.789998337420764E-4   -1.079962051460713E-1   -4.600454670642741E-1
 8.175469467000000E9    -1.293279809042791E-2   -5.441747219237761E-1    2.211530160997999E-3   -4.418468129541146E-4    2.273772112362104E-3   -4.623655703299435E-4   -1.171066867506169E-1   -4.574874990371851E-1
