#  HZ   S   RI   R     50.00 
! Rohde & Schwarz Vector Network Analyzer 
! Rohde-Schwarz,ZNB20-2Port,1311601062101988,3.16
! Created: UTC 3/20/2024, 5:00:15 PM
! freq[Hz]                re:S11                  im:S11                  re:S21                  im:S21                  re:S12                  im:S12                  re:S22                  im:S22
 8.155355016000000E9     3.248876729709981E-1    4.223941188518708E-1   -1.924774286899708E-3    1.944482961450264E-3   -1.871013148048068E-3    2.003764832675478E-3    4.063944666627074E-1    2.939422302968226E-1
 8.155545098350000E9     3.351195165870447E-1    4.146478276680249E-1   -1.849640528704304E-3    2.017090708946612E-3   -1.837995182992660E-3    2.050857433748916E-3    4.129298545120946E-1    2.841205230318872E-1
 8.155735180700000E9     3.450331625946237E-1    4.067147527135433E-1   -1.786469249720781E-3    2.041647874992252E-3   -1.811599067863067E-3    2.077428203989166E-3    4.193629359733890E-1    2.740887490101138E-1
 8.155925263050000E9     3.549185335758462E-1    3.984255236885870E-1   -1.731612452969673E-3    2.106821481974043E-3   -1.711373396756554E-3    2.108015401929171E-3    4.254631425968802E-1    2.640355843385642E-1
 8.156115345400000E9     3.645556069156928E-1    3.901146282512016E-1   -1.669044640772016E-3    2.137810056398464E-3   -1.664814057581314E-3    2.158618217431025E-3    4.313782558219978E-1    2.538660864235661E-1
 8.156305427750000E9     3.740729694099501E-1    3.813682057267300E-1   -1.629465502656671E-3    2.159421614297444E-3   -1.633066705089476E-3    2.162460410322814E-3    4.370054209610684E-1    2.434979980504849E-1
 8.156495510100000E9     3.832209315375584E-1    3.725883229467445E-1   -1.558480188919708E-3    2.215308595507838E-3   -1.530565875417914E-3    2.200111209351565E-3    4.423204238234068E-1    2.330850512747153E-1
 8.156685592450000E9     3.921327118796915E-1    3.634182516989606E-1   -1.483827841443758E-3    2.228984865490888E-3   -1.489745390934460E-3    2.276409255314101E-3    4.474986649195095E-1    2.224183584985221E-1
 8.156875674800000E9     4.010097524435432E-1    3.541611786500219E-1   -1.433209604690120E-3    2.253965398704878E-3   -1.451052254819225E-3    2.298643373563015E-3    4.523689570090264E-1    2.117170390628702E-1
 8.157065757150000E9     4.093173749584899E-1    3.445053504063473E-1   -1.396102871315847E-3    2.299685811155977E-3   -1.371219896946909E-3    2.308134272695541E-3    4.569230500774710E-1    2.009673497874080E-1
 8.157255839500000E9     4.177773637690628E-1    3.348502036718274E-1   -1.308369060764192E-3    2.327999984271026E-3   -1.310062122123740E-3    2.321464957593853E-3    4.613339443567596E-1    1.900314162192802E-1
 8.157445921850000E9     4.257548111981025E-1    3.249784343224088E-1   -1.270481021667039E-3    2.316385972701692E-3   -1.254362159739942E-3    2.355084583644772E-3    4.653954613449081E-1    1.790539475929196E-1
 8.157636004200000E9     4.335485068565243E-1    3.147639744161415E-1   -1.191745467644680E-3    2.350180717362832E-3   -1.187692099547286E-3    2.395138486318609E-3    4.692922106333884E-1    1.679270622554472E-1
 8.157826086550000E9     4.411579069431241E-1    3.046100745714857E-1   -1.153551842466992E-3    2.381843588186266E-3   -1.111940109852111E-3    2.401036119977982E-3    4.727362650287139E-1    1.568887636600648E-1
 8.158016168900000E9     4.484311863755772E-1    2.941535956638404E-1   -1.071165790244532E-3    2.416939293550401E-3   -1.093511169891784E-3    2.401536083990860E-3    4.758806559711948E-1    1.455476747484457E-1
 8.158206251250000E9     4.554195542967746E-1    2.835434908515388E-1   -1.005491265864151E-3    2.423937595453959E-3   -1.027502668370868E-3    2.455014174293206E-3    4.791222715244062E-1    1.344320377584171E-1
 8.158396333600000E9     4.623225799110801E-1    2.726265031409375E-1   -9.585231837379619E-4    2.467572707916379E-3   -9.410591516016382E-4    2.483194898060696E-3    4.819680856681547E-1    1.231840318599557E-1
 8.158586415950000E9     4.688474362934842E-1    2.618503366937850E-1   -8.742905740818225E-4    2.455836237937536E-3   -8.633668294550466E-4    2.512665895461204E-3    4.842270557861793E-1    1.116868498251330E-1
 8.158776498300000E9     4.751245733020177E-1    2.506344303568305E-1   -8.242196591808415E-4    2.495739959053187E-3   -8.262325225928659E-4    2.517093105563019E-3    4.866017575842387E-1    1.002173064596932E-1
 8.158966580650000E9     4.811717179593887E-1    2.393094186811645E-1   -7.622448277448181E-4    2.505607464325450E-3   -7.481087613414904E-4    2.498838248448096E-3    4.884555968448129E-1    8.881145164231619E-2
 8.159156663000000E9     4.869096113438976E-1    2.279342694210791E-1   -6.738003545957740E-4    2.523935423083750E-3   -6.910030566548426E-4    2.540881195041726E-3    4.901409123079749E-1    7.737385111376713E-2
 8.159346745350000E9     4.924347654591592E-1    2.163920577296237E-1   -6.120865705416551E-4    2.503734421583268E-3   -6.213675749032008E-4    2.533524585964397E-3    4.915632319174714E-1    6.586533264491076E-2
 8.159536827700000E9     4.974802766988384E-1    2.048121865044051E-1   -5.714792727688660E-4    2.519377567263257E-3   -5.792739212055481E-4    2.544991086766158E-3    4.926499640129017E-1    5.435624547080187E-2
 8.159726910050000E9     5.023341860262676E-1    1.930327572928504E-1   -5.070339519015857E-4    2.548244961091225E-3   -5.033087216980280E-4    2.539913534171373E-3    4.935273997176982E-1    4.288243703420155E-2
 8.159916992400000E9     5.069833533451883E-1    1.811362429193353E-1   -4.453939354269153E-4    2.538980021651156E-3   -4.386866461796711E-4    2.552070384356332E-3    4.940124832595631E-1    3.119532232992617E-2
 8.160107074750000E9     5.113430548896685E-1    1.690593518513879E-1   -3.855859447018902E-4    2.546602999345483E-3   -3.681795259029834E-4    2.539586228737813E-3    4.944398796716900E-1    1.960905318978027E-2
 8.160297157100000E9     5.153364693456121E-1    1.570933016016358E-1   -2.993292783972150E-4    2.547035902607527E-3   -3.125333288665086E-4    2.536116954079571E-3    4.944491458353376E-1    8.187962505120621E-3
 8.160487239450000E9     5.191599502277086E-1    1.447572010699901E-1   -2.415167666468705E-4    2.566872404265956E-3   -2.364257205459964E-4    2.568213098026329E-3    4.941512594450423E-1   -3.409595252184611E-3
 8.160677321800000E9     5.226006743736301E-1    1.325525288891226E-1   -1.973719846300935E-4    2.547631913837359E-3   -2.101402943233358E-4    2.556773939510910E-3    4.936801671158743E-1   -1.476273800386431E-2
 8.160867404150000E9     5.257676484268438E-1    1.201022239130180E-1   -1.134933899308731E-4    2.551954194360431E-3   -9.701230611945628E-5    2.562859126152240E-3    4.928426431194090E-1   -2.650958891569197E-2
 8.161057486500000E9     5.285945361608684E-1    1.077443490328819E-1   -5.242613714843670E-5    2.556533088159817E-3   -6.881517025680537E-5    2.553267252289312E-3    4.918227724307363E-1   -3.782956126921794E-2
 8.161247568850000E9     5.312529725986394E-1    9.522204742624257E-2   -1.561858896508165E-5    2.544370042755754E-3   -2.731359880541165E-6    2.558050772376001E-3    4.905036150897476E-1   -4.926564485798432E-2
 8.161437651200000E9     5.336021910392358E-1    8.265841152085833E-2    7.561259178901957E-5    2.519643935330434E-3    4.301776608528120E-5    2.544662035673783E-3    4.888654787181641E-1   -6.056080815765600E-2
 8.161627733550000E9     5.353998703551652E-1    7.009782613480578E-2    1.547102436536254E-4    2.529795797957857E-3    1.475126560253874E-4    2.528695189553305E-3    4.870361538103147E-1   -7.179289088184262E-2
 8.161817815900000E9     5.371577037290640E-1    5.741633937933217E-2    1.896184160777930E-4    2.528715497103828E-3    1.982156417336730E-4    2.534727394689277E-3    4.851110386437235E-1   -8.318946823187535E-2
 8.162007898250000E9     5.384296973898757E-1    4.461400698567999E-2    2.450895871692935E-4    2.505362755344067E-3    2.243824196644722E-4    2.537430114354766E-3    4.828353028655856E-1   -9.432690424344468E-2
 8.162197980600000E9     5.395303117287500E-1    3.203627545192726E-2    3.189520829704881E-4    2.475242232829292E-3    2.981452915381618E-4    2.485604959446225E-3    4.801432222271710E-1   -1.054086704342516E-1
 8.162388062950000E9     5.404000631142053E-1    1.925931981911535E-2    3.899764247109634E-4    2.506897046580764E-3    3.731022517902972E-4    2.486230052106424E-3    4.772917904927749E-1   -1.164799035018218E-1
 8.162578145300000E9     5.407513290923662E-1    6.591715628678657E-3    4.317422616764723E-4    2.466122938743282E-3    4.210616033284231E-4    2.476973810184770E-3    4.741615351275751E-1   -1.273808282885479E-1
 8.162768227650000E9     5.408718163260967E-1   -6.329308840083324E-3    4.904042595869215E-4    2.430794417468133E-3    4.744981336125037E-4    2.432989718103259E-3    4.707457879577497E-1   -1.383210761823432E-1
 8.162958310000000E9     5.406858489055461E-1   -1.903918808936434E-2    5.486029963140025E-4    2.425863797188700E-3    5.485639419102553E-4    2.457698328712151E-3    4.671040809067840E-1   -1.489428695572155E-1
 8.163148392350000E9     5.402447713030006E-1   -3.178653413056557E-2    5.952961272419417E-4    2.411102007265847E-3    5.902024636246869E-4    2.416922536580835E-3    4.633481413825767E-1   -1.597141443693413E-1
 8.163338474700000E9     5.395085618003024E-1   -4.458434248772343E-2    6.627542939774283E-4    2.383807143049151E-3    6.854545301003647E-4    2.388884189418392E-3    4.591155521702894E-1   -1.702520355287519E-1
 8.163528557050000E9     5.383887310981000E-1   -5.742274160635377E-2    7.204790533869407E-4    2.365043100273746E-3    7.119319021612955E-4    2.384730050375613E-3    4.548042997695876E-1   -1.808100759955560E-1
 8.163718639400000E9     5.371078562487885E-1   -7.008167476219017E-2    7.884788257354539E-4    2.359218440297975E-3    7.640577575815801E-4    2.394130522835212E-3    4.501582738797137E-1   -1.911115850697747E-1
 8.163908721750000E9     5.353670631199891E-1   -8.280209203051780E-2    8.290603593016875E-4    2.315815443131159E-3    8.143467683668367E-4    2.378264254651390E-3    4.453471647272447E-1   -2.014960346884492E-1
 8.164098804100000E9     5.334390187133089E-1   -9.536346191753299E-2    8.625550101103379E-4    2.307838933576228E-3    8.635803399399557E-4    2.334924209708522E-3    4.405406937487836E-1   -2.114174399368804E-1
 8.164288886450000E9     5.310026584994224E-1   -1.078841043726372E-1    9.305980001356673E-4    2.275095231354600E-3    8.936831351919361E-4    2.295438819557294E-3    4.351771484960308E-1   -2.215737855739209E-1
 8.164478968800000E9     5.286312915614751E-1   -1.203699540703304E-1    9.867445027107989E-4    2.252494021893685E-3    1.001646379239176E-3    2.270751140545358E-3    4.297178683337557E-1   -2.314487484210149E-1
 8.164669051150000E9     5.254623628150628E-1   -1.328775352476810E-1    1.035626899712872E-3    2.213939937809559E-3    1.027768174289928E-3    2.244026729131501E-3    4.240000619412982E-1   -2.411161484548490E-1
 8.164859133500000E9     5.224126282864070E-1   -1.451893745306348E-1    1.100929885416228E-3    2.187107582802707E-3    1.087116410178511E-3    2.195438232570512E-3    4.179078725617008E-1   -2.506739587901258E-1
 8.165049215850000E9     5.190537775311631E-1   -1.576378292258022E-1    1.124873856302604E-3    2.148897666234671E-3    1.127647398026134E-3    2.152952506898986E-3    4.117908519810998E-1   -2.602006705896963E-1
 8.165239298200000E9     5.152840529635960E-1   -1.698796315939964E-1    1.192849282939805E-3    2.120011596924654E-3    1.154066388135212E-3    2.156884004338412E-3    4.053237882412677E-1   -2.694490510538278E-1
 8.165429380550000E9     5.111907032360868E-1   -1.819335286828852E-1    1.241242744118803E-3    2.078076826611812E-3    1.226665812159577E-3    2.102345489812674E-3    3.988266501836586E-1   -2.784263673711285E-1
 8.165619462900000E9     5.067975929959383E-1   -1.940179232652605E-1    1.278621023752247E-3    2.050615103647685E-3    1.279741580067021E-3    2.061354949058891E-3    3.921667412619740E-1   -2.873744653176127E-1
 8.165809545250000E9     5.023106652696933E-1   -2.059953350345199E-1    1.338558726990465E-3    2.020572656171733E-3    1.368730856637716E-3    2.035506692912402E-3    3.851131736824952E-1   -2.961595754571635E-1
 8.165999627600000E9     4.971904320331219E-1   -2.178318072329022E-1    1.364133249459894E-3    1.984439170249349E-3    1.333058761650991E-3    2.019085609808123E-3    3.778962327518777E-1   -3.048780723315318E-1
 8.166189709950000E9     4.921713124401100E-1   -2.295483817066063E-1    1.424410803397016E-3    1.952435107627443E-3    1.431427096261519E-3    1.973074250654513E-3    3.706983185087461E-1   -3.132733974748557E-1
 8.166379792300000E9     4.865859913922313E-1   -2.410375283347607E-1    1.450587148166905E-3    1.904624936358132E-3    1.435304835966422E-3    1.915039642762278E-3    3.629016123462833E-1   -3.217148794385060E-1
 8.166569874650000E9     4.808446622397785E-1   -2.524390810169558E-1    1.486057639935746E-3    1.875041803970839E-3    1.510328101814080E-3    1.936792004053192E-3    3.554763413864092E-1   -3.297901835241974E-1
 8.166759957000000E9     4.748642602546489E-1   -2.638433618997004E-1    1.554397353580315E-3    1.813553969459980E-3    1.541440571390984E-3    1.887440356227871E-3    3.473752296289873E-1   -3.376238750300880E-1
 8.166950039350000E9     4.685596351881710E-1   -2.750997888450664E-1    1.588541702664207E-3    1.789359222915433E-3    1.590167241968565E-3    1.836198426081360E-3    3.392084815873425E-1   -3.453442227546438E-1
 8.167140121700000E9     4.620106288669862E-1   -2.859898935883740E-1    1.627359772437368E-3    1.748408939322668E-3    1.632877603640369E-3    1.777437249365530E-3    3.308953214255206E-1   -3.529871502349678E-1
 8.167330204050000E9     4.551995351390798E-1   -2.969392859599650E-1    1.652855765143240E-3    1.719477666926262E-3    1.691018638667378E-3    1.749816500592868E-3    3.226181023838205E-1   -3.600799523620000E-1
 8.167520286400000E9     4.480266460188972E-1   -3.076666080017258E-1    1.702491592812154E-3    1.654415364664262E-3    1.690328564216487E-3    1.705578156506861E-3    3.139937741907344E-1   -3.672304836768040E-1
 8.167710368750000E9     4.407651434221259E-1   -3.182383832652852E-1    1.720888717045084E-3    1.627428090608017E-3    1.715051181427620E-3    1.691213196704888E-3    3.053802469016217E-1   -3.740757868985439E-1
 8.167900451100000E9     4.330843157621049E-1   -3.285302541578847E-1    1.727364467546221E-3    1.576992915838203E-3    1.785232446451872E-3    1.632190931911628E-3    2.964271150875197E-1   -3.807903146441222E-1
 8.168090533450000E9     4.252943396172562E-1   -3.386764751891629E-1    1.776976891610093E-3    1.541869489517144E-3    1.811019616311150E-3    1.550309056459515E-3    2.875222384469682E-1   -3.873240529500969E-1
 8.168280615800000E9     4.171901426454884E-1   -3.486139155989127E-1    1.832235182709902E-3    1.468103108919086E-3    1.847353716419625E-3    1.514439851419049E-3    2.783394487557385E-1   -3.936842814149643E-1
 8.168470698150000E9     4.088341591226385E-1   -3.584784268020274E-1    1.852080069265137E-3    1.429889871585086E-3    1.848601774228006E-3    1.496256055233137E-3    2.690458610930450E-1   -3.997664582857242E-1
 8.168660780500000E9     4.004267047531311E-1   -3.681468362176348E-1    1.889233993711944E-3    1.392164933775025E-3    1.897160808213933E-3    1.435551720919794E-3    2.596439480229174E-1   -4.055856169325341E-1
 8.168850862850000E9     3.916137740688664E-1   -3.775580779073936E-1    1.919184327287210E-3    1.364026277140792E-3    1.937875306538951E-3    1.403630669502978E-3    2.499075955175133E-1   -4.111662774581344E-1
 8.169040945200000E9     3.824826811670902E-1   -3.866506820644586E-1    1.943731090491232E-3    1.315879699051186E-3    1.974595610623637E-3    1.356372089945808E-3    2.402432289744855E-1   -4.166049472795632E-1
 8.169231027550000E9     3.734006004882812E-1   -3.956633415412473E-1    1.942463792949955E-3    1.253634893467863E-3    1.974747595859323E-3    1.300673384740723E-3    2.304836112030516E-1   -4.217008391107874E-1
 8.169421109900000E9     3.637645726227908E-1   -4.044186473176481E-1    1.982364060242267E-3    1.209359334027600E-3    2.036391617731169E-3    1.250682788751914E-3    2.207474369865169E-1   -4.266479537828659E-1
 8.169611192250000E9     3.543411432884044E-1   -4.129282994631721E-1    2.019149846623550E-3    1.156020107425904E-3    2.051986184207483E-3    1.201781100783629E-3    2.105709018996992E-1   -4.313068508209134E-1
 8.169801274600000E9     3.443048940092383E-1   -4.212610833195138E-1    2.074122956316626E-3    1.108934893118145E-3    2.068916364059334E-3    1.151889546256266E-3    2.006394230866413E-1   -4.357755890340948E-1
 8.169991356950000E9     3.343325269996945E-1   -4.292987670689260E-1    2.056194125186589E-3    1.059884443618622E-3    2.095106038225346E-3    1.075365095071806E-3    1.903360480788779E-1   -4.401470718093348E-1
 8.170181439300000E9     3.241204946880918E-1   -4.371162719757546E-1    2.066231264320873E-3    1.014086744550127E-3    2.101267702602006E-3    1.035052030537739E-3    1.802533860963596E-1   -4.441247157091160E-1
 8.170371521650000E9     3.137214481130000E-1   -4.447123665559898E-1    2.105118955195158E-3    9.523930631283542E-4    2.145998344641094E-3    1.011189187462410E-3    1.698587964964661E-1   -4.480499244342607E-1
 8.170561604000000E9     3.029511074932824E-1   -4.521008232506677E-1    2.139157936680399E-3    8.940489105769572E-4    2.152810811291859E-3    9.512242169198392E-4    1.593659918597934E-1   -4.512570669342608E-1
 8.170751686350000E9     2.921995134498619E-1   -4.591192822105192E-1    2.135171817190707E-3    8.677462289428574E-4    2.223663399897997E-3    8.929276564359645E-4    1.488882795846598E-1   -4.546740673539906E-1
 8.170941768700000E9     2.813723966495250E-1   -4.659061812762970E-1    2.129924890304578E-3    8.101627489624353E-4    2.203883088774876E-3    8.470797791129116E-4    1.382433302606202E-1   -4.577491075478977E-1
 8.171131851050000E9     2.701815572940673E-1   -4.725341789081876E-1    2.165301254725921E-3    7.378978742637527E-4    2.245183126482410E-3    7.929088168858119E-4    1.277172381411656E-1   -4.605017523883161E-1
 8.171321933400000E9     2.590430933091609E-1   -4.789171280668058E-1    2.213982706772381E-3    7.277130849872903E-4    2.246053001241009E-3    7.426356391885344E-4    1.169995952455550E-1   -4.629891855962426E-1
 8.171512015750000E9     2.475288351696190E-1   -4.848373294542182E-1    2.217794804074350E-3    6.579486735695866E-4    2.232979682164220E-3    6.490339851451460E-4    1.063277374391447E-1   -4.653481676533799E-1
 8.171702098100000E9     2.359322980209249E-1   -4.907341474002473E-1    2.205925114183240E-3    6.215483524109831E-4    2.251005011731461E-3    6.232493116455973E-4    9.555273247664058E-2   -4.674406345073953E-1
 8.171892180450000E9     2.242193286236638E-1   -4.961211097006384E-1    2.222116854228184E-3    5.461939117464471E-4    2.237634881676380E-3    5.852597170928732E-4    8.476480816413501E-2   -4.692206624831066E-1
 8.172082262800000E9     2.123670008802043E-1   -5.012047823635306E-1    2.253467602196589E-3    4.876036389717496E-4    2.272729424571429E-3    5.166299075277701E-4    7.399949777306368E-2   -4.706013471427869E-1
 8.172272345150000E9     2.004958370338737E-1   -5.062146238287590E-1    2.234903972920721E-3    4.486658940906776E-4    2.323662929371047E-3    4.789571808895880E-4    6.320064370957992E-2   -4.721207895607438E-1
 8.172462427500000E9     1.883188032471529E-1   -5.107901559250192E-1    2.251384826804081E-3    3.959784218957991E-4    2.312978710282779E-3    4.026432130051266E-4    5.230176026694375E-2   -4.730547917019739E-1
