#  HZ   S   RI   R     50.00 
! Rohde & Schwarz Vector Network Analyzer 
! Rohde-Schwarz,ZNB20-2Port,1311601062101988,3.16
! Created: UTC 3/20/2024, 5:00:20 PM
! freq[Hz]                re:S11                  im:S11                  re:S21                  im:S21                  re:S12                  im:S12                  re:S22                  im:S22
 8.152669478000000E9     1.638688535396602E-1    5.026843305185168E-1   -2.566967725106182E-3    1.226378871282258E-3   -2.549876815934410E-3    1.276865739432640E-3    2.890706799191862E-1    4.136271632694402E-1
 8.152871840025000E9     1.768502380278609E-1    4.986770715565609E-1   -2.516655475578135E-3    1.254378912120280E-3   -2.509077766832052E-3    1.359891610880244E-3    2.992493501171101E-1    4.060706286475998E-1
 8.153074202050000E9     1.897485981293012E-1    4.942225033209305E-1   -2.471447443166675E-3    1.379549923077681E-3   -2.463109317289688E-3    1.381131352824038E-3    3.093869870931109E-1    3.982287783931201E-1
 8.153276564075000E9     2.026547015005188E-1    4.895460366202466E-1   -2.434964110606454E-3    1.459084623973817E-3   -2.450441171647336E-3    1.459893032214833E-3    3.191143244438123E-1    3.901899891907189E-1
 8.153478926100000E9     2.153156052332037E-1    4.843957566229369E-1   -2.389006583956942E-3    1.483494932306231E-3   -2.401265197834513E-3    1.517873166774906E-3    3.288205533995269E-1    3.817985729134223E-1
 8.153681288125000E9     2.277095315208532E-1    4.789479124845933E-1   -2.338682824661152E-3    1.562339708441061E-3   -2.333393766246730E-3    1.552058188392920E-3    3.381202679096291E-1    3.729370710150571E-1
 8.153883650150000E9     2.402128455171810E-1    4.732859178158070E-1   -2.305229079859988E-3    1.596794659916206E-3   -2.274394706975483E-3    1.622724675919260E-3    3.473710184818499E-1    3.643299580665396E-1
 8.154086012175000E9     2.523257821085078E-1    4.673600873687848E-1   -2.219594642882879E-3    1.651242582388702E-3   -2.224867686292774E-3    1.699240929012081E-3    3.562197262291453E-1    3.551649382890665E-1
 8.154288374200000E9     2.644398032285614E-1    4.608508054391975E-1   -2.176472755969903E-3    1.686616960092299E-3   -2.164610936569751E-3    1.763369099603803E-3    3.648720096095319E-1    3.459777612727673E-1
 8.154490736225000E9     2.762860674113387E-1    4.541328682905142E-1   -2.149344970464698E-3    1.759923960777641E-3   -2.118460943739287E-3    1.802702927636809E-3    3.732580409831792E-1    3.365212314335496E-1
 8.154693098250000E9     2.880342830416989E-1    4.471689352515679E-1   -2.061665351047369E-3    1.834352977011042E-3   -2.063868185196856E-3    1.845011639046519E-3    3.814894337789963E-1    3.267896032345480E-1
 8.154895460275000E9     2.995580831397994E-1    4.397937320941216E-1   -2.010295161820113E-3    1.873778477799496E-3   -2.009689567936461E-3    1.877846849274280E-3    3.893111337020450E-1    3.168970181314176E-1
 8.155097822300000E9     3.109623802667063E-1    4.323825842661230E-1   -1.973189200555434E-3    1.933588470291719E-3   -1.957313383946245E-3    1.942138700019961E-3    3.968445129138731E-1    3.070205956619609E-1
 8.155300184325000E9     3.220079197511839E-1    4.244606561410427E-1   -1.912746162090830E-3    1.950836590834125E-3   -1.937474946578515E-3    1.982588780210021E-3    4.044014493867554E-1    2.966483197466429E-1
 8.155502546350000E9     3.328989869968207E-1    4.162355938603655E-1   -1.847281574140682E-3    2.022756968232345E-3   -1.851262115642103E-3    2.056373127850982E-3    4.114255816219206E-1    2.863165285965981E-1
 8.155704908375000E9     3.435669051271643E-1    4.080104045651515E-1   -1.821914071494308E-3    2.051650511738026E-3   -1.803003020311711E-3    2.046430361157532E-3    4.182792025905467E-1    2.759231903122685E-1
 8.155907270400000E9     3.541071230141967E-1    3.991876946104025E-1   -1.722969167775326E-3    2.089231495436583E-3   -1.730951174003058E-3    2.123217914778591E-3    4.248592210537184E-1    2.649895339748919E-1
 8.156109632425000E9     3.641939144847068E-1    3.903067870883936E-1   -1.676715714429790E-3    2.137558854326205E-3   -1.649148363465355E-3    2.120878659594037E-3    4.312997029985468E-1    2.541157627904255E-1
 8.156311994450000E9     3.743519340077820E-1    3.810577042227526E-1   -1.629335860346675E-3    2.161957275275435E-3   -1.613870477456814E-3    2.191336846961631E-3    4.371370859482784E-1    2.431211990731287E-1
 8.156514356475000E9     3.841416088972666E-1    3.714735058850460E-1   -1.554210084081629E-3    2.203164759939774E-3   -1.535713935137917E-3    2.220759695525038E-3    4.427596803136555E-1    2.319691586464112E-1
 8.156716718500000E9     3.935748976910563E-1    3.617708108286509E-1   -1.493227148310412E-3    2.244438922907874E-3   -1.489858389431359E-3    2.261609500077712E-3    4.481744803987703E-1    2.206164832870735E-1
 8.156919080525000E9     4.028515492451844E-1    3.518272346221306E-1   -1.427331255456752E-3    2.252176647583082E-3   -1.418621706237801E-3    2.288267541526633E-3    4.535261775666810E-1    2.093403865484282E-1
 8.157121442550000E9     4.118436977881507E-1    3.417993453735430E-1   -1.354994138804037E-3    2.304614311011199E-3   -1.375255005732476E-3    2.331128285421067E-3    4.581014760066378E-1    1.977631050938725E-1
 8.157323804575000E9     4.205807619949683E-1    3.313935461205542E-1   -1.287498454778959E-3    2.340419594204415E-3   -1.269044525202575E-3    2.329689404744602E-3    4.627801500007338E-1    1.862318013212023E-1
 8.157526166600000E9     4.291467371776171E-1    3.207726693731746E-1   -1.231430264521641E-3    2.362993870059665E-3   -1.217139452669880E-3    2.404707687127426E-3    4.670214426727550E-1    1.743991570971015E-1
 8.157728528625000E9     4.372049654946267E-1    3.099062196316307E-1   -1.172458681817867E-3    2.355799757803266E-3   -1.179216143219861E-3    2.377936253447731E-3    4.710787974723500E-1    1.625530499163610E-1
 8.157930890650000E9     4.452208458193341E-1    2.987795199391137E-1   -1.097800431481385E-3    2.432752515933494E-3   -1.087482146410375E-3    2.425466258825666E-3    4.746714912846686E-1    1.507580069269317E-1
 8.158133252675000E9     4.527102721055570E-1    2.875686144444654E-1   -1.049095129219839E-3    2.444482191488316E-3   -1.050255349728504E-3    2.447957160518059E-3    4.780045684399975E-1    1.386606746087149E-1
 8.158335614700000E9     4.601806585963377E-1    2.760582772986762E-1   -9.528412689878796E-4    2.456754269113037E-3   -9.726071147685994E-4    2.450460123005601E-3    4.810782804553283E-1    1.266027522316972E-1
 8.158537976725000E9     4.671529367437085E-1    2.644802128804216E-1   -9.023242884463571E-4    2.487949414406725E-3   -9.159014287920561E-4    2.502194202368527E-3    4.837586251045282E-1    1.146577669344625E-1
 8.158740338750000E9     4.740075415695849E-1    2.527513220545134E-1   -8.119247081167789E-4    2.481929420203067E-3   -8.300683821688285E-4    2.505230900895670E-3    4.860704814947340E-1    1.025774769622471E-1
 8.158942700775000E9     4.803774259131594E-1    2.407775375774614E-1   -7.619353089156542E-4    2.530780239338917E-3   -7.313765664332595E-4    2.523701074632481E-3    4.883355088483238E-1    9.029229153657681E-2
 8.159145062800000E9     4.864509525728323E-1    2.286855765218384E-1   -6.953620971824639E-4    2.515038530284610E-3   -6.982755286599579E-4    2.511346910416490E-3    4.900483393419851E-1    7.797961494596725E-2
 8.159347424825000E9     4.922268239378433E-1    2.163438145823908E-1   -6.463963581334544E-4    2.526107740727774E-3   -6.218163629001276E-4    2.538862699731306E-3    4.914153296007562E-1    6.572619662679825E-2
 8.159549786850000E9     4.980520603910918E-1    2.039400636372437E-1   -5.404854719317575E-4    2.512152676714962E-3   -5.332600341257673E-4    2.560279896409689E-3    4.928070061225852E-1    5.336661197174378E-2
 8.159752148875000E9     5.030201787481241E-1    1.913591936447960E-1   -4.874841634730880E-4    2.560371757550266E-3   -4.863286104959814E-4    2.544329115566759E-3    4.937086188491233E-1    4.110503019444121E-2
 8.159954510900000E9     5.078126508858114E-1    1.787482885181167E-1   -4.237555020397626E-4    2.541734814988732E-3   -4.273621460028943E-4    2.539651778772358E-3    4.941314467882425E-1    2.891154041327606E-2
 8.160156872925000E9     5.124369164449898E-1    1.658741495745733E-1   -3.715364158977803E-4    2.532169043154715E-3   -3.716326776158743E-4    2.578452318947730E-3    4.944881322069259E-1    1.665238242349079E-2
 8.160359234950000E9     5.165468749316537E-1    1.530037601343746E-1   -2.839601608602867E-4    2.553473770623343E-3   -3.072891829307223E-4    2.555894420687221E-3    4.941447745688793E-1    4.375021433444847E-3
 8.160561596975000E9     5.205836223928765E-1    1.399564672877807E-1   -2.209236767107449E-4    2.578483935170670E-3   -2.059078153862173E-4    2.566208554590009E-3    4.940424103316026E-1   -7.858763505528731E-3
 8.160763959000000E9     5.241005887943976E-1    1.269057671255208E-1   -1.477726791495290E-4    2.564289468310661E-3   -1.565465406541900E-4    2.577201761527879E-3    4.933912625657371E-1   -2.017611596710267E-2
 8.160966321025000E9     5.272596472653167E-1    1.136894883089816E-1   -7.261414812563188E-5    2.533150607166028E-3   -1.001283914879010E-4    2.541349971375802E-3    4.921821774972969E-1   -3.223607336510633E-2
 8.161168683050000E9     5.302015341134506E-1    1.003374902107136E-1   -3.050069538969978E-5    2.543651989794346E-3   -4.149788371404834E-5    2.560425213747074E-3    4.911618487676737E-1   -4.440997626649639E-2
 8.161371045075000E9     5.326996237181477E-1    8.700057431154752E-2    4.394576731214362E-5    2.522120571197484E-3    2.647520541284292E-5    2.547800887253487E-3    4.896188920847255E-1   -5.670075295290158E-2
 8.161573407100000E9     5.348652634621860E-1    7.367829490592928E-2    1.102082370785040E-4    2.523520455105321E-3    1.349431887802376E-4    2.549428081127550E-3    4.877420477662933E-1   -6.858688278881236E-2
 8.161775769125000E9     5.368263056512211E-1    6.017744243269025E-2    1.911382689960318E-4    2.522426344997322E-3    1.567935273230812E-4    2.577515601934656E-3    4.855760274361520E-1   -8.056485773628780E-2
 8.161978131150000E9     5.383238920349195E-1    4.682765632673433E-2    2.506443172778051E-4    2.505125953255263E-3    2.435759691866869E-4    2.528771487884007E-3    4.830348796965583E-1   -9.249413514765394E-2
 8.162180493175000E9     5.395200207921459E-1    3.323835829168111E-2    2.917718025906506E-4    2.477367588263731E-3    3.043883585072181E-4    2.504184091319840E-3    4.804467242149457E-1   -1.043032373079128E-1
 8.162382855200000E9     5.402470291614703E-1    1.958679882166067E-2    3.768747751720063E-4    2.482088308574117E-3    3.673498771430694E-4    2.511157005096201E-3    4.773493487523484E-1   -1.161023913614539E-1
 8.162585217225000E9     5.406541425433437E-1    5.994083650158887E-3    4.405273871040074E-4    2.470371204698057E-3    4.220899149236195E-4    2.483516379284638E-3    4.739807822762543E-1   -1.278572469111470E-1
 8.162787579250000E9     5.408476321759664E-1   -7.575261661030373E-3    4.629033079324284E-4    2.435071318760959E-3    4.914860176250922E-4    2.480295229963158E-3    4.702829578052008E-1   -1.394779737180724E-1
 8.162989941275000E9     5.406280012004037E-1   -2.130501722247282E-2    5.811419726702898E-4    2.425132606331160E-3    5.367338284522946E-4    2.444912264163046E-3    4.665632676694322E-1   -1.509057907043089E-1
 8.163192303300000E9     5.400800400024771E-1   -3.480233303809528E-2    6.083248847814919E-4    2.403069867150713E-3    6.112581156534129E-4    2.426523927569711E-3    4.625090312655221E-1   -1.622267974840869E-1
 8.163394665325000E9     5.392168085816978E-1   -4.835364552680839E-2    6.835348546611562E-4    2.382637737763271E-3    6.427821804599505E-4    2.425193403210154E-3    4.578966503433920E-1   -1.733377931321691E-1
 8.163597027350000E9     5.380160810581461E-1   -6.204623128056495E-2    7.494325880095306E-4    2.347595862823183E-3    7.178457589236070E-4    2.381278790623309E-3    4.533152109897367E-1   -1.846626668595731E-1
 8.163799389375000E9     5.362377824376473E-1   -7.549620085325705E-2    7.933065729392676E-4    2.321109743657953E-3    7.864294680998355E-4    2.342720187917795E-3    4.482556170256048E-1   -1.954621565506767E-1
 8.164001751400000E9     5.344094021780154E-1   -8.894324056815195E-2    8.491727596289171E-4    2.346148148741854E-3    8.408145695678570E-4    2.348702781626474E-3    4.428871573769794E-1   -2.064308300625443E-1
 8.164204113425000E9     5.322408644058487E-1   -1.022913655464489E-1    8.934670653998799E-4    2.274917848969913E-3    8.715344085143351E-4    2.318015378587468E-3    4.374761697375327E-1   -2.169852913767027E-1
 8.164406475450000E9     5.296180416728000E-1   -1.157391172739283E-1    9.573745515735499E-4    2.273976233815606E-3    9.730424211764221E-4    2.261284470641301E-3    4.317858645934828E-1   -2.276694691489693E-1
 8.164608837475000E9     5.265053855617889E-1   -1.289326441483339E-1    1.029086223479901E-3    2.239815083645619E-3    9.769361735792615E-4    2.247281442576184E-3    4.255942012873049E-1   -2.381601805679416E-1
 8.164811199500000E9     5.233134986241822E-1   -1.421406105647628E-1    1.076614473559534E-3    2.158461913922260E-3    1.084018363743275E-3    2.251197945272034E-3    4.195364147174831E-1   -2.482037421960771E-1
 8.165013561525000E9     5.196277095407517E-1   -1.551790241026153E-1    1.133622918425182E-3    2.138848340479057E-3    1.120580896840073E-3    2.194394058982267E-3    4.128106302545336E-1   -2.584188993101276E-1
 8.165215923550000E9     5.157805181457500E-1   -1.682023220598757E-1    1.185708403632277E-3    2.098813872569795E-3    1.179579460468706E-3    2.185964858459175E-3    4.061654222735974E-1   -2.681975056797293E-1
 8.165418285575000E9     5.114145826564308E-1   -1.812734455947753E-1    1.241193027655780E-3    2.088801871420705E-3    1.225642376974856E-3    2.106281976137659E-3    3.993945971063221E-1   -2.780414193864719E-1
 8.165620647600000E9     5.067912195748767E-1   -1.940478995840075E-1    1.287869981451969E-3    2.052719929544595E-3    1.286102641857771E-3    2.092208243571880E-3    3.920125687440958E-1   -2.875692356150736E-1
 8.165823009625000E9     5.018552914490724E-1   -2.069162054084886E-1    1.329360076230176E-3    2.011308327820492E-3    1.291464901739075E-3    2.047195528087490E-3    3.847091663274111E-1   -2.968536819330795E-1
 8.166025371650000E9     4.965693658057942E-1   -2.193123171332394E-1    1.389093568011898E-3    1.961205751601560E-3    1.370104873738861E-3    1.999397484498607E-3    3.769757136642223E-1   -3.059836527501812E-1
 8.166227733675000E9     4.910219648039594E-1   -2.318175671269312E-1    1.380430625054500E-3    1.935462879004549E-3    1.445465519796971E-3    1.956062321215903E-3    3.690203577820731E-1   -3.150027530688213E-1
 8.166430095700000E9     4.851554007105307E-1   -2.441656522285183E-1    1.474452149897886E-3    1.890438615928278E-3    1.482324691865145E-3    1.930293112578823E-3    3.609632946356230E-1   -3.237741850300314E-1
 8.166632457725000E9     4.789532018494156E-1   -2.562800622639930E-1    1.486728623000149E-3    1.869403419674308E-3    1.505935141301413E-3    1.891896738353034E-3    3.526986475496859E-1   -3.323161974895790E-1
 8.166834819750000E9     4.722883185484771E-1   -2.682948932277834E-1    1.534416298538054E-3    1.820449871389893E-3    1.559509524629746E-3    1.836542281823670E-3    3.442412389084535E-1   -3.406019658222057E-1
 8.167037181775000E9     4.655634556273483E-1   -2.800826594385708E-1    1.578117039283253E-3    1.776778124226660E-3    1.614782928429476E-3    1.818484723590203E-3    3.355452756882651E-1   -3.488026061940121E-1
 8.167239543800000E9     4.584053447363880E-1   -2.918116455465070E-1    1.648877810896981E-3    1.692095548528328E-3    1.650129322328541E-3    1.756286848827436E-3    3.268354078299779E-1   -3.566158534572364E-1
 8.167441905825000E9     4.510152359817647E-1   -3.031833204087450E-1    1.674533893005492E-3    1.686633914034840E-3    1.686698544320597E-3    1.722161010901466E-3    3.175829475014781E-1   -3.644393034047694E-1
 8.167644267850000E9     4.432513000509296E-1   -3.146320568933529E-1    1.696601183565342E-3    1.645446178390715E-3    1.743463504423108E-3    1.664130401216575E-3    3.082642601352078E-1   -3.718723770582132E-1
 8.167846629875000E9     4.353262983247203E-1   -3.255879026908994E-1    1.768080169785349E-3    1.575855635167164E-3    1.757106957374077E-3    1.625175382519402E-3    2.989238079134751E-1   -3.789877625508060E-1
 8.168048991900000E9     4.270658538078982E-1   -3.365153699619277E-1    1.765250997853439E-3    1.529235788341752E-3    1.771663227550352E-3    1.611984540784041E-3    2.894985049849956E-1   -3.859592649302934E-1
 8.168251353925000E9     4.185310675024793E-1   -3.471233662415676E-1    1.813263716573315E-3    1.505828244535207E-3    1.844067885498550E-3    1.538472886746871E-3    2.796140695638080E-1   -3.926173813905246E-1
 8.168453715950000E9     4.096806261761194E-1   -3.576062585092421E-1    1.875139433188714E-3    1.423140030785862E-3    1.882870057011321E-3    1.498958326223474E-3    2.697026122890729E-1   -3.991560484576759E-1
 8.168656077975000E9     4.004819733782528E-1   -3.678850348908653E-1    1.870256740239697E-3    1.401727245209355E-3    1.904777979695062E-3    1.453303308089015E-3    2.597089946165386E-1   -4.052506796297600E-1
 8.168858440000000E9     3.911673261868628E-1   -3.778515061502213E-1    1.927667742823031E-3    1.339576187195081E-3    1.951641633456703E-3    1.354615543924450E-3    2.497207543184885E-1   -4.113036529535681E-1
 8.169060802025000E9     3.816674634905720E-1   -3.876348731308265E-1    1.943349737633646E-3    1.298782666318390E-3    1.971878361998138E-3    1.303944525685874E-3    2.393832239713715E-1   -4.170732089988051E-1
 8.169263164050000E9     3.717898192190808E-1   -3.972108180911733E-1    1.959494810256625E-3    1.234560994495587E-3    2.033955022397862E-3    1.288063213008042E-3    2.289105830213395E-1   -4.225852256880547E-1
 8.169465526075000E9     3.615404841732065E-1   -4.064752400140396E-1    1.992681739287252E-3    1.192340857666368E-3    2.038270609475371E-3    1.254514478170766E-3    2.183877787251680E-1   -4.275789936548238E-1
 8.169667888100000E9     3.513373149701485E-1   -4.154943501543183E-1    2.043203152216535E-3    1.130037319718530E-3    2.074118508652740E-3    1.185006570617880E-3    2.076311845689095E-1   -4.325740029082269E-1
 8.169870250125000E9     3.408404388245903E-1   -4.241750723628619E-1    2.052277990960612E-3    1.068365360979259E-3    2.097030107058577E-3    1.146475979481460E-3    1.968242227767440E-1   -4.374010917080872E-1
 8.170072612150000E9     3.299848840549325E-1   -4.325644500081185E-1    2.075327771686072E-3    1.028343993104001E-3    2.107259265601798E-3    1.071301412412653E-3    1.861237476545502E-1   -4.417321898904035E-1
 8.170274974175000E9     3.189197298896635E-1   -4.410184088948672E-1    2.114029064013618E-3    9.879800467069843E-4    2.130720071414745E-3    1.015000841060339E-3    1.750773203408438E-1   -4.461050138501083E-1
 8.170477336200000E9     3.077640503470268E-1   -4.488780013001766E-1    2.114039766641515E-3    9.366146060380311E-4    2.125500481316321E-3    9.787395634604967E-4    1.639924125590723E-1   -4.498271074111874E-1
 8.170679698225000E9     2.963850430438364E-1   -4.564720433465506E-1    2.134229094367897E-3    8.502058686630915E-4    2.159143980657930E-3    9.111079540786683E-4    1.527350244703562E-1   -4.535371510645601E-1
 8.170882060250000E9     2.849205307376868E-1   -4.638252164550981E-1    2.137676916614031E-3    8.192361084472323E-4    2.185283410023840E-3    8.490541209086575E-4    1.417502575819413E-1   -4.566568301229639E-1
