#  HZ   S   RI   R     50.00 
! Rohde & Schwarz Vector Network Analyzer 
! Rohde-Schwarz,ZNB20-2Port,1311601062101988,3.16
! Created: UTC 3/20/2024, 5:00:50 PM
! freq[Hz]                re:S11                  im:S11                  re:S21                  im:S21                  re:S12                  im:S12                  re:S22                  im:S22
 8.154430643000000E9     2.728523491646185E-1    4.562058516580615E-1   -2.143795420877586E-3    1.744701418726633E-3   -2.161627175459974E-3    1.771980662419034E-3    3.707460346625011E-1    3.393598413340336E-1
 8.154624876850000E9     2.840814226218734E-1    4.494831810220318E-1   -2.096400057337105E-3    1.820748563693427E-3   -2.079659499906073E-3    1.822016222567568E-3    3.786150493309263E-1    3.302455978817425E-1
 8.154819110700000E9     2.952436717148518E-1    4.426457270420849E-1   -2.043165712256837E-3    1.813245355058205E-3   -2.034709448157391E-3    1.874893931651580E-3    3.863817467272062E-1    3.208484161730074E-1
 8.155013344550000E9     3.062298360202406E-1    4.354991298018488E-1   -2.005267290873545E-3    1.915635692070906E-3   -1.998681424856793E-3    1.935182642284920E-3    3.938144665344526E-1    3.114002754663679E-1
 8.155207578400000E9     3.169072326279711E-1    4.280601391115766E-1   -1.940957720458981E-3    1.950942585556940E-3   -1.940551123434618E-3    1.990180650519725E-3    4.009489655116801E-1    3.014964673360414E-1
 8.155401812250000E9     3.275108287679033E-1    4.203822636084079E-1   -1.901731750496828E-3    1.990070274855000E-3   -1.865954429322101E-3    2.018056100847222E-3    4.078960597129258E-1    2.915145368899241E-1
 8.155596046100000E9     3.379275508885762E-1    4.123894391728424E-1   -1.818743760434386E-3    2.015636792861148E-3   -1.802061495068904E-3    2.040740557365626E-3    4.145978034934559E-1    2.817105111687945E-1
 8.155790279950000E9     3.480191921451513E-1    4.042117186793223E-1   -1.770641694572665E-3    2.069547671359171E-3   -1.798634788220820E-3    2.098518557299112E-3    4.211262415382087E-1    2.714205414457934E-1
 8.155984513800000E9     3.579754251984173E-1    3.958929524337311E-1   -1.713042316875735E-3    2.083092674015287E-3   -1.706974741188335E-3    2.109070970819009E-3    4.272585513388118E-1    2.610338540742527E-1
 8.156178747650000E9     3.677481539222166E-1    3.871202319579399E-1   -1.663507791595737E-3    2.148045969912609E-3   -1.671512125056216E-3    2.153626879819040E-3    4.331811592753819E-1    2.504353623907686E-1
 8.156372981500000E9     3.773190167395015E-1    3.781877213786221E-1   -1.611925599758855E-3    2.193082478003097E-3   -1.611137766122232E-3    2.211994813306254E-3    4.390104732713914E-1    2.399176838326387E-1
 8.156567215350000E9     3.866954374133194E-1    3.690981727171253E-1   -1.540517055947642E-3    2.225600505342297E-3   -1.546503360454507E-3    2.242944937173102E-3    4.444404700294859E-1    2.291628425629613E-1
 8.156761449200000E9     3.957255133598069E-1    3.596370391391102E-1   -1.504369931954048E-3    2.256035325071366E-3   -1.497687450934775E-3    2.257975703330074E-3    4.494147598277031E-1    2.184021274715444E-1
 8.156955683050000E9     4.045437662098011E-1    3.500860072820033E-1   -1.432318350078705E-3    2.259733313866290E-3   -1.413618905169724E-3    2.309893281648555E-3    4.543025275955596E-1    2.073915882198922E-1
 8.157149916900000E9     4.131876600843389E-1    3.402638493932426E-1   -1.339822497049645E-3    2.327749501020663E-3   -1.326291333783636E-3    2.342274092120599E-3    4.587541184664988E-1    1.962401891567525E-1
 8.157344150750000E9     4.215943469707839E-1    3.301810218439871E-1   -1.297852162433284E-3    2.326896968341745E-3   -1.288814009662441E-3    2.334828821092054E-3    4.631739618334393E-1    1.851695172256765E-1
 8.157538384600000E9     4.295824927781240E-1    3.199614704307997E-1   -1.231834234173053E-3    2.359098426282469E-3   -1.231345346756206E-3    2.377478104101367E-3    4.672027565241975E-1    1.738977867815337E-1
 8.157732618450000E9     4.376193805144063E-1    3.096538663422384E-1   -1.152813745407389E-3    2.379575613058391E-3   -1.163112335913879E-3    2.432022988522995E-3    4.710875540964932E-1    1.624969423672873E-1
 8.157926852300000E9     4.451052534100959E-1    2.991035216166203E-1   -1.107094844529074E-3    2.397406617878092E-3   -1.090199238577273E-3    2.425266574829599E-3    4.746217469758591E-1    1.510027850569855E-1
 8.158121086150000E9     4.523231729076870E-1    2.882137324854964E-1   -1.031000070622648E-3    2.434551867186751E-3   -1.057593144737099E-3    2.429376471649682E-3    4.776829184109411E-1    1.395509665213000E-1
 8.158315320000000E9     4.594617582843104E-1    2.773055080694290E-1   -9.684076554313765E-4    2.460811300724087E-3   -9.897334273333441E-4    2.485552582851989E-3    4.807747299392675E-1    1.279442924623874E-1
 8.158509553850000E9     4.663002647308729E-1    2.661665043959149E-1   -8.914163876295637E-4    2.453169814472007E-3   -9.019759044521565E-4    2.479046867604986E-3    4.833564129762916E-1    1.163272934834703E-1
 8.158703787700000E9     4.727651728049466E-1    2.549404875293688E-1   -8.479650978598307E-4    2.473500946325807E-3   -8.270857595753918E-4    2.517362599466007E-3    4.858411465592726E-1    1.047837156344684E-1
 8.158898021550000E9     4.790667740728597E-1    2.434052799036925E-1   -7.590623655253661E-4    2.492903894841935E-3   -7.679698020808902E-4    2.529758016964491E-3    4.877556134130903E-1    9.305897192708448E-2
 8.159092255400000E9     4.850379185366464E-1    2.318543396197755E-1   -7.379105993231398E-4    2.503031150089537E-3   -7.131954521514372E-4    2.504922842875068E-3    4.896975478670593E-1    8.139652465897297E-2
 8.159286489250000E9     4.907332333866680E-1    2.199539109388971E-1   -6.296787193337829E-4    2.529384502690888E-3   -6.736381681811941E-4    2.506633684362727E-3    4.910956243075160E-1    6.960195177893996E-2
 8.159480723100000E9     4.960852019120764E-1    2.081132351685021E-1   -5.868505689553252E-4    2.525903748334350E-3   -5.701889851190485E-4    2.558784363080073E-3    4.923423413857312E-1    5.785863880154985E-2
 8.159674956950000E9     5.011399042299890E-1    1.962588633533565E-1   -5.064494636897075E-4    2.565274553290090E-3   -5.066768939375981E-4    2.546951770973124E-3    4.933312134002352E-1    4.589823981701523E-2
 8.159869190800000E9     5.058950296393007E-1    1.841191736316268E-1   -4.288548837713040E-4    2.530706151380535E-3   -4.455417287054908E-4    2.528164132277246E-3    4.939580938746308E-1    3.434467976217802E-2
 8.160063424650000E9     5.103638796280222E-1    1.717157904690049E-1   -3.687688961303031E-4    2.540475286923996E-3   -3.973745132988460E-4    2.542890721807403E-3    4.944456416610023E-1    2.256759932444359E-2
 8.160257658500000E9     5.146157709117759E-1    1.594706457089661E-1   -3.137552960543361E-4    2.569498103799569E-3   -2.946570012385038E-4    2.544055192531657E-3    4.944619085930632E-1    1.075034016695458E-2
 8.160451892350000E9     5.186012981996078E-1    1.470414479270869E-1   -2.599969289931444E-4    2.556649189961403E-3   -2.877780581884018E-4    2.568532632815257E-3    4.941239477148873E-1   -1.102772459927661E-3
 8.160646126200000E9     5.220538689510553E-1    1.345396395348435E-1   -2.112328390619548E-4    2.529973266776247E-3   -2.292379638407435E-4    2.583425028324339E-3    4.939170552998693E-1   -1.300155213443000E-2
 8.160840360050000E9     5.254028143269652E-1    1.219211983470331E-1   -1.365283784944991E-4    2.558735572681604E-3   -1.360998004875344E-4    2.576570466957444E-3    4.930624360895435E-1   -2.453082985664591E-2
 8.161034593900000E9     5.283855123195125E-1    1.091104992982666E-1   -5.814656879500347E-5    2.538350371140017E-3   -7.172189797285199E-5    2.567631314675965E-3    4.921038643518144E-1   -3.620962849166494E-2
 8.161228827750000E9     5.310039504113332E-1    9.641543644544721E-2    1.692977655630571E-7    2.512699298202589E-3    3.667453422712548E-6    2.556972724281300E-3    4.907231727278933E-1   -4.797022410044090E-2
 8.161423061600000E9     5.333124676670489E-1    8.350889680904965E-2    5.066207878908071E-5    2.555478658903694E-3    6.476127840523444E-5    2.552204117439320E-3    4.891646295348911E-1   -5.949635131202805E-2
 8.161617295450000E9     5.353419780039098E-1    7.077477894546366E-2    1.048574860510286E-4    2.542796629739996E-3    1.501933003197429E-4    2.546617489563465E-3    4.873692578888588E-1   -7.095838931754431E-2
 8.161811529300000E9     5.370621139457163E-1    5.783829752303039E-2    2.050820062837548E-4    2.519853537648995E-3    1.774141795253935E-4    2.532583288303504E-3    4.853342720623285E-1   -8.259845187379659E-2
 8.162005763150000E9     5.383972261705643E-1    4.478659343371390E-2    2.614317742518098E-4    2.480499636855630E-3    2.461422648129079E-4    2.540496522453792E-3    4.828508687879950E-1   -9.403672666497737E-2
 8.162199997000000E9     5.396474125031531E-1    3.167203333781232E-2    3.199800032806859E-4    2.483611340920405E-3    3.114493286446679E-4    2.494397821733428E-3    4.801652249037148E-1   -1.054756881037719E-1
 8.162394230850000E9     5.403857581060034E-1    1.884935371805760E-2    3.633764005769658E-4    2.474201266536800E-3    3.672869634092190E-4    2.486004228739242E-3    4.772347136795134E-1   -1.165502601900213E-1
 8.162588464700000E9     5.407946836789380E-1    5.610425165284086E-3    4.291306946330492E-4    2.468988479445279E-3    4.246129197955588E-4    2.471905832482400E-3    4.740898862781704E-1   -1.279185023680831E-1
 8.162782698550000E9     5.408558844827950E-1   -7.268609223447972E-3    5.099950800908061E-4    2.419571500416472E-3    4.811871984749917E-4    2.457025627411835E-3    4.706518374815015E-1   -1.388966797299512E-1
 8.162976932400000E9     5.407407875831021E-1   -2.044946535974087E-2    5.374452695619072E-4    2.430964860226880E-3    5.203901749743837E-4    2.480393745127075E-3    4.668669332917620E-1   -1.501207325327525E-1
 8.163171166250000E9     5.401057532705615E-1   -3.343833723890786E-2    6.110149362108988E-4    2.397265899388814E-3    5.954759396777720E-4    2.402484156666048E-3    4.630585622908688E-1   -1.608545545036272E-1
 8.163365400100000E9     5.393177751295715E-1   -4.652278138667254E-2    6.599819273616710E-4    2.381561979072937E-3    6.906251191650046E-4    2.399322997582211E-3    4.586423986767783E-1   -1.715886642991623E-1
 8.163559633950000E9     5.381427563641448E-1   -5.944067733798496E-2    7.276738318402315E-4    2.349436163726221E-3    7.447382361896383E-4    2.403890961938558E-3    4.542193368466353E-1   -1.823578768327653E-1
 8.163753867800000E9     5.367320424543293E-1   -7.242842981661311E-2    7.891150633265816E-4    2.330101194170278E-3    7.392165465281260E-4    2.355922432920520E-3    4.495632009245705E-1   -1.929306570609038E-1
 8.163948101650000E9     5.350512399247379E-1   -8.542839572020339E-2    8.178494738630010E-4    2.306838634727740E-3    8.277830787402607E-4    2.355101354473542E-3    4.445992851156109E-1   -2.034489194583476E-1
 8.164142335500000E9     5.328291533969444E-1   -9.822252353188630E-2    9.097800543626849E-4    2.296277634154213E-3    9.029934018044713E-4    2.337064236597640E-3    4.394311241973560E-1   -2.135776234265540E-1
 8.164336569350000E9     5.304551890648969E-1   -1.112236902487280E-1    9.428661209466384E-4    2.244679345300480E-3    9.406441225964128E-4    2.288152387256906E-3    4.337836352953900E-1   -2.240063255281697E-1
 8.164530803200000E9     5.276810245553072E-1   -1.239203783548072E-1    9.929654685855757E-4    2.220718968582045E-3    1.002465943079885E-3    2.259240096272940E-3    4.282057890921322E-1   -2.339783487659809E-1
 8.164725037050000E9     5.248689923006653E-1   -1.366464666542628E-1    1.036316152947968E-3    2.206049176689033E-3    1.061932912159488E-3    2.233326008689762E-3    4.224384186235604E-1   -2.437976585047387E-1
 8.164919270900000E9     5.213241949583902E-1   -1.492714155755677E-1    1.074619641990447E-3    2.148527494814803E-3    1.126745199094741E-3    2.194910423191721E-3    4.162582849370411E-1   -2.535956843675115E-1
 8.165113504750000E9     5.177121686306988E-1   -1.617994098120652E-1    1.148943300870663E-3    2.161492136670164E-3    1.149721409434554E-3    2.163379834843331E-3    4.097410707767089E-1   -2.631870759879442E-1
 8.165307738600000E9     5.138477452508323E-1   -1.742805444553833E-1    1.215474921724263E-3    2.111591055420627E-3    1.189935895901398E-3    2.135254479971373E-3    4.032938888203718E-1   -2.727038738247609E-1
 8.165501972450000E9     5.094739734271800E-1   -1.865884507848313E-1    1.274977642187398E-3    2.072516042941586E-3    1.234856332826031E-3    2.100599088026540E-3    3.964503611782269E-1   -2.818877043609615E-1
 8.165696206300000E9     5.048996195621789E-1   -1.989415654974374E-1    1.327350777333147E-3    2.043726525053600E-3    1.296718740055991E-3    2.088547533758956E-3    3.893697275021482E-1   -2.908569922847604E-1
 8.165890440150000E9     5.001080697992438E-1   -2.110312630910190E-1    1.329471741382249E-3    2.008030124789232E-3    1.313294397398105E-3    2.059354712089600E-3    3.822440690980778E-1   -2.999402277266824E-1
 8.166084674000000E9     4.949764379704757E-1   -2.231115477378122E-1    1.383734073951068E-3    1.961684123931110E-3    1.422706871100463E-3    2.012086826501197E-3    3.747059421998006E-1   -3.084739257516530E-1
 8.166278907850000E9     4.895483435808280E-1   -2.351260108688655E-1    1.452840939670377E-3    1.943269816929258E-3    1.456250707207958E-3    1.972430702269060E-3    3.672630478577860E-1   -3.171597700491190E-1
 8.166473141700000E9     4.837862139398342E-1   -2.467721797597474E-1    1.485889033726743E-3    1.903833758383341E-3    1.490614999210445E-3    1.950395145867611E-3    3.593768943924862E-1   -3.254606905892525E-1
 8.166667375550000E9     4.776551103286786E-1   -2.584772833868238E-1    1.502033322084991E-3    1.844151149999847E-3    1.512287367458364E-3    1.883254141051898E-3    3.513125515679789E-1   -3.336835045106639E-1
 8.166861609400000E9     4.713519344810245E-1   -2.699253717641397E-1    1.563362299667843E-3    1.797742487492001E-3    1.588162037312993E-3    1.868473766372623E-3    3.432845566769303E-1   -3.416643295698060E-1
 8.167055843250000E9     4.648122934299220E-1   -2.812770911456082E-1    1.594120724917427E-3    1.754796776699599E-3    1.602607751786466E-3    1.796053424250522E-3    3.349737927469987E-1   -3.494167902359165E-1
 8.167250077100000E9     4.580275197920630E-1   -2.924370765869298E-1    1.592944555753233E-3    1.730548660779854E-3    1.646646196836492E-3    1.782352653844827E-3    3.263739873859184E-1   -3.570184732087402E-1
 8.167444310950000E9     4.508946539069635E-1   -3.034581994525020E-1    1.666428082665177E-3    1.693949121213676E-3    1.677635163809385E-3    1.716857315339889E-3    3.176619158836020E-1   -3.641419485235842E-1
 8.167638544800000E9     4.434874695384550E-1   -3.142180830253907E-1    1.688739378209541E-3    1.638020181484483E-3    1.735558056506910E-3    1.679468677882138E-3    3.088167033207701E-1   -3.715761609833329E-1
 8.167832778650000E9     4.358090507965360E-1   -3.248941441728981E-1    1.756221951809322E-3    1.599514104835092E-3    1.730592154968946E-3    1.624797484672112E-3    2.999276659167023E-1   -3.784326875842782E-1
 8.168027012500000E9     4.279295430400819E-1   -3.352501463278500E-1    1.779538041901189E-3    1.543070256724877E-3    1.756954567182261E-3    1.585571233281430E-3    2.906825590774427E-1   -3.851957886004225E-1
 8.168221246350000E9     4.197382065655316E-1   -3.455629084522910E-1    1.805688098711531E-3    1.502743401432187E-3    1.821975957873411E-3    1.574763402910983E-3    2.813496342468942E-1   -3.916377116344902E-1
 8.168415480200000E9     4.112743245923650E-1   -3.557205877724340E-1    1.830281089828977E-3    1.470716681821434E-3    1.875072922997007E-3    1.493040794314388E-3    2.718281610879034E-1   -3.978476865309142E-1
 8.168609714050000E9     4.026524634058613E-1   -3.655476204266555E-1    1.918580939562081E-3    1.430251442709123E-3    1.873319626517095E-3    1.448425160659605E-3    2.623231419615560E-1   -4.040195034694441E-1
 8.168803947900000E9     3.937916433264456E-1   -3.752083639464617E-1    1.906024735340462E-3    1.353852798290545E-3    1.936016456269268E-3    1.387523806543642E-3    2.525705143754611E-1   -4.097436023872750E-1
 8.168998181750000E9     3.844569440512561E-1   -3.846522236766849E-1    1.946524056960002E-3    1.324447563610241E-3    1.954000303221637E-3    1.370591274175131E-3    2.426765600166051E-1   -4.153340112184828E-1
 8.169192415600000E9     3.751734277866666E-1   -3.938015116881913E-1    1.963607597529676E-3    1.240649249156856E-3    2.003163427320152E-3    1.315823650546008E-3    2.327284303230142E-1   -4.207948775723256E-1
 8.169386649450000E9     3.655497022343552E-1   -4.028841052439494E-1    1.982273534266085E-3    1.219460640733711E-3    1.993014045320749E-3    1.266031360537709E-3    2.226102941312903E-1   -4.258437233257291E-1
 8.169580883300000E9     3.558237838087550E-1   -4.116883892400329E-1    2.022770391392780E-3    1.162158980870222E-3    2.047922074330464E-3    1.217850932673019E-3    2.125539711628340E-1   -4.305895623142564E-1
 8.169775117150000E9     3.457259613331690E-1   -4.201686356242100E-1    2.036634391544287E-3    1.111957570715527E-3    2.079190878447967E-3    1.126070674352437E-3    2.020769844943387E-1   -4.351591586094800E-1
 8.169969351000000E9     3.355428928570437E-1   -4.284789865803481E-1    2.060570686520492E-3    1.066287879469270E-3    2.110700258699932E-3    1.169767241855623E-3    1.918776279771505E-1   -4.397004261531414E-1
 8.170163584850000E9     3.249491397867845E-1   -4.365132340332485E-1    2.092448288043979E-3    9.947108444454879E-4    2.132698092442527E-3    1.042459549812246E-3    1.813687299321034E-1   -4.436364000826335E-1
 8.170357818700000E9     3.144235919526723E-1   -4.443006344317822E-1    2.098415096799379E-3    9.501464229496232E-4    2.136805405964838E-3    1.024679677015647E-3    1.707611885578434E-1   -4.475983255552740E-1
 8.170552052550000E9     3.035184219020389E-1   -4.516875172076996E-1    2.100655645541131E-3    9.403615041331746E-4    2.180523269210931E-3    9.391566034709433E-4    1.600425882816893E-1   -4.512702790696685E-1
 8.170746286400000E9     2.926069800096026E-1   -4.590105743922432E-1    2.139206820113885E-3    8.313253662639640E-4    2.224439600842016E-3    8.911219100607682E-4    1.494165269206658E-1   -4.546834087254161E-1
 8.170940520250000E9     2.813002207362492E-1   -4.660370795516744E-1    2.158363037106632E-3    8.140676037970935E-4    2.222585647240650E-3    8.557585773950430E-4    1.387474235208113E-1   -4.575337213586676E-1
 8.171134754100000E9     2.700316959338710E-1   -4.726988467272401E-1    2.171162372569266E-3    7.517088531260444E-4    2.220317296889506E-3    7.877677294492788E-4    1.279444574642919E-1   -4.605755581819844E-1
 8.171328987950000E9     2.584879429129023E-1   -4.791123725294644E-1    2.170787254678100E-3    7.289035614028559E-4    2.245625391692492E-3    7.331308505403975E-4    1.167699812118892E-1   -4.630926169540389E-1
 8.171523221800000E9     2.468506870474894E-1   -4.852692731532945E-1    2.179774581478974E-3    6.343566998022132E-4    2.255908090389004E-3    6.850755979939993E-4    1.058308180262496E-1   -4.653681987134609E-1
 8.171717455650000E9     2.349359292457929E-1   -4.910337412126385E-1    2.219775227818439E-3    6.095226992329989E-4    2.260701875863193E-3    6.256603606688010E-4    9.483597159572536E-2   -4.673861553278332E-1
 8.171911689500000E9     2.229493448078037E-1   -4.966052670397660E-1    2.224334968120801E-3    5.459880092731068E-4    2.288188433001448E-3    5.842330676700509E-4    8.389742874719736E-2   -4.693720661679127E-1
