#  HZ   S   RI   R     50.00 
! Rohde & Schwarz Vector Network Analyzer 
! Rohde-Schwarz,ZNB20-2Port,1311601062101988,3.16
! Created: UTC 3/20/2024, 5:01:07 PM
! freq[Hz]                re:S11                  im:S11                  re:S21                  im:S21                  re:S12                  im:S12                  re:S22                  im:S22
 8.139996454000000E9    -4.929650432181443E-1    1.022956302738339E-1   -9.772612221041351E-4   -3.152630845994096E-3   -1.071006859191381E-3   -3.238924275250649E-3   -4.338226831267644E-1    2.613286525164893E-1
 8.140256341925000E9    -4.895745687321492E-1    1.202107443471147E-1   -1.084886559457521E-3   -3.123264763407001E-3   -1.187595689043938E-3   -3.220936998115304E-3   -4.247532973796357E-1    2.764765735733866E-1
 8.140516229850000E9    -4.854130518958990E-1    1.377674999095318E-1   -1.207296540747539E-3   -3.081389852358117E-3   -1.341128656335993E-3   -3.145381314921188E-3   -4.149662448637720E-1    2.912296003025178E-1
 8.140776117775000E9    -4.807496687056690E-1    1.553083304453309E-1   -1.283413056965060E-3   -3.011161490695460E-3   -1.401843725037304E-3   -3.063674719537110E-3   -4.048826735529200E-1    3.055751649443995E-1
 8.141036005700000E9    -4.753840769663953E-1    1.726289320529538E-1   -1.432594878209957E-3   -2.966257677202119E-3   -1.504959191272174E-3   -3.046869880968997E-3   -3.941491754455403E-1    3.198508623953807E-1
 8.141295893625000E9    -4.695255374485752E-1    1.895718881191786E-1   -1.510210275469684E-3   -2.891654662149161E-3   -1.619774311342906E-3   -2.976025790092370E-3   -3.829423484864193E-1    3.332456435694112E-1
 8.141555781550000E9    -4.629299691200413E-1    2.063922695454730E-1   -1.592259137191473E-3   -2.849607978724246E-3   -1.731675703193237E-3   -2.862161998401289E-3   -3.712294828288377E-1    3.464150009654950E-1
 8.141815669475000E9    -4.556961046762246E-1    2.229298610268930E-1   -1.710014282692897E-3   -2.739638258953337E-3   -1.786670895227546E-3   -2.827096881430218E-3   -3.591930875475783E-1    3.590946099248581E-1
 8.142075557400000E9    -4.480913557622119E-1    2.393662319684738E-1   -1.789726234667666E-3   -2.698848299244473E-3   -1.905803554314275E-3   -2.706922711784297E-3   -3.468440546067248E-1    3.713587829457075E-1
 8.142335445325000E9    -4.397314171214993E-1    2.553599565126423E-1   -1.884424523679349E-3   -2.650097725050011E-3   -1.975306992954432E-3   -2.642213026314506E-3   -3.338341478158750E-1    3.833556369712416E-1
 8.142595333250000E9    -4.309718318980288E-1    2.710366040029940E-1   -1.960471893510322E-3   -2.567542216037540E-3   -2.084720652219146E-3   -2.580390146290952E-3   -3.203697791832538E-1    3.947702487841043E-1
 8.142855221175000E9    -4.215419822348112E-1    2.862437048369849E-1   -2.022351234799862E-3   -2.448137690276254E-3   -2.156726569890151E-3   -2.491634515520763E-3   -3.070600318694925E-1    4.055247159091461E-1
 8.143115109100000E9    -4.117225037031341E-1    3.013384136470111E-1   -2.110774212794511E-3   -2.370467456771845E-3   -2.246064996748728E-3   -2.415201667175445E-3   -2.928612048667151E-1    4.158700227013948E-1
 8.143374997025000E9    -4.012627191692176E-1    3.159872292001244E-1   -2.172934753872079E-3   -2.286136335622828E-3   -2.329675798394048E-3   -2.326333791873357E-3   -2.785885437457147E-1    4.256832932418343E-1
 8.143634884950000E9    -3.903724836985241E-1    3.302719550256315E-1   -2.263285217567276E-3   -2.232209278397344E-3   -2.364192214272373E-3   -2.238696139433624E-3   -2.639592790747826E-1    4.350328434379243E-1
 8.143894772875000E9    -3.789269655149592E-1    3.441366636882449E-1   -2.335339614190070E-3   -2.133520651625942E-3   -2.430451381513960E-3   -2.114984547684981E-3   -2.491072795994541E-1    4.438735231282546E-1
 8.144154660800000E9    -3.670576297047748E-1    3.574627388653470E-1   -2.387834580458451E-3   -2.032189449973292E-3   -2.547621248624695E-3   -2.027575505922025E-3   -2.338560559895954E-1    4.522102092866742E-1
 8.144414548725000E9    -3.547466085587397E-1    3.704784266666355E-1   -2.474201540850980E-3   -1.946461149604613E-3   -2.576429542733117E-3   -1.951477859439081E-3   -2.184411561646948E-1    4.597206138063674E-1
 8.144674436650000E9    -3.419162184031172E-1    3.830731309581286E-1   -2.524667843380943E-3   -1.873822072242855E-3   -2.631482123650742E-3   -1.810692376300201E-3   -2.027284466607744E-1    4.670528368092789E-1
 8.144934324575000E9    -3.288044701396184E-1    3.952110058462655E-1   -2.589424369655390E-3   -1.757870288236884E-3   -2.678316813672146E-3   -1.768928511516386E-3   -1.867828071718894E-1    4.735874522366961E-1
 8.145194212500000E9    -3.151810987971311E-1    4.066783211685555E-1   -2.633031703923705E-3   -1.665909104178812E-3   -2.699643089432749E-3   -1.636765587955883E-3   -1.707675824250180E-1    4.795366865848599E-1
 8.145454100425000E9    -3.012542951946507E-1    4.178353749844841E-1   -2.699695325019376E-3   -1.566369750019817E-3   -2.769983589137307E-3   -1.525880812975955E-3   -1.544279997283569E-1    4.850264661669484E-1
 8.145713988350000E9    -2.869013168398355E-1    4.285122793759143E-1   -2.741089994986732E-3   -1.455935527169892E-3   -2.788492305873039E-3   -1.418463012279576E-3   -1.379537171542830E-1    4.899876214700499E-1
 8.145973876275000E9    -2.723400133695731E-1    4.385705686209811E-1   -2.781308509130236E-3   -1.377585003925194E-3   -2.915848386039540E-3   -1.327229536181748E-3   -1.214912442836680E-1    4.943252617339927E-1
 8.146233764200000E9    -2.572876609601545E-1    4.481170590069398E-1   -2.822607875474749E-3   -1.267037690568215E-3   -2.854896600325324E-3   -1.186206581633348E-3   -1.048843717003527E-1    4.980956893783138E-1
 8.146493652125000E9    -2.418986025438089E-1    4.570908357500126E-1   -2.838466259305093E-3   -1.147875966170258E-3   -2.901275149775509E-3   -1.106817617298276E-3   -8.808592005227867E-2    5.012393586518934E-1
 8.146753540050000E9    -2.262825845962420E-1    4.657020866259177E-1   -2.862698760764505E-3   -1.054354881958217E-3   -2.931660821304828E-3   -1.002775416784616E-3   -7.130084386421447E-2    5.038717408794305E-1
 8.147013427975000E9    -2.104200696242182E-1    4.736993687367734E-1   -2.888499801829402E-3   -9.555579955287735E-4   -2.968239142983311E-3   -8.771023278780302E-4   -5.437773508310451E-2    5.059435327019927E-1
 8.147273315900000E9    -1.942044891066113E-1    4.810897332010637E-1   -2.912080023593142E-3   -8.280665300048136E-4   -2.985369679206303E-3   -7.761039968079440E-4   -3.733828392348857E-2    5.071412480647937E-1
 8.147533203825000E9    -1.778416925792521E-1    4.878911695453663E-1   -2.943676231369400E-3   -7.381013328575340E-4   -3.004002401998254E-3   -6.665201931267660E-4   -2.052482964541640E-2    5.080647319180489E-1
 8.147793091750000E9    -1.612134904424121E-1    4.942437922290840E-1   -2.940403268643314E-3   -6.250231182038998E-4   -2.999944594579122E-3   -5.722392359785544E-4   -3.487543110295639E-3    5.085113402774980E-1
 8.148052979675000E9    -1.444319776691266E-1    4.999239617737570E-1   -2.954076174615257E-3   -5.291309890445179E-4   -3.035545597524353E-3   -4.716232552206255E-4    1.335553459566982E-2    5.081933443647820E-1
 8.148312867600000E9    -1.274455652794191E-1    5.050741968393009E-1   -2.984752772324259E-3   -3.935837816328607E-4   -3.012769428917329E-3   -3.322832352325377E-4    3.016777759857437E-2    5.073820801343955E-1
 8.148572755525000E9    -1.103973829286440E-1    5.095760081346120E-1   -2.971550625546192E-3   -2.930545273428979E-4   -3.006295967633552E-3   -2.675451245112031E-4    4.688650811050651E-2    5.060499758284916E-1
 8.148832643450000E9    -9.318983494025083E-2    5.134655640059559E-1   -2.968934441886127E-3   -2.244000532905728E-4   -3.003675703066918E-3   -1.623437231196154E-4    6.364075315741734E-2    5.040625511131498E-1
 8.149092531375000E9    -7.566122096846493E-2    5.168496170871959E-1   -3.001522120553143E-3   -1.270099407951448E-4   -2.991174459159117E-3   -5.808313926815924E-5    8.016042801706061E-2    5.014162172669574E-1
 8.149352419300000E9    -5.825385048261955E-2    5.195043322669093E-1   -2.976576133043670E-3    3.132394099065615E-5   -3.008489037133539E-3    6.946188456522463E-5    9.661267175647366E-2    4.983244935204942E-1
 8.149612307225000E9    -4.090931173325488E-2    5.218478746450810E-1   -2.941679475902646E-3    1.069307751282888E-4   -2.965847270918582E-3    1.553392672556185E-4    1.129930493051152E-1    4.947878924281094E-1
 8.149872195150000E9    -2.331097432428633E-2    5.233904443438607E-1   -2.899397488236210E-3    2.002166508910983E-4   -2.977187341668563E-3    2.742875918259303E-4    1.292332291337469E-1    4.905696361350403E-1
 8.150132083075000E9    -5.553599661620850E-3    5.242340530022225E-1   -2.916772649839158E-3    3.241010897800373E-4   -2.936578235794965E-3    3.720666121160683E-4    1.450659594484919E-1    4.858537286167463E-1
 8.150391971000000E9     1.196567741931565E-2    5.245454344616499E-1   -2.915380601666263E-3    4.467140806554236E-4   -2.921421949814548E-3    4.849009883192831E-4    1.608232129441024E-1    4.806438129036131E-1
 8.150651858925000E9     2.973750290120217E-2    5.244921874267918E-1   -2.863159176011657E-3    5.227082059880871E-4   -2.857447305738911E-3    5.831164878415146E-4    1.766339705058909E-1    4.749118065970118E-1
 8.150911746850000E9     4.728571576523352E-2    5.236050796372522E-1   -2.830788656335695E-3    6.066311671054524E-4   -2.836659594318244E-3    6.604729347670233E-4    1.918800315961745E-1    4.686296397443519E-1
 8.151171634775000E9     6.473812243044225E-2    5.222481070661193E-1   -2.814444177160215E-3    7.208956569693795E-4   -2.787993421293574E-3    7.449274597027988E-4    2.071067421420149E-1    4.619327445881968E-1
 8.151431522700000E9     8.229241163350334E-2    5.201279947107449E-1   -2.775396331994531E-3    8.166699544114542E-4   -2.800250855243593E-3    8.352768192694252E-4    2.219666860377008E-1    4.545228516447340E-1
 8.151691410625000E9     9.957553476689907E-2    5.175379482093317E-1   -2.726412353987084E-3    8.934890093797625E-4   -2.758902487939981E-3    9.527815290031430E-4    2.366834286398430E-1    4.469025080405686E-1
 8.151951298550000E9     1.169358113067199E-1    5.143322126241341E-1   -2.722121077420318E-3    1.008597434887113E-3   -2.700237452779281E-3    1.052348608049176E-3    2.509677691850938E-1    4.387147839144606E-1
 8.152211186475000E9     1.341606176957766E-1    5.106643441925406E-1   -2.632136943911486E-3    1.067284704131271E-3   -2.629107411486773E-3    1.093267063842844E-3    2.649390142575415E-1    4.300585907634832E-1
 8.152471074400000E9     1.509912757885319E-1    5.063477133931533E-1   -2.567625267132584E-3    1.172127109482606E-3   -2.586481694046191E-3    1.192133253289883E-3    2.786113696969391E-1    4.210989582680553E-1
 8.152730962325000E9     1.678981785378512E-1    5.015173401995804E-1   -2.545942854043955E-3    1.237011233517430E-3   -2.537377800609383E-3    1.266693625907880E-3    2.921632830051778E-1    4.115108162986082E-1
 8.152990850250000E9     1.847147363666320E-1    4.960091042505381E-1   -2.465194244861755E-3    1.380250434374846E-3   -2.499282594665687E-3    1.347142465243357E-3    3.050237121941710E-1    4.016782579263219E-1
 8.153250738175000E9     2.010885951653602E-1    4.899890641419669E-1   -2.431458759043618E-3    1.425552750178495E-3   -2.454722296018598E-3    1.440332422994399E-3    3.179360510986658E-1    3.911985581319209E-1
 8.153510626100000E9     2.174430046612404E-1    4.834304855352932E-1   -2.392538860816538E-3    1.504473046998030E-3   -2.361539811560404E-3    1.553076679579324E-3    3.301640612321951E-1    3.804163591393013E-1
 8.153770514025000E9     2.334547832429048E-1    4.764685344692401E-1   -2.319311841533353E-3    1.545971226807594E-3   -2.291526059923857E-3    1.591294022301580E-3    3.421528375794935E-1    3.692823256491694E-1
 8.154030401950000E9     2.491515082502133E-1    4.688342422055245E-1   -2.248089307533165E-3    1.659822533320502E-3   -2.284330349141243E-3    1.648916248157414E-3    3.537295958909265E-1    3.578887678822347E-1
 8.154290289875000E9     2.646834978937809E-1    4.607396594538906E-1   -2.188578616906084E-3    1.715273904393849E-3   -2.175654680526543E-3    1.721165949816988E-3    3.649327952858978E-1    3.461293232658665E-1
 8.154550177800000E9     2.800057767672280E-1    4.519881544352348E-1   -2.113498040752405E-3    1.781656860888063E-3   -2.105042900959760E-3    1.817938144304520E-3    3.756898533560735E-1    3.337698842470641E-1
 8.154810065725000E9     2.947229057355078E-1    4.429215051618812E-1   -2.058791272383669E-3    1.836132630499075E-3   -2.077721412855844E-3    1.864097909245969E-3    3.860188745974392E-1    3.211472953713398E-1
 8.155069953650000E9     3.094084724712572E-1    4.333500656865591E-1   -1.992520438018133E-3    1.906353114402379E-3   -1.972501111484126E-3    1.908011357656559E-3    3.959189663467556E-1    3.084299163337455E-1
 8.155329841575000E9     3.236811062515091E-1    4.232242987891816E-1   -1.918803222465525E-3    1.972769870245637E-3   -1.888868239933417E-3    1.974625048148538E-3    4.054382434515119E-1    2.953103368360644E-1
 8.155589729500000E9     3.375585715216184E-1    4.125669759378561E-1   -1.797970712073422E-3    1.997036666746078E-3   -1.864365427602198E-3    2.022644522404451E-3    4.143999677456878E-1    2.819185332091099E-1
 8.155849617425000E9     3.512200044592541E-1    4.017001605484164E-1   -1.766476006559373E-3    2.076237263167898E-3   -1.750084997315456E-3    2.107095583655440E-3    4.230244369446652E-1    2.682353827621314E-1
 8.156109505350000E9     3.643753326176880E-1    3.900839114072677E-1   -1.692335961084587E-3    2.121003795995086E-3   -1.649171363900980E-3    2.132149156975663E-3    4.311261013559827E-1    2.542961178207684E-1
 8.156369393275000E9     3.772157705470842E-1    3.782125214559466E-1   -1.615357142419325E-3    2.147999629921548E-3   -1.584461045820347E-3    2.156814602539842E-3    4.388438603683865E-1    2.400662829550929E-1
 8.156629281200000E9     3.895369786858311E-1    3.660757206175426E-1   -1.521075912390882E-3    2.223549539655752E-3   -1.543185344894545E-3    2.192062496400186E-3    4.459975843649099E-1    2.257101460284200E-1
 8.156889169125000E9     4.016460228089223E-1    3.533791689966211E-1   -1.445471005568109E-3    2.288526328822510E-3   -1.413948025121605E-3    2.283252579724425E-3    4.527016733608548E-1    2.111482446568939E-1
 8.157149057050000E9     4.131362961902833E-1    3.402381970769239E-1   -1.358858932951767E-3    2.317632103466872E-3   -1.359742293919321E-3    2.327984768302571E-3    4.589134365033117E-1    1.963865669431386E-1
 8.157408944975000E9     4.242454548906486E-1    3.267947077712347E-1   -1.258022077278379E-3    2.358158916865170E-3   -1.264817039596090E-3    2.346264619894391E-3    4.646087180985419E-1    1.813101416133720E-1
 8.157668832900000E9     4.349342854844264E-1    3.129432945428062E-1   -1.203032699718126E-3    2.360723097247485E-3   -1.193451496843831E-3    2.388154907453015E-3    4.697925306041578E-1    1.662898500403212E-1
 8.157928720825000E9     4.452152081382812E-1    2.987526170444736E-1   -1.103319652572714E-3    2.426556639796588E-3   -1.112689824536211E-3    2.391856974076378E-3    4.745203259584013E-1    1.509853365711978E-1
 8.158188608750000E9     4.549661916162224E-1    2.844492456186049E-1   -9.882359438270465E-4    2.427937270598868E-3   -1.030359978829059E-3    2.450222792976720E-3    4.788709212958919E-1    1.356273195642232E-1
 8.158448496675000E9     4.642498596439288E-1    2.695800747790436E-1   -9.075310718747827E-4    2.448606528956386E-3   -9.592918268671054E-4    2.477931357560983E-3    4.824640703815365E-1    1.201268099061539E-1
 8.158708384600000E9     4.727772371940920E-1    2.544471091756796E-1   -8.388253206332378E-4    2.485830411492071E-3   -8.298319658891095E-4    2.503073033662841E-3    4.857604464091688E-1    1.045328413163773E-1
 8.158968272525000E9     4.811693698469727E-1    2.391611900496591E-1   -7.705191648587126E-4    2.519179475498096E-3   -7.703824816949964E-4    2.523660457642558E-3    4.884008968654074E-1    8.894089405990892E-2
 8.159228160450000E9     4.889280845464068E-1    2.236523647557152E-1   -6.781326774226903E-4    2.520802148678957E-3   -6.829716124393432E-4    2.525572783471665E-3    4.907551823093073E-1    7.312790520212700E-2
 8.159488048375000E9     4.962344336768205E-1    2.076779683277258E-1   -5.642993514754259E-4    2.529021913022223E-3   -5.823598187172977E-4    2.527864836302387E-3    4.923357704360238E-1    5.740579342928820E-2
 8.159747936300000E9     5.030150119613671E-1    1.915399186730796E-1   -4.995576062303558E-4    2.560465360998229E-3   -4.995711043069163E-4    2.557420494523943E-3    4.936167934267750E-1    4.158308292337880E-2
 8.160007824225000E9     5.091315506324166E-1    1.752040323105632E-1   -3.880893138419333E-4    2.538821092040316E-3   -4.472302036293764E-4    2.563454972719024E-3    4.943441489707796E-1    2.579689749514353E-2
 8.160267712150000E9     5.148185040446105E-1    1.588035042183873E-1   -3.169589193611984E-4    2.548743704720856E-3   -3.004857625851399E-4    2.567810183544564E-3    4.944239525739995E-1    1.008740312681409E-2
 8.160527600075000E9     5.198784532951334E-1    1.421615216944208E-1   -2.233103092844706E-4    2.577118135544663E-3   -2.610955085919681E-4    2.586467103572557E-3    4.941844043254242E-1   -5.611968510264294E-3
 8.160787488000000E9     5.244371491274996E-1    1.253678362810346E-1   -1.463054969267640E-4    2.544828825872523E-3   -1.775080442791836E-4    2.580823459290955E-3    4.933429522975916E-1   -2.139723406411048E-2
 8.161047375925000E9     5.284147273784825E-1    1.083583470897832E-1   -4.997626920804072E-5    2.562771342388933E-3   -6.412617310019576E-5    2.582801489295109E-3    4.919995925444227E-1   -3.701648195931227E-2
 8.161307263850000E9     5.318702007836016E-1    9.114209777498024E-2    3.945502315274846E-5    2.533407897479561E-3   -3.242057376859722E-6    2.581454505772332E-3    4.901928370665782E-1   -5.263744474744241E-2
 8.161567151775000E9     5.348671105909273E-1    7.389941286484743E-2    1.119106281713992E-4    2.536456796411611E-3    1.001946439639973E-4    2.566869163242423E-3    4.878498761579944E-1   -6.806704589887408E-2
 8.161827039700000E9     5.370828517032149E-1    5.671653918152438E-2    1.837583126034659E-4    2.528418753602386E-3    1.350865684819711E-4    2.526814032848366E-3    4.850996169420059E-1   -8.344567440100256E-2
 8.162086927625000E9     5.388659345044992E-1    3.927840032820552E-2    2.586017814804286E-4    2.512850300591764E-3    2.633774837785483E-4    2.490526078502178E-3    4.816985800047635E-1   -9.880281539296543E-2
 8.162346815550000E9     5.401459559868335E-1    2.187187161828882E-2    3.477585683989706E-4    2.502059552815548E-3    3.022864792300154E-4    2.496605569479089E-3    4.780387484889150E-1   -1.138366113773719E-1
 8.162606703475000E9     5.407403859690931E-1    4.439795432516702E-3    4.299059138712541E-4    2.462149739072687E-3    4.513311237592606E-4    2.510141590808315E-3    4.736914034901787E-1   -1.289285766324258E-1
 8.162866591400000E9     5.408396856784237E-1   -1.300056395890874E-2    5.234533955619616E-4    2.452596490034441E-3    4.897127749445677E-4    2.452056679408760E-3    4.688954596391636E-1   -1.437244411957511E-1
 8.163126479325000E9     5.402702713180720E-1   -3.047883740858179E-2    6.148929718212661E-4    2.417421912200540E-3    5.805279134803803E-4    2.417996196782386E-3    4.638795776165207E-1   -1.583747008503580E-1
 8.163386367250000E9     5.392547589776749E-1   -4.796684620558856E-2    6.877951087791521E-4    2.369649224095849E-3    6.642281426382059E-4    2.407327570120275E-3    4.582202673986977E-1   -1.728243320609260E-1
