#  HZ   S   RI   R     50.00 
! Rohde & Schwarz Vector Network Analyzer 
! Rohde-Schwarz,ZNB20-2Port,1311601062101988,3.16
! Created: UTC 3/20/2024, 5:05:00 PM
! freq[Hz]                re:S11                  im:S11                  re:S21                  im:S21                  re:S12                  im:S12                  re:S22                  im:S22
 8.162299815000000E9     5.398759185608553E-1    2.548351359138874E-2    3.397271896500766E-4    2.463065085158156E-3    3.468474949642123E-4    2.514498993150767E-3    4.790032460975304E-1   -1.106637199024639E-1
 8.162458538975000E9     5.403667984815088E-1    1.489169227841641E-2    3.853280168535739E-4    2.464008588433314E-3    4.039045473998333E-4    2.503549953739471E-3    4.764897420172842E-1   -1.198124783788156E-1
 8.162617262950000E9     5.407476891079588E-1    4.202738593673676E-3    4.286913932105419E-4    2.436872281209590E-3    4.290084036013680E-4    2.487197538140047E-3    4.738258532185727E-1   -1.290686011899647E-1
 8.162775986925000E9     5.407959721594855E-1   -6.552519731042934E-3    5.090425211810609E-4    2.457131584750882E-3    4.832290897632991E-4    2.459268973406481E-3    4.710424462117977E-1   -1.381286146646120E-1
 8.162934710900000E9     5.405855685389414E-1   -1.726291450311873E-2    5.197790125510888E-4    2.422922527393804E-3    5.409955723504734E-4    2.473032219902704E-3    4.679395519323546E-1   -1.472206429417937E-1
 8.163093434875000E9     5.404538575368131E-1   -2.793197420692310E-2    5.663523014817843E-4    2.401767785140199E-3    5.867583597334809E-4    2.438926578368921E-3    4.648601571500153E-1   -1.562229325267808E-1
 8.163252158850000E9     5.398030594890781E-1   -3.853072222587127E-2    6.207426796210050E-4    2.400896103286154E-3    6.149038824647844E-4    2.444123597403253E-3    4.615929530074746E-1   -1.649731927441588E-1
 8.163410882825000E9     5.390224648225453E-1   -4.920262461516454E-2    6.833482274280856E-4    2.404871840150570E-3    6.413373330845623E-4    2.427553136593273E-3    4.579171202860788E-1   -1.737556867743820E-1
 8.163569606800000E9     5.380138752789547E-1   -5.980505420459917E-2    7.410479470727929E-4    2.343702933179995E-3    7.047918674447241E-4    2.412365572869830E-3    4.542960719058643E-1   -1.824807475230455E-1
 8.163728330775000E9     5.369501453480553E-1   -7.047632152476749E-2    7.552245844722266E-4    2.341144066039260E-3    7.751337244434674E-4    2.378609889297471E-3    4.503488063315182E-1   -1.912010539560264E-1
 8.163887054750000E9     5.355509961183931E-1   -8.092338621275731E-2    8.363660153030194E-4    2.320786642487089E-3    7.778177080509155E-4    2.330390664068629E-3    4.465463399706354E-1   -1.997252423150698E-1
 8.164045778725000E9     5.340192455850674E-1   -9.153943380346626E-2    8.628903535563866E-4    2.306642893569175E-3    8.686148741950173E-4    2.320752236432979E-3    4.422468504959128E-1   -2.081581520571298E-1
 8.164204502700000E9     5.321310981204663E-1   -1.020819287304522E-1    9.051610352089288E-4    2.283558951596098E-3    8.900210542455134E-4    2.286287514226329E-3    4.379466168070742E-1   -2.166293832971125E-1
 8.164363226675000E9     5.301642084837579E-1   -1.124553063273013E-1    9.535816548127053E-4    2.262371078879574E-3    9.542037050353918E-4    2.283683867983834E-3    4.334735742081676E-1   -2.248152769168464E-1
 8.164521950650000E9     5.279250305325262E-1   -1.230709072017641E-1    9.952931541280241E-4    2.247175491680390E-3    1.011858844905074E-3    2.250232973324615E-3    4.289239933274228E-1   -2.330927576308660E-1
 8.164680674625000E9     5.253888521039415E-1   -1.335107580032254E-1    1.054683162170570E-3    2.248283480738946E-3    1.038314992882791E-3    2.251214409016749E-3    4.241875581008978E-1   -2.412464797362386E-1
 8.164839398600000E9     5.228056750710233E-1   -1.438311451522547E-1    1.078260781789780E-3    2.183965640536481E-3    1.047961286425218E-3    2.226281801753183E-3    4.189206250521982E-1   -2.492628154869185E-1
 8.164998122575000E9     5.199330289878956E-1   -1.540665425369064E-1    1.117074615185743E-3    2.141722968471051E-3    1.106018598903942E-3    2.191679139883719E-3    4.139863581434465E-1   -2.571002620505519E-1
 8.165156846550000E9     5.168139761578380E-1   -1.642874237569495E-1    1.160130658396536E-3    2.126371306060484E-3    1.169893448172594E-3    2.162462553955519E-3    4.086755146801334E-1   -2.649114590482033E-1
 8.165315570525000E9     5.137813856830393E-1   -1.744764806030903E-1    1.202111111749828E-3    2.093524584493729E-3    1.188402616045282E-3    2.169466764915431E-3    4.034034560732863E-1   -2.725885782077966E-1
 8.165474294500000E9     5.101024033876722E-1   -1.846675572051042E-1    1.222211166498293E-3    2.072622401480784E-3    1.253426620823728E-3    2.117266730752346E-3    3.978034966966912E-1   -2.802366251372392E-1
 8.165633018475000E9     5.064546147792262E-1   -1.946857458632926E-1    1.254864515823684E-3    2.032390443619651E-3    1.309158775286082E-3    2.087206476962940E-3    3.922600067702615E-1   -2.878013566945279E-1
 8.165791742450000E9     5.026051016306982E-1   -2.046679814862131E-1    1.321791191735138E-3    2.022043611220359E-3    1.328394743832954E-3    2.084472502815032E-3    3.863931217903802E-1   -2.950676190280818E-1
 8.165950466425000E9     4.986260719073822E-1   -2.145171915446345E-1    1.361874276582297E-3    2.008991450709612E-3    1.348119949082080E-3    2.025460711998237E-3    3.804816449011896E-1   -3.022604457242443E-1
 8.166109190400000E9     4.943548980871915E-1   -2.242707705458871E-1    1.382420245341275E-3    1.943455715643619E-3    1.379067496481413E-3    1.991952588536816E-3    3.742950678161606E-1   -3.093580922733135E-1
 8.166267914375000E9     4.899616776018979E-1   -2.340310806621768E-1    1.430531929548001E-3    1.914295576837799E-3    1.417552561566303E-3    1.960577587697268E-3    3.680035707445812E-1   -3.163422265190104E-1
 8.166426638350000E9     4.851980259365790E-1   -2.437273832672130E-1    1.477986877714283E-3    1.925382630738575E-3    1.446625956032827E-3    1.973433917866413E-3    3.618334924653766E-1   -3.231791175206288E-1
 8.166585362325000E9     4.803379835224841E-1   -2.532570173989864E-1    1.515882880556787E-3    1.857802116641799E-3    1.506257976487068E-3    1.894381654919324E-3    3.552640971698622E-1   -3.299695499519786E-1
 8.166744086300000E9     4.753652015354535E-1   -2.626616630920991E-1    1.489790574830837E-3    1.803738489246551E-3    1.528224950814326E-3    1.876716028941320E-3    3.486988739581530E-1   -3.365991757215929E-1
 8.166902810275000E9     4.702247810736812E-1   -2.721178656515594E-1    1.571727098729102E-3    1.802869697318772E-3    1.565572715599131E-3    1.835653321766393E-3    3.419703497819153E-1   -3.429547968668467E-1
 8.167061534250000E9     4.647690302004247E-1   -2.812856508342791E-1    1.606023113507960E-3    1.759239574050853E-3    1.606500542371302E-3    1.786710936921194E-3    3.351660526299073E-1   -3.492245747209984E-1
 8.167220258225000E9     4.593147023830648E-1   -2.903931546343188E-1    1.634818981519854E-3    1.726216987510208E-3    1.630350594672845E-3    1.800979449156571E-3    3.281726091205223E-1   -3.555910681571176E-1
 8.167378982200000E9     4.534393668396669E-1   -2.995776046577192E-1    1.654154580512826E-3    1.708810235584352E-3    1.668061203450400E-3    1.752837178875414E-3    3.211508095582943E-1   -3.617566272916717E-1
 8.167537706175000E9     4.474706443748560E-1   -3.084043844245292E-1    1.703379803979345E-3    1.658624857262469E-3    1.677142890029449E-3    1.712157503085295E-3    3.140516717658048E-1   -3.675639067648070E-1
 8.167696430150000E9     4.412690231336700E-1   -3.173215267826899E-1    1.720801116369423E-3    1.612360152716748E-3    1.703332330518317E-3    1.656292295122348E-3    3.066887457806797E-1   -3.733285583231311E-1
 8.167855154125000E9     4.350066055903110E-1   -3.258865338014772E-1    1.762728893344292E-3    1.607259107271318E-3    1.770731271596771E-3    1.599376635497265E-3    2.992882374819054E-1   -3.789182448341654E-1
 8.168013878100000E9     4.285266999109691E-1   -3.344632804377479E-1    1.786960188630064E-3    1.552684234798686E-3    1.807111476907680E-3    1.562947379885278E-3    2.917795531210590E-1   -3.844396806685563E-1
 8.168172602075000E9     4.219338464228666E-1   -3.427303999888532E-1    1.815200475411459E-3    1.513055664843474E-3    1.850377928464819E-3    1.575966521713380E-3    2.843072047242849E-1   -3.897960149245652E-1
 8.168331326050000E9     4.151144257603611E-1   -3.511498195500876E-1    1.853555484875735E-3    1.477658506247551E-3    1.846330788248520E-3    1.498830984183640E-3    2.765300246727719E-1   -3.950380412953183E-1
 8.168490050025000E9     4.081394735163771E-1   -3.593351377351607E-1    1.860847422172879E-3    1.425532363444506E-3    1.853062886895146E-3    1.476186030692309E-3    2.687816431140129E-1   -4.001843023221055E-1
 8.168648774000000E9     4.009589874810642E-1   -3.672824211120291E-1    1.882007479494790E-3    1.421763164378355E-3    1.919774253479667E-3    1.452276621709068E-3    2.609200791413663E-1   -4.049416857639536E-1
 8.168807497975000E9     3.937239107112640E-1   -3.752343741331804E-1    1.917333988432829E-3    1.344711971582953E-3    1.923387798347032E-3    1.421985931986862E-3    2.531758556375294E-1   -4.097196578696384E-1
 8.168966221950000E9     3.862635192897410E-1   -3.829315621904882E-1    1.954295978244707E-3    1.333800488970926E-3    1.928339421218513E-3    1.339108498848985E-3    2.448321193054690E-1   -4.142095754270990E-1
 8.169124945925000E9     3.785922491990221E-1   -3.904700879206954E-1    1.966256332243500E-3    1.305922993008510E-3    1.973632574980802E-3    1.297424968117278E-3    2.368033907806202E-1   -4.186703239858323E-1
 8.169283669900000E9     3.709361003672170E-1   -3.979099102821416E-1    1.980754699774650E-3    1.244692304163820E-3    2.006659934227429E-3    1.292001703459705E-3    2.286270790272978E-1   -4.229187790320398E-1
 8.169442393875000E9     3.629322216655864E-1   -4.052028065031399E-1    1.991097917008861E-3    1.201261739273564E-3    2.041814830897524E-3    1.227783792898014E-3    2.203230521791834E-1   -4.270753401485315E-1
 8.169601117850000E9     3.548461930487657E-1   -4.123320380061806E-1    1.992553020361581E-3    1.141787324637896E-3    2.055578364837038E-3    1.206093490745973E-3    2.119982786961418E-1   -4.309701463275865E-1
 8.169759841825000E9     3.466928643090775E-1   -4.192090632588127E-1    2.063374848981177E-3    1.124202570964324E-3    2.047117200222115E-3    1.153869952462760E-3    2.035666954130926E-1   -4.348224062047426E-1
 8.169918565800000E9     3.383483645841971E-1   -4.262206270215836E-1    2.072477570893349E-3    1.063078566092684E-3    2.078148791907200E-3    1.116450649204958E-3    1.950520654948909E-1   -4.382647548154758E-1
 8.170077289775000E9     3.298472413991180E-1   -4.327515852562152E-1    2.083135834995582E-3    1.038318342950318E-3    2.086153321727774E-3    1.074147928069408E-3    1.864368626293434E-1   -4.417951730959220E-1
 8.170236013750000E9     3.212439926640903E-1   -4.392149608109893E-1    2.097836198324687E-3    1.003635149529095E-3    2.132985476920965E-3    1.040372672366475E-3    1.780044677226564E-1   -4.451980400705515E-1
 8.170394737725000E9     3.126691187447392E-1   -4.454150060266325E-1    2.121737797193403E-3    9.615616678539562E-4    2.160487469560701E-3    9.912843138066762E-4    1.693477462715086E-1   -4.482697207722744E-1
 8.170553461700000E9     3.037557181942986E-1   -4.515007724649349E-1    2.091823626570389E-3    9.119867397680136E-4    2.159574431807232E-3    9.429550900811400E-4    1.605293014761961E-1   -4.511357072402595E-1
 8.170712185675000E9     2.947053448114270E-1   -4.575067120085960E-1    2.172170520689229E-3    8.674234524633518E-4    2.171668181795078E-3    9.016004630903806E-4    1.518899141990377E-1   -4.538857587550210E-1
 8.170870909650000E9     2.855947532181515E-1   -4.632274311482078E-1    2.160274126298092E-3    8.130699383434850E-4    2.177143246354286E-3    8.798477366295133E-4    1.431781548765118E-1   -4.565079329030501E-1
 8.171029633625000E9     2.763143093131054E-1   -4.688350916742634E-1    2.166039446339328E-3    7.773854664659270E-4    2.207493086246059E-3    8.246518310123746E-4    1.342341088340953E-1   -4.589560073964661E-1
 8.171188357600000E9     2.670479439925100E-1   -4.743234992182674E-1    2.182604487963155E-3    7.241423259878499E-4    2.213153340602370E-3    7.889200625023497E-4    1.253501285844715E-1   -4.612360426111882E-1
 8.171347081575000E9     2.576460885378128E-1   -4.794841829043984E-1    2.184281262706550E-3    6.855533316003822E-4    2.214935323897901E-3    7.416664969011844E-4    1.164473218441569E-1   -4.633788586446317E-1
 8.171505805550000E9     2.480270361486469E-1   -4.845353847489556E-1    2.190578653173842E-3    6.712456886156926E-4    2.233131199067244E-3    6.621123429884509E-4    1.076004780914776E-1   -4.651771570066874E-1
 8.171664529525000E9     2.383610115930475E-1   -4.893739205960910E-1    2.210655189162562E-3    6.001109867838652E-4    2.257411457950851E-3    6.482931413909284E-4    9.859391831180184E-2   -4.669490212809518E-1
 8.171823253500000E9     2.286817526030685E-1   -4.940243525830144E-1    2.234242914767265E-3    5.781097313573738E-4    2.305948191291163E-3    5.964967001903192E-4    8.949841462551171E-2   -4.687437226888306E-1
 8.171981977475000E9     2.187761490580661E-1   -4.983796878257972E-1    2.213006305995485E-3    5.331731775721644E-4    2.267275969126101E-3    5.530876314435052E-4    8.041187222719635E-2   -4.700029698549704E-1
 8.172140701450000E9     2.088676268318976E-1   -5.027279586344883E-1    2.216974129315081E-3    4.522766656188597E-4    2.263727178182913E-3    4.935105310938048E-4    7.152416683220497E-2   -4.712598395609721E-1
 8.172299425425000E9     1.989179632599470E-1   -5.066874937971801E-1    2.236364881163991E-3    4.230844752280084E-4    2.310950112041577E-3    4.692285474489241E-4    6.245616620197025E-2   -4.723341911472568E-1
 8.172458149400000E9     1.887842627098671E-1   -5.104823178360282E-1    2.244508411057791E-3    3.911286778835276E-4    2.295499599934479E-3    4.096098375635641E-4    5.327638903008908E-2   -4.731190134359098E-1
 8.172616873375000E9     1.785830210167437E-1   -5.143434720637514E-1    2.240941219395959E-3    3.696538807732998E-4    2.281606914714143E-3    3.645919049140143E-4    4.429163253512294E-2   -4.738678570002391E-1
 8.172775597350000E9     1.683624148455502E-1   -5.177211156164657E-1    2.272668526349798E-3    2.866796053277470E-4    2.313803596815322E-3    3.253662101319548E-4    3.504236570189147E-2   -4.745409087070574E-1
 8.172934321325000E9     1.580096182646930E-1   -5.210170619460022E-1    2.269912827141082E-3    2.470702508949239E-4    2.310600561728454E-3    2.784097712704963E-4    2.599545081147549E-2   -4.748953484079742E-1
 8.173093045300000E9     1.475066604891858E-1   -5.240302948427656E-1    2.254957753094137E-3    2.064631419183686E-4    2.310436392691489E-3    2.341122850990739E-4    1.687775659032283E-2   -4.751277874002078E-1
 8.173251769275000E9     1.371329489268198E-1   -5.268688112705523E-1    2.255539647471102E-3    1.786024697207472E-4    2.334515040243232E-3    1.771533492740233E-4    7.937261814417682E-3   -4.750590920424675E-1
 8.173410493250000E9     1.265769138099747E-1   -5.296110148781942E-1    2.283540384040356E-3    1.567274919197016E-4    2.323842015656615E-3    1.782023693074839E-4   -1.193112860790539E-3   -4.749292896433382E-1
 8.173569217225000E9     1.161484034624929E-1   -5.319542673581534E-1    2.274998903625945E-3    8.973334920209681E-5    2.345153311873717E-3    6.779353966415090E-5   -1.040602211156698E-2   -4.744616157047486E-1
 8.173727941200000E9     1.055552405067252E-1   -5.339724602111757E-1    2.263563848852973E-3    4.104738101587594E-5    2.348065793248966E-3    5.161215564642125E-5   -1.950032492350677E-2   -4.738471016392287E-1
 8.173886665175000E9     9.484839042477096E-2   -5.361488544952403E-1    2.245518276936948E-3    1.542158401357735E-5    2.316253715650955E-3   -1.698864904272005E-5   -2.843384075270991E-2   -4.734225612015652E-1
 8.174045389150000E9     8.402761651161292E-2   -5.379099872129929E-1    2.243312128577959E-3   -8.536219812465075E-5    2.334805293158651E-3   -3.053596782743252E-5   -3.751702457072244E-2   -4.726287502906804E-1
 8.174204113125000E9     7.347281937923621E-2   -5.393750914771407E-1    2.248598613360448E-3   -7.543517897961322E-5    2.330891857862552E-3   -8.558737199672892E-5   -4.633722675194333E-2   -4.716182122731549E-1
 8.174362837100000E9     6.275393375274511E-2   -5.408253297295098E-1    2.287925392000047E-3   -1.244148166069840E-4    2.350840759705137E-3   -1.400255185841623E-4   -5.557548980523182E-2   -4.704485213286818E-1
 8.174521561075000E9     5.192128546589000E-2   -5.418313801119365E-1    2.257408728763399E-3   -1.707248761541498E-4    2.319728650044221E-3   -1.438025088649361E-4   -6.440738584575079E-2   -4.690104922762617E-1
 8.174680285050000E9     4.101084015542467E-2   -5.427495136504047E-1    2.233560633352092E-3   -2.361901705294075E-4    2.330482757993314E-3   -2.316640662761299E-4   -7.335432713541704E-2   -4.676226629353015E-1
 8.174839009025000E9     3.019132543616700E-2   -5.433873528064284E-1    2.233375736617112E-3   -2.824910434756333E-4    2.304992092192082E-3   -2.591766907475421E-4   -8.224126272753006E-2   -4.658669531789096E-1
 8.174997733000000E9     1.936737252386174E-2   -5.439684405685159E-1    2.220949745665138E-3   -3.188804055817127E-4    2.303393384370475E-3   -3.205346600265674E-4   -9.131982025555291E-2   -4.639653974429628E-1
 8.175156456975000E9     8.529924911623465E-3   -5.442911637877186E-1    2.256550629346710E-3   -3.449540223928831E-4    2.301036693237164E-3   -3.856323905991272E-4   -9.990663271635211E-2   -4.619407434412632E-1
 8.175315180950000E9    -2.262804580672947E-3   -5.443742112625501E-1    2.225295349315097E-3   -3.811381632839148E-4    2.272149028484912E-3   -3.781661739342818E-4   -1.087142809054721E-1   -4.598771470175491E-1
 8.175473904925000E9    -1.337215861124047E-2   -5.441166023086181E-1    2.231663641872653E-3   -4.335355571177434E-4    2.293649108705189E-3   -4.381911833535120E-4   -1.174969522948031E-1   -4.573037066372125E-1
 8.175632628900000E9    -2.413479640266275E-2   -5.439126681359647E-1    2.212306838642270E-3   -4.687249805305938E-4    2.278724899655340E-3   -4.703699709725589E-4   -1.260585890847966E-1   -4.549781946563028E-1
 8.175791352875000E9    -3.505581315777560E-2   -5.431846690208831E-1    2.199687387904234E-3   -4.885153089456669E-4    2.257869876623078E-3   -5.338071148519151E-4   -1.347453359942912E-1   -4.522666658910056E-1
 8.175950076850000E9    -4.571580203058252E-2   -5.422798745867802E-1    2.190981703540425E-3   -5.419228059450212E-4    2.249209505366598E-3   -5.813836962359928E-4   -1.433451603221492E-1   -4.492575317179051E-1
 8.176108800825000E9    -5.667007632371854E-2   -5.413957384316593E-1    2.184934485702037E-3   -5.804510947069313E-4    2.208797001593817E-3   -6.477233923959724E-4   -1.518147415929747E-1   -4.463938786089500E-1
 8.176267524800000E9    -6.755103035998093E-2   -5.400990020268823E-1    2.139811941769457E-3   -6.173245033562820E-4    2.185811574660869E-3   -6.487290512512791E-4   -1.602018773205991E-1   -4.431480639084403E-1
 8.176426248775000E9    -7.832312586406240E-2   -5.386141702399476E-1    2.150426865887359E-3   -6.996416860729666E-4    2.216130592906683E-3   -6.984806426286993E-4   -1.686029485312460E-1   -4.398421142843747E-1
 8.176584972750000E9    -8.911062986807963E-2   -5.368228138571223E-1    2.096927302336204E-3   -7.162930970260021E-4    2.177318544444948E-3   -7.708607420571079E-4   -1.768724630837048E-1   -4.364263956172861E-1
