#  HZ   S   RI   R     50.00 
! Rohde & Schwarz Vector Network Analyzer 
! Rohde-Schwarz,ZNB20-2Port,1311601062101988,3.16
! Created: UTC 3/20/2024, 4:49:58 PM
! freq[Hz]                re:S11                  im:S11                  re:S21                  im:S21                  re:S12                  im:S12                  re:S22                  im:S22
 8.196577144000000E9    -2.090206178988329E-1    4.942450791237368E-1   -2.755401817307628E-3   -9.006557972840393E-4   -2.852642781140109E-3   -8.021658485921908E-4   -1.378135962846743E-1    4.228000512893831E-1
 8.196581147525000E9    -2.085420510760235E-1    4.945530971267986E-1   -2.755933570025954E-3   -9.067418493419318E-4   -2.826702976679595E-3   -8.162368483656272E-4   -1.376699829873464E-1    4.228738555507324E-1
 8.196585151050000E9    -2.084012868351939E-1    4.946046076180944E-1   -2.770541083086051E-3   -8.765671915571678E-4   -2.847645833967240E-3   -8.171624576997962E-4   -1.374741082132716E-1    4.229438769184207E-1
 8.196589154575000E9    -2.080896457031268E-1    4.946695695417331E-1   -2.765240506591132E-3   -9.389071296688326E-4   -2.864954258231405E-3   -7.900077056993043E-4   -1.371849130067939E-1    4.230227925557431E-1
 8.196593158100000E9    -2.077717367102585E-1    4.947131096696474E-1   -2.786293831466133E-3   -8.929179612656764E-4   -2.850554734958742E-3   -7.851401984956474E-4   -1.369839984056949E-1    4.231930426115991E-1
 8.196597161625000E9    -2.075882813267577E-1    4.949425411919536E-1   -2.751449498521102E-3   -8.950750124769364E-4   -2.850365085778406E-3   -8.021285556406217E-4   -1.367628047898898E-1    4.232043030884177E-1
 8.196601165150000E9    -2.072248200996344E-1    4.950909862775814E-1   -2.771664678518074E-3   -9.109342620630929E-4   -2.832902403068726E-3   -8.210333405055609E-4   -1.364985592108629E-1    4.233329099883142E-1
 8.196605168675000E9    -2.068452450673396E-1    4.951410099671600E-1   -2.770004614453387E-3   -8.867950309608475E-4   -2.849065749630200E-3   -8.151841045453344E-4   -1.363672042350614E-1    4.234075077542380E-1
 8.196609172200000E9    -2.067430728115616E-1    4.950978719971417E-1   -2.754352189649302E-3   -8.885209067904552E-4   -2.871350552303551E-3   -7.854453891581384E-4   -1.360567110667595E-1    4.233934089745960E-1
 8.196613175725000E9    -2.063751598210122E-1    4.952670274849761E-1   -2.789150424254975E-3   -9.043637149200186E-4   -2.868772314085973E-3   -8.017913561770937E-4   -1.359903637145888E-1    4.235061119831156E-1
 8.196617179250000E9    -2.061400425965183E-1    4.955145316639589E-1   -2.787320509604614E-3   -8.680450273805053E-4   -2.878769317992829E-3   -7.954498903675913E-4   -1.358207462262504E-1    4.236024983954966E-1
 8.196621182775000E9    -2.057591176911473E-1    4.956180963933396E-1   -2.774407938307296E-3   -8.832403714285908E-4   -2.875012655619626E-3   -7.926499701588241E-4   -1.354682792021162E-1    4.235890969584397E-1
 8.196625186300000E9    -2.055817713976606E-1    4.957083902582602E-1   -2.805523239796037E-3   -8.885596574562354E-4   -2.877820374041618E-3   -7.980331189543624E-4   -1.352685583221744E-1    4.235329507927693E-1
 8.196629189825000E9    -2.052692855449567E-1    4.957850827635405E-1   -2.778894120419091E-3   -8.727033722756949E-4   -2.907415198449018E-3   -8.028466774435214E-4   -1.349272764709134E-1    4.237927904206030E-1
 8.196633193350000E9    -2.049302443695552E-1    4.958186225721317E-1   -2.790148224621992E-3   -8.970108518136386E-4   -2.862472242286136E-3   -8.206839789484801E-4   -1.347592333712553E-1    4.238515721701228E-1
 8.196637196875000E9    -2.047094472475808E-1    4.960153966607414E-1   -2.791625949171069E-3   -8.915706943238410E-4   -2.871727146690018E-3   -7.905161802102851E-4   -1.345895099321797E-1    4.237492912722574E-1
 8.196641200400000E9    -2.044114367123798E-1    4.960390118342645E-1   -2.777749754468713E-3   -8.746193223979032E-4   -2.877635425858243E-3   -7.801829319228715E-4   -1.343604658886002E-1    4.237732839828537E-1
 8.196645203925000E9    -2.040949557308797E-1    4.961785734231277E-1   -2.803465611734364E-3   -8.832294948897562E-4   -2.888044935905382E-3   -8.176101935601373E-4   -1.342076791451104E-1    4.239394725559572E-1
 8.196649207450000E9    -2.037954244937687E-1    4.963436861666702E-1   -2.813392421107096E-3   -8.991073499893137E-4   -2.868909195335779E-3   -7.894820610500643E-4   -1.339526577655196E-1    4.240070059662444E-1
 8.196653210975000E9    -2.035430463734316E-1    4.964088775515270E-1   -2.835769259833548E-3   -8.730903745013427E-4   -2.878892856985587E-3   -7.906836768591512E-4   -1.336705944511331E-1    4.240360510117927E-1
 8.196657214500000E9    -2.032571233268164E-1    4.964522845623640E-1   -2.807504390913961E-3   -8.851462955234590E-4   -2.916326849562728E-3   -7.561787434218349E-4   -1.335059991420673E-1    4.241097438237458E-1
 8.196661218025000E9    -2.031010572656563E-1    4.966475426292953E-1   -2.804314996322830E-3   -8.899001214204198E-4   -2.884503436675140E-3   -7.928153439587426E-4   -1.332947996193286E-1    4.241915324888804E-1
 8.196665221550000E9    -2.028088313515567E-1    4.966270123768745E-1   -2.809121782376287E-3   -8.898446176435597E-4   -2.909246310086276E-3   -7.785327159414624E-4   -1.330805966240991E-1    4.241777097469107E-1
 8.196669225075000E9    -2.024536727858220E-1    4.969019257264698E-1   -2.800542881777084E-3   -8.845723185235333E-4   -2.931225532216476E-3   -7.692831827581192E-4   -1.329681733265675E-1    4.242623691338338E-1
 8.196673228600000E9    -2.022400504072837E-1    4.970099940213970E-1   -2.825119393555254E-3   -8.842604009234152E-4   -2.912930454544946E-3   -7.620833217856693E-4   -1.325574880043883E-1    4.243139158131700E-1
 8.196677232125000E9    -2.019762200969701E-1    4.970969773053234E-1   -2.827330574359548E-3   -8.353037551230148E-4   -2.901900815495011E-3   -8.042846881633262E-4   -1.324433516123346E-1    4.242847469035743E-1
 8.196681235650000E9    -2.015962355848072E-1    4.971269707795057E-1   -2.820768066485820E-3   -8.816817940083282E-4   -2.922895854396090E-3   -7.951841393452510E-4   -1.321866734082383E-1    4.244510178794124E-1
 8.196685239175000E9    -2.013083635102892E-1    4.972144180326138E-1   -2.810053681698140E-3   -8.733667887323628E-4   -2.932792677635532E-3   -8.050322813532969E-4   -1.319126544209768E-1    4.246425521897800E-1
 8.196689242700000E9    -2.010745126706589E-1    4.974558395614800E-1   -2.822593820619221E-3   -8.721026690171627E-4   -2.908144661429385E-3   -7.419429756407001E-4   -1.318087116935291E-1    4.245233791455367E-1
 8.196693246225000E9    -2.008774924616382E-1    4.975041712921282E-1   -2.831758502435726E-3   -8.924125412143133E-4   -2.915504724080462E-3   -7.867705577378071E-4   -1.314668230493868E-1    4.245725544216082E-1
 8.196697249750000E9    -2.005231424726612E-1    4.976623774566575E-1   -2.804211735188065E-3   -8.785852194784725E-4   -2.903547639925399E-3   -7.550375078780596E-4   -1.313728807821457E-1    4.247839343077409E-1
 8.196701253275000E9    -2.001798903311936E-1    4.976442694252750E-1   -2.823080116348923E-3   -8.692326991948827E-4   -2.911912802022004E-3   -7.857753341370790E-4   -1.311937756928162E-1    4.247364187907181E-1
 8.196705256800000E9    -1.998686064949803E-1    4.978130061794801E-1   -2.850808373484675E-3   -8.775650973931061E-4   -2.943250489476824E-3   -7.817609248054917E-4   -1.308756901917822E-1    4.248627124383198E-1
 8.196709260325000E9    -1.996451256547262E-1    4.979731685518448E-1   -2.832738533532674E-3   -8.555490216025433E-4   -2.977210562225761E-3   -7.702137208826222E-4   -1.306523139996538E-1    4.248709177375680E-1
 8.196713263850000E9    -1.995498345138866E-1    4.980059084452945E-1   -2.836034069899330E-3   -8.640935969758438E-4   -2.926795054094988E-3   -7.790609794932624E-4   -1.305875274615707E-1    4.250113342715833E-1
 8.196717267375000E9    -1.992509661754936E-1    4.980476646790305E-1   -2.861216582680049E-3   -8.588395908473894E-4   -2.949597167485951E-3   -8.025284766671436E-4   -1.302987867701867E-1    4.249754238621919E-1
 8.196721270900000E9    -1.987524205031640E-1    4.981703332745048E-1   -2.860957672913666E-3   -8.580858821207628E-4   -2.934928443313443E-3   -7.585325067137234E-4   -1.298395048587584E-1    4.250330010919208E-1
 8.196725274425000E9    -1.986296110558623E-1    4.983462410750633E-1   -2.874469641174593E-3   -8.664434445042360E-4   -2.946880302626975E-3   -7.797390593949980E-4   -1.298450235613402E-1    4.251100714690335E-1
 8.196729277950000E9    -1.982980934684186E-1    4.984959309858735E-1   -2.846616069956459E-3   -8.446047167537347E-4   -2.953752345226477E-3   -7.494541207224407E-4   -1.296254745145154E-1    4.252389201835743E-1
 8.196733281475000E9    -1.981309974989346E-1    4.985702718571782E-1   -2.854680522493048E-3   -8.877145745788319E-4   -2.967983623347330E-3   -7.932436121541678E-4   -1.294574531564094E-1    4.251219692873694E-1
 8.196737285000000E9    -1.976687130902185E-1    4.986083543736608E-1   -2.850877057545169E-3   -8.677676616182396E-4   -2.941590753469463E-3   -8.002888918774416E-4   -1.292776669612046E-1    4.251782502869685E-1
 8.196741288525000E9    -1.974699819637720E-1    4.987668085504110E-1   -2.861297726876910E-3   -8.429996501036314E-4   -2.935226454245315E-3   -7.874528900713839E-4   -1.289760525667965E-1    4.253422481648303E-1
 8.196745292050000E9    -1.972287830809661E-1    4.987948352402123E-1   -2.872888574854943E-3   -8.604616020700124E-4   -2.973889879811636E-3   -7.582210968284297E-4   -1.287302589605580E-1    4.253751744192315E-1
 8.196749295575000E9    -1.969125107711071E-1    4.988660225266734E-1   -2.888311040508767E-3   -8.490414370882385E-4   -2.943341862471276E-3   -7.659455441758668E-4   -1.286139174803245E-1    4.255836954977520E-1
 8.196753299100000E9    -1.964714120081403E-1    4.991039526235161E-1   -2.863526768835048E-3   -8.590988338030894E-4   -2.954122829737062E-3   -7.730915639348043E-4   -1.282730903804346E-1    4.255520669596939E-1
 8.196757302625000E9    -1.963256548660962E-1    4.991990023035087E-1   -2.880226681245619E-3   -8.400555632883585E-4   -2.961193592103983E-3   -7.280159186819121E-4   -1.281029354818125E-1    4.255696676145265E-1
 8.196761306150000E9    -1.959460346738454E-1    4.993271997573158E-1   -2.874005003847699E-3   -8.568900372358169E-4   -2.966243339632680E-3   -7.429732714472174E-4   -1.279502912795936E-1    4.256718605069200E-1
 8.196765309675000E9    -1.959159996375764E-1    4.994693020410463E-1   -2.871192258134776E-3   -8.391915306459637E-4   -2.955272871684114E-3   -7.329726027933768E-4   -1.276418201788540E-1    4.256998112663842E-1
 8.196769313200000E9    -1.955210174442536E-1    4.994314868325188E-1   -2.876149094336045E-3   -8.427663887004044E-4   -2.965932233842270E-3   -7.505308460226256E-4   -1.274064903723741E-1    4.257946227730396E-1
 8.196773316725000E9    -1.952034848571304E-1    4.996423280092993E-1   -2.877115705339541E-3   -8.488082290366005E-4   -2.993920913933516E-3   -7.625868221816349E-4   -1.272285796320895E-1    4.259196142975026E-1
 8.196777320250000E9    -1.949768440471885E-1    4.997037324030295E-1   -2.873359914068926E-3   -8.420575170136123E-4   -2.952652306085669E-3   -7.477971189389204E-4   -1.268573628266096E-1    4.259318149073253E-1
 8.196781323775000E9    -1.946638104903899E-1    4.997878803576961E-1   -2.892486489648036E-3   -8.613076245856750E-4   -2.975120186093889E-3   -7.451722788021476E-4   -1.268230117379595E-1    4.259089054464462E-1
 8.196785327300000E9    -1.944089433379933E-1    4.998390051639705E-1   -2.923391438036245E-3   -8.371989375619092E-4   -2.995282325847450E-3   -7.308394880673317E-4   -1.265075591245677E-1    4.260629805633104E-1
 8.196789330825000E9    -1.941099875149488E-1    5.000668647539265E-1   -2.914938847289768E-3   -8.396254451722799E-4   -2.976420024725582E-3   -7.542531649962625E-4   -1.263545712156930E-1    4.262880256372277E-1
 8.196793334350000E9    -1.937299719163074E-1    5.000945043652465E-1   -2.910523273368979E-3   -8.475158161452144E-4   -2.993955993871822E-3   -7.502798020713755E-4   -1.260637879424714E-1    4.261127042560558E-1
 8.196797337875000E9    -1.935058751499757E-1    5.001112867000160E-1   -2.913299568181720E-3   -8.374440372091189E-4   -3.035858473266669E-3   -7.086095307185093E-4   -1.259723293441559E-1    4.262953375441552E-1
 8.196801341400000E9    -1.932324263398122E-1    5.002275702072618E-1   -2.884199982145374E-3   -8.428898268025570E-4   -3.012825031636807E-3   -7.163660678631195E-4   -1.256337199483893E-1    4.262812896557462E-1
 8.196805344925000E9    -1.929948502469993E-1    5.003426672308959E-1   -2.913992731567417E-3   -8.436271666226246E-4   -2.998690855263741E-3   -7.503112258009768E-4   -1.255453023184913E-1    4.264109155409787E-1
 8.196809348450000E9    -1.926998144799332E-1    5.004766818869363E-1   -2.910526231282596E-3   -8.513704533390843E-4   -3.044598630520355E-3   -7.642913933904424E-4   -1.252574145313297E-1    4.263193269898106E-1
 8.196813351975000E9    -1.923611850039453E-1    5.005762582003866E-1   -2.939013826377773E-3   -8.323060746345351E-4   -3.041231312768260E-3   -7.187265256052251E-4   -1.250374179654960E-1    4.263517177242038E-1
 8.196817355500000E9    -1.920585374889718E-1    5.005122916774064E-1   -2.956955855238139E-3   -8.327548886963207E-4   -3.029951540310859E-3   -6.995343438821998E-4   -1.248442418838024E-1    4.264752015930483E-1
 8.196821359025000E9    -1.918645264229748E-1    5.007845360339577E-1   -2.962934053799202E-3   -8.215396622913839E-4   -3.059274604678636E-3   -7.492021362130095E-4   -1.245893373237879E-1    4.264910936690854E-1
 8.196825362550000E9    -1.914335839809219E-1    5.009547310410795E-1   -2.938477964571213E-3   -8.159713298556939E-4   -3.027001615218935E-3   -7.102963151120619E-4   -1.243678787365594E-1    4.264960159236474E-1
 8.196829366075000E9    -1.912794709329817E-1    5.010147083896734E-1   -2.918556171753465E-3   -8.115601942592943E-4   -3.007418930262622E-3   -7.389773678927465E-4   -1.242801321697370E-1    4.267002266163563E-1
 8.196833369600000E9    -1.910971278348295E-1    5.010838383692650E-1   -2.949086869632483E-3   -8.084355589505725E-4   -3.038884390139417E-3   -7.058607872511636E-4   -1.238671406032405E-1    4.267706017650552E-1
 8.196837373125000E9    -1.905854304518497E-1    5.011498528374673E-1   -2.949262112620939E-3   -7.948305083505782E-4   -3.051488202504833E-3   -7.254970436460828E-4   -1.237036720348994E-1    4.268415221295948E-1
 8.196841376650000E9    -1.904597777767774E-1    5.012521232738965E-1   -2.962562810903334E-3   -8.002788869534536E-4   -3.038214683439385E-3   -7.286665649749387E-4   -1.234908872953611E-1    4.269774812525573E-1
 8.196845380175000E9    -1.902451528690138E-1    5.013058395260692E-1   -2.947229939265155E-3   -8.113376527314936E-4   -3.010478374119404E-3   -7.490797716433367E-4   -1.233092404180584E-1    4.268626564983126E-1
 8.196849383700000E9    -1.897317210546744E-1    5.014459118993978E-1   -2.974646454558712E-3   -8.073992596731029E-4   -3.069994171724328E-3   -7.200310621315409E-4   -1.232181223309075E-1    4.269398014791052E-1
 8.196853387225000E9    -1.893852831166514E-1    5.015672344947687E-1   -2.992299029400324E-3   -8.164100429690581E-4   -3.053349522951843E-3   -7.048508902793568E-4   -1.227735192875961E-1    4.269272520320849E-1
 8.196857390750000E9    -1.892227715681116E-1    5.016638249956478E-1   -2.986178409045444E-3   -8.332880755882844E-4   -3.037256693962606E-3   -7.375866889233402E-4   -1.225244729972271E-1    4.270627853050229E-1
 8.196861394275000E9    -1.888761752328357E-1    5.017324764769491E-1   -2.975717848767683E-3   -8.234358582112821E-4   -3.050451155017286E-3   -7.168083007476995E-4   -1.223864298681848E-1    4.270862929283156E-1
 8.196865397800000E9    -1.886568116262992E-1    5.017939163832322E-1   -2.974824305285775E-3   -8.233322528494295E-4   -3.078725252323495E-3   -7.263879974652757E-4   -1.223540308073136E-1    4.271667901150198E-1
 8.196869401325000E9    -1.883057102141008E-1    5.019867771805284E-1   -2.996473639092791E-3   -7.971936454777680E-4   -3.074564526094870E-3   -7.347510686652742E-4   -1.220687187313544E-1    4.271327546207166E-1
 8.196873404850000E9    -1.879331248203310E-1    5.021430282943221E-1   -3.002101979579285E-3   -8.145273036212892E-4   -3.088748525091099E-3   -7.505111329705856E-4   -1.218097516516715E-1    4.271679204606967E-1
 8.196877408375000E9    -1.876745766532313E-1    5.021548827013815E-1   -2.969132775764948E-3   -8.140731656849415E-4   -3.072722370876991E-3   -7.038935101017276E-4   -1.216328534179753E-1    4.272918883886056E-1
 8.196881411900000E9    -1.874205750524429E-1    5.021420696771944E-1   -3.031611210418910E-3   -8.223698695023507E-4   -3.057428869126988E-3   -6.999358236425003E-4   -1.212491807037118E-1    4.272060286754553E-1
 8.196885415425000E9    -1.870553720975943E-1    5.024650371462565E-1   -2.959799858443934E-3   -8.185545551296007E-4   -3.084348390062817E-3   -7.220438892050597E-4   -1.211914943488782E-1    4.274690524507302E-1
 8.196889418950000E9    -1.868715816178149E-1    5.024553880707440E-1   -3.001090599398742E-3   -8.101602879308927E-4   -3.117587731626003E-3   -6.968735901946623E-4   -1.208496665544302E-1    4.274051928006225E-1
 8.196893422475000E9    -1.865909577727400E-1    5.025190804681464E-1   -3.003040654749377E-3   -8.242206592512551E-4   -3.091242458604781E-3   -6.988082143278369E-4   -1.207184030773175E-1    4.276189506105168E-1
 8.196897426000000E9    -1.863516642272153E-1    5.026452808950884E-1   -3.013868480950112E-3   -7.861624823681094E-4   -3.141170096286925E-3   -6.939876518595395E-4   -1.205474576516462E-1    4.275294424581362E-1
 8.196901429525000E9    -1.859756229920264E-1    5.028437790316365E-1   -3.009590242504522E-3   -8.234589002448537E-4   -3.093491577290892E-3   -6.881129284810551E-4   -1.203225503174147E-1    4.277348350098072E-1
 8.196905433050000E9    -1.857965510328607E-1    5.028416661696432E-1   -3.022874832752658E-3   -8.009036785359212E-4   -3.117746034351527E-3   -7.230161260064893E-4   -1.199497300443671E-1    4.276950899204859E-1
 8.196909436575000E9    -1.854574118618944E-1    5.030022242453426E-1   -3.011525524635515E-3   -8.147301720865668E-4   -3.109291283655276E-3   -6.864480664161524E-4   -1.198448839145213E-1    4.277196879819871E-1
 8.196913440100000E9    -1.852345015138606E-1    5.029991656695099E-1   -3.040892474660563E-3   -8.050448297742705E-4   -3.127332468064402E-3   -6.994013408596950E-4   -1.196671928286198E-1    4.277099499405491E-1
 8.196917443625000E9    -1.848144523745500E-1    5.031873035860388E-1   -3.056119452385422E-3   -7.887007510356423E-4   -3.140191759727796E-3   -6.842983643943142E-4   -1.193033463260041E-1    4.278822776315567E-1
 8.196921447150000E9    -1.845733419883173E-1    5.032508189934886E-1   -3.051303183468147E-3   -8.073616887340695E-4   -3.113425338692436E-3   -6.967001718913964E-4   -1.192451773134281E-1    4.278489503916019E-1
 8.196925450675000E9    -1.843428346880341E-1    5.033006732606310E-1   -3.048892136588945E-3   -7.977360809831804E-4   -3.135581245265129E-3   -6.971073302782751E-4   -1.189090566225933E-1    4.279424784878792E-1
 8.196929454200000E9    -1.838059393482187E-1    5.033777676867951E-1   -3.070032366080876E-3   -7.984406257830964E-4   -3.152728747169233E-3   -6.754462818124268E-4   -1.187182270405343E-1    4.279690930896468E-1
 8.196933457725000E9    -1.836355583730057E-1    5.034687133421272E-1   -3.082895103673917E-3   -8.148340864206103E-4   -3.154143043296436E-3   -7.091563041292350E-4   -1.185896597160683E-1    4.281564522624708E-1
 8.196937461250000E9    -1.833268730329531E-1    5.036295234124200E-1   -3.071477507917642E-3   -7.768174807910137E-4   -3.180812630385324E-3   -6.894111507372119E-4   -1.183397663711605E-1    4.280856244074864E-1
