#  HZ   S   RI   R     50.00 
! Rohde & Schwarz Vector Network Analyzer 
! Rohde-Schwarz,ZNB20-2Port,1311601062101988,3.16
! Created: UTC 3/20/2024, 5:05:07 PM
! freq[Hz]                re:S11                  im:S11                  re:S21                  im:S21                  re:S12                  im:S12                  re:S22                  im:S22
 8.158765375000000E9     4.745132442564354E-1    2.515015507155766E-1   -7.971914825576650E-4    2.514252882773299E-3   -8.195295648992878E-4    2.485415934251424E-3    4.863486684612522E-1    1.016453421820558E-1
 8.158940185100000E9     4.799673152120222E-1    2.412067913402622E-1   -7.858757303099744E-4    2.505828455425917E-3   -7.126156561557882E-4    2.534179641509441E-3    4.882216616670587E-1    9.095492622704329E-2
 8.159114995200000E9     4.853675202651527E-1    2.306576843541993E-1   -7.018273396317879E-4    2.515185203841383E-3   -7.209733166787471E-4    2.500895582333523E-3    4.899468316028128E-1    8.043980844614150E-2
 8.159289805300000E9     4.904941987518588E-1    2.202430191116913E-1   -6.281603865352655E-4    2.525941463248974E-3   -6.430725129752382E-4    2.543854575488958E-3    4.911869884836585E-1    6.991320717703577E-2
 8.159464615400000E9     4.954994298551307E-1    2.094655114647816E-1   -5.651434524342885E-4    2.542884824594896E-3   -6.322030424411910E-4    2.580189335980304E-3    4.922625686243306E-1    5.928412819598726E-2
 8.159639425500000E9     4.999313330663822E-1    1.986641897878503E-1   -5.542490391579176E-4    2.542151349775225E-3   -5.287939005742720E-4    2.544231465896877E-3    4.930917528162754E-1    4.859857346754416E-2
 8.159814235600000E9     5.044291668505059E-1    1.877915113570859E-1   -4.490547124079516E-4    2.541738813168920E-3   -4.878357027744007E-4    2.564335956437664E-3    4.937593747492085E-1    3.810977753950949E-2
 8.159989045700000E9     5.083965789148696E-1    1.768486737349524E-1   -4.036487597653913E-4    2.557027376637484E-3   -4.190467456386675E-4    2.571380404647519E-3    4.942777509525512E-1    2.739897491515971E-2
 8.160163855800000E9     5.124260812106035E-1    1.657764011986425E-1   -3.491571231125698E-4    2.567907821659143E-3   -3.746276826060939E-4    2.567568778694909E-3    4.945705431418694E-1    1.676842404690586E-2
 8.160338665900000E9     5.160510936909674E-1    1.546256732741572E-1   -3.039419684693216E-4    2.539139700725597E-3   -3.108323267478948E-4    2.544517402257028E-3    4.945689217976084E-1    6.276417925633802E-3
 8.160513476000000E9     5.194944000064268E-1    1.434308106892481E-1   -2.332112852780155E-4    2.556386829415769E-3   -2.295998628908465E-4    2.569184772447209E-3    4.943480707735481E-1   -4.372609768242163E-3
 8.160688286100000E9     5.226580051609354E-1    1.320886778257442E-1   -2.000657054770201E-4    2.520935976656198E-3   -1.866859434766974E-4    2.546844660905661E-3    4.936288078790906E-1   -1.496642407592123E-2
 8.160863096200000E9     5.255917789244462E-1    1.207206492175043E-1   -1.344263464909856E-4    2.567840266938382E-3   -1.299743640242980E-4    2.540297444831913E-3    4.931335419802380E-1   -2.547555697863732E-2
 8.161037906300000E9     5.282586715334281E-1    1.091832341364116E-1   -6.921384542609667E-5    2.549981947889998E-3   -5.593539180722283E-5    2.563563851792199E-3    4.921781558509373E-1   -3.596896110505913E-2
 8.161212716400000E9     5.306323674437241E-1    9.777268175060218E-2   -1.365743700338839E-5    2.533951953157392E-3   -5.486212945009196E-6    2.587303214593525E-3    4.909906629523443E-1   -4.658284551837562E-2
 8.161387526500000E9     5.327729138624425E-1    8.627340172733224E-2    4.928063194966933E-5    2.536249517265540E-3    3.394915811606943E-5    2.547784341376616E-3    4.897021974594462E-1   -5.684096161817389E-2
 8.161562336600000E9     5.347404999661169E-1    7.462600154919215E-2    1.131813511535980E-4    2.522184770035369E-3    1.264826106519703E-4    2.556710438766027E-3    4.880696581386954E-1   -6.731730037215462E-2
 8.161737146700000E9     5.364344462928604E-1    6.304014653936860E-2    1.616415009853922E-4    2.537822680136153E-3    1.272577690769408E-4    2.501817046876468E-3    4.862861331051337E-1   -7.762177045238954E-2
 8.161911956800000E9     5.377387747877562E-1    5.130607856440394E-2    2.091921686244152E-4    2.505780796390680E-3    2.103066914883069E-4    2.504878145074495E-3    4.842840360034297E-1   -8.798932319339955E-2
 8.162086766900000E9     5.388929802253346E-1    3.967859722070823E-2    2.706465660558920E-4    2.487053940458525E-3    2.493435886547901E-4    2.503266971169908E-3    4.820322895264108E-1   -9.827086591944111E-2
 8.162261577000000E9     5.396249249423011E-1    2.794857652228363E-2    3.115156142483093E-4    2.510040875026860E-3    3.275147842233226E-4    2.473963338564833E-3    4.795460763472702E-1   -1.084829362842321E-1
 8.162436387100000E9     5.403652121483797E-1    1.628303966464048E-2    3.813684302357702E-4    2.463197080592556E-3    3.928019366190903E-4    2.483767952986180E-3    4.768300617455768E-1   -1.186040396201952E-1
 8.162611197200000E9     5.406663236194481E-1    4.502101250290201E-3    4.339412778632696E-4    2.462572676309861E-3    4.266880056726088E-4    2.452543800419436E-3    4.738630390998373E-1   -1.287195124517293E-1
 8.162786007300000E9     5.408744125254268E-1   -7.202713959123449E-3    4.683048196946686E-4    2.404169851638006E-3    4.348279493002538E-4    2.484752934290601E-3    4.708472921297588E-1   -1.388073751524711E-1
 8.162960817400000E9     5.406562180160173E-1   -1.917636916904305E-2    5.367743420109733E-4    2.441045714391075E-3    5.218110437899948E-4    2.429537304129687E-3    4.675011815511589E-1   -1.485363867977428E-1
 8.163135627500000E9     5.401518166080485E-1   -3.069559286952195E-2    5.877447480853944E-4    2.412334600514200E-3    5.969188808061893E-4    2.452217658015487E-3    4.639876727206026E-1   -1.583921507648473E-1
 8.163310437600000E9     5.395215607871288E-1   -4.245856108962140E-2    6.617915501246362E-4    2.409170171104954E-3    6.358761221880046E-4    2.415376611437695E-3    4.601405572487721E-1   -1.681600566255448E-1
 8.163485247700000E9     5.386656993056445E-1   -5.416132459943697E-2    6.880404325812799E-4    2.370331250938739E-3    6.980553571452118E-4    2.383664940328435E-3    4.562741707227667E-1   -1.778312298576248E-1
 8.163660057800000E9     5.374289933315863E-1   -6.597626863421485E-2    7.551202885971525E-4    2.345701803899977E-3    7.315919346680024E-4    2.394440774564065E-3    4.520863325588881E-1   -1.874149301672493E-1
 8.163834867900000E9     5.360365703762819E-1   -7.756867544737057E-2    7.855137764610907E-4    2.336778684127302E-3    7.923959265931324E-4    2.392505354676393E-3    4.478925400144096E-1   -1.967436051696169E-1
 8.164009678000000E9     5.342651650715565E-1   -8.914843138812648E-2    8.604145464305730E-4    2.292998630575462E-3    8.416117006361289E-4    2.346135002202086E-3    4.432449028318150E-1   -2.062029626453830E-1
 8.164184488100000E9     5.322647387548407E-1   -1.007801339622647E-1    8.796302513236149E-4    2.273291906806807E-3    8.965393041344597E-4    2.306532948965324E-3    4.384257488368672E-1   -2.155607581512167E-1
 8.164359298200000E9     5.300591636662834E-1   -1.123635700094684E-1    9.465680523954777E-4    2.229923913280681E-3    9.025239625068722E-4    2.284219472709215E-3    4.336128852919933E-1   -2.245941614158008E-1
 8.164534108300000E9     5.276488652721806E-1   -1.238239650901874E-1    9.850165621326217E-4    2.202565148651267E-3    9.757070864839342E-4    2.275203507999026E-3    4.283807600880150E-1   -2.337147718793942E-1
 8.164708918400000E9     5.249417459669963E-1   -1.352401128439930E-1    1.047270109179938E-3    2.184842693336351E-3    1.041800137337199E-3    2.238233926440944E-3    4.230841967203596E-1   -2.426026705533415E-1
 8.164883728500000E9     5.220569860325898E-1   -1.466680167866971E-1    1.110949477926775E-3    2.150738613118112E-3    1.079238040146143E-3    2.196795505406753E-3    4.177217679799837E-1   -2.513549734740781E-1
 8.165058538600000E9     5.187750043637556E-1   -1.579064402187279E-1    1.124987328805446E-3    2.159740961211941E-3    1.109265515671737E-3    2.151843624646312E-3    4.120841126404157E-1   -2.601709935331437E-1
 8.165233348700000E9     5.153397822216979E-1   -1.692678574228587E-1    1.193751628268464E-3    2.111105925221008E-3    1.164720954796417E-3    2.141442777070070E-3    4.061591609375942E-1   -2.685813319471106E-1
 8.165408158800000E9     5.116571121756545E-1   -1.803159654945858E-1    1.217742350776694E-3    2.081122616506335E-3    1.212996477440664E-3    2.147317851167180E-3    4.000353391109152E-1   -2.770182438301336E-1
 8.165582968900000E9     5.077789776295334E-1   -1.914768584466904E-1    1.255330410739220E-3    2.086962384506359E-3    1.295715724442884E-3    2.088940879400020E-3    3.940406155181764E-1   -2.853306113207388E-1
 8.165757779000000E9     5.034808748410760E-1   -2.025693577721299E-1    1.306006402968728E-3    2.034271516877628E-3    1.320527176091194E-3    2.066269685198992E-3    3.876600341325369E-1   -2.934629009839561E-1
 8.165932589100000E9     4.990824834277575E-1   -2.133840190737997E-1    1.365233430842116E-3    2.004088637477165E-3    1.334852868852272E-3    2.051291493353329E-3    3.811732278254560E-1   -3.014088997093372E-1
 8.166107399200000E9     4.944365053056544E-1   -2.241492715665540E-1    1.384140221953478E-3    1.950683551773202E-3    1.411571071625904E-3    1.996073281940058E-3    3.744245300268736E-1   -3.093296511566684E-1
 8.166282209300000E9     4.895374287170193E-1   -2.349545116835577E-1    1.461979946332129E-3    1.915256575868377E-3    1.424790789040884E-3    1.950443968065398E-3    3.675208697660616E-1   -3.168568158891420E-1
 8.166457019400000E9     4.844290762709330E-1   -2.455350529143584E-1    1.488334145763418E-3    1.888625897214939E-3    1.495765224758412E-3    1.936802565500987E-3    3.605674261957399E-1   -3.245602964622993E-1
 8.166631829500000E9     4.790317147247389E-1   -2.559929571865235E-1    1.494106737691692E-3    1.865535411586506E-3    1.504883851798088E-3    1.888743296570870E-3    3.534597195756388E-1   -3.318219403504478E-1
 8.166806639600000E9     4.732743757224036E-1   -2.663766283572530E-1    1.537755637927679E-3    1.838135699796615E-3    1.564882414570787E-3    1.879795884170700E-3    3.460704584444741E-1   -3.391328509511377E-1
 8.166981449700000E9     4.675993582531276E-1   -2.766303115042970E-1    1.590880317912513E-3    1.782348579685535E-3    1.574671712897867E-3    1.838809147669847E-3    3.386236279198082E-1   -3.462373677187747E-1
 8.167156259800000E9     4.613932425820116E-1   -2.868524838468006E-1    1.612214881820915E-3    1.749320510529837E-3    1.638529365288460E-3    1.791956699131280E-3    3.309849469779807E-1   -3.531385775767849E-1
 8.167331069900000E9     4.551781974915584E-1   -2.967305523187792E-1    1.653893949023109E-3    1.685559054691118E-3    1.665925104479284E-3    1.779520296295065E-3    3.233093868762485E-1   -3.598733429544085E-1
 8.167505880000000E9     4.486057198410665E-1   -3.065436159444100E-1    1.679190015036532E-3    1.669869996292869E-3    1.695985370937495E-3    1.739885208429505E-3    3.155414527656523E-1   -3.662408951977184E-1
 8.167680690100000E9     4.418556331633942E-1   -3.162286903066877E-1    1.698355342301760E-3    1.624895535399039E-3    1.722975401197349E-3    1.684698492069586E-3    3.073559187179058E-1   -3.727614907147038E-1
 8.167855500200000E9     4.349741324003985E-1   -3.258650028970214E-1    1.745959622203237E-3    1.593196102735911E-3    1.768584268711923E-3    1.646610089985815E-3    2.991928823169071E-1   -3.789866775718138E-1
 8.168030310300000E9     4.279940892025029E-1   -3.353025121082460E-1    1.793618567309986E-3    1.564194814741159E-3    1.813297303548664E-3    1.578782062219242E-3    2.910849491997562E-1   -3.850111236741697E-1
 8.168205120400000E9     4.205823893591757E-1   -3.445737552773175E-1    1.798373625853799E-3    1.532553060764742E-3    1.846279428410044E-3    1.545547706405553E-3    2.826120893317078E-1   -3.907523870240728E-1
 8.168379930500000E9     4.130621170960902E-1   -3.535879017967633E-1    1.838127827737446E-3    1.452646147631551E-3    1.891283132964295E-3    1.532724308590398E-3    2.741977290717853E-1   -3.965120371172668E-1
 8.168554740600000E9     4.052287964141759E-1   -3.625839389406391E-1    1.862419661666522E-3    1.427066929082363E-3    1.911043516169830E-3    1.456799037220200E-3    2.655178823380784E-1   -4.018768793225153E-1
 8.168729550700000E9     3.972563844474011E-1   -3.713949750812917E-1    1.898699851450099E-3    1.372454876175535E-3    1.916550435527393E-3    1.456441330932387E-3    2.569471827607449E-1   -4.073311266722948E-1
 8.168904360800000E9     3.892520223709356E-1   -3.798478440929036E-1    1.912804797919247E-3    1.357273362989719E-3    1.951351963700205E-3    1.386696759545904E-3    2.480752309189442E-1   -4.125055614764763E-1
 8.169079170900000E9     3.809250486836290E-1   -3.883850327023925E-1    1.965387654220192E-3    1.288237635015847E-3    1.980181692100918E-3    1.340826531373994E-3    2.390622363374092E-1   -4.174201647844268E-1
 8.169253981000000E9     3.723160397907402E-1   -3.965568377989427E-1    1.975300928228880E-3    1.239269733177645E-3    2.012697688567387E-3    1.271877556496750E-3    2.302393630618794E-1   -4.220159580622180E-1
 8.169428791100000E9     3.637284140779858E-1   -4.045323045939413E-1    1.980996309834489E-3    1.198455090811626E-3    2.012226842248540E-3    1.257281823881122E-3    2.212395757905186E-1   -4.266006516789850E-1
 8.169603601200000E9     3.547830940354739E-1   -4.123244895193425E-1    2.016798447969035E-3    1.169381061779561E-3    2.087388063954149E-3    1.189292743965963E-3    2.120008737432986E-1   -4.310969733912484E-1
 8.169778411300000E9     3.456879857072606E-1   -4.201264872830194E-1    2.034858564271586E-3    1.091566396525074E-3    2.081239948724827E-3    1.134140899849052E-3    2.025565001208468E-1   -4.350788133630172E-1
 8.169953221400000E9     3.365443283890290E-1   -4.274658776915925E-1    2.051610239174214E-3    1.065350506235279E-3    2.106742579672454E-3    1.094006948089752E-3    1.932063772336696E-1   -4.391208452169694E-1
 8.170128031500000E9     3.271729324896491E-1   -4.348653740211737E-1    2.084757978884730E-3    1.015450732983888E-3    2.116700477634022E-3    1.069232602659794E-3    1.839794539655260E-1   -4.428981198666877E-1
 8.170302841600000E9     3.176142763600811E-1   -4.418126692452281E-1    2.076871746738707E-3    9.792222227824905E-4    2.149733009170608E-3    1.010008757818983E-3    1.743575400407994E-1   -4.464195091698398E-1
 8.170477651700000E9     3.078855344288083E-1   -4.487716044732140E-1    2.106542812055845E-3    9.583104579437972E-4    2.139388660995620E-3    9.937048670315091E-4    1.648224664935954E-1   -4.497098874155857E-1
 8.170652461800000E9     2.980688552816051E-1   -4.552499776439839E-1    2.126290609390002E-3    9.133539355440930E-4    2.160624137982024E-3    9.024294959287470E-4    1.552261996826753E-1   -4.529491433305505E-1
 8.170827271900000E9     2.880597417779934E-1   -4.616741599328807E-1    2.137540666938104E-3    8.563573863849893E-4    2.186093165503821E-3    8.540117242202769E-4    1.456617013238324E-1   -4.558687117836002E-1
 8.171002082000000E9     2.779503729086051E-1   -4.677645291347957E-1    2.177922979206064E-3    7.912922250899655E-4    2.210915254329800E-3    8.249470615459144E-4    1.358693095582068E-1   -4.584061853994296E-1
 8.171176892100000E9     2.677068532528381E-1   -4.738791974212728E-1    2.178872822417363E-3    7.516769152165246E-4    2.210586631180924E-3    7.565688542950385E-4    1.259759133881422E-1   -4.609891239700939E-1
 8.171351702200000E9     2.572952950495267E-1   -4.796411471314049E-1    2.173795076381808E-3    6.918793768364898E-4    2.208513482111011E-3    7.044048307393091E-4    1.161637277746818E-1   -4.633811722893222E-1
 8.171526512300000E9     2.466755029382936E-1   -4.851903372374490E-1    2.210069588001789E-3    6.408288522707564E-4    2.280167202164523E-3    6.892692706776343E-4    1.063750547687748E-1   -4.653379671438056E-1
 8.171701322400000E9     2.361236121472703E-1   -4.904834160576965E-1    2.191796370219745E-3    6.007360679114425E-4    2.289336578377960E-3    6.311299962171342E-4    9.646262908923091E-2   -4.674793759378217E-1
 8.171876132500000E9     2.254005521291943E-1   -4.954166973086113E-1    2.215297633544000E-3    5.342767063323135E-4    2.258693887356290E-3    6.066815858988356E-4    8.651412099723683E-2   -4.689183120662834E-1
 8.172050942600000E9     2.144795723446469E-1   -5.004176937973962E-1    2.239860344791733E-3    5.063770897983708E-4    2.313014460030258E-3    5.100247614711780E-4    7.662277981539532E-2   -4.705917450880808E-1
 8.172225752700000E9     2.035191788942062E-1   -5.047657141951057E-1    2.250198130133986E-3    4.436208939309483E-4    2.295092106943080E-3    4.496303687341222E-4    6.649004356739824E-2   -4.717717564903242E-1
 8.172400562800000E9     1.925618339167637E-1   -5.092209387624675E-1    2.259403709021246E-3    4.019901155175535E-4    2.283941172308920E-3    4.281796091468102E-4    5.656943270867776E-2   -4.729093114556558E-1
 8.172575372900000E9     1.813256657221180E-1   -5.135112546247055E-1    2.263872189838580E-3    3.491601426137572E-4    2.313045370683278E-3    4.062409809132518E-4    4.665068027586444E-2   -4.738254505144692E-1
 8.172750183000000E9     1.700230634798948E-1   -5.171287837338999E-1    2.291745137891182E-3    2.980813745716102E-4    2.331278236352362E-3    3.524328624265898E-4    3.657550629591234E-2   -4.741950009617328E-1
 8.172924993100000E9     1.585556223847605E-1   -5.207344821099299E-1    2.250636025610834E-3    2.716792835690541E-4    2.331913661582300E-3    2.581035110112444E-4    2.675074951622052E-2   -4.747466719512311E-1
 8.173099803200000E9     1.471789732134338E-1   -5.240562138952557E-1    2.243373861664208E-3    2.168223936912617E-4    2.342051853920103E-3    2.604852829499247E-4    1.635631120603196E-2   -4.750027795219062E-1
 8.173274613300000E9     1.356740855589140E-1   -5.272153862415114E-1    2.250170073818684E-3    1.796881782316247E-4    2.312027094458542E-3    1.917092997995986E-4    6.571737624641056E-3   -4.751171508810568E-1
 8.173449423400000E9     1.241024047118615E-1   -5.300575121827319E-1    2.259462555240827E-3    1.129982680827987E-4    2.329065683125992E-3    9.234498854765328E-5   -3.595643890260590E-3   -4.748102579568381E-1
 8.173624233500000E9     1.125269943700456E-1   -5.327157579917418E-1    2.257243452057201E-3    9.226279285828916E-5    2.320701752692440E-3    8.643539523662313E-5   -1.343978988934463E-2   -4.744005024746196E-1
 8.173799043600000E9     1.006226564944597E-1   -5.350439638526374E-1    2.271200817288213E-3   -1.090669333044638E-6    2.337089566241550E-3    2.394899445727064E-5   -2.351631400899485E-2   -4.738127766583882E-1
 8.173973853700000E9     8.890416927036408E-2   -5.369876936778561E-1    2.322197024903709E-3   -5.585390265475028E-5    2.353474329393543E-3   -3.179755854649519E-5   -3.338215356337883E-2   -4.730427399426268E-1
 8.174148663800000E9     7.703566432647206E-2   -5.389350553662666E-1    2.253717331659045E-3   -5.989422639336462E-5    2.351680362109906E-3   -5.523836661400036E-5   -4.342309482485731E-2   -4.719842731361428E-1
 8.174323473900000E9     6.537487596604731E-2   -5.405037391799400E-1    2.227857820640344E-3   -1.377621784817542E-4    2.365893578423355E-3   -8.439732715225009E-5   -5.321220717492535E-2   -4.707601124857169E-1
 8.174498284000000E9     5.350574810870642E-2   -5.418474815245967E-1    2.250940895384883E-3   -1.499050246941433E-4    2.335362719290442E-3   -1.647767501267854E-4   -6.301278925764595E-2   -4.693866272492048E-1
