#  HZ   S   RI   R     50.00 
! Rohde & Schwarz Vector Network Analyzer 
! Rohde-Schwarz,ZNB20-2Port,1311601062101988,3.16
! Created: UTC 3/20/2024, 4:50:03 PM
! freq[Hz]                re:S11                  im:S11                  re:S21                  im:S21                  re:S12                  im:S12                  re:S22                  im:S22
 8.196555673000000E9    -2.103252880151308E-1    4.936852391199354E-1   -2.785543731544146E-3   -8.871691498087477E-4   -2.858521086731898E-3   -8.170222405480635E-4   -1.390117694871946E-1    4.224649521169465E-1
 8.196559755925000E9    -2.100697297626886E-1    4.939029882269970E-1   -2.753275576013883E-3   -8.925226037957434E-4   -2.878335731777647E-3   -8.033318064995266E-4   -1.388007333068737E-1    4.226310154796100E-1
 8.196563838850000E9    -2.097384568742122E-1    4.939387412296822E-1   -2.745340603989259E-3   -8.914117511797152E-4   -2.804460397263106E-3   -7.974377710794442E-4   -1.385058593590279E-1    4.227325246338053E-1
 8.196567921775000E9    -2.095364934311706E-1    4.940786965339667E-1   -2.753465901547906E-3   -9.052172391100446E-4   -2.845740420148693E-3   -7.954458918696301E-4   -1.382846684817356E-1    4.226500761488912E-1
 8.196572004700000E9    -2.091615799644426E-1    4.942650455675259E-1   -2.737399305220834E-3   -9.055404606039168E-4   -2.837781645150853E-3   -8.209856586914750E-4   -1.380327080220027E-1    4.228236132467401E-1
 8.196576087625000E9    -2.088200352284976E-1    4.943739514202686E-1   -2.741459323869221E-3   -8.818123367050582E-4   -2.831645302317951E-3   -8.078537368970024E-4   -1.379225798032535E-1    4.227751917509965E-1
 8.196580170550000E9    -2.086434079403184E-1    4.944265789829765E-1   -2.740485802732640E-3   -9.014448018359104E-4   -2.874820741675652E-3   -8.080171539455233E-4   -1.376295610555389E-1    4.228529044977966E-1
 8.196584253475000E9    -2.082168530525909E-1    4.944568594343311E-1   -2.783692866661445E-3   -8.697742489208558E-4   -2.843429519888294E-3   -8.102904082032417E-4   -1.374283653372994E-1    4.231787885830842E-1
 8.196588336400000E9    -2.080403306280266E-1    4.946134086114971E-1   -2.767934367922855E-3   -8.709350844236269E-4   -2.872758628908556E-3   -7.955088125916632E-4   -1.372201851329186E-1    4.229086505366697E-1
 8.196592419325000E9    -2.077410427661340E-1    4.947722559868556E-1   -2.774943795908547E-3   -8.957677478100606E-4   -2.878147867249747E-3   -8.029110297297801E-4   -1.369949920789549E-1    4.229961382364858E-1
 8.196596502250000E9    -2.073618193640394E-1    4.948021775516729E-1   -2.784247117579426E-3   -8.859642570750873E-4   -2.881232612066538E-3   -8.373499750790030E-4   -1.367309250360650E-1    4.231598721135919E-1
 8.196600585175000E9    -2.071730435961612E-1    4.950438087558373E-1   -2.748372181977691E-3   -8.860756045460127E-4   -2.850717312712677E-3   -8.129904730614534E-4   -1.365846212175654E-1    4.233119699967849E-1
 8.196604668100000E9    -2.068663298256301E-1    4.951056177690861E-1   -2.750844539409853E-3   -8.894407159224406E-4   -2.874782867167892E-3   -8.007083554846052E-4   -1.363567800291969E-1    4.233905164904617E-1
 8.196608751025000E9    -2.064777430474739E-1    4.953392633708418E-1   -2.774799177053612E-3   -8.832083664937009E-4   -2.878722955507916E-3   -7.927612918547824E-4   -1.360933827565533E-1    4.234294237506113E-1
 8.196612833950000E9    -2.063753441364117E-1    4.952539814439467E-1   -2.771441411669319E-3   -8.853915853235650E-4   -2.873210012122415E-3   -8.135620311608547E-4   -1.358198021334610E-1    4.235346773976792E-1
 8.196616916875000E9    -2.059932345872349E-1    4.954606551586759E-1   -2.784884368364763E-3   -8.841878372332896E-4   -2.885433815659593E-3   -7.925915297237040E-4   -1.356703701461557E-1    4.234012886868256E-1
 8.196620999800000E9    -2.056326867743735E-1    4.956074349728310E-1   -2.784007238868659E-3   -8.936740680136609E-4   -2.848480345351136E-3   -8.049430935353106E-4   -1.354084265195928E-1    4.235571622934633E-1
 8.196625082725000E9    -2.055541473273274E-1    4.955843327447603E-1   -2.795532515497866E-3   -9.149467912560230E-4   -2.905024235703060E-3   -8.035690140905954E-4   -1.352722336940873E-1    4.237279452998201E-1
 8.196629165650000E9    -2.052950876586882E-1    4.956560566585736E-1   -2.750956328703341E-3   -8.945336236847084E-4   -2.840565470873078E-3   -7.655008228532873E-4   -1.350239136519920E-1    4.236991146381134E-1
 8.196633248575000E9    -2.049257129325956E-1    4.959436027927170E-1   -2.779172744928160E-3   -8.910987070380599E-4   -2.854414959440177E-3   -7.842014716322740E-4   -1.348123541549982E-1    4.237551022764194E-1
 8.196637331500000E9    -2.045548881378216E-1    4.959656146448417E-1   -2.777496993065246E-3   -8.695683054322363E-4   -2.860915522124385E-3   -7.677570385666958E-4   -1.345397502419673E-1    4.238727180797824E-1
 8.196641414425000E9    -2.043932612093164E-1    4.960959222175703E-1   -2.808140979001622E-3   -9.239649762759734E-4   -2.875041057703611E-3   -8.014436790743950E-4   -1.343915660873698E-1    4.238522189965079E-1
 8.196645497350000E9    -2.041353865091939E-1    4.962443773827863E-1   -2.821477726095180E-3   -8.597791648566724E-4   -2.878551437772495E-3   -7.690303147555943E-4   -1.340953329247873E-1    4.238578192356268E-1
 8.196649580275000E9    -2.037295116000506E-1    4.962655677109324E-1   -2.798100892264688E-3   -8.739467341815522E-4   -2.880001893032874E-3   -7.804630245591656E-4   -1.337911061229455E-1    4.239385007224106E-1
 8.196653663200000E9    -2.036171583274998E-1    4.964563453381660E-1   -2.783954128925618E-3   -8.834160101047855E-4   -2.902460499170798E-3   -7.937311280516208E-4   -1.337237593621521E-1    4.239216836754928E-1
 8.196657746125000E9    -2.033481835326091E-1    4.965626421647597E-1   -2.808471678143316E-3   -8.846042461837915E-4   -2.884624424849701E-3   -7.813600468605213E-4   -1.334487344560924E-1    4.242843732831957E-1
 8.196661829050000E9    -2.029213612441446E-1    4.965673684844587E-1   -2.802010399006003E-3   -9.016647361048598E-4   -2.885595695406622E-3   -8.143398415578530E-4   -1.332093393798108E-1    4.241939828285560E-1
 8.196665911975000E9    -2.026137768792186E-1    4.968641041666095E-1   -2.812058839574523E-3   -8.654276364029871E-4   -2.866388535184387E-3   -7.836702652079566E-4   -1.330870924268116E-1    4.243575108717738E-1
 8.196669994900000E9    -2.023848898236960E-1    4.969142515572584E-1   -2.832746335555092E-3   -8.840637328724369E-4   -2.902952400102756E-3   -7.752533805198715E-4   -1.329078685710988E-1    4.243587997965830E-1
 8.196674077825000E9    -2.021870828407370E-1    4.969527705509102E-1   -2.821202284107604E-3   -8.694051781284657E-4   -2.908986712633570E-3   -7.793442646668224E-4   -1.325858095371059E-1    4.244564034384781E-1
 8.196678160750000E9    -2.018505707141581E-1    4.970460653590251E-1   -2.822575486781275E-3   -8.761749077917766E-4   -2.887111579579553E-3   -7.690043678940181E-4   -1.324281715100679E-1    4.244088991408090E-1
 8.196682243675000E9    -2.015157774312448E-1    4.971787604807617E-1   -2.782633754675240E-3   -8.469326412861833E-4   -2.913030426946004E-3   -7.913752860647151E-4   -1.321807595074562E-1    4.244263435732751E-1
 8.196686326600000E9    -2.012584941021988E-1    4.972928515651581E-1   -2.829326526262384E-3   -8.477235200786490E-4   -2.912183148727625E-3   -7.519011816953229E-4   -1.320538501561082E-1    4.245703518302991E-1
 8.196690409525000E9    -2.009461480472315E-1    4.974503045895762E-1   -2.835867841785507E-3   -8.602416132303490E-4   -2.933100828647329E-3   -7.640364820428042E-4   -1.317870738273562E-1    4.247701415109896E-1
 8.196694492450000E9    -2.006380255404344E-1    4.974426379750062E-1   -2.838260995931401E-3   -8.541223374401275E-4   -2.921399051724306E-3   -7.568989949188131E-4   -1.314190313765392E-1    4.245506934027285E-1
 8.196698575375000E9    -2.003240217676272E-1    4.975612281058053E-1   -2.856262389035463E-3   -8.781948921974878E-4   -2.927844751345225E-3   -7.790240602806287E-4   -1.313109396559652E-1    4.247052470007744E-1
 8.196702658300000E9    -2.000848422934807E-1    4.977257215692205E-1   -2.854362694012526E-3   -8.595691076565315E-4   -2.915242150883763E-3   -7.338506715240064E-4   -1.311104433270130E-1    4.247434404818146E-1
 8.196706741225000E9    -1.998214034225824E-1    4.978933520241913E-1   -2.829756524785592E-3   -8.707775716819904E-4   -2.929152372131544E-3   -7.771869415309510E-4   -1.309649062574315E-1    4.248387597735959E-1
 8.196710824150000E9    -1.995194847644104E-1    4.980254725488351E-1   -2.828681937341470E-3   -8.824996422371895E-4   -2.921272454361313E-3   -7.756844889766021E-4   -1.305046077890553E-1    4.249411909227248E-1
 8.196714907075000E9    -1.993230354689635E-1    4.979859294001467E-1   -2.854084126361252E-3   -8.728497961281387E-4   -2.935617006125345E-3   -7.470088430786773E-4   -1.302947969066815E-1    4.250254176606139E-1
 8.196718990000000E9    -1.989514787632424E-1    4.980885850375055E-1   -2.848464104061030E-3   -8.542325784093656E-4   -2.902914054612114E-3   -7.730305512637047E-4   -1.303164112604216E-1    4.250702770824075E-1
 8.196723072925000E9    -1.987399468713725E-1    4.982726057814477E-1   -2.869925556950888E-3   -8.717036246231653E-4   -2.928069008111739E-3   -7.421314113098358E-4   -1.300088249185418E-1    4.251576732589775E-1
 8.196727155850000E9    -1.983789426879160E-1    4.984037970560850E-1   -2.867507574662136E-3   -8.779305985078808E-4   -2.971955837649016E-3   -7.690586742683861E-4   -1.298087166075505E-1    4.251718740014907E-1
 8.196731238775000E9    -1.983273586931075E-1    4.984317808845513E-1   -2.872986870170156E-3   -8.694580404145209E-4   -2.948939103893984E-3   -7.712160038766657E-4   -1.294195890202907E-1    4.252639318566939E-1
 8.196735321700000E9    -1.978017490347347E-1    4.985140279230149E-1   -2.829379748450093E-3   -8.297398191677454E-4   -2.945821430624139E-3   -7.493345079334139E-4   -1.292887223430610E-1    4.252333004545735E-1
 8.196739404625000E9    -1.975390268251284E-1    4.987310686545829E-1   -2.853581465173247E-3   -8.314093917830636E-4   -2.960144392355989E-3   -7.600598129882869E-4   -1.291424702913554E-1    4.252156148103636E-1
 8.196743487550000E9    -1.972716055739005E-1    4.987936860470453E-1   -2.856120404899804E-3   -8.697568589474760E-4   -2.958493632685782E-3   -7.427783856488854E-4   -1.288233107073120E-1    4.253993398762384E-1
 8.196747570475000E9    -1.969205816546024E-1    4.988352616880837E-1   -2.881884136088727E-3   -8.511375127092167E-4   -2.956586949062992E-3   -7.681980945462177E-4   -1.284893078036369E-1    4.255633019918283E-1
 8.196751653400000E9    -1.967600955348259E-1    4.989746193221327E-1   -2.871653578562277E-3   -8.524234807175141E-4   -2.975988877550177E-3   -7.559731990735215E-4   -1.284168162888553E-1    4.255740623860694E-1
 8.196755736325000E9    -1.964445763916944E-1    4.990773340269215E-1   -2.870818435293427E-3   -8.537728438212341E-4   -2.971198132521332E-3   -7.774144368044006E-4   -1.281804794511865E-1    4.254906925223069E-1
 8.196759819250000E9    -1.962082019444852E-1    4.992639560966421E-1   -2.867660220612873E-3   -8.613173344723495E-4   -2.997987593341528E-3   -7.883683821386113E-4   -1.280546318354898E-1    4.254847193848516E-1
 8.196763902175000E9    -1.959428698485340E-1    4.992901611611194E-1   -2.874839311097353E-3   -8.550116878212077E-4   -2.962537400060191E-3   -7.592902669417540E-4   -1.276971034964791E-1    4.255298658039923E-1
 8.196767985100000E9    -1.954832483712632E-1    4.993743591662830E-1   -2.890227768255977E-3   -8.608549742645112E-4   -2.966049257112322E-3   -7.240394436575636E-4   -1.275068203587916E-1    4.257494875985186E-1
 8.196772068025000E9    -1.952807133133568E-1    4.995262455704116E-1   -2.895002655200369E-3   -8.362147766566499E-4   -2.981792091623561E-3   -7.194624460252940E-4   -1.272579559342306E-1    4.257495132056814E-1
 8.196776150950000E9    -1.949969578170658E-1    4.995273290562904E-1   -2.900692031844343E-3   -8.352762118959460E-4   -2.967602623935922E-3   -7.418867026565298E-4   -1.271987929997822E-1    4.257778945032949E-1
 8.196780233875000E9    -1.947072296844037E-1    4.996504348068703E-1   -2.903509288333119E-3   -8.350187227388351E-4   -2.999113376431122E-3   -7.388508671901235E-4   -1.268606793407261E-1    4.258817362830285E-1
 8.196784316800000E9    -1.943633705020430E-1    4.997811008673852E-1   -2.908895119753539E-3   -8.313423099943118E-4   -2.967699847795604E-3   -7.595330624435865E-4   -1.267148009145257E-1    4.259528513905496E-1
 8.196788399725000E9    -1.940395670806649E-1    5.000372189539837E-1   -2.903035121224038E-3   -8.552757178647893E-4   -3.017177063030385E-3   -7.528982981456953E-4   -1.264246613839418E-1    4.261416869728930E-1
 8.196792482650000E9    -1.938288007876217E-1    5.002098000035590E-1   -2.903395714711707E-3   -8.174595015545348E-4   -3.000048536102399E-3   -7.469939509587797E-4   -1.261156125781300E-1    4.260812936803731E-1
 8.196796565575000E9    -1.935526007489581E-1    5.001007769189162E-1   -2.898092213245736E-3   -8.415983215575962E-4   -2.984551976148216E-3   -7.447645784892254E-4   -1.261369912342424E-1    4.262694563236230E-1
 8.196800648500000E9    -1.932204741862840E-1    5.002437209263604E-1   -2.910778360022926E-3   -8.473367132907980E-4   -3.012255786766865E-3   -7.266498598535654E-4   -1.259351910618546E-1    4.262054351800570E-1
 8.196804731425000E9    -1.930108961710566E-1    5.003859498758523E-1   -2.911566225702567E-3   -8.476887926098178E-4   -3.039360889825627E-3   -7.193284194465976E-4   -1.256371041653672E-1    4.262012520017688E-1
 8.196808814350000E9    -1.926791546378399E-1    5.004953513481079E-1   -2.924547035541072E-3   -8.567482267624817E-4   -3.031941926953306E-3   -7.318258147716026E-4   -1.252346318154448E-1    4.263215009752386E-1
 8.196812897275000E9    -1.923549787969411E-1    5.006910915181947E-1   -2.951704131463429E-3   -8.229015886060709E-4   -3.011227350446833E-3   -7.255307087561255E-4   -1.250037196659600E-1    4.264190453663607E-1
 8.196816980200000E9    -1.919859110883103E-1    5.007020536818465E-1   -2.952212724399066E-3   -8.596001026028148E-4   -3.029401742156369E-3   -7.476164383629943E-4   -1.249718448805071E-1    4.265304279905178E-1
 8.196821063125000E9    -1.917107161629744E-1    5.006331491480071E-1   -2.905395782944358E-3   -8.446735747692995E-4   -3.008009212989875E-3   -7.362827477726019E-4   -1.246998947969978E-1    4.265346488268150E-1
 8.196825146050000E9    -1.915467581743764E-1    5.008192726980021E-1   -2.933413541438381E-3   -8.351479190002631E-4   -3.013393575728480E-3   -7.400655242778053E-4   -1.244106897941606E-1    4.266291588731794E-1
 8.196829228975000E9    -1.912433121244119E-1    5.009837920311624E-1   -2.909844568607699E-3   -8.446653342253390E-4   -3.017403311633914E-3   -7.204098996758946E-4   -1.240760017510212E-1    4.266938080542458E-1
 8.196833311900000E9    -1.908970649413561E-1    5.011504344359039E-1   -2.938423295159415E-3   -8.360838293770982E-4   -3.040451551098064E-3   -7.246968504761790E-4   -1.240170685772192E-1    4.265535355333098E-1
 8.196837394825000E9    -1.906185467620353E-1    5.011736030989238E-1   -2.950737503417786E-3   -8.175978837093814E-4   -3.028498952091993E-3   -7.313346153390203E-4   -1.238060164131959E-1    4.267236250298630E-1
 8.196841477750000E9    -1.903318160666288E-1    5.013082121751115E-1   -2.968357949166127E-3   -8.370951408661790E-4   -3.048680880877067E-3   -7.336260574011743E-4   -1.234882140783360E-1    4.268505989361626E-1
 8.196845560675000E9    -1.901866791226562E-1    5.013580882751644E-1   -2.951767528361809E-3   -8.160745255196723E-4   -3.037457814601379E-3   -7.370200842715031E-4   -1.233555747612699E-1    4.268224118252043E-1
 8.196849643600000E9    -1.898636383770812E-1    5.015395973983818E-1   -2.984215434376342E-3   -8.310623294230237E-4   -3.067044101514101E-3   -7.427441035743117E-4   -1.231041422073257E-1    4.268874124912851E-1
 8.196853726525000E9    -1.894358466739449E-1    5.016128946133346E-1   -2.955126985755655E-3   -8.086913420599362E-4   -3.078999885047103E-3   -7.403861596552358E-4   -1.228246760515235E-1    4.270835684662569E-1
 8.196857809450000E9    -1.892427034308870E-1    5.018037120953049E-1   -2.965435251400887E-3   -8.038167272844447E-4   -3.046046096363759E-3   -6.873453454149412E-4   -1.225633342506720E-1    4.269436691828303E-1
 8.196861892375000E9    -1.888233442194279E-1    5.018769496286798E-1   -2.959602521965450E-3   -8.124999969806508E-4   -3.081292078716369E-3   -7.135826126425173E-4   -1.222847868901819E-1    4.270216248229250E-1
 8.196865975300000E9    -1.886440888824365E-1    5.019524416787680E-1   -2.986116503300803E-3   -8.214538440895011E-4   -3.076732021238367E-3   -6.988909896519711E-4   -1.220943994259907E-1    4.271109665685585E-1
 8.196870058225000E9    -1.882231503812829E-1    5.021216876287606E-1   -2.990723359402441E-3   -8.322730435714011E-4   -3.103334947397864E-3   -6.997924540173871E-4   -1.219832608021369E-1    4.272505755501777E-1
 8.196874141150000E9    -1.879176437159871E-1    5.020750031989029E-1   -3.021154406168051E-3   -8.251733045347998E-4   -3.081882806756566E-3   -7.145860937241513E-4   -1.216967133999277E-1    4.272372682054464E-1
 8.196878224075000E9    -1.875812580639790E-1    5.021909160789596E-1   -2.978527154024337E-3   -8.151140789675683E-4   -3.115625014404008E-3   -7.054277889100213E-4   -1.215064785176274E-1    4.273360909963735E-1
 8.196882307000000E9    -1.873988230621035E-1    5.022978101048989E-1   -2.989119963884481E-3   -7.945625279404752E-4   -3.117653776617331E-3   -7.187590513480682E-4   -1.213310084472495E-1    4.274311894217563E-1
 8.196886389925000E9    -1.870263210470162E-1    5.023852620331669E-1   -2.988149095237391E-3   -7.922521783627461E-4   -3.076062089140223E-3   -7.118798186196387E-4   -1.209998176366036E-1    4.273236604561618E-1
 8.196890472850000E9    -1.867060439153120E-1    5.026199754874782E-1   -3.013612253090128E-3   -8.124196822031701E-4   -3.102912316832312E-3   -7.088728354039233E-4   -1.209541598581979E-1    4.275516473712797E-1
 8.196894555775000E9    -1.864742889164281E-1    5.025325851231912E-1   -3.024938725843017E-3   -8.295968875987544E-4   -3.092336911173129E-3   -6.739874706111432E-4   -1.207212978708820E-1    4.275584275202259E-1
 8.196898638700000E9    -1.862797578036197E-1    5.027745380417770E-1   -3.004970859905212E-3   -8.274682651273771E-4   -3.096483320635800E-3   -7.238863158368987E-4   -1.204832100392885E-1    4.276277504973692E-1
 8.196902721625000E9    -1.858933308880618E-1    5.028243708522203E-1   -3.041160083506471E-3   -8.123072862311051E-4   -3.141943425168898E-3   -6.796401274737873E-4   -1.200733310064752E-1    4.277145828253741E-1
 8.196906804550000E9    -1.854440647164231E-1    5.029159243112789E-1   -3.013299924272665E-3   -7.893048574369601E-4   -3.130389310864754E-3   -7.164529253522280E-4   -1.200473944585262E-1    4.278105033806802E-1
 8.196910887475000E9    -1.854358047128379E-1    5.029328918490351E-1   -3.015887262653777E-3   -8.128113324712540E-4   -3.101618759337457E-3   -7.202832766388181E-4   -1.197393391510480E-1    4.278055374032588E-1
 8.196914970400000E9    -1.850670173971769E-1    5.031220803345213E-1   -3.044191664032038E-3   -8.142437891754192E-4   -3.152407469442070E-3   -7.271891416129413E-4   -1.193635488627187E-1    4.278819952033052E-1
 8.196919053325000E9    -1.847080696080027E-1    5.031253970299481E-1   -3.040611279200889E-3   -7.980680653366914E-4   -3.131144247251576E-3   -6.889265649398108E-4   -1.193677159708800E-1    4.279022060904151E-1
 8.196923136250000E9    -1.844995645265046E-1    5.032737317805072E-1   -3.040845029527377E-3   -8.045593069534142E-4   -3.109759765884239E-3   -6.884319936437881E-4   -1.189771136768278E-1    4.280252878932286E-1
