#  HZ   S   RI   R     50.00 
! Rohde & Schwarz Vector Network Analyzer 
! Rohde-Schwarz,ZNB20-2Port,1311601062101988,3.16
! Created: UTC 3/20/2024, 5:05:14 PM
! freq[Hz]                re:S11                  im:S11                  re:S21                  im:S21                  re:S12                  im:S12                  re:S22                  im:S22
 8.166198847000000E9     4.918896164438997E-1   -2.297799037234362E-1    1.414844500961921E-3    1.940264925394406E-3    1.393686635580765E-3    1.976873777570566E-3    3.707033734169568E-1   -3.133726564167985E-1
 8.166339904125000E9     4.879587468951598E-1   -2.384114777991392E-1    1.439701408875621E-3    1.925138153876216E-3    1.453170878870244E-3    1.953600007042406E-3    3.651805877031654E-1   -3.194711327293877E-1
 8.166480961250000E9     4.837099927208555E-1   -2.467667122161541E-1    1.475805013648337E-3    1.882174614711789E-3    1.485235728078820E-3    1.918735553470695E-3    3.595377316920960E-1   -3.255414312164862E-1
 8.166622018375000E9     4.793613378549185E-1   -2.553675561671951E-1    1.526120477492136E-3    1.863864964300110E-3    1.508539151646201E-3    1.924892517403164E-3    3.537414040567942E-1   -3.314802669698281E-1
 8.166763075500000E9     4.747832843454913E-1   -2.637616793373079E-1    1.529729252741327E-3    1.832178622570965E-3    1.525417592476680E-3    1.846207543001933E-3    3.479832249369511E-1   -3.371994068393780E-1
 8.166904132625000E9     4.702089383914086E-1   -2.720081209609512E-1    1.573243511367796E-3    1.784203550528989E-3    1.565022893392194E-3    1.831998478500344E-3    3.419626073149194E-1   -3.431305261763286E-1
 8.167045189750000E9     4.654012505544577E-1   -2.804411691451100E-1    1.581705940380908E-3    1.761845456330623E-3    1.588058558881648E-3    1.824519787184001E-3    3.357569883360292E-1   -3.486245299157548E-1
 8.167186246875000E9     4.605898240464644E-1   -2.884136000736141E-1    1.635167015830629E-3    1.724261458557200E-3    1.653084569418043E-3    1.782148655172749E-3    3.296976593047216E-1   -3.542907879821148E-1
 8.167327304000000E9     4.554286274023144E-1   -2.964088556938850E-1    1.646170468061222E-3    1.676809548486964E-3    1.655848746641012E-3    1.770185983777708E-3    3.234373959182751E-1   -3.595920612240492E-1
 8.167468361125000E9     4.501665429288355E-1   -3.044598524349783E-1    1.681418981420883E-3    1.624008594968609E-3    1.690691006381448E-3    1.720026929214579E-3    3.171514400852621E-1   -3.651147731304359E-1
 8.167609418250000E9     4.446667613968434E-1   -3.123235436117217E-1    1.714095138239905E-3    1.635289666847500E-3    1.731965100959885E-3    1.716115301275226E-3    3.106846148182734E-1   -3.701804060119549E-1
 8.167750475375000E9     4.392792034153513E-1   -3.200814061704091E-1    1.722250564173554E-3    1.613338403493408E-3    1.747980668544841E-3    1.658785283664804E-3    3.041011835916185E-1   -3.752476667230937E-1
 8.167891532500000E9     4.337314100061478E-1   -3.277197231824504E-1    1.772425299898922E-3    1.585013487033181E-3    1.795704923997320E-3    1.624608412211851E-3    2.974031489770403E-1   -3.803101237097440E-1
 8.168032589625000E9     4.278075620989084E-1   -3.353521688097144E-1    1.782088308535977E-3    1.552666579237135E-3    1.793192120571703E-3    1.550709136658783E-3    2.909170006462572E-1   -3.851567762493903E-1
 8.168173646750000E9     4.219236673028355E-1   -3.428666576299451E-1    1.800328502063697E-3    1.500275700143002E-3    1.824265601587867E-3    1.560239658712502E-3    2.841093199801797E-1   -3.898850634260509E-1
 8.168314703875000E9     4.159563471871514E-1   -3.503110181086452E-1    1.820474948384424E-3    1.489354722049822E-3    1.841186544159152E-3    1.534164789245867E-3    2.774776721523228E-1   -3.945094197965657E-1
 8.168455761000000E9     4.097273705836804E-1   -3.575476653634554E-1    1.845683830821729E-3    1.438794797561555E-3    1.883816324711036E-3    1.482915078704510E-3    2.704145084886033E-1   -3.988850435410227E-1
 8.168596818125000E9     4.033866230537285E-1   -3.645577282376115E-1    1.868157361262034E-3    1.407106399366689E-3    1.921011959526120E-3    1.462345820173279E-3    2.635707282094644E-1   -4.032858595462240E-1
 8.168737875250000E9     3.969609426698920E-1   -3.716863547013646E-1    1.905491341748832E-3    1.347705364053113E-3    1.906281831547765E-3    1.435915430323835E-3    2.565076986844509E-1   -4.076946480616173E-1
 8.168878932375000E9     3.903675985417335E-1   -3.786238363670709E-1    1.943298286442578E-3    1.331417197916830E-3    1.945489574441741E-3    1.369561319067485E-3    2.493025436871479E-1   -4.115919094083709E-1
 8.169019989500000E9     3.837376781560769E-1   -3.854777244034429E-1    1.923238758931908E-3    1.310809517224788E-3    1.961963198842397E-3    1.368471004953593E-3    2.420066764010235E-1   -4.157697401698743E-1
 8.169161046625000E9     3.768464861801739E-1   -3.922208610500988E-1    1.968795069148049E-3    1.279232160146665E-3    1.987573659944162E-3    1.333094357189760E-3    2.349915801536352E-1   -4.196839930047332E-1
 8.169302103750000E9     3.700817837712760E-1   -3.987367229365055E-1    1.956248430375303E-3    1.252168483239088E-3    2.006885560210215E-3    1.271204321880031E-3    2.275499418288718E-1   -4.232717358643049E-1
 8.169443160875000E9     3.629104260423687E-1   -4.052856911603512E-1    1.992044884385392E-3    1.201046430589299E-3    2.045150943022554E-3    1.218053708066974E-3    2.202578855309885E-1   -4.270182069891449E-1
 8.169584218000000E9     3.558252631866584E-1   -4.115317273043242E-1    2.025909704763278E-3    1.159485261743872E-3    2.050072410207366E-3    1.198138806414792E-3    2.128591504199174E-1   -4.305298758279031E-1
 8.169725275125000E9     3.485477042403212E-1   -4.177694046280798E-1    2.054630465106504E-3    1.145005260568837E-3    2.079385917161687E-3    1.135553602179554E-3    2.053834689053653E-1   -4.338417522752595E-1
 8.169866332250000E9     3.410832818947599E-1   -4.237819043428950E-1    2.047117931111455E-3    1.113698176104094E-3    2.123283572904660E-3    1.140080480518927E-3    1.979777713248163E-1   -4.372135503549510E-1
 8.170007389375000E9     3.335822540918305E-1   -4.297323560784161E-1    2.061119739776185E-3    1.068002967106977E-3    2.136321669525883E-3    1.080152995509587E-3    1.904121468228843E-1   -4.402572434921589E-1
 8.170148446500000E9     3.261108571047044E-1   -4.356346906927283E-1    2.064143341126731E-3    1.009294157310295E-3    2.153256847407645E-3    1.088893129633776E-3    1.827307166984798E-1   -4.432150567602922E-1
 8.170289503625000E9     3.184486340828294E-1   -4.412372717827481E-1    2.082929499938309E-3    9.878484615555858E-4    2.149523075103332E-3    1.010818620282535E-3    1.751493521866938E-1   -4.461213559379860E-1
 8.170430560750000E9     3.106219376381903E-1   -4.467213422984233E-1    2.113227688662856E-3    9.400987351309152E-4    2.129538619011170E-3    9.549967393685730E-4    1.674857188077244E-1   -4.488283072484680E-1
 8.170571617875000E9     3.026589024741255E-1   -4.522316581171177E-1    2.132993300323099E-3    8.879392386998056E-4    2.196933231651870E-3    9.312093183540740E-4    1.596469110561852E-1   -4.513172919447779E-1
 8.170712675000000E9     2.947807839513075E-1   -4.575614132078871E-1    2.131166617311019E-3    8.570463596458735E-4    2.161200802338809E-3    9.033749334997374E-4    1.519830569127326E-1   -4.540383120557386E-1
 8.170853732125000E9     2.865920930817128E-1   -4.627034119491660E-1    2.155505190128024E-3    8.429591441888728E-4    2.171566472423664E-3    8.340906037235945E-4    1.440157481958077E-1   -4.561427237560429E-1
 8.170994789250000E9     2.783693852476418E-1   -4.676220862357782E-1    2.167190818608636E-3    8.140912564581968E-4    2.207301926642449E-3    8.206667777336062E-4    1.362866205201346E-1   -4.584800152423228E-1
 8.171135846375000E9     2.701836768487846E-1   -4.725289693204837E-1    2.172285156376397E-3    7.646659431908734E-4    2.225022744327807E-3    8.072588217811810E-4    1.283906070950067E-1   -4.604892643434643E-1
 8.171276903500000E9     2.617886347441972E-1   -4.771645623586619E-1    2.183871526458966E-3    7.040339774595796E-4    2.235593968125488E-3    7.138091315567908E-4    1.204423975864004E-1   -4.624730619734704E-1
 8.171417960625000E9     2.534602573636479E-1   -4.817200925712458E-1    2.212367714097567E-3    7.108303068697445E-4    2.210097604060195E-3    7.309910904370018E-4    1.124044169673934E-1   -4.641661103993120E-1
 8.171559017750000E9     2.449209609682144E-1   -4.861041615955295E-1    2.209643683458285E-3    6.335812666340173E-4    2.243543089973932E-3    6.588484756268504E-4    1.044725831108405E-1   -4.657542655223219E-1
 8.171700074875000E9     2.362868345035602E-1   -4.902343656169609E-1    2.204956750173004E-3    6.101425579477100E-4    2.277093810411262E-3    6.358447042960285E-4    9.652960650199889E-2   -4.674427931486106E-1
 8.171841132000000E9     2.275841015248921E-1   -4.945563717759652E-1    2.216797384971558E-3    5.409541627965200E-4    2.276682231750150E-3    6.225566652925838E-4    8.848043824437775E-2   -4.687273543887607E-1
 8.171982189125000E9     2.188931741485718E-1   -4.984984197421137E-1    2.215509741065785E-3    5.414740933589740E-4    2.249070959010947E-3    5.386369396656826E-4    8.048100051958799E-2   -4.700825544734546E-1
 8.172123246250000E9     2.100299488551294E-1   -5.022244035813912E-1    2.221849811235174E-3    5.092414775822257E-4    2.290788657325553E-3    5.377581265593882E-4    7.234395666635149E-2   -4.711049275602252E-1
 8.172264303375000E9     2.011943214589066E-1   -5.058998522280187E-1    2.248302641397478E-3    4.621145416666617E-4    2.320661609268899E-3    4.808586667663627E-4    6.451904589277889E-2   -4.721090364956026E-1
 8.172405360500000E9     1.922242397304519E-1   -5.094047363400067E-1    2.245469913170697E-3    4.254363933084482E-4    2.326502085561423E-3    4.306771728166085E-4    5.643196272092719E-2   -4.728256698283568E-1
 8.172546417625000E9     1.831686209861186E-1   -5.127494862962569E-1    2.272864277764295E-3    3.599025116754951E-4    2.322552323856290E-3    4.000222551056494E-4    4.836320459582744E-2   -4.735604197725614E-1
 8.172687474750000E9     1.740761591532661E-1   -5.157451930407629E-1    2.268464093386352E-3    3.263332602617288E-4    2.293835967819313E-3    3.111249524398922E-4    4.022753484310895E-2   -4.740158176856441E-1
 8.172828531875000E9     1.650039253059943E-1   -5.187956197755184E-1    2.287064830791837E-3    2.939122684929772E-4    2.286936715415657E-3    3.139965779588521E-4    3.213002179814319E-2   -4.746440500511119E-1
 8.172969589000000E9     1.558622032432078E-1   -5.217275722079062E-1    2.270117178921983E-3    2.585986034655448E-4    2.299743495816569E-3    2.422450349845476E-4    2.394076140223721E-2   -4.750328191254944E-1
 8.173110646125000E9     1.464894489947509E-1   -5.243551897838865E-1    2.251733174705125E-3    2.215254598445207E-4    2.321209656811979E-3    2.039151801267874E-4    1.590650988657452E-2   -4.749971586856130E-1
 8.173251703250000E9     1.371662964982122E-1   -5.267737562371787E-1    2.268867846103900E-3    1.615498174946491E-4    2.319925172558623E-3    1.621156951466494E-4    7.929862332785529E-3   -4.752032407747604E-1
 8.173392760375000E9     1.279128701833298E-1   -5.292089491094244E-1    2.257012069350217E-3    1.309524031558122E-4    2.362091242497994E-3    1.267889444373940E-4   -2.621633956295711E-4   -4.749460019687706E-1
 8.173533817500000E9     1.185292953818366E-1   -5.313859136551805E-1    2.276803668293288E-3    1.047506341905838E-4    2.287958227922887E-3    1.002929240233882E-4   -8.258036780183092E-3   -4.746496282624760E-1
 8.173674874625000E9     1.091101854612468E-1   -5.333992863256575E-1    2.268727458526738E-3    4.118524883621539E-5    2.316711335692466E-3    6.696834067314329E-5   -1.646055643236067E-2   -4.743094206806455E-1
 8.173815931750000E9     9.963522467425640E-2   -5.351828568768902E-1    2.270736849472554E-3    2.210149556911784E-5    2.323760641943863E-3    6.102574177697345E-6   -2.443357496050517E-2   -4.736877922295141E-1
 8.173956988875000E9     9.020836039685928E-2   -5.369270890264198E-1    2.266978036621639E-3   -1.192598025463297E-5    2.320453841817545E-3   -3.610081529987098E-5   -3.234413180906091E-2   -4.729373365307227E-1
 8.174098046000000E9     8.062427189878714E-2   -5.385052599958997E-1    2.279170035119391E-3   -3.337864666035633E-5    2.344466365629377E-3   -6.911505458841256E-5   -4.047168599563609E-2   -4.723768703371576E-1
 8.174239103125000E9     7.122451585607563E-2   -5.398906195675102E-1    2.282537000319342E-3   -8.320478570526691E-5    2.338871327383058E-3   -9.070929547691770E-5   -4.847833533715657E-2   -4.712188077866739E-1
 8.174380160250000E9     6.143191756341456E-2   -5.409090620566817E-1    2.242619668317620E-3   -1.094196727723166E-4    2.335302083952899E-3   -1.436117047123584E-4   -5.654973974150138E-2   -4.702250064464404E-1
 8.174521217375000E9     5.197304146736997E-2   -5.418514638772025E-1    2.227084355460846E-3   -1.957682118338958E-4    2.337691368004267E-3   -2.027058348819053E-4   -6.447876832893858E-2   -4.690619156563509E-1
 8.174662274500000E9     4.233052646007989E-2   -5.427476107081383E-1    2.239854741646468E-3   -2.103810773985365E-4    2.309891968501357E-3   -2.133427878955833E-4   -7.250213558377587E-2   -4.677540707287440E-1
 8.174803331625000E9     3.268895944091346E-2   -5.434364331893218E-1    2.262430079216573E-3   -2.447056178575724E-4    2.286554683784817E-3   -2.322775589615656E-4   -8.026258630481511E-2   -4.661572645725560E-1
 8.174944388750000E9     2.312913884976983E-2   -5.439558460856833E-1    2.255991986071466E-3   -2.793809877023398E-4    2.316276959011481E-3   -2.776667184346746E-4   -8.829348385284803E-2   -4.646014041201482E-1
 8.175085445875000E9     1.335730568850077E-2   -5.442508055507878E-1    2.236394813915365E-3   -3.518536945176138E-4    2.304355100311573E-3   -3.178174492436336E-4   -9.608495242720558E-2   -4.629416595028419E-1
 8.175226503000000E9     3.736174810049662E-3   -5.443508188710880E-1    2.248738876199923E-3   -3.481631745605824E-4    2.307749727820154E-3   -3.744993395124305E-4   -1.038404654402724E-1   -4.609231249731354E-1
 8.175367560125000E9    -5.882569259100819E-3   -5.443449698168512E-1    2.232982254686915E-3   -3.952783693247662E-4    2.303447335483539E-3   -4.135310824150551E-4   -1.115481162264446E-1   -4.591389796014269E-1
 8.175508617250000E9    -1.567959930935784E-2   -5.441024631369118E-1    2.194092731923507E-3   -4.514935834115301E-4    2.286506347163844E-3   -4.803170147160923E-4   -1.193154290369646E-1   -4.569842440769792E-1
 8.175649674375000E9    -2.521387540915285E-2   -5.436795502825881E-1    2.167287845294516E-3   -4.734635162785190E-4    2.268831964897278E-3   -4.908925999801428E-4   -1.268789280739243E-1   -4.546255812014309E-1
 8.175790731500000E9    -3.483581182164657E-2   -5.433309976294383E-1    2.186097123215616E-3   -4.984812282184104E-4    2.245602709023139E-3   -5.552977442133586E-4   -1.346156557239017E-1   -4.522684787379153E-1
 8.175931788625000E9    -4.453193314735633E-2   -5.425344286161849E-1    2.184806052389286E-3   -5.313941554986285E-4    2.251987291271021E-3   -5.708757951368995E-4   -1.421842368434059E-1   -4.498414178008676E-1
 8.176072845750000E9    -5.424286570188633E-2   -5.416880440508475E-1    2.141378092904905E-3   -5.808581220661052E-4    2.222240792790373E-3   -6.331877668499158E-4   -1.499318928232303E-1   -4.469202889697133E-1
 8.176213902875000E9    -6.388673058906938E-2   -5.405306703705031E-1    2.124951736703819E-3   -6.277754790686137E-4    2.207689038168052E-3   -6.524066693356518E-4   -1.572433998211293E-1   -4.444063961206665E-1
 8.176354960000000E9    -7.334011689506036E-2   -5.392919445919866E-1    2.124398785701557E-3   -6.777066639655048E-4    2.234838875149166E-3   -6.630029065661405E-4   -1.648460014691329E-1   -4.413515050580488E-1
 8.176496017125000E9    -8.301058961428411E-2   -5.379196381582526E-1    2.137231119259808E-3   -7.071030778317205E-4    2.186767539340111E-3   -7.048053409852654E-4   -1.720245740323645E-1   -4.385098165573686E-1
 8.176637074250000E9    -9.266366690767561E-2   -5.363432082953680E-1    2.131438934735344E-3   -7.323043242505216E-4    2.223660358920795E-3   -7.918478962838787E-4   -1.796061479455524E-1   -4.352820282241592E-1
 8.176778131375000E9    -1.020632355785732E-1   -5.345701257909459E-1    2.119566688585366E-3   -7.784502659508069E-4    2.169590493306189E-3   -8.241372678158957E-4   -1.869612260377222E-1   -4.319565930062261E-1
 8.176919188500000E9    -1.115577447315018E-1   -5.325841022155867E-1    2.097553445796329E-3   -8.265113423019064E-4    2.166204804725337E-3   -8.097192321148109E-4   -1.941197192134449E-1   -4.285234736987716E-1
 8.177060245625000E9    -1.211087291382419E-1   -5.304985940625653E-1    2.067365645552019E-3   -8.213588678021846E-4    2.158920695508438E-3   -8.687928131796273E-4   -2.011684318520161E-1   -4.251126044852268E-1
 8.177201302750000E9    -1.305341603192292E-1   -5.282079549670314E-1    2.102355126521836E-3   -8.904786191892840E-4    2.131473337438506E-3   -9.259001081936845E-4   -2.085158118562559E-1   -4.214105743369895E-1
 8.177342359875000E9    -1.399886795346833E-1   -5.259656418561247E-1    2.064025055376879E-3   -8.842473252445053E-4    2.092652064665779E-3   -9.093560140855853E-4   -2.154561140415112E-1   -4.176304027632647E-1
 8.177483417000000E9    -1.491295592481142E-1   -5.231992829559123E-1    2.021443014689207E-3   -9.391098115199050E-4    2.107335642970250E-3   -1.003756046143377E-3   -2.225483999420426E-1   -4.139244000046635E-1
 8.177624474125000E9    -1.584444689972036E-1   -5.204896002631794E-1    2.014100913963527E-3   -9.854757417604386E-4    2.107115469890774E-3   -1.008171788208617E-3   -2.294709306518791E-1   -4.098274603389361E-1
 8.177765531250000E9    -1.678439247461035E-1   -5.176418609217672E-1    1.995499282274415E-3   -9.765019832102246E-4    2.092628701848523E-3   -1.046163364961816E-3   -2.361551658157292E-1   -4.057644091730482E-1
 8.177906588375000E9    -1.770934973249335E-1   -5.144375367512356E-1    1.961473544010977E-3   -1.075029526186142E-3    2.036121152708591E-3   -1.089530374700672E-3   -2.430449767803189E-1   -4.015880833783756E-1
 8.178047645500000E9    -1.861174576432848E-1   -5.112907913596962E-1    1.966366119556648E-3   -1.074825436470053E-3    2.057050105974856E-3   -1.145816211165612E-3   -2.496954930857809E-1   -3.971742953935541E-1
 8.178188702625000E9    -1.952469479455897E-1   -5.078478836636594E-1    1.954733334238930E-3   -1.121691279341956E-3    2.009278208033777E-3   -1.185522915628312E-3   -2.563565680878849E-1   -3.927709129637615E-1
 8.178329759750000E9    -2.042878941310093E-1   -5.041668288382758E-1    1.922960260041023E-3   -1.158213093845293E-3    2.004049461721829E-3   -1.222575655469477E-3   -2.627920235225385E-1   -3.883075848347458E-1
 8.178470816875000E9    -2.131852608235321E-1   -5.003852062496071E-1    1.910054298797144E-3   -1.181623509839686E-3    1.956301764831439E-3   -1.240468901287461E-3   -2.693105065267971E-1   -3.836455640982498E-1
 8.178611874000000E9    -2.221176068541997E-1   -4.965983386285049E-1    1.893256813631833E-3   -1.191745219040278E-3    1.949853260837702E-3   -1.271184327760786E-3   -2.757881852973253E-1   -3.788085606093233E-1
 8.178752931125000E9    -2.310480864694691E-1   -4.925189966694121E-1    1.899741195869259E-3   -1.242960725633473E-3    1.912341807880440E-3   -1.297909579562873E-3   -2.819401993437192E-1   -3.740595342609901E-1
 8.178893988250000E9    -2.397597862067982E-1   -4.882463550171954E-1    1.839185662529354E-3   -1.273831968676093E-3    1.930881853769544E-3   -1.308078272045196E-3   -2.882291708466715E-1   -3.690652330861260E-1
