#  HZ   S   RI   R     50.00 
! Rohde & Schwarz Vector Network Analyzer 
! Rohde-Schwarz,ZNB20-2Port,1311601062101988,3.16
! Created: UTC 3/20/2024, 4:50:18 PM
! freq[Hz]                re:S11                  im:S11                  re:S21                  im:S21                  re:S12                  im:S12                  re:S22                  im:S22
 8.196433840000000E9    -2.185633236871287E-1    4.902390849108887E-1   -2.692794682495772E-3   -9.257429237836359E-4   -2.789838775772579E-3   -8.483802570441411E-4   -1.457207612761270E-1    4.205294869107611E-1
 8.196438434200000E9    -2.182402360317539E-1    4.904381531512854E-1   -2.701638442157919E-3   -9.432150414874189E-4   -2.785162964072920E-3   -8.597495963425840E-4   -1.453509574874020E-1    4.205525758918847E-1
 8.196443028400000E9    -2.179056234708118E-1    4.907264658029755E-1   -2.696948394429956E-3   -9.142957366618925E-4   -2.787088244835345E-3   -8.269722804942440E-4   -1.451893356491690E-1    4.206542504989318E-1
 8.196447622600000E9    -2.174846071730945E-1    4.907888500105576E-1   -2.695173689421184E-3   -9.298545428256227E-4   -2.808439937284056E-3   -8.588553004558183E-4   -1.448943027805911E-1    4.207177275165941E-1
 8.196452216800000E9    -2.172247307588729E-1    4.909227939629583E-1   -2.687861873028660E-3   -9.319317927670893E-4   -2.787137852064665E-3   -8.405616793146678E-4   -1.446448774983543E-1    4.207925243322100E-1
 8.196456811000000E9    -2.167689609188825E-1    4.908849265928411E-1   -2.694201346642351E-3   -9.394708079565134E-4   -2.807159700111058E-3   -8.435880772877102E-4   -1.443573521722288E-1    4.209683325915666E-1
 8.196461405200000E9    -2.165853058841650E-1    4.911394250467426E-1   -2.709010665510505E-3   -9.411845846361809E-4   -2.804739994450833E-3   -8.695911343279033E-4   -1.440693733122015E-1    4.210765073633104E-1
 8.196465999400000E9    -2.163047771558340E-1    4.913450726613005E-1   -2.727694899146476E-3   -9.405740655751186E-4   -2.778225278752672E-3   -8.559261582631402E-4   -1.438604166917507E-1    4.210224751125570E-1
 8.196470593600000E9    -2.159731475083799E-1    4.914421363081829E-1   -2.688579256084300E-3   -9.398710345165719E-4   -2.816540348317640E-3   -8.399052094326480E-4   -1.437594168140283E-1    4.211103723444178E-1
 8.196475187800000E9    -2.157167778739903E-1    4.914812492557954E-1   -2.719132321348734E-3   -9.430416430692430E-4   -2.764062193201132E-3   -8.304434146466700E-4   -1.434527242675347E-1    4.211924021421723E-1
 8.196479782000000E9    -2.153821693019869E-1    4.916839690098743E-1   -2.727218760829370E-3   -9.205767049503538E-4   -2.808852182583334E-3   -8.513244015845515E-4   -1.430746844760184E-1    4.212340296842386E-1
 8.196484376200000E9    -2.149026316215486E-1    4.917116239530606E-1   -2.737753256672314E-3   -9.259590116708375E-4   -2.800664722541287E-3   -8.539333140945830E-4   -1.427933675228651E-1    4.212795431207941E-1
 8.196488970400000E9    -2.147369201329567E-1    4.918481338380590E-1   -2.746885348668632E-3   -9.138830857764136E-4   -2.814473865569102E-3   -8.187726580757593E-4   -1.428277840999396E-1    4.213255905270404E-1
 8.196493564600000E9    -2.143261281179754E-1    4.921039962733473E-1   -2.713404178258863E-3   -9.300321844649221E-4   -2.803286811972624E-3   -8.665926296819461E-4   -1.424217728599774E-1    4.215797012324122E-1
 8.196498158800000E9    -2.141083368189257E-1    4.921378863756673E-1   -2.725483340409924E-3   -9.302077174666807E-4   -2.856128330205274E-3   -8.615715387749776E-4   -1.422009403339264E-1    4.216664040600251E-1
 8.196502753000000E9    -2.137958512688033E-1    4.922694230830073E-1   -2.707389958510072E-3   -8.899122653924903E-4   -2.825733492311075E-3   -8.416174946768990E-4   -1.419755190469097E-1    4.216523325466145E-1
 8.196507347200000E9    -2.134341139737795E-1    4.924002683108729E-1   -2.706555442851718E-3   -9.288034817470791E-4   -2.834120120401599E-3   -8.641284269187257E-4   -1.417159317279351E-1    4.216675104160523E-1
 8.196511941400000E9    -2.131027636635917E-1    4.925464364193583E-1   -2.749348469471824E-3   -9.090846309212810E-4   -2.804548342390280E-3   -8.268879176461475E-4   -1.414194368486211E-1    4.218146967176916E-1
 8.196516535600000E9    -2.128846910232388E-1    4.926842224247173E-1   -2.720326547622217E-3   -9.308950515228032E-4   -2.808919747373701E-3   -8.303564574133785E-4   -1.411756350250227E-1    4.218503023181218E-1
 8.196521129800000E9    -2.124824897906157E-1    4.929077757173501E-1   -2.723635454727296E-3   -9.161768223915003E-4   -2.791213390591536E-3   -8.396279010767768E-4   -1.409883742002241E-1    4.220074280130122E-1
 8.196525724000000E9    -2.122247239677520E-1    4.929682563541147E-1   -2.727133922491422E-3   -8.932783614785945E-4   -2.844366467108146E-3   -8.232917823968503E-4   -1.407344461356700E-1    4.222686371488772E-1
 8.196530318200000E9    -2.118658561393929E-1    4.931149413843607E-1   -2.735612509305894E-3   -9.238915268654678E-4   -2.842538283996147E-3   -8.217025581257169E-4   -1.403853538879870E-1    4.220547528009275E-1
 8.196534912400000E9    -2.115831037364367E-1    4.932906085944553E-1   -2.745209314561612E-3   -9.000925425933504E-4   -2.809983423918749E-3   -8.323808411470314E-4   -1.402626013264189E-1    4.222708782116766E-1
 8.196539506600000E9    -2.113634927271838E-1    4.934775018764817E-1   -2.729918204541230E-3   -8.873580539491496E-4   -2.836907473646808E-3   -8.346051837666586E-4   -1.399880000248097E-1    4.222503091085706E-1
 8.196544100800000E9    -2.109943455607904E-1    4.934988556166041E-1   -2.769796536702011E-3   -9.081826051023542E-4   -2.855095550800532E-3   -8.152991876241178E-4   -1.396849491205082E-1    4.222560109549287E-1
 8.196548695000000E9    -2.105748514742601E-1    4.935758451273381E-1   -2.740441558273991E-3   -9.266556762775955E-4   -2.860113650758138E-3   -7.908324593569310E-4   -1.394485663887165E-1    4.222603005888687E-1
 8.196553289200000E9    -2.103322384340022E-1    4.937193395866600E-1   -2.754479829362077E-3   -9.237241266981388E-4   -2.844220013326754E-3   -8.145596557844936E-4   -1.392680762785638E-1    4.224395781515909E-1
 8.196557883400000E9    -2.101022488927603E-1    4.937686149846921E-1   -2.753488262727327E-3   -8.996695414320590E-4   -2.832655701466699E-3   -8.278514371231862E-4   -1.388832647914799E-1    4.226068393017552E-1
 8.196562477600000E9    -2.097023880236690E-1    4.939253164179155E-1   -2.741680476933216E-3   -9.402295957349488E-4   -2.841574999912054E-3   -8.166634821776022E-4   -1.389081484594869E-1    4.225788433802671E-1
 8.196567071800000E9    -2.094201588242785E-1    4.940807081193807E-1   -2.743400751192411E-3   -9.003308488977215E-4   -2.831426839751155E-3   -8.152428422935447E-4   -1.385508648629993E-1    4.226475191798417E-1
 8.196571666000000E9    -2.090384706375652E-1    4.941569450050873E-1   -2.776882043357231E-3   -9.041135567300275E-4   -2.831961777881074E-3   -8.097774613775048E-4   -1.380808635297707E-1    4.228091017124593E-1
 8.196576260200000E9    -2.088306372412392E-1    4.942719660903901E-1   -2.757352852287163E-3   -9.097785353525166E-4   -2.876728143199685E-3   -7.734109701766103E-4   -1.379302014054156E-1    4.228612906601733E-1
 8.196580854400000E9    -2.083852930201033E-1    4.944986288885695E-1   -2.769596218014095E-3   -8.822365461278804E-4   -2.822042878359992E-3   -8.021572984016757E-4   -1.376954867935923E-1    4.229349514846351E-1
 8.196585448600000E9    -2.082028163001765E-1    4.945326436767061E-1   -2.795971390139182E-3   -8.917974603361250E-4   -2.837383203269577E-3   -8.287012733615699E-4   -1.376332277939334E-1    4.229055228959843E-1
 8.196590042800000E9    -2.079764604052348E-1    4.946578317257720E-1   -2.772239879730829E-3   -9.041788285675207E-4   -2.895819419906222E-3   -7.887694416921562E-4   -1.372413659043943E-1    4.230878316362554E-1
 8.196594637000000E9    -2.074445215759233E-1    4.948142313501490E-1   -2.771798885664771E-3   -9.018591427956812E-4   -2.857459083841647E-3   -7.890232135889726E-4   -1.368287839409792E-1    4.232122360076411E-1
 8.196599231200000E9    -2.072937803498097E-1    4.949673916817227E-1   -2.766349568024959E-3   -8.728281533191114E-4   -2.856427786189280E-3   -8.073540348752155E-4   -1.368151197466817E-1    4.231601530242785E-1
 8.196603825400000E9    -2.068858676294987E-1    4.950569471439141E-1   -2.762378234798588E-3   -8.809960477998770E-4   -2.850730407721556E-3   -8.167719537963358E-4   -1.365818634917712E-1    4.232498944772824E-1
 8.196608419600000E9    -2.066015771264877E-1    4.952454484139318E-1   -2.775980983059211E-3   -8.777803433810809E-4   -2.847217350245920E-3   -8.119292069469962E-4   -1.362106153265261E-1    4.232793399757910E-1
 8.196613013800000E9    -2.062626178403607E-1    4.953690251120631E-1   -2.782794057386489E-3   -8.807302811225126E-4   -2.878462501840099E-3   -7.961276941636104E-4   -1.359557417878174E-1    4.233810571069024E-1
 8.196617608000000E9    -2.058941250483328E-1    4.954482613674558E-1   -2.809541690743904E-3   -8.895775535498866E-4   -2.905756636265012E-3   -7.762317620169718E-4   -1.358127375636831E-1    4.234785191248123E-1
 8.196622202200000E9    -2.056003473595979E-1    4.957395058016923E-1   -2.801705534670054E-3   -8.730039817919853E-4   -2.893252684200356E-3   -7.883119918874516E-4   -1.353952430722893E-1    4.236415307197240E-1
 8.196626796400000E9    -2.054003447574823E-1    4.958238090609116E-1   -2.772722993063946E-3   -8.608688117822026E-4   -2.877776505472269E-3   -7.832101734801055E-4   -1.350866837089188E-1    4.236104984657960E-1
 8.196631390600000E9    -2.050650397546327E-1    4.957984146122373E-1   -2.773694964457177E-3   -8.697300851340259E-4   -2.904401279672644E-3   -7.850523245587559E-4   -1.350747936815763E-1    4.237078504927084E-1
 8.196635984800000E9    -2.047111637176150E-1    4.959542814483828E-1   -2.791696758529095E-3   -8.718292335499137E-4   -2.854596860110599E-3   -7.319518691085097E-4   -1.349095813941095E-1    4.236389616769098E-1
 8.196640579000000E9    -2.042598366252932E-1    4.960274143243379E-1   -2.806529976297937E-3   -8.696502166350951E-4   -2.904036140964591E-3   -8.193288680889586E-4   -1.343918608632413E-1    4.239352564719550E-1
 8.196645173200000E9    -2.039698576027068E-1    4.963000134990025E-1   -2.791248260245448E-3   -8.966042981487683E-4   -2.924103062593437E-3   -7.815390030005057E-4   -1.341969148739338E-1    4.239086468964677E-1
 8.196649767400000E9    -2.037386772565591E-1    4.964123285380777E-1   -2.789173361105000E-3   -8.945969776741712E-4   -2.857554551476529E-3   -8.167781115678704E-4   -1.340739008649156E-1    4.240097301191882E-1
 8.196654361600000E9    -2.034497435161581E-1    4.963715858653842E-1   -2.810962341098288E-3   -8.736562440448377E-4   -2.919544452780994E-3   -7.745228446083958E-4   -1.336545282276245E-1    4.240731933167267E-1
 8.196658955800000E9    -2.029718644667449E-1    4.965672960395868E-1   -2.816552418913126E-3   -8.751545507500635E-4   -2.896912082404972E-3   -7.856442896210908E-4   -1.335326995668845E-1    4.241626873601271E-1
 8.196663550000000E9    -2.027562800053948E-1    4.966287701477100E-1   -2.803965006961003E-3   -8.657193842586899E-4   -2.920617587913366E-3   -8.033623967455784E-4   -1.333314197302815E-1    4.242227163323892E-1
 8.196668144200000E9    -2.024622132729906E-1    4.968917178879016E-1   -2.813449685168345E-3   -8.768916403400917E-4   -2.897265596904201E-3   -7.907017645598060E-4   -1.330760553655887E-1    4.242368078437412E-1
 8.196672738400000E9    -2.022219624822735E-1    4.969272337036291E-1   -2.844785446818412E-3   -8.736017283427024E-4   -2.932115381948316E-3   -7.997822365233853E-4   -1.326739623604677E-1    4.243057862178964E-1
 8.196677332600000E9    -2.018082817570462E-1    4.970252774802744E-1   -2.800433126086350E-3   -8.522680851820548E-4   -2.904458621807345E-3   -8.150930703088518E-4   -1.324210447598752E-1    4.244233159734767E-1
 8.196681926800000E9    -2.015305031595715E-1    4.971596953999123E-1   -2.836887576193018E-3   -8.806501950723200E-4   -2.938396545017468E-3   -7.641106494649200E-4   -1.322871992688912E-1    4.244989967409913E-1
 8.196686521000000E9    -2.012591084071761E-1    4.972654588602326E-1   -2.857481123494422E-3   -8.501822050367046E-4   -2.908751759890958E-3   -7.702401814455881E-4   -1.318772021249074E-1    4.245990528429985E-1
 8.196691115200000E9    -2.009532391230636E-1    4.973585177605667E-1   -2.846741902732471E-3   -8.639323488456997E-4   -2.923961252883039E-3   -7.883859569623424E-4   -1.318764326325511E-1    4.246237270098106E-1
 8.196695709400000E9    -2.006308717034558E-1    4.974926005260146E-1   -2.819940854277930E-3   -8.775201949411642E-4   -2.944489011187327E-3   -7.816187882331398E-4   -1.315909410529348E-1    4.246200100578715E-1
 8.196700303600000E9    -2.002746536140800E-1    4.976602119240507E-1   -2.844144116635517E-3   -8.557498047720222E-4   -2.957623825138550E-3   -7.501039099904422E-4   -1.312068490380077E-1    4.246815130841217E-1
 8.196704897800000E9    -2.000844536988098E-1    4.977663300876636E-1   -2.816276629060289E-3   -8.568811377918641E-4   -2.923337799337975E-3   -7.693684196288577E-4   -1.309668641796103E-1    4.246843259284696E-1
 8.196709492000000E9    -1.995405094450381E-1    4.977620262920532E-1   -2.818934379209529E-3   -8.638425260728020E-4   -2.919440414146891E-3   -7.729082404927807E-4   -1.308974719800192E-1    4.248668264757517E-1
 8.196714086200000E9    -1.992562918992515E-1    4.980434722482202E-1   -2.867642895922755E-3   -8.692379070602380E-4   -2.960103204791858E-3   -7.819353472889255E-4   -1.305187820008502E-1    4.249934618440669E-1
 8.196718680400000E9    -1.989620533598463E-1    4.981344900952179E-1   -2.871197745778852E-3   -8.795924913608463E-4   -2.940723017516703E-3   -7.784578384101425E-4   -1.303450734147685E-1    4.248669181226954E-1
 8.196723274600000E9    -1.986318626616919E-1    4.981964925754682E-1   -2.834625703574355E-3   -8.421746759768456E-4   -2.955855699815534E-3   -7.533161590639269E-4   -1.300423843914437E-1    4.251960610535958E-1
 8.196727868800000E9    -1.983321300902214E-1    4.982826144410140E-1   -2.843450767589801E-3   -8.724668713285629E-4   -2.971223192494881E-3   -7.718879303465736E-4   -1.297933638020081E-1    4.252684742187305E-1
 8.196732463000000E9    -1.981330993179366E-1    4.984708255425947E-1   -2.874261022566317E-3   -8.456204875928697E-4   -2.965688468413395E-3   -7.388937813056079E-4   -1.295815592801802E-1    4.251155636902340E-1
 8.196737057200000E9    -1.977076919751267E-1    4.984354882134150E-1   -2.840590404485533E-3   -8.431429890839063E-4   -2.972142061486903E-3   -7.260918346033812E-4   -1.292252009749206E-1    4.253014969651889E-1
 8.196741651400000E9    -1.974219370939432E-1    4.987603003516712E-1   -2.892522318175787E-3   -8.420008970383812E-4   -2.965756314298596E-3   -7.353747543651952E-4   -1.290821891256483E-1    4.253075159623925E-1
 8.196746245600000E9    -1.970407822142657E-1    4.989483004707381E-1   -2.860852415718863E-3   -8.714005090359343E-4   -2.983564897502447E-3   -7.601691002112254E-4   -1.287595036415267E-1    4.253431481502783E-1
 8.196750839800000E9    -1.967386351834113E-1    4.990165001479835E-1   -2.879326651748601E-3   -8.153954577464360E-4   -2.951999028792954E-3   -7.423820843806712E-4   -1.285694474991984E-1    4.254592248934372E-1
 8.196755434000000E9    -1.962988635228117E-1    4.991261577667034E-1   -2.896427738374745E-3   -8.559559215457632E-4   -2.962591223930096E-3   -7.571077140739284E-4   -1.283009740769555E-1    4.255778823418223E-1
 8.196760028200000E9    -1.961022700499965E-1    4.992007766306307E-1   -2.870634532931321E-3   -8.410636973288513E-4   -2.972659938445203E-3   -7.801131120713323E-4   -1.279652844406282E-1    4.256908153561131E-1
 8.196764622400000E9    -1.957265154738708E-1    4.992859001846939E-1   -2.879058322660572E-3   -8.127550406548716E-4   -2.959775942709256E-3   -7.568440147282177E-4   -1.278221859887513E-1    4.256153710142948E-1
 8.196769216600000E9    -1.954922249028619E-1    4.995153033401072E-1   -2.893334945876630E-3   -8.372259319072707E-4   -3.006458247614107E-3   -7.437513770178689E-4   -1.275686342018745E-1    4.257927804735546E-1
 8.196773810800000E9    -1.951944829755834E-1    4.995307938798580E-1   -2.904683358325239E-3   -8.592615044437020E-4   -2.968559313888819E-3   -7.201611199814977E-4   -1.272574320317731E-1    4.259060583338702E-1
 8.196778405000000E9    -1.947462295020761E-1    4.995683453748981E-1   -2.896098411532694E-3   -8.365005831665867E-4   -3.004672644095464E-3   -7.626114604685772E-4   -1.269749099461532E-1    4.258698155989066E-1
 8.196782999200000E9    -1.945016156530995E-1    4.998593671327637E-1   -2.907248113926064E-3   -8.273893720709368E-4   -3.002380928553532E-3   -7.348982085262647E-4   -1.267610952903332E-1    4.260409165025342E-1
 8.196787593400000E9    -1.941160659918814E-1    4.999161746773017E-1   -2.914822847374113E-3   -8.241555862755192E-4   -3.015003523748473E-3   -7.346173007033535E-4   -1.265156370262190E-1    4.259331678045186E-1
 8.196792187600000E9    -1.937999206246787E-1    5.000565706497050E-1   -2.890105785931101E-3   -8.249547784365858E-4   -3.011921811737974E-3   -7.394642651828692E-4   -1.262694077718770E-1    4.261053901580472E-1
 8.196796781800000E9    -1.934536221181521E-1    5.001461995096875E-1   -2.914151708807353E-3   -8.209600450276549E-4   -3.019641664713422E-3   -7.395478372363504E-4   -1.260697395222886E-1    4.260540798573579E-1
 8.196801376000000E9    -1.930979051765280E-1    5.002356082704101E-1   -2.921917361214997E-3   -8.192848499815722E-4   -3.013272251947330E-3   -7.394302949102260E-4   -1.256371164421496E-1    4.261238837241760E-1
 8.196805970200000E9    -1.928318912967798E-1    5.004287483364567E-1   -2.943711511499201E-3   -8.462448675159285E-4   -3.023709199727528E-3   -7.513391736106725E-4   -1.254885560772252E-1    4.263750875455118E-1
 8.196810564400000E9    -1.924842310153155E-1    5.004165671678363E-1   -2.923689240214519E-3   -8.548410691859132E-4   -3.023323561833759E-3   -7.372428714350185E-4   -1.252668367681195E-1    4.263037105802363E-1
 8.196815158600000E9    -1.921864503712100E-1    5.005842188516895E-1   -2.940473667504326E-3   -8.267795831825433E-4   -3.018875672384349E-3   -7.499150223943290E-4   -1.251648616889897E-1    4.264028582807461E-1
 8.196819752800000E9    -1.917773272245371E-1    5.006310954583025E-1   -2.932066093537202E-3   -8.367705027173385E-4   -3.015873646191316E-3   -7.164082635923821E-4   -1.249707321290369E-1    4.264596558266603E-1
 8.196824347000000E9    -1.914925501833332E-1    5.007653654094963E-1   -2.940098321403023E-3   -8.058004175529739E-4   -3.056510237308779E-3   -7.316262127721443E-4   -1.245922215723825E-1    4.265962158179528E-1
 8.196828941200000E9    -1.912767451665761E-1    5.009654184298299E-1   -2.953622550079397E-3   -8.197463401996165E-4   -3.064317768058504E-3   -7.203992011102034E-4   -1.243077035609123E-1    4.266789011982423E-1
 8.196833535400000E9    -1.909251336528486E-1    5.009888641888526E-1   -2.975419469454863E-3   -8.178284010973050E-4   -3.061539718429390E-3   -7.400954024467296E-4   -1.241287327250367E-1    4.267590328475803E-1
 8.196838129600000E9    -1.905332632801223E-1    5.012014339188389E-1   -2.952205895391907E-3   -8.419859118181327E-4   -3.054569333754284E-3   -7.246165498671097E-4   -1.238302328024334E-1    4.267722421302161E-1
 8.196842723800000E9    -1.902551818422152E-1    5.013366165870403E-1   -2.957397861501746E-3   -8.302304275139875E-4   -3.076737765944928E-3   -7.154135318210274E-4   -1.235573072526669E-1    4.267897807599789E-1
 8.196847318000000E9    -1.899219198656061E-1    5.014542852774049E-1   -2.959893970363870E-3   -8.077287073081844E-4   -3.078751522276648E-3   -7.470101763243906E-4   -1.232721241339724E-1    4.268042301703394E-1
