#  HZ   S   RI   R     50.00 
! Rohde & Schwarz Vector Network Analyzer 
! Rohde-Schwarz,ZNB20-2Port,1311601062101988,3.16
! Created: UTC 3/20/2024, 5:05:35 PM
! freq[Hz]                re:S11                  im:S11                  re:S21                  im:S21                  re:S12                  im:S12                  re:S22                  im:S22
 8.171729199000000E9     2.345363639983114E-1   -4.911058280852509E-1    2.223797413891164E-3    6.003164814330165E-4    2.247894625879428E-3    6.492679908657869E-4    9.479816565504234E-2   -4.676010369419253E-1
 8.171845127775000E9     2.274657538558942E-1   -4.946365854113516E-1    2.225401892740894E-3    5.718286389306546E-4    2.283355471790901E-3    5.860842934452398E-4    8.819703059833355E-2   -4.688136464286195E-1
 8.171961056550000E9     2.202334843795739E-1   -4.977503285210358E-1    2.228561682311172E-3    5.270079303933640E-4    2.289479280916558E-3    5.492096747234620E-4    8.157296224094147E-2   -4.697357258814422E-1
 8.172076985325000E9     2.129217923774814E-1   -5.010533298280926E-1    2.229193857756084E-3    4.975586265957043E-4    2.268840658420924E-3    4.830567544464429E-4    7.497147695881932E-2   -4.706988645057316E-1
 8.172192914100000E9     2.057115686640422E-1   -5.040479922920478E-1    2.236491815054948E-3    4.737771626895588E-4    2.297767946661535E-3    4.827920567597478E-4    6.830975570021962E-2   -4.716107027773082E-1
 8.172308842875000E9     1.984157830191776E-1   -5.070360417319469E-1    2.227055246267925E-3    4.352670164478717E-4    2.299496066221329E-3    4.537462075289557E-4    6.169745751286317E-2   -4.722230137661154E-1
 8.172424771650000E9     1.910006389712855E-1   -5.098245117643153E-1    2.240170172920091E-3    3.818156163042680E-4    2.316979619264325E-3    4.406676677424900E-4    5.513321721847486E-2   -4.729331321764433E-1
 8.172540700425000E9     1.836241238564735E-1   -5.123864374017878E-1    2.220775242649691E-3    3.652974299521687E-4    2.345528666497461E-3    3.678952367831150E-4    4.849981104452156E-2   -4.737260093215502E-1
 8.172656629200000E9     1.760620102453691E-1   -5.151530466121853E-1    2.238388708541747E-3    3.584994212420727E-4    2.336122733002833E-3    3.588056616955313E-4    4.169017150170738E-2   -4.741015863857697E-1
 8.172772557975000E9     1.686666949584193E-1   -5.175941697948903E-1    2.231159942486575E-3    2.872285182925749E-4    2.331458798413607E-3    3.451929096064471E-4    3.521682524662658E-2   -4.744833436044119E-1
 8.172888486750000E9     1.610733571681900E-1   -5.200432150058707E-1    2.263338927167951E-3    2.686147115740789E-4    2.314319703808447E-3    2.853044667984431E-4    2.870357486264101E-2   -4.747649484460575E-1
 8.173004415525000E9     1.535213687356827E-1   -5.223929477342092E-1    2.266097005955238E-3    2.644598852550165E-4    2.316611123837401E-3    2.562165503742637E-4    2.189210471936935E-2   -4.748655002906531E-1
 8.173120344300000E9     1.458077572942660E-1   -5.244702163436220E-1    2.265446186136534E-3    2.220831635412394E-4    2.310786512203817E-3    2.573384656813532E-4    1.521558657959666E-2   -4.749878517425616E-1
 8.173236273075000E9     1.382372687519238E-1   -5.264991438990977E-1    2.254333964684491E-3    1.713331063832333E-4    2.320168693266808E-3    1.952935896751773E-4    8.685129914247719E-3   -4.751108221655850E-1
 8.173352201850000E9     1.306369744639231E-1   -5.283670337144910E-1    2.234060409562953E-3    1.488796044681344E-4    2.334273270160466E-3    1.701959369301608E-4    2.010021090485962E-3   -4.750370802914011E-1
 8.173468130625000E9     1.229076645152036E-1   -5.303611946448821E-1    2.294207726903906E-3    1.000556375166641E-4    2.365752554530554E-3    9.463801099637826E-5   -4.718374284034299E-3   -4.748943101211999E-1
 8.173584059400000E9     1.152354721821919E-1   -5.321362121160057E-1    2.271663471449804E-3    1.137057320031449E-4    2.323928265908396E-3    7.499457685022490E-5   -1.126999791365213E-2   -4.744749829129404E-1
 8.173699988175000E9     1.073905405884254E-1   -5.336566445990611E-1    2.286453588865688E-3    4.236881760405953E-5    2.347550989557810E-3    5.473012866779017E-5   -1.783022109181192E-2   -4.742314258849725E-1
 8.173815916950000E9     9.970057355209828E-2   -5.353022002306905E-1    2.273913983866582E-3    4.345178405136581E-6    2.317195255054087E-3    2.481361848401172E-5   -2.447187776046885E-2   -4.737752570984953E-1
 8.173931845725000E9     9.187399043541396E-2   -5.365851142668167E-1    2.279853476401756E-3   -1.702643253322619E-5    2.353315589838268E-3   -8.139334409419943E-6   -3.112508717039577E-2   -4.731066118937865E-1
 8.174047774500000E9     8.393244422406886E-2   -5.379336857237442E-1    2.246940838311519E-3   -5.036167404551003E-5    2.343553825538180E-3   -1.743923028573288E-5   -3.778660424028257E-2   -4.725649728614200E-1
 8.174163703275000E9     7.621793995871964E-2   -5.390953546499633E-1    2.245551635621428E-3   -5.754986474479023E-5    2.318155963244555E-3   -6.836410985927044E-5   -4.434096974013420E-2   -4.718106034159643E-1
 8.174279632050000E9     6.841705972351989E-2   -5.401281646112989E-1    2.296808244563717E-3   -1.070573809690836E-4    2.318916888732381E-3   -1.166245063012347E-4   -5.077383035355903E-2   -4.711410744527483E-1
 8.174395560825000E9     6.054326331843100E-2   -5.409940155898029E-1    2.250103754562657E-3   -1.348215483593025E-4    2.324178477927707E-3   -1.296531680377819E-4   -5.740491783426983E-2   -4.702194428071934E-1
 8.174511489600000E9     5.262036836174618E-2   -5.418537269673150E-1    2.255989150321300E-3   -1.906624214239179E-4    2.320501390573117E-3   -1.848034268441954E-4   -6.399876081590643E-2   -4.689773225047486E-1
 8.174627418375000E9     4.465554461351728E-2   -5.425413977784039E-1    2.236395829801055E-3   -2.053295655357572E-4    2.343539431762535E-3   -1.926749975413377E-4   -7.045874984292548E-2   -4.681797621619287E-1
 8.174743347150000E9     3.683326904433750E-2   -5.431177724378928E-1    2.245847361827893E-3   -2.355601277431940E-4    2.359344366478681E-3   -2.393799951390104E-4   -7.686092437056784E-2   -4.668279939069132E-1
 8.174859275925000E9     2.893439955443676E-2   -5.436284751883218E-1    2.234846892855789E-3   -2.665697901253974E-4    2.325347175497022E-3   -2.797816270401382E-4   -8.349435548372600E-2   -4.655389033554681E-1
 8.174975204700000E9     2.095562285926963E-2   -5.439226008243437E-1    2.212791166155148E-3   -3.043306227483458E-4    2.303331922044832E-3   -3.321574370390910E-4   -8.984388127131095E-2   -4.641781185231273E-1
 8.175091133475000E9     1.292866268703746E-2   -5.443199382635958E-1    2.226568496512011E-3   -3.287829982857807E-4    2.304955328089630E-3   -3.310665587136700E-4   -9.646240060974647E-2   -4.626898167829755E-1
 8.175207062250000E9     5.067781298609451E-3   -5.443420470084174E-1    2.249765267678263E-3   -3.639852844450464E-4    2.269925046838288E-3   -3.644683284296959E-4   -1.026920988301301E-1   -4.612863590808990E-1
 8.175322991025000E9    -2.780112280698385E-3   -5.443365854854599E-1    2.212727127949922E-3   -3.990820968907424E-4    2.294965898907905E-3   -3.702280338768838E-4   -1.092385071927400E-1   -4.597794260180301E-1
 8.175438919800000E9    -1.083060179058311E-2   -5.442905721733703E-1    2.210910924255315E-3   -4.158975903354498E-4    2.290599226920975E-3   -4.397677402004647E-4   -1.155851305491718E-1   -4.579354070549567E-1
 8.175554848575000E9    -1.873538902278904E-2   -5.440529333961005E-1    2.220777014114531E-3   -4.376134505496040E-4    2.302203579262706E-3   -4.999067227932786E-4   -1.218872312316755E-1   -4.561667187983837E-1
 8.175670777350000E9    -2.669264283934088E-2   -5.436556221760657E-1    2.202660663909392E-3   -4.815285728185737E-4    2.283507829942271E-3   -5.153699650285434E-4   -1.282525146025130E-1   -4.543351390990513E-1
 8.175786706125000E9    -3.472756164468360E-2   -5.430882997757406E-1    2.194744187683310E-3   -5.161320428026519E-4    2.232081264025357E-3   -5.283508666648058E-4   -1.343980649414114E-1   -4.524379523193841E-1
 8.175902634900000E9    -4.255982037638544E-2   -5.427021425155347E-1    2.176658514499412E-3   -5.399979394938723E-4    2.263140402084811E-3   -5.870872024412382E-4   -1.408722273657866E-1   -4.501575109218023E-1
 8.176018563675000E9    -5.040760625208081E-2   -5.418868277970499E-1    2.186193015678867E-3   -6.041001398429950E-4    2.252667463215126E-3   -5.857256606275443E-4   -1.469107533851265E-1   -4.482037193632459E-1
 8.176134492450000E9    -5.846616373262235E-2   -5.411570871293474E-1    2.182562105978123E-3   -5.798113223571962E-4    2.239281658261513E-3   -6.310647745766609E-4   -1.530381988884952E-1   -4.458288087262431E-1
 8.176250421225000E9    -6.624919524137864E-2   -5.402285214534008E-1    2.128629561419543E-3   -6.247668720828027E-4    2.234982833262872E-3   -6.554812914610460E-4   -1.595032227493037E-1   -4.434390945350006E-1
 8.176366350000000E9    -7.419715500497615E-2   -5.391728907242552E-1    2.125588205223516E-3   -6.583504889918095E-4    2.229555629826239E-3   -7.119489823500244E-4   -1.654998420060607E-1   -4.409240506603865E-1
 8.176482278775000E9    -8.205046417809571E-2   -5.381196757663282E-1    2.138150926899410E-3   -6.846607389744570E-4    2.186313503479221E-3   -7.575883792271737E-4   -1.715212001190988E-1   -4.386992051749718E-1
 8.176598207550000E9    -8.985202059879022E-2   -5.367920639194858E-1    2.123540174139767E-3   -7.205382684202081E-4    2.188612573962223E-3   -7.462756150461151E-4   -1.776807207622271E-1   -4.360005809041334E-1
 8.176714136325000E9    -9.773692612571259E-2   -5.355052377374047E-1    2.117281086463130E-3   -7.696831919743663E-4    2.165792706618518E-3   -7.873635888722392E-4   -1.835060878353657E-1   -4.334910291669938E-1
 8.176830065100000E9    -1.054785065634156E-1   -5.339964132460342E-1    2.108682548727942E-3   -7.672358679909453E-4    2.176589404314508E-3   -8.253645331054580E-4   -1.896520233083756E-1   -4.305527094618385E-1
 8.176945993875000E9    -1.134074842442253E-1   -5.322566428192904E-1    2.129681378491776E-3   -8.211333021459112E-4    2.162332626566398E-3   -8.033547387902594E-4   -1.955185599483237E-1   -4.279088781868555E-1
 8.177061922650000E9    -1.212966921508458E-1   -5.304678026162575E-1    2.091251881599746E-3   -8.575575165887695E-4    2.135970891031485E-3   -8.938643877213881E-4   -2.013759262957864E-1   -4.249795527756843E-1
 8.177177851425000E9    -1.288688769967248E-1   -5.288631406016706E-1    2.079125620021963E-3   -8.922431109173335E-4    2.110815728166842E-3   -8.983770854266209E-4   -2.073435678008846E-1   -4.220026494316984E-1
 8.177293780200000E9    -1.366414518401841E-1   -5.266281568016347E-1    2.080821854748301E-3   -8.716191977623911E-4    2.116079514956537E-3   -9.451136138783285E-4   -2.132182884603374E-1   -4.189855163427453E-1
 8.177409708975000E9    -1.443413061946551E-1   -5.247284489393893E-1    2.031919107959989E-3   -9.367232523801164E-4    2.138199414056918E-3   -9.462119971710911E-4   -2.189931269791537E-1   -4.158209340298165E-1
 8.177525637750000E9    -1.519883639779261E-1   -5.224518194790527E-1    1.988149230527220E-3   -9.424331108435380E-4    2.118689972519433E-3   -1.018920949015161E-3   -2.245570291576751E-1   -4.125714070699283E-1
 8.177641566525000E9    -1.596376567285123E-1   -5.201757274429132E-1    2.040095858946862E-3   -9.812169171674748E-4    2.074022969780416E-3   -1.051825192606617E-3   -2.302432233477847E-1   -4.092720523374245E-1
 8.177757495300000E9    -1.672342040539462E-1   -5.177092536057395E-1    1.995391756704808E-3   -1.016242769189456E-3    2.069709606046011E-3   -1.060211219008151E-3   -2.358766986856079E-1   -4.059491464704592E-1
 8.177873424075000E9    -1.748308860798561E-1   -5.151502833709151E-1    1.995304285565831E-3   -1.049364657460342E-3    2.061027110356354E-3   -1.116245988535063E-3   -2.415471944142334E-1   -4.024608272018077E-1
 8.177989352850000E9    -1.822766085680468E-1   -5.126270625989818E-1    1.980636547241260E-3   -1.076170502834013E-3    2.060378184198896E-3   -1.109931990220569E-3   -2.470351908531148E-1   -3.991611981124956E-1
 8.178105281625000E9    -1.899634645621999E-1   -5.099188334418719E-1    1.953398310945827E-3   -1.101779961616210E-3    2.028647456274619E-3   -1.135467569426834E-3   -2.525464981128580E-1   -3.954890390785213E-1
 8.178221210400000E9    -1.972573512674841E-1   -5.071091463534609E-1    1.930688478757507E-3   -1.152701289162929E-3    2.036558599163673E-3   -1.167289952138830E-3   -2.580145232275738E-1   -3.916113944898633E-1
 8.178337139175000E9    -2.047547413964735E-1   -5.040324705933596E-1    1.905740732550991E-3   -1.163182002917782E-3    1.983097594054710E-3   -1.197050142587557E-3   -2.632782793269074E-1   -3.878821396177179E-1
 8.178453067950000E9    -2.120898769845495E-1   -5.008893004142703E-1    1.880575412008234E-3   -1.157515051914066E-3    1.958889391629358E-3   -1.203077583623225E-3   -2.686051174140243E-1   -3.841240476961720E-1
 8.178568996725000E9    -2.195855133703892E-1   -4.977235263422045E-1    1.873874628008618E-3   -1.212208630015760E-3    1.942329351319664E-3   -1.253204733573390E-3   -2.738864983561528E-1   -3.803911683875081E-1
 8.178684925500000E9    -2.266469481794319E-1   -4.944915295089171E-1    1.891870373330331E-3   -1.224414048897573E-3    1.930110736389839E-3   -1.291801213947988E-3   -2.790392216328113E-1   -3.762905014662761E-1
 8.178800854275000E9    -2.338709652880355E-1   -4.911812726370124E-1    1.848125158064718E-3   -1.239257009130080E-3    1.924502214673508E-3   -1.309012818897677E-3   -2.841290303531843E-1   -3.722136285767375E-1
 8.178916783050000E9    -2.410962215041295E-1   -4.874496515510441E-1    1.833355162551147E-3   -1.283655527377058E-3    1.939162780078355E-3   -1.321197882528162E-3   -2.892191315953281E-1   -3.681089584595685E-1
 8.179032711825000E9    -2.482595045741540E-1   -4.838555910514417E-1    1.841416050763749E-3   -1.337023145309638E-3    1.890025432135732E-3   -1.371380470721934E-3   -2.943203378355597E-1   -3.639359857893442E-1
 8.179148640600000E9    -2.553843186083123E-1   -4.803213544879730E-1    1.814595376462496E-3   -1.310564994066271E-3    1.867684853686898E-3   -1.382460795079478E-3   -2.993315274586693E-1   -3.598240835053929E-1
 8.179264569375000E9    -2.623522875624333E-1   -4.763916961952381E-1    1.827510427032223E-3   -1.365882235170320E-3    1.802423850213829E-3   -1.417883186551438E-3   -3.042690819142221E-1   -3.552657533606737E-1
 8.179380498150000E9    -2.694282573237495E-1   -4.724483096172402E-1    1.777866009541865E-3   -1.375444978249595E-3    1.807360401197812E-3   -1.461650870908551E-3   -3.091696170287386E-1   -3.509494586245946E-1
 8.179496426925000E9    -2.762197714019060E-1   -4.684946878600512E-1    1.778675042526530E-3   -1.374885596249904E-3    1.798879357171981E-3   -1.466984079751498E-3   -3.138839502049995E-1   -3.465962552816036E-1
 8.179612355700000E9    -2.831165951039255E-1   -4.643032723941471E-1    1.747454950527969E-3   -1.439001402734397E-3    1.792268935713551E-3   -1.530500207158937E-3   -3.183860759064694E-1   -3.420416911918703E-1
 8.179728284475000E9    -2.898989383474476E-1   -4.601706412880200E-1    1.672832661253761E-3   -1.447771966394245E-3    1.758318260175291E-3   -1.527874328789237E-3   -3.231901869258132E-1   -3.374819599875817E-1
 8.179844213250000E9    -2.965492575392504E-1   -4.557315932312354E-1    1.680651260131901E-3   -1.465151556316218E-3    1.717726472563848E-3   -1.545149277010559E-3   -3.277794532848319E-1   -3.328569701566328E-1
 8.179960142025000E9    -3.033676690130956E-1   -4.513210245566789E-1    1.649850368977700E-3   -1.491482493218235E-3    1.713331884556595E-3   -1.590173151519287E-3   -3.323597955711416E-1   -3.281616821412993E-1
 8.180076070800000E9    -3.099419800640329E-1   -4.467313706125403E-1    1.636394577070656E-3   -1.521629921813072E-3    1.681130817210520E-3   -1.629490143256511E-3   -3.366754491747407E-1   -3.234146698523891E-1
 8.180191999575000E9    -3.164251179396842E-1   -4.422053799708169E-1    1.620781252868202E-3   -1.560688351412289E-3    1.688117406814619E-3   -1.585977933432000E-3   -3.410522338792652E-1   -3.185853519535686E-1
 8.180307928350000E9    -3.228822788673233E-1   -4.372931890295892E-1    1.608512903089018E-3   -1.587588483801597E-3    1.649580071334822E-3   -1.645932997753225E-3   -3.454010600561178E-1   -3.138042259099594E-1
 8.180423857125000E9    -3.292167984460632E-1   -4.326350163248905E-1    1.572569013663018E-3   -1.597787824186469E-3    1.615970256176510E-3   -1.683555667643628E-3   -3.495439865937229E-1   -3.087250440067141E-1
 8.180539785900000E9    -3.356949687532750E-1   -4.278173459951842E-1    1.562791846847945E-3   -1.627885102007072E-3    1.581640569340384E-3   -1.649223804846305E-3   -3.540200775961121E-1   -3.038569109509264E-1
 8.180655714675000E9    -3.418782823367607E-1   -4.226027626640448E-1    1.538940159758096E-3   -1.642221889546405E-3    1.594265278876423E-3   -1.700751166838123E-3   -3.578834524202419E-1   -2.987669809722213E-1
 8.180771643450000E9    -3.482005666908659E-1   -4.175405990537411E-1    1.531100900726452E-3   -1.671193039576816E-3    1.534944123280100E-3   -1.740331796763411E-3   -3.619973273070498E-1   -2.937297953083065E-1
 8.180887572225000E9    -3.541790557462982E-1   -4.123885585556705E-1    1.497489893566115E-3   -1.693333495122142E-3    1.551080370654756E-3   -1.729610828548887E-3   -3.660547487461144E-1   -2.886587262534188E-1
 8.181003501000000E9    -3.601661346792240E-1   -4.070329898047962E-1    1.492666202512731E-3   -1.697677464253345E-3    1.478608571220362E-3   -1.774035789572711E-3   -3.698142696677298E-1   -2.834372153722439E-1
 8.181119429775000E9    -3.662793625414039E-1   -4.016256830771199E-1    1.463719212062835E-3   -1.731207235091778E-3    1.480194863074271E-3   -1.803451631249490E-3   -3.735649916448172E-1   -2.780971015934464E-1
 8.181235358550000E9    -3.719379081959585E-1   -3.961800453301307E-1    1.419823205476692E-3   -1.726992813782968E-3    1.460053715005840E-3   -1.854768457447598E-3   -3.774248787697013E-1   -2.728853929733790E-1
 8.181351287325000E9    -3.777465066746267E-1   -3.907180799377414E-1    1.411964812644221E-3   -1.764835926579502E-3    1.422564485421566E-3   -1.876657656311789E-3   -3.811948865696964E-1   -2.674218329678117E-1
 8.181467216100000E9    -3.834591380469800E-1   -3.849524436247583E-1    1.369022523068067E-3   -1.784699419887216E-3    1.371928325507106E-3   -1.871243663254452E-3   -3.847282881834995E-1   -2.622119253196468E-1
 8.181583144875000E9    -3.891353005216592E-1   -3.793286239810192E-1    1.329707180935099E-3   -1.819999669008523E-3    1.406784485445109E-3   -1.889860350660578E-3   -3.881919855569602E-1   -2.567252651929054E-1
 8.181699073650000E9    -3.947248392877893E-1   -3.733688140004010E-1    1.352613993404373E-3   -1.825299670503009E-3    1.354173590205130E-3   -1.920568393226938E-3   -3.914666657759169E-1   -2.511043967745900E-1
 8.181815002425000E9    -4.002621346370722E-1   -3.675859948086596E-1    1.287204570555615E-3   -1.838690195323653E-3    1.320657757069792E-3   -1.936817461362061E-3   -3.950504916949205E-1   -2.457344017395192E-1
 8.181930931200000E9    -4.055963911732300E-1   -3.614547372464847E-1    1.266867125847971E-3   -1.873191128912936E-3    1.307563277758303E-3   -1.932302314535678E-3   -3.982945492209577E-1   -2.399911459456047E-1
 8.182046859975000E9    -4.108463330232933E-1   -3.556269968453843E-1    1.241742788074190E-3   -1.895200133883923E-3    1.255707939977872E-3   -1.978553406316134E-3   -4.014714338167975E-1   -2.344062502728683E-1
 8.182162788750000E9    -4.160938362613850E-1   -3.493947646683476E-1    1.223850974298127E-3   -1.891449740514125E-3    1.269110235177323E-3   -1.990730624861193E-3   -4.045568614407487E-1   -2.286777660088375E-1
