#  HZ   S   RI   R     50.00 
! Rohde & Schwarz Vector Network Analyzer 
! Rohde-Schwarz,ZNB20-2Port,1311601062101988,3.16
! Created: UTC 3/20/2024, 4:50:20 PM
! freq[Hz]                re:S11                  im:S11                  re:S21                  im:S21                  re:S12                  im:S12                  re:S22                  im:S22
 8.196402212000000E9    -2.205665599904313E-1    4.894500566944771E-1   -2.686408814155624E-3   -9.463162454657793E-4   -2.770593759352636E-3   -8.679178888553981E-4   -1.473659918330706E-1    4.200657425320226E-1
 8.196406940925000E9    -2.202604821977525E-1    4.894673890665070E-1   -2.646310233773825E-3   -9.312213181416721E-4   -2.766178623856875E-3   -8.892366516236041E-4   -1.470456971335561E-1    4.199507443704581E-1
 8.196411669850000E9    -2.198730387096197E-1    4.897396435040406E-1   -2.686003909667841E-3   -9.463156135385033E-4   -2.773189264655013E-3   -8.349567008413596E-4   -1.467774970020012E-1    4.201996212363658E-1
 8.196416398775000E9    -2.195269409639740E-1    4.898783569027925E-1   -2.690333931384521E-3   -9.311807980407691E-4   -2.768224541644769E-3   -8.693501145909970E-4   -1.466847985474350E-1    4.201012911905466E-1
 8.196421127700000E9    -2.193164889264808E-1    4.899481352718770E-1   -2.710902512449351E-3   -9.291807798480977E-4   -2.776194230413484E-3   -8.310058058456469E-4   -1.463367257382326E-1    4.202254923529088E-1
 8.196425856625000E9    -2.189088201758608E-1    4.902394268701972E-1   -2.677092586111675E-3   -9.216129335544926E-4   -2.784029510777299E-3   -8.467128644363259E-4   -1.460042764222173E-1    4.204761218926414E-1
 8.196430585550000E9    -2.186416134043355E-1    4.903099333594217E-1   -2.693028177352088E-3   -9.053159426363972E-4   -2.784428047435550E-3   -8.811373353742216E-4   -1.457671262187386E-1    4.204285735311495E-1
 8.196435314475000E9    -2.182822302518838E-1    4.904615565125143E-1   -2.687151056723237E-3   -9.321113204424753E-4   -2.770190547932186E-3   -8.546633158505514E-4   -1.456315238761215E-1    4.204748530972043E-1
 8.196440043400000E9    -2.181220462051992E-1    4.905128473538838E-1   -2.708504573994351E-3   -9.253415914454770E-4   -2.765732855695553E-3   -8.527340108628545E-4   -1.453133053526399E-1    4.205782284002545E-1
 8.196444772325000E9    -2.176718060595416E-1    4.906983802494241E-1   -2.690048607512270E-3   -9.467335494317628E-4   -2.772391467347116E-3   -8.589684327484294E-4   -1.450686114053314E-1    4.207208478752207E-1
 8.196449501250000E9    -2.172419609559470E-1    4.907935782975428E-1   -2.704937863042069E-3   -9.585246372302337E-4   -2.792053719509675E-3   -8.608712900443020E-4   -1.449308323980364E-1    4.207400144467096E-1
 8.196454230175000E9    -2.170199638494393E-1    4.908109600916581E-1   -2.690254340317226E-3   -9.328115607823601E-4   -2.807147253074450E-3   -8.678843070697660E-4   -1.446040194902858E-1    4.209392718153000E-1
 8.196458959100000E9    -2.167422992224247E-1    4.910420335938578E-1   -2.697898854813782E-3   -9.297020169546677E-4   -2.797771924443064E-3   -8.478812731415942E-4   -1.444180828608265E-1    4.210081918896676E-1
 8.196463688025000E9    -2.163618008618597E-1    4.913115466833715E-1   -2.695039301306892E-3   -9.311720278533443E-4   -2.802604221862710E-3   -8.300606827744050E-4   -1.441171977305018E-1    4.210044417494664E-1
 8.196468416950000E9    -2.159645475838096E-1    4.913710318714966E-1   -2.684319831792253E-3   -9.236329241857190E-4   -2.791213636984743E-3   -8.505763263043888E-4   -1.437326207019097E-1    4.210821783202499E-1
 8.196473145875000E9    -2.156752601410562E-1    4.914714995891243E-1   -2.699790929756391E-3   -9.177897034322484E-4   -2.812983822690684E-3   -8.675837407678968E-4   -1.435061332310964E-1    4.210812189278851E-1
 8.196477874800000E9    -2.155177425482288E-1    4.916394492787401E-1   -2.704325889841147E-3   -9.749515733311572E-4   -2.818585099519601E-3   -8.390386948816223E-4   -1.431863182966863E-1    4.211720493926221E-1
 8.196482603725000E9    -2.151728297370326E-1    4.918463859605783E-1   -2.712473119372052E-3   -9.367581772533688E-4   -2.820343887797007E-3   -8.405871726045322E-4   -1.431746157375302E-1    4.214026099453241E-1
 8.196487332650000E9    -2.148327859540789E-1    4.919867052680170E-1   -2.736139855097209E-3   -9.120648093740259E-4   -2.809930676955691E-3   -8.225749698350285E-4   -1.427196180625982E-1    4.214399956110968E-1
 8.196492061575000E9    -2.145000349117634E-1    4.920137922254271E-1   -2.697485298119341E-3   -9.178580513638325E-4   -2.791844415954961E-3   -8.387467169079430E-4   -1.425530565338132E-1    4.215830984067495E-1
 8.196496790500000E9    -2.141975396621280E-1    4.920803145861262E-1   -2.716420452314889E-3   -9.160386435436452E-4   -2.814025819346336E-3   -8.248871374864397E-4   -1.423409104097665E-1    4.215639264454016E-1
 8.196501519425000E9    -2.137911150843341E-1    4.921571008712562E-1   -2.704004665533246E-3   -9.063717010779214E-4   -2.793788180623910E-3   -8.307249355622863E-4   -1.420043833283919E-1    4.217719952145909E-1
 8.196506248350000E9    -2.135714406683939E-1    4.924823066886460E-1   -2.724149788653184E-3   -9.062864013687634E-4   -2.793752617885485E-3   -7.981080939624656E-4   -1.418146078997509E-1    4.218063976773720E-1
 8.196510977275000E9    -2.131628219494370E-1    4.925193707936042E-1   -2.740469666461280E-3   -9.259206634381643E-4   -2.842851890316256E-3   -8.258658948628179E-4   -1.414832739318077E-1    4.217677315871999E-1
 8.196515706200000E9    -2.129013571319915E-1    4.926470555841207E-1   -2.730167733338553E-3   -8.898240663272031E-4   -2.833381491500825E-3   -8.389433599898482E-4   -1.412965092469803E-1    4.217540741513659E-1
 8.196520435125000E9    -2.126123650399391E-1    4.928488173937886E-1   -2.735295967135800E-3   -9.399104301313972E-4   -2.836930302906695E-3   -8.056770870935007E-4   -1.410356120592214E-1    4.221100368710342E-1
 8.196525164050000E9    -2.122557764387428E-1    4.929512432636776E-1   -2.724372194162298E-3   -8.925935376154398E-4   -2.843214434141276E-3   -8.308992227654120E-4   -1.407032890734382E-1    4.220489825203076E-1
 8.196529892975000E9    -2.119371993518759E-1    4.930969107257804E-1   -2.732175661015978E-3   -8.984133945299545E-4   -2.831963934322760E-3   -8.030612018771032E-4   -1.405330066300581E-1    4.220046198650463E-1
 8.196534621900000E9    -2.116553673669564E-1    4.932646091031792E-1   -2.735971144663253E-3   -9.312022675364563E-4   -2.824449492051165E-3   -8.066870301527882E-4   -1.402999291398695E-1    4.222676666093975E-1
 8.196539350825000E9    -2.112188045680321E-1    4.933771795868410E-1   -2.737562363482758E-3   -9.003374791002945E-4   -2.830144266440211E-3   -8.344552715145848E-4   -1.398855160880218E-1    4.222364150443327E-1
 8.196544079750000E9    -2.109499507442690E-1    4.935172714309674E-1   -2.734492787600603E-3   -9.210581339879553E-4   -2.865097715156755E-3   -8.573819037678230E-4   -1.397743663921283E-1    4.223648531892765E-1
 8.196548808675000E9    -2.106438316332058E-1    4.935231675678721E-1   -2.737644577107806E-3   -8.646561549490963E-4   -2.844640211920019E-3   -8.001728425431745E-4   -1.395000023663566E-1    4.223130360075169E-1
 8.196553537600000E9    -2.102580838286162E-1    4.937351245310105E-1   -2.762728356230574E-3   -9.028296480908359E-4   -2.840052420907825E-3   -7.872032661571059E-4   -1.392702882057862E-1    4.224914346721491E-1
 8.196558266525000E9    -2.099941106650055E-1    4.937898680813034E-1   -2.753970308198476E-3   -9.269379368622253E-4   -2.853384893979416E-3   -8.044988932982033E-4   -1.389729594741396E-1    4.225249617186543E-1
 8.196562995450000E9    -2.095778825869108E-1    4.939115798951985E-1   -2.729500521983989E-3   -9.032656133366343E-4   -2.853116771781366E-3   -7.817778054902944E-4   -1.386927536642830E-1    4.225756796708285E-1
 8.196567724375000E9    -2.093442317050540E-1    4.941214352068056E-1   -2.781422106416184E-3   -8.914757343018862E-4   -2.829769782343527E-3   -8.330342270705911E-4   -1.384319198455047E-1    4.226455543211270E-1
 8.196572453300000E9    -2.090654451175132E-1    4.941871862763657E-1   -2.777947080407256E-3   -9.109925942181610E-4   -2.842071405119482E-3   -7.888043147547772E-4   -1.381043952111525E-1    4.226837202183937E-1
 8.196577182225000E9    -2.087754133650670E-1    4.943630573239504E-1   -2.774835487849443E-3   -8.734161598274896E-4   -2.885021449514092E-3   -7.639697648531671E-4   -1.378063688296427E-1    4.229090955237295E-1
 8.196581911150000E9    -2.084408996955029E-1    4.944859184722125E-1   -2.764778498678077E-3   -9.100145145294300E-4   -2.843851713403083E-3   -8.459054398118075E-4   -1.375274786236281E-1    4.229871360620948E-1
 8.196586640075000E9    -2.079993101061756E-1    4.946274065366974E-1   -2.753011163678681E-3   -8.899021018524065E-4   -2.879804838433746E-3   -7.983456472236447E-4   -1.373796423330037E-1    4.230260987927019E-1
 8.196591369000000E9    -2.077576097568387E-1    4.947558388119269E-1   -2.786571480866114E-3   -9.198586311032101E-4   -2.854231521923524E-3   -8.113375081639691E-4   -1.372443761660573E-1    4.231375887255799E-1
 8.196596097925000E9    -2.074264775688140E-1    4.950508144580136E-1   -2.765880935119815E-3   -8.981161191588242E-4   -2.861192474890261E-3   -7.802774468480850E-4   -1.369798801062566E-1    4.231428099822844E-1
 8.196600826850000E9    -2.070580363139767E-1    4.951632464390879E-1   -2.798133154412860E-3   -8.796085362772019E-4   -2.856159455665881E-3   -7.899715980179085E-4   -1.367266185480150E-1    4.232206028057320E-1
 8.196605555775000E9    -2.067288012510993E-1    4.951002986899055E-1   -2.781577580457479E-3   -9.082877883407673E-4   -2.859367537668328E-3   -8.038350657090975E-4   -1.365011099859659E-1    4.232534839267812E-1
 8.196610284700000E9    -2.064092335316928E-1    4.953073024250660E-1   -2.795935837792033E-3   -8.531280360414906E-4   -2.845875859606154E-3   -7.916782779335413E-4   -1.359615010155412E-1    4.235388480944069E-1
 8.196615013625000E9    -2.060939398690285E-1    4.954484714296636E-1   -2.771320182012491E-3   -8.814748118420344E-4   -2.862139643820743E-3   -7.935543366276807E-4   -1.357912473538633E-1    4.234787250279426E-1
 8.196619742550000E9    -2.057634958659795E-1    4.955062910618729E-1   -2.785805375966483E-3   -8.816052409197588E-4   -2.901055185603183E-3   -7.913620480104167E-4   -1.356440284061343E-1    4.234875352689975E-1
 8.196624471475000E9    -2.054781994979529E-1    4.956043476826905E-1   -2.816853472479361E-3   -8.739741854484845E-4   -2.867749803283848E-3   -7.910253212626864E-4   -1.354969239319816E-1    4.236090015647296E-1
 8.196629200400000E9    -2.050468937445299E-1    4.957134271473280E-1   -2.790767850412482E-3   -8.749519695924475E-4   -2.876838321274102E-3   -7.827734413614904E-4   -1.352157355596132E-1    4.237531262703609E-1
 8.196633929325000E9    -2.047809353556412E-1    4.959132193639746E-1   -2.764335710845078E-3   -8.670129244016481E-4   -2.889862662578587E-3   -8.067880211005218E-4   -1.349052518458292E-1    4.237958245774069E-1
 8.196638658250000E9    -2.044535851153714E-1    4.960728368595109E-1   -2.785352572639107E-3   -9.013103362464279E-4   -2.838575577828897E-3   -7.856394242337986E-4   -1.347003019430504E-1    4.238179607718368E-1
 8.196643387175000E9    -2.041929866802905E-1    4.961492049964843E-1   -2.805022899858860E-3   -8.886293374938444E-4   -2.913644705810159E-3   -8.185534299938658E-4   -1.345066535629077E-1    4.238479196052273E-1
 8.196648116100000E9    -2.037681073044111E-1    4.962288482618766E-1   -2.779080728227247E-3   -8.995677144095350E-4   -2.898417941747198E-3   -7.795417623113953E-4   -1.341259268938595E-1    4.239566047751163E-1
 8.196652845025000E9    -2.034386918998499E-1    4.963860836621987E-1   -2.797375547124544E-3   -8.910731361680846E-4   -2.919303527821043E-3   -7.734162488384336E-4   -1.338862945262626E-1    4.241746822436140E-1
 8.196657573950000E9    -2.032132156251225E-1    4.965734360332863E-1   -2.804666239204453E-3   -8.492229279840769E-4   -2.906567769686724E-3   -8.053024715036713E-4   -1.337527392369657E-1    4.241676306727681E-1
 8.196662302875000E9    -2.027759431503845E-1    4.966830233518669E-1   -2.824255092074258E-3   -8.836658936111484E-4   -2.923923279073990E-3   -8.051452222690370E-4   -1.334718719348987E-1    4.241389673943699E-1
 8.196667031800000E9    -2.025541184233854E-1    4.967515561838860E-1   -2.800548356638176E-3   -8.708591916801282E-4   -2.906281643688988E-3   -7.706953349326714E-4   -1.331028898829776E-1    4.242434362238126E-1
 8.196671760725000E9    -2.021555793734964E-1    4.969268520717180E-1   -2.825118602263380E-3   -8.821092739263500E-4   -2.905244276557057E-3   -7.645823206199751E-4   -1.329927165668381E-1    4.242943979980950E-1
 8.196676489650000E9    -2.018593187044825E-1    4.970959291452584E-1   -2.793500624984017E-3   -8.567218141829648E-4   -2.931104315459758E-3   -7.769267677863931E-4   -1.325495517122110E-1    4.243805008034812E-1
 8.196681218575000E9    -2.015801271836667E-1    4.971808252109499E-1   -2.852774519583802E-3   -8.628017995599104E-4   -2.906262857738953E-3   -7.851005157096586E-4   -1.323569124484246E-1    4.245031843361690E-1
 8.196685947500000E9    -2.011878641885855E-1    4.973291920696986E-1   -2.835343854947570E-3   -8.845028651632480E-4   -2.928107682300218E-3   -7.631825709059334E-4   -1.320465493610312E-1    4.245359874367309E-1
 8.196690676425000E9    -2.008610297127656E-1    4.973894114016035E-1   -2.824365722425959E-3   -8.799857767754880E-4   -2.941038853531154E-3   -8.026487411351617E-4   -1.318033560801725E-1    4.246419961893920E-1
 8.196695405350000E9    -2.006416872259320E-1    4.975149361395526E-1   -2.864655658289953E-3   -8.886758160497845E-4   -2.906751172206985E-3   -7.473748389782250E-4   -1.314660502321386E-1    4.246838522552031E-1
 8.196700134275000E9    -2.002312807234995E-1    4.976012401979917E-1   -2.829622109741517E-3   -8.610141684822902E-4   -2.936396125058761E-3   -7.921987749021283E-4   -1.313399572088104E-1    4.247461993992629E-1
 8.196704863200000E9    -2.000137957547399E-1    4.976549444435975E-1   -2.852532678613306E-3   -8.380428963908341E-4   -2.915123475476749E-3   -7.447046595411894E-4   -1.310094631190826E-1    4.249027356431401E-1
 8.196709592125000E9    -1.996132632689024E-1    4.978725571975595E-1   -2.817632418561391E-3   -8.581580693638614E-4   -2.947751160383328E-3   -7.748083585477443E-4   -1.307647095878751E-1    4.249502598666180E-1
 8.196714321050000E9    -1.993455195491806E-1    4.980403166322834E-1   -2.859582302266358E-3   -8.537129783612008E-4   -2.920340574302399E-3   -7.576813638844229E-4   -1.305151234353957E-1    4.251460593135051E-1
 8.196719049975000E9    -1.989138259164892E-1    4.982297816697034E-1   -2.838044146506110E-3   -8.559365971214900E-4   -2.946180489480218E-3   -7.730750848846336E-4   -1.301594286415823E-1    4.249601368221283E-1
 8.196723778900000E9    -1.985973522876780E-1    4.983271124046766E-1   -2.861121647090909E-3   -8.683314452336174E-4   -2.954066756912207E-3   -7.591926624396982E-4   -1.300657010944275E-1    4.250355154068324E-1
 8.196728507825000E9    -1.981954969788018E-1    4.983696139996958E-1   -2.884079842388603E-3   -8.662307688965616E-4   -2.977866330996676E-3   -7.496187276710726E-4   -1.297432175753939E-1    4.249785148141594E-1
 8.196733236750000E9    -1.979615307901700E-1    4.984912910378404E-1   -2.851298507470574E-3   -8.741313715895035E-4   -2.946509229651505E-3   -7.180458571412754E-4   -1.295735547957537E-1    4.251888215992760E-1
 8.196737965675000E9    -1.976608879828815E-1    4.985573871208015E-1   -2.880673310343849E-3   -8.489615714381030E-4   -2.972520023906842E-3   -7.713769927310129E-4   -1.293124314874707E-1    4.253172459283353E-1
 8.196742694600000E9    -1.972111993191937E-1    4.988065275743399E-1   -2.887224993209729E-3   -8.697200543614700E-4   -2.962040325083660E-3   -7.337754604448695E-4   -1.290046404469775E-1    4.252298035385949E-1
 8.196747423525000E9    -1.969029071541179E-1    4.989564816736509E-1   -2.880567777659476E-3   -8.523662708945959E-4   -2.999710858997839E-3   -7.382965923364104E-4   -1.286015354586281E-1    4.253059605658714E-1
 8.196752152450000E9    -1.965384084997481E-1    4.990850317726983E-1   -2.884220540909388E-3   -8.187494501942393E-4   -2.984411456441076E-3   -7.160309289463147E-4   -1.284175296916408E-1    4.254858998134842E-1
 8.196756881375000E9    -1.962376705897090E-1    4.991743650164576E-1   -2.886506782733745E-3   -8.332757524609092E-4   -2.991992123791184E-3   -7.282682790879167E-4   -1.282318778381014E-1    4.255665963344474E-1
 8.196761610300000E9    -1.959330245693926E-1    4.991733922130298E-1   -2.888956377949871E-3   -8.431471132272807E-4   -2.985066176597204E-3   -7.272900711292083E-4   -1.280489004423286E-1    4.255417461625589E-1
 8.196766339225000E9    -1.956194717698884E-1    4.992487088606319E-1   -2.877246531769170E-3   -8.535484271199547E-4   -2.977975014438518E-3   -7.416168167117399E-4   -1.278416616215043E-1    4.257890670123162E-1
 8.196771068150000E9    -1.952119798548328E-1    4.994101358788173E-1   -2.924058014465580E-3   -8.457513306164817E-4   -2.966852191029319E-3   -7.326027122607600E-4   -1.272510431383090E-1    4.258139601262561E-1
 8.196775797075000E9    -1.948685604655832E-1    4.996079234397977E-1   -2.906797826643203E-3   -8.358825781951015E-4   -3.004524448685237E-3   -7.568027655537738E-4   -1.271867252945925E-1    4.258188727507738E-1
 8.196780526000000E9    -1.946435398469324E-1    4.996572364007824E-1   -2.909750418097512E-3   -8.394732115812717E-4   -3.024407143898978E-3   -7.437352593550723E-4   -1.269385329854933E-1    4.259351431746877E-1
 8.196785254925000E9    -1.942899832471759E-1    4.998129598733620E-1   -2.918764130703294E-3   -8.429956358363726E-4   -2.979587420474625E-3   -7.568854868228190E-4   -1.266936600984912E-1    4.260105712381297E-1
 8.196789983850000E9    -1.939295253454456E-1    4.999441296292675E-1   -2.892522156694384E-3   -8.149942497762015E-4   -3.023720488514776E-3   -7.560166156105672E-4   -1.265494740008749E-1    4.259820067379915E-1
 8.196794712775000E9    -1.935496212428972E-1    5.001905689948128E-1   -2.949400975649152E-3   -8.353995282068566E-4   -3.012481474028515E-3   -7.311463639682706E-4   -1.261534955726621E-1    4.261682420029379E-1
 8.196799441700000E9    -1.933016609480582E-1    5.001921928427198E-1   -2.919099433272516E-3   -8.403235208878267E-4   -3.027401494238969E-3   -7.000712974147576E-4   -1.260851499386526E-1    4.262259329617891E-1
 8.196804170625000E9    -1.928214991843804E-1    5.003655792869292E-1   -2.939916797449191E-3   -8.410396299389336E-4   -3.041080130454268E-3   -7.405108248290836E-4   -1.257328377349437E-1    4.262500217721543E-1
 8.196808899550000E9    -1.926444297709747E-1    5.005194470268739E-1   -2.930710066097716E-3   -8.288984512861452E-4   -3.019320352126935E-3   -7.288354202375188E-4   -1.254078132053769E-1    4.262274852279387E-1
 8.196813628475000E9    -1.922961740048229E-1    5.003886571421284E-1   -2.944983926748787E-3   -8.233358713886545E-4   -3.006732395365242E-3   -7.551223167050436E-4   -1.251880516520584E-1    4.264242084195806E-1
 8.196818357400000E9    -1.918694704753752E-1    5.007352441185224E-1   -2.949386870274464E-3   -8.247132217829164E-4   -3.057346376141551E-3   -7.191404948575326E-4   -1.248706142273061E-1    4.264854037383899E-1
 8.196823086325000E9    -1.916433161110776E-1    5.008419444569197E-1   -2.941995859655825E-3   -8.385476910037386E-4   -3.030230182133852E-3   -7.117298392606574E-4   -1.244474078744908E-1    4.265461938330827E-1
 8.196827815250000E9    -1.912678644295334E-1    5.009122663483742E-1   -2.954583013212632E-3   -8.186539656164588E-4   -3.038906809270473E-3   -7.225688879542507E-4   -1.242999712337597E-1    4.265821655124569E-1
