#  HZ   S   RI   R     50.00 
! Rohde & Schwarz Vector Network Analyzer 
! Rohde-Schwarz,ZNB20-2Port,1311601062101988,3.16
! Created: UTC 3/20/2024, 4:50:48 PM
! freq[Hz]                re:S11                  im:S11                  re:S21                  im:S21                  re:S12                  im:S12                  re:S22                  im:S22
 8.196105066000000E9    -2.399804569428385E-1    4.805819836153045E-1   -2.582085329754291E-3   -1.044090833081236E-3   -2.680947408068411E-3   -9.193388823347867E-4   -1.632415456296038E-1    4.147759781054918E-1
 8.196111061150000E9    -2.396057036959383E-1    4.806861910050008E-1   -2.563709962908257E-3   -1.025405837953551E-3   -2.690011699967098E-3   -9.610719421196701E-4   -1.629014004621514E-1    4.147819426313207E-1
 8.196117056300000E9    -2.393243980313687E-1    4.808834803007060E-1   -2.587895250364827E-3   -1.015779985703056E-3   -2.681492972418505E-3   -9.389933110955905E-4   -1.624933377108370E-1    4.150355688338986E-1
 8.196123051450000E9    -2.387779219527744E-1    4.809919954807947E-1   -2.599816783011739E-3   -1.031039091947910E-3   -2.672661098026313E-3   -9.524779933166688E-4   -1.622602385537130E-1    4.151602193416602E-1
 8.196129046600000E9    -2.383434361803786E-1    4.812324154722555E-1   -2.596958769949306E-3   -1.015260138849498E-3   -2.685125348763703E-3   -9.376514979405735E-4   -1.618578421354888E-1    4.150838223714097E-1
 8.196135041750000E9    -2.379122979056351E-1    4.814436154826101E-1   -2.558005547782528E-3   -1.009538934114221E-3   -2.675456968728777E-3   -9.332531654740719E-4   -1.616662556992938E-1    4.153092550098989E-1
 8.196141036900000E9    -2.375977050229776E-1    4.817758929832665E-1   -2.594090389378185E-3   -1.030998154434570E-3   -2.669621066107040E-3   -9.372414750078111E-4   -1.613698959377990E-1    4.155286517058105E-1
 8.196147032050000E9    -2.372789927147847E-1    4.817908080883136E-1   -2.597963572000339E-3   -1.026228428434124E-3   -2.656614339649254E-3   -9.565953784768334E-4   -1.611024160656958E-1    4.155066389500691E-1
 8.196153027200000E9    -2.368517639032266E-1    4.821296026587993E-1   -2.593669243320950E-3   -1.016223578766708E-3   -2.719176148829759E-3   -9.049235269264585E-4   -1.606039281139276E-1    4.157707893223785E-1
 8.196159022350000E9    -2.365187336689870E-1    4.822960463844709E-1   -2.583044956240671E-3   -1.015146550753072E-3   -2.684087781013495E-3   -9.239014869150337E-4   -1.603287727613540E-1    4.157792476684851E-1
 8.196165017500000E9    -2.360794351312017E-1    4.824364183849139E-1   -2.589266006801808E-3   -1.007315245063322E-3   -2.682962748579974E-3   -9.425902947169942E-4   -1.600507540785276E-1    4.159516155315900E-1
 8.196171012650000E9    -2.356567847806456E-1    4.825973682059292E-1   -2.583786871974755E-3   -1.019330274288202E-3   -2.690903791736095E-3   -9.700421888128824E-4   -1.598295677131751E-1    4.161157339121578E-1
 8.196177007800000E9    -2.352529650609905E-1    4.828367317739627E-1   -2.569107503568411E-3   -1.014509906245354E-3   -2.675406109107944E-3   -9.238681685163858E-4   -1.594792064691652E-1    4.160780127158464E-1
 8.196183002950000E9    -2.348902557205973E-1    4.827854252195766E-1   -2.588660564917738E-3   -1.022355700579236E-3   -2.713590676800818E-3   -8.997737299430815E-4   -1.591161481108963E-1    4.160875481626848E-1
 8.196188998100000E9    -2.344604422842080E-1    4.831527787358125E-1   -2.588775422260948E-3   -1.030679259028859E-3   -2.680260730263722E-3   -9.018883494181803E-4   -1.587137968026064E-1    4.162895875765807E-1
 8.196194993250000E9    -2.340807125487523E-1    4.833096176495234E-1   -2.603737501132937E-3   -1.022929552910044E-3   -2.673263933796796E-3   -9.246816266424726E-4   -1.584033810413436E-1    4.165324540766471E-1
 8.196200988400000E9    -2.335811224160352E-1    4.834579564258283E-1   -2.590786261846560E-3   -1.024993499455617E-3   -2.712717424282406E-3   -9.407826512825346E-4   -1.581020155704744E-1    4.166007020724208E-1
 8.196206983550000E9    -2.332735418600560E-1    4.836798901354178E-1   -2.623852103455995E-3   -9.951593359276330E-4   -2.693774621991501E-3   -8.949655714313340E-4   -1.579592147731361E-1    4.167747573224441E-1
 8.196212978700000E9    -2.328563196096669E-1    4.838599425859445E-1   -2.616431540383574E-3   -9.966369766737293E-4   -2.715827958617691E-3   -9.106773669082355E-4   -1.575993425628024E-1    4.168740534758186E-1
 8.196218973850000E9    -2.325091755576092E-1    4.840743563540894E-1   -2.599487967257584E-3   -1.001413122917282E-3   -2.711021345686282E-3   -9.286005966129428E-4   -1.572968569770238E-1    4.170948921493383E-1
 8.196224969000000E9    -2.321576501525234E-1    4.843446449267528E-1   -2.615078971431944E-3   -9.924168978227197E-4   -2.709498482719757E-3   -9.239650311990897E-4   -1.569037451362736E-1    4.170022961679952E-1
 8.196230964150000E9    -2.316550970793530E-1    4.842986903941966E-1   -2.621231092658501E-3   -1.002954817149346E-3   -2.731523228107328E-3   -9.241024272367138E-4   -1.566302368813102E-1    4.171984894110038E-1
 8.196236959300000E9    -2.314514849914663E-1    4.845218402421175E-1   -2.626609758350890E-3   -9.922723986177868E-4   -2.727201096182472E-3   -9.109879752052829E-4   -1.561896364441545E-1    4.171699142545596E-1
 8.196242954450000E9    -2.309448144671108E-1    4.847534709281310E-1   -2.613637791947125E-3   -9.982402880350765E-4   -2.680391272010113E-3   -9.347813719582148E-4   -1.559052610369185E-1    4.172536863274559E-1
 8.196248949600000E9    -2.306108287563765E-1    4.849209499331667E-1   -2.618740938842182E-3   -9.868599009947685E-4   -2.735373428567797E-3   -8.998867840426752E-4   -1.556322660087638E-1    4.174831710668956E-1
 8.196254944750000E9    -2.301957389784429E-1    4.851334469247649E-1   -2.634482922825469E-3   -9.820779868598385E-4   -2.713619648546271E-3   -9.134251675066748E-4   -1.552130279980008E-1    4.175790759216587E-1
 8.196260939900000E9    -2.297639160837439E-1    4.853452905639773E-1   -2.619782629189712E-3   -9.950439822543149E-4   -2.720696577168150E-3   -8.823342450743399E-4   -1.550887031949351E-1    4.177336649753378E-1
 8.196266935050000E9    -2.293693780996133E-1    4.854981395584048E-1   -2.635175427201005E-3   -9.810291917263232E-4   -2.720933907951332E-3   -9.237504080731300E-4   -1.547526712224291E-1    4.178880703450854E-1
 8.196272930200000E9    -2.289363357222875E-1    4.856156405371182E-1   -2.617868034044072E-3   -9.864253907705363E-4   -2.720083928593514E-3   -9.237326393527639E-4   -1.542989906538415E-1    4.178705362285407E-1
 8.196278925350000E9    -2.285310698740381E-1    4.857995552592810E-1   -2.664762947230492E-3   -1.003992173580602E-3   -2.746851264209714E-3   -9.113882325972823E-4   -1.540485479820192E-1    4.180021344977297E-1
 8.196284920500000E9    -2.281842551337182E-1    4.860901300026751E-1   -2.622978837560898E-3   -1.001194096831406E-3   -2.748578739455824E-3   -9.055029697655275E-4   -1.536443687847943E-1    4.180720281852055E-1
 8.196290915650000E9    -2.278533250738014E-1    4.862973866713541E-1   -2.633385130595133E-3   -9.481473243915520E-4   -2.733060609260104E-3   -9.078218067125321E-4   -1.535341843178170E-1    4.182792413138692E-1
 8.196296910800000E9    -2.273911713340723E-1    4.863803325497186E-1   -2.627748948443275E-3   -9.765582357753135E-4   -2.719012992429813E-3   -9.104491688621365E-4   -1.531097363740939E-1    4.183240256680919E-1
 8.196302905950000E9    -2.270650236880581E-1    4.865775376452786E-1   -2.638086317789070E-3   -9.755984138871274E-4   -2.753062457837705E-3   -9.078619255295533E-4   -1.527845326291994E-1    4.184614069455574E-1
 8.196308901100000E9    -2.266334118112146E-1    4.866995902128090E-1   -2.632486388194805E-3   -1.008562518871205E-3   -2.728838573525178E-3   -8.841039500604568E-4   -1.525001453889495E-1    4.184536995702381E-1
 8.196314896250000E9    -2.261775364211529E-1    4.869158604304507E-1   -2.643695158019975E-3   -9.831612042514510E-4   -2.710631190774514E-3   -9.074640379352693E-4   -1.521154950827974E-1    4.186738371300778E-1
 8.196320891400000E9    -2.258205215087560E-1    4.871100369137493E-1   -2.633591610763408E-3   -9.844611723136311E-4   -2.750856150977331E-3   -8.720702446663471E-4   -1.517769556335943E-1    4.188168335327501E-1
 8.196326886550000E9    -2.254935609477375E-1    4.873776342204955E-1   -2.665130911741775E-3   -9.823244123565733E-4   -2.730442229334041E-3   -8.956342584827795E-4   -1.516165479054993E-1    4.188719298372159E-1
 8.196332881700000E9    -2.250924756536767E-1    4.874669160749840E-1   -2.650221528838567E-3   -9.862511951649043E-4   -2.761573654393989E-3   -8.768175748709869E-4   -1.511112804050190E-1    4.189353916805941E-1
 8.196338876850000E9    -2.246911374943496E-1    4.875683592054708E-1   -2.652676526202965E-3   -9.860552744452027E-4   -2.758761200608126E-3   -8.694607914305989E-4   -1.507056604246787E-1    4.191272926889549E-1
 8.196344872000000E9    -2.241753982023293E-1    4.877801097123607E-1   -2.646004954035132E-3   -9.866428911101404E-4   -2.768641692539800E-3   -8.720605738934352E-4   -1.504266834185241E-1    4.191655965633174E-1
 8.196350867150000E9    -2.238303902480418E-1    4.880077666956513E-1   -2.663317188950600E-3   -9.772198102324496E-4   -2.751798565948090E-3   -9.247052956862535E-4   -1.501906543360684E-1    4.191850701870815E-1
 8.196356862300000E9    -2.234003760679440E-1    4.881341091774605E-1   -2.665207011659410E-3   -9.537070939432020E-4   -2.750492317942803E-3   -8.760948907272779E-4   -1.499139612647172E-1    4.193756654915142E-1
 8.196362857450000E9    -2.230167793434740E-1    4.883763741289138E-1   -2.658361160472052E-3   -9.701576838321726E-4   -2.747739864294576E-3   -8.819359191125728E-4   -1.497174213935403E-1    4.195032946353532E-1
 8.196368852600000E9    -2.226737185883520E-1    4.885617801416871E-1   -2.656783154225236E-3   -9.577613864922290E-4   -2.751915024534738E-3   -8.950407480899134E-4   -1.491590486312303E-1    4.194971590555606E-1
 8.196374847750000E9    -2.222680091850748E-1    4.886298598419006E-1   -2.659321633118062E-3   -9.617484670284988E-4   -2.779238221831644E-3   -8.756802474264149E-4   -1.490706358031028E-1    4.197407821572485E-1
 8.196380842900000E9    -2.218730321079632E-1    4.888200208489742E-1   -2.672332160484829E-3   -9.434663431549478E-4   -2.761381424598491E-3   -8.920938218365707E-4   -1.486534295361077E-1    4.198243650657250E-1
 8.196386838050000E9    -2.214985070358664E-1    4.890851431163476E-1   -2.690037170646488E-3   -9.364930660026431E-4   -2.765144440323745E-3   -8.463314724884208E-4   -1.482204733284320E-1    4.199120377154301E-1
 8.196392833200000E9    -2.211282168209009E-1    4.892443031522057E-1   -2.664520403954943E-3   -9.341993533895028E-4   -2.749983530595170E-3   -8.581955297244434E-4   -1.480112449662982E-1    4.199942028898707E-1
 8.196398828350000E9    -2.206969637627450E-1    4.893147447548983E-1   -2.705711721263575E-3   -9.519416819318301E-4   -2.772805271447892E-3   -8.658865491046922E-4   -1.476040762826202E-1    4.201079617750818E-1
 8.196404823500000E9    -2.203880869445474E-1    4.895047179516411E-1   -2.688053082963565E-3   -9.460575245516628E-4   -2.792027267188583E-3   -8.491748435162332E-4   -1.472428526811070E-1    4.201981917809527E-1
 8.196410818650000E9    -2.198730654910206E-1    4.897546950334292E-1   -2.678123714829214E-3   -9.270616421299301E-4   -2.785308149649625E-3   -8.548847044930035E-4   -1.468009928691924E-1    4.202697535303344E-1
 8.196416813800000E9    -2.195054271968540E-1    4.899942707724572E-1   -2.682994283133149E-3   -9.491422653811830E-4   -2.781051951087954E-3   -8.565732984004883E-4   -1.465422261401060E-1    4.204499842261413E-1
 8.196422808950000E9    -2.190568784966345E-1    4.900485306152844E-1   -2.676553709824770E-3   -9.283687429161881E-4   -2.801022517168557E-3   -8.646014596261607E-4   -1.463889768987714E-1    4.205968943240929E-1
 8.196428804100000E9    -2.187107161582391E-1    4.903128900662357E-1   -2.700373658076296E-3   -9.375719826615979E-4   -2.779877318941247E-3   -8.470524338302620E-4   -1.460258173829974E-1    4.206759478245374E-1
 8.196434799250000E9    -2.182999003291634E-1    4.904640826918505E-1   -2.684050892868533E-3   -9.507449248114765E-4   -2.764199149656715E-3   -8.719424631254369E-4   -1.456436477602715E-1    4.208005375785830E-1
 8.196440794400000E9    -2.178318219815450E-1    4.905738339379914E-1   -2.691978232680478E-3   -9.522718831964816E-4   -2.807033288510812E-3   -8.640172915704248E-4   -1.454877762268262E-1    4.208429652628145E-1
 8.196446789550000E9    -2.175098701335227E-1    4.906508966116924E-1   -2.680767284123694E-3   -9.427966497887608E-4   -2.804316982268625E-3   -8.793281820651590E-4   -1.451605445623356E-1    4.210495584057434E-1
 8.196452784700000E9    -2.169976720959018E-1    4.908453658622152E-1   -2.679672968078450E-3   -9.096870953781444E-4   -2.794566632767484E-3   -8.431316806400415E-4   -1.446559552631429E-1    4.210024846769895E-1
 8.196458779850000E9    -2.167531936572711E-1    4.909980887107054E-1   -2.719763102582439E-3   -9.201639660856386E-4   -2.779076744641425E-3   -8.397970715849474E-4   -1.445152732449926E-1    4.210735404725204E-1
 8.196464775000000E9    -2.162553339654955E-1    4.912899546270994E-1   -2.733335276750741E-3   -9.480918478667577E-4   -2.831975047728476E-3   -8.564164526125632E-4   -1.440847901890884E-1    4.212323125687144E-1
 8.196470770150000E9    -2.157791019453552E-1    4.913040625140887E-1   -2.703502237708330E-3   -9.120732398954210E-4   -2.813442126136545E-3   -8.486001280114052E-4   -1.438082514417686E-1    4.213971528976888E-1
 8.196476765300000E9    -2.153738345616182E-1    4.915944833320200E-1   -2.713243570503442E-3   -9.491511381867520E-4   -2.801118486677901E-3   -8.587768728001588E-4   -1.434702419336077E-1    4.212309226597570E-1
 8.196482760450000E9    -2.150586257557658E-1    4.917525560479793E-1   -2.726301633427586E-3   -9.075594054395152E-4   -2.828739643063433E-3   -8.352802140331313E-4   -1.432023363590039E-1    4.215610556762081E-1
 8.196488755600000E9    -2.146792620511372E-1    4.919856751118857E-1   -2.734023370074206E-3   -9.258339848045564E-4   -2.828243068261438E-3   -8.237744719065834E-4   -1.428104439278894E-1    4.216502075865615E-1
 8.196494750750000E9    -2.142255068342812E-1    4.920472837338268E-1   -2.741637950155752E-3   -9.317107382771643E-4   -2.811528062849629E-3   -8.482061861345963E-4   -1.425145269295358E-1    4.216569120793931E-1
 8.196500745900000E9    -2.138382294665545E-1    4.921700580193554E-1   -2.720933139256182E-3   -9.262441942210143E-4   -2.852694954611847E-3   -8.255964912074911E-4   -1.422985484766162E-1    4.219528544601746E-1
 8.196506741050000E9    -2.134277505252018E-1    4.924442690166435E-1   -2.718722803607329E-3   -9.057248342462306E-4   -2.832981949443208E-3   -8.396441209504618E-4   -1.417608809163720E-1    4.218279938394545E-1
 8.196512736200000E9    -2.129746450555072E-1    4.925835332772746E-1   -2.744553059096234E-3   -9.232814671634948E-4   -2.838723495860828E-3   -8.225544925088918E-4   -1.414594439443854E-1    4.220285371441061E-1
 8.196518731350000E9    -2.126630812555977E-1    4.927318012316175E-1   -2.746673722283739E-3   -9.049921116544585E-4   -2.807009689217193E-3   -8.098861839901913E-4   -1.412357252240011E-1    4.221091700549052E-1
 8.196524726500000E9    -2.122020233766520E-1    4.928554765668438E-1   -2.751735874507160E-3   -8.928683582023640E-4   -2.822364635438373E-3   -8.326961170941448E-4   -1.409020745952785E-1    4.221923925857941E-1
 8.196530721650000E9    -2.117648747750086E-1    4.930476559442813E-1   -2.746210414260236E-3   -9.123060172719629E-4   -2.857450777250601E-3   -7.787505891957351E-4   -1.405796208526200E-1    4.223133996087979E-1
 8.196536716800000E9    -2.113997319704401E-1    4.932816885248081E-1   -2.747551802753817E-3   -9.029346275651122E-4   -2.855300308305999E-3   -8.448924491617165E-4   -1.402579845694571E-1    4.224315032677352E-1
 8.196542711950000E9    -2.111262930335717E-1    4.933873020860307E-1   -2.741222019996192E-3   -9.006329151525463E-4   -2.856932988977802E-3   -8.501959862571636E-4   -1.399578369862804E-1    4.225755646071936E-1
 8.196548707100000E9    -2.106298973399889E-1    4.934800347578048E-1   -2.767919971170272E-3   -8.869761902626031E-4   -2.854799366565241E-3   -8.213545252895093E-4   -1.396312135160714E-1    4.225429531741371E-1
 8.196554702250000E9    -2.102584462032968E-1    4.938707848035340E-1   -2.753195809723118E-3   -9.251362048769012E-4   -2.837274983747738E-3   -8.099866024051756E-4   -1.393812879767478E-1    4.227843951943598E-1
 8.196560697400000E9    -2.097054178816795E-1    4.939348428814879E-1   -2.762506619467681E-3   -8.934588068215543E-4   -2.895645435166924E-3   -8.143932118907128E-4   -1.389793932584351E-1    4.227606828831881E-1
 8.196566692550000E9    -2.093894572101120E-1    4.939971343015917E-1   -2.758325285015607E-3   -8.983723256144545E-4   -2.869053943645098E-3   -7.907454008955960E-4   -1.384483411743265E-1    4.228102143163331E-1
 8.196572687700000E9    -2.088904691141518E-1    4.942293830255201E-1   -2.778801315877457E-3   -8.971345112942380E-4   -2.878757824111622E-3   -8.000624870026134E-4   -1.383452627677989E-1    4.229621291200933E-1
 8.196578682850000E9    -2.084813805825970E-1    4.943323303813065E-1   -2.791151128793437E-3   -8.947337948018720E-4   -2.883580813798298E-3   -8.212048717117138E-4   -1.377991659461517E-1    4.229594242920749E-1
 8.196584678000000E9    -2.081879421551837E-1    4.945933972262777E-1   -2.771407660485189E-3   -8.820883868314333E-4   -2.843460831834756E-3   -8.265440932337922E-4   -1.376711771116126E-1    4.231102522842439E-1
 8.196590673150000E9    -2.078073860303068E-1    4.946702146694760E-1   -2.774889918038148E-3   -8.858699378896680E-4   -2.868641987038246E-3   -8.093178814058388E-4   -1.372286109289665E-1    4.233365115618400E-1
 8.196596668300000E9    -2.074361039087545E-1    4.950370670263778E-1   -2.781433580875417E-3   -8.915263870877200E-4   -2.858958596656446E-3   -7.537197611054040E-4   -1.369993222874366E-1    4.232641807633081E-1
 8.196602663450000E9    -2.069252081132784E-1    4.950964261616365E-1   -2.796243833984410E-3   -8.883067745079159E-4   -2.862656401510361E-3   -7.966836158162476E-4   -1.367447469554346E-1    4.234368202778637E-1
 8.196608658600000E9    -2.064896947520119E-1    4.951488263548898E-1   -2.815068003748841E-3   -8.770278642122600E-4   -2.900569386409471E-3   -7.843923800874615E-4   -1.365073548804782E-1    4.234764942282466E-1
 8.196614653750000E9    -2.061304250420229E-1    4.952653126475289E-1   -2.791140724849999E-3   -8.853949719036558E-4   -2.862930561141649E-3   -7.996651103360613E-4   -1.359559812956267E-1    4.236822336236270E-1
 8.196620648900000E9    -2.056783250160676E-1    4.954794517341115E-1   -2.789968225801237E-3   -9.048349249439249E-4   -2.894358725769067E-3   -7.958742983224928E-4   -1.357117876881249E-1    4.236460377191941E-1
 8.196626644050000E9    -2.053503805131624E-1    4.956884210995874E-1   -2.813465439125271E-3   -8.831694263843320E-4   -2.903372622106538E-3   -7.622039733216687E-4   -1.355261757083666E-1    4.239710575356039E-1
 8.196632639200000E9    -2.048426140813580E-1    4.958509322049075E-1   -2.780714983497056E-3   -8.981098198554729E-4   -2.919007596711065E-3   -7.737993864588247E-4   -1.351843112574889E-1    4.238345355697640E-1
 8.196638634350000E9    -2.045114420785157E-1    4.958960924458299E-1   -2.810683305156113E-3   -8.749967483501642E-4   -2.912838602058757E-3   -7.580590324159331E-4   -1.347390820261094E-1    4.241009801130600E-1
 8.196644629500000E9    -2.040819619423548E-1    4.961882389088678E-1   -2.813833124660767E-3   -8.928170967946902E-4   -2.914642813654226E-3   -7.953566736639820E-4   -1.344557357839818E-1    4.241574006706348E-1
