#  HZ   S   RI   R     50.00 
! Rohde & Schwarz Vector Network Analyzer 
! Rohde-Schwarz,ZNB20-2Port,1311601062101988,3.16
! Created: UTC 3/20/2024, 4:50:50 PM
! freq[Hz]                re:S11                  im:S11                  re:S21                  im:S21                  re:S12                  im:S12                  re:S22                  im:S22
 8.196092192000000E9    -2.408732481801177E-1    4.800669215730874E-1   -2.588701930345423E-3   -1.029285152267451E-3   -2.653445740903040E-3   -9.479858492808865E-4   -1.639271138750894E-1    4.146949512110790E-1
 8.196098238575000E9    -2.404734334881226E-1    4.803475186173415E-1   -2.559324412737134E-3   -1.011111717228864E-3   -2.676100753572349E-3   -9.590012220226685E-4   -1.635038201139819E-1    4.146723726649434E-1
 8.196104285150000E9    -2.400634612117079E-1    4.805138163890136E-1   -2.553189246231484E-3   -1.002635623686418E-3   -2.663251305577776E-3   -9.667213096659346E-4   -1.632334836777798E-1    4.146854944850832E-1
 8.196110331725000E9    -2.397437676900053E-1    4.806292054255975E-1   -2.566937301530292E-3   -1.024197073941688E-3   -2.673432360948789E-3   -9.567928685337307E-4   -1.629433593332791E-1    4.149283438084907E-1
 8.196116378300000E9    -2.393774295283952E-1    4.809165712710299E-1   -2.573011526372931E-3   -1.035557921665736E-3   -2.661995774009450E-3   -9.589360546412705E-4   -1.626962069567798E-1    4.150635290662147E-1
 8.196122424875000E9    -2.389093767447691E-1    4.812191039143315E-1   -2.562268610545153E-3   -1.019628974994612E-3   -2.690097864626654E-3   -9.501393571522848E-4   -1.623431465667690E-1    4.151416628430209E-1
 8.196128471450000E9    -2.385817942007893E-1    4.813487775424418E-1   -2.598474635237962E-3   -1.054752366635153E-3   -2.664112233208260E-3   -9.429627764148229E-4   -1.620464662447472E-1    4.153067051594916E-1
 8.196134518025000E9    -2.381341248303892E-1    4.815580902313493E-1   -2.590763241288623E-3   -1.033069283505262E-3   -2.651398067274769E-3   -9.551378743760459E-4   -1.618020594456843E-1    4.153276183583611E-1
 8.196140564600000E9    -2.376638746694943E-1    4.815420542250073E-1   -2.600372959742761E-3   -1.015615467886115E-3   -2.701589158551657E-3   -9.442526966637479E-4   -1.613909531906863E-1    4.155609141493719E-1
 8.196146611175000E9    -2.372340776949372E-1    4.818295209374383E-1   -2.562292328053891E-3   -1.028690655456267E-3   -2.656620698548543E-3   -9.294626533113640E-4   -1.611106938178161E-1    4.156221378875874E-1
 8.196152657750000E9    -2.367930103264989E-1    4.819711537228684E-1   -2.582166192598699E-3   -1.006502522805105E-3   -2.688896513971085E-3   -9.230047232546075E-4   -1.608732641187078E-1    4.155610551718261E-1
 8.196158704325000E9    -2.364280518261139E-1    4.822187822988099E-1   -2.592928262951478E-3   -1.015774817064836E-3   -2.687425126326175E-3   -9.195034017129833E-4   -1.603829569223961E-1    4.158684194915759E-1
 8.196164750900000E9    -2.361637989467744E-1    4.822648171312323E-1   -2.590618711584548E-3   -1.006577574206267E-3   -2.696705744560013E-3   -9.183521879692327E-4   -1.601419838909632E-1    4.158764604799318E-1
 8.196170797475000E9    -2.356928201664160E-1    4.826315116054190E-1   -2.602545063547718E-3   -1.013876990531729E-3   -2.679956624730046E-3   -9.522965427808457E-4   -1.597812779864923E-1    4.160120899941588E-1
 8.196176844050000E9    -2.353258385037724E-1    4.826787876310281E-1   -2.590311013340606E-3   -1.040555796682119E-3   -2.660523234919448E-3   -9.211458080545992E-4   -1.594988424603723E-1    4.161683319151014E-1
 8.196182890625000E9    -2.349280239928498E-1    4.829814601846470E-1   -2.622746141164586E-3   -1.014947300608626E-3   -2.686840191472722E-3   -9.333862614245330E-4   -1.592683617520729E-1    4.163141343128450E-1
 8.196188937200000E9    -2.346071978822678E-1    4.831388511039303E-1   -2.590648328982647E-3   -1.013093920258352E-3   -2.701150095132151E-3   -9.062107850859012E-4   -1.587759009555608E-1    4.163455029999912E-1
 8.196194983775000E9    -2.340745671056027E-1    4.832648419799603E-1   -2.594124214939108E-3   -1.002430032233255E-3   -2.689680934515481E-3   -9.423575776793534E-4   -1.585190448490569E-1    4.165906609789710E-1
 8.196201030350000E9    -2.336299006973094E-1    4.834967605280350E-1   -2.617062913116658E-3   -1.004226909056087E-3   -2.649862723404150E-3   -9.415166249728249E-4   -1.581180864422989E-1    4.165023216668480E-1
 8.196207076925000E9    -2.332744314349381E-1    4.836947738920737E-1   -2.619956771231659E-3   -9.986400635849458E-4   -2.699731728632480E-3   -9.127265706443913E-4   -1.578508645455420E-1    4.165616052626464E-1
 8.196213123500000E9    -2.328844552908059E-1    4.839395933611577E-1   -2.606149499201987E-3   -1.009410569788160E-3   -2.668211990479074E-3   -9.061444961267992E-4   -1.576460501101234E-1    4.168801867139644E-1
 8.196219170075000E9    -2.325900125785404E-1    4.840654348047306E-1   -2.602741836582835E-3   -1.008962722089873E-3   -2.712696796554134E-3   -9.160820593989066E-4   -1.571796054136340E-1    4.168880568778073E-1
 8.196225216650000E9    -2.321087164285431E-1    4.842708852975883E-1   -2.614499437491322E-3   -9.757040241697298E-4   -2.721962681793868E-3   -9.159805833488811E-4   -1.568695116852951E-1    4.169078061437453E-1
 8.196231263225000E9    -2.317228280057927E-1    4.845121702186581E-1   -2.599222883332665E-3   -1.011967222938509E-3   -2.680638479603911E-3   -9.008565777616850E-4   -1.566531296736402E-1    4.171228824331989E-1
 8.196237309800000E9    -2.313550799641403E-1    4.846751842369977E-1   -2.596044046339905E-3   -9.836958450845574E-4   -2.720278999124077E-3   -9.245391163512328E-4   -1.562723381747378E-1    4.173178223030831E-1
 8.196243356375000E9    -2.308458976247062E-1    4.847405573600626E-1   -2.621516777120548E-3   -9.893413450049429E-4   -2.715210634270792E-3   -9.155107159922788E-4   -1.559516040333756E-1    4.173904851823432E-1
 8.196249402950000E9    -2.305030665414154E-1    4.849125774515680E-1   -2.620915772980789E-3   -9.822659447072124E-4   -2.730314804556615E-3   -9.114494741339842E-4   -1.556149026997995E-1    4.173956636157503E-1
 8.196255449525000E9    -2.300675608155212E-1    4.850997729803369E-1   -2.632517973662398E-3   -9.765946365959538E-4   -2.687718006756965E-3   -8.991206086013085E-4   -1.553562320817490E-1    4.176787491323389E-1
 8.196261496100000E9    -2.296932208056562E-1    4.853032044549065E-1   -2.648665795941837E-3   -1.002919182724370E-3   -2.697347265031880E-3   -9.038804238752708E-4   -1.549022782694200E-1    4.176826984202068E-1
 8.196267542675000E9    -2.293957646777724E-1    4.856287383570026E-1   -2.629827172613562E-3   -1.001782299175240E-3   -2.747810347095606E-3   -9.438657975503835E-4   -1.546368668596510E-1    4.179252239563689E-1
 8.196273589250000E9    -2.290403716567773E-1    4.857236000449974E-1   -2.616920174230937E-3   -9.946254111707791E-4   -2.713834416755776E-3   -8.988092735529505E-4   -1.543229916965455E-1    4.179073354174797E-1
 8.196279635825000E9    -2.285563112490861E-1    4.858998556252082E-1   -2.601808474917817E-3   -9.356402172283533E-4   -2.746445427480068E-3   -9.125126733278566E-4   -1.538870802810702E-1    4.181168796415636E-1
 8.196285682400000E9    -2.280286455664202E-1    4.860500367820899E-1   -2.648537829151183E-3   -9.806410481869583E-4   -2.735742353725088E-3   -8.919902192066699E-4   -1.536901648338408E-1    4.181429116202287E-1
 8.196291728975000E9    -2.278062728377024E-1    4.863582584807748E-1   -2.627291734478484E-3   -9.706846110255596E-4   -2.739584224446419E-3   -8.940726623481200E-4   -1.533853744559051E-1    4.182704580454695E-1
 8.196297775550000E9    -2.273129250773208E-1    4.864744512959928E-1   -2.638327060426820E-3   -1.009145339384031E-3   -2.719284547122339E-3   -9.076971325478841E-4   -1.530824824689817E-1    4.183717623593078E-1
 8.196303822125000E9    -2.269971020209499E-1    4.866791689748362E-1   -2.654157705122619E-3   -9.891795134311038E-4   -2.742231639525408E-3   -9.167603634608179E-4   -1.527153397336258E-1    4.184163294694392E-1
 8.196309868700000E9    -2.265100020847162E-1    4.868127851830124E-1   -2.655974486584248E-3   -9.919397782749966E-4   -2.746845253124677E-3   -8.852734330156894E-4   -1.524196718640018E-1    4.185547500058030E-1
 8.196315915275000E9    -2.260874753610154E-1    4.869505147413756E-1   -2.678969355312235E-3   -9.853957669087483E-4   -2.741109080470247E-3   -8.803632333026441E-4   -1.520427365121693E-1    4.186665699769590E-1
 8.196321961850000E9    -2.257898959079229E-1    4.871926761968482E-1   -2.649242894308636E-3   -9.467618149764400E-4   -2.772146761114328E-3   -8.462813468751783E-4   -1.516381545460156E-1    4.188750145855321E-1
 8.196328008425000E9    -2.253218130024125E-1    4.872848081636487E-1   -2.659384983763904E-3   -9.567258308793172E-4   -2.754742251823303E-3   -8.838977531405903E-4   -1.512582738011611E-1    4.188832587768678E-1
 8.196334055000000E9    -2.250306208216713E-1    4.875812973703427E-1   -2.641840056638053E-3   -9.847114946254564E-4   -2.758309851733106E-3   -8.839654536031826E-4   -1.511283090558750E-1    4.189271630573078E-1
 8.196340101575000E9    -2.245000620879361E-1    4.877114361192024E-1   -2.662012826007937E-3   -9.609112860052282E-4   -2.756998508409244E-3   -8.974353178212308E-4   -1.507490367203682E-1    4.190328527835728E-1
 8.196346148150000E9    -2.242817759083314E-1    4.878430269463515E-1   -2.664690456280016E-3   -9.595905162442980E-4   -2.769240053625254E-3   -8.980693385643466E-4   -1.504779289026530E-1    4.192375205786488E-1
 8.196352194725000E9    -2.237394329958229E-1    4.879582425392756E-1   -2.670721159041593E-3   -9.609370900367000E-4   -2.753092711411938E-3   -8.593461753490611E-4   -1.502214346648011E-1    4.192458534603465E-1
 8.196358241300000E9    -2.232450652365280E-1    4.880982858092807E-1   -2.656196071360104E-3   -9.488789070331265E-4   -2.774837394061518E-3   -8.658256515626570E-4   -1.497463203809809E-1    4.194209403549837E-1
 8.196364287875000E9    -2.229105687887017E-1    4.884233518800361E-1   -2.670327118145710E-3   -9.508338231167818E-4   -2.782402298412586E-3   -8.529135027762114E-4   -1.494186450579460E-1    4.194404363771235E-1
 8.196370334450000E9    -2.224771160873530E-1    4.885522062052779E-1   -2.675817519328215E-3   -9.572781566058391E-4   -2.763212302256822E-3   -8.441992449527010E-4   -1.490817987919622E-1    4.195382179986442E-1
 8.196376381025000E9    -2.221171546872736E-1    4.885297845873687E-1   -2.680675396329622E-3   -9.475767349610981E-4   -2.759854303083840E-3   -8.847191434662360E-4   -1.488130974400324E-1    4.196215380926868E-1
 8.196382427600000E9    -2.216988165483416E-1    4.888933352409909E-1   -2.675893199573904E-3   -9.380395864956531E-4   -2.777189126386629E-3   -8.748246215839557E-4   -1.485036467162242E-1    4.197223574451756E-1
 8.196388474175000E9    -2.213650633535733E-1    4.890953190802743E-1   -2.692247771624121E-3   -9.431431755255851E-4   -2.745226127848280E-3   -8.373546271875071E-4   -1.483615377116197E-1    4.200056116331477E-1
 8.196394520750000E9    -2.209096627218769E-1    4.892247197454830E-1   -2.684589143741589E-3   -9.490726553678444E-4   -2.777710406452760E-3   -8.399297088068635E-4   -1.479964893021284E-1    4.199995077682930E-1
 8.196400567325000E9    -2.205879536279000E-1    4.894624570680656E-1   -2.695699035267970E-3   -9.678061238332397E-4   -2.774366267060235E-3   -8.688402601600809E-4   -1.476571951935231E-1    4.201770770549723E-1
 8.196406613900000E9    -2.200935758435747E-1    4.895999689857128E-1   -2.667033860478222E-3   -9.412706278981222E-4   -2.785451993521077E-3   -8.629246599008135E-4   -1.472070376318995E-1    4.202743309807798E-1
 8.196412660475000E9    -2.198164861830975E-1    4.898162169495650E-1   -2.690865132699509E-3   -9.878688050052199E-4   -2.830613968364796E-3   -8.831759599643123E-4   -1.469595859238143E-1    4.204485669000237E-1
 8.196418707050000E9    -2.193370364197967E-1    4.899703252424704E-1   -2.693407710126655E-3   -9.120999298575622E-4   -2.777037862474994E-3   -8.555704607359210E-4   -1.466145716062729E-1    4.205050965918248E-1
 8.196424753625000E9    -2.188666897555090E-1    4.900673490177879E-1   -2.682437894014027E-3   -9.533999348443105E-4   -2.806104443042315E-3   -8.872652518934096E-4   -1.462876910944590E-1    4.205283862349492E-1
 8.196430800200000E9    -2.185303321709910E-1    4.902950926344545E-1   -2.733216668429288E-3   -9.285931724322665E-4   -2.806813699559107E-3   -8.569981341532367E-4   -1.460111032194117E-1    4.206460894724144E-1
 8.196436846775000E9    -2.180852294558743E-1    4.906138366131580E-1   -2.702265606303886E-3   -9.381799377477896E-4   -2.777784308802552E-3   -8.548868922459608E-4   -1.456749813271709E-1    4.207840682741860E-1
 8.196442893350000E9    -2.178097159085674E-1    4.905647532965558E-1   -2.699758477970355E-3   -9.553235496508953E-4   -2.813888535189805E-3   -8.536235329361355E-4   -1.453843558349207E-1    4.208750676056215E-1
 8.196448939925000E9    -2.173926497554519E-1    4.907703215565671E-1   -2.694068608198541E-3   -9.294709524811920E-4   -2.820840262193514E-3   -8.254066389878076E-4   -1.448821065291706E-1    4.210579036297365E-1
 8.196454986500000E9    -2.169961577832249E-1    4.909229843726254E-1   -2.710568213861035E-3   -9.423319980916351E-4   -2.810011114218830E-3   -8.130115799331338E-4   -1.448046748806587E-1    4.209477459983148E-1
 8.196461033075000E9    -2.164890181288268E-1    4.911106960954395E-1   -2.708366993441163E-3   -9.355783002931838E-4   -2.819859553071002E-3   -8.327793630427354E-4   -1.443314818990443E-1    4.211534581613358E-1
 8.196467079650000E9    -2.160810178345739E-1    4.912650869510471E-1   -2.721964614085061E-3   -9.316173307403894E-4   -2.824511506388479E-3   -8.486604958026023E-4   -1.441170109348763E-1    4.213253564155460E-1
 8.196473126225000E9    -2.156257949161894E-1    4.914746052986836E-1   -2.715817458873284E-3   -9.292483118283079E-4   -2.799975279399605E-3   -8.293586707635566E-4   -1.437872784193847E-1    4.213029223812595E-1
 8.196479172800000E9    -2.152780772342087E-1    4.916448649400232E-1   -2.729770520629820E-3   -9.435905614464462E-4   -2.825484386993181E-3   -8.426059228441753E-4   -1.434285857600359E-1    4.213727901575956E-1
 8.196485219375000E9    -2.149336685854728E-1    4.918567486750615E-1   -2.706154425172105E-3   -9.126685302425587E-4   -2.803753372562766E-3   -8.874437409321558E-4   -1.430537886080901E-1    4.215290234769955E-1
 8.196491265950000E9    -2.144807658314089E-1    4.919233670817791E-1   -2.704450900501952E-3   -9.168848345487429E-4   -2.799940431730788E-3   -8.271660837268744E-4   -1.428296143225495E-1    4.216922258623565E-1
 8.196497312525000E9    -2.139654606709135E-1    4.921649530533122E-1   -2.719199756172365E-3   -9.194379638211857E-4   -2.808883898491603E-3   -8.082945680493388E-4   -1.424019987428015E-1    4.217734796367507E-1
 8.196503359100000E9    -2.137678246393796E-1    4.924585176926947E-1   -2.728799542594889E-3   -9.423449279510462E-4   -2.841745248527564E-3   -8.460364881169127E-4   -1.421501565012105E-1    4.217740353271443E-1
 8.196509405675000E9    -2.132534345561997E-1    4.925629220989601E-1   -2.735849334954185E-3   -9.053543850166830E-4   -2.799286746688929E-3   -8.301698560347945E-4   -1.416634399741608E-1    4.220832402378495E-1
 8.196515452250000E9    -2.129430477449716E-1    4.926760059813911E-1   -2.730971246960613E-3   -8.998804787631846E-4   -2.853813153037355E-3   -8.092646601382556E-4   -1.413750632068656E-1    4.220749533129166E-1
 8.196521498825000E9    -2.124446555114480E-1    4.928492866177295E-1   -2.734651613187851E-3   -9.108996376056276E-4   -2.847823267118654E-3   -8.130232583292582E-4   -1.411014716227419E-1    4.222008692590222E-1
 8.196527545400000E9    -2.121643624180627E-1    4.929445625782053E-1   -2.749238432353503E-3   -9.221336510260248E-4   -2.827273819180364E-3   -8.197812070242174E-4   -1.406958883126209E-1    4.222816087633084E-1
 8.196533591975000E9    -2.116186640771803E-1    4.931472123721117E-1   -2.769293304535716E-3   -8.832416210703385E-4   -2.851302577145681E-3   -8.307840409091927E-4   -1.404428997932910E-1    4.222555741621946E-1
 8.196539638550000E9    -2.112203209600541E-1    4.933689285626961E-1   -2.762476324868043E-3   -9.175882828630415E-4   -2.843995355721621E-3   -8.201565672190579E-4   -1.401284857137370E-1    4.224056779383321E-1
 8.196545685125000E9    -2.108475518107630E-1    4.935474014400235E-1   -2.759571439433513E-3   -8.886668547307148E-4   -2.842835964254347E-3   -8.074995867519711E-4   -1.397818766334012E-1    4.225681593372638E-1
 8.196551731700000E9    -2.104132165712913E-1    4.936054949460926E-1   -2.744897758742637E-3   -8.939045661868287E-4   -2.861424189651662E-3   -8.142152745038225E-4   -1.394724082395758E-1    4.225373742144970E-1
 8.196557778275000E9    -2.099956718586139E-1    4.937868087433448E-1   -2.764033229315532E-3   -9.039351496959770E-4   -2.846642820079896E-3   -8.014107640039453E-4   -1.390148271545184E-1    4.226944667434257E-1
 8.196563824850000E9    -2.096805906276491E-1    4.939683166949583E-1   -2.788798204023537E-3   -8.857688377021390E-4   -2.867590795799325E-3   -8.344464881545955E-4   -1.389496168633727E-1    4.229001651187593E-1
 8.196569871425000E9    -2.091558251264944E-1    4.941928675021069E-1   -2.767772669062452E-3   -9.117829307653526E-4   -2.852770828221720E-3   -8.376692301392221E-4   -1.385907640576485E-1    4.229430966351620E-1
 8.196575918000000E9    -2.087182970230000E-1    4.943088415666023E-1   -2.778647063017681E-3   -8.947381085719615E-4   -2.869615858544625E-3   -7.885184103286760E-4   -1.381349582901749E-1    4.230713932217289E-1
 8.196581964575000E9    -2.084003192474777E-1    4.945605193277353E-1   -2.798677913586768E-3   -9.005109604790680E-4   -2.914547130511069E-3   -7.994650967152144E-4   -1.376501055485597E-1    4.230997836057769E-1
 8.196588011150000E9    -2.080128028422843E-1    4.946282395562356E-1   -2.782181536094615E-3   -9.099589199022327E-4   -2.896155085760372E-3   -7.898572839623684E-4   -1.375581534153311E-1    4.231972599808225E-1
 8.196594057725000E9    -2.075742101117603E-1    4.948628194086160E-1   -2.803863997849781E-3   -9.056629526338875E-4   -2.886553901221932E-3   -7.908824992782490E-4   -1.372629424396747E-1    4.232811281920930E-1
 8.196600104300000E9    -2.071311067719562E-1    4.949420038278241E-1   -2.775130599797748E-3   -8.876662583933168E-4   -2.904037634634983E-3   -7.999886416149908E-4   -1.368859783331538E-1    4.234403725736863E-1
 8.196606150875000E9    -2.066429548526552E-1    4.951887866776372E-1   -2.782008977962563E-3   -9.025179936859662E-4   -2.903274083327450E-3   -8.224653911450040E-4   -1.364334881411415E-1    4.232715479664157E-1
 8.196612197450000E9    -2.062550654771874E-1    4.952427219205596E-1   -2.812231844296179E-3   -8.839400579702602E-4   -2.887716484128192E-3   -8.001963334472788E-4   -1.360626345328859E-1    4.235450213835731E-1
 8.196618244025000E9    -2.059002620984394E-1    4.954607937736739E-1   -2.802851368281656E-3   -8.581876816031875E-4   -2.863979637306265E-3   -8.061780099378018E-4   -1.359987183201699E-1    4.237174042406985E-1
 8.196624290600000E9    -2.054325391167503E-1    4.955358041493922E-1   -2.820513930912733E-3   -8.831658497927145E-4   -2.916943104460733E-3   -8.174360514846482E-4   -1.356865516783700E-1    4.238122469927371E-1
 8.196630337175000E9    -2.050153258090229E-1    4.957023822996265E-1   -2.827226158376081E-3   -8.825767338272102E-4   -2.901001476494403E-3   -7.451228129410380E-4   -1.352522695796386E-1    4.238095030368255E-1
 8.196636383750000E9    -2.045949012250812E-1    4.960309443133368E-1   -2.823210816971486E-3   -8.831711398595463E-4   -2.921841160381283E-3   -7.566148805226525E-4   -1.349357428447941E-1    4.239162407320550E-1
