#  HZ   S   RI   R     50.00 
! Rohde & Schwarz Vector Network Analyzer 
! Rohde-Schwarz,ZNB20-2Port,1311601062101988,3.16
! Created: UTC 3/20/2024, 4:50:57 PM
! freq[Hz]                re:S11                  im:S11                  re:S21                  im:S21                  re:S12                  im:S12                  re:S22                  im:S22
 8.195958552000000E9    -2.493967100674431E-1    4.759079315728619E-1   -2.545212596705965E-3   -1.061471407871233E-3   -2.634286556630748E-3   -9.903151650863600E-4   -1.710371470199798E-1    4.117564176142546E-1
 8.195965184700000E9    -2.488999794666490E-1    4.760189268137767E-1   -2.526996367192648E-3   -1.062382681042906E-3   -2.665606094792501E-3   -9.881541444009742E-4   -1.707655860073183E-1    4.118980636296202E-1
 8.195971817400000E9    -2.485729392047178E-1    4.763296567005612E-1   -2.523974415299803E-3   -1.041465136714039E-3   -2.614401022261356E-3   -9.958467622209072E-4   -1.703169784086617E-1    4.120761132532231E-1
 8.195978450100000E9    -2.481233453849509E-1    4.764474468788590E-1   -2.515284849774767E-3   -1.083640300950873E-3   -2.651670523208280E-3   -9.813265027300065E-4   -1.699318559278993E-1    4.121254812710911E-1
 8.195985082800000E9    -2.476775020457486E-1    4.766952887361308E-1   -2.516780043751779E-3   -1.044721893586231E-3   -2.603262924258574E-3   -9.925018714166734E-4   -1.695936985651313E-1    4.120264317614062E-1
 8.195991715500000E9    -2.471120683304127E-1    4.769924863794904E-1   -2.540150686480802E-3   -1.070230385974457E-3   -2.640337234744469E-3   -1.008859774012034E-3   -1.692898903842612E-1    4.122797498449173E-1
 8.195998348200000E9    -2.467951994541037E-1    4.771521448837325E-1   -2.550192431291468E-3   -1.056872586991960E-3   -2.614909184834861E-3   -9.878148550410614E-4   -1.689962171944498E-1    4.126085666531425E-1
 8.196004980900000E9    -2.463868346600721E-1    4.773723235276126E-1   -2.542361934562715E-3   -1.061497832083824E-3   -2.627436655395676E-3   -9.815594590297158E-4   -1.685668667119511E-1    4.125694290228678E-1
 8.196011613600000E9    -2.459419494088289E-1    4.776709763098582E-1   -2.548955519814177E-3   -1.062104396827886E-3   -2.618983771641365E-3   -9.495806852416158E-4   -1.681289316656107E-1    4.128772633631727E-1
 8.196018246300000E9    -2.454763475851572E-1    4.777668442107261E-1   -2.545586034455263E-3   -1.050261433196603E-3   -2.650063170288906E-3   -9.537397944484004E-4   -1.680211943222465E-1    4.128981459902690E-1
 8.196024879000000E9    -2.451882574881827E-1    4.779991791427708E-1   -2.558771525416474E-3   -1.065813569110553E-3   -2.635733384197684E-3   -9.692540298744794E-4   -1.676863299522753E-1    4.130610189682127E-1
 8.196031511700000E9    -2.446511966215928E-1    4.781120550515051E-1   -2.525939931961536E-3   -1.064760265801935E-3   -2.667447827917043E-3   -9.879216740806696E-4   -1.672492929903272E-1    4.132749180450607E-1
 8.196038144400000E9    -2.442099990979697E-1    4.784835534392251E-1   -2.538755752801986E-3   -1.042195148874321E-3   -2.641568226030296E-3   -1.012640173482134E-3   -1.668691833345085E-1    4.133504268276251E-1
 8.196044777100000E9    -2.437306968344083E-1    4.786512728172947E-1   -2.529993402728839E-3   -1.048995941720910E-3   -2.653953842829468E-3   -9.539149517335517E-4   -1.664425822766019E-1    4.133769828475264E-1
 8.196051409800000E9    -2.433330098640659E-1    4.789108688178207E-1   -2.528685531212005E-3   -1.064740646972664E-3   -2.676861088486296E-3   -9.750095512570407E-4   -1.662458887770915E-1    4.136356799803097E-1
 8.196058042500000E9    -2.429214563932873E-1    4.790945170864453E-1   -2.536902698831345E-3   -1.036319594159597E-3   -2.632034244465238E-3   -9.872664131032700E-4   -1.658062421501218E-1    4.135999596701056E-1
 8.196064675200000E9    -2.425330467678027E-1    4.793084850632708E-1   -2.549067051775923E-3   -1.035944731132480E-3   -2.671350211517089E-3   -9.480700198615001E-4   -1.655542597365247E-1    4.138289115104569E-1
 8.196071307900000E9    -2.421390584351554E-1    4.794904356771877E-1   -2.559355435506459E-3   -1.038282023407853E-3   -2.637581807257029E-3   -9.651980743898556E-4   -1.651141793237709E-1    4.140469472109282E-1
 8.196077940600000E9    -2.418168271397029E-1    4.798197315276846E-1   -2.548240708836190E-3   -1.034667797348636E-3   -2.657741086268549E-3   -9.798769449667140E-4   -1.648900956520362E-1    4.140991830172426E-1
 8.196084573300000E9    -2.411676450005605E-1    4.798414641192629E-1   -2.553706331713361E-3   -1.047279208127210E-3   -2.678724317820524E-3   -9.694490741217829E-4   -1.643947084034697E-1    4.141539225510840E-1
 8.196091206000000E9    -2.408697037023193E-1    4.801503733537111E-1   -2.540497631138428E-3   -1.029336249133959E-3   -2.634217553385867E-3   -9.474431631938654E-4   -1.640945773464726E-1    4.143529335764405E-1
 8.196097838700000E9    -2.403554441141545E-1    4.803727565767819E-1   -2.561173545505512E-3   -1.025174348344512E-3   -2.670939244286413E-3   -9.355466958357547E-4   -1.636995798718394E-1    4.144445795364442E-1
 8.196104471400000E9    -2.399590321749523E-1    4.806072402367801E-1   -2.581107455096278E-3   -1.038952795165948E-3   -2.692372780080553E-3   -9.579063920160381E-4   -1.633693784991979E-1    4.145352384516853E-1
 8.196111104100000E9    -2.395510472344017E-1    4.807327788265493E-1   -2.532257452701105E-3   -1.035510025363536E-3   -2.662553366425729E-3   -9.532759918455930E-4   -1.630237273703941E-1    4.146596775943205E-1
 8.196117736800000E9    -2.390647984651088E-1    4.810145649167458E-1   -2.567639177335771E-3   -1.031207818115308E-3   -2.713043033564224E-3   -9.390074761135978E-4   -1.627796155870345E-1    4.148278818896953E-1
 8.196124369500000E9    -2.387439061757771E-1    4.810597974518510E-1   -2.594451352404032E-3   -1.011491232516961E-3   -2.666841682155122E-3   -9.591075471427660E-4   -1.623554109323764E-1    4.150558545791873E-1
 8.196131002200000E9    -2.381993696293797E-1    4.813166749763216E-1   -2.574269456910980E-3   -9.965303027256918E-4   -2.682803196112196E-3   -9.595136590917990E-4   -1.620483532634326E-1    4.152035094593907E-1
 8.196137634900000E9    -2.377599514816426E-1    4.815997898323962E-1   -2.588227971627431E-3   -1.009720986986468E-3   -2.671058063594208E-3   -9.267622007300539E-4   -1.616484900636040E-1    4.152326912815018E-1
 8.196144267600000E9    -2.373556437984949E-1    4.816905170330332E-1   -2.582126229959307E-3   -1.024786286716347E-3   -2.684733789303209E-3   -9.542182972105618E-4   -1.613136923838109E-1    4.153619068307299E-1
 8.196150900300000E9    -2.368905934777306E-1    4.819288224825585E-1   -2.606878237020521E-3   -1.019499146098842E-3   -2.650837809867009E-3   -9.458716804969321E-4   -1.610579037759257E-1    4.154153746589248E-1
 8.196157533000000E9    -2.364798036433643E-1    4.820889746374660E-1   -2.564429693821298E-3   -1.022443432342532E-3   -2.683692730649431E-3   -9.123433058761565E-4   -1.605270807364552E-1    4.155775120934902E-1
 8.196164165700000E9    -2.360575313016611E-1    4.824253010598302E-1   -2.593672177372827E-3   -1.010385333172194E-3   -2.704538056396861E-3   -9.317093115376758E-4   -1.601603448673379E-1    4.156347411310548E-1
 8.196170798400000E9    -2.355547302401697E-1    4.826067289456054E-1   -2.601542859173263E-3   -9.914525304792882E-4   -2.685693079468260E-3   -9.431913902318304E-4   -1.599310657273744E-1    4.158596416238836E-1
 8.196177431100000E9    -2.352240634767790E-1    4.829006518995803E-1   -2.617223835590246E-3   -1.032809143270969E-3   -2.693150125792385E-3   -9.341934250529753E-4   -1.595654117620062E-1    4.158246870837702E-1
 8.196184063800000E9    -2.348138671625091E-1    4.829420572750205E-1   -2.589272803014107E-3   -1.015837810937524E-3   -2.718499589991897E-3   -9.647343560177650E-4   -1.591213536146576E-1    4.160926341840065E-1
 8.196190696500000E9    -2.343363754378417E-1    4.832095225415003E-1   -2.573051938010522E-3   -1.005081542290751E-3   -2.678765852135243E-3   -9.627670371999366E-4   -1.588740392532317E-1    4.161980678634080E-1
 8.196197329200000E9    -2.338098919665559E-1    4.834668514557909E-1   -2.627568566077460E-3   -9.952428578155943E-4   -2.680174579167720E-3   -9.032619016910203E-4   -1.585077715043749E-1    4.163637543779371E-1
 8.196203961900000E9    -2.335161072768783E-1    4.835930296932919E-1   -2.624043766663725E-3   -1.040901697842577E-3   -2.683486367477755E-3   -9.355399684640273E-4   -1.581224880340400E-1    4.163489087113318E-1
 8.196210594600000E9    -2.330094434185037E-1    4.838658387420520E-1   -2.616572111663382E-3   -1.028380042304722E-3   -2.724063869221963E-3   -9.144394665968116E-4   -1.578542205253904E-1    4.165476868019832E-1
 8.196217227300000E9    -2.327128877894266E-1    4.839704818744291E-1   -2.609843520886514E-3   -1.005404210441167E-3   -2.692665324940635E-3   -9.436826286901864E-4   -1.575746831599005E-1    4.167045759234844E-1
 8.196223860000000E9    -2.322567872072650E-1    4.842227944126311E-1   -2.621300414058133E-3   -9.903407899432488E-4   -2.719544760388696E-3   -8.960106282828422E-4   -1.569432085699390E-1    4.167873964317231E-1
 8.196230492700000E9    -2.317425435695217E-1    4.843752476931933E-1   -2.606419541461918E-3   -9.941403189709938E-4   -2.690829885002825E-3   -9.330913192046936E-4   -1.566836853992522E-1    4.169564225708748E-1
 8.196237125400000E9    -2.313149140041347E-1    4.846278661035067E-1   -2.618217966800020E-3   -9.737127543659209E-4   -2.736540216435097E-3   -9.150435454658907E-4   -1.563581599219460E-1    4.169864729189864E-1
 8.196243758100000E9    -2.308630727819821E-1    4.847537430456312E-1   -2.609000154486203E-3   -1.026490666879841E-3   -2.711110938124167E-3   -8.931545233934491E-4   -1.560947369052145E-1    4.171733804490158E-1
 8.196250390800000E9    -2.304793674900991E-1    4.850125385771464E-1   -2.614341018280362E-3   -9.380952429528988E-4   -2.689400423575254E-3   -9.365486200686446E-4   -1.556992089682028E-1    4.172267723880628E-1
 8.196257023500000E9    -2.299634824559388E-1    4.852890053161224E-1   -2.643924714593768E-3   -1.007727032671068E-3   -2.711520127000426E-3   -9.077442681031171E-4   -1.554053923246591E-1    4.174711910768434E-1
 8.196263656200000E9    -2.296162654091509E-1    4.854055055403149E-1   -2.632260018754651E-3   -9.716409564692983E-4   -2.698148660032896E-3   -8.974936787988196E-4   -1.549798746516400E-1    4.175829519021996E-1
 8.196270288900000E9    -2.292075334425185E-1    4.856090647844002E-1   -2.631294919460910E-3   -9.807107906334587E-4   -2.709976035441190E-3   -8.902202853831019E-4   -1.547425317492033E-1    4.177291217306733E-1
 8.196276921600000E9    -2.287521244709977E-1    4.858277692081313E-1   -2.612177693308005E-3   -9.825294892486787E-4   -2.731611328588496E-3   -8.909310071424135E-4   -1.543054711724459E-1    4.177028604553545E-1
 8.196283554300000E9    -2.283597162726453E-1    4.859649853664305E-1   -2.648471800259485E-3   -9.951638209905226E-4   -2.720006267001797E-3   -9.076910570298383E-4   -1.538690117779770E-1    4.180211724314207E-1
 8.196290187000000E9    -2.279021030061242E-1    4.861688877558257E-1   -2.621792157767789E-3   -9.611691499478311E-4   -2.719375642093819E-3   -8.879463962667745E-4   -1.535963876092722E-1    4.178714067521351E-1
 8.196296819700000E9    -2.273475801444130E-1    4.864287422447910E-1   -2.642727250637228E-3   -9.685731985263079E-4   -2.730888296872474E-3   -9.295733103486782E-4   -1.533332662318632E-1    4.181513602249643E-1
 8.196303452400000E9    -2.270451863495851E-1    4.865520164701580E-1   -2.646486374105352E-3   -9.805530010209898E-4   -2.756230434935239E-3   -8.939785039373128E-4   -1.528715330425190E-1    4.183813499704476E-1
 8.196310085100000E9    -2.265445561366353E-1    4.867800621860339E-1   -2.660865590849439E-3   -9.692483744235855E-4   -2.737659706594282E-3   -8.808114601477137E-4   -1.525563737541152E-1    4.183503937791910E-1
 8.196316717800000E9    -2.260056109793781E-1    4.869378529173196E-1   -2.628269491783338E-3   -9.683000998881602E-4   -2.754014133860947E-3   -9.022685640217849E-4   -1.521827942131637E-1    4.184926221361151E-1
 8.196323350500000E9    -2.256940355452473E-1    4.871536102823599E-1   -2.653726289587067E-3   -9.661140500643612E-4   -2.710472216343072E-3   -9.029854698915733E-4   -1.518551737857882E-1    4.186014997005447E-1
 8.196329983200000E9    -2.252323871603831E-1    4.873335626261950E-1   -2.667582302064582E-3   -9.818180788584141E-4   -2.753949690286735E-3   -8.786427995119552E-4   -1.513663979935451E-1    4.186656706894701E-1
 8.196336615900000E9    -2.248191298596137E-1    4.875362923667079E-1   -2.663352433508473E-3   -9.701492185999821E-4   -2.757129938343491E-3   -8.976598567313881E-4   -1.512193172648168E-1    4.187843282738613E-1
 8.196343248600000E9    -2.243519831417758E-1    4.878022284268075E-1   -2.643604054632292E-3   -9.411247317977255E-4   -2.738150125955836E-3   -8.744103493949622E-4   -1.507416914525755E-1    4.189350839738304E-1
 8.196349881300000E9    -2.239577515972486E-1    4.878787443150521E-1   -2.672736289938376E-3   -9.623319938632221E-4   -2.748567156899343E-3   -8.613540748540838E-4   -1.503913404908038E-1    4.191021746219510E-1
 8.196356514000000E9    -2.235870282702306E-1    4.882199034510283E-1   -2.667030786485731E-3   -9.705513383654799E-4   -2.784471086935797E-3   -8.971540797039680E-4   -1.500667025255778E-1    4.190861850398044E-1
 8.196363146700000E9    -2.230513843366442E-1    4.882129444169438E-1   -2.654456481756815E-3   -9.551762894285393E-4   -2.769874681952364E-3   -9.173186764034391E-4   -1.497558475571630E-1    4.193169809574994E-1
 8.196369779400000E9    -2.226015105499871E-1    4.885353339224879E-1   -2.683232184801604E-3   -9.789777501029054E-4   -2.771599923961461E-3   -8.660635455686485E-4   -1.493768623527510E-1    4.193359531868233E-1
 8.196376412100000E9    -2.220810210200096E-1    4.886920528382175E-1   -2.673537481040828E-3   -9.472063400879823E-4   -2.751996743598187E-3   -8.803965421275820E-4   -1.489197711909239E-1    4.194619719397245E-1
 8.196383044800000E9    -2.217441401467871E-1    4.888926220664965E-1   -2.672748511795735E-3   -9.657284606997300E-4   -2.752366228183716E-3   -8.378590848595046E-4   -1.486306462933634E-1    4.197869037060930E-1
 8.196389677500000E9    -2.212427336338037E-1    4.891873958746054E-1   -2.679768264771052E-3   -9.435715640347535E-4   -2.776215859875898E-3   -8.594774416504372E-4   -1.481596753088004E-1    4.196255687229404E-1
 8.196396310200000E9    -2.207618974276966E-1    4.890849416859400E-1   -2.664520385132536E-3   -9.366867244227013E-4   -2.775828134651261E-3   -8.800215649509754E-4   -1.479584809444214E-1    4.199292055074282E-1
 8.196402942900000E9    -2.203040978012536E-1    4.893964883697862E-1   -2.669295913089698E-3   -9.651168719252607E-4   -2.756925488110337E-3   -8.563721662710610E-4   -1.475180878067473E-1    4.200055719756414E-1
 8.196409575600000E9    -2.199093536837342E-1    4.896245293865972E-1   -2.686085496731460E-3   -9.458025693477956E-4   -2.773246674856822E-3   -8.626551037673806E-4   -1.473519141229425E-1    4.200451522521332E-1
 8.196416208300000E9    -2.194377596481118E-1    4.898720123015242E-1   -2.687559426741365E-3   -9.369217512131075E-4   -2.761614494007857E-3   -8.514907481485212E-4   -1.468480785250033E-1    4.202329290148172E-1
 8.196422841000000E9    -2.190731743365181E-1    4.900089620769252E-1   -2.697471067591358E-3   -9.428024992787267E-4   -2.783353406472581E-3   -8.761561410068663E-4   -1.466148285176262E-1    4.204670307924545E-1
 8.196429473700000E9    -2.185815301861048E-1    4.903271685118662E-1   -2.700697534556947E-3   -9.628943997713433E-4   -2.801897157340656E-3   -8.512227573246968E-4   -1.460565567707032E-1    4.203186840018437E-1
 8.196436106400000E9    -2.182333637725625E-1    4.904919727321490E-1   -2.707586044662294E-3   -9.475588109068214E-4   -2.823018298160462E-3   -8.848666792622312E-4   -1.458297223599138E-1    4.206681121789310E-1
 8.196442739100000E9    -2.176605074746059E-1    4.906472308203041E-1   -2.706693582889306E-3   -9.466499599729798E-4   -2.794339437234923E-3   -8.644316619592724E-4   -1.455278810387337E-1    4.206774278656106E-1
 8.196449371800000E9    -2.173351677073005E-1    4.907326043909016E-1   -2.705341999692858E-3   -9.154427580751920E-4   -2.827287422840805E-3   -8.591850823030787E-4   -1.450703763405648E-1    4.206738636487237E-1
 8.196456004500000E9    -2.168331543885273E-1    4.909475691129548E-1   -2.717290617956651E-3   -9.288710789893387E-4   -2.811189749841735E-3   -8.187784640113621E-4   -1.447920383533967E-1    4.207639223984362E-1
 8.196462637200000E9    -2.164040490447724E-1    4.911148344349129E-1   -2.719822314296579E-3   -9.369597763091163E-4   -2.791723293139824E-3   -8.333550991494861E-4   -1.443486563756303E-1    4.209480248643346E-1
 8.196469269900000E9    -2.160061406867893E-1    4.913466233604588E-1   -2.730985724852827E-3   -9.090367947476849E-4   -2.799932703054064E-3   -8.439980010112201E-4   -1.439241348334373E-1    4.210068226470251E-1
 8.196475902600000E9    -2.156151621475610E-1    4.915539196338150E-1   -2.705442632645884E-3   -9.269856791457146E-4   -2.828450750398150E-3   -8.465288252059344E-4   -1.436737770528395E-1    4.211578608844467E-1
 8.196482535300000E9    -2.150333448727769E-1    4.916618265825853E-1   -2.730298549705685E-3   -9.304445683736442E-4   -2.807126269709012E-3   -8.249358094945784E-4   -1.433867821303029E-1    4.212080988885941E-1
 8.196489168000000E9    -2.146470492241886E-1    4.918847490713399E-1   -2.707442113909264E-3   -9.303186932481787E-4   -2.814182220094700E-3   -8.518894190799889E-4   -1.429883541595791E-1    4.213221864530444E-1
 8.196495800700000E9    -2.140386742894510E-1    4.921003637262773E-1   -2.746903397282911E-3   -9.243454013454362E-4   -2.822099416008484E-3   -8.277357531738111E-4   -1.426812990407334E-1    4.214839618935807E-1
 8.196502433400000E9    -2.137859176523992E-1    4.923551336929678E-1   -2.753550396516996E-3   -9.462060596393785E-4   -2.848134108811896E-3   -8.509113074192480E-4   -1.422322517484578E-1    4.216749938191967E-1
 8.196509066100000E9    -2.132770486892940E-1    4.924110666682626E-1   -2.730700365765456E-3   -8.981506754632480E-4   -2.854559390047666E-3   -8.108784013147096E-4   -1.418115318651848E-1    4.217038144751093E-1
 8.196515698800000E9    -2.128074165463158E-1    4.926446543341935E-1   -2.743849912440345E-3   -8.837820728414486E-4   -2.816822040162438E-3   -8.439427882925053E-4   -1.415326925206900E-1    4.218252689225735E-1
 8.196522331500000E9    -2.123959295857379E-1    4.927406631565732E-1   -2.764011343587629E-3   -9.029242733336934E-4   -2.823472882682051E-3   -7.928759071671827E-4   -1.412323561710617E-1    4.220777717708566E-1
 8.196528964200000E9    -2.119303136461542E-1    4.929732671443992E-1   -2.767479864429107E-3   -9.052860608127131E-4   -2.846792409708144E-3   -8.068213857514072E-4   -1.407936460610742E-1    4.220338153207540E-1
 8.196535596900000E9    -2.114651086457561E-1    4.932514999759353E-1   -2.773636029409999E-3   -9.213735083629296E-4   -2.853674414259214E-3   -8.328418393065533E-4   -1.404190384123480E-1    4.221284883458862E-1
 8.196542229600000E9    -2.109653836278469E-1    4.933244204448364E-1   -2.777026092410078E-3   -9.123258861322975E-4   -2.839686172881700E-3   -8.278030751753749E-4   -1.400498686208776E-1    4.223353558662143E-1
 8.196548862300000E9    -2.105021100822067E-1    4.935645211991432E-1   -2.781087741542330E-3   -9.199319309588680E-4   -2.854908570968000E-3   -7.948107533734251E-4   -1.397149856668805E-1    4.223399150225711E-1
 8.196555495000000E9    -2.102511814553307E-1    4.937456513638656E-1   -2.768233428424041E-3   -9.090809148439049E-4   -2.872173713157491E-3   -8.313352017198019E-4   -1.394022716400448E-1    4.225483767415581E-1
