#  HZ   S   RI   R     50.00 
! Rohde & Schwarz Vector Network Analyzer 
! Rohde-Schwarz,ZNB20-2Port,1311601062101988,3.16
! Created: UTC 3/20/2024, 5:06:07 PM
! freq[Hz]                re:S11                  im:S11                  re:S21                  im:S21                  re:S12                  im:S12                  re:S22                  im:S22
 8.177579220000000E9    -1.553898859885736E-1   -5.215862868096757E-1    2.026529832155204E-3   -9.753692592211772E-4    2.073737524448324E-3   -1.015952287757237E-3   -2.274185736308015E-1   -4.110484866997494E-1
 8.177668607250000E9    -1.611227362909259E-1   -5.197138930545584E-1    2.028103794662744E-3   -9.870012111608583E-4    2.089999113014738E-3   -1.029302801189243E-3   -2.317013002132735E-1   -4.084691820274831E-1
 8.177757994500000E9    -1.670451402229061E-1   -5.179309329409689E-1    2.004160658381201E-3   -9.998245776041740E-4    2.076477355028940E-3   -1.100731131731236E-3   -2.359806064618634E-1   -4.059061161776730E-1
 8.177847381750000E9    -1.729044404258090E-1   -5.158776907961670E-1    2.014636583608291E-3   -1.043807332565487E-3    2.045467181594403E-3   -1.087946642609587E-3   -2.403444255961317E-1   -4.031420662110712E-1
 8.177936769000000E9    -1.788305142170178E-1   -5.138089728892236E-1    1.991999575710327E-3   -1.046742967194530E-3    2.022724441210899E-3   -1.121659509965831E-3   -2.446410706453120E-1   -4.005044740693806E-1
 8.178026156250000E9    -1.846088524415272E-1   -5.118018987852480E-1    1.968028461121720E-3   -1.073864288683032E-3    2.037285495734583E-3   -1.132606715355134E-3   -2.488403830202016E-1   -3.977826089221856E-1
 8.178115543500000E9    -1.903927090960111E-1   -5.095291075573860E-1    1.952351260423358E-3   -1.074576722842671E-3    2.019498360206085E-3   -1.138147282517619E-3   -2.529227424669646E-1   -3.949339802340499E-1
 8.178204930750000E9    -1.959921113334573E-1   -5.075445433612245E-1    1.930016083303265E-3   -1.126656333071866E-3    1.992085267233227E-3   -1.170601715549612E-3   -2.570196989921685E-1   -3.920954339217733E-1
 8.178294318000000E9    -2.018257355500876E-1   -5.052503718288645E-1    1.938925755355070E-3   -1.132413066717950E-3    1.979376391392562E-3   -1.161386650398705E-3   -2.613153670403737E-1   -3.891608641994397E-1
 8.178383705250000E9    -2.075437979050890E-1   -5.029285125095017E-1    1.913673007785815E-3   -1.175651023061035E-3    1.976813516630540E-3   -1.241003144546025E-3   -2.654498782783386E-1   -3.865498660581193E-1
 8.178473092500000E9    -2.132237864472949E-1   -5.005222330722046E-1    1.910735857432299E-3   -1.170688914958155E-3    1.955682342220339E-3   -1.207170242224908E-3   -2.695169821348854E-1   -3.833301650494594E-1
 8.178562479750000E9    -2.188949310739075E-1   -4.980132914081509E-1    1.892032316373961E-3   -1.241593587192775E-3    1.962901396608817E-3   -1.270740633503781E-3   -2.734809899839159E-1   -3.803253065404298E-1
 8.178651867000000E9    -2.245891759211716E-1   -4.955175091775975E-1    1.873411867920043E-3   -1.236136439759449E-3    1.958716411720347E-3   -1.286686613487020E-3   -2.776779065950324E-1   -3.773339139830471E-1
 8.178741254250000E9    -2.301941130835981E-1   -4.928309144237512E-1    1.830454311660989E-3   -1.249385996569531E-3    1.886034589774290E-3   -1.296257559866547E-3   -2.817061091988139E-1   -3.743003734029549E-1
 8.178830641500000E9    -2.357851329307173E-1   -4.902888559525532E-1    1.858198538724110E-3   -1.257772145042485E-3    1.910191937981393E-3   -1.309894079351650E-3   -2.855944109837193E-1   -3.710690179700943E-1
 8.178920028750000E9    -2.411814937594711E-1   -4.875640946536778E-1    1.819333750652817E-3   -1.256853940037470E-3    1.927929848240968E-3   -1.336084471955973E-3   -2.895949071619406E-1   -3.678922647606021E-1
 8.179009416000000E9    -2.466954995462379E-1   -4.848366180417932E-1    1.843367385876292E-3   -1.295743922103732E-3    1.895728675641617E-3   -1.335837579880230E-3   -2.933499080799286E-1   -3.646251481646353E-1
 8.179098803250000E9    -2.522256351483193E-1   -4.819405214101053E-1    1.809815730249975E-3   -1.327083291859933E-3    1.871991402127855E-3   -1.419590096188571E-3   -2.972446562718204E-1   -3.614071342449527E-1
 8.179188190500000E9    -2.577605132273678E-1   -4.790647157245125E-1    1.801236273864871E-3   -1.327202380421664E-3    1.858417476379014E-3   -1.430568693506254E-3   -3.009170803852995E-1   -3.580641151569327E-1
 8.179277577750000E9    -2.630208312041487E-1   -4.760678994973740E-1    1.805825122492223E-3   -1.360523114773418E-3    1.858467395073914E-3   -1.419416075461687E-3   -3.048914235001716E-1   -3.548373755214244E-1
 8.179366965000000E9    -2.684276453603680E-1   -4.730823909907712E-1    1.791987191345187E-3   -1.366899404613599E-3    1.827205629709483E-3   -1.449441490174308E-3   -3.085673305759531E-1   -3.515322225811179E-1
 8.179456352250000E9    -2.737597302030191E-1   -4.698720112502952E-1    1.775518665763170E-3   -1.435197034342428E-3    1.814583147366735E-3   -1.472877503073144E-3   -3.121203223570384E-1   -3.480710024936276E-1
 8.179545739500000E9    -2.790616655076354E-1   -4.667153704607804E-1    1.725348338708169E-3   -1.386843108253876E-3    1.811819352444979E-3   -1.469843863954897E-3   -3.158438826552290E-1   -3.447674695944888E-1
 8.179635126750000E9    -2.843416322618735E-1   -4.635941661747053E-1    1.733919542293737E-3   -1.435181094975463E-3    1.778186219174579E-3   -1.514032383283379E-3   -3.195636085432657E-1   -3.411600110301889E-1
 8.179724514000000E9    -2.896303765360904E-1   -4.602859488977978E-1    1.718592857206451E-3   -1.463915143167848E-3    1.753853944847523E-3   -1.524057249503984E-3   -3.231686607820140E-1   -3.376349684548471E-1
 8.179813901250000E9    -2.947103295407846E-1   -4.569246986912893E-1    1.696662326113402E-3   -1.471493572900908E-3    1.732101367828481E-3   -1.557416661752941E-3   -3.268588645387765E-1   -3.341633427959110E-1
 8.179903288500000E9    -3.000731436692499E-1   -4.535561218673474E-1    1.703936624729005E-3   -1.510079299972983E-3    1.714376278168284E-3   -1.572621798563094E-3   -3.301959056353183E-1   -3.303646260809927E-1
 8.179992675750000E9    -3.050979925450891E-1   -4.500158973002287E-1    1.655460689878320E-3   -1.502083540990235E-3    1.693925725330933E-3   -1.599900526582120E-3   -3.336449935234989E-1   -3.268085290674859E-1
 8.180082063000000E9    -3.102464757983714E-1   -4.466313084179959E-1    1.648243345506407E-3   -1.532205390782271E-3    1.677039070183748E-3   -1.584354581483558E-3   -3.369618171930349E-1   -3.231846948850115E-1
 8.180171450250000E9    -3.150904216067283E-1   -4.431309341434560E-1    1.615386147404964E-3   -1.556547913623620E-3    1.668225486117215E-3   -1.644059818206629E-3   -3.404817215890191E-1   -3.194909503816442E-1
 8.180260837500000E9    -3.202710640869317E-1   -4.394327973630130E-1    1.609072636960300E-3   -1.592617407828178E-3    1.668569517311989E-3   -1.643026576929922E-3   -3.437184920156524E-1   -3.158210777217417E-1
 8.180350224750000E9    -3.251773444701234E-1   -4.357268957569553E-1    1.609492737543130E-3   -1.572709085332823E-3    1.635706592466160E-3   -1.647256566166392E-3   -3.470479618256257E-1   -3.119149272403149E-1
 8.180439612000000E9    -3.300524974364216E-1   -4.319126198602289E-1    1.547149448133780E-3   -1.599474884546919E-3    1.631761325059997E-3   -1.679210399122359E-3   -3.503397546203215E-1   -3.080898633553275E-1
 8.180528999250000E9    -3.350098488303734E-1   -4.281687116401371E-1    1.566911931103629E-3   -1.599260058196000E-3    1.605521413151566E-3   -1.688665422050134E-3   -3.533925641105958E-1   -3.043141551886366E-1
 8.180618386500000E9    -3.398637235134815E-1   -4.243218561940996E-1    1.543050338486125E-3   -1.629528859384200E-3    1.634319458468237E-3   -1.730847287572474E-3   -3.566933287966112E-1   -3.003131869389403E-1
 8.180707773750000E9    -3.446452366745140E-1   -4.204668848491592E-1    1.520535415135577E-3   -1.675740662444393E-3    1.551528622948900E-3   -1.729977068244602E-3   -3.598581481762099E-1   -2.964569135660167E-1
 8.180797161000000E9    -3.493412278808294E-1   -4.164541927926831E-1    1.497303858294909E-3   -1.662808614562797E-3    1.574274302885003E-3   -1.743875429473271E-3   -3.628560807929657E-1   -2.925841081937406E-1
 8.180886548250000E9    -3.540673475663794E-1   -4.125039090795475E-1    1.479614460271685E-3   -1.694994061755060E-3    1.559728327346213E-3   -1.739470806192623E-3   -3.660407400757461E-1   -2.885865566002618E-1
 8.180975935500000E9    -3.587721202633780E-1   -4.083516566281610E-1    1.492574271843955E-3   -1.700953147933724E-3    1.530026039556103E-3   -1.801236477035518E-3   -3.689446944302240E-1   -2.847060483503521E-1
 8.181065322750000E9    -3.633875299561034E-1   -4.042776868106422E-1    1.458531439287367E-3   -1.709239857574287E-3    1.497379055708371E-3   -1.788571042272885E-3   -3.717935233901309E-1   -2.805877996923937E-1
 8.181154710000000E9    -3.678736189985014E-1   -4.002017587433962E-1    1.414063761489903E-3   -1.735883095227610E-3    1.471949614913176E-3   -1.828443695695783E-3   -3.748872027289202E-1   -2.764014745030266E-1
 8.181244097250000E9    -3.725177096492217E-1   -3.958022573306832E-1    1.415470396243103E-3   -1.751576193114848E-3    1.460718177265310E-3   -1.860944444490786E-3   -3.776586094352608E-1   -2.723565788912858E-1
 8.181333484500000E9    -3.769494258881406E-1   -3.914372223190727E-1    1.393763001920340E-3   -1.755732426954461E-3    1.406090798725741E-3   -1.848076578204173E-3   -3.804647217922161E-1   -2.682080576911569E-1
 8.181422871750000E9    -3.814479808177672E-1   -3.873002230909536E-1    1.405937336307892E-3   -1.756770714276887E-3    1.402380968593901E-3   -1.887778571330498E-3   -3.834335499579510E-1   -2.641838981967439E-1
 8.181512259000000E9    -3.857041421828614E-1   -3.827974614462170E-1    1.346557296497616E-3   -1.792320685503942E-3    1.361999854050297E-3   -1.908405532321313E-3   -3.861097839158631E-1   -2.600385951357188E-1
 8.181601646250000E9    -3.899578650685705E-1   -3.784031590992005E-1    1.330285983787953E-3   -1.817651336830530E-3    1.367213092962141E-3   -1.902895135137545E-3   -3.887373026183378E-1   -2.556607646871082E-1
 8.181691033500000E9    -3.943798253911309E-1   -3.739615795206914E-1    1.299075954914887E-3   -1.823088418104540E-3    1.358411572717916E-3   -1.903478986255658E-3   -3.912235202154510E-1   -2.514688425937430E-1
 8.181780420750000E9    -3.985605080032796E-1   -3.693687415414649E-1    1.288309554758614E-3   -1.844428620389236E-3    1.321361372205703E-3   -1.935351380673269E-3   -3.939605929872127E-1   -2.472165347771395E-1
 8.181869808000000E9    -4.027184020943462E-1   -3.647600337942611E-1    1.282927829106320E-3   -1.831932577796418E-3    1.341284317576288E-3   -1.912467633881712E-3   -3.965829480686230E-1   -2.428899601673740E-1
 8.181959195250000E9    -4.068173054078565E-1   -3.601784503907597E-1    1.248820332217331E-3   -1.868874774851954E-3    1.258797831261920E-3   -1.985171106912057E-3   -3.989625175560608E-1   -2.386556324601735E-1
 8.182048582500000E9    -4.108399851659135E-1   -3.554489962451144E-1    1.247601247599461E-3   -1.873268272853778E-3    1.263838042866865E-3   -1.977744422520906E-3   -4.014691357804561E-1   -2.342506949220602E-1
 8.182137969750000E9    -4.148990370937120E-1   -3.508777659241415E-1    1.238341996654700E-3   -1.926007943642934E-3    1.242164957388608E-3   -1.991139792353743E-3   -4.040602840758790E-1   -2.299314463770313E-1
 8.182227357000000E9    -4.188028232289865E-1   -3.460947619024059E-1    1.195917060097502E-3   -1.911762809686766E-3    1.208232239762108E-3   -1.979380432808563E-3   -4.064157545192957E-1   -2.256000609024317E-1
 8.182316744250000E9    -4.228221066407609E-1   -3.413062606312471E-1    1.211471815227023E-3   -1.926353800795198E-3    1.197252950895802E-3   -2.026542229815464E-3   -4.085999602850833E-1   -2.210399061291428E-1
 8.182406131500000E9    -4.266266984461615E-1   -3.363387896556980E-1    1.164663124052342E-3   -1.921445982162001E-3    1.166873788471490E-3   -2.067225177047477E-3   -4.108601440781418E-1   -2.165197647145120E-1
 8.182495518750000E9    -4.304898441827521E-1   -3.314481184239792E-1    1.138832460748293E-3   -1.948525589691195E-3    1.172676210044717E-3   -2.049116386679927E-3   -4.132146186182273E-1   -2.121676375034796E-1
 8.182584906000000E9    -4.341959579386975E-1   -3.265652364140050E-1    1.115796675061528E-3   -1.948561546094199E-3    1.100160176041027E-3   -2.057659384992067E-3   -4.154342829109415E-1   -2.077256279830169E-1
 8.182674293250000E9    -4.378448119309883E-1   -3.215125667191675E-1    1.091456730461396E-3   -1.993026600434095E-3    1.133655987904963E-3   -2.039272695651156E-3   -4.174146356902675E-1   -2.031319082139381E-1
 8.182763680500000E9    -4.414583030265567E-1   -3.163862918546159E-1    1.086590068809490E-3   -2.009674330786328E-3    1.098896361456116E-3   -2.078804279648925E-3   -4.194750669364833E-1   -1.985776055645457E-1
 8.182853067750000E9    -4.449222456096654E-1   -3.114068506072910E-1    1.047645734065861E-3   -2.002736231824680E-3    1.058296806234407E-3   -2.052454163080342E-3   -4.215675681894360E-1   -1.940284175757791E-1
 8.182942455000000E9    -4.485144564113255E-1   -3.062245033030140E-1    1.029429819677423E-3   -2.031694659063794E-3    1.035031716421998E-3   -2.126367096754008E-3   -4.234461392489143E-1   -1.895799189442087E-1
 8.183031842250000E9    -4.518949010061123E-1   -3.010859157123842E-1    1.038461488070477E-3   -2.037282039975206E-3    1.024013594577506E-3   -2.114949502546562E-3   -4.255497779287956E-1   -1.847191063891101E-1
 8.183121229500000E9    -4.554884081349017E-1   -2.958374845135326E-1    9.827488779224998E-4   -2.038532464609436E-3    9.883780243672405E-4   -2.110441451751327E-3   -4.274861628562606E-1   -1.803563853153015E-1
 8.183210616750000E9    -4.587601394655311E-1   -2.906807840391660E-1    9.786142075862891E-4   -2.046074767505804E-3    9.717683189425920E-4   -2.134475084924555E-3   -4.292061561509958E-1   -1.754989516413933E-1
 8.183300004000000E9    -4.620138551861796E-1   -2.854437669841868E-1    9.637226446147412E-4   -2.061495703804121E-3    9.547787269255285E-4   -2.121660973788745E-3   -4.309432772315601E-1   -1.710603042329061E-1
 8.183389391250000E9    -4.652020434340494E-1   -2.800723821142905E-1    9.274040220392635E-4   -2.095199764655600E-3    9.315143906982457E-4   -2.162402453133515E-3   -4.326317704894284E-1   -1.663034588282355E-1
 8.183478778500000E9    -4.683761663567612E-1   -2.746539297799210E-1    8.898338697074190E-4   -2.097213783535374E-3    8.892249516656080E-4   -2.192453139697241E-3   -4.343989074431300E-1   -1.616518071961784E-1
 8.183568165750000E9    -4.715785604112356E-1   -2.693559905330701E-1    9.137499737753749E-4   -2.094187772962604E-3    8.997605141750602E-4   -2.192404339084945E-3   -4.359026956061822E-1   -1.567883874089754E-1
 8.183657553000000E9    -4.745229481546448E-1   -2.640634351914842E-1    8.471133719436259E-4   -2.082263296066223E-3    8.359239051748605E-4   -2.229551673136498E-3   -4.375231647665727E-1   -1.522408190444189E-1
 8.183746940250000E9    -4.774104762713526E-1   -2.584421167114478E-1    8.281786705043799E-4   -2.107940324596126E-3    8.679298703230195E-4   -2.235781518956404E-3   -4.389471909876622E-1   -1.474764617863830E-1
 8.183836327500000E9    -4.803745854657271E-1   -2.529205105181593E-1    8.157890206647332E-4   -2.130358540534283E-3    8.196788017194651E-4   -2.236050166428214E-3   -4.406307599241818E-1   -1.425186873603973E-1
 8.183925714750000E9    -4.833907385817062E-1   -2.473652117399156E-1    7.650177899352200E-4   -2.134810621736905E-3    7.905186204199223E-4   -2.270113647461858E-3   -4.419614766808128E-1   -1.378251716936551E-1
 8.184015102000000E9    -4.860569631151384E-1   -2.417740031366412E-1    7.594741582270845E-4   -2.139363908157967E-3    7.393645171883860E-4   -2.216364414170240E-3   -4.433504430378884E-1   -1.329860909076408E-1
 8.184104489250000E9    -4.887696896506651E-1   -2.362205721749654E-1    7.655733732518411E-4   -2.162530574326384E-3    7.240998254045269E-4   -2.234224136021809E-3   -4.447538343773768E-1   -1.282777801356426E-1
 8.184193876500000E9    -4.913589237069361E-1   -2.306737927968450E-1    7.349855262634102E-4   -2.148661510077212E-3    7.050663589282313E-4   -2.262747025287821E-3   -4.460534765795718E-1   -1.233430935471945E-1
 8.184283263750000E9    -4.939683298921813E-1   -2.250416540147442E-1    7.156017539474225E-4   -2.184061169972693E-3    6.853174743557814E-4   -2.257804671455011E-3   -4.472054250604158E-1   -1.186741210040096E-1
 8.184372651000000E9    -4.964747031378825E-1   -2.194358104956640E-1    6.714964236677317E-4   -2.197866660016653E-3    6.632910245432899E-4   -2.283021343733839E-3   -4.483013173114302E-1   -1.137053811330644E-1
 8.184462038250000E9    -4.989205697495636E-1   -2.136186357328158E-1    6.535567013922079E-4   -2.204482944371638E-3    6.357568286326795E-4   -2.276371438111202E-3   -4.493614156372596E-1   -1.088614334719575E-1
 8.184551425500000E9    -5.013732238871957E-1   -2.078493057863062E-1    6.219236295227634E-4   -2.202785906092471E-3    6.065462790544391E-4   -2.299698541079222E-3   -4.506028325587905E-1   -1.039890458715091E-1
 8.184640812750000E9    -5.035894953989044E-1   -2.021321335764997E-1    5.864351832349005E-4   -2.205239712322865E-3    5.991894477114663E-4   -2.282327723065667E-3   -4.515478093129341E-1   -9.925106815639337E-2
 8.184730200000000E9    -5.058904397462406E-1   -1.964396545962172E-1    5.654107480767760E-4   -2.220136752851789E-3    5.433723732222227E-4   -2.297684891170574E-3   -4.525548772749515E-1   -9.435152822997468E-2
 8.184819587250000E9    -5.080775904474977E-1   -1.904812544919737E-1    5.596949194906148E-4   -2.227300790947367E-3    5.358818590305343E-4   -2.317112885759318E-3   -4.534085617676316E-1   -8.931429934872979E-2
 8.184908974500000E9    -5.101337216078594E-1   -1.846673314208470E-1    5.491852070890388E-4   -2.256913288177518E-3    5.263254872853422E-4   -2.332429807795796E-3   -4.541791388749028E-1   -8.439130744779455E-2
 8.184998361750000E9    -5.122452995159064E-1   -1.787113759919457E-1    5.265709858022064E-4   -2.224333732049392E-3    4.739877734755381E-4   -2.331400563810465E-3   -4.550575120074346E-1   -7.959165238375424E-2
 8.185087749000000E9    -5.143522396832890E-1   -1.728247770274540E-1    4.638427437283091E-4   -2.233547582667980E-3    4.622275091458875E-4   -2.353541611827672E-3   -4.557826421086801E-1   -7.462416200385422E-2
 8.185177136250000E9    -5.163263690373151E-1   -1.667998033288261E-1    4.685818195837342E-4   -2.247031692610160E-3    4.541445761679940E-4   -2.341861459943543E-3   -4.566053965431803E-1   -6.978895190660775E-2
 8.185266523500000E9    -5.180680714552607E-1   -1.609342455641720E-1    4.319065446951294E-4   -2.264295142723345E-3    4.198408835117391E-4   -2.353639607734657E-3   -4.572435985730681E-1   -6.498469966886682E-2
 8.185355910750000E9    -5.197932326043142E-1   -1.549773351852342E-1    4.081589972614691E-4   -2.303904296020050E-3    3.736498549217384E-4   -2.371030715689088E-3   -4.577416693419253E-1   -6.002440843773869E-2
 8.185445298000000E9    -5.217047204139366E-1   -1.489423706665083E-1    3.956344425456431E-4   -2.276581643123160E-3    3.239710725706124E-4   -2.341512129221052E-3   -4.583383996757981E-1   -5.495713208026468E-2
 8.185534685250000E9    -5.234241202379156E-1   -1.430448445692842E-1    3.771869739170635E-4   -2.277739921186414E-3    3.054149334137982E-4   -2.355505043459960E-3   -4.587473224918723E-1   -5.009559964559857E-2
 8.185624072500000E9    -5.248173004348615E-1   -1.369247273478598E-1    3.265637328086226E-4   -2.274977928513178E-3    3.206120640178529E-4   -2.356990421805360E-3   -4.591489508787819E-1   -4.503996739885988E-2
