#  HZ   S   RI   R     50.00 
! Rohde & Schwarz Vector Network Analyzer 
! Rohde-Schwarz,ZNB20-2Port,1311601062101988,3.16
! Created: UTC 3/20/2024, 5:06:12 PM
! freq[Hz]                re:S11                  im:S11                  re:S21                  im:S21                  re:S12                  im:S12                  re:S22                  im:S22
 8.176021035000000E9    -5.053932515312173E-2   -5.419893677105364E-1    2.168516078142220E-3   -5.710302296867499E-4    2.199538727641304E-3   -5.948146742062914E-4   -1.472083056730062E-1   -4.480073100796303E-1
 8.176117514150000E9    -5.710653697724707E-2   -5.412080159858513E-1    2.169874364590917E-3   -5.873645374759487E-4    2.232169557565783E-3   -6.233915916435317E-4   -1.523257763501778E-1   -4.460716524560407E-1
 8.176213993300000E9    -6.358769667327088E-2   -5.405798596644321E-1    2.141534854371615E-3   -6.341871150257344E-4    2.223262669449927E-3   -6.390659213336571E-4   -1.575878232735950E-1   -4.440782588156211E-1
 8.176310472450000E9    -7.015907054797917E-2   -5.397917400743667E-1    2.150854722242489E-3   -6.654518354129003E-4    2.236673794963161E-3   -6.551844174028739E-4   -1.626115293039474E-1   -4.423370077310046E-1
 8.176406951600000E9    -7.677693627995588E-2   -5.387903537371683E-1    2.135002766720003E-3   -6.615970425842550E-4    2.203780854949682E-3   -7.189313708925820E-4   -1.675932449443644E-1   -4.401695410535897E-1
 8.176503430750000E9    -8.340445626967120E-2   -5.378979978937252E-1    2.153050105512131E-3   -7.223111381877659E-4    2.183657449201255E-3   -7.074499294179655E-4   -1.729075348274387E-1   -4.379678912203256E-1
 8.176599909900000E9    -8.985855085953488E-2   -5.368568029528696E-1    2.118399632125857E-3   -7.322471679723472E-4    2.214795495486432E-3   -7.478784797676657E-4   -1.777235283358791E-1   -4.359426477896780E-1
 8.176696389050000E9    -9.648691166684567E-2   -5.356666461190176E-1    2.110550337815166E-3   -7.557058099641074E-4    2.168919776994137E-3   -7.422050462785963E-4   -1.828520127198240E-1   -4.337204232487492E-1
 8.176792868200000E9    -1.030472275667772E-1   -5.345105092543334E-1    2.105762137346213E-3   -7.738535591564826E-4    2.194922578456807E-3   -8.073273739252431E-4   -1.876731982953667E-1   -4.314879666263848E-1
 8.176889347350000E9    -1.094446752921552E-1   -5.331011796799010E-1    2.081051069462711E-3   -8.033116495221556E-4    2.148710066737498E-3   -8.528639471679136E-4   -1.928461232335875E-1   -4.291217108636027E-1
 8.176985826500000E9    -1.158952592076730E-1   -5.316026093079973E-1    2.093402354109454E-3   -8.381707722284772E-4    2.152429592840293E-3   -8.533213366190902E-4   -1.977709707784005E-1   -4.267556100061782E-1
 8.177082305650000E9    -1.224042042010406E-1   -5.302804548105217E-1    2.098698450466391E-3   -8.487488773078603E-4    2.147192612461536E-3   -8.699153511250455E-4   -2.026089882795506E-1   -4.244872331554578E-1
 8.177178784800000E9    -1.288203253056806E-1   -5.287768989339351E-1    2.086097744551303E-3   -8.676820995331882E-4    2.133170337345565E-3   -9.214614403784819E-4   -2.074500901624492E-1   -4.217777535430916E-1
 8.177275263950000E9    -1.352613357245705E-1   -5.271756044301168E-1    2.054652220303037E-3   -8.831638965139840E-4    2.096745756367616E-3   -9.233626954897014E-4   -2.122359474228274E-1   -4.195990303939326E-1
 8.177371743100000E9    -1.416507159130865E-1   -5.255136701770335E-1    2.037783253516732E-3   -9.210426221723068E-4    2.105575662844778E-3   -9.742011804827337E-4   -2.170435600030989E-1   -4.167201282960433E-1
 8.177468222250000E9    -1.480037750581466E-1   -5.236752149099098E-1    2.033224486552180E-3   -9.352103314601102E-4    2.086654656761383E-3   -9.478902850373380E-4   -2.219993149178591E-1   -4.142633571188638E-1
 8.177564701400000E9    -1.545267170001230E-1   -5.218020274406224E-1    2.012922139012107E-3   -9.608161017935629E-4    2.092938394268032E-3   -1.009500263704840E-3   -2.267269693697607E-1   -4.113926352854786E-1
 8.177661180550000E9    -1.607144952756593E-1   -5.198830747609088E-1    2.018852233908634E-3   -1.009016247919847E-3    2.044853365292730E-3   -9.808048243063370E-4   -2.312675553903844E-1   -4.087329981278417E-1
 8.177757659700000E9    -1.671847630787499E-1   -5.177960394789934E-1    1.996506572023038E-3   -1.013545175097287E-3    2.059916328748032E-3   -1.059888296735059E-3   -2.359468487662240E-1   -4.059082880497797E-1
 8.177854138850000E9    -1.734937518329205E-1   -5.156668587938671E-1    1.955670754752992E-3   -1.041194137190501E-3    2.052879320460818E-3   -1.057458335041304E-3   -2.405822697761283E-1   -4.030259158803993E-1
 8.177950618000000E9    -1.796898553266616E-1   -5.136181196266471E-1    1.975395672791746E-3   -1.054277696252105E-3    2.026300360984904E-3   -1.120376404076936E-3   -2.451159328718171E-1   -4.000226399101646E-1
 8.178047097150000E9    -1.859856621250853E-1   -5.112948963730848E-1    1.977277207269753E-3   -1.091473234084202E-3    2.023348831290289E-3   -1.137837264949992E-3   -2.500204835673909E-1   -3.972723171967876E-1
 8.178143576300000E9    -1.921446067129429E-1   -5.091363285836706E-1    1.954775586930225E-3   -1.097314884056098E-3    2.007123877081364E-3   -1.155882166527775E-3   -2.542526040720668E-1   -3.941198198879546E-1
 8.178240055450000E9    -1.985526419354690E-1   -5.065461945601349E-1    1.945048249997261E-3   -1.116779255144739E-3    1.989374981419979E-3   -1.187253686941752E-3   -2.587812932953683E-1   -3.910741422622747E-1
 8.178336534600000E9    -2.046288014253621E-1   -5.041281737962234E-1    1.912587453251024E-3   -1.116483657883549E-3    2.018496834589143E-3   -1.184813393241317E-3   -2.632693562925418E-1   -3.880211302864863E-1
 8.178433013750000E9    -2.107866549709175E-1   -5.015520084154299E-1    1.902321017455342E-3   -1.145706526129234E-3    1.979821662893888E-3   -1.245349879449259E-3   -2.677853518269435E-1   -3.846167950568583E-1
 8.178529492900000E9    -2.168725167972534E-1   -4.989117583588931E-1    1.906176164971598E-3   -1.177841728835631E-3    1.977080262455290E-3   -1.230883002639147E-3   -2.720972035215405E-1   -3.815199639535093E-1
 8.178625972050000E9    -2.229259886862615E-1   -4.962803348841565E-1    1.865225674148514E-3   -1.196421512206418E-3    1.918733331281256E-3   -1.279669215563340E-3   -2.763215273863935E-1   -3.782885935237010E-1
 8.178722451200000E9    -2.289592982560321E-1   -4.934238818015717E-1    1.875227458658999E-3   -1.229753681784335E-3    1.907995466845292E-3   -1.289583661729285E-3   -2.807499725703216E-1   -3.749198262240908E-1
 8.178818930350000E9    -2.348452223736980E-1   -4.905942615225367E-1    1.852668934125777E-3   -1.242414385452863E-3    1.895590391787614E-3   -1.341848436673299E-3   -2.849807615130365E-1   -3.714742208555910E-1
 8.178915409500000E9    -2.410695832388914E-1   -4.876831892578338E-1    1.836086215635428E-3   -1.278017596188711E-3    1.888718577372451E-3   -1.340586707848281E-3   -2.891842473246737E-1   -3.680871719236541E-1
 8.179011888650000E9    -2.468920791638201E-1   -4.846534916994475E-1    1.807585565152241E-3   -1.290950505775403E-3    1.908114221424668E-3   -1.331530983656946E-3   -2.933447577114289E-1   -3.645182091918804E-1
 8.179108367800000E9    -2.527814001728664E-1   -4.814955835997304E-1    1.816473480660571E-3   -1.321568704768137E-3    1.857917535721871E-3   -1.410120907930823E-3   -2.976376375211516E-1   -3.610781506662558E-1
 8.179204846950000E9    -2.587430231528524E-1   -4.784331270724558E-1    1.807811317097836E-3   -1.339301675877278E-3    1.853439070622355E-3   -1.422670037983055E-3   -3.017508413423395E-1   -3.574585344638453E-1
 8.179301326100000E9    -2.645649552053277E-1   -4.751614756836737E-1    1.766395257099120E-3   -1.367355829678428E-3    1.811761884078728E-3   -1.437710954052109E-3   -3.059703719803190E-1   -3.539551232623439E-1
 8.179397805250000E9    -2.702825235495019E-1   -4.718319820859798E-1    1.757813129718565E-3   -1.370419812474719E-3    1.777896850262144E-3   -1.444231083730535E-3   -3.097982864101188E-1   -3.502636754046203E-1
 8.179494284400000E9    -2.761371771792732E-1   -4.686706332540164E-1    1.774093379185866E-3   -1.417412243782629E-3    1.796197458690488E-3   -1.461557630962646E-3   -3.138669271442607E-1   -3.465368636007136E-1
 8.179590763550000E9    -2.819090820396822E-1   -4.650352937281843E-1    1.736611389874741E-3   -1.433520029538380E-3    1.767782548018737E-3   -1.512671942121464E-3   -3.177465094230906E-1   -3.428045586053730E-1
 8.179687242700000E9    -2.874638651236217E-1   -4.616769600808676E-1    1.722667164043642E-3   -1.465507280909889E-3    1.764023658985125E-3   -1.535574884504221E-3   -3.216111222477984E-1   -3.390271408892255E-1
 8.179783721850000E9    -2.929833850940086E-1   -4.581711497214506E-1    1.688892322599187E-3   -1.469790277139114E-3    1.751140166722628E-3   -1.541518738721331E-3   -3.255161722611685E-1   -3.352239075877274E-1
 8.179880201000000E9    -2.987293821597516E-1   -4.543500377800828E-1    1.681286075021250E-3   -1.488354230425623E-3    1.720061865475847E-3   -1.591968206525931E-3   -3.293454573196596E-1   -3.313263449931462E-1
 8.179976680150000E9    -3.041645383447725E-1   -4.506486895294324E-1    1.644181122688551E-3   -1.518638606702131E-3    1.695957712663014E-3   -1.590159185952169E-3   -3.328922020968055E-1   -3.274093365408662E-1
 8.180073159300000E9    -3.097976787240786E-1   -4.468223366711120E-1    1.674910488832532E-3   -1.541031994870869E-3    1.692071847656193E-3   -1.615015143935991E-3   -3.365874462970759E-1   -3.234433758722007E-1
 8.180169638450000E9    -3.151851347797038E-1   -4.430995458530654E-1    1.617583761120717E-3   -1.542718417244775E-3    1.665712522750862E-3   -1.631550015691990E-3   -3.403365440302102E-1   -3.194456976893191E-1
 8.180266117600000E9    -3.205625685197880E-1   -4.391187451817212E-1    1.609888843404559E-3   -1.570913112959151E-3    1.649529308283906E-3   -1.622677274171163E-3   -3.440089873498460E-1   -3.154494629441430E-1
 8.180362596750000E9    -3.259226194211696E-1   -4.351669471998836E-1    1.606233163459458E-3   -1.614613149936931E-3    1.638377939038544E-3   -1.651245475589500E-3   -3.473607261863867E-1   -3.113038303928180E-1
 8.180459075900000E9    -3.311751814741642E-1   -4.311280745217199E-1    1.574135103669197E-3   -1.637528473422062E-3    1.622881818357327E-3   -1.674783821286034E-3   -3.510163364439867E-1   -3.072631385974941E-1
 8.180555555050000E9    -3.365539852493108E-1   -4.270217569088645E-1    1.594487077192912E-3   -1.630717436566195E-3    1.575981118152817E-3   -1.729431223735860E-3   -3.544633532466093E-1   -3.031165434996786E-1
 8.180652034200000E9    -3.416687190992923E-1   -4.228873010209644E-1    1.546696960432920E-3   -1.646372965372043E-3    1.591335013649431E-3   -1.759856901462451E-3   -3.578883461200766E-1   -2.988651412804791E-1
 8.180748513350000E9    -3.468114140428671E-1   -4.186113628969033E-1    1.519905420850560E-3   -1.670525263478031E-3    1.570482761276578E-3   -1.767300202577110E-3   -3.612954245990909E-1   -2.946010040275528E-1
 8.180844992500000E9    -3.519394820279362E-1   -4.144116334115086E-1    1.497500096568436E-3   -1.667463638848932E-3    1.556920326129302E-3   -1.743820105771687E-3   -3.644776764922317E-1   -2.904125433215273E-1
 8.180941471650000E9    -3.569973084137910E-1   -4.099886445321776E-1    1.494610125494168E-3   -1.696813562622051E-3    1.493211658814535E-3   -1.793937626528373E-3   -3.678982784111919E-1   -2.859824490630342E-1
 8.181037950800000E9    -3.619276103441593E-1   -4.054155048522912E-1    1.464982233642656E-3   -1.714828805335620E-3    1.542209334078322E-3   -1.772686465960515E-3   -3.709677348516291E-1   -2.817099710910005E-1
 8.181134429950000E9    -3.669872771696791E-1   -4.009712963081163E-1    1.467927340634699E-3   -1.742272705163678E-3    1.499252504929810E-3   -1.820412059740456E-3   -3.741721876792330E-1   -2.773620328476756E-1
 8.181230909100000E9    -3.717200670389471E-1   -3.964456261106715E-1    1.441605251945200E-3   -1.746696108839051E-3    1.457447292739120E-3   -1.810905573274229E-3   -3.775205771554656E-1   -2.729901365671054E-1
 8.181327388250000E9    -3.765968656187539E-1   -3.916239111683049E-1    1.403506753398527E-3   -1.748733646669590E-3    1.458867490384572E-3   -1.845708854080823E-3   -3.804596645293807E-1   -2.684094362790121E-1
 8.181423867400000E9    -3.813902683994422E-1   -3.872215982319531E-1    1.344762419355407E-3   -1.783685918627246E-3    1.426763907935361E-3   -1.865846202839412E-3   -3.832895296889453E-1   -2.640509658751365E-1
 8.181520346550000E9    -3.861352634531753E-1   -3.824717497090590E-1    1.350307109318112E-3   -1.803102397204883E-3    1.394935344960581E-3   -1.857532673773827E-3   -3.862983014602456E-1   -2.595734381492484E-1
 8.181616825700000E9    -3.907584255319680E-1   -3.776027756614573E-1    1.333612998964241E-3   -1.854845668315582E-3    1.378069040823091E-3   -1.873952679917201E-3   -3.894143623626528E-1   -2.549558680127664E-1
 8.181713304850000E9    -3.952828051932712E-1   -3.727046398102087E-1    1.305670483193812E-3   -1.825962260408537E-3    1.335838187393667E-3   -1.914388155936533E-3   -3.919167517807426E-1   -2.505604540645156E-1
 8.181809784000000E9    -3.999101782107675E-1   -3.679452204401699E-1    1.298169421091003E-3   -1.836482163953613E-3    1.339545881243396E-3   -1.949303438644529E-3   -3.948995038657029E-1   -2.457147832219334E-1
 8.181906263150000E9    -4.043431813521944E-1   -3.629451425044039E-1    1.269405752240876E-3   -1.893687983250858E-3    1.307539003763183E-3   -1.939504634712654E-3   -3.976389193052116E-1   -2.411351957573303E-1
 8.182002742300000E9    -4.087760650306296E-1   -3.579249170816999E-1    1.241829902774622E-3   -1.881737616444730E-3    1.265107953340085E-3   -1.974808780973609E-3   -4.004023958918051E-1   -2.363162667558957E-1
 8.182099221450000E9    -4.131312232590817E-1   -3.527626341047420E-1    1.243449725691003E-3   -1.864967923508776E-3    1.230101328279373E-3   -1.994617831712115E-3   -4.029622587591454E-1   -2.317444664460206E-1
 8.182195700600000E9    -4.174813862305089E-1   -3.476895737217212E-1    1.206521392580088E-3   -1.913873807395738E-3    1.261064988560018E-3   -1.982567939285539E-3   -4.054584476473899E-1   -2.270214728876789E-1
 8.182292179750000E9    -4.217601938043158E-1   -3.423968262089861E-1    1.170061848186166E-3   -1.905885044681901E-3    1.193246775331671E-3   -2.022498987370229E-3   -4.080222057796167E-1   -2.222144005340123E-1
 8.182388658900000E9    -4.259909888507615E-1   -3.373791782743853E-1    1.165798908307467E-3   -1.909170072280937E-3    1.174925572756323E-3   -1.999811835531024E-3   -4.104115963849880E-1   -2.176313243189911E-1
 8.182485138050000E9    -4.299907204185134E-1   -3.320869769402256E-1    1.156260286886292E-3   -1.937569628201031E-3    1.156263085805619E-3   -2.046853020420381E-3   -4.129286944238120E-1   -2.126109493764700E-1
 8.182581617200000E9    -4.341556538919438E-1   -3.266834894566216E-1    1.136577031629197E-3   -1.950581152174304E-3    1.121819164690097E-3   -2.039202417878823E-3   -4.151229438127408E-1   -2.077806049635483E-1
 8.182678096350000E9    -4.379785620421018E-1   -3.212474483346421E-1    1.105887202440763E-3   -2.003156364780081E-3    1.120186491547405E-3   -2.064931896816558E-3   -4.174360131948877E-1   -2.028574806841388E-1
 8.182774575500000E9    -4.420197527305845E-1   -3.159242790512609E-1    1.074080564434180E-3   -1.977683939809049E-3    1.076365753525453E-3   -2.080927987819817E-3   -4.198402665281165E-1   -1.980640838827312E-1
 8.182871054650000E9    -4.457935427336782E-1   -3.103272129356278E-1    1.043309758313682E-3   -1.995139736384299E-3    1.065691989692194E-3   -2.076688808335567E-3   -4.218551575782619E-1   -1.930024471599973E-1
 8.182967533800000E9    -4.496610258877619E-1   -3.048045276171720E-1    1.027545590515805E-3   -2.048858697123156E-3    1.028803862576029E-3   -2.136583453725280E-3   -4.240275779243234E-1   -1.882168254675804E-1
 8.183064012950000E9    -4.532880064912141E-1   -2.992052498342823E-1    1.014252089328768E-3   -2.014475564933658E-3    1.004814528206472E-3   -2.145373098285777E-3   -4.261617656976229E-1   -1.833153042149674E-1
 8.183160492100000E9    -4.568652251501878E-1   -2.935526103046412E-1    1.003762886373484E-3   -2.036190426291527E-3    9.779637998646919E-4   -2.114251477381227E-3   -4.281154636494284E-1   -1.782244406692672E-1
 8.183256971250000E9    -4.604922340802465E-1   -2.879446600439407E-1    9.832359719084171E-4   -2.048490881585205E-3    9.627046620916205E-4   -2.149992103868088E-3   -4.302082968402095E-1   -1.731526003843843E-1
 8.183353450400000E9    -4.640433447229683E-1   -2.821213474680365E-1    9.343699364163485E-4   -2.068205762023621E-3    9.470119078333217E-4   -2.179662123254952E-3   -4.319549016281251E-1   -1.681908101857473E-1
 8.183449929550000E9    -4.673549796073411E-1   -2.764705976964548E-1    8.997066287932617E-4   -2.094584005173537E-3    9.574603698921377E-4   -2.176009568229669E-3   -4.337493587374209E-1   -1.630992484711183E-1
 8.183546408700000E9    -4.707336696886073E-1   -2.706289205545538E-1    9.036883495396052E-4   -2.118011896267237E-3    8.942969188153152E-4   -2.182269451213560E-3   -4.357928677862661E-1   -1.579757259958660E-1
 8.183642887850000E9    -4.741086063709016E-1   -2.647616519660037E-1    8.708639140035219E-4   -2.122332109257680E-3    8.836203565163913E-4   -2.171240197549855E-3   -4.372023119855725E-1   -1.530042783525473E-1
 8.183739367000000E9    -4.773038537487578E-1   -2.590173711087960E-1    8.307254021769574E-4   -2.105937437808483E-3    8.254715314658874E-4   -2.184716637218362E-3   -4.391175492141040E-1   -1.478365268860199E-1
 8.183835846150000E9    -4.804266381409074E-1   -2.529729961754573E-1    8.317296423187540E-4   -2.124011388662948E-3    8.154403447083972E-4   -2.197125130668596E-3   -4.405760673903091E-1   -1.426776342017954E-1
 8.183932325300000E9    -4.834711784242733E-1   -2.468906613531164E-1    7.642767483956455E-4   -2.140465053130206E-3    7.825811562880304E-4   -2.221636949272763E-3   -4.420132702596339E-1   -1.375169281416663E-1
 8.184028804450000E9    -4.864837364453793E-1   -2.410001767565053E-1    7.763370610908396E-4   -2.158823393480755E-3    7.561550505476787E-4   -2.265472141785694E-3   -4.437050852209982E-1   -1.322389899060761E-1
 8.184125283600000E9    -4.893478274877468E-1   -2.350343257697404E-1    7.384571550070351E-4   -2.160564877042013E-3    7.416438899005554E-4   -2.242409845444531E-3   -4.448296492459085E-1   -1.270555062481308E-1
 8.184221762750000E9    -4.922302245150187E-1   -2.288553999562524E-1    7.340337410943896E-4   -2.187076440236588E-3    7.262340996661867E-4   -2.268143054537667E-3   -4.462605639564201E-1   -1.219612107703810E-1
 8.184318241900000E9    -4.949246352607420E-1   -2.228205179196658E-1    6.669075878478127E-4   -2.169538125428561E-3    6.627869899740398E-4   -2.277322153198700E-3   -4.475905900213420E-1   -1.166548501892967E-1
 8.184414721050000E9    -4.976817752627740E-1   -2.166613779171753E-1    6.508274216227362E-4   -2.187562897587861E-3    6.553901759247528E-4   -2.263808298758694E-3   -4.488203773963787E-1   -1.114948268080131E-1
 8.184511200200000E9    -5.003810127794925E-1   -2.104153064164100E-1    6.420866396946123E-4   -2.202924044760299E-3    6.433149890063573E-4   -2.273775034774818E-3   -4.500356808764077E-1   -1.062382394150883E-1
 8.184607679350000E9    -5.028494205568601E-1   -2.042424317174177E-1    6.075822320020270E-4   -2.209611604686411E-3    5.933801127163878E-4   -2.297735989964589E-3   -4.510656144416363E-1   -1.010443490725843E-1
 8.184704158500000E9    -5.053300579096430E-1   -1.979892025639406E-1    5.928725489293238E-4   -2.208796665810968E-3    5.433659542678657E-4   -2.277864230749922E-3   -4.521679344014575E-1   -9.565907788113955E-2
