#  HZ   S   RI   R     50.00 
! Rohde & Schwarz Vector Network Analyzer 
! Rohde-Schwarz,ZNB20-2Port,1311601062101988,3.16
! Created: UTC 3/20/2024, 5:06:19 PM
! freq[Hz]                re:S11                  im:S11                  re:S21                  im:S21                  re:S12                  im:S12                  re:S22                  im:S22
 8.177536646000000E9    -1.525556242289154E-1   -5.223630314990495E-1    2.035192924327976E-3   -9.440322643545483E-4    2.093100628063471E-3   -1.044982177448812E-3   -2.252138237767542E-1   -4.122744061171503E-1
 8.177626270875000E9    -1.583752582506317E-1   -5.206040563643306E-1    2.011994528920486E-3   -9.813312804843322E-4    2.095201151188662E-3   -1.048196487389827E-3   -2.296743011603385E-1   -4.098043709015867E-1
 8.177715895750000E9    -1.643292191797080E-1   -5.187536574585726E-1    1.988695965479761E-3   -1.000866471338498E-3    2.056307567179997E-3   -9.994282358005595E-4   -2.339688486838911E-1   -4.071695803846729E-1
 8.177805520625000E9    -1.702282052694551E-1   -5.167343970013831E-1    1.991042617703579E-3   -1.022835144122775E-3    2.068072206994787E-3   -1.088947148168212E-3   -2.382955405958549E-1   -4.043742174037770E-1
 8.177895145500000E9    -1.760748884086050E-1   -5.148851210740429E-1    1.986700910287260E-3   -1.003251426141288E-3    2.038865737849459E-3   -1.101843827304912E-3   -2.425553522729399E-1   -4.016248496302887E-1
 8.177984770375000E9    -1.817806246953021E-1   -5.128074484676778E-1    1.989202461454811E-3   -1.062961431687401E-3    2.035031361443105E-3   -1.123529783023143E-3   -2.468044061385844E-1   -3.990391152360931E-1
 8.178074395250000E9    -1.877718597134673E-1   -5.106872674809469E-1    1.964236265465812E-3   -1.080466605100341E-3    2.044129337324650E-3   -1.145407121634060E-3   -2.511105455503131E-1   -3.962112074990352E-1
 8.178164020125000E9    -1.934422581640866E-1   -5.084136503847075E-1    1.974159074047867E-3   -1.094215894320143E-3    2.009741409906029E-3   -1.196880027301514E-3   -2.553760366381057E-1   -3.934336000699861E-1
 8.178253645000000E9    -1.991975261801988E-1   -5.061497633645111E-1    1.954959503017931E-3   -1.130434112187204E-3    2.030903045614120E-3   -1.182859048651513E-3   -2.594264396804427E-1   -3.905130035151924E-1
 8.178343269875000E9    -2.050978341324416E-1   -5.039380288871766E-1    1.930546726229658E-3   -1.138728534628266E-3    1.981428911969223E-3   -1.216693777338459E-3   -2.635821389291570E-1   -3.877178100144996E-1
 8.178432894750000E9    -2.106804696937371E-1   -5.016569024141496E-1    1.929347753931701E-3   -1.178428093868377E-3    1.978864706229704E-3   -1.233882158181794E-3   -2.677804128993140E-1   -3.846850795099101E-1
 8.178522519625000E9    -2.162371121823961E-1   -4.991310701120449E-1    1.901426174946584E-3   -1.203904299100578E-3    1.977456820239928E-3   -1.238991884241744E-3   -2.719263322297883E-1   -3.817706352744790E-1
 8.178612144500000E9    -2.219806661825179E-1   -4.966382832339662E-1    1.907469377967581E-3   -1.221726337472070E-3    1.986593388671782E-3   -1.254927415447730E-3   -2.758813794808282E-1   -3.788419122299433E-1
 8.178701769375000E9    -2.277220530033084E-1   -4.940036887137777E-1    1.870949164125098E-3   -1.230012796894673E-3    1.936002693727747E-3   -1.311135539620463E-3   -2.797318106722086E-1   -3.755714851309381E-1
 8.178791394250000E9    -2.332577450372572E-1   -4.914434671275946E-1    1.853442596634826E-3   -1.266471896885965E-3    1.918806193538099E-3   -1.320224454371775E-3   -2.838460296520288E-1   -3.724659628364850E-1
 8.178881019125000E9    -2.388181489257167E-1   -4.887941844681187E-1    1.883672437034742E-3   -1.261369035179255E-3    1.915553607669522E-3   -1.324734983881779E-3   -2.877516946430975E-1   -3.695345977159995E-1
 8.178970644000000E9    -2.443390898210188E-1   -4.860357905144006E-1    1.837445106599785E-3   -1.285073621228796E-3    1.856511122822678E-3   -1.352592381137601E-3   -2.917158653524292E-1   -3.660873385423349E-1
 8.179060268875000E9    -2.496950560493787E-1   -4.832481262453850E-1    1.823774065160569E-3   -1.316366687174177E-3    1.919258175497386E-3   -1.341968122906443E-3   -2.955802991274923E-1   -3.627607142052362E-1
 8.179149893750000E9    -2.552691184702006E-1   -4.802119847288897E-1    1.809789249531884E-3   -1.332320359570401E-3    1.874324033586423E-3   -1.400134557496716E-3   -2.993855086425005E-1   -3.596779967392733E-1
 8.179239518625000E9    -2.608362844608014E-1   -4.772574984768425E-1    1.778118898031103E-3   -1.340806333318786E-3    1.846636621438873E-3   -1.418267025947518E-3   -3.031895394502923E-1   -3.561117724335335E-1
 8.179329143500000E9    -2.662505362823233E-1   -4.742533904880444E-1    1.784158627484566E-3   -1.383059098181804E-3    1.826791232437579E-3   -1.411654214439273E-3   -3.070102024019378E-1   -3.528642279648106E-1
 8.179418768375000E9    -2.715880597198470E-1   -4.712143248602036E-1    1.780681690093382E-3   -1.399310005012369E-3    1.785695864160134E-3   -1.488003055057367E-3   -3.108249449115572E-1   -3.495714074989709E-1
 8.179508393250000E9    -2.768585856687286E-1   -4.680993465976234E-1    1.745271658835722E-3   -1.436519838591456E-3    1.789577646669054E-3   -1.476983992073383E-3   -3.142875073250634E-1   -3.460643620039382E-1
 8.179598018125000E9    -2.820906598119210E-1   -4.649197085694463E-1    1.743736603052142E-3   -1.428804556627210E-3    1.792495987591442E-3   -1.511254938827179E-3   -3.178814966076322E-1   -3.425743660536107E-1
 8.179687643000000E9    -2.874547972879128E-1   -4.616323415985307E-1    1.702107022414043E-3   -1.444411145248318E-3    1.765307101365785E-3   -1.525071918951992E-3   -3.216308784050637E-1   -3.391375077035884E-1
 8.179777267875000E9    -2.926634536108825E-1   -4.582233497295509E-1    1.700484288504222E-3   -1.462517340166392E-3    1.786042724174298E-3   -1.529030810912009E-3   -3.252114564262365E-1   -3.354096492599631E-1
 8.179866892750000E9    -2.979194185843901E-1   -4.550282868431748E-1    1.701929469885529E-3   -1.497770854525298E-3    1.724113338036280E-3   -1.559898651739266E-3   -3.287698521001058E-1   -3.318509633975596E-1
 8.179956517625000E9    -3.030392239134022E-1   -4.515399506446062E-1    1.655021593104277E-3   -1.504406314755283E-3    1.710349327039978E-3   -1.564525693981778E-3   -3.322217148266687E-1   -3.282487587049003E-1
 8.180046142500000E9    -3.080742162613950E-1   -4.481342943402132E-1    1.653811787765569E-3   -1.506077577826184E-3    1.689478181827033E-3   -1.606770101322085E-3   -3.356479699584560E-1   -3.245393556084675E-1
 8.180135767375000E9    -3.132568405833468E-1   -4.444593850891086E-1    1.626415004499281E-3   -1.542725364601772E-3    1.667498268871316E-3   -1.616760109254538E-3   -3.389768998306801E-1   -3.207467902942430E-1
 8.180225392250000E9    -3.183500481376847E-1   -4.408493494975517E-1    1.624201334308544E-3   -1.558976321268336E-3    1.649802118922433E-3   -1.621225453279232E-3   -3.424653165313188E-1   -3.172278472442783E-1
 8.180315017125000E9    -3.231769863672398E-1   -4.371066408953542E-1    1.599399747911252E-3   -1.581050683447753E-3    1.648887489223605E-3   -1.647811393963883E-3   -3.456422358367270E-1   -3.132249805966931E-1
 8.180404642000000E9    -3.282348788343127E-1   -4.335121204807350E-1    1.604445964124571E-3   -1.575102353802990E-3    1.613264145570640E-3   -1.672203428866794E-3   -3.491838842465309E-1   -3.094726551394360E-1
 8.180494266875000E9    -3.330763227019463E-1   -4.295163299341863E-1    1.562705030852349E-3   -1.601752479760962E-3    1.595764859762112E-3   -1.661828145059086E-3   -3.523224025389020E-1   -3.058818769606695E-1
 8.180583891750000E9    -3.379806992080839E-1   -4.257776683605499E-1    1.554686263299125E-3   -1.608912794502345E-3    1.593896727155293E-3   -1.713494258773971E-3   -3.554886609091430E-1   -3.018671892601089E-1
 8.180673516625000E9    -3.426915084860546E-1   -4.217895194479961E-1    1.549763156210666E-3   -1.641884191028863E-3    1.560324736412633E-3   -1.711950554239516E-3   -3.587124496223535E-1   -2.980704419340232E-1
 8.180763141500000E9    -3.476148390764445E-1   -4.180485262119688E-1    1.532809522504169E-3   -1.655356858323314E-3    1.563276415972357E-3   -1.759432817318177E-3   -3.617615917484631E-1   -2.938036513386842E-1
 8.180852766375000E9    -3.522337712604453E-1   -4.139710401999026E-1    1.490512318083005E-3   -1.690254515989694E-3    1.511946445458382E-3   -1.772633575520385E-3   -3.648269011410494E-1   -2.900516220386275E-1
 8.180942391250000E9    -3.569540754359836E-1   -4.098512148636275E-1    1.499718327282281E-3   -1.696543411120718E-3    1.522485577816364E-3   -1.786296826651372E-3   -3.678879675612386E-1   -2.861302624607693E-1
 8.181032016125000E9    -3.616900544076047E-1   -4.056569772285513E-1    1.472965926315824E-3   -1.742106538307329E-3    1.489350259255156E-3   -1.793433026119278E-3   -3.708719192338973E-1   -2.819779542511956E-1
 8.181121641000000E9    -3.663637761239425E-1   -4.015909418856806E-1    1.427857567463822E-3   -1.714150287334349E-3    1.454979986553189E-3   -1.802282052306969E-3   -3.737545281753566E-1   -2.778642666781013E-1
 8.181211265875000E9    -3.707681882952137E-1   -3.974038757433547E-1    1.437707995865812E-3   -1.736489542499202E-3    1.446582655399509E-3   -1.811009126449105E-3   -3.766195836633470E-1   -2.737910256828343E-1
 8.181300890750000E9    -3.754143814290992E-1   -3.932452343456824E-1    1.384410429423194E-3   -1.770628690273079E-3    1.421696076126125E-3   -1.833189175375486E-3   -3.796572167472727E-1   -2.696586368349791E-1
 8.181390515625000E9    -3.796787000528701E-1   -3.888124315087018E-1    1.405307826125124E-3   -1.767792979019286E-3    1.433802379529572E-3   -1.860977824927995E-3   -3.823135915734133E-1   -2.654320783293553E-1
 8.181480140500000E9    -3.842785412595466E-1   -3.844559788530802E-1    1.356308779135896E-3   -1.781509018595800E-3    1.401265979243806E-3   -1.882556036928558E-3   -3.851633011576515E-1   -2.613902592660849E-1
 8.181569765375000E9    -3.885066916843298E-1   -3.800633886395703E-1    1.345633687743643E-3   -1.789160768881382E-3    1.406446507204136E-3   -1.900471349996507E-3   -3.878578836064466E-1   -2.572550920700887E-1
 8.181659390250000E9    -3.928507633632194E-1   -3.754410859113306E-1    1.329310912861343E-3   -1.815990010259853E-3    1.342908119204444E-3   -1.908848573605146E-3   -3.905922525667865E-1   -2.528926938618407E-1
 8.181749015125000E9    -3.971376969829119E-1   -3.710226273704803E-1    1.304533006993581E-3   -1.845079488522845E-3    1.329431652081453E-3   -1.903764568733026E-3   -3.931410027127318E-1   -2.486559497279927E-1
 8.181838640000000E9    -4.013785816143455E-1   -3.665113791109164E-1    1.266940812233842E-3   -1.861054971511547E-3    1.310593328828234E-3   -1.935110276788170E-3   -3.957247292933950E-1   -2.443892017454582E-1
 8.181928264875000E9    -4.053599234699395E-1   -3.617249708927458E-1    1.284360742702557E-3   -1.873440178198375E-3    1.282263213409267E-3   -1.979273896177675E-3   -3.983020936194588E-1   -2.399115027715347E-1
 8.182017889750000E9    -4.095270752165135E-1   -3.570325331421529E-1    1.249392886373156E-3   -1.871276215609796E-3    1.285107163006852E-3   -1.994814008559699E-3   -4.007266383877248E-1   -2.357935148528399E-1
 8.182107514625000E9    -4.135575350261170E-1   -3.523674593165691E-1    1.234516348339213E-3   -1.899585326573333E-3    1.252756574571389E-3   -1.968008363082687E-3   -4.031332325680191E-1   -2.313867040552877E-1
 8.182197139500000E9    -4.175126504372604E-1   -3.476314597974468E-1    1.195904062764218E-3   -1.901779321948459E-3    1.255023861836867E-3   -2.017068469081653E-3   -4.054299630422190E-1   -2.269471454415078E-1
 8.182286764375000E9    -4.215266571839925E-1   -3.427764137876372E-1    1.207605409178682E-3   -1.895256198715742E-3    1.204519368500115E-3   -2.033403238006982E-3   -4.079417519565107E-1   -2.224352808221011E-1
 8.182376389250000E9    -4.253178862588727E-1   -3.378834080768676E-1    1.170716457573447E-3   -1.938366538877940E-3    1.200180726606472E-3   -2.016247386985426E-3   -4.101363432101233E-1   -2.180636710910316E-1
 8.182466014125000E9    -4.292337190633228E-1   -3.330528935936758E-1    1.168563438312545E-3   -1.962103119153858E-3    1.158367517871873E-3   -2.041221891275974E-3   -4.124541290133168E-1   -2.134941971167560E-1
 8.182555639000000E9    -4.329009751923897E-1   -3.280206599258415E-1    1.165355042842380E-3   -1.961214799911948E-3    1.099242766290881E-3   -2.076613454201254E-3   -4.146568559548467E-1   -2.091153243026146E-1
 8.182645263875000E9    -4.366571670982459E-1   -3.230937540897895E-1    1.121583030443488E-3   -1.997206957298618E-3    1.127422025241966E-3   -2.061331720552009E-3   -4.166448897702916E-1   -2.046055847243417E-1
 8.182734888750000E9    -4.403503668631428E-1   -3.179211553391403E-1    1.108094517014305E-3   -1.963413245800652E-3    1.086983805897779E-3   -2.055061731273503E-3   -4.188061765634787E-1   -2.000353169029803E-1
 8.182824513625000E9    -4.439676785065604E-1   -3.130696661358897E-1    1.054885843639808E-3   -1.995775044705770E-3    1.056583728663829E-3   -2.084791794195934E-3   -4.209503086868279E-1   -1.953696400849672E-1
 8.182914138500000E9    -4.474773060519173E-1   -3.079284679811222E-1    1.039302659482582E-3   -2.003688773702156E-3    1.065603986028946E-3   -2.092104003559733E-3   -4.229872208433071E-1   -1.908269361562640E-1
 8.183003763375000E9    -4.508879259382379E-1   -3.027454379227559E-1    1.006910603818855E-3   -2.038899804357318E-3    1.031242010863342E-3   -2.107395357971683E-3   -4.248441501829513E-1   -1.862431804599847E-1
 8.183093388250000E9    -4.542565571171992E-1   -2.975167899278119E-1    9.978510087970632E-4   -2.023353612704908E-3    9.868277146802273E-4   -2.156476789223306E-3   -4.268263910091344E-1   -1.816373328114081E-1
 8.183183013125000E9    -4.577564224820712E-1   -2.922498027495707E-1    9.956705423026404E-4   -2.052902895914871E-3    9.612874250707191E-4   -2.148713480520359E-3   -4.286337759523429E-1   -1.768973209317263E-1
 8.183272638000000E9    -4.609689475239210E-1   -2.869510346060176E-1    9.646318904658372E-4   -2.078765087405553E-3    9.283703000090418E-4   -2.176614818596207E-3   -4.304777550903909E-1   -1.722799437525186E-1
 8.183362262875000E9    -4.642689992556277E-1   -2.817369218750460E-1    9.334443822974546E-4   -2.097756961617082E-3    9.245851658856083E-4   -2.189541461677274E-3   -4.320534585291138E-1   -1.676818866223525E-1
 8.183451887750000E9    -4.674316395103780E-1   -2.763380095407233E-1    9.070858084484181E-4   -2.086292388843362E-3    9.450820792621801E-4   -2.160176244270899E-3   -4.338483182178223E-1   -1.630809123017168E-1
 8.183541512625000E9    -4.706737249309620E-1   -2.710147833554082E-1    9.102528892081508E-4   -2.076339489888111E-3    9.176891688408165E-4   -2.181421778173113E-3   -4.355978743318772E-1   -1.581487596517890E-1
 8.183631137500000E9    -4.737428269898174E-1   -2.655196696756457E-1    8.724025826880386E-4   -2.107053564770560E-3    8.727734146705225E-4   -2.197196576101403E-3   -4.370402267496414E-1   -1.535279901500722E-1
 8.183720762375000E9    -4.766008677311409E-1   -2.600643177014522E-1    8.610066939473692E-4   -2.131606506755194E-3    8.415694299781406E-4   -2.216906439902967E-3   -4.385514272115639E-1   -1.488349898701603E-1
 8.183810387250000E9    -4.795434997682570E-1   -2.544668695736744E-1    8.137579779109991E-4   -2.122603981989641E-3    8.116415549349194E-4   -2.242563441576904E-3   -4.400685795766660E-1   -1.440421248867945E-1
 8.183900012125000E9    -4.824353070829540E-1   -2.490846333871137E-1    8.164081706422080E-4   -2.157866647705344E-3    8.036649595287550E-4   -2.195336629405591E-3   -4.415686962292175E-1   -1.391105459121246E-1
 8.183989637000000E9    -4.852964324818542E-1   -2.435045812122686E-1    7.912185210687701E-4   -2.132207157747773E-3    7.603854502328198E-4   -2.250868784064860E-3   -4.428973055485110E-1   -1.343087421416269E-1
 8.184079261875000E9    -4.879635945746045E-1   -2.379299243711559E-1    7.501584136737045E-4   -2.146227910506100E-3    7.402068443750781E-4   -2.245124729843889E-3   -4.442846616728466E-1   -1.295212974764538E-1
 8.184168886750000E9    -4.906539483451071E-1   -2.321594918844561E-1    7.269799546474209E-4   -2.163675984385922E-3    7.427372215626909E-4   -2.257662502018879E-3   -4.455359522537682E-1   -1.247299875260846E-1
 8.184258511625000E9    -4.932038459534173E-1   -2.265817214676287E-1    7.260080309669640E-4   -2.182889948582333E-3    7.259273721727696E-4   -2.246859154779776E-3   -4.468505715533448E-1   -1.199046472273092E-1
 8.184348136500000E9    -4.958351965144994E-1   -2.206657874277373E-1    6.904032778917477E-4   -2.195744316596753E-3    6.995801175119833E-4   -2.272812263121321E-3   -4.480147131391233E-1   -1.150126878225635E-1
 8.184437761375000E9    -4.983335600365962E-1   -2.151652644351308E-1    6.475475188599227E-4   -2.178118928707967E-3    6.846673785613837E-4   -2.329604537432311E-3   -4.491476160700001E-1   -1.101919497537097E-1
 8.184527386250000E9    -5.006302591426398E-1   -2.093199717101650E-1    6.267582264505377E-4   -2.218014719442616E-3    6.185814141187620E-4   -2.283844050924549E-3   -4.502365773319153E-1   -1.052205627633055E-1
 8.184617011125000E9    -5.031973489687105E-1   -2.036247103500680E-1    6.142039420976757E-4   -2.205392670990500E-3    6.087074399130542E-4   -2.290216716115957E-3   -4.512457699983143E-1   -1.004854624461144E-1
 8.184706636000000E9    -5.053514388234955E-1   -1.977229074714623E-1    5.618070316042483E-4   -2.209315210620833E-3    6.027212669846224E-4   -2.313908006356966E-3   -4.522045436138580E-1   -9.544172604842763E-2
 8.184796260875000E9    -5.077177497590563E-1   -1.919373943923617E-1    5.695534107170090E-4   -2.222859567110742E-3    5.582021980978435E-4   -2.310567085368918E-3   -4.532261696437664E-1   -9.060256491954352E-2
 8.184885885750000E9    -5.097836919967731E-1   -1.860439812307304E-1    5.423961061608326E-4   -2.218502526744108E-3    5.323044647631415E-4   -2.336189279635900E-3   -4.539635992832672E-1   -8.574404348065094E-2
 8.184975510625000E9    -5.117917910429359E-1   -1.802368765437506E-1    4.924030410398029E-4   -2.266031013593975E-3    4.927108291992059E-4   -2.321340945404956E-3   -4.547757246927861E-1   -8.073830758582391E-2
 8.185065135500000E9    -5.138423902736751E-1   -1.742760035521571E-1    4.811139498143417E-4   -2.246114760454663E-3    4.599406961634213E-4   -2.332090069804566E-3   -4.555386023191302E-1   -7.581369906186231E-2
 8.185154760375000E9    -5.158124383603743E-1   -1.684190382351390E-1    4.473665511853592E-4   -2.246415183232825E-3    4.750652847519304E-4   -2.353809145414636E-3   -4.563133395947291E-1   -7.093201163835382E-2
 8.185244385250000E9    -5.177264777045570E-1   -1.624817776232265E-1    4.453383317425287E-4   -2.280776289237490E-3    4.181934298677566E-4   -2.376909418498958E-3   -4.568843359456649E-1   -6.613570708373519E-2
 8.185334010125000E9    -5.194958918309477E-1   -1.563565058444449E-1    4.220982414046226E-4   -2.245909799837404E-3    3.873701149353213E-4   -2.326766117105905E-3   -4.573842059747135E-1   -6.112292231381602E-2
 8.185423635000000E9    -5.212174641520935E-1   -1.504713587117512E-1    4.090221781524749E-4   -2.263631672124403E-3    3.391831706616517E-4   -2.373293940085266E-3   -4.581064887411100E-1   -5.612014734427139E-2
 8.185513259875000E9    -5.229237117106585E-1   -1.443941169023452E-1    3.985568852123344E-4   -2.290639983060300E-3    3.184974806534755E-4   -2.378422460822785E-3   -4.586548635739620E-1   -5.095957825039235E-2
 8.185602884750000E9    -5.244937791610141E-1   -1.384792115520120E-1    3.715751144090517E-4   -2.254717312860522E-3    3.204084444124997E-4   -2.359436654321448E-3   -4.590103301373168E-1   -4.611180574329055E-2
