#  HZ   S   RI   R     50.00 
! Rohde & Schwarz Vector Network Analyzer 
! Rohde-Schwarz,ZNB20-2Port,1311601062101988,3.16
! Created: UTC 3/20/2024, 4:48:46 PM
! freq[Hz]                re:S11                  im:S11                  re:S21                  im:S21                  re:S12                  im:S12                  re:S22                  im:S22
 8.196984188000000E9    -1.802860496507758E-1    5.048901383273048E-1   -3.095171258794956E-3   -8.223443300611638E-4   -3.208484673296269E-3   -6.744052063869795E-4   -1.154256718588547E-1    4.287662041495993E-1
 8.196986490625000E9    -1.802048223869235E-1    5.048711756269659E-1   -3.098915691172011E-3   -8.016475164169923E-4   -3.211918454856273E-3   -7.154194034983203E-4   -1.153085520712166E-1    4.288154619845831E-1
 8.196988793250000E9    -1.799960494686016E-1    5.049461500495119E-1   -3.093330971103968E-3   -7.889728425329316E-4   -3.205299134074058E-3   -6.829946781586279E-4   -1.150223214295948E-1    4.288841436434705E-1
 8.196991095875000E9    -1.798286248434430E-1    5.049475734566644E-1   -3.104802244296129E-3   -7.761627640158957E-4   -3.205975790830930E-3   -6.728407193108461E-4   -1.149995019360498E-1    4.288342134492409E-1
 8.196993398500000E9    -1.796080550992419E-1    5.049216293454750E-1   -3.091525825616904E-3   -8.092196987824823E-4   -3.192526857045790E-3   -7.145754979283261E-4   -1.149585824127927E-1    4.290006919301061E-1
 8.196995701125000E9    -1.794557831987917E-1    5.050670766653611E-1   -3.121435579874984E-3   -8.019697023303205E-4   -3.213825916871847E-3   -6.861768731982108E-4   -1.148976731685376E-1    4.289572920368010E-1
 8.196998003750000E9    -1.792914132337937E-1    5.052517930880427E-1   -3.122409057111660E-3   -8.018494881806927E-4   -3.227227378773395E-3   -6.973510372777087E-4   -1.145727477759398E-1    4.289167211051548E-1
 8.197000306375000E9    -1.790629826377825E-1    5.052991645086909E-1   -3.137885848280489E-3   -7.944459276405383E-4   -3.231351365449095E-3   -6.883273443212049E-4   -1.144826295728749E-1    4.289350102555842E-1
 8.197002609000000E9    -1.788328622776340E-1    5.053197010417226E-1   -3.126128001176486E-3   -7.770822206678995E-4   -3.178071231797615E-3   -6.908410624495579E-4   -1.144320816551141E-1    4.290384926310547E-1
 8.197004911625000E9    -1.787101024719770E-1    5.053404414739252E-1   -3.109897599897683E-3   -7.910594605800887E-4   -3.197556367967419E-3   -6.895219345177056E-4   -1.143233811805746E-1    4.290056973896189E-1
 8.197007214250000E9    -1.785096436784105E-1    5.054138747242004E-1   -3.116559167076989E-3   -7.811954917740718E-4   -3.167034157082005E-3   -6.712022798484625E-4   -1.140920260581842E-1    4.291800562089325E-1
 8.197009516875000E9    -1.784014089554630E-1    5.054901068643645E-1   -3.140539390836266E-3   -8.120071591494248E-4   -3.262117672034472E-3   -6.851535504349769E-4   -1.139420231099219E-1    4.293265850105528E-1
 8.197011819500000E9    -1.781957198759516E-1    5.056286157980932E-1   -3.144074227231529E-3   -7.666496317030042E-4   -3.225279705152492E-3   -6.806249996536896E-4   -1.138047549919908E-1    4.290104472177425E-1
 8.197014122125000E9    -1.779719644309661E-1    5.056397551496922E-1   -3.156068313634514E-3   -8.161011184438826E-4   -3.237684875796159E-3   -6.722196104094680E-4   -1.139091323446478E-1    4.291164972061150E-1
 8.197016424750000E9    -1.779004669968395E-1    5.057063690069596E-1   -3.164326016274180E-3   -7.806583297793592E-4   -3.226206912013644E-3   -6.634136572647014E-4   -1.136686029832278E-1    4.291736578296520E-1
 8.197018727375000E9    -1.776474680772766E-1    5.056829699552055E-1   -3.166248236166255E-3   -8.023715877689897E-4   -3.238143114028609E-3   -6.649983659378841E-4   -1.136113144090400E-1    4.292024081565838E-1
 8.197021030000000E9    -1.774961998979277E-1    5.057930124975891E-1   -3.159530242557458E-3   -7.971816830213827E-4   -3.235940216062834E-3   -6.875420548485966E-4   -1.135415538073444E-1    4.291850415510637E-1
 8.197023332625000E9    -1.772996447199386E-1    5.059153489989138E-1   -3.136134202418750E-3   -7.993951804688442E-4   -3.259911911304651E-3   -6.976106854517416E-4   -1.132914036433425E-1    4.293550137675972E-1
 8.197025635250000E9    -1.772218868888664E-1    5.058702602547336E-1   -3.168384622074443E-3   -7.828442096247516E-4   -3.250575816321260E-3   -6.793203428726006E-4   -1.132373703730917E-1    4.293478497959127E-1
 8.197027937875000E9    -1.770426131555878E-1    5.059646022890832E-1   -3.152958054411503E-3   -8.122128739747936E-4   -3.229627891594410E-3   -6.826859894513144E-4   -1.130405671272776E-1    4.293947552928136E-1
 8.197030240500000E9    -1.768072832648298E-1    5.058772442163282E-1   -3.173847854186657E-3   -7.974040343634669E-4   -3.254186665929253E-3   -7.124452510704004E-4   -1.129908806946479E-1    4.293631400214679E-1
 8.197032543125000E9    -1.765554332033255E-1    5.060648581940778E-1   -3.155853882058422E-3   -7.986024314662281E-4   -3.273504065379987E-3   -6.596640582464267E-4   -1.128871774358327E-1    4.293678280113172E-1
 8.197034845750000E9    -1.765094990602963E-1    5.060238185468400E-1   -3.171517071551114E-3   -8.146151322441675E-4   -3.286500925448013E-3   -6.676704796039079E-4   -1.127014739374634E-1    4.295505058162231E-1
 8.197037148375000E9    -1.762262375812515E-1    5.060232989941565E-1   -3.158435095508435E-3   -7.920345304511170E-4   -3.267966667984593E-3   -7.029984627060830E-4   -1.124971324261819E-1    4.293928126780083E-1
 8.197039451000000E9    -1.760313242147213E-1    5.061822453360257E-1   -3.209838153760078E-3   -7.788226654538417E-4   -3.268246396695105E-3   -6.893928950028092E-4   -1.123108931664569E-1    4.293707016806238E-1
 8.197041753625000E9    -1.759249986050727E-1    5.062719933898381E-1   -3.189559781938793E-3   -7.788602571000714E-4   -3.273393664911061E-3   -6.775551335433809E-4   -1.123214019429523E-1    4.295304876806559E-1
 8.197044056250000E9    -1.758634515461471E-1    5.062427116900747E-1   -3.190549780353814E-3   -7.652176662465534E-4   -3.284282693126402E-3   -6.643821266161644E-4   -1.121946613874696E-1    4.294004993953580E-1
 8.197046358875000E9    -1.755576402627762E-1    5.063034829235667E-1   -3.210744179242825E-3   -7.936910812920789E-4   -3.280502998487018E-3   -6.819800215792170E-4   -1.121050627315701E-1    4.294890174487798E-1
 8.197048661500000E9    -1.753124609616867E-1    5.063883957190074E-1   -3.227023059958345E-3   -7.987910581256019E-4   -3.296090649371039E-3   -6.612704115381160E-4   -1.118613831130077E-1    4.295932250016671E-1
 8.197050964125000E9    -1.752526809156405E-1    5.065705437070676E-1   -3.199126335724934E-3   -7.875764558273398E-4   -3.267031105760983E-3   -6.943842059492086E-4   -1.118384069583187E-1    4.295795309958597E-1
 8.197053266750000E9    -1.750492991425120E-1    5.064828389696412E-1   -3.247192508334362E-3   -7.945457805301263E-4   -3.322533780668343E-3   -6.915727838034966E-4   -1.117102343189540E-1    4.295832693229105E-1
 8.197055569375000E9    -1.748625001022117E-1    5.065775968442072E-1   -3.234025639420280E-3   -7.737769548073822E-4   -3.341255760995309E-3   -6.851905274028270E-4   -1.114926282850911E-1    4.296680129827102E-1
 8.197057872000000E9    -1.746742617864454E-1    5.066789500683478E-1   -3.218982732971284E-3   -8.060366422161098E-4   -3.329358820548170E-3   -6.454841159372791E-4   -1.114294289842379E-1    4.296407875733962E-1
 8.197060174625000E9    -1.744434216698648E-1    5.066411547139380E-1   -3.214719537217736E-3   -7.848216040082320E-4   -3.291029133922583E-3   -6.690853777757301E-4   -1.112065487935401E-1    4.297311301184098E-1
 8.197062477250000E9    -1.743009681462010E-1    5.068232536437478E-1   -3.229673656354703E-3   -7.776168318729489E-4   -3.306956494340756E-3   -6.897876879711237E-4   -1.111504089920096E-1    4.298096715182925E-1
 8.197064779875000E9    -1.740149472392893E-1    5.068401246295741E-1   -3.245532281330134E-3   -7.746831694066763E-4   -3.310121134246332E-3   -6.788890993274128E-4   -1.110445145780949E-1    4.297987034374760E-1
 8.197067082500000E9    -1.739167979931760E-1    5.067872750075633E-1   -3.247682040194313E-3   -8.064597255223102E-4   -3.347722700930225E-3   -6.485387198926924E-4   -1.109118376872814E-1    4.298228809116934E-1
 8.197069385125000E9    -1.737952451761844E-1    5.067873343757944E-1   -3.256279589610651E-3   -8.073351593585431E-4   -3.327175054870502E-3   -6.598287344917763E-4   -1.108223162541212E-1    4.300095859570584E-1
 8.197071687750000E9    -1.736625017902111E-1    5.069539650208132E-1   -3.246315272307333E-3   -7.931179465823232E-4   -3.339472282677829E-3   -6.524596969800961E-4   -1.105851157192490E-1    4.298959937008632E-1
 8.197073990375000E9    -1.734430580958320E-1    5.069712738748450E-1   -3.272638256086993E-3   -8.014754803074525E-4   -3.374780503504474E-3   -6.614493240647815E-4   -1.104487869585347E-1    4.297650235643634E-1
 8.197076293000000E9    -1.731774852902979E-1    5.069326854762152E-1   -3.256486334343479E-3   -7.854633819134064E-4   -3.360399276499546E-3   -6.734528465029298E-4   -1.104237979666804E-1    4.299662651483432E-1
 8.197078595625000E9    -1.730623862485698E-1    5.069849857630944E-1   -3.244250630329395E-3   -7.775548709237922E-4   -3.335753950414008E-3   -6.857607590471034E-4   -1.103592898178269E-1    4.299614908281103E-1
 8.197080898250000E9    -1.728370214851373E-1    5.072188748351247E-1   -3.262848911656520E-3   -7.816210049919265E-4   -3.369174258010878E-3   -6.196770197745028E-4   -1.101769625073445E-1    4.300417626201566E-1
 8.197083200875000E9    -1.725988934201615E-1    5.071352585196828E-1   -3.286581633017768E-3   -8.038729715129618E-4   -3.395447351763796E-3   -6.771691204947335E-4   -1.099825516033870E-1    4.300175514569644E-1
 8.197085503500000E9    -1.725118313941717E-1    5.073166876971221E-1   -3.283665556517219E-3   -7.893072778722396E-4   -3.393375943019396E-3   -6.711953544784106E-4   -1.098391174705073E-1    4.299806038644430E-1
 8.197087806125000E9    -1.722912009028464E-1    5.072813329831194E-1   -3.266017779117151E-3   -7.752203237534735E-4   -3.364895955576176E-3   -6.356477186479490E-4   -1.096270840497333E-1    4.301059879763310E-1
 8.197090108750000E9    -1.720737947121208E-1    5.074106008998261E-1   -3.312364699484174E-3   -7.985284125906479E-4   -3.410512686495698E-3   -6.446842386051507E-4   -1.096442370778788E-1    4.300909259288559E-1
 8.197092411375000E9    -1.719207946238841E-1    5.074019682018008E-1   -3.306056693845222E-3   -7.697718321092821E-4   -3.419449258144508E-3   -6.732456953008237E-4   -1.094735034110551E-1    4.300840911766212E-1
 8.197094714000000E9    -1.717227202882403E-1    5.074159689885954E-1   -3.310305587471487E-3   -7.893627564613892E-4   -3.399480750971128E-3   -6.625779787267328E-4   -1.093295579128835E-1    4.301739462448605E-1
 8.197097016625000E9    -1.715278566303000E-1    5.076283526908584E-1   -3.302828708398717E-3   -7.619275974027575E-4   -3.392415816696875E-3   -6.736689632383370E-4   -1.092352380729899E-1    4.301150673850179E-1
 8.197099319250000E9    -1.712516031725236E-1    5.075471195471007E-1   -3.302508547792548E-3   -7.537052300689378E-4   -3.391663143963598E-3   -6.288490782344121E-4   -1.092574974668614E-1    4.301505297329313E-1
 8.197101621875000E9    -1.710253471242258E-1    5.076668526341472E-1   -3.321964754906424E-3   -7.869086476235535E-4   -3.397348055510255E-3   -6.757685571614431E-4   -1.089325632511247E-1    4.302722692766196E-1
 8.197103924500000E9    -1.709509959252830E-1    5.077981122498307E-1   -3.328020644686390E-3   -7.727595975775918E-4   -3.381573374504935E-3   -6.529437879510309E-4   -1.087787987274179E-1    4.302849168550089E-1
 8.197106227125000E9    -1.707737181070931E-1    5.077130319772413E-1   -3.330581156687650E-3   -7.869919845437744E-4   -3.422714332922436E-3   -6.841254303056510E-4   -1.087388442623141E-1    4.303367566795888E-1
 8.197108529750000E9    -1.705094612550298E-1    5.077046022585383E-1   -3.329659031728947E-3   -7.709371045616677E-4   -3.415762934828297E-3   -6.150958554888821E-4   -1.086258301940937E-1    4.304257766649803E-1
 8.197110832375000E9    -1.703885324459963E-1    5.077956399885705E-1   -3.342648482513683E-3   -7.837852283261217E-4   -3.455638253522299E-3   -6.492656934379680E-4   -1.084088058295287E-1    4.302453671473325E-1
 8.197113135000000E9    -1.702882357437477E-1    5.078186693270702E-1   -3.320366953096007E-3   -7.930928143445606E-4   -3.429715440452160E-3   -6.698617713604914E-4   -1.083690794066217E-1    4.304116935011031E-1
 8.197115437625000E9    -1.700051055848383E-1    5.080324210817944E-1   -3.328472952375217E-3   -7.781968073390979E-4   -3.437647497477722E-3   -6.318508467205255E-4   -1.081865193653360E-1    4.303494951928868E-1
 8.197117740250000E9    -1.699061403658645E-1    5.080199222021408E-1   -3.365290014552938E-3   -7.804301609851298E-4   -3.456456538925645E-3   -6.309979642476562E-4   -1.081699093833433E-1    4.304698428376279E-1
 8.197120042875000E9    -1.696045765947117E-1    5.081156241041023E-1   -3.372240545599151E-3   -7.841981697707894E-4   -3.466797710138106E-3   -6.253166599025955E-4   -1.080495725265819E-1    4.304557151560783E-1
 8.197122345500000E9    -1.693349287176256E-1    5.080121963627685E-1   -3.372484781798695E-3   -7.613426317912190E-4   -3.480889089610210E-3   -6.265416312143095E-4   -1.077665597411161E-1    4.303957126871377E-1
 8.197124648125000E9    -1.692459910723045E-1    5.082231708886453E-1   -3.400219246216822E-3   -7.955577715207618E-4   -3.455362373977040E-3   -6.376714254226542E-4   -1.076295655743926E-1    4.305065877981590E-1
 8.197126950750000E9    -1.689608994113264E-1    5.082889879341959E-1   -3.403514095359051E-3   -7.871927363638750E-4   -3.461396134283850E-3   -6.278054101356853E-4   -1.075814091494359E-1    4.304346430965140E-1
 8.197129253375000E9    -1.688864284112599E-1    5.083040296020246E-1   -3.385715665285116E-3   -7.646686521159656E-4   -3.473262133077958E-3   -6.572395485345923E-4   -1.074509024404306E-1    4.306042805053187E-1
 8.197131556000000E9    -1.687434014522040E-1    5.084437223869772E-1   -3.395392694907966E-3   -7.877904570530932E-4   -3.499126055271299E-3   -6.177941075219847E-4   -1.072899459754424E-1    4.306786533208052E-1
 8.197133858625000E9    -1.684569354856148E-1    5.084482633390229E-1   -3.393940750636274E-3   -7.620969833593513E-4   -3.501993147758335E-3   -6.297919025789953E-4   -1.072481912396552E-1    4.305622786244201E-1
 8.197136161250000E9    -1.682950804649611E-1    5.082795635447703E-1   -3.402851536358317E-3   -7.510452362460019E-4   -3.522786891723364E-3   -6.152129732078305E-4   -1.071529044602939E-1    4.305898954272852E-1
 8.197138463875000E9    -1.680273916758801E-1    5.085116964629506E-1   -3.437114854843556E-3   -7.509874923991578E-4   -3.504264814851421E-3   -6.490328866562780E-4   -1.069359143669106E-1    4.307088496704705E-1
 8.197140766500000E9    -1.678881256265563E-1    5.085293291532960E-1   -3.415181656575011E-3   -7.683015404185317E-4   -3.529370100666221E-3   -6.289853110088148E-4   -1.067556797927757E-1    4.307436600337183E-1
 8.197143069125000E9    -1.675858808772448E-1    5.085813172681659E-1   -3.405117296697203E-3   -7.612475552899019E-4   -3.525852848167227E-3   -6.016059460658743E-4   -1.066613283059785E-1    4.306885876013991E-1
 8.197145371750000E9    -1.674379263410061E-1    5.086637270354655E-1   -3.408531793173107E-3   -7.632174972909398E-4   -3.546446680102570E-3   -6.164814963254321E-4   -1.065964921383223E-1    4.308123544560750E-1
 8.197147674375000E9    -1.673360562017140E-1    5.086309616250519E-1   -3.446363196051997E-3   -7.446424207816559E-4   -3.543604513550920E-3   -6.362633026103312E-4   -1.062775317729901E-1    4.308326156496362E-1
 8.197149977000000E9    -1.671040181471403E-1    5.087183477691756E-1   -3.433926777856168E-3   -7.638006322481924E-4   -3.543160470218662E-3   -6.273762245215371E-4   -1.062949197869608E-1    4.308554246611991E-1
 8.197152279625000E9    -1.668914532649428E-1    5.087589995058734E-1   -3.466137143598988E-3   -7.186935075794869E-4   -3.542620340499646E-3   -6.426932562918392E-4   -1.061185184708406E-1    4.307520371020379E-1
 8.197154582250000E9    -1.667755558675362E-1    5.088541017838536E-1   -3.471083697825565E-3   -7.158512735793101E-4   -3.562195317322079E-3   -6.399050419859658E-4   -1.060374885101590E-1    4.307986120903072E-1
 8.197156884875000E9    -1.664442898953219E-1    5.089099777229065E-1   -3.483903233990459E-3   -7.648796690992393E-4   -3.583627567981930E-3   -6.225059648495471E-4   -1.058732431983217E-1    4.309447559535878E-1
 8.197159187500000E9    -1.662586858781551E-1    5.089619371813922E-1   -3.473111069264659E-3   -7.411273007592700E-4   -3.583819150714291E-3   -6.092416683384486E-4   -1.058883326446421E-1    4.310864037341184E-1
 8.197161490125000E9    -1.660981277196914E-1    5.089883471882442E-1   -3.487170288130696E-3   -7.261065917450849E-4   -3.590324500024963E-3   -6.471201955427073E-4   -1.058075233267646E-1    4.311361053455803E-1
 8.197163792750000E9    -1.657712304642036E-1    5.090237776478450E-1   -3.486603043627242E-3   -7.149613762610605E-4   -3.599116967029155E-3   -6.259567231868406E-4   -1.056810737309255E-1    4.310153966255379E-1
 8.197166095375000E9    -1.657029122295379E-1    5.090210326282425E-1   -3.498934710235341E-3   -7.539604892981299E-4   -3.622569899808458E-3   -6.107516664548182E-4   -1.054865306891544E-1    4.309490730076957E-1
 8.197168398000000E9    -1.655234508498225E-1    5.091400990273347E-1   -3.509868874548304E-3   -7.592835493850856E-4   -3.606553581746360E-3   -6.091507598037113E-4   -1.052710964611435E-1    4.310144881877040E-1
 8.197170700625000E9    -1.653523711790587E-1    5.092790212623798E-1   -3.520228707944139E-3   -7.668239130991465E-4   -3.602173965854244E-3   -6.115408503277647E-4   -1.052623842337392E-1    4.310246037305206E-1
 8.197173003250000E9    -1.650305600756342E-1    5.092426160587250E-1   -3.540414841411457E-3   -7.306687870318641E-4   -3.629076388183349E-3   -6.109804581169137E-4   -1.051183709121185E-1    4.312210994672648E-1
 8.197175305875000E9    -1.649750006443873E-1    5.092478208006187E-1   -3.515279076316474E-3   -7.310892691765853E-4   -3.658143745963141E-3   -6.286166837677974E-4   -1.049666289832369E-1    4.310668697629018E-1
 8.197177608500000E9    -1.646423755596895E-1    5.094364033404830E-1   -3.566986620033461E-3   -7.372467765120661E-4   -3.691320910336432E-3   -5.990859145524054E-4   -1.048100706265137E-1    4.311580266332142E-1
 8.197179911125000E9    -1.644394821227779E-1    5.094505380910119E-1   -3.537552339016949E-3   -7.308896058419003E-4   -3.653276614310280E-3   -6.189686393885854E-4   -1.045986822359864E-1    4.312657328790890E-1
 8.197182213750000E9    -1.642528886524943E-1    5.094222226158116E-1   -3.548118080415793E-3   -7.308247829874236E-4   -3.664630339030942E-3   -6.223985380673578E-4   -1.045163909510146E-1    4.311913302868384E-1
 8.197184516375000E9    -1.641649944270482E-1    5.094821752234496E-1   -3.598275280899394E-3   -7.419611795060010E-4   -3.673618334419813E-3   -5.961454648793670E-4   -1.043480452006675E-1    4.312711339520658E-1
 8.197186819000000E9    -1.638600619771969E-1    5.095367040685530E-1   -3.563391192516393E-3   -7.396815909451167E-4   -3.661782888718151E-3   -6.140211809894621E-4   -1.043284840958029E-1    4.311365675147251E-1
 8.197189121625000E9    -1.636198492917237E-1    5.096084969925971E-1   -3.585240803388295E-3   -7.168507024774284E-4   -3.681347046887252E-3   -6.113932958042699E-4   -1.042907914378906E-1    4.312358516280864E-1
 8.197191424250000E9    -1.633716431512503E-1    5.097263077061973E-1   -3.594811891602174E-3   -7.113655566021864E-4   -3.713677725529935E-3   -5.980278425769209E-4   -1.040433528625716E-1    4.312450684790110E-1
