#  HZ   S   RI   R     50.00 
! Rohde & Schwarz Vector Network Analyzer 
! Rohde-Schwarz,ZNB20-2Port,1311601062101988,3.16
! Created: UTC 3/20/2024, 4:51:12 PM
! freq[Hz]                re:S11                  im:S11                  re:S21                  im:S21                  re:S12                  im:S12                  re:S22                  im:S22
 8.195765329000000E9    -2.616083836408956E-1    4.693466349742999E-1   -2.443494123014213E-3   -1.137673084733522E-3   -2.564487809124692E-3   -1.069279818868319E-3   -1.812583907858236E-1    4.076183979796145E-1
 8.195772798225000E9    -2.609987260626416E-1    4.697621918621327E-1   -2.464225953708287E-3   -1.127583007670695E-3   -2.584871838807491E-3   -1.086879822454208E-3   -1.808225748842431E-1    4.079348292971734E-1
 8.195780267450000E9    -2.606562466630660E-1    4.700104554131874E-1   -2.480867301263414E-3   -1.147637821048312E-3   -2.569632437781608E-3   -1.026268957535230E-3   -1.805325268405960E-1    4.079971638875770E-1
 8.195787736675000E9    -2.601335090364582E-1    4.702314014307807E-1   -2.471970726882913E-3   -1.126801772425698E-3   -2.600234415525727E-3   -1.055530198098397E-3   -1.801245980024125E-1    4.082369066052352E-1
 8.195795205900000E9    -2.596245388172454E-1    4.704894905218425E-1   -2.454355054053355E-3   -1.111858303390867E-3   -2.544390693460416E-3   -1.040435366677364E-3   -1.796781253880636E-1    4.082576059298859E-1
 8.195802675125000E9    -2.592231262791577E-1    4.707894985965478E-1   -2.453640125096886E-3   -1.093237227435890E-3   -2.578903161256804E-3   -1.050943761888530E-3   -1.793192052250286E-1    4.084169407705565E-1
 8.195810144350000E9    -2.587792428077126E-1    4.709866093793828E-1   -2.479047466279871E-3   -1.104868421470104E-3   -2.566127375986895E-3   -1.033680542816123E-3   -1.790165676940987E-1    4.086962729272572E-1
 8.195817613575000E9    -2.581498217303215E-1    4.713313040934374E-1   -2.493108069747795E-3   -1.135840364190987E-3   -2.598695313279480E-3   -1.046657324973584E-3   -1.783707853195422E-1    4.088417431257516E-1
 8.195825082800000E9    -2.578267200780754E-1    4.714970470024499E-1   -2.479945780733146E-3   -1.113823748212261E-3   -2.572732700698300E-3   -1.041282298942715E-3   -1.780673175588592E-1    4.088694248592051E-1
 8.195832552025000E9    -2.572582385197053E-1    4.717991681257728E-1   -2.477063677712012E-3   -1.102770278793786E-3   -2.568461031692961E-3   -1.053142248918113E-3   -1.776496916544624E-1    4.090790016580946E-1
 8.195840021250000E9    -2.567796777916760E-1    4.720720871068256E-1   -2.489483233421019E-3   -1.080973812527627E-3   -2.587331003689842E-3   -1.008029434746407E-3   -1.772628190951567E-1    4.093156029080302E-1
 8.195847490475000E9    -2.563764120023170E-1    4.722121642670505E-1   -2.496606223667070E-3   -1.079524345778771E-3   -2.592317504807884E-3   -1.019657600078331E-3   -1.768187929449384E-1    4.094225810278923E-1
 8.195854959700000E9    -2.558833224281492E-1    4.725965048839590E-1   -2.491426420449556E-3   -1.098378017896342E-3   -2.578245543218178E-3   -1.036992045694127E-3   -1.765403832084113E-1    4.096566841459857E-1
 8.195862428925000E9    -2.554021380405349E-1    4.727084803796213E-1   -2.485968362155718E-3   -1.092208149560396E-3   -2.611041361518188E-3   -1.031129970323321E-3   -1.762367954904314E-1    4.097930405084264E-1
 8.195869898150000E9    -2.549523764881817E-1    4.730400777780767E-1   -2.507909729686028E-3   -1.089702686280378E-3   -2.592511200656566E-3   -1.034988812275050E-3   -1.757155759959596E-1    4.098500266151806E-1
 8.195877367375000E9    -2.545798128263581E-1    4.732154251454569E-1   -2.495958972946721E-3   -1.099476727241600E-3   -2.572624218892725E-3   -1.019638752063159E-3   -1.753837834303260E-1    4.102648895000818E-1
 8.195884836600000E9    -2.539798141329490E-1    4.734118600156254E-1   -2.506403480354089E-3   -1.078157635094882E-3   -2.603997277129519E-3   -1.022300904921386E-3   -1.750267290830723E-1    4.101786264289092E-1
 8.195892305825000E9    -2.535483443370349E-1    4.737097381552359E-1   -2.520242933080670E-3   -1.089900056963854E-3   -2.613711695775671E-3   -9.988124835385449E-4   -1.746254455426629E-1    4.103490642568990E-1
 8.195899775050000E9    -2.529784209764601E-1    4.739585505893651E-1   -2.507716468392065E-3   -1.072910098508802E-3   -2.603556949824834E-3   -1.026296743833161E-3   -1.741328909878981E-1    4.103749540697944E-1
 8.195907244275000E9    -2.525315966541515E-1    4.742702292384859E-1   -2.522513545935413E-3   -1.085993995922423E-3   -2.610979463263215E-3   -1.007570253960041E-3   -1.738358686454508E-1    4.107299356871563E-1
 8.195914713500000E9    -2.520482359456708E-1    4.744622223724906E-1   -2.520201629925888E-3   -1.081868920406631E-3   -2.597405037245788E-3   -1.006345748356550E-3   -1.735019718288336E-1    4.108890859020961E-1
 8.195922182725000E9    -2.515458496543592E-1    4.747672076824125E-1   -2.493220052738842E-3   -1.070116649850449E-3   -2.602191144761201E-3   -9.895403965120766E-4   -1.729689957584257E-1    4.108968854472293E-1
 8.195929651950000E9    -2.512172822787144E-1    4.750785293301488E-1   -2.536066396776951E-3   -1.077439261499558E-3   -2.610846680462694E-3   -1.005436402685321E-3   -1.727087600227811E-1    4.110034379530177E-1
 8.195937121175000E9    -2.506730805198719E-1    4.753282744967234E-1   -2.526821572309324E-3   -1.086057439117238E-3   -2.646164608071864E-3   -1.009194947020857E-3   -1.722524475411971E-1    4.113026373186102E-1
 8.195944590400000E9    -2.502333032851616E-1    4.755148353638467E-1   -2.530758319557816E-3   -1.077862647964444E-3   -2.594738902161481E-3   -9.966284007586817E-4   -1.719064468542346E-1    4.114318856637985E-1
 8.195952059625000E9    -2.497681807895153E-1    4.757636471978330E-1   -2.510456354734930E-3   -1.064590285633478E-3   -2.615979707589619E-3   -1.003972584321442E-3   -1.714890136312416E-1    4.115405735190839E-1
 8.195959528850000E9    -2.492267201569993E-1    4.759470150219243E-1   -2.519476641539613E-3   -1.067232896250293E-3   -2.644139487891062E-3   -1.038614716713991E-3   -1.711551453327472E-1    4.117328355595490E-1
 8.195966998075000E9    -2.488041506236060E-1    4.762382879213224E-1   -2.560040530654699E-3   -1.059117935076300E-3   -2.584749819436582E-3   -9.850829424051951E-4   -1.707214795874345E-1    4.117392295172463E-1
 8.195974467300000E9    -2.482654507689890E-1    4.763794304627424E-1   -2.517467252455228E-3   -1.077105964622296E-3   -2.630752417097071E-3   -9.999245860651078E-4   -1.703795430456243E-1    4.120417313589934E-1
 8.195981936525000E9    -2.478698798183811E-1    4.766529994449608E-1   -2.527739860405242E-3   -1.058276679503759E-3   -2.645424093256280E-3   -9.895636340341012E-4   -1.699256592413284E-1    4.123411355117675E-1
 8.195989405750000E9    -2.472879430053423E-1    4.770008270086373E-1   -2.544794121791183E-3   -1.049421509810861E-3   -2.628620936909371E-3   -9.841282209323971E-4   -1.695047553440724E-1    4.123306308558159E-1
 8.195996874975000E9    -2.467807034459981E-1    4.771181900698492E-1   -2.544498915252926E-3   -1.061216406519952E-3   -2.632800234374052E-3   -9.773162331866482E-4   -1.691566381517949E-1    4.125469430540115E-1
 8.196004344200000E9    -2.463984094930709E-1    4.774530372110528E-1   -2.529684574158699E-3   -1.036492597456296E-3   -2.649620550980007E-3   -9.973283944940182E-4   -1.686551641307948E-1    4.126433055227121E-1
 8.196011813425000E9    -2.459328931462314E-1    4.775873181775210E-1   -2.544413648429416E-3   -1.066571146438649E-3   -2.624712223407957E-3   -1.000778931486728E-3   -1.682875268683053E-1    4.128434256348148E-1
 8.196019282650000E9    -2.455051384681102E-1    4.778457375633524E-1   -2.534297122732338E-3   -1.048340599955906E-3   -2.639247041700402E-3   -9.828062472272603E-4   -1.681097005066743E-1    4.130384210511733E-1
 8.196026751875000E9    -2.448168692677513E-1    4.782171540214434E-1   -2.527983204331576E-3   -1.048758577967361E-3   -2.645051182541333E-3   -9.587019569049485E-4   -1.675812531070180E-1    4.130813875055222E-1
 8.196034221100000E9    -2.445000005734310E-1    4.783083928707032E-1   -2.531837413168567E-3   -1.038378929052836E-3   -2.636578147762783E-3   -9.896435593622439E-4   -1.671089470503251E-1    4.132749784743195E-1
 8.196041690325000E9    -2.441109801757792E-1    4.786571644230491E-1   -2.565693653176282E-3   -1.067598535305596E-3   -2.638722441090491E-3   -9.760527066169156E-4   -1.669198764376442E-1    4.133022209027258E-1
 8.196049159550000E9    -2.435784854878015E-1    4.787536685658332E-1   -2.544548110444103E-3   -1.065101973747349E-3   -2.632382607407573E-3   -9.575822480083901E-4   -1.664342662595180E-1    4.134024297047274E-1
 8.196056628775000E9    -2.429982299417839E-1    4.790765564782587E-1   -2.547321942438904E-3   -1.046398976708066E-3   -2.643238991538593E-3   -9.764743351978354E-4   -1.661197525328105E-1    4.135914733011975E-1
 8.196064098000000E9    -2.425240501334414E-1    4.792149601135569E-1   -2.550609165143699E-3   -1.032033684525987E-3   -2.660262862860491E-3   -1.000279996584621E-3   -1.656091157514373E-1    4.138302954741538E-1
 8.196071567225000E9    -2.421461265744616E-1    4.794643128078536E-1   -2.551990920021372E-3   -1.045270999390757E-3   -2.631151210011383E-3   -9.409801202744086E-4   -1.652696300493792E-1    4.139315003012520E-1
 8.196079036450000E9    -2.416035649753208E-1    4.797269043344518E-1   -2.558983891882448E-3   -1.048687981144000E-3   -2.653808023427018E-3   -9.625089688912455E-4   -1.647112744951932E-1    4.140608354905252E-1
 8.196086505675000E9    -2.410715276634601E-1    4.800081314111572E-1   -2.568728397572790E-3   -1.045875996164850E-3   -2.672128826658061E-3   -9.416694165881961E-4   -1.644222725879179E-1    4.142465119297700E-1
 8.196093974900000E9    -2.405274266826830E-1    4.801830822619947E-1   -2.573062763187343E-3   -1.029816910020738E-3   -2.648754541791773E-3   -9.585728534759439E-4   -1.640992402519507E-1    4.143396865256800E-1
 8.196101444125000E9    -2.401041960314958E-1    4.804640861933502E-1   -2.577033287849850E-3   -1.005983342805228E-3   -2.673619907213179E-3   -9.569690976140022E-4   -1.636369451259586E-1    4.145192652962070E-1
 8.196108913350000E9    -2.397202597921815E-1    4.806524129457350E-1   -2.538281173804157E-3   -1.040569083950683E-3   -2.709851284665927E-3   -9.668951214185866E-4   -1.632390746102682E-1    4.146874941879901E-1
 8.196116382575000E9    -2.390412177694836E-1    4.809463208271085E-1   -2.580711310095073E-3   -1.036651098806557E-3   -2.698167972136697E-3   -9.296944255960640E-4   -1.628650447610465E-1    4.147554835333769E-1
 8.196123851800000E9    -2.386245276339103E-1    4.811858556453994E-1   -2.550933939236703E-3   -1.051364332043498E-3   -2.672622516116854E-3   -9.507050045302114E-4   -1.624961141327630E-1    4.148182557093869E-1
 8.196131321025000E9    -2.380873347877138E-1    4.813883302376024E-1   -2.585665748291849E-3   -1.033097631888235E-3   -2.652172867527610E-3   -9.539079421599340E-4   -1.620603714837771E-1    4.150729588166006E-1
 8.196138790250000E9    -2.377928308338013E-1    4.816055570163180E-1   -2.578988702611092E-3   -1.014323333412424E-3   -2.669478195468362E-3   -9.533705579571969E-4   -1.616924010215097E-1    4.152604818981141E-1
 8.196146259475000E9    -2.372606523030150E-1    4.818545287081959E-1   -2.610749764370428E-3   -1.016977738412189E-3   -2.666642794144670E-3   -9.889172296400712E-4   -1.613129605226377E-1    4.152491633210517E-1
 8.196153728700000E9    -2.367342068922084E-1    4.820437303647909E-1   -2.593873522574843E-3   -1.027196032266455E-3   -2.711101066108480E-3   -9.569272823871586E-4   -1.609752484683382E-1    4.155868337975712E-1
 8.196161197925000E9    -2.362400406881663E-1    4.822469678399734E-1   -2.592953769222274E-3   -1.005096277514773E-3   -2.699472752763959E-3   -9.408281357108671E-4   -1.605526875307782E-1    4.155860900718033E-1
 8.196168667150000E9    -2.358433897412588E-1    4.825438205275997E-1   -2.603143084334928E-3   -9.930974034473041E-4   -2.687342608734562E-3   -9.547049058468043E-4   -1.600723008901664E-1    4.157893963308296E-1
 8.196176136375000E9    -2.352699734081161E-1    4.828139163344057E-1   -2.626148498599034E-3   -1.017809352169434E-3   -2.701484550916689E-3   -9.329795699078086E-4   -1.597742472966296E-1    4.159353754010041E-1
 8.196183605600000E9    -2.347384387511001E-1    4.830117202966767E-1   -2.623065823800414E-3   -9.956004128836705E-4   -2.701815810509714E-3   -8.985090447932194E-4   -1.593608738821394E-1    4.159861693641493E-1
 8.196191074825000E9    -2.342232235348397E-1    4.832776230536396E-1   -2.581529533828000E-3   -9.871177220113891E-4   -2.698176249532924E-3   -9.259052625812074E-4   -1.589281629534060E-1    4.162398220121571E-1
 8.196198544050000E9    -2.338276577877134E-1    4.835378521510426E-1   -2.603885631583233E-3   -1.008241762159408E-3   -2.691701085022346E-3   -9.158537796118964E-4   -1.585276924968569E-1    4.164110003433420E-1
 8.196206013275000E9    -2.332842629064198E-1    4.836872355373326E-1   -2.611408808369992E-3   -9.860116144267267E-4   -2.689011387762253E-3   -9.219831425165140E-4   -1.580802918955959E-1    4.164324371749304E-1
 8.196213482500000E9    -2.327952314141834E-1    4.838318157365977E-1   -2.619728912746990E-3   -9.908470678312131E-4   -2.696305639065611E-3   -9.334471175736752E-4   -1.577673612363664E-1    4.166250803004044E-1
 8.196220951725000E9    -2.324169567690715E-1    4.840839772609562E-1   -2.621855482336008E-3   -9.794607460459177E-4   -2.712436307735121E-3   -9.442685951731734E-4   -1.574439014748581E-1    4.167559476111379E-1
 8.196228420950000E9    -2.318633532279600E-1    4.843534228125224E-1   -2.624574401423684E-3   -1.025152961085731E-3   -2.712796235569996E-3   -8.971414317844612E-4   -1.569396171807128E-1    4.169012501477524E-1
 8.196235890175000E9    -2.314761644943990E-1    4.845589869162165E-1   -2.599018964760641E-3   -1.008793695972801E-3   -2.688149250177070E-3   -9.328376371485423E-4   -1.565729494690154E-1    4.169710106529609E-1
 8.196243359400000E9    -2.308615509118828E-1    4.848240431667692E-1   -2.620572237099794E-3   -9.960625597018285E-4   -2.741405877544503E-3   -9.092517907667742E-4   -1.562489093103172E-1    4.171131294906366E-1
 8.196250828625000E9    -2.304060226980645E-1    4.849234970290655E-1   -2.640187566124045E-3   -9.884258088995667E-4   -2.695273217558399E-3   -9.252623862013480E-4   -1.557779116893898E-1    4.172877350571453E-1
 8.196258297850000E9    -2.298360308330592E-1    4.853287210124231E-1   -2.616470039794900E-3   -1.024823172425527E-3   -2.746192377730169E-3   -9.239119586961488E-4   -1.553874766063846E-1    4.173451691537193E-1
 8.196265767075000E9    -2.294600129238672E-1    4.855414802213771E-1   -2.622756267194968E-3   -9.810262399374626E-4   -2.714637457904019E-3   -9.100974468931142E-4   -1.550006215902243E-1    4.175497453338127E-1
 8.196273236300000E9    -2.289255696206429E-1    4.857064015562822E-1   -2.629796025535534E-3   -9.840586403226453E-4   -2.732686028972550E-3   -9.041380580724522E-4   -1.546406583727193E-1    4.177101596881208E-1
 8.196280705525000E9    -2.283705893222917E-1    4.859101479366494E-1   -2.654615974085159E-3   -9.789840620414046E-4   -2.729213233187714E-3   -8.819711296203770E-4   -1.542952198394633E-1    4.178249866243625E-1
 8.196288174750000E9    -2.279216766258965E-1    4.861269814119641E-1   -2.635293055699083E-3   -9.640211782591229E-4   -2.735362589114704E-3   -9.146137913417877E-4   -1.538793735247759E-1    4.177568195215621E-1
 8.196295643975000E9    -2.273799104222209E-1    4.863054480135706E-1   -2.645322138527694E-3   -9.977522827928568E-4   -2.742027955897134E-3   -8.907007559873553E-4   -1.533438680043340E-1    4.180056707916257E-1
 8.196303113200000E9    -2.269099798272108E-1    4.865062859469914E-1   -2.650072108379582E-3   -9.550776554420221E-4   -2.758049985641710E-3   -8.871571540526880E-4   -1.528190680964495E-1    4.181303290107157E-1
 8.196310582425000E9    -2.263975782025116E-1    4.868346618380114E-1   -2.642045170000485E-3   -9.715412383933410E-4   -2.718954409804681E-3   -8.979516696868056E-4   -1.525950110424028E-1    4.184504568605519E-1
 8.196318051650000E9    -2.259685954382097E-1    4.870730230418807E-1   -2.654729879889634E-3   -9.659716941442402E-4   -2.714572854693947E-3   -8.967168467571394E-4   -1.523127387309858E-1    4.184717247530578E-1
 8.196325520875000E9    -2.254107817608206E-1    4.871801774289607E-1   -2.669984067232928E-3   -9.824572364353192E-4   -2.750884863781574E-3   -8.594760339256160E-4   -1.518974454326910E-1    4.186416960851873E-1
 8.196332990100000E9    -2.250048646834941E-1    4.874758925212873E-1   -2.657440561770704E-3   -9.770586910660024E-4   -2.764998551165100E-3   -8.996228033374351E-4   -1.514837599666572E-1    4.188465720477796E-1
 8.196340459325000E9    -2.245035813016121E-1    4.878204167028445E-1   -2.660425702366507E-3   -9.728754336137794E-4   -2.776441507663764E-3   -8.869663534458337E-4   -1.508942585677185E-1    4.189482102909898E-1
 8.196347928550000E9    -2.240133297911325E-1    4.878301138557654E-1   -2.677403194657340E-3   -9.692709648333596E-4   -2.748045455999938E-3   -8.906025386712415E-4   -1.506423015518710E-1    4.189963996742408E-1
 8.196355397775000E9    -2.235850598972177E-1    4.879681169832537E-1   -2.647715661381615E-3   -9.493093690298151E-4   -2.784810728292594E-3   -8.677461381843986E-4   -1.502214386503686E-1    4.191753198453269E-1
 8.196362867000000E9    -2.229969371460727E-1    4.883739831910338E-1   -2.686857986089307E-3   -9.466176152217662E-4   -2.781471128964259E-3   -9.025413303767705E-4   -1.498028556528971E-1    4.192343201363899E-1
 8.196370336225000E9    -2.225473100106666E-1    4.884741526652367E-1   -2.675610530089759E-3   -9.530902420280624E-4   -2.766414046275837E-3   -8.712726940085910E-4   -1.494699414146062E-1    4.194170647354268E-1
 8.196377805450000E9    -2.220936855811668E-1    4.887369831780040E-1   -2.677492920101538E-3   -9.677483560750582E-4   -2.785087934490987E-3   -8.805713500074521E-4   -1.489602295643784E-1    4.195188263912047E-1
 8.196385274675000E9    -2.216684678338722E-1    4.889210048046564E-1   -2.692067387277533E-3   -9.474595060974212E-4   -2.760431394894017E-3   -8.509955217091157E-4   -1.485443080330974E-1    4.197068192690576E-1
 8.196392743900000E9    -2.210391327457900E-1    4.891569160838062E-1   -2.677898558981437E-3   -9.469441401618948E-4   -2.758331570464546E-3   -8.619503906356777E-4   -1.481818391145041E-1    4.199021763165674E-1
 8.196400213125000E9    -2.206502345393986E-1    4.893211285339454E-1   -2.708734083270499E-3   -9.746134287664506E-4   -2.751243760991368E-3   -8.777841032936980E-4   -1.478565449549614E-1    4.199854107865937E-1
 8.196407682350000E9    -2.200937309950275E-1    4.895508649925398E-1   -2.696139746161250E-3   -9.518501772229545E-4   -2.750996208018627E-3   -8.691069946183499E-4   -1.474593798522500E-1    4.200605400166330E-1
 8.196415151575000E9    -2.195599172765848E-1    4.899402258631518E-1   -2.701675717106073E-3   -9.638932333110934E-4   -2.769230324360673E-3   -8.431700317911598E-4   -1.468458110543757E-1    4.201666138495484E-1
 8.196422620800000E9    -2.190817216887311E-1    4.900951174164613E-1   -2.686457156276968E-3   -9.272107266783104E-4   -2.778706233761261E-3   -8.606345615881603E-4   -1.465705155893233E-1    4.203429602187101E-1
 8.196430090025000E9    -2.185759156764587E-1    4.901807267531175E-1   -2.696977918096225E-3   -9.406236046763213E-4   -2.830966915895255E-3   -8.349277094934307E-4   -1.462030666804252E-1    4.203960747355603E-1
 8.196437559250000E9    -2.180824449771634E-1    4.903589065866126E-1   -2.740447091474275E-3   -9.475431570173944E-4   -2.779651558495985E-3   -8.394969062126468E-4   -1.456627773705205E-1    4.205170354819437E-1
