#  HZ   S   RI   R     50.00 
! Rohde & Schwarz Vector Network Analyzer 
! Rohde-Schwarz,ZNB20-2Port,1311601062101988,3.16
! Created: UTC 3/20/2024, 5:06:21 PM
! freq[Hz]                re:S11                  im:S11                  re:S21                  im:S21                  re:S12                  im:S12                  re:S22                  im:S22
 8.179198238000000E9    -2.581483372059352E-1   -4.787490414315640E-1    1.803422562986349E-3   -1.321283164339442E-3    1.823972578654548E-3   -1.422594020469467E-3   -3.013966334158770E-1   -3.578219417046290E-1
 8.179280294575000E9    -2.630766575666790E-1   -4.759510959617050E-1    1.790985076718125E-3   -1.374750640150490E-3    1.829442506332520E-3   -1.404273822429030E-3   -3.049177566000024E-1   -3.546454092861761E-1
 8.179362351150000E9    -2.681177760537538E-1   -4.731870390999549E-1    1.760339640328679E-3   -1.379152259815189E-3    1.820480904558623E-3   -1.446295004393799E-3   -3.084639728350921E-1   -3.514742351908458E-1
 8.179444407725000E9    -2.729451494430393E-1   -4.704764620067729E-1    1.776039930041852E-3   -1.413853519282648E-3    1.820675732663752E-3   -1.440106215466531E-3   -3.116209055293191E-1   -3.485654424675323E-1
 8.179526464300000E9    -2.778242081936948E-1   -4.675164479239985E-1    1.718689279373221E-3   -1.420785955201222E-3    1.781989540713420E-3   -1.463766844093250E-3   -3.149622523201928E-1   -3.454308880265983E-1
 8.179608520875000E9    -2.827156316172769E-1   -4.645828788094779E-1    1.738620679720874E-3   -1.436264211511680E-3    1.767108758881074E-3   -1.478433350469096E-3   -3.184369791709763E-1   -3.420565357312249E-1
 8.179690577450000E9    -2.877483101030215E-1   -4.616789851125844E-1    1.735505780642891E-3   -1.476611783430739E-3    1.798854917414732E-3   -1.511066530595038E-3   -3.217602293632706E-1   -3.387054208338006E-1
 8.179772634025000E9    -2.923761145482475E-1   -4.584410312839855E-1    1.680589541187632E-3   -1.458497073247171E-3    1.764964998784997E-3   -1.551159829706100E-3   -3.251977004841261E-1   -3.356504514454955E-1
 8.179854690600000E9    -2.970541391144654E-1   -4.553582587383065E-1    1.699197237086504E-3   -1.489337511907956E-3    1.730400214589291E-3   -1.558655528773537E-3   -3.282386412288991E-1   -3.323808169685507E-1
 8.179936747175000E9    -3.017940764450497E-1   -4.523220827666226E-1    1.673607751845873E-3   -1.526331721717555E-3    1.717422943813495E-3   -1.566785404924264E-3   -3.314211617886185E-1   -3.288320082678792E-1
 8.180018803750000E9    -3.064590097229168E-1   -4.491439751049642E-1    1.676751966417247E-3   -1.541677472331566E-3    1.699995240761185E-3   -1.598417111740873E-3   -3.346094667513415E-1   -3.256974134395564E-1
 8.180100860325000E9    -3.112022625897297E-1   -4.458672328475287E-1    1.637892961972643E-3   -1.527806663957689E-3    1.734587183877444E-3   -1.610974231843774E-3   -3.377702727985445E-1   -3.223281766075539E-1
 8.180182916900000E9    -3.157302603831885E-1   -4.425282060820073E-1    1.648222304490683E-3   -1.550649610124747E-3    1.695825711947602E-3   -1.612043798312979E-3   -3.408392744056436E-1   -3.189118938163168E-1
 8.180264973475000E9    -3.204887736975005E-1   -4.392843188516612E-1    1.594498813427455E-3   -1.555917709434789E-3    1.652689868867773E-3   -1.665889540147612E-3   -3.438795049552065E-1   -3.153891585927781E-1
 8.180347030050000E9    -3.250053535199675E-1   -4.359888810507874E-1    1.609963439912253E-3   -1.564911455853262E-3    1.647685576060127E-3   -1.670502144972022E-3   -3.468283605978377E-1   -3.120088618616702E-1
 8.180429086625000E9    -3.294940601688041E-1   -4.324291559059892E-1    1.590466101573014E-3   -1.600902685751194E-3    1.610810738184567E-3   -1.689165831807590E-3   -3.500536382151059E-1   -3.083577293073201E-1
 8.180511143200000E9    -3.340469518008927E-1   -4.290445198778051E-1    1.566969552384623E-3   -1.596913998751977E-3    1.611489374180181E-3   -1.690566131040354E-3   -3.528145277816370E-1   -3.051089880234030E-1
 8.180593199775000E9    -3.384561643076949E-1   -4.255478928168127E-1    1.536860001025946E-3   -1.609920468883257E-3    1.587969552144555E-3   -1.704384574434601E-3   -3.558700243262218E-1   -3.013427253007244E-1
 8.180675256350000E9    -3.427740466532697E-1   -4.218987686639334E-1    1.534917581219276E-3   -1.626164742262092E-3    1.594375944092898E-3   -1.729100872555289E-3   -3.587253347520555E-1   -2.978112044553630E-1
 8.180757312925000E9    -3.472580127837431E-1   -4.183309488391402E-1    1.496285153001578E-3   -1.673695806663323E-3    1.543084190522138E-3   -1.744922906347865E-3   -3.616360623528326E-1   -2.942279830368362E-1
 8.180839369500000E9    -3.515514524115178E-1   -4.145919591187769E-1    1.500263829285383E-3   -1.664806770799376E-3    1.561549955548133E-3   -1.798760115914413E-3   -3.643233993783995E-1   -2.904655107117463E-1
 8.180921426075000E9    -3.559252289514876E-1   -4.110102896316565E-1    1.479773919891788E-3   -1.674639337330784E-3    1.506778361586929E-3   -1.768189339989009E-3   -3.669913706704744E-1   -2.868863374726007E-1
 8.181003482650000E9    -3.601251816483071E-1   -4.071490324592800E-1    1.466251142400902E-3   -1.714638138175748E-3    1.490511698219739E-3   -1.803845224066457E-3   -3.699615539756408E-1   -2.832659214691668E-1
 8.181085539225000E9    -3.643791357572991E-1   -4.033934543975429E-1    1.450481474566909E-3   -1.728754351263785E-3    1.503810638479309E-3   -1.802231744136337E-3   -3.726382639802906E-1   -2.795739530390389E-1
 8.181167595800000E9    -3.684863070208472E-1   -3.994792303042451E-1    1.453712435816090E-3   -1.745087788454570E-3    1.475895965748022E-3   -1.817035678182199E-3   -3.753354121679894E-1   -2.757030252826170E-1
 8.181249652375000E9    -3.726216791879704E-1   -3.956688778904195E-1    1.436552828352451E-3   -1.754143814075198E-3    1.469792667139283E-3   -1.864420908271659E-3   -3.780854708820335E-1   -2.720424303158084E-1
 8.181331708950000E9    -3.768319548492257E-1   -3.916989361929030E-1    1.403576271847164E-3   -1.777766315333773E-3    1.427838634829035E-3   -1.876228900453382E-3   -3.804477785220370E-1   -2.683168247296566E-1
 8.181413765525000E9    -3.808179678530694E-1   -3.876110204995496E-1    1.374845467197105E-3   -1.785017890917944E-3    1.423477226153130E-3   -1.849247934273963E-3   -3.831133016019885E-1   -2.645088163941551E-1
 8.181495822100000E9    -3.847463700736068E-1   -3.837577864004982E-1    1.332531321820197E-3   -1.779470900655291E-3    1.391959093085494E-3   -1.882197715990530E-3   -3.855695576926550E-1   -2.607082028363816E-1
 8.181577878675000E9    -3.889438606942350E-1   -3.795878057929131E-1    1.340868479778105E-3   -1.805315213391273E-3    1.415899840716407E-3   -1.894562520824403E-3   -3.881138047209406E-1   -2.567279551919813E-1
 8.181659935250000E9    -3.928162307280641E-1   -3.755169083197073E-1    1.324337973080994E-3   -1.833346457492241E-3    1.382017152348535E-3   -1.905872756049107E-3   -3.904422847122057E-1   -2.529445202560188E-1
 8.181741991825000E9    -3.967062532023326E-1   -3.713459757234617E-1    1.305317778213344E-3   -1.835911014963558E-3    1.364651607271162E-3   -1.919181248671157E-3   -3.928142799914610E-1   -2.489973290439700E-1
 8.181824048400000E9    -4.005604231116562E-1   -3.672394185920962E-1    1.310683100390885E-3   -1.858216751765698E-3    1.318072143867799E-3   -1.955074142199694E-3   -3.953778871288887E-1   -2.450871391108248E-1
 8.181906104975000E9    -4.044771582941731E-1   -3.629704586539334E-1    1.275657519777768E-3   -1.858228237854700E-3    1.297466090354176E-3   -1.966362715449683E-3   -3.976587350135590E-1   -2.411181644313785E-1
 8.181988161550000E9    -4.080487504520513E-1   -3.586675856788079E-1    1.258080297224677E-3   -1.867863500725390E-3    1.259433583861308E-3   -1.973656126361440E-3   -3.997719381549825E-1   -2.371885212873559E-1
 8.182070218125000E9    -4.119398154780734E-1   -3.544404020622215E-1    1.234059285608228E-3   -1.901220696384569E-3    1.237455516651386E-3   -1.964863272076424E-3   -4.020428146301201E-1   -2.331618513828256E-1
 8.182152274700000E9    -4.155496714204818E-1   -3.501514906357026E-1    1.216677399534739E-3   -1.931361832709145E-3    1.253737921538344E-3   -1.983411270804897E-3   -4.044585075598136E-1   -2.292345958490032E-1
 8.182234331275000E9    -4.191689236713727E-1   -3.457287146659163E-1    1.214231410726010E-3   -1.898249083091927E-3    1.198128186950108E-3   -1.997397916835306E-3   -4.065375043074730E-1   -2.251842151537636E-1
 8.182316387850000E9    -4.228129877921657E-1   -3.413209604597572E-1    1.195205234924978E-3   -1.905247985325663E-3    1.204744091638874E-3   -1.993863113710012E-3   -4.087310921871733E-1   -2.211438685544357E-1
 8.182398444425000E9    -4.262783704476100E-1   -3.367226210233624E-1    1.156036537737764E-3   -1.931381459754394E-3    1.185206451334796E-3   -2.034139104490748E-3   -4.107403780218492E-1   -2.168841243166144E-1
 8.182480501000000E9    -4.296449860962814E-1   -3.322539319509182E-1    1.150267576708633E-3   -1.949014042555788E-3    1.152024325163362E-3   -2.010678484235393E-3   -4.127561832729646E-1   -2.127721425629536E-1
 8.182562557575000E9    -4.332077114111924E-1   -3.277594917440110E-1    1.112749682242642E-3   -1.931245424200812E-3    1.126003932165009E-3   -2.052286508621718E-3   -4.146761586717878E-1   -2.086383592326075E-1
 8.182644614150000E9    -4.367557662670139E-1   -3.231194527389582E-1    1.142130356101312E-3   -1.977639983496131E-3    1.122836224433652E-3   -2.058316007154652E-3   -4.167602710089733E-1   -2.046274022218537E-1
 8.182726670725000E9    -4.399690540225366E-1   -3.185657734674075E-1    1.086266888297271E-3   -1.962083568616772E-3    1.124819848851733E-3   -2.095366201223203E-3   -4.185843527917516E-1   -2.004000721769223E-1
 8.182808727300000E9    -4.432920198604430E-1   -3.139241373461834E-1    1.067107641888844E-3   -2.001684629460854E-3    1.094086380204546E-3   -2.111510582487175E-3   -4.206189618749313E-1   -1.963466803857594E-1
 8.182890783875000E9    -4.465374063233541E-1   -3.092543528097201E-1    1.073303694346956E-3   -2.013982080502812E-3    1.056042049740718E-3   -2.127120034076611E-3   -4.224410733752522E-1   -1.920027833789041E-1
 8.182972840450000E9    -4.497422339212321E-1   -3.045105089410111E-1    1.028179444217402E-3   -2.034755667991012E-3    1.024392044158857E-3   -2.113090381121187E-3   -4.243639146114159E-1   -1.877234390704296E-1
 8.183054897025000E9    -4.527617020844348E-1   -2.997883726929297E-1    1.027171058972598E-3   -2.022018690510833E-3    1.038208214301522E-3   -2.138071417948141E-3   -4.261031014280928E-1   -1.836290255887128E-1
 8.183136953600000E9    -4.558880905686142E-1   -2.951127286509393E-1    9.905947454737162E-4   -2.033496723110715E-3    1.006732554634698E-3   -2.118302137432797E-3   -4.277704720609745E-1   -1.794437122517739E-1
 8.183219010175000E9    -4.590589616685311E-1   -2.901633690923729E-1    9.806530051055212E-4   -2.087885040095125E-3    9.428348751139474E-4   -2.166366814906386E-3   -4.292546923243786E-1   -1.751066040835780E-1
 8.183301066750000E9    -4.620451548796810E-1   -2.852535088095752E-1    9.639304771856975E-4   -2.049067892234651E-3    9.712824210160526E-4   -2.140346811684729E-3   -4.310149248782016E-1   -1.708171565788149E-1
 8.183383123325000E9    -4.649970672737647E-1   -2.805220485108033E-1    9.135353337195135E-4   -2.074827459694542E-3    9.309901170702806E-4   -2.133093779908596E-3   -4.325900555507035E-1   -1.666685100500844E-1
 8.183465179900000E9    -4.679496318146151E-1   -2.755368703231064E-1    9.116955621611548E-4   -2.104063843102751E-3    9.244389298812347E-4   -2.178953614724795E-3   -4.341874964535575E-1   -1.623153661042221E-1
 8.183547236475000E9    -4.707082001024059E-1   -2.705478580927786E-1    8.765156734397681E-4   -2.103536376663482E-3    8.871474723049740E-4   -2.181632504730316E-3   -4.356879500035140E-1   -1.577997183029253E-1
 8.183629293050000E9    -4.734670898609069E-1   -2.655251246209416E-1    8.746668721444761E-4   -2.138284209570302E-3    8.874162920945158E-4   -2.220381797525161E-3   -4.371340176885974E-1   -1.534600992286889E-1
 8.183711349625000E9    -4.762906332575840E-1   -2.607648863136193E-1    8.599138103709777E-4   -2.100325870807868E-3    8.795062508559785E-4   -2.221405195407485E-3   -4.385670633261620E-1   -1.492545026720482E-1
 8.183793406200000E9    -4.789883140536833E-1   -2.556916608969911E-1    8.423994451110620E-4   -2.154682591103154E-3    8.478155533004270E-4   -2.239175830969841E-3   -4.399151069315985E-1   -1.447586558252327E-1
 8.183875462775000E9    -4.816525638462994E-1   -2.504731606293653E-1    7.970267829764627E-4   -2.150535370364321E-3    7.840105674170054E-4   -2.228433403313077E-3   -4.411754017789844E-1   -1.404775073373350E-1
 8.183957519350000E9    -4.843343258667846E-1   -2.454611558349235E-1    7.989243240054010E-4   -2.180302879437043E-3    8.053356850544874E-4   -2.196762897634055E-3   -4.425907713313272E-1   -1.361124857664295E-1
 8.184039575925000E9    -4.868485844354457E-1   -2.404161525786889E-1    7.520919781054540E-4   -2.140778059474960E-3    7.588006554965421E-4   -2.249669290843135E-3   -4.436915655384693E-1   -1.316590948525279E-1
 8.184121632500000E9    -4.892609959584136E-1   -2.352624444460306E-1    7.348915629113778E-4   -2.152002421704164E-3    7.391871919116711E-4   -2.269041952304584E-3   -4.449939833888015E-1   -1.274262835162461E-1
 8.184203689075000E9    -4.917020090972845E-1   -2.299976251103302E-1    7.082314895856301E-4   -2.197745276686244E-3    7.413057638445693E-4   -2.267998190910499E-3   -4.459935769884209E-1   -1.228706665410014E-1
 8.184285745650000E9    -4.941055526662250E-1   -2.249210414233164E-1    6.945340915111177E-4   -2.195551683395543E-3    6.943634392882529E-4   -2.282231293025442E-3   -4.471751253718145E-1   -1.185063904708114E-1
 8.184367802225000E9    -4.963847924954052E-1   -2.196207924790651E-1    6.789085909680413E-4   -2.168270213373283E-3    6.527586703636339E-4   -2.251316869435627E-3   -4.482984786165047E-1   -1.139304512261219E-1
 8.184449858800000E9    -4.986322435881759E-1   -2.144182747651452E-1    6.722114028123446E-4   -2.171645522330565E-3    6.729492029246593E-4   -2.264519111373405E-3   -4.491593213911893E-1   -1.094418362522250E-1
 8.184531915375000E9    -5.009709684153161E-1   -2.090845762712703E-1    6.550784617822747E-4   -2.206621067858189E-3    6.056125461808745E-4   -2.268833309920028E-3   -4.503097080044917E-1   -1.050735113431055E-1
 8.184613971950000E9    -5.030860024016860E-1   -2.038053209694465E-1    6.217124004489536E-4   -2.178788669432809E-3    6.198209134551066E-4   -2.295003516388650E-3   -4.512176219858254E-1   -1.006240115086979E-1
 8.184696028525000E9    -5.051956220715538E-1   -1.984511456878592E-1    5.823955856580907E-4   -2.213757126000596E-3    5.894655201523663E-4   -2.320373707460034E-3   -4.520448822861330E-1   -9.609974491069637E-2
 8.184778085100000E9    -5.070738651094300E-1   -1.931706505390925E-1    5.613362361631689E-4   -2.231794055889741E-3    5.366323338422989E-4   -2.319576586599708E-3   -4.528524360165587E-1   -9.162364364210281E-2
 8.184860141675000E9    -5.092916485260274E-1   -1.878908162644632E-1    5.332048645113612E-4   -2.209630560707071E-3    5.152886427914038E-4   -2.315028034775556E-3   -4.537489841482035E-1   -8.706713552967932E-2
 8.184942198250000E9    -5.111515863908334E-1   -1.824146023291772E-1    5.190175539150594E-4   -2.232227029746555E-3    5.227556001703489E-4   -2.350470219802860E-3   -4.543522697263185E-1   -8.263171669510726E-2
 8.185024254825000E9    -5.129058114952487E-1   -1.770644799990719E-1    4.779970068785046E-4   -2.257368241746180E-3    4.643623731365367E-4   -2.361382801944562E-3   -4.552614072501007E-1   -7.799369169727617E-2
 8.185106311400000E9    -5.147491504710890E-1   -1.716186959934607E-1    4.747438156973316E-4   -2.262285134881085E-3    4.448520015697200E-4   -2.343712511355886E-3   -4.559217028119663E-1   -7.364760615632401E-2
 8.185188367975000E9    -5.163768646162987E-1   -1.661006544006932E-1    4.563075582326798E-4   -2.251715613703560E-3    4.613978380211896E-4   -2.361703398983727E-3   -4.564232543232147E-1   -6.915714596704743E-2
 8.185270424550000E9    -5.181623620475656E-1   -1.606625060412101E-1    4.275690543206134E-4   -2.253694902390375E-3    4.082269057896018E-4   -2.355255143276750E-3   -4.571014419240257E-1   -6.456989205542116E-2
 8.185352481125000E9    -5.199770709781993E-1   -1.552830281821016E-1    4.132811707618381E-4   -2.265779119474655E-3    4.001461347120296E-4   -2.345866272112235E-3   -4.574796036237893E-1   -6.003532161536427E-2
 8.185434537700000E9    -5.213941090284376E-1   -1.497073131786019E-1    3.836033878373103E-4   -2.281501847143025E-3    3.390030486496780E-4   -2.383195339378572E-3   -4.579941360982912E-1   -5.546524309356300E-2
 8.185516594275000E9    -5.229732048920032E-1   -1.443425441663932E-1    3.570650228159273E-4   -2.271539092130445E-3    3.311154643083195E-4   -2.384269488466406E-3   -4.585759892669848E-1   -5.089550597054833E-2
 8.185598650850000E9    -5.245334007676878E-1   -1.386402807591289E-1    3.399831918920365E-4   -2.253115906493063E-3    3.067211763418311E-4   -2.372679962275465E-3   -4.589467143323926E-1   -4.639392278748051E-2
 8.185680707425000E9    -5.258634001068971E-1   -1.331809325173088E-1    3.416775846691119E-4   -2.265975471739242E-3    3.119913184910124E-4   -2.360998901110035E-3   -4.592981855485898E-1   -4.181714125297301E-2
 8.185762764000000E9    -5.271514299675336E-1   -1.275425561502797E-1    3.032578444358799E-4   -2.294141891387346E-3    2.537190678251853E-4   -2.379619549981139E-3   -4.596474843725671E-1   -3.732526688908094E-2
 8.185844820575000E9    -5.285018926698806E-1   -1.219487937141559E-1    2.728798611514419E-4   -2.298081519184172E-3    2.500949949478347E-4   -2.385760858223643E-3   -4.598625355674143E-1   -3.261002319061389E-2
 8.185926877150000E9    -5.296855777631588E-1   -1.162798508209642E-1    2.326688836490564E-4   -2.300372114027027E-3    2.023415098106789E-4   -2.372753593679223E-3   -4.601894504368104E-1   -2.827738216756827E-2
 8.186008933725000E9    -5.310215389927972E-1   -1.108651076156440E-1    2.456384581674250E-4   -2.298531592353621E-3    2.297784224202255E-4   -2.392224346392806E-3   -4.603193538158271E-1   -2.362148811826873E-2
 8.186090990300000E9    -5.320538939815860E-1   -1.051630585169786E-1    2.112007014871052E-4   -2.290766626982073E-3    1.480455784639550E-4   -2.383091445057195E-3   -4.603291599617138E-1   -1.897821255551728E-2
 8.186173046875000E9    -5.330801675398097E-1   -9.958823327817252E-2    1.774851671939677E-4   -2.301011972955119E-3    1.517232448302702E-4   -2.388994668584298E-3   -4.604552368447845E-1   -1.443894204734882E-2
 8.186255103450000E9    -5.341341310601733E-1   -9.404861868648325E-2    1.448109735623888E-4   -2.288890220465927E-3    1.115569099685034E-4   -2.389305685832170E-3   -4.605258649101495E-1   -1.006820807691114E-2
 8.186337160025000E9    -5.350222606343592E-1   -8.814572473118254E-2    1.120190086898734E-4   -2.299940007490759E-3    9.832106321687724E-5   -2.444839508068696E-3   -4.605959631463202E-1   -5.367515769720555E-3
 8.186419216600000E9    -5.358701735208935E-1   -8.250645552440151E-2    1.105130964254374E-4   -2.301697694619042E-3    8.724234445269151E-5   -2.383731484476820E-3   -4.606214583597000E-1   -7.616062685770768E-4
 8.186501273175000E9    -5.366225110482635E-1   -7.696922400931276E-2    6.706883424107490E-5   -2.344896026642006E-3    2.210380727252805E-5   -2.415452051836471E-3   -4.603903506933336E-1    3.757262436628943E-3
 8.186583329750000E9    -5.374819295435003E-1   -7.125753793334921E-2    2.610143574704587E-5   -2.318506744208794E-3   -2.395391364687906E-5   -2.390238718575940E-3   -4.602044484126374E-1    8.265042552152284E-3
