#  HZ   S   RI   R     50.00 
! Rohde & Schwarz Vector Network Analyzer 
! Rohde-Schwarz,ZNB20-2Port,1311601062101988,3.16
! Created: UTC 3/20/2024, 5:06:24 PM
! freq[Hz]                re:S11                  im:S11                  re:S21                  im:S21                  re:S12                  im:S12                  re:S22                  im:S22
 8.178449934000000E9    -2.117224480760961E-1   -5.012185212342789E-1    1.912743614657794E-3   -1.165910008266334E-3    1.987808695558516E-3   -1.257772525100685E-3   -2.685837034645214E-1   -3.841951253511923E-1
 8.178535416850000E9    -2.171346140718787E-1   -4.989827424692094E-1    1.913002526206688E-3   -1.202311209051137E-3    1.984972008722221E-3   -1.241536504830997E-3   -2.724902326123442E-1   -3.812446532078763E-1
 8.178620899700000E9    -2.225245626887737E-1   -4.964471795656172E-1    1.884677059645738E-3   -1.223620418837470E-3    1.949826277054243E-3   -1.280451683794397E-3   -2.762818504012214E-1   -3.783468214385887E-1
 8.178706382550000E9    -2.278342680977312E-1   -4.940478479281297E-1    1.886155289255986E-3   -1.229022377825857E-3    1.919963209729961E-3   -1.273030486285041E-3   -2.799344425269323E-1   -3.753708508733034E-1
 8.178791865400000E9    -2.330810579049226E-1   -4.914779967970120E-1    1.884260659637779E-3   -1.248647859136758E-3    1.921506525166407E-3   -1.294139973547975E-3   -2.838254253748899E-1   -3.722862810580629E-1
 8.178877348250000E9    -2.385787212888458E-1   -4.888632663969806E-1    1.851636820414848E-3   -1.278432506266382E-3    1.889246975325635E-3   -1.322679970960603E-3   -2.876609005987104E-1   -3.695900609032559E-1
 8.178962831100000E9    -2.437818751573444E-1   -4.863169132629740E-1    1.849195650391789E-3   -1.286514678895715E-3    1.897472517226877E-3   -1.324480265116404E-3   -2.914269683615187E-1   -3.664732833777763E-1
 8.179048313950000E9    -2.491043729431565E-1   -4.835398155680435E-1    1.820886315865394E-3   -1.304204832767296E-3    1.859028316326395E-3   -1.372301897250468E-3   -2.951208720763057E-1   -3.632120427308130E-1
 8.179133796800000E9    -2.543798106305859E-1   -4.807876897421123E-1    1.829262224329079E-3   -1.319138634722181E-3    1.846016861130848E-3   -1.395662361490986E-3   -2.985581315873792E-1   -3.600414091799778E-1
 8.179219279650000E9    -2.594973593875876E-1   -4.780656135624379E-1    1.785405462791583E-3   -1.341284705514800E-3    1.834762799171931E-3   -1.432261713840275E-3   -3.024243382423886E-1   -3.571207814215530E-1
 8.179304762500000E9    -2.647703331151823E-1   -4.751882766067815E-1    1.776959016484781E-3   -1.394833016915297E-3    1.829301950279860E-3   -1.438314637937072E-3   -3.061065257566591E-1   -3.537682122935740E-1
 8.179390245350000E9    -2.698805798741575E-1   -4.721923909243462E-1    1.759699971016707E-3   -1.384825808008314E-3    1.827955267225219E-3   -1.460000000536330E-3   -3.095205678542807E-1   -3.505062515938420E-1
 8.179475728200000E9    -2.748455880903452E-1   -4.692249232096955E-1    1.764134609435091E-3   -1.399047779677413E-3    1.807153928087707E-3   -1.488111508429619E-3   -3.129647058594043E-1   -3.471671704745163E-1
 8.179561211050000E9    -2.800202607402532E-1   -4.662245101238852E-1    1.736538972295569E-3   -1.435714327319203E-3    1.775867548771712E-3   -1.465052960056922E-3   -3.165329998888225E-1   -3.438465550523896E-1
 8.179646693900000E9    -2.851046219187835E-1   -4.631314268752285E-1    1.734750091716371E-3   -1.423960670905922E-3    1.763694398565833E-3   -1.492542836790260E-3   -3.199140000687462E-1   -3.405740781594260E-1
 8.179732176750000E9    -2.900100615534547E-1   -4.600266146689357E-1    1.700561416889312E-3   -1.489162295097170E-3    1.742663320053110E-3   -1.546119759363451E-3   -3.233989497829619E-1   -3.370220351424458E-1
 8.179817659600000E9    -2.950207370218246E-1   -4.568953155812068E-1    1.718520683371635E-3   -1.482479831338177E-3    1.747025925385599E-3   -1.506995241209179E-3   -3.267879484279745E-1   -3.338064599961226E-1
 8.179903142450000E9    -2.999112024108249E-1   -4.536382997433843E-1    1.682940171149040E-3   -1.491158738000124E-3    1.716482628575418E-3   -1.578253573743248E-3   -3.302273621162091E-1   -3.304045821172996E-1
 8.179988625300000E9    -3.048081536394237E-1   -4.502379497883764E-1    1.685082160017475E-3   -1.489145065391108E-3    1.688991174160998E-3   -1.611296285857030E-3   -3.334328260744873E-1   -3.269678335302775E-1
 8.180074108150000E9    -3.096600103809689E-1   -4.470069767525761E-1    1.643246931463240E-3   -1.524679902390573E-3    1.709132329660216E-3   -1.617078277549847E-3   -3.367507325278079E-1   -3.232825479495873E-1
 8.180159591000000E9    -3.146098362942804E-1   -4.435472700772345E-1    1.617975571351405E-3   -1.550779031734510E-3    1.712378395143902E-3   -1.611584608298647E-3   -3.400300018830922E-1   -3.198667564303776E-1
 8.180245073850000E9    -3.192906901199946E-1   -4.401270320013119E-1    1.591439102698953E-3   -1.543572514148959E-3    1.686757773161638E-3   -1.633596756756546E-3   -3.431403592875048E-1   -3.162318372167901E-1
 8.180330556700000E9    -3.240607770794640E-1   -4.366810236764173E-1    1.601366413416293E-3   -1.573873296829261E-3    1.651031537822027E-3   -1.663666647267594E-3   -3.462042286756705E-1   -3.127796936655218E-1
 8.180416039550000E9    -3.287004247432564E-1   -4.330203701763196E-1    1.575171304836054E-3   -1.604114374652888E-3    1.597206019864436E-3   -1.679893375882351E-3   -3.495578712331867E-1   -3.089517676694422E-1
 8.180501522400000E9    -3.334476188859297E-1   -4.293622910712975E-1    1.590915705782707E-3   -1.620073171177443E-3    1.622203176841391E-3   -1.654897983448097E-3   -3.525372683628722E-1   -3.054135624529066E-1
 8.180587005250000E9    -3.381125915201729E-1   -4.257143101483180E-1    1.546454944203571E-3   -1.609989740995543E-3    1.590660608391783E-3   -1.666764450997870E-3   -3.555744218621122E-1   -3.017633408706446E-1
 8.180672488100000E9    -3.427472088975772E-1   -4.220282104156620E-1    1.544777580731867E-3   -1.627710196085939E-3    1.569178478773354E-3   -1.751264055644928E-3   -3.586466041475521E-1   -2.979500218742810E-1
 8.180757970950000E9    -3.474182333531767E-1   -4.183025827330116E-1    1.536194438816434E-3   -1.663566752132389E-3    1.557023869540091E-3   -1.742751418868943E-3   -3.615153414834705E-1   -2.941835337612520E-1
 8.180843453800000E9    -3.516990901449119E-1   -4.143736102525288E-1    1.509548045173492E-3   -1.694204899632241E-3    1.543421299466477E-3   -1.767761415860277E-3   -3.645986946404636E-1   -2.903930054670083E-1
 8.180928936650000E9    -3.562827918161832E-1   -4.105517369033795E-1    1.480029194227231E-3   -1.700943900351005E-3    1.533390109028599E-3   -1.776983437181536E-3   -3.674356044577583E-1   -2.866650251636175E-1
 8.181014419500000E9    -3.607704357836496E-1   -4.067004584545438E-1    1.453215101034573E-3   -1.689786599296180E-3    1.480400973039763E-3   -1.788631200167396E-3   -3.703332682808983E-1   -2.828103134410707E-1
 8.181099902350000E9    -3.650160537783061E-1   -4.027682242080524E-1    1.447100570665453E-3   -1.720378709959853E-3    1.470130276737822E-3   -1.808017148597634E-3   -3.731036919757730E-1   -2.788198357688582E-1
 8.181185385200000E9    -3.695292438683923E-1   -3.987116771658786E-1    1.453467543396747E-3   -1.725733966359275E-3    1.480212425009864E-3   -1.791369946256066E-3   -3.758092698837817E-1   -2.751055200621889E-1
 8.181270868050000E9    -3.736583739963294E-1   -3.945590269520479E-1    1.419246268603331E-3   -1.761208060897131E-3    1.455356893610878E-3   -1.850755401909494E-3   -3.785564495313874E-1   -2.711696656987450E-1
 8.181356350900000E9    -3.780812689309895E-1   -3.904903888126642E-1    1.371877712074690E-3   -1.781189010542639E-3    1.433247681193398E-3   -1.877917112608862E-3   -3.812855442774231E-1   -2.671303411551628E-1
 8.181441833750000E9    -3.821723131433984E-1   -3.864275524955267E-1    1.400318315653057E-3   -1.774162023002064E-3    1.390379406036422E-3   -1.864987282113638E-3   -3.840282647595530E-1   -2.632555804860482E-1
 8.181527316600000E9    -3.864700887864504E-1   -3.820699000489208E-1    1.375471280173797E-3   -1.806562997677105E-3    1.415272385193669E-3   -1.897789153959906E-3   -3.865196102727658E-1   -2.592111703483725E-1
 8.181612799450000E9    -3.906136030762930E-1   -3.780477505000125E-1    1.364345922850447E-3   -1.812195276575970E-3    1.376401922705364E-3   -1.944848164170420E-3   -3.891538685727779E-1   -2.551554044707323E-1
 8.181698282300000E9    -3.946357672846891E-1   -3.736619561030686E-1    1.317549569669516E-3   -1.825410570449127E-3    1.326975684981573E-3   -1.887931811837529E-3   -3.916679450123093E-1   -2.508307102121167E-1
 8.181783765150000E9    -3.986682076981185E-1   -3.692679952182604E-1    1.316753739886932E-3   -1.842584670850338E-3    1.342057571088544E-3   -1.931634706377117E-3   -3.943234344341613E-1   -2.470515315893944E-1
 8.181869248000000E9    -4.026068022260247E-1   -3.647987321134947E-1    1.279926690595594E-3   -1.838779273422259E-3    1.304488984078803E-3   -1.948566541344561E-3   -3.965545236463853E-1   -2.429047858406065E-1
 8.181954730850000E9    -4.066660115486727E-1   -3.604690574137975E-1    1.275951897502869E-3   -1.862207294426908E-3    1.297221404125390E-3   -1.943453105335568E-3   -3.990421856374890E-1   -2.386609961285012E-1
 8.182040213700000E9    -4.105185165937363E-1   -3.559946074475184E-1    1.250827747012628E-3   -1.916485320620161E-3    1.295388101511600E-3   -1.931221474314993E-3   -4.013169356219092E-1   -2.347648954419627E-1
 8.182125696550000E9    -4.143501262186393E-1   -3.515206002585275E-1    1.234789810748546E-3   -1.910851597688882E-3    1.237790611309121E-3   -1.964338064290760E-3   -4.036465944758879E-1   -2.304482504076403E-1
 8.182211179400000E9    -4.182637083469661E-1   -3.468515147000663E-1    1.189905344392253E-3   -1.893404978456934E-3    1.251758093997356E-3   -2.015402534070127E-3   -4.057715458337731E-1   -2.261972633584364E-1
 8.182296662250000E9    -4.219199489484777E-1   -3.422766832632438E-1    1.188142678647821E-3   -1.897624947703517E-3    1.198097415101407E-3   -2.043387348816492E-3   -4.081160585985520E-1   -2.220534191180314E-1
 8.182382145100000E9    -4.256323040235613E-1   -3.377047465559786E-1    1.181971041111188E-3   -1.918909853764472E-3    1.159529299271237E-3   -2.029547469149702E-3   -4.103631798038636E-1   -2.178187796887625E-1
 8.182467627950000E9    -4.291854837338743E-1   -3.330582965341434E-1    1.166266681534973E-3   -1.973937925413431E-3    1.158728379201237E-3   -2.069739253439740E-3   -4.124824377095402E-1   -2.136104895537464E-1
 8.182553110800000E9    -4.328339821862392E-1   -3.283602659570047E-1    1.104779391703118E-3   -1.971241770881301E-3    1.143182021437879E-3   -2.053458365014346E-3   -4.144106005136921E-1   -2.091385394360969E-1
 8.182638593650000E9    -4.364605438114958E-1   -3.235463756967196E-1    1.099514719979736E-3   -1.991285426678593E-3    1.128025102727896E-3   -2.056588395975765E-3   -4.165434346809674E-1   -2.049229001967680E-1
 8.182724076500000E9    -4.399022990410203E-1   -3.187298790444404E-1    1.095040507134857E-3   -2.007268719329036E-3    1.117849746928977E-3   -2.069630189370509E-3   -4.185644382138125E-1   -2.004752403672490E-1
 8.182809559350000E9    -4.433117627302420E-1   -3.139290189437181E-1    1.073498761983435E-3   -1.998479787076486E-3    1.086051887871001E-3   -2.088252408041198E-3   -4.204861641231898E-1   -1.961970632326793E-1
 8.182895042200000E9    -4.466717705059274E-1   -3.090907438939753E-1    1.075418094802420E-3   -2.008460087041223E-3    1.062835112472960E-3   -2.113709917974172E-3   -4.223550432039443E-1   -1.919058163155145E-1
 8.182980525050000E9    -4.500209417099811E-1   -3.041079931323154E-1    1.022402275894235E-3   -2.040180742047106E-3    1.042970337837610E-3   -2.104511120306598E-3   -4.244621892212816E-1   -1.874855438047560E-1
 8.183066007900000E9    -4.533189545170724E-1   -2.992330263233804E-1    1.010111297061876E-3   -2.036355940497674E-3    1.012532838178484E-3   -2.132907156165646E-3   -4.261483736875999E-1   -1.830871430775923E-1
 8.183151490750000E9    -4.565690303059467E-1   -2.941980002621426E-1    9.890640745665016E-4   -2.047477574007805E-3    1.002067718310156E-3   -2.131296486781671E-3   -4.279946415000621E-1   -1.785370256479008E-1
 8.183236973600000E9    -4.597811423241979E-1   -2.891669384254232E-1    9.583896992496373E-4   -2.042115958162082E-3    9.824271805423952E-4   -2.113330860555923E-3   -4.296822032071052E-1   -1.742512916107040E-1
 8.183322456450000E9    -4.628493496276509E-1   -2.841648443709591E-1    9.339510533225376E-4   -2.078026639894869E-3    9.500188028897763E-4   -2.147974742219199E-3   -4.313966741139601E-1   -1.697067468903277E-1
 8.183407939300000E9    -4.659928602081200E-1   -2.788058263829449E-1    9.145221197490293E-4   -2.101036411726500E-3    9.498297304325939E-4   -2.171807276681094E-3   -4.330538921134675E-1   -1.652583157673769E-1
 8.183493422150000E9    -4.688940937087692E-1   -2.738825369334467E-1    8.979755419774766E-4   -2.091023418554923E-3    8.891717123219200E-4   -2.180025526870951E-3   -4.345219564287838E-1   -1.608726085073530E-1
 8.183578905000000E9    -4.718849532752884E-1   -2.688615091054229E-1    8.602596060601866E-4   -2.093155324340249E-3    8.945978276227691E-4   -2.167820221677253E-3   -4.361946287855799E-1   -1.563485224996533E-1
 8.183664387850000E9    -4.747123231210422E-1   -2.636573459893913E-1    8.794364455561279E-4   -2.092749823490331E-3    8.349552996648341E-4   -2.188240668574190E-3   -4.377092417841607E-1   -1.515818829027172E-1
 8.183749870700000E9    -4.775944358397514E-1   -2.582403850042684E-1    8.526852828877968E-4   -2.122727428224081E-3    8.334590042684388E-4   -2.190982775259238E-3   -4.391523411242577E-1   -1.471258109685394E-1
 8.183835353550000E9    -4.803926079748697E-1   -2.529271307791974E-1    8.375910641460637E-4   -2.129407161638503E-3    8.217044738847426E-4   -2.214179840842246E-3   -4.406415737168778E-1   -1.427219406636452E-1
 8.183920836400000E9    -4.830538554543222E-1   -2.478492152324949E-1    7.812562431551432E-4   -2.167313690902797E-3    7.784798685623255E-4   -2.240366806681307E-3   -4.418054368267434E-1   -1.380278097828940E-1
 8.184006319250000E9    -4.856664883375091E-1   -2.425441016719460E-1    7.759429686261025E-4   -2.146532574998939E-3    7.683354111860975E-4   -2.230159442380884E-3   -4.432268888638375E-1   -1.335376376027640E-1
 8.184091802100000E9    -4.884715029191947E-1   -2.370553811550278E-1    7.781330359710186E-4   -2.147321689290671E-3    7.468437532165419E-4   -2.259879839183557E-3   -4.445165291684826E-1   -1.290037739109330E-1
 8.184177284950000E9    -4.910287736140133E-1   -2.318354736657995E-1    7.203860204524162E-4   -2.142325575352058E-3    7.009902654439704E-4   -2.277331612787339E-3   -4.456224872210459E-1   -1.241959767824900E-1
 8.184262767800000E9    -4.934251282899557E-1   -2.262866966407775E-1    6.899257472634530E-4   -2.182644682847426E-3    7.096353282216147E-4   -2.263719968818296E-3   -4.469244192105651E-1   -1.197861937528511E-1
 8.184348250650000E9    -4.958481502271047E-1   -2.208827251859735E-1    6.626966822294763E-4   -2.178655308105016E-3    6.302227077163102E-4   -2.262105872656468E-3   -4.480062847443633E-1   -1.149976648275110E-1
 8.184433733500000E9    -4.981244768104945E-1   -2.154285514619542E-1    6.382327113584601E-4   -2.205995964928204E-3    6.677283148742383E-4   -2.270984379468807E-3   -4.490950656363516E-1   -1.104528187687025E-1
 8.184519216350000E9    -5.004643095693789E-1   -2.099393943931837E-1    6.464110070951880E-4   -2.177174591007153E-3    6.305163214758917E-4   -2.288023080568933E-3   -4.502380804400773E-1   -1.057973453867846E-1
 8.184604699200000E9    -5.028207104230261E-1   -2.043720592241826E-1    6.080651732371078E-4   -2.192370199964620E-3    6.102902900032365E-4   -2.315868995505170E-3   -4.510728070989650E-1   -1.010173990179859E-1
 8.184690182050000E9    -5.049945201312905E-1   -1.989124575565194E-1    6.079707378224285E-4   -2.200172632506279E-3    5.586404979115380E-4   -2.300715680288364E-3   -4.520741628220672E-1   -9.648676523933646E-2
 8.184775664900000E9    -5.070449678412691E-1   -1.934415848330062E-1    5.758150071893186E-4   -2.228938621609913E-3    5.519222712378407E-4   -2.321870223606925E-3   -4.529519790867804E-1   -9.173887144120746E-2
 8.184861147750000E9    -5.090887337242971E-1   -1.878853407808335E-1    5.448993259427097E-4   -2.246343756445341E-3    5.295954304948244E-4   -2.300657414953244E-3   -4.537777669057201E-1   -8.707169285013820E-2
 8.184946630600000E9    -5.111237777024970E-1   -1.822091353706776E-1    5.261920643226678E-4   -2.230067904232814E-3    4.936785001161345E-4   -2.323320548116931E-3   -4.544616003432858E-1   -8.233267185773360E-2
 8.185032113450000E9    -5.131789534986806E-1   -1.765269427246041E-1    4.983427737611888E-4   -2.217307819379212E-3    5.102749948167895E-4   -2.325659378165850E-3   -4.552698861103534E-1   -7.766501310361225E-2
 8.185117596300000E9    -5.147929568003637E-1   -1.707637709031173E-1    4.719011056653496E-4   -2.245800794671336E-3    4.349490990762595E-4   -2.319998485623939E-3   -4.559107172083823E-1   -7.294389165318187E-2
 8.185203079150000E9    -5.168815819584240E-1   -1.651947046578842E-1    4.361907549668099E-4   -2.246004779376724E-3    4.362077391850405E-4   -2.345948048476047E-3   -4.566359782738527E-1   -6.821140767215353E-2
 8.185288562000000E9    -5.185833551470118E-1   -1.595775095117423E-1    4.398125758149591E-4   -2.276172686229783E-3    4.052054999509971E-4   -2.331075729778088E-3   -4.572727598152974E-1   -6.350658504010602E-2
 8.185374044850000E9    -5.203068776933846E-1   -1.539343604387636E-1    4.043450963411216E-4   -2.257289497506701E-3    3.619134190935946E-4   -2.374828945923016E-3   -4.577096627966623E-1   -5.869172245452949E-2
 8.185459527700000E9    -5.218789495071323E-1   -1.480669316715335E-1    3.995506459561867E-4   -2.264642192945591E-3    3.577686483449392E-4   -2.376405129382529E-3   -4.582344987061395E-1   -5.398860507587570E-2
 8.185545010550000E9    -5.233996095397353E-1   -1.423128999024808E-1    3.611295093385998E-4   -2.301318906296822E-3    3.152764656508015E-4   -2.387833476808729E-3   -4.588560214736830E-1   -4.931595712138656E-2
 8.185630493400000E9    -5.249140621662421E-1   -1.366203557050578E-1    3.386008854895408E-4   -2.259222017069092E-3    3.025622507514692E-4   -2.369106013947078E-3   -4.591327656951151E-1   -4.458022196520346E-2
 8.185715976250000E9    -5.265073637579785E-1   -1.307977222693562E-1    2.898581505138926E-4   -2.299813467390919E-3    2.684020854174138E-4   -2.370553592815432E-3   -4.594291109491518E-1   -3.983052372816702E-2
 8.185801459100000E9    -5.278806010075432E-1   -1.249322493656394E-1    2.835415092605423E-4   -2.301058972638321E-3    2.836951456745408E-4   -2.388862164120663E-3   -4.597413505549662E-1   -3.519388360935000E-2
 8.185886941950000E9    -5.290371414421126E-1   -1.192082357114893E-1    2.664831929712340E-4   -2.303781822403617E-3    2.236855273235003E-4   -2.377800248248472E-3   -4.601241549230338E-1   -3.054663693440745E-2
 8.185972424800000E9    -5.303474849491765E-1   -1.134332647008465E-1    2.597541496611018E-4   -2.307507003676036E-3    1.964180725721995E-4   -2.383605200811557E-3   -4.601917387347603E-1   -2.567120478401581E-2
 8.186057907650000E9    -5.314836187674408E-1   -1.075427884032590E-1    2.010958900738753E-4   -2.293121220181092E-3    1.681890395261562E-4   -2.414861186614237E-3   -4.602789198025511E-1   -2.075956147693616E-2
 8.186143390500000E9    -5.326908178922102E-1   -1.015803857771126E-1    1.943576682130717E-4   -2.305698125557538E-3    1.374036543487328E-4   -2.375941338439161E-3   -4.602959619219157E-1   -1.608175651221426E-2
