#  HZ   S   RI   R     50.00 
! Rohde & Schwarz Vector Network Analyzer 
! Rohde-Schwarz,ZNB20-2Port,1311601062101988,3.16
! Created: UTC 3/20/2024, 5:06:39 PM
! freq[Hz]                re:S11                  im:S11                  re:S21                  im:S21                  re:S12                  im:S12                  re:S22                  im:S22
 8.181468562000000E9    -3.836064152209374E-1   -3.851330550862321E-1    1.384496883097559E-3   -1.796761796458458E-3    1.396729848024802E-3   -1.874754614359973E-3   -3.846285245805788E-1   -2.619397441357127E-1
 8.181540362475000E9    -3.869450659149051E-1   -3.816245119045355E-1    1.351352654186820E-3   -1.785459057000700E-3    1.404204106285577E-3   -1.906038342703519E-3   -3.869291638406296E-1   -2.585584712943478E-1
 8.181612162950000E9    -3.904844655939683E-1   -3.778715883157681E-1    1.333831328700015E-3   -1.830470395796742E-3    1.340004412716299E-3   -1.876074249853345E-3   -3.891212867329444E-1   -2.551188971389041E-1
 8.181683963425000E9    -3.938534346246225E-1   -3.743726633746614E-1    1.313698505687552E-3   -1.821928881877141E-3    1.324048101062085E-3   -1.919225505904182E-3   -3.911881859981256E-1   -2.516249817064604E-1
 8.181755763900000E9    -3.972499712713663E-1   -3.708568013249554E-1    1.288330250611441E-3   -1.842168199214451E-3    1.339953471675932E-3   -1.904818279752308E-3   -3.933153718489938E-1   -2.481314265445712E-1
 8.181827564375000E9    -4.006900808636896E-1   -3.671187551513940E-1    1.294309468252326E-3   -1.863732228705908E-3    1.344788380634010E-3   -1.925152278827827E-3   -3.954313869303106E-1   -2.445823191103507E-1
 8.181899364850000E9    -4.041151474024312E-1   -3.633450824766318E-1    1.292047541952196E-3   -1.866245099572352E-3    1.296644485642244E-3   -1.964729307759961E-3   -3.973362218195565E-1   -2.412413359275660E-1
 8.181971165325000E9    -4.073451713516359E-1   -3.596316039270185E-1    1.299765292903926E-3   -1.873100817718977E-3    1.322425460491751E-3   -1.969250741147424E-3   -3.994069278841820E-1   -2.377669503652004E-1
 8.182042965800000E9    -4.104956086060547E-1   -3.559248343817274E-1    1.233445247078975E-3   -1.883539020695215E-3    1.289748354425343E-3   -1.962269017309401E-3   -4.013093710056418E-1   -2.343073353751508E-1
 8.182114766275000E9    -4.137902280667703E-1   -3.520134924616201E-1    1.237261371787494E-3   -1.918882465104185E-3    1.283172890350645E-3   -1.991027988241537E-3   -4.033985398096323E-1   -2.307819311000424E-1
 8.182186566750000E9    -4.170564169422073E-1   -3.482921690645139E-1    1.193247191713507E-3   -1.903338896196507E-3    1.228798022851642E-3   -1.969625578198255E-3   -4.053687231331638E-1   -2.273813500778282E-1
 8.182258367225000E9    -4.202956762719996E-1   -3.444750769063448E-1    1.213304479730176E-3   -1.904832662015125E-3    1.206131315216259E-3   -1.982707056945147E-3   -4.072076024766051E-1   -2.238508695305019E-1
 8.182330167700000E9    -4.232826795251503E-1   -3.405577094416181E-1    1.169024308178437E-3   -1.930914546189305E-3    1.217447504356994E-3   -2.029691396552251E-3   -4.089506239310019E-1   -2.203796751260174E-1
 8.182401968175000E9    -4.264453149995420E-1   -3.366119659313769E-1    1.165590458051340E-3   -1.931225244464540E-3    1.177069760252256E-3   -2.037037831072906E-3   -4.108207488892409E-1   -2.167801254201820E-1
 8.182473768650000E9    -4.294949592623091E-1   -3.327183242000350E-1    1.125595827191259E-3   -1.960087739944694E-3    1.185149500491988E-3   -2.042801212512053E-3   -4.126495902166728E-1   -2.130763860055160E-1
 8.182545569125000E9    -4.324726338171342E-1   -3.287930752881876E-1    1.107612439785256E-3   -1.956104169200449E-3    1.145322267566570E-3   -2.038981775746745E-3   -4.145112055357137E-1   -2.095289836289164E-1
 8.182617369600000E9    -4.355665496022187E-1   -3.247698176405118E-1    1.107664459095911E-3   -1.986871919048152E-3    1.109850744511957E-3   -2.068882531386281E-3   -4.161837749992185E-1   -2.059477500012309E-1
 8.182689170075000E9    -4.384539411518388E-1   -3.205495334221686E-1    1.107567645325058E-3   -1.988625367658685E-3    1.109846112183223E-3   -2.060713530101294E-3   -4.179061024385917E-1   -2.022603742572410E-1
 8.182760970550000E9    -4.414057569707480E-1   -3.166561129837255E-1    1.074083872496659E-3   -1.999682708424319E-3    1.092568496539799E-3   -2.068417195248765E-3   -4.195116120537469E-1   -1.985575478175551E-1
 8.182832771025000E9    -4.441876717682549E-1   -3.125443067391551E-1    1.083672331317435E-3   -1.993158667352840E-3    1.081618062372321E-3   -2.108019583753415E-3   -4.211015793477964E-1   -1.949735651041301E-1
 8.182904571500000E9    -4.470236585702648E-1   -3.085196245555334E-1    1.040840129752993E-3   -2.013927168131812E-3    1.035675808648941E-3   -2.108344318739935E-3   -4.226805238021764E-1   -1.913258834236721E-1
 8.182976371975000E9    -4.499365395361384E-1   -3.043747828012165E-1    1.029159645669758E-3   -2.048312170655890E-3    1.021043399781355E-3   -2.123843545423754E-3   -4.243021806618162E-1   -1.876140796973444E-1
 8.183048172450000E9    -4.526961323800947E-1   -3.001919994188214E-1    1.032889234573052E-3   -2.040258618139962E-3    9.938682319416113E-4   -2.109542044655133E-3   -4.257669381562548E-1   -1.837957355344520E-1
 8.183119972925000E9    -4.553182462295340E-1   -2.959785028763583E-1    9.851631590331951E-4   -2.048277684336932E-3    1.014222869380324E-3   -2.158412813372426E-3   -4.274153293909480E-1   -1.802806327821137E-1
 8.183191773400000E9    -4.581947898056413E-1   -2.918651558111471E-1    9.713709398403081E-4   -2.071161419295545E-3    1.010675965374326E-3   -2.127016734367115E-3   -4.286968311729555E-1   -1.766223714825797E-1
 8.183263573875000E9    -4.607263536701788E-1   -2.876374383408604E-1    9.426427907758986E-4   -2.053420268746772E-3    9.820315030678430E-4   -2.149870789481025E-3   -4.301545115410388E-1   -1.728659563706339E-1
 8.183335374350000E9    -4.633019620236663E-1   -2.832649209253986E-1    9.532994211322853E-4   -2.069230474096640E-3    9.550496622772448E-4   -2.171207954610403E-3   -4.317057770357688E-1   -1.689629688331528E-1
 8.183407174825000E9    -4.658872066886242E-1   -2.791049330424589E-1    9.263440947409342E-4   -2.097785412405073E-3    9.488426499253954E-4   -2.171954250145804E-3   -4.331067402578626E-1   -1.651755551070094E-1
 8.183478975300000E9    -4.684307932272224E-1   -2.746776402272841E-1    9.026757459268546E-4   -2.080584154440150E-3    9.064164313653022E-4   -2.171992260941088E-3   -4.344504362088570E-1   -1.614046894803906E-1
 8.183550775775000E9    -4.709345714774559E-1   -2.703800801556636E-1    8.913342244092235E-4   -2.104889412648130E-3    8.800454103470370E-4   -2.181847318494120E-3   -4.356458456795865E-1   -1.575806703593091E-1
 8.183622576250000E9    -4.732272606700749E-1   -2.661658073328608E-1    8.558296059321645E-4   -2.106984991964162E-3    8.981183113004724E-4   -2.184911505980026E-3   -4.369722059168359E-1   -1.541119613654091E-1
 8.183694376725000E9    -4.757804526696200E-1   -2.617231274316347E-1    8.574524676351621E-4   -2.108132972565400E-3    8.391701697487419E-4   -2.205378512818065E-3   -4.382361705455886E-1   -1.501210952617469E-1
 8.183766177200000E9    -4.781770770747705E-1   -2.572308658025869E-1    8.716960011324405E-4   -2.134856452634290E-3    8.090910374993666E-4   -2.237791393499292E-3   -4.395004026834862E-1   -1.462356299919220E-1
 8.183837977675000E9    -4.804266022823275E-1   -2.529970001383586E-1    8.045522474369185E-4   -2.148403949781219E-3    8.230777210017611E-4   -2.232446330236637E-3   -4.406589341554243E-1   -1.424251216615287E-1
 8.183909778150000E9    -4.827553187360770E-1   -2.485153192496952E-1    7.889177199523578E-4   -2.128076657564487E-3    8.243452183433224E-4   -2.229186206797417E-3   -4.416976919528454E-1   -1.385666601215654E-1
 8.183981578625000E9    -4.850594373698626E-1   -2.439830687982557E-1    7.886989652291285E-4   -2.163039390410453E-3    7.750858970567048E-4   -2.252280573136651E-3   -4.427859423098044E-1   -1.348362046611348E-1
 8.184053379100000E9    -4.871885499316604E-1   -2.394674895097491E-1    7.535868529845694E-4   -2.124847549683860E-3    7.720317750184210E-4   -2.232721799492905E-3   -4.439754845786870E-1   -1.308068389166943E-1
 8.184125179575000E9    -4.893409310540886E-1   -2.348994759487481E-1    7.285474336099257E-4   -2.179103819268022E-3    7.378433044145522E-4   -2.265349331447803E-3   -4.449667348802130E-1   -1.270948129976283E-1
 8.184196980050000E9    -4.915364729573671E-1   -2.304661650792711E-1    7.286377461419862E-4   -2.146974674466543E-3    7.216721095683155E-4   -2.262590361429578E-3   -4.460479096685530E-1   -1.232144178153265E-1
 8.184268780525000E9    -4.935665849670163E-1   -2.258967478537351E-1    7.336992897935866E-4   -2.157456940052805E-3    6.995884597231583E-4   -2.276525769308731E-3   -4.468727465497176E-1   -1.191958024966503E-1
 8.184340581000000E9    -4.955343701283276E-1   -2.213903134367890E-1    6.927633860268422E-4   -2.174231609860390E-3    6.789007804226913E-4   -2.307482512658173E-3   -4.479472945549349E-1   -1.154137256420635E-1
 8.184412381475000E9    -4.976203058784994E-1   -2.167479486285167E-1    6.811248871591495E-4   -2.173191767975313E-3    6.520468617363264E-4   -2.291077710318108E-3   -4.489255691828525E-1   -1.114768026855080E-1
 8.184484181950000E9    -4.995662009449037E-1   -2.121471374124786E-1    6.772812712776115E-4   -2.189343156919207E-3    6.671465415265026E-4   -2.301728398216624E-3   -4.497196408768317E-1   -1.075749627356789E-1
 8.184555982425000E9    -5.015189015742465E-1   -2.074369090595350E-1    6.300493661806173E-4   -2.209206955825826E-3    6.273722132814011E-4   -2.284599045553868E-3   -4.506339069094143E-1   -1.037233603445163E-1
 8.184627782900000E9    -5.033494576304189E-1   -2.028542143284003E-1    5.883334293305765E-4   -2.237223383032217E-3    6.181439397012836E-4   -2.302952479542082E-3   -4.512985978653645E-1   -9.989713918289805E-2
 8.184699583375000E9    -5.052013567942244E-1   -1.982110093289650E-1    5.995533594832767E-4   -2.211311914712705E-3    5.663003476236830E-4   -2.337416159819037E-3   -4.522105182008769E-1   -9.587796015540317E-2
 8.184771383850000E9    -5.070759204651308E-1   -1.935603538132269E-1    5.652777721679559E-4   -2.233736833502640E-3    5.397127461738239E-4   -2.340445428181513E-3   -4.529539415446528E-1   -9.190026098173111E-2
 8.184843184325000E9    -5.087013602805737E-1   -1.889545180108451E-1    5.284340581577713E-4   -2.240827119148958E-3    5.347060534653440E-4   -2.350993495525163E-3   -4.536526708395440E-1   -8.797278769097429E-2
 8.184914984800000E9    -5.104123583176873E-1   -1.842212311189144E-1    5.053843907719929E-4   -2.227879396286737E-3    4.930683772212643E-4   -2.314787398425692E-3   -4.542813383945040E-1   -8.388168671868274E-2
 8.184986785275000E9    -5.121223004687198E-1   -1.795461204434955E-1    5.012719307405318E-4   -2.208140233181694E-3    5.030670554327068E-4   -2.304105661073634E-3   -4.549471779490166E-1   -8.010305941389347E-2
 8.185058585750000E9    -5.137316219153241E-1   -1.748033399520091E-1    5.036491684246711E-4   -2.255950937523983E-3    4.508521766915289E-4   -2.353854424618546E-3   -4.555240332943970E-1   -7.616370576727424E-2
 8.185130386225000E9    -5.152244843730729E-1   -1.699082796162141E-1    4.867967479598726E-4   -2.244137947904229E-3    4.684075620067733E-4   -2.338962015099498E-3   -4.562005683185518E-1   -7.223462006208232E-2
 8.185202186700000E9    -5.167744774613892E-1   -1.652175752465633E-1    4.474277847271195E-4   -2.237674953242657E-3    4.335166064076480E-4   -2.327976400161176E-3   -4.566151437856328E-1   -6.826248352466330E-2
 8.185273987175000E9    -5.182112903383174E-1   -1.604328431816459E-1    4.463486167176254E-4   -2.254811339639731E-3    4.040301910200042E-4   -2.348679430115554E-3   -4.570650682201908E-1   -6.437244298485334E-2
 8.185345787650000E9    -5.197362158973672E-1   -1.556053924855809E-1    4.242848415901531E-4   -2.250255965394357E-3    3.926637268067972E-4   -2.355459685833919E-3   -4.574511840548692E-1   -6.028589348359990E-2
 8.185417588125000E9    -5.210499570612463E-1   -1.509540840183371E-1    3.933646218965342E-4   -2.276273093576248E-3    3.800241636103375E-4   -2.384247844420979E-3   -4.580541644589430E-1   -5.635161568410401E-2
 8.185489388600000E9    -5.223920888982054E-1   -1.459783776503467E-1    3.917746600847877E-4   -2.256233398481342E-3    3.740075758291296E-4   -2.360901828868501E-3   -4.584943121814889E-1   -5.230869248381133E-2
 8.185561189075000E9    -5.237592908471546E-1   -1.412565476611569E-1    3.550802685805685E-4   -2.300741060590791E-3    3.222353081413701E-4   -2.369589853926503E-3   -4.587566391647542E-1   -4.824780450075114E-2
 8.185632989550000E9    -5.250969227158306E-1   -1.364117248171721E-1    3.413440535949509E-4   -2.288362268112251E-3    2.885533074865030E-4   -2.358356687851216E-3   -4.589580572330386E-1   -4.434547354048034E-2
 8.185704790025000E9    -5.261268181054816E-1   -1.314328865554269E-1    3.377195599948298E-4   -2.267181982854216E-3    2.765781678156713E-4   -2.397212073358605E-3   -4.594587411275273E-1   -4.049516863048075E-2
 8.185776590500000E9    -5.274013132125942E-1   -1.267353665412057E-1    2.943533507306368E-4   -2.286779742897906E-3    2.513744179835418E-4   -2.390082469424292E-3   -4.597137497458779E-1   -3.623390026497852E-2
 8.185848390975000E9    -5.284731352559714E-1   -1.216956267299805E-1    2.575126108711941E-4   -2.308046028451579E-3    2.295879201450044E-4   -2.354334314112588E-3   -4.598103135930808E-1   -3.233994767569937E-2
 8.185920191450000E9    -5.295959203710251E-1   -1.168444354876357E-1    2.549512299159215E-4   -2.292766020666749E-3    2.108979109850480E-4   -2.387649516376266E-3   -4.599708495948832E-1   -2.847149832808899E-2
 8.185991991925000E9    -5.305378960679322E-1   -1.119259086901273E-1    2.435353198283028E-4   -2.307595537352702E-3    1.911922587006938E-4   -2.384318533465803E-3   -4.603381730025297E-1   -2.450577115370211E-2
 8.186063792400000E9    -5.315968533506055E-1   -1.070729117650741E-1    2.107373799568960E-4   -2.303478282137538E-3    1.992565123121587E-4   -2.399213462655649E-3   -4.602611191476478E-1   -2.037692368926558E-2
 8.186135592875000E9    -5.325893369106947E-1   -1.021818774527996E-1    2.177714634389818E-4   -2.289339458326997E-3    1.743830256372806E-4   -2.413721231591236E-3   -4.604177366432309E-1   -1.641083917619431E-2
 8.186207393350000E9    -5.335087140808368E-1   -9.711590514956729E-2    1.653784407681061E-4   -2.338169394325957E-3    1.351273878756746E-4   -2.385889340858185E-3   -4.605865794248197E-1   -1.238194354490832E-2
 8.186279193825000E9    -5.342456683318516E-1   -9.225578306040803E-2    1.767532596392048E-4   -2.297611999278746E-3    1.318422973075173E-4   -2.418298906186014E-3   -4.605270545673257E-1   -8.514001893035542E-3
 8.186350994300000E9    -5.350393256923185E-1   -8.731405753670624E-2    1.161648621378044E-4   -2.340337760654321E-3    1.088191340072384E-4   -2.417389676499418E-3   -4.604782381088238E-1   -4.588786480195634E-3
 8.186422794775000E9    -5.359320169435403E-1   -8.235324749426523E-2    1.178963247921774E-4   -2.359550379807133E-3    6.629786198963799E-5   -2.386428761028625E-3   -4.604066046313142E-1   -5.377590646927393E-4
 8.186494595250000E9    -5.366019309686140E-1   -7.739713256165803E-2    8.573838286587244E-5   -2.327131133170697E-3    3.905184309080445E-5   -2.399662179350033E-3   -4.604773569539512E-1    3.581637380311883E-3
 8.186566395725000E9    -5.373390970089443E-1   -7.239637109120210E-2    6.373653155643335E-5   -2.335396245125151E-3    2.063107698535624E-5   -2.437608896923572E-3   -4.602310528779853E-1    7.446185236401842E-3
 8.186638196200000E9    -5.378582745984459E-1   -6.752681277430282E-2    6.230167429276117E-5   -2.327642120569759E-3    1.402068317996552E-5   -2.419876388632029E-3   -4.601112298561281E-1    1.151106507303472E-2
 8.186709996675000E9    -5.385646663776811E-1   -6.249567959190760E-2    2.125136057789959E-5   -2.324371624183653E-3   -1.842733609931167E-5   -2.401515895538833E-3   -4.598968514848442E-1    1.541502752368013E-2
 8.186781797150000E9    -5.389915801969215E-1   -5.744695313621984E-2   -3.302966042790976E-6   -2.315251933225827E-3   -4.489236048946946E-5   -2.450176391732440E-3   -4.596403633357597E-1    1.963411539015622E-2
 8.186853597625000E9    -5.394592358225488E-1   -5.249791323314983E-2    2.610838458588622E-7   -2.335155665662987E-3   -7.723298820561395E-5   -2.411975405895874E-3   -4.593768074855373E-1    2.335656935352797E-2
 8.186925398100000E9    -5.399420860583563E-1   -4.759998821091169E-2   -5.579000488031008E-5   -2.330467770187696E-3   -8.339133986966182E-5   -2.423977988788130E-3   -4.590566608024881E-1    2.736650565621641E-2
 8.186997198575000E9    -5.404122845971865E-1   -4.259226288679727E-2   -6.757770269089898E-5   -2.348273833308281E-3   -8.970374273240397E-5   -2.412766464460834E-3   -4.588418038524818E-1    3.146729679861845E-2
 8.187068999050000E9    -5.407031417959750E-1   -3.755272642031667E-2   -6.687179850882473E-5   -2.327396272993582E-3   -1.274091685193610E-4   -2.450493091805706E-3   -4.584226001280621E-1    3.542079048950388E-2
 8.187140799525000E9    -5.409505142739904E-1   -3.244168618598235E-2   -1.001675175878760E-4   -2.317206620122385E-3   -1.136896030404414E-4   -2.445840368604519E-3   -4.578127126851813E-1    3.942766441920648E-2
 8.187212600000000E9    -5.413008737971836E-1   -2.752994116319584E-2   -1.178204372109352E-4   -2.345430512566804E-3   -1.875935265931947E-4   -2.408217243128126E-3   -4.576421744348323E-1    4.320939584245487E-2
 8.187284400475000E9    -5.413244736783361E-1   -2.250286720946913E-2   -1.392417731731946E-4   -2.355206411844500E-3   -1.865298180667243E-4   -2.387664554409554E-3   -4.571630823789135E-1    4.719579500606115E-2
 8.187356200950000E9    -5.415609621507080E-1   -1.745608259491660E-2   -1.691154745584844E-4   -2.339882098136938E-3   -1.945090692641116E-4   -2.427952646043110E-3   -4.566231032975275E-1    5.128831367021252E-2
 8.187428001425000E9    -5.416069024749606E-1   -1.251317765887593E-2   -1.595746915424111E-4   -2.339618599761908E-3   -2.184309357430750E-4   -2.423670747584549E-3   -4.561290704105346E-1    5.526019094355359E-2
 8.187499801900000E9    -5.416596781756382E-1   -7.431435586544949E-3   -1.850045926648459E-4   -2.329151853617365E-3   -2.595994186130854E-4   -2.398553915928116E-3   -4.557405599589697E-1    5.925147485618511E-2
 8.187571602375000E9    -5.418586650810020E-1   -2.470190948721410E-3   -2.201803152723355E-4   -2.339409552091919E-3   -2.856639534819607E-4   -2.378588706081389E-3   -4.549189434213505E-1    6.316007786694333E-2
 8.187643402850000E9    -5.417648590865483E-1    2.440532816861857E-3   -2.161112912664063E-4   -2.315765193454822E-3   -2.665517749366725E-4   -2.404873701309111E-3   -4.542620200036983E-1    6.701607058470926E-2
 8.187715203325000E9    -5.416971199033436E-1    7.514480609136931E-3   -2.411244039053711E-4   -2.342913849431074E-3   -3.430417600165547E-4   -2.407110946266150E-3   -4.535667601130173E-1    7.080040554142154E-2
 8.187787003800000E9    -5.414755508119310E-1    1.261323017923273E-2   -2.843856931203002E-4   -2.333180333440238E-3   -3.567486217718887E-4   -2.425755071409207E-3   -4.528787452532275E-1    7.491715617587863E-2
 8.187858804275000E9    -5.413763121732298E-1    1.760864174574416E-2   -2.766100959587242E-4   -2.315727325958318E-3   -3.563623422370886E-4   -2.429148858414772E-3   -4.520782554095518E-1    7.875348060462981E-2
 8.187930604750000E9    -5.411813501702267E-1    2.259885356529577E-2   -3.378422808144745E-4   -2.343331247304594E-3   -3.879382238650296E-4   -2.408249054247991E-3   -4.513812707299005E-1    8.271238131836610E-2
