#  HZ   S   RI   R     50.00 
! Rohde & Schwarz Vector Network Analyzer 
! Rohde-Schwarz,ZNB20-2Port,1311601062101988,3.16
! Created: UTC 3/20/2024, 5:06:54 PM
! freq[Hz]                re:S11                  im:S11                  re:S21                  im:S21                  re:S12                  im:S12                  re:S22                  im:S22
 8.182804658000000E9    -4.430571839025766E-1   -3.143798785958448E-1    1.042597505871580E-3   -1.998432592410386E-3    1.088826565475519E-3   -2.083180818029951E-3   -4.204725736383732E-1   -1.964914429932624E-1
 8.182870399350000E9    -4.455495086400009E-1   -3.104774314701614E-1    1.048643328677203E-3   -1.989383088224878E-3    1.094833837014567E-3   -2.112947609515417E-3   -4.218188474263379E-1   -1.931337908867925E-1
 8.182936140700000E9    -4.481529556432560E-1   -3.066873935782420E-1    1.053108585146548E-3   -2.023287989214687E-3    1.060221427494022E-3   -2.123091970392869E-3   -4.233499399401804E-1   -1.897211549982572E-1
 8.183001882050000E9    -4.507272614626436E-1   -3.029532982980554E-1    1.023012043817221E-3   -2.047518239043601E-3    1.041158638563467E-3   -2.085015497858915E-3   -4.245639158574339E-1   -1.862330010584826E-1
 8.183067623400000E9    -4.533727620451179E-1   -2.990481182994836E-1    1.007755588073224E-3   -2.053604878679930E-3    9.852438227639041E-4   -2.154403240349656E-3   -4.261030179507211E-1   -1.828315749864027E-1
 8.183133364750000E9    -4.557481844207841E-1   -2.953150934191383E-1    1.003743632287741E-3   -2.059441335942110E-3    1.008306906468829E-3   -2.129951573669545E-3   -4.275890926152855E-1   -1.796018004110807E-1
 8.183199106100000E9    -4.581825682393938E-1   -2.914743794916079E-1    9.467570852205843E-4   -2.051913998843478E-3    9.875527774155294E-4   -2.140950728504113E-3   -4.288637876887209E-1   -1.762392460574745E-1
 8.183264847450000E9    -4.606494529547818E-1   -2.875353938436983E-1    9.703402223977716E-4   -2.058344643990393E-3    9.544866542265872E-4   -2.139118176565661E-3   -4.301902777975413E-1   -1.726531503470231E-1
 8.183330588800000E9    -4.630271412625526E-1   -2.836387830508606E-1    9.418701734977462E-4   -2.078666977291609E-3    9.477533238439911E-4   -2.160743063056798E-3   -4.315058141884369E-1   -1.693344874188710E-1
 8.183396330150000E9    -4.655402367389339E-1   -2.797733547180224E-1    9.354471934330074E-4   -2.085430699730534E-3    9.160562713093822E-4   -2.157351170633749E-3   -4.328471914641968E-1   -1.657846549466318E-1
 8.183462071500000E9    -4.677053970180841E-1   -2.758727750812019E-1    9.147184746486906E-4   -2.114101895010875E-3    8.988316968622098E-4   -2.172125927517587E-3   -4.338932704591187E-1   -1.624108481695828E-1
 8.183527812850000E9    -4.701188674182404E-1   -2.718883361483813E-1    8.789118172126157E-4   -2.093995432483753E-3    8.746014254349917E-4   -2.184305815429636E-3   -4.352378551703624E-1   -1.588440420077268E-1
 8.183593554200000E9    -4.723853954743361E-1   -2.678671640715171E-1    8.862280759708591E-4   -2.089553762459259E-3    8.800185344576271E-4   -2.193818422098467E-3   -4.364612274244744E-1   -1.554122641426063E-1
 8.183659295550000E9    -4.745940563804105E-1   -2.639127722404744E-1    8.624810564398524E-4   -2.109660482466272E-3    8.590434836457730E-4   -2.187836092496465E-3   -4.374745859483654E-1   -1.519201282194750E-1
 8.183725036900000E9    -4.767602795135305E-1   -2.598024240736711E-1    8.297180445699455E-4   -2.105452700967776E-3    8.021348898687752E-4   -2.213078171636611E-3   -4.387727385734056E-1   -1.483773702820827E-1
 8.183790778250000E9    -4.789986838494398E-1   -2.558224038313855E-1    8.315186469771698E-4   -2.124992738629304E-3    8.220960628197108E-4   -2.192829892448318E-3   -4.397636141249074E-1   -1.449207282324570E-1
 8.183856519600000E9    -4.809918293966672E-1   -2.518199199910279E-1    8.153836853170164E-4   -2.121416387944703E-3    8.031797769306141E-4   -2.216536017740027E-3   -4.408923582380514E-1   -1.415135576388886E-1
 8.183922260950000E9    -4.830145962488951E-1   -2.477210282749172E-1    7.836655982442675E-4   -2.131817266973231E-3    7.780283504061137E-4   -2.225310464407573E-3   -4.417736144408387E-1   -1.378260148347492E-1
 8.183988002300000E9    -4.852689408778285E-1   -2.436562693015868E-1    7.901077979911331E-4   -2.117994239009618E-3    7.261564367684536E-4   -2.245085230450946E-3   -4.430905393095831E-1   -1.343228132097789E-1
 8.184053743650000E9    -4.871092033266035E-1   -2.395273792013586E-1    7.603119197769234E-4   -2.137600377480164E-3    7.502850966754738E-4   -2.251650030046452E-3   -4.439094282690290E-1   -1.309849702864840E-1
 8.184119485000000E9    -4.892242941549780E-1   -2.354228386998036E-1    7.484460886992650E-4   -2.183182350791472E-3    7.467219254670186E-4   -2.264285303480692E-3   -4.449068462253835E-1   -1.273879165645398E-1
 8.184185226350000E9    -4.910248590817193E-1   -2.313333292833716E-1    7.215281558629830E-4   -2.154459679033580E-3    6.761417422664806E-4   -2.276059055724682E-3   -4.457692110947418E-1   -1.237918421212900E-1
 8.184250967700000E9    -4.930906968092406E-1   -2.270454469067870E-1    7.108015140471465E-4   -2.194694813300740E-3    6.719383702746703E-4   -2.265026753614971E-3   -4.468621428006082E-1   -1.204303886951880E-1
 8.184316709050000E9    -4.949285007672951E-1   -2.227814831278437E-1    7.185799153967315E-4   -2.181882895014059E-3    6.832444737053136E-4   -2.250959858489914E-3   -4.475420079955829E-1   -1.166544900601943E-1
 8.184382450400000E9    -4.968092415881824E-1   -2.187729580832185E-1    6.899029012945647E-4   -2.193048883357193E-3    6.372585062618521E-4   -2.267640391956502E-3   -4.484029154637932E-1   -1.130391056958298E-1
 8.184448191750000E9    -4.986418722133571E-1   -2.146816172274827E-1    6.718489762026092E-4   -2.180312919830485E-3    6.332149742718657E-4   -2.298759716491521E-3   -4.491935766878598E-1   -1.097089144650658E-1
 8.184513933100000E9    -5.003704665440262E-1   -2.102771169234790E-1    6.377087082428168E-4   -2.235751819150649E-3    6.146311690226802E-4   -2.303728170903485E-3   -4.499278474499379E-1   -1.059812960899821E-1
 8.184579674450000E9    -5.020370273163166E-1   -2.061439759793068E-1    6.481621563707834E-4   -2.186269360302996E-3    6.150221205839364E-4   -2.298826912196725E-3   -4.507259851942320E-1   -1.023226834597550E-1
 8.184645415800000E9    -5.038426903883028E-1   -2.018665486374756E-1    6.172094451607573E-4   -2.201436220010194E-3    5.796611458427184E-4   -2.291193651070285E-3   -4.516320281118995E-1   -9.881245945577327E-2
 8.184711157150000E9    -5.055155402375410E-1   -1.975764132876854E-1    5.666796666278909E-4   -2.213509900972578E-3    5.670563064366528E-4   -2.318114586520538E-3   -4.521474361037881E-1   -9.534234312886106E-2
 8.184776898500000E9    -5.071613452353948E-1   -1.932939279203969E-1    5.491499301462837E-4   -2.248711844468507E-3    5.770689646531592E-4   -2.297449479214563E-3   -4.527145166001347E-1   -9.171457420806643E-2
 8.184842639850000E9    -5.087240696390303E-1   -1.890135296743683E-1    5.477569749879887E-4   -2.232559369003677E-3    5.489981080580283E-4   -2.297040237248931E-3   -4.534225001699532E-1   -8.784695438806833E-2
 8.184908381200000E9    -5.102534052235976E-1   -1.846782188860306E-1    5.322721819660505E-4   -2.242735857264479E-3    5.169308849431242E-4   -2.305901661216880E-3   -4.542626193800453E-1   -8.444868256799387E-2
 8.184974122550000E9    -5.117326369347914E-1   -1.803709068433138E-1    5.010389614877408E-4   -2.224478334713269E-3    4.649731026556014E-4   -2.307691077063353E-3   -4.546082764264068E-1   -8.076329473395211E-2
 8.185039863900000E9    -5.132277844738536E-1   -1.759684304844545E-1    5.164873941297666E-4   -2.238980870866809E-3    4.941889791735965E-4   -2.318243861004898E-3   -4.552785661274879E-1   -7.721478930969365E-2
 8.185105605250000E9    -5.146297389626890E-1   -1.718140901560451E-1    4.722757822589346E-4   -2.260283943631518E-3    4.712470528688761E-4   -2.348480735597949E-3   -4.558666505779497E-1   -7.352110920090862E-2
 8.185171346600000E9    -5.161556946563701E-1   -1.673937323168105E-1    4.822512299520090E-4   -2.228129816974507E-3    4.209815592942276E-4   -2.366278813387811E-3   -4.562668068590038E-1   -7.002065470060478E-2
 8.185237087950000E9    -5.175031115400859E-1   -1.629729014012867E-1    4.352306640612549E-4   -2.269826214161815E-3    4.257097988489146E-4   -2.346819105430303E-3   -4.568456935128676E-1   -6.634448860561035E-2
 8.185302829300000E9    -5.188840822277444E-1   -1.585715990678479E-1    4.324833456579678E-4   -2.257227623832977E-3    3.936578180984142E-4   -2.356100892173031E-3   -4.573879419036080E-1   -6.269970373231140E-2
 8.185368570650000E9    -5.202038576249585E-1   -1.542678744332600E-1    4.073335852325556E-4   -2.311101969766751E-3    3.791882795290512E-4   -2.353230907103316E-3   -4.576518214571500E-1   -5.888516593240652E-2
 8.185434312000000E9    -5.214350481677824E-1   -1.498630313234001E-1    3.872567355458322E-4   -2.258933883642433E-3    3.551740476572146E-4   -2.330076483476473E-3   -4.580095046811880E-1   -5.553908598886587E-2
 8.185500053350000E9    -5.226670173645735E-1   -1.452729755491382E-1    4.022279927777452E-4   -2.268614354720736E-3    3.442171085042642E-4   -2.354867804432432E-3   -4.583649842323638E-1   -5.179433792154867E-2
 8.185565794700000E9    -5.238420667362930E-1   -1.409251895856622E-1    3.632591796558845E-4   -2.297158724716427E-3    3.145106008815000E-4   -2.359407235051322E-3   -4.588449625593845E-1   -4.820499595194015E-2
 8.185631536050000E9    -5.249601636022677E-1   -1.365434788238579E-1    3.551420767979958E-4   -2.291046283590572E-3    2.927356954147252E-4   -2.381527916940901E-3   -4.591103886388234E-1   -4.440673706342594E-2
 8.185697277400000E9    -5.261882287864910E-1   -1.320233504906806E-1    3.342550139192565E-4   -2.256474172987305E-3    2.877815594028262E-4   -2.378179352111036E-3   -4.592047187009687E-1   -4.083266305525155E-2
 8.185763018750000E9    -5.272173757749382E-1   -1.275527207150031E-1    3.102247290647282E-4   -2.294545273823661E-3    2.737345641947590E-4   -2.390787337238339E-3   -4.596958237843927E-1   -3.715691987199333E-2
 8.185828760100000E9    -5.282548925619051E-1   -1.231579620414993E-1    2.792494344999408E-4   -2.303975037109389E-3    2.532417562917699E-4   -2.379175961378152E-3   -4.596901545682976E-1   -3.353177086431889E-2
 8.185894501450000E9    -5.293036366784682E-1   -1.186887488021209E-1    2.744401641198907E-4   -2.296158248728309E-3    2.294533060799187E-4   -2.358788789714338E-3   -4.599212404867571E-1   -2.986303476447113E-2
 8.185960242800000E9    -5.302340651923876E-1   -1.141891410475181E-1    2.385797189956979E-4   -2.291006256670967E-3    2.154438116926429E-4   -2.410498728263706E-3   -4.601340049924223E-1   -2.626082692441406E-2
 8.186025984150000E9    -5.311170140670104E-1   -1.097709954083306E-1    2.338728807735821E-4   -2.306940976959913E-3    1.750421182396889E-4   -2.375227734736054E-3   -4.601785715828598E-1   -2.241917789365885E-2
 8.186091725500000E9    -5.320222243802621E-1   -1.052510797543884E-1    1.918056805543525E-4   -2.304794378510406E-3    1.841711145549395E-4   -2.412093663754938E-3   -4.604414346098971E-1   -1.895613486520534E-2
 8.186157466850000E9    -5.327954276382951E-1   -1.007265631674786E-1    1.990788467228483E-4   -2.302715399569753E-3    1.769020565768966E-4   -2.362529128325825E-3   -4.602662711246472E-1   -1.528251350404519E-2
 8.186223208200000E9    -5.336525355055447E-1   -9.623964066421135E-2    1.573611403616079E-4   -2.321952055257900E-3    1.174573210409348E-4   -2.402930348602124E-3   -4.603821486424603E-1   -1.164087874573904E-2
 8.186288949550000E9    -5.344877819542370E-1   -9.173134247829448E-2    1.596142694498606E-4   -2.327347208992263E-3    1.157669763205663E-4   -2.421311426699597E-3   -4.604630799931147E-1   -7.989157540943700E-3
 8.186354690900000E9    -5.351954172442714E-1   -8.718927302996300E-2    1.410193007814331E-4   -2.325313820835364E-3    1.285467268174919E-4   -2.422417764330687E-3   -4.604660723639446E-1   -4.399504395432316E-3
 8.186420432250000E9    -5.358944408090690E-1   -8.253760955274442E-2    1.097009479024747E-4   -2.317134242382812E-3    6.957425743520936E-5   -2.426181393136197E-3   -4.601882685801331E-1   -6.390887154355200E-4
 8.186486173600000E9    -5.364573820226158E-1   -7.803846404891146E-2    9.687404455829798E-5   -2.298372102811934E-3    5.273852814969451E-5   -2.408406909269893E-3   -4.603746191333686E-1    3.026465951938501E-3
 8.186551914950000E9    -5.371242181859447E-1   -7.350794022052168E-2    8.070258658973421E-5   -2.326071171481243E-3    3.304228638084580E-5   -2.392240707933927E-3   -4.602075255240963E-1    6.670714048161095E-3
 8.186617656300000E9    -5.377187880405293E-1   -6.899480338267192E-2    4.766163530349960E-5   -2.321341312352398E-3    7.468585438975430E-6   -2.391230712201862E-3   -4.601156075582618E-1    1.041479647529651E-2
 8.186683397650000E9    -5.381910092719258E-1   -6.444978841253796E-2    3.750307934944346E-5   -2.346393214687552E-3    9.343153857407702E-6   -2.406470672091402E-3   -4.600498988410994E-1    1.399920951980860E-2
 8.186749139000000E9    -5.387636617446206E-1   -5.978977234162293E-2    1.019507142156752E-5   -2.330321562390418E-3   -4.478193704633870E-5   -2.413449441459760E-3   -4.596975343445153E-1    1.744663536254171E-2
 8.186814880350000E9    -5.393485758482947E-1   -5.524143618027201E-2   -9.028236127167568E-6   -2.362999158905608E-3   -4.037326943326947E-5   -2.414836963480917E-3   -4.596350913954956E-1    2.108566386990142E-2
 8.186880621700000E9    -5.397567669925618E-1   -5.074571932669713E-2   -9.504154333625631E-6   -2.342671013986141E-3   -7.220778709520803E-5   -2.403532505829101E-3   -4.591807398502137E-1    2.491858144067268E-2
 8.186946363050000E9    -5.399414427858281E-1   -4.600183283163734E-2   -3.800398014727319E-5   -2.339361199643820E-3   -6.667646670374958E-5   -2.433675377076147E-3   -4.589909485250893E-1    2.859815727106599E-2
 8.187012104400000E9    -5.404041555308897E-1   -4.161844520471297E-2   -4.907329382393353E-5   -2.303770828951872E-3   -1.024906855050582E-4   -2.406684220044629E-3   -4.587321942219312E-1    3.222230477316070E-2
 8.187077845750000E9    -5.406736971033527E-1   -3.700299334645572E-2   -1.020023819669409E-4   -2.327639929055994E-3   -1.029484113649078E-4   -2.420681925006103E-3   -4.583193691965724E-1    3.594664079361446E-2
 8.187143587100000E9    -5.409776959918767E-1   -3.242196891468220E-2   -1.024858027880084E-4   -2.321358897850135E-3   -1.479884837755824E-4   -2.380567772360549E-3   -4.578819815289415E-1    3.935392139090849E-2
 8.187209328450000E9    -5.411287965478128E-1   -2.782326283690354E-2   -1.186269751331372E-4   -2.332887737981580E-3   -1.307142088084506E-4   -2.382677099332346E-3   -4.575166549476350E-1    4.316339728547054E-2
 8.187275069800000E9    -5.413090052920437E-1   -2.313840993419686E-2   -1.329419257442572E-4   -2.343890002752032E-3   -1.790690936314427E-4   -2.442919623495041E-3   -4.572266628109203E-1    4.686053819518081E-2
 8.187340811150000E9    -5.417086973471114E-1   -1.851583000698018E-2   -1.505185784080475E-4   -2.349780155455841E-3   -1.702437923736321E-4   -2.420251261411065E-3   -4.566837998970223E-1    5.035633983864112E-2
 8.187406552500000E9    -5.416674536737384E-1   -1.388945907428860E-2   -1.719097961974922E-4   -2.331791826760286E-3   -2.139555017416097E-4   -2.424361291333856E-3   -4.561149394927143E-1    5.392165660088442E-2
 8.187472293850000E9    -5.418604051284239E-1   -9.343204978056031E-3   -1.775504989903660E-4   -2.362159184760523E-3   -2.717162922696679E-4   -2.398356405206395E-3   -4.556667874200485E-1    5.774069263748174E-2
 8.187538035200000E9    -5.417608268343369E-1   -4.897188395887704E-3   -2.136440427345088E-4   -2.342925134358363E-3   -2.667418006375227E-4   -2.422704496592921E-3   -4.551258965123606E-1    6.111158358008520E-2
 8.187603776550000E9    -5.417405941188951E-1   -1.836143100586617E-4   -2.039266838903866E-4   -2.338893911021855E-3   -2.679827096765339E-4   -2.394984049398200E-3   -4.546276586562667E-1    6.468778609430496E-2
 8.187669517900000E9    -5.418470346907982E-1    4.341382061239654E-3   -2.289828221742987E-4   -2.341484731119194E-3   -3.101082387554303E-4   -2.415292114911230E-3   -4.538768802542942E-1    6.831809036086441E-2
 8.187735259250000E9    -5.416638206281795E-1    8.817679760053198E-3   -2.638321384840876E-4   -2.315745970128823E-3   -3.155747960419864E-4   -2.430262109781154E-3   -4.533034188486972E-1    7.203145223841169E-2
 8.187801000600000E9    -5.415721032543560E-1    1.351260318381767E-2   -2.864878423474121E-4   -2.325794145264645E-3   -3.646643177348805E-4   -2.389598963762047E-3   -4.525734238975031E-1    7.572887926647608E-2
 8.187866741950000E9    -5.414205888677696E-1    1.817768233287801E-2   -3.204053213290447E-4   -2.330067219373671E-3   -3.532804479715929E-4   -2.403391719776143E-3   -4.519081621883034E-1    7.929183946034264E-2
 8.187932483300000E9    -5.412252329626065E-1    2.262093915599691E-2   -2.964924504662116E-4   -2.347409499908145E-3   -3.847219407139108E-4   -2.417078365977749E-3   -4.513346145324871E-1    8.291509694406127E-2
 8.187998224650000E9    -5.409722230461234E-1    2.726097882384294E-2   -3.337889335808068E-4   -2.327453243950692E-3   -4.218708765844623E-4   -2.378402216035206E-3   -4.505802931662419E-1    8.643741867204931E-2
 8.188063966000000E9    -5.406544648985196E-1    3.198676312068434E-2   -3.644538729023853E-4   -2.341036382996376E-3   -4.115797675993090E-4   -2.395483258069047E-3   -4.497862300607650E-1    9.000536839702417E-2
 8.188129707350000E9    -5.403574425331058E-1    3.652100063966652E-2   -3.721108185876459E-4   -2.347487950147015E-3   -4.530685300790837E-4   -2.406244264336919E-3   -4.489949706940226E-1    9.359764027143082E-2
 8.188195448700000E9    -5.399767248940643E-1    4.096998185963496E-2   -4.050132119466326E-4   -2.326781229516671E-3   -4.597051382815377E-4   -2.400601948800362E-3   -4.483588913411818E-1    9.705804402986618E-2
 8.188261190050000E9    -5.396303764223181E-1    4.562483648015302E-2   -4.385492375932401E-4   -2.305185227351378E-3   -4.911730048249897E-4   -2.386885122349240E-3   -4.471714140709795E-1    1.006491215191102E-1
 8.188326931400000E9    -5.392148249753377E-1    5.019962075576137E-2   -4.539573073294094E-4   -2.312342894144859E-3   -5.150958968699744E-4   -2.393024903903597E-3   -4.462976097896030E-1    1.040576482203825E-1
 8.188392672750000E9    -5.386779959924787E-1    5.488889023442112E-2   -4.689436971297542E-4   -2.321780715208545E-3   -5.332886761430795E-4   -2.384878422344295E-3   -4.454554528689591E-1    1.077233944244032E-1
 8.188458414100000E9    -5.382904265483084E-1    5.935348647751862E-2   -4.709014175515295E-4   -2.302144639312434E-3   -5.873816803060883E-4   -2.366226190016169E-3   -4.446358516424238E-1    1.111696275177594E-1
 8.188524155450000E9    -5.377839466207249E-1    6.390984888236237E-2   -5.042516644277227E-4   -2.302425542357975E-3   -5.644232145038879E-4   -2.385610865515317E-3   -4.435382017381491E-1    1.147745557676835E-1
 8.188589896800000E9    -5.371164936618145E-1    6.852434214699916E-2   -5.195033896967800E-4   -2.315259495690091E-3   -5.902162039337741E-4   -2.407398890430462E-3   -4.424257109831017E-1    1.183272054703865E-1
 8.188655638150000E9    -5.364660010814426E-1    7.310983719162803E-2   -5.377934972169104E-4   -2.311489324350190E-3   -6.184266690501458E-4   -2.358729209944407E-3   -4.416463686619381E-1    1.218342125474347E-1
 8.188721379500000E9    -5.357698033902004E-1    7.752508189451031E-2   -5.499834375087911E-4   -2.303122716283802E-3   -6.136450951695531E-4   -2.369280061490139E-3   -4.405333231597728E-1    1.252929646110325E-1
