#  HZ   S   RI   R     50.00 
! Rohde & Schwarz Vector Network Analyzer 
! Rohde-Schwarz,ZNB20-2Port,1311601062101988,3.16
! Created: UTC 3/20/2024, 4:51:54 PM
! freq[Hz]                re:S11                  im:S11                  re:S21                  im:S21                  re:S12                  im:S12                  re:S22                  im:S22
 8.195142789000000E9    -2.995114763504411E-1    4.468263440159935E-1   -2.304419742657282E-3   -1.293582663206964E-3   -2.432202484713161E-3   -1.244353064541420E-3   -2.133081712960009E-1    3.931201519759280E-1
 8.195152965075000E9    -2.988242742862796E-1    4.473587287785997E-1   -2.303625716339968E-3   -1.279560683603999E-3   -2.412928474202952E-3   -1.233036894135413E-3   -2.127564658257232E-1    3.932210664998130E-1
 8.195163141150000E9    -2.983204515074475E-1    4.476371574598013E-1   -2.314699468092237E-3   -1.270499090667824E-3   -2.391696251636559E-3   -1.228153285980637E-3   -2.123635830127458E-1    3.936361284013787E-1
 8.195173317225000E9    -2.976128675430280E-1    4.480825947135825E-1   -2.303626036416730E-3   -1.274418401999283E-3   -2.400459286050742E-3   -1.234585488792845E-3   -2.118359730121240E-1    3.936320904812209E-1
 8.195183493300000E9    -2.970820197660975E-1    4.484060578215545E-1   -2.332809674123572E-3   -1.247532334510645E-3   -2.439677780322089E-3   -1.188043058788177E-3   -2.113076939119583E-1    3.940594622568916E-1
 8.195193669375000E9    -2.965442288926252E-1    4.488820704910620E-1   -2.317159388173259E-3   -1.273449670465481E-3   -2.412861169439033E-3   -1.231346469470779E-3   -2.108852412086697E-1    3.942034020551925E-1
 8.195203845450000E9    -2.958819849747885E-1    4.493563406176447E-1   -2.320368378095001E-3   -1.294037919223480E-3   -2.389459002265601E-3   -1.225807060454306E-3   -2.103792567212087E-1    3.947163564535885E-1
 8.195214021525000E9    -2.953134050405501E-1    4.496339479491290E-1   -2.305910653242120E-3   -1.270812457825367E-3   -2.435993885813920E-3   -1.215161660676104E-3   -2.097616489593220E-1    3.949201559561207E-1
 8.195224197600000E9    -2.947239125578385E-1    4.499703925229172E-1   -2.307065697552016E-3   -1.283434087078096E-3   -2.416139438359703E-3   -1.232155499829998E-3   -2.092517820581133E-1    3.951763505159434E-1
 8.195234373675000E9    -2.939502365852963E-1    4.503622654704735E-1   -2.326890172319159E-3   -1.227344173622652E-3   -2.399129442218779E-3   -1.205851586582650E-3   -2.086519457256379E-1    3.953539987356215E-1
 8.195244549750000E9    -2.933789736839094E-1    4.508068255412491E-1   -2.327066917810284E-3   -1.252479673861238E-3   -2.424271479440689E-3   -1.214495314779650E-3   -2.083173966511963E-1    3.956382475946810E-1
 8.195254725825000E9    -2.928522466242140E-1    4.512102770952188E-1   -2.363424694469281E-3   -1.266185369242358E-3   -2.442034395660850E-3   -1.202431337122748E-3   -2.077456813432343E-1    3.957625214962518E-1
 8.195264901900000E9    -2.921359281372118E-1    4.516184747574863E-1   -2.348958361772808E-3   -1.277474387126140E-3   -2.426561158773279E-3   -1.232525982500149E-3   -2.072360315374906E-1    3.960995295123987E-1
 8.195275077975000E9    -2.915672803394414E-1    4.520067561101019E-1   -2.334266059855216E-3   -1.253268500902287E-3   -2.444461411571338E-3   -1.191551383230847E-3   -2.066879055320701E-1    3.963663576451247E-1
 8.195285254050000E9    -2.909900489152357E-1    4.523000393684552E-1   -2.366539915066108E-3   -1.257940838369100E-3   -2.439317364081732E-3   -1.179304282479115E-3   -2.060972279692657E-1    3.966230621746818E-1
 8.195295430125000E9    -2.903833631028802E-1    4.527986802772457E-1   -2.308476760420796E-3   -1.217949202615855E-3   -2.437675325065822E-3   -1.214588568547424E-3   -2.057248478382277E-1    3.968358046303323E-1
 8.195305606200000E9    -2.897513492505750E-1    4.530200958648580E-1   -2.352470694236693E-3   -1.255129709922199E-3   -2.448139083245776E-3   -1.179693382584425E-3   -2.052634117296700E-1    3.970203984920913E-1
 8.195315782275000E9    -2.890524999101360E-1    4.536066155825368E-1   -2.334373917453910E-3   -1.231971526574162E-3   -2.431526366994712E-3   -1.234183167906094E-3   -2.046294189819889E-1    3.974625780095715E-1
 8.195325958350000E9    -2.885938686761774E-1    4.539193052453180E-1   -2.351238638563619E-3   -1.242815756678819E-3   -2.439659920221568E-3   -1.200094808938739E-3   -2.041854178357400E-1    3.974986657104518E-1
 8.195336134425000E9    -2.879333229489046E-1    4.542794001365875E-1   -2.382729058032143E-3   -1.259466059587150E-3   -2.439461940315189E-3   -1.194660914388702E-3   -2.037380446741623E-1    3.978295185690216E-1
 8.195346310500000E9    -2.872776829646665E-1    4.546816468495302E-1   -2.343548546190371E-3   -1.249997508918703E-3   -2.445021256583956E-3   -1.159279953732993E-3   -2.032160348600188E-1    3.979235692891049E-1
 8.195356486575000E9    -2.867246487080455E-1    4.549556510368649E-1   -2.362797078529072E-3   -1.234748577985774E-3   -2.427006376650098E-3   -1.171572371922647E-3   -2.025556145043856E-1    3.983781842172526E-1
 8.195366662650000E9    -2.859705624854555E-1    4.553971163779354E-1   -2.356113251178062E-3   -1.205911079325273E-3   -2.507603810075617E-3   -1.177429563360376E-3   -2.020722222236216E-1    3.984657604232084E-1
 8.195376838725000E9    -2.854655093647176E-1    4.558539538287078E-1   -2.341568454618060E-3   -1.236914202746768E-3   -2.450553917568394E-3   -1.159187637933762E-3   -2.016183916680055E-1    3.988446847741350E-1
 8.195387014800000E9    -2.846767334027823E-1    4.560773705681176E-1   -2.337687609644110E-3   -1.232909648980380E-3   -2.486875914993003E-3   -1.192644495557261E-3   -2.010387292239381E-1    3.990010690398830E-1
 8.195397190875000E9    -2.841361892875064E-1    4.564776943514718E-1   -2.360029531182543E-3   -1.212109928573183E-3   -2.477029213442250E-3   -1.169630119038831E-3   -2.005931480511314E-1    3.993644479623458E-1
 8.195407366950000E9    -2.835490024054527E-1    4.569274520344366E-1   -2.366160934591720E-3   -1.213030206656247E-3   -2.475541134711371E-3   -1.161540617525628E-3   -2.001058344213850E-1    3.994910819343440E-1
 8.195417543025000E9    -2.828875815528171E-1    4.571840962565836E-1   -2.379687037456505E-3   -1.210718101962442E-3   -2.451547588285254E-3   -1.160114686726066E-3   -1.994857082115276E-1    3.997867123565604E-1
 8.195427719100000E9    -2.823911444029920E-1    4.577489982458207E-1   -2.391202423704867E-3   -1.206651647252706E-3   -2.440428328081518E-3   -1.154269804178324E-3   -1.990299864548881E-1    4.000761499771884E-1
 8.195437895175000E9    -2.817856253257843E-1    4.579010409283236E-1   -2.372343093381754E-3   -1.209079446609975E-3   -2.473310706411736E-3   -1.164484125120480E-3   -1.986560323750017E-1    4.002138222743381E-1
 8.195448071250000E9    -2.810271724371241E-1    4.585051497110412E-1   -2.384804846280603E-3   -1.198417233410295E-3   -2.491808072752913E-3   -1.150681962485595E-3   -1.980239520146341E-1    4.005489469417834E-1
 8.195458247325000E9    -2.806092540568376E-1    4.587710103425701E-1   -2.417326937813079E-3   -1.190854565106930E-3   -2.462826403134478E-3   -1.136169964204992E-3   -1.974423615321418E-1    4.006669794123821E-1
 8.195468423400000E9    -2.799138572889024E-1    4.590966306377654E-1   -2.384950003880019E-3   -1.220173082412574E-3   -2.523303280430549E-3   -1.143625814736055E-3   -1.969651296418672E-1    4.009638996501197E-1
 8.195478599475000E9    -2.791626661680868E-1    4.595645845442951E-1   -2.413318233252997E-3   -1.186582806742062E-3   -2.489253209077912E-3   -1.143351861264598E-3   -1.964493644533722E-1    4.010560817134055E-1
 8.195488775550000E9    -2.786694476757041E-1    4.599032400123224E-1   -2.380970336335424E-3   -1.203466639398682E-3   -2.479931475510772E-3   -1.121793119234285E-3   -1.960656848725610E-1    4.013729178792051E-1
 8.195498951625000E9    -2.780687309774736E-1    4.603396837251386E-1   -2.388349741177964E-3   -1.194459729833224E-3   -2.490582186686735E-3   -1.141833275003182E-3   -1.954221628998167E-1    4.016475782663826E-1
 8.195509127700000E9    -2.773484887091021E-1    4.605120137494750E-1   -2.411955214374220E-3   -1.199887601227545E-3   -2.525177426817280E-3   -1.137960584360262E-3   -1.947152271045011E-1    4.020414008492630E-1
 8.195519303775000E9    -2.767106357214327E-1    4.609009791119030E-1   -2.404846804792006E-3   -1.168453995234867E-3   -2.481596910557029E-3   -1.111489586277070E-3   -1.943210131651601E-1    4.020205465146118E-1
 8.195529479850000E9    -2.761153402804118E-1    4.614381267984346E-1   -2.406899247555736E-3   -1.190062260224831E-3   -2.480600701481160E-3   -1.177411378116386E-3   -1.937791418397344E-1    4.022152399761957E-1
 8.195539655925000E9    -2.754581205622771E-1    4.617320304045653E-1   -2.409779194182256E-3   -1.170293177293949E-3   -2.530473447899335E-3   -1.123931189682106E-3   -1.932854013221929E-1    4.025336812646899E-1
 8.195549832000000E9    -2.747723047459033E-1    4.620931257703452E-1   -2.394358418727702E-3   -1.171268951031811E-3   -2.520189602375441E-3   -1.140739506953750E-3   -1.928628042409221E-1    4.028778207991510E-1
 8.195560008075000E9    -2.741936081822419E-1    4.623305460481965E-1   -2.416952593049295E-3   -1.184624079309048E-3   -2.490924347602781E-3   -1.091658645725955E-3   -1.922194664482731E-1    4.030963575059087E-1
 8.195570184150000E9    -2.735362795841028E-1    4.627549673231081E-1   -2.416537173028973E-3   -1.193917342408888E-3   -2.503272481831755E-3   -1.137383254674789E-3   -1.918143602001372E-1    4.032714216719078E-1
 8.195580360225000E9    -2.729741900499226E-1    4.631606110077963E-1   -2.429419931511953E-3   -1.172034698048841E-3   -2.487058826253842E-3   -1.115277871727741E-3   -1.912231938216379E-1    4.034740431586528E-1
 8.195590536300000E9    -2.724378668914591E-1    4.635256779816697E-1   -2.444652157681227E-3   -1.168825412058319E-3   -2.504391698277549E-3   -1.107113930523643E-3   -1.908148089196366E-1    4.037577549147360E-1
 8.195600712375000E9    -2.716474827015857E-1    4.638865669258395E-1   -2.426295591335362E-3   -1.172595288726166E-3   -2.543049760227386E-3   -1.133638572699218E-3   -1.902591543702341E-1    4.039472754490754E-1
 8.195610888450000E9    -2.710360826937341E-1    4.643304318606579E-1   -2.426404173075906E-3   -1.187020856906289E-3   -2.547715829536223E-3   -1.112324103146872E-3   -1.897108579353857E-1    4.041985517377223E-1
 8.195621064525000E9    -2.704701833972935E-1    4.645092119253350E-1   -2.439054303210435E-3   -1.155208856865811E-3   -2.561152356749777E-3   -1.097103197949868E-3   -1.890413236052376E-1    4.042961214819400E-1
 8.195631240600000E9    -2.698889096324996E-1    4.649521288584390E-1   -2.420726717681886E-3   -1.154145615985592E-3   -2.514022580220877E-3   -1.081026412148447E-3   -1.885568238773654E-1    4.046147293122930E-1
 8.195641416675000E9    -2.693268671350936E-1    4.653277073485347E-1   -2.410271187265339E-3   -1.144982347677991E-3   -2.528331836956658E-3   -1.116570190636965E-3   -1.880409117600856E-1    4.049258698128819E-1
 8.195651592750000E9    -2.685761330639777E-1    4.656695089440178E-1   -2.436537687959648E-3   -1.159639477433855E-3   -2.530518387254964E-3   -1.129011279388702E-3   -1.874901410348267E-1    4.050533376535310E-1
 8.195661768825000E9    -2.679909860207096E-1    4.660439862870038E-1   -2.448883691485751E-3   -1.170368020542889E-3   -2.534475821612682E-3   -1.083328843206288E-3   -1.870511460407913E-1    4.053020769067639E-1
 8.195671944900000E9    -2.673081569451894E-1    4.663592663671922E-1   -2.437612248470695E-3   -1.153407635504039E-3   -2.568875595549148E-3   -1.054570301243287E-3   -1.865778084011812E-1    4.055194335898345E-1
 8.195682120975000E9    -2.667098864344734E-1    4.665852129786808E-1   -2.444873676715180E-3   -1.130524367186954E-3   -2.530643701937937E-3   -1.091928015015289E-3   -1.860766984656949E-1    4.059690712397367E-1
 8.195692297050000E9    -2.660633001139849E-1    4.670569177666099E-1   -2.460976076282601E-3   -1.140770094253745E-3   -2.551229775736472E-3   -1.077663212358884E-3   -1.855777642543661E-1    4.060723063234647E-1
 8.195702473125000E9    -2.654419381853270E-1    4.673317371245758E-1   -2.449786404619276E-3   -1.139728894704976E-3   -2.526241155305901E-3   -1.105653323343365E-3   -1.848252864823425E-1    4.061908659073338E-1
 8.195712649200000E9    -2.647785499890014E-1    4.677012554338574E-1   -2.483176873169011E-3   -1.142555881645093E-3   -2.568092165528328E-3   -1.056961208651797E-3   -1.843700714593628E-1    4.064242542065458E-1
 8.195722825275000E9    -2.642401260769835E-1    4.680865314877800E-1   -2.460329364599083E-3   -1.117970658686846E-3   -2.580382096458855E-3   -1.057247707505383E-3   -1.839320609001914E-1    4.067061032335227E-1
 8.195733001350000E9    -2.634015456681798E-1    4.684533658472511E-1   -2.465997711293965E-3   -1.131464144336936E-3   -2.576541250433784E-3   -1.074385086602659E-3   -1.835016969866729E-1    4.069071416049807E-1
 8.195743177425000E9    -2.628222033774383E-1    4.687234989849396E-1   -2.472457502223133E-3   -1.103426165912221E-3   -2.548937857273726E-3   -1.071193428745523E-3   -1.829302275648277E-1    4.070999071988284E-1
 8.195753353500000E9    -2.622099059975542E-1    4.692052771947046E-1   -2.458776758197204E-3   -1.158912791819174E-3   -2.573742909557268E-3   -1.066334001188029E-3   -1.823550635830479E-1    4.073244268994756E-1
 8.195763529575000E9    -2.615207600307808E-1    4.695285878550139E-1   -2.458943366429405E-3   -1.136205081866303E-3   -2.590503775218830E-3   -1.037712505029734E-3   -1.819296654235726E-1    4.074419387361766E-1
 8.195773705650000E9    -2.609663226384215E-1    4.697529737816004E-1   -2.481070203486522E-3   -1.146621666152220E-3   -2.583801932023678E-3   -1.042651653656295E-3   -1.814033142295374E-1    4.077965641132318E-1
 8.195783881725000E9    -2.602682628274754E-1    4.701512784995927E-1   -2.461131531724413E-3   -1.123406499745926E-3   -2.560351463597164E-3   -1.042968351977514E-3   -1.807939023442460E-1    4.078874781730117E-1
 8.195794057800000E9    -2.596771373159065E-1    4.705122437341340E-1   -2.477361139978824E-3   -1.127507145140449E-3   -2.570194990394134E-3   -1.049918362044089E-3   -1.801676672974500E-1    4.081965312785530E-1
 8.195804233875000E9    -2.589587552262017E-1    4.709018337244090E-1   -2.498060103796708E-3   -1.112265513501664E-3   -2.563526208729952E-3   -1.035404799137658E-3   -1.797078603732245E-1    4.083000825943444E-1
 8.195814409950000E9    -2.582674330013929E-1    4.712089159749145E-1   -2.502052520554968E-3   -1.111393232165175E-3   -2.571897015868593E-3   -1.037097568728362E-3   -1.790594501156111E-1    4.086360109176801E-1
 8.195824586025000E9    -2.578611906512566E-1    4.715453501847802E-1   -2.480579765725002E-3   -1.114555807684095E-3   -2.581323135352607E-3   -1.041747931635895E-3   -1.786724423239157E-1    4.088140894454435E-1
 8.195834762100000E9    -2.571705927577085E-1    4.718697321595003E-1   -2.484029550888372E-3   -1.093543823812917E-3   -2.560609360952851E-3   -1.022559856665101E-3   -1.780680506202025E-1    4.090102917452301E-1
 8.195844938175000E9    -2.565497393323425E-1    4.721279829980060E-1   -2.470384456966377E-3   -1.108235027359824E-3   -2.576624113337702E-3   -1.027587036788364E-3   -1.775659272822477E-1    4.091907549499840E-1
 8.195855114250000E9    -2.557641354073958E-1    4.724760425525565E-1   -2.481020821496122E-3   -1.113342973212815E-3   -2.625089218100844E-3   -1.024367790166756E-3   -1.770918760355522E-1    4.094586797842582E-1
 8.195865290325000E9    -2.551880695436068E-1    4.729608892355014E-1   -2.507980331825547E-3   -1.104698822006143E-3   -2.629036713885809E-3   -1.031242340740407E-3   -1.764951558171716E-1    4.096540268252278E-1
 8.195875466400000E9    -2.545065511702585E-1    4.731846474347426E-1   -2.520795117547823E-3   -1.090046010760869E-3   -2.577499242720395E-3   -1.036178577891741E-3   -1.759655720086875E-1    4.098822386801607E-1
 8.195885642475000E9    -2.538687778925900E-1    4.735929121250793E-1   -2.513283119776850E-3   -1.074158426519631E-3   -2.624767867261354E-3   -1.001549433255752E-3   -1.755341496004778E-1    4.101997894222837E-1
 8.195895818550000E9    -2.533079977975537E-1    4.739181299823271E-1   -2.531305443901440E-3   -1.087098866208038E-3   -2.609441766643321E-3   -1.026791109222763E-3   -1.749962263322026E-1    4.102835417274163E-1
 8.195905994625000E9    -2.525521532001183E-1    4.742929911553169E-1   -2.514895143313833E-3   -1.095357084800016E-3   -2.585150513546610E-3   -1.006473711777140E-3   -1.743423011957090E-1    4.104367125341869E-1
 8.195916170700000E9    -2.520475779354390E-1    4.745636825757610E-1   -2.518622595983064E-3   -1.093809193494355E-3   -2.602704615321118E-3   -1.011333959306232E-3   -1.739520304640068E-1    4.108477927010302E-1
 8.195926346775000E9    -2.513210477063285E-1    4.748403760705721E-1   -2.520641860859094E-3   -1.089530064771180E-3   -2.641000612089908E-3   -1.002147047442397E-3   -1.733735722026102E-1    4.108881408315206E-1
 8.195936522850000E9    -2.505470279047275E-1    4.752108328204218E-1   -2.488019599697015E-3   -1.098914241646852E-3   -2.595552394977683E-3   -9.872024244225509E-4   -1.728674329189170E-1    4.111066965291472E-1
 8.195946698925000E9    -2.500111894255177E-1    4.755704209743475E-1   -2.532933435715630E-3   -1.061649547276997E-3   -2.622615958297114E-3   -1.018838664272619E-3   -1.723786549510136E-1    4.113100118466809E-1
 8.195956875000000E9    -2.493966586334754E-1    4.759531289631166E-1   -2.518760464995169E-3   -1.060194460137210E-3   -2.612555864830967E-3   -1.001941636049575E-3   -1.718262099737340E-1    4.115243150460861E-1
 8.195967051075000E9    -2.486367522335444E-1    4.762516562284932E-1   -2.524514615916125E-3   -1.070254804620703E-3   -2.656983022152415E-3   -1.011543685857793E-3   -1.711657941572247E-1    4.116475201887689E-1
 8.195977227150000E9    -2.481162115600891E-1    4.764507211121348E-1   -2.552872824849996E-3   -1.066902093265936E-3   -2.593743497242213E-3   -1.013270216698922E-3   -1.707196454537984E-1    4.118181647739512E-1
 8.195987403225000E9    -2.474305002721526E-1    4.768390880550598E-1   -2.519237352507430E-3   -1.072534588074650E-3   -2.627363451103227E-3   -9.993331022819939E-4   -1.701994349847044E-1    4.121347595085080E-1
 8.195997579300000E9    -2.466976451856019E-1    4.772269240095869E-1   -2.551343175541119E-3   -1.079585375406720E-3   -2.614525502532278E-3   -9.628449514458146E-4   -1.695656031173816E-1    4.123228927031954E-1
 8.196007755375000E9    -2.461564536941389E-1    4.775457039895369E-1   -2.529427381895397E-3   -1.052495650676730E-3   -2.676652519636159E-3   -9.838463651137648E-4   -1.692109049217721E-1    4.125900249216230E-1
 8.196017931450000E9    -2.455438420928751E-1    4.778369192689892E-1   -2.541460478615435E-3   -1.070143606868871E-3   -2.653948137770241E-3   -9.745478458806174E-4   -1.685527823155427E-1    4.126913961237746E-1
 8.196028107525000E9    -2.447948695057021E-1    4.781224697736720E-1   -2.564990684581573E-3   -1.056325522847755E-3   -2.637915912997548E-3   -9.585550184323529E-4   -1.681102740534109E-1    4.129153851476517E-1
 8.196038283600000E9    -2.441980357535883E-1    4.783521886464119E-1   -2.551184186869053E-3   -1.044518163840580E-3   -2.643600204492710E-3   -9.702020847266448E-4   -1.674280381485728E-1    4.131258777947199E-1
 8.196048459675000E9    -2.435973951130555E-1    4.786949287630355E-1   -2.548376577196666E-3   -1.031632969058974E-3   -2.641796762182498E-3   -9.672464040133881E-4   -1.669549264035087E-1    4.132015204966972E-1
 8.196058635750000E9    -2.429230988081487E-1    4.790964939305710E-1   -2.567183837595933E-3   -1.054185983901088E-3   -2.661840792661879E-3   -9.445493049391838E-4   -1.666355964860818E-1    4.136196979816769E-1
