#  HZ   S   RI   R     50.00 
! Rohde & Schwarz Vector Network Analyzer 
! Rohde-Schwarz,ZNB20-2Port,1311601062101988,3.16
! Created: UTC 3/20/2024, 5:07:04 PM
! freq[Hz]                re:S11                  im:S11                  re:S21                  im:S21                  re:S12                  im:S12                  re:S22                  im:S22
 8.181942404000000E9    -4.059007469215456E-1   -3.611835346500524E-1    1.250954937877601E-3   -1.863704217557027E-3    1.302689211204134E-3   -1.987564134920014E-3   -3.987341828306702E-1   -2.392121717334285E-1
 8.182012091550000E9    -4.090865934713358E-1   -3.575961249223057E-1    1.270905590568118E-3   -1.895499174526830E-3    1.280632630328825E-3   -1.969780578718014E-3   -4.004365866929699E-1   -2.357335247211970E-1
 8.182081779100000E9    -4.123010832583648E-1   -3.538765763502485E-1    1.232213659248941E-3   -1.855711861644436E-3    1.243362985624718E-3   -1.979553817534766E-3   -4.025102654334832E-1   -2.322734815415440E-1
 8.182151466650000E9    -4.154167677392685E-1   -3.502172219584912E-1    1.232451347032779E-3   -1.919854143396526E-3    1.247663902370006E-3   -1.976405620647673E-3   -4.043502299704367E-1   -2.289638683608034E-1
 8.182221154200000E9    -4.185416814070737E-1   -3.466168444242478E-1    1.213366966024744E-3   -1.925695457167401E-3    1.245302367887320E-3   -1.992459512392069E-3   -4.059987658292629E-1   -2.256583099158876E-1
 8.182290841750000E9    -4.214986918148778E-1   -3.427901807991920E-1    1.199806010970993E-3   -1.920806667838457E-3    1.208305395770512E-3   -2.048618190248788E-3   -4.079748710441219E-1   -2.222367989193656E-1
 8.182360529300000E9    -4.247218068183869E-1   -3.389749897337766E-1    1.191547280182903E-3   -1.972846390833287E-3    1.197370185024306E-3   -2.024719952474076E-3   -4.096963828264144E-1   -2.187346481012639E-1
 8.182430216850000E9    -4.276351511034350E-1   -3.351474282634112E-1    1.156273214867677E-3   -1.952658959667113E-3    1.173784730200259E-3   -2.059404075863140E-3   -4.114836698449244E-1   -2.152037137512996E-1
 8.182499904400000E9    -4.305579830038779E-1   -3.312179447629684E-1    1.146896064999115E-3   -1.928914652325639E-3    1.142951248987454E-3   -2.031306348843730E-3   -4.132407274397402E-1   -2.116452952113801E-1
 8.182569591950000E9    -4.333869118683226E-1   -3.274482615013583E-1    1.154819274033073E-3   -1.942357288352312E-3    1.142788721254267E-3   -2.073378637330377E-3   -4.149842990772113E-1   -2.082379693888791E-1
 8.182639279500000E9    -4.363135648519024E-1   -3.236248711340922E-1    1.108407470579556E-3   -1.983212668746964E-3    1.133295969936154E-3   -2.075933539452594E-3   -4.167656487720930E-1   -2.047629499890096E-1
 8.182708967050000E9    -4.392021246632818E-1   -3.197049615878659E-1    1.087685219228868E-3   -1.979850941454189E-3    1.100625209403244E-3   -2.116127959421866E-3   -4.182994801822236E-1   -2.013325047524147E-1
 8.182778654600000E9    -4.420058189295566E-1   -3.157813045259630E-1    1.055371666130982E-3   -1.999218084013992E-3    1.096741515416254E-3   -2.063549948814460E-3   -4.197741090441320E-1   -1.977115198791684E-1
 8.182848342150000E9    -4.447462145865219E-1   -3.118350538235244E-1    1.046693628977398E-3   -2.012256266098871E-3    1.035259789379914E-3   -2.087481246141465E-3   -4.213888281882877E-1   -1.940567368382195E-1
 8.182918029700000E9    -4.474840846045493E-1   -3.077600238345837E-1    1.044083253713925E-3   -2.007214634608075E-3    1.040745635238812E-3   -2.101955193208081E-3   -4.229810725158785E-1   -1.907506515576252E-1
 8.182987717250000E9    -4.502681654115933E-1   -3.038553974107623E-1    1.059745458807068E-3   -2.036494316725698E-3    1.019163131249865E-3   -2.109732119451030E-3   -4.244337826646630E-1   -1.869713535098871E-1
 8.183057404800000E9    -4.530176497856207E-1   -2.996037079007878E-1    1.009197370866921E-3   -2.019019590592827E-3    1.025921443268286E-3   -2.116486999871279E-3   -4.260462006052147E-1   -1.833963488672664E-1
 8.183127092350000E9    -4.556665547454682E-1   -2.956344791814118E-1    9.956825984869021E-4   -2.055548305871201E-3    9.961479518282811E-4   -2.110023574661430E-3   -4.273248146585253E-1   -1.798362332434962E-1
 8.183196779900000E9    -4.582061370869438E-1   -2.914583840607120E-1    9.972460654977062E-4   -2.027228735523090E-3    9.802746926088647E-4   -2.173780826373531E-3   -4.288748929695305E-1   -1.760812165364936E-1
 8.183266467450000E9    -4.607799709775499E-1   -2.874378748259825E-1    9.550372547360658E-4   -2.080495814611235E-3    9.647684851152563E-4   -2.160738826241087E-3   -4.301949880183980E-1   -1.725865065795336E-1
 8.183336155000000E9    -4.633048620908254E-1   -2.833061784329976E-1    9.383817754557006E-4   -2.050074659064722E-3    9.409849725026329E-4   -2.189843648670269E-3   -4.317082521674602E-1   -1.689140223182063E-1
 8.183405842550000E9    -4.658335523159957E-1   -2.791138723526495E-1    9.260559294053695E-4   -2.091437184641226E-3    9.432765054271929E-4   -2.175767065928869E-3   -4.329764709455316E-1   -1.651823153882994E-1
 8.183475530100000E9    -4.682487533916441E-1   -2.749229433114183E-1    9.379587273404654E-4   -2.105890272382339E-3    8.906430030680499E-4   -2.171947709343056E-3   -4.342252778225473E-1   -1.617165559363260E-1
 8.183545217650000E9    -4.706972609596998E-1   -2.708292154649178E-1    8.789450643076752E-4   -2.115343731841351E-3    8.607237929895623E-4   -2.199411814808736E-3   -4.354929353979735E-1   -1.577238638354326E-1
 8.183614905200000E9    -4.731318129929291E-1   -2.667306706789266E-1    8.580202354074950E-4   -2.089784428742227E-3    8.503309665775990E-4   -2.179364295121381E-3   -4.368560609066142E-1   -1.542297000276971E-1
 8.183684592750000E9    -4.754186570312636E-1   -2.623361864922076E-1    8.427337457714443E-4   -2.107499608365592E-3    8.440749484758434E-4   -2.176336910658065E-3   -4.379480257946115E-1   -1.506408564039126E-1
 8.183754280300000E9    -4.776791730478621E-1   -2.579678777425836E-1    8.312418705594221E-4   -2.125731163176863E-3    8.262757822988380E-4   -2.205234838310207E-3   -4.391677097019035E-1   -1.469767764332077E-1
 8.183823967850000E9    -4.799211149618487E-1   -2.537699057497661E-1    7.957142664990813E-4   -2.138545199390833E-3    8.131841889883293E-4   -2.202193565259340E-3   -4.403018944524230E-1   -1.432810131993514E-1
 8.183893655400000E9    -4.821546397102918E-1   -2.495382415099578E-1    8.041078690548106E-4   -2.139045178551923E-3    7.832847403736192E-4   -2.229207583883298E-3   -4.414124494411318E-1   -1.394327110815413E-1
 8.183963342950000E9    -4.844121644269296E-1   -2.452648882630058E-1    7.925347122402796E-4   -2.137965495858091E-3    7.566105107835874E-4   -2.264712080390325E-3   -4.426188970137136E-1   -1.356768843308014E-1
 8.184033030500000E9    -4.865591152035446E-1   -2.408832664252891E-1    7.740794249368909E-4   -2.119112044052165E-3    7.658928043458263E-4   -2.260701978353923E-3   -4.435497098871281E-1   -1.317964396796862E-1
 8.184102718050000E9    -4.887527721030454E-1   -2.364375162880665E-1    7.443889817281324E-4   -2.177324097040561E-3    7.166053032076899E-4   -2.245931094705342E-3   -4.446136866829596E-1   -1.281203949656319E-1
 8.184172405600000E9    -4.906908273117008E-1   -2.321272019101569E-1    7.257906899366251E-4   -2.166015910711303E-3    7.357003128166542E-4   -2.264842593746335E-3   -4.455245291836040E-1   -1.245334153722532E-1
 8.184242093150000E9    -4.928012183277110E-1   -2.275316456823979E-1    7.166626068537532E-4   -2.173071620747710E-3    7.049762205089817E-4   -2.247932806268892E-3   -4.465965313572687E-1   -1.206072852137653E-1
 8.184311780700000E9    -4.946638277199690E-1   -2.232433572184259E-1    6.993454257819565E-4   -2.166861641872502E-3    6.733884769546205E-4   -2.259756748417015E-3   -4.475796261048228E-1   -1.170018991398333E-1
 8.184381468250000E9    -4.968072294277659E-1   -2.189146406762431E-1    6.618093576965957E-4   -2.158300840265464E-3    6.799370326555768E-4   -2.271574428086412E-3   -4.483959327280876E-1   -1.131765219475560E-1
 8.184451155800000E9    -4.987139085550054E-1   -2.143959700028903E-1    6.560787725027706E-4   -2.186788353488395E-3    6.128522662268722E-4   -2.293775568370048E-3   -4.492346303223191E-1   -1.094621562021619E-1
 8.184520843350000E9    -5.004750014750627E-1   -2.100073167722505E-1    6.450647000916512E-4   -2.198877089229953E-3    6.199696546104017E-4   -2.287158779864577E-3   -4.501340339160496E-1   -1.055765029520269E-1
 8.184590530900000E9    -5.024348626809333E-1   -2.054678523033525E-1    6.204936923619764E-4   -2.216324623777403E-3    5.834389261462113E-4   -2.309410766832300E-3   -4.508650213767224E-1   -1.018286598106342E-1
 8.184660218450000E9    -5.041969856036727E-1   -2.008489951622571E-1    6.174985140296745E-4   -2.213899585643853E-3    5.533578411272385E-4   -2.291457746797018E-3   -4.517238852973298E-1   -9.797061544770704E-2
 8.184729906000000E9    -5.059981601899659E-1   -1.963016962622178E-1    5.674729985347882E-4   -2.219710612438364E-3    5.776868651759145E-4   -2.334339043225216E-3   -4.524524986132296E-1   -9.422057741936879E-2
 8.184799593550000E9    -5.076289835440049E-1   -1.918965384398486E-1    5.809595648188214E-4   -2.243388816623203E-3    5.540536559665251E-4   -2.299376687624191E-3   -4.531743954304027E-1   -9.039748734264523E-2
 8.184869281100000E9    -5.093273212389200E-1   -1.872653412449366E-1    5.462820886806767E-4   -2.230452034284903E-3    5.151179235445519E-4   -2.327399735704136E-3   -4.537682606101475E-1   -8.643501214977301E-2
 8.184938968650000E9    -5.109643719172662E-1   -1.827226842638504E-1    5.182627900759309E-4   -2.234141192213247E-3    5.173264914806717E-4   -2.322518454742983E-3   -4.544994040671624E-1   -8.265769407683174E-2
 8.185008656200000E9    -5.124529761552706E-1   -1.781553414448134E-1    4.773565892930762E-4   -2.237790573934177E-3    4.837159107415954E-4   -2.367222141739558E-3   -4.549163405370098E-1   -7.890823923159726E-2
 8.185078343750000E9    -5.141088806393856E-1   -1.735669571509269E-1    4.714877129757428E-4   -2.242924092163197E-3    4.538130409157622E-4   -2.322518309847643E-3   -4.556305668847441E-1   -7.501976981508619E-2
 8.185148031300000E9    -5.157087266515513E-1   -1.690076148582642E-1    4.833478433176180E-4   -2.245365688688631E-3    4.194871325629129E-4   -2.355424886533416E-3   -4.561945842259471E-1   -7.108213917606732E-2
 8.185217718850000E9    -5.171132832994818E-1   -1.643732372764043E-1    4.514955136383055E-4   -2.262283455932919E-3    3.832794198404433E-4   -2.305979927431580E-3   -4.567482720838144E-1   -6.744837073575928E-2
 8.185287406400000E9    -5.185593530500674E-1   -1.596765858456704E-1    4.586075127404983E-4   -2.269122982919735E-3    4.046298220273452E-4   -2.349967769178799E-3   -4.569969142145242E-1   -6.351247775592819E-2
 8.185357093950000E9    -5.199169921912733E-1   -1.550217857418292E-1    4.130514754424743E-4   -2.264242415796317E-3    4.070534662827829E-4   -2.322728440369804E-3   -4.575231041242573E-1   -5.972792814470998E-2
 8.185426781500000E9    -5.213309669166537E-1   -1.502881527721634E-1    3.859791697618274E-4   -2.253189669567902E-3    3.860945809833502E-4   -2.338872619800973E-3   -4.580369384819484E-1   -5.588132135574990E-2
 8.185496469050000E9    -5.225684871498568E-1   -1.456818837700892E-1    3.643835160127396E-4   -2.282742309775649E-3    3.466545342101673E-4   -2.385703957806535E-3   -4.583725198956781E-1   -5.188163360111900E-2
 8.185566156600000E9    -5.238880645249812E-1   -1.410006378997893E-1    3.438723649559028E-4   -2.309102437775146E-3    3.257815574570501E-4   -2.393194116418681E-3   -4.587791351113911E-1   -4.804048101632676E-2
 8.185635844150000E9    -5.250584048119022E-1   -1.363193923045845E-1    3.239120296229804E-4   -2.246450912761519E-3    3.259128571224947E-4   -2.365274300589839E-3   -4.590332968654008E-1   -4.421293696397349E-2
 8.185705531700000E9    -5.262133305741217E-1   -1.316578623482944E-1    3.249149463307310E-4   -2.272202970784973E-3    3.009671141723404E-4   -2.340064977749079E-3   -4.593224291024052E-1   -4.042376853263930E-2
 8.185775219250000E9    -5.273806473236706E-1   -1.269332377364686E-1    2.944549894824340E-4   -2.298794806104116E-3    2.588498547416799E-4   -2.374723062937822E-3   -4.596042622485959E-1   -3.631515606869250E-2
 8.185844906800000E9    -5.284658810287135E-1   -1.221028750038454E-1    2.558012875981063E-4   -2.295099430092844E-3    2.577415659088767E-4   -2.396490744315959E-3   -4.597538758814438E-1   -3.265876198160456E-2
 8.185914594350000E9    -5.295024571078254E-1   -1.173265526216815E-1    2.314108500430617E-4   -2.284900730306712E-3    2.192740652085987E-4   -2.408867085130891E-3   -4.600418786407968E-1   -2.865982181353655E-2
 8.185984281900000E9    -5.304912578990731E-1   -1.125720806371242E-1    2.209265346362513E-4   -2.306122193745786E-3    2.152571323258309E-4   -2.402319655194841E-3   -4.602827299031148E-1   -2.488397039230133E-2
 8.186053969450000E9    -5.314356785535529E-1   -1.078698006633693E-1    2.121516085469595E-4   -2.290230781631649E-3    1.564046147355820E-4   -2.409213958256367E-3   -4.602579093166048E-1   -2.093109825427247E-2
 8.186123657000000E9    -5.323663671404935E-1   -1.029427998074273E-1    1.946691468545258E-4   -2.340573701284214E-3    1.716141287963572E-4   -2.392279987168857E-3   -4.603925091972487E-1   -1.690623948997227E-2
 8.186193344550000E9    -5.333242401329427E-1   -9.833983528205271E-2    1.692119291728923E-4   -2.306933166363935E-3    1.391698872935486E-4   -2.390764145790484E-3   -4.604416165753826E-1   -1.325368125818250E-2
 8.186263032100000E9    -5.342537041542601E-1   -9.345337614521879E-2    1.797592693181097E-4   -2.336206505997096E-3    1.202372484124931E-4   -2.439326195805624E-3   -4.604733791313348E-1   -9.477769412708413E-3
 8.186332719650000E9    -5.349344588908191E-1   -8.856713795680948E-2    1.379917033653282E-4   -2.321704571618598E-3    1.340599344421108E-4   -2.423423072016633E-3   -4.604036219765664E-1   -5.558923877398718E-3
 8.186402407200000E9    -5.357666073976686E-1   -8.375802381734650E-2    8.266227488921323E-5   -2.318337216233052E-3    7.326533479172308E-5   -2.373036235147633E-3   -4.603977049168637E-1   -1.673296939570529E-3
 8.186472094750000E9    -5.363841494540625E-1   -7.903170041404761E-2    1.062299713276070E-4   -2.327847346902893E-3    4.993387814782496E-5   -2.403416068416828E-3   -4.602904070313221E-1    2.258213040761228E-3
 8.186541782300000E9    -5.370502354049731E-1   -7.429723766372508E-2    5.423300535285096E-5   -2.350596669375966E-3    3.395669381490928E-5   -2.425997721830817E-3   -4.603517263771589E-1    6.229124521907124E-3
 8.186611469850000E9    -5.376800191461579E-1   -6.960227584338807E-2    4.373856011194915E-5   -2.349354090175643E-3    7.054630034606546E-6   -2.376765123059379E-3   -4.601733292043648E-1    9.973806991800777E-3
 8.186681157400000E9    -5.383092507905802E-1   -6.453698228731992E-2    3.462627288420993E-5   -2.323227930782374E-3   -1.703957324558505E-5   -2.415492898305979E-3   -4.600425140821575E-1    1.386272241162897E-2
 8.186750844950000E9    -5.387665428613702E-1   -5.976593746092358E-2    1.533034147857969E-5   -2.335249394002873E-3   -5.253375208129508E-5   -2.389518021884997E-3   -4.597474858421548E-1    1.765520237396381E-2
 8.186820532500000E9    -5.392373802915674E-1   -5.485804578043117E-2   -1.371372054194843E-5   -2.341124832237436E-3   -6.199954782340682E-5   -2.405645432727587E-3   -4.593778859751473E-1    2.163783895983512E-2
 8.186890220050000E9    -5.398105318701092E-1   -5.006024454946138E-2   -2.820833937915762E-5   -2.325674660880658E-3   -7.137174690532905E-5   -2.443875959332369E-3   -4.589696494495145E-1    2.551573768989546E-2
 8.186959907600000E9    -5.401125931330683E-1   -4.535538670956982E-2   -4.232327852915938E-5   -2.350380356053182E-3   -9.426416804004696E-5   -2.412869314701336E-3   -4.589756984884202E-1    2.927359963231126E-2
 8.187029595150000E9    -5.404646478098146E-1   -4.022567274799834E-2   -5.663576775344068E-5   -2.320165887009138E-3   -1.119458871305981E-4   -2.407177242015536E-3   -4.586197241380714E-1    3.313149542748605E-2
 8.187099282700000E9    -5.409661608423827E-1   -3.556054724266911E-2   -7.376431783757900E-5   -2.361037735425490E-3   -1.492755527444608E-4   -2.413838398650008E-3   -4.583764165012149E-1    3.715448619834621E-2
 8.187168970250000E9    -5.411928216902628E-1   -3.061494540150759E-2   -1.252787467867662E-4   -2.320275836316866E-3   -1.743811446640848E-4   -2.430188294527232E-3   -4.577319411935555E-1    4.091844222657549E-2
 8.187238657800000E9    -5.412650508877577E-1   -2.575470610677558E-2   -1.124750725734163E-4   -2.352825585415178E-3   -1.479754346611646E-4   -2.399649223814358E-3   -4.573696420447318E-1    4.490650115144453E-2
 8.187308345350000E9    -5.415745128982317E-1   -2.077093002859315E-2   -1.191049148152256E-4   -2.344500176930821E-3   -1.783315255034247E-4   -2.415539293324871E-3   -4.568913339287851E-1    4.873952670381761E-2
 8.187378032900000E9    -5.417205330114524E-1   -1.610084844199760E-2   -1.688714540069380E-4   -2.317798555403529E-3   -2.091678382780432E-4   -2.389884702220054E-3   -4.563448095068984E-1    5.238964482427794E-2
 8.187447720450000E9    -5.417385042738730E-1   -1.118430413954617E-2   -1.734194022844874E-4   -2.333395913434630E-3   -2.488090447159167E-4   -2.405530485888813E-3   -4.558954573240994E-1    5.642602224800895E-2
 8.187517408000000E9    -5.419078092184091E-1   -6.256278793354629E-3   -1.919233488749831E-4   -2.314591581443670E-3   -2.704378351362243E-4   -2.406195843146798E-3   -4.553386504548486E-1    6.007599499008729E-2
 8.187587095550000E9    -5.418603344472940E-1   -1.506442819769400E-3   -2.031083647895685E-4   -2.330781196665830E-3   -2.711051912576631E-4   -2.397145043708301E-3   -4.547544546175089E-1    6.388125092222570E-2
 8.187656783100000E9    -5.419131522605435E-1    3.368123503900260E-3   -2.322836587882815E-4   -2.331055756211581E-3   -3.120650457764830E-4   -2.376227468486119E-3   -4.540589246330494E-1    6.782595206267965E-2
 8.187726470650000E9    -5.416575297633092E-1    8.262105590452515E-3   -2.574456116155767E-4   -2.313958904076651E-3   -3.223790604059886E-4   -2.430641062097958E-3   -4.533830503676237E-1    7.159409884309516E-2
 8.187796158200000E9    -5.415858367835537E-1    1.312877105969368E-2   -2.609242080899210E-4   -2.329463088232364E-3   -3.730503094244386E-4   -2.408948490960756E-3   -4.527257549788966E-1    7.546395940974923E-2
 8.187865845750000E9    -5.412870226606930E-1    1.797814055574332E-2   -2.994032766999369E-4   -2.353953693440245E-3   -3.948534352719916E-4   -2.416735187448863E-3   -4.520227785841049E-1    7.928203268092184E-2
 8.187935533300000E9    -5.413100242121799E-1    2.285259006032140E-2   -3.060738788849488E-4   -2.327070329499390E-3   -4.165624470390862E-4   -2.403089268690488E-3   -4.512217245208248E-1    8.290721860019530E-2
 8.188005220850000E9    -5.409839174054853E-1    2.774487064597374E-2   -3.445896261993628E-4   -2.339345205667897E-3   -4.321986641168097E-4   -2.399256217403335E-3   -4.503605839069924E-1    8.686295929773007E-2
 8.188074908400000E9    -5.407336523110016E-1    3.273400801766883E-2   -3.660712890971233E-4   -2.339501906601446E-3   -4.350425222534837E-4   -2.411668351504504E-3   -4.497217191531047E-1    9.056952598893982E-2
 8.188144595950000E9    -5.404247970514889E-1    3.756517295128086E-2   -3.813247034658803E-4   -2.317321783084666E-3   -4.486158661878296E-4   -2.390622014690110E-3   -4.487000032330758E-1    9.448446758305766E-2
 8.188214283500000E9    -5.399279434128954E-1    4.229458748159388E-2   -4.049155342038564E-4   -2.340049238496112E-3   -4.964324091830854E-4   -2.436561976717611E-3   -4.478695776838571E-1    9.809736141930692E-2
