#  HZ   S   RI   R     50.00 
! Rohde & Schwarz Vector Network Analyzer 
! Rohde-Schwarz,ZNB20-2Port,1311601062101988,3.16
! Created: UTC 3/20/2024, 4:52:02 PM
! freq[Hz]                re:S11                  im:S11                  re:S21                  im:S21                  re:S12                  im:S12                  re:S22                  im:S22
 8.195048328000000E9    -3.050888840515492E-1    4.430418450380930E-1   -2.265204818192746E-3   -1.326995761466170E-3   -2.409750834519953E-3   -1.255673768327261E-3   -2.181382852118965E-1    3.905406894134740E-1
 8.195058913925000E9    -3.044126213725782E-1    4.434274617810925E-1   -2.278885377407325E-3   -1.298907643262544E-3   -2.391364796046217E-3   -1.272756648441739E-3   -2.176728872976949E-1    3.907955964919082E-1
 8.195069499850000E9    -3.038016714501058E-1    4.439655375091214E-1   -2.272039838753474E-3   -1.309951712580842E-3   -2.376642976886963E-3   -1.242640806168826E-3   -2.170017774753707E-1    3.910447743816997E-1
 8.195080085775000E9    -3.031741716502706E-1    4.445358680234009E-1   -2.306773188719690E-3   -1.299789531832072E-3   -2.392949986335228E-3   -1.223402475159693E-3   -2.166410667137641E-1    3.913771742134737E-1
 8.195090671700000E9    -3.025776599030320E-1    4.448555193263932E-1   -2.300398726128336E-3   -1.304915510804200E-3   -2.422245282733928E-3   -1.264275691172584E-3   -2.160080010111940E-1    3.916238813657717E-1
 8.195101257625000E9    -3.019777615556408E-1    4.451957567399395E-1   -2.292829935159440E-3   -1.314434510430477E-3   -2.369533771532169E-3   -1.244308885657092E-3   -2.157157503687796E-1    3.920692514012688E-1
 8.195111843550000E9    -3.013290653373793E-1    4.455966260626451E-1   -2.283880623678385E-3   -1.285364853372740E-3   -2.392769214289695E-3   -1.267989481757227E-3   -2.149167830963364E-1    3.921531398236648E-1
 8.195122429475000E9    -3.006862162880033E-1    4.460801474872645E-1   -2.299686313001114E-3   -1.293197215726499E-3   -2.387614790325377E-3   -1.282732697647546E-3   -2.144105857793113E-1    3.923677601861037E-1
 8.195133015400000E9    -3.000326243993580E-1    4.465887886770255E-1   -2.320045930496506E-3   -1.279029785402255E-3   -2.401078574380406E-3   -1.255046292196193E-3   -2.138682642456252E-1    3.926792917458431E-1
 8.195143601325000E9    -2.993245164955681E-1    4.468719831285491E-1   -2.310640626814100E-3   -1.299851059932306E-3   -2.422317206111592E-3   -1.287401416498310E-3   -2.133568874250811E-1    3.930558488949202E-1
 8.195154187250000E9    -2.987025499030455E-1    4.472815102191961E-1   -2.300583263061678E-3   -1.305128913097132E-3   -2.395891677770481E-3   -1.264637826784516E-3   -2.130552460153783E-1    3.931258975356460E-1
 8.195164773175000E9    -2.981930970224068E-1    4.476357805539969E-1   -2.324162264074233E-3   -1.301848065821069E-3   -2.388560028298494E-3   -1.229466150773748E-3   -2.124310441216774E-1    3.934701082138826E-1
 8.195175359100000E9    -2.974222569912859E-1    4.480836929669964E-1   -2.309890362651671E-3   -1.291058516700692E-3   -2.402062077793900E-3   -1.200725915092338E-3   -2.118379660901352E-1    3.938274267864496E-1
 8.195185945025000E9    -2.969298685348111E-1    4.484135886487678E-1   -2.314032259548408E-3   -1.303485693073520E-3   -2.416742226843480E-3   -1.233917937296268E-3   -2.112572266355823E-1    3.940479321677358E-1
 8.195196530950000E9    -2.961547466525442E-1    4.489099036983633E-1   -2.301285869351271E-3   -1.303778597892046E-3   -2.441651167706888E-3   -1.225517858272924E-3   -2.107971523712469E-1    3.942502056103723E-1
 8.195207116875000E9    -2.955569748627858E-1    4.493932809146506E-1   -2.345394859693026E-3   -1.265364761295355E-3   -2.398923143342745E-3   -1.204446092854167E-3   -2.101922951790119E-1    3.945318982221305E-1
 8.195217702800000E9    -2.949279378106919E-1    4.498507149796721E-1   -2.312678526564891E-3   -1.273535159330089E-3   -2.436804930627056E-3   -1.241534355784845E-3   -2.097442818508094E-1    3.949046143582267E-1
 8.195228288725000E9    -2.943702292099897E-1    4.502177189120938E-1   -2.308501262549755E-3   -1.277079793877732E-3   -2.420489408267185E-3   -1.201852347721992E-3   -2.091192895462613E-1    3.951261702820939E-1
 8.195238874650000E9    -2.937374052248971E-1    4.505698191780104E-1   -2.324995179393864E-3   -1.272491669831717E-3   -2.420097278345365E-3   -1.222006809246240E-3   -2.086317402515473E-1    3.955084070594455E-1
 8.195249460575000E9    -2.930880581422486E-1    4.509465891397929E-1   -2.345217314853537E-3   -1.233444323734438E-3   -2.449892180154557E-3   -1.206853758557242E-3   -2.080596347129792E-1    3.956508373348164E-1
 8.195260046500000E9    -2.924072767043898E-1    4.514352118129145E-1   -2.320518359081450E-3   -1.247188731694663E-3   -2.460261898166988E-3   -1.208209726752263E-3   -2.076014254972197E-1    3.960661246208801E-1
 8.195270632425000E9    -2.918177204969288E-1    4.518466859409963E-1   -2.335220918425427E-3   -1.273982005245551E-3   -2.446887320646058E-3   -1.203517493550041E-3   -2.070650463427763E-1    3.961557359105297E-1
 8.195281218350000E9    -2.912314658781723E-1    4.522170642810073E-1   -2.336631944368217E-3   -1.265683342776416E-3   -2.447215062594851E-3   -1.217247391035365E-3   -2.065740295804742E-1    3.963828950342973E-1
 8.195291804275000E9    -2.905620866718540E-1    4.527290237430792E-1   -2.335566603342798E-3   -1.243369079258201E-3   -2.434026435975266E-3   -1.167962837206240E-3   -2.060036228084088E-1    3.966516159883077E-1
 8.195302390200000E9    -2.899230689449855E-1    4.530373078111742E-1   -2.324101894236404E-3   -1.252882563291320E-3   -2.461342515589601E-3   -1.185556202485018E-3   -2.055522709661261E-1    3.969876206739244E-1
 8.195312976125000E9    -2.892607682204433E-1    4.533407007880421E-1   -2.339631505698310E-3   -1.246347861998697E-3   -2.433429056948961E-3   -1.204607490425714E-3   -2.048740507139722E-1    3.972859903200532E-1
 8.195323562050000E9    -2.885656530795063E-1    4.538783576457039E-1   -2.369268408890296E-3   -1.277882084095816E-3   -2.477565304262455E-3   -1.170204077511270E-3   -2.044604514581244E-1    3.974157141314060E-1
 8.195334147975000E9    -2.880038012632439E-1    4.541207306488758E-1   -2.351638642219162E-3   -1.234431886881519E-3   -2.428223833002008E-3   -1.207299403847935E-3   -2.038953528754217E-1    3.978050867928214E-1
 8.195344733900000E9    -2.872599539104870E-1    4.545265977301484E-1   -2.340529556828363E-3   -1.229549253678754E-3   -2.476718346417132E-3   -1.178126343662543E-3   -2.034386829793657E-1    3.979812027634022E-1
 8.195355319825000E9    -2.866940070826399E-1    4.549389099161318E-1   -2.355039254837778E-3   -1.222376831015978E-3   -2.467389069484708E-3   -1.165250220428413E-3   -2.027929963052982E-1    3.981678789885473E-1
 8.195365905750000E9    -2.859633067013629E-1    4.552680544019435E-1   -2.352916521150033E-3   -1.231290253806269E-3   -2.437542805250428E-3   -1.183040330548808E-3   -2.022678908959284E-1    3.984576132975061E-1
 8.195376491675000E9    -2.854985171849353E-1    4.557430861199256E-1   -2.391963985706922E-3   -1.236858944690641E-3   -2.462145584839033E-3   -1.171264167049272E-3   -2.017091727789642E-1    3.987259164436868E-1
 8.195387077600000E9    -2.848416876665167E-1    4.560731444079931E-1   -2.383779183825316E-3   -1.219302026063110E-3   -2.460886961025774E-3   -1.177705230930886E-3   -2.010736124938974E-1    3.988750154122088E-1
 8.195397663525000E9    -2.841294415395860E-1    4.564723054605678E-1   -2.362414130839525E-3   -1.209084896390743E-3   -2.470679570656825E-3   -1.148769419968247E-3   -2.007457627936647E-1    3.993177380368009E-1
 8.195408249450000E9    -2.834788339459090E-1    4.569229438778810E-1   -2.378924268284195E-3   -1.249727349734117E-3   -2.456086888555036E-3   -1.160592471747818E-3   -2.001076696576424E-1    3.994885563527717E-1
 8.195418835375000E9    -2.828142889464200E-1    4.574223191725578E-1   -2.396962002966267E-3   -1.214648545106178E-3   -2.513208476972183E-3   -1.167599411858696E-3   -1.995758810119489E-1    3.996612353854289E-1
 8.195429421300000E9    -2.822332693704527E-1    4.577920721972128E-1   -2.391755055746084E-3   -1.222316019350777E-3   -2.486082454335567E-3   -1.141378786694652E-3   -1.990560194822674E-1    3.998921156400037E-1
 8.195440007225000E9    -2.816309405612831E-1    4.581075652756011E-1   -2.345502419552498E-3   -1.209193073021195E-3   -2.499195796363669E-3   -1.145019779309012E-3   -1.985049092330116E-1    4.002514273280047E-1
 8.195450593150000E9    -2.810048519591530E-1    4.584359156083285E-1   -2.368324389777219E-3   -1.196682051142948E-3   -2.484710889423130E-3   -1.153028971229014E-3   -1.979967037684106E-1    4.004086270488326E-1
 8.195461179075000E9    -2.802481759027915E-1    4.588423805458836E-1   -2.401436827410922E-3   -1.211337160775048E-3   -2.490853353805850E-3   -1.168351717416601E-3   -1.974573665779874E-1    4.006783064331346E-1
 8.195471765000000E9    -2.796373670788967E-1    4.591286291910719E-1   -2.400660727911577E-3   -1.215489609956497E-3   -2.482824485044598E-3   -1.150234195591210E-3   -1.968445296069861E-1    4.009216592069679E-1
 8.195482350925000E9    -2.789658924287496E-1    4.595037287643151E-1   -2.417677506334402E-3   -1.190584820282971E-3   -2.473858003537686E-3   -1.150657011919063E-3   -1.962893097859310E-1    4.013420539268479E-1
 8.195492936850000E9    -2.782349913573555E-1    4.599528554926389E-1   -2.391571962742390E-3   -1.206465873730592E-3   -2.488559019194988E-3   -1.144229029430130E-3   -1.958338988862771E-1    4.015986043353330E-1
 8.195503522775000E9    -2.778135018828676E-1    4.603636467339751E-1   -2.384671644195389E-3   -1.201820106064789E-3   -2.518719260566307E-3   -1.137521643806676E-3   -1.953884872775365E-1    4.016533425627237E-1
 8.195514108700000E9    -2.771385739548341E-1    4.608231816978515E-1   -2.378202132717259E-3   -1.205379891163274E-3   -2.498107132570927E-3   -1.137595276383733E-3   -1.946952277616649E-1    4.019624686887578E-1
 8.195524694625000E9    -2.764776344670348E-1    4.611189690600777E-1   -2.376969069445803E-3   -1.181338212842653E-3   -2.516215262367550E-3   -1.128895555718902E-3   -1.940536641026493E-1    4.022113467141326E-1
 8.195535280550000E9    -2.755614316868754E-1    4.614716827510676E-1   -2.431174494591825E-3   -1.178405193539945E-3   -2.493747731021153E-3   -1.109651417913243E-3   -1.937108849063117E-1    4.023345270249351E-1
 8.195545866475000E9    -2.749596922586791E-1    4.618947193930993E-1   -2.428915957030564E-3   -1.169456580250088E-3   -2.516463607091130E-3   -1.113753122809561E-3   -1.931212316316021E-1    4.026641871002146E-1
 8.195556452400000E9    -2.743628426836895E-1    4.622798205887501E-1   -2.429554712726222E-3   -1.168613329245985E-3   -2.485564992290126E-3   -1.106790127154042E-3   -1.925143147810512E-1    4.029496693738659E-1
 8.195567038325000E9    -2.737502224313892E-1    4.626300373644615E-1   -2.412701208008791E-3   -1.171330723036254E-3   -2.510355009774897E-3   -1.115866161703521E-3   -1.920152868173509E-1    4.031240158815036E-1
 8.195577624250000E9    -2.731265905169042E-1    4.630627405245614E-1   -2.426495316705775E-3   -1.168740597428865E-3   -2.519484630589560E-3   -1.129399607638450E-3   -1.914251563676191E-1    4.033661941163627E-1
 8.195588210175000E9    -2.724260725902493E-1    4.632777312741343E-1   -2.406442359664127E-3   -1.176646160372450E-3   -2.506693241918575E-3   -1.118288796494451E-3   -1.910382094540131E-1    4.036400837626108E-1
 8.195598796100000E9    -2.717672858556618E-1    4.637834879439912E-1   -2.414300704833378E-3   -1.200798177372947E-3   -2.536457038492256E-3   -1.120092211138331E-3   -1.904819355740519E-1    4.038765078073920E-1
 8.195609382025000E9    -2.711686556416720E-1    4.640653662624878E-1   -2.430536026085329E-3   -1.148792893991183E-3   -2.536660647590817E-3   -1.102844155859836E-3   -1.899360840808782E-1    4.040160276088224E-1
 8.195619967950000E9    -2.704903522239088E-1    4.644677105651281E-1   -2.445407762620800E-3   -1.163253560936865E-3   -2.556720547062769E-3   -1.119092742158880E-3   -1.893433016509715E-1    4.043134254805907E-1
 8.195630553875000E9    -2.697537857648638E-1    4.648738126771937E-1   -2.428533026287456E-3   -1.162183727400582E-3   -2.555931031542508E-3   -1.067266506613163E-3   -1.887269910139527E-1    4.045165406220691E-1
 8.195641139800000E9    -2.693145043208965E-1    4.652175582870740E-1   -2.440093101002456E-3   -1.158239351466982E-3   -2.516295088221099E-3   -1.120021585146490E-3   -1.882135832067862E-1    4.046945290039396E-1
 8.195651725725000E9    -2.686311878559156E-1    4.656132906031242E-1   -2.434909050721885E-3   -1.147264423406251E-3   -2.539862775915989E-3   -1.082173524533970E-3   -1.876886380033765E-1    4.050187701254147E-1
 8.195662311650000E9    -2.679656925933723E-1    4.659900427014657E-1   -2.418309880006471E-3   -1.128550267928623E-3   -2.519398176804373E-3   -1.072240990219957E-3   -1.870607543366794E-1    4.053038065092833E-1
 8.195672897575000E9    -2.672812842970671E-1    4.663284819006738E-1   -2.423954865484091E-3   -1.149839444532746E-3   -2.542971506946495E-3   -1.067289299721747E-3   -1.867072937695951E-1    4.054742260584737E-1
 8.195683483500000E9    -2.665585840109752E-1    4.668181430968815E-1   -2.449123627239552E-3   -1.126017746158526E-3   -2.552808081056674E-3   -1.046910183211530E-3   -1.861415897354109E-1    4.056930515277007E-1
 8.195694069425000E9    -2.658974441085358E-1    4.670961626270407E-1   -2.444059518792302E-3   -1.145334773623290E-3   -2.531253117896314E-3   -1.052435348918748E-3   -1.855538295660631E-1    4.059082857365815E-1
 8.195704655350000E9    -2.652896643029549E-1    4.673419096867755E-1   -2.468934684527936E-3   -1.149976563403143E-3   -2.532940598597702E-3   -1.095245254287981E-3   -1.850117861962736E-1    4.062159951280598E-1
 8.195715241275000E9    -2.645646303882477E-1    4.678402364102310E-1   -2.424655034706280E-3   -1.126041023853280E-3   -2.559146325597716E-3   -1.090366537184077E-3   -1.843120683334902E-1    4.064359592389256E-1
 8.195725827200000E9    -2.638113023673422E-1    4.680693686537268E-1   -2.468182073704499E-3   -1.139687381946399E-3   -2.549436615069883E-3   -1.068233491596967E-3   -1.839573420058260E-1    4.066903245279438E-1
 8.195736413125000E9    -2.633467152514631E-1    4.684189326059165E-1   -2.449972838666094E-3   -1.134912879946977E-3   -2.558997609631545E-3   -1.057981084150906E-3   -1.834400847894054E-1    4.068539762797556E-1
 8.195746999050000E9    -2.626417064868713E-1    4.688770755921891E-1   -2.485478231469101E-3   -1.128654566000255E-3   -2.565058296242635E-3   -1.073452871339863E-3   -1.828539721824972E-1    4.070484911634569E-1
 8.195757584975000E9    -2.620392457510408E-1    4.691267262496991E-1   -2.470973346138270E-3   -1.118952323194365E-3   -2.566687767711703E-3   -1.074156062145405E-3   -1.822976175527311E-1    4.072839953670613E-1
 8.195768170900000E9    -2.613241834743305E-1    4.695963668238052E-1   -2.479060385022642E-3   -1.129153213950370E-3   -2.579147700545063E-3   -1.051376701871205E-3   -1.816039011096047E-1    4.073908548299027E-1
 8.195778756825000E9    -2.605920756486341E-1    4.699710822697951E-1   -2.471153225578642E-3   -1.128393716070064E-3   -2.560199842121581E-3   -1.023999679562562E-3   -1.812227849058549E-1    4.078373095277135E-1
 8.195789342750000E9    -2.599825758079529E-1    4.702810924757020E-1   -2.485953283312503E-3   -1.113386052678643E-3   -2.557320452093546E-3   -1.076039472874494E-3   -1.805555608068080E-1    4.080221723501999E-1
 8.195799928675000E9    -2.592881201873588E-1    4.707499519111850E-1   -2.464357033532635E-3   -1.120285480222853E-3   -2.578504209116919E-3   -1.045915276935652E-3   -1.800976820818288E-1    4.082871739720699E-1
 8.195810514600000E9    -2.586261994892877E-1    4.710338276082243E-1   -2.477725134671039E-3   -1.146275439363397E-3   -2.590945406151322E-3   -1.052846510956033E-3   -1.796836095246602E-1    4.084070915726216E-1
 8.195821100525000E9    -2.578577086401140E-1    4.713878983778588E-1   -2.493243750054350E-3   -1.095900463834239E-3   -2.587344438758873E-3   -1.006114136795384E-3   -1.789756443981198E-1    4.087326221451961E-1
 8.195831686450000E9    -2.573274515082871E-1    4.717190712228009E-1   -2.496231284373751E-3   -1.094487494364640E-3   -2.605124935748090E-3   -1.064970722424035E-3   -1.784739271959077E-1    4.089180886785453E-1
 8.195842272375000E9    -2.566131479475411E-1    4.720158605208440E-1   -2.496607213944760E-3   -1.089891187656532E-3   -2.571705220470920E-3   -9.988091084627603E-4   -1.779567296614390E-1    4.091467763772834E-1
 8.195852858300000E9    -2.559917170610406E-1    4.724823809350255E-1   -2.508746484720473E-3   -1.125508103738201E-3   -2.578617520040335E-3   -1.039582481421587E-3   -1.772925415576815E-1    4.094453583754919E-1
 8.195863444225000E9    -2.553831844777129E-1    4.728498140299680E-1   -2.531162690947856E-3   -1.092031441929796E-3   -2.583699158383236E-3   -1.029156002614044E-3   -1.768108374498133E-1    4.094455033799873E-1
 8.195874030150000E9    -2.546431174673167E-1    4.731327364733848E-1   -2.491532164683732E-3   -1.090735108798807E-3   -2.576548041603969E-3   -1.032962141826048E-3   -1.761127855393391E-1    4.096630035030191E-1
 8.195884616075000E9    -2.538652492316726E-1    4.735993511295732E-1   -2.484966609215823E-3   -1.080409918195302E-3   -2.599493740542266E-3   -1.018229779200230E-3   -1.755939527678081E-1    4.098911430963048E-1
 8.195895202000000E9    -2.532197758188612E-1    4.737672062016370E-1   -2.527355541292725E-3   -1.101892948860792E-3   -2.605624762167225E-3   -1.028873290773340E-3   -1.750770935778417E-1    4.101886372248001E-1
 8.195905787925000E9    -2.526204838131132E-1    4.741877775680104E-1   -2.511206698570692E-3   -1.088018677218496E-3   -2.613882492963982E-3   -1.035280745171763E-3   -1.744786804175292E-1    4.104434711579844E-1
 8.195916373850000E9    -2.519044894293525E-1    4.744978164433293E-1   -2.512522354021316E-3   -1.052583981666829E-3   -2.619443431107386E-3   -1.002152212899942E-3   -1.739711691160983E-1    4.106314159713313E-1
 8.195926959775000E9    -2.512412196633983E-1    4.747973852252604E-1   -2.521938856401893E-3   -1.104097042517995E-3   -2.638577152883642E-3   -1.017089263043362E-3   -1.734942504285366E-1    4.109763901983900E-1
 8.195937545700000E9    -2.506319193515448E-1    4.751776407917487E-1   -2.529607919149112E-3   -1.062169789765255E-3   -2.674414294406100E-3   -1.001645222416322E-3   -1.728737395518494E-1    4.111585633408077E-1
 8.195948131625000E9    -2.498192449902557E-1    4.755527890636189E-1   -2.510755495025041E-3   -1.063026693184822E-3   -2.603168885766159E-3   -1.007104631868109E-3   -1.723823452267760E-1    4.112979259010934E-1
 8.195958717550000E9    -2.492311151349495E-1    4.760451015233764E-1   -2.542006496932673E-3   -1.083288714950049E-3   -2.600348388787297E-3   -9.751081264892111E-4   -1.718552303113615E-1    4.113893214862773E-1
 8.195969303475000E9    -2.485013877500857E-1    4.761771925960421E-1   -2.536384514073908E-3   -1.066732530595748E-3   -2.629982293405353E-3   -9.665398893463448E-4   -1.712672724663749E-1    4.116848450078418E-1
 8.195979889400000E9    -2.477939461636814E-1    4.765276935560759E-1   -2.557909660813916E-3   -1.075361385619277E-3   -2.624430696221998E-3   -9.741939686406416E-4   -1.707878090199415E-1    4.118382588818071E-1
 8.195990475325000E9    -2.472266052745177E-1    4.768568665801743E-1   -2.531165998047983E-3   -1.067825789300985E-3   -2.625990559868027E-3   -9.748941000512693E-4   -1.700636450088547E-1    4.120689836985563E-1
 8.196001061250000E9    -2.464860157679644E-1    4.771876205576180E-1   -2.526642428161478E-3   -1.037538741543561E-3   -2.628691676636402E-3   -9.695580771538864E-4   -1.695884319379913E-1    4.124505666465960E-1
