#  HZ   S   RI   R     50.00 
! Rohde & Schwarz Vector Network Analyzer 
! Rohde-Schwarz,ZNB20-2Port,1311601062101988,3.16
! Created: UTC 3/20/2024, 5:07:36 PM
! freq[Hz]                re:S11                  im:S11                  re:S21                  im:S21                  re:S12                  im:S12                  re:S22                  im:S22
 8.183501292000000E9    -4.689816955962402E-1   -2.735969030760041E-1    8.944726572307721E-4   -2.111291371962365E-3    8.809137488097044E-4   -2.164249508188949E-3   -4.348184390788366E-1   -1.599897429030999E-1
 8.183564003725000E9    -4.712365946867657E-1   -2.698148980558625E-1    8.769132210329247E-4   -2.095718146787979E-3    8.998777146618306E-4   -2.214761672707244E-3   -4.359504156766353E-1   -1.567274263542003E-1
 8.183626715450000E9    -4.733479764138757E-1   -2.658984400751291E-1    8.782239806720234E-4   -2.108948532929937E-3    8.647691449233511E-4   -2.215125683720780E-3   -4.370165081108737E-1   -1.534740984159450E-1
 8.183689427175000E9    -4.754906835748724E-1   -2.621390112711756E-1    8.552651037358605E-4   -2.113728058057215E-3    8.279163319003785E-4   -2.206810180857624E-3   -4.380666301875326E-1   -1.501386914946107E-1
 8.183752138900000E9    -4.776999548087623E-1   -2.581330803135628E-1    8.457382731492963E-4   -2.103290553449217E-3    8.088281035922739E-4   -2.217366553609539E-3   -4.393090977341389E-1   -1.467464209448976E-1
 8.183814850625000E9    -4.795555925158628E-1   -2.543589888588257E-1    8.233132760586618E-4   -2.132042344328542E-3    8.114329977854781E-4   -2.217901203644020E-3   -4.403332491165253E-1   -1.434532755368189E-1
 8.183877562350000E9    -4.816591572965774E-1   -2.507015314344623E-1    8.073444015332710E-4   -2.122382167771958E-3    7.733777252557328E-4   -2.249402594145718E-3   -4.411674077096137E-1   -1.402393300442466E-1
 8.183940274075000E9    -4.836889176732606E-1   -2.466948178081592E-1    7.895692172944490E-4   -2.121951522186294E-3    7.977102785073129E-4   -2.215564601653792E-3   -4.421259859901764E-1   -1.367908936058946E-1
 8.184002985800000E9    -4.855913765438241E-1   -2.427421170136364E-1    7.835509784992733E-4   -2.137772221779492E-3    7.733471690608922E-4   -2.238870607695309E-3   -4.432000831348187E-1   -1.333680727506143E-1
 8.184065697525000E9    -4.875131904463409E-1   -2.388267770294778E-1    7.597208434117827E-4   -2.145166519938362E-3    7.452618241849767E-4   -2.287663579759618E-3   -4.442222599193821E-1   -1.300696792937468E-1
 8.184128409250000E9    -4.894028302417484E-1   -2.348940818585258E-1    7.348637731676833E-4   -2.175445369315000E-3    7.400452941584954E-4   -2.245269794542086E-3   -4.450501074585557E-1   -1.266721341091532E-1
 8.184191120975000E9    -4.914028834805929E-1   -2.309215281342464E-1    7.284938652570868E-4   -2.178435895508131E-3    7.106126350268740E-4   -2.279954068893174E-3   -4.460471853523598E-1   -1.231948351822456E-1
 8.184253832700000E9    -4.931845118950293E-1   -2.270002413121639E-1    7.296039876003269E-4   -2.154682215377512E-3    7.067410817168679E-4   -2.285535444809807E-3   -4.469091461598898E-1   -1.199257252312064E-1
 8.184316544425000E9    -4.948919787891629E-1   -2.230010025801880E-1    6.954511850441184E-4   -2.156194318021776E-3    6.824486867685412E-4   -2.276203719061517E-3   -4.475337356560794E-1   -1.165214049643837E-1
 8.184379256150000E9    -4.967654535407124E-1   -2.190765473309181E-1    7.070583330289045E-4   -2.186697173532917E-3    6.610002134994801E-4   -2.273760080846102E-3   -4.485247596780327E-1   -1.129830503794421E-1
 8.184441967875000E9    -4.983287384505386E-1   -2.149746097039418E-1    6.519186985841224E-4   -2.189005036628053E-3    6.655172613932961E-4   -2.300460238884484E-3   -4.491719756502249E-1   -1.098674656570604E-1
 8.184504679600000E9    -5.001761624152561E-1   -2.108929184226209E-1    6.746206622874676E-4   -2.187264152799229E-3    6.291842118665908E-4   -2.273659159024191E-3   -4.498481972395094E-1   -1.064406449923345E-1
 8.184567391325000E9    -5.017433022787685E-1   -2.069902647080903E-1    6.072965178849856E-4   -2.193458726431625E-3    6.380856500647563E-4   -2.286151194619630E-3   -4.506291722506912E-1   -1.029231574851749E-1
 8.184630103050000E9    -5.032714553909444E-1   -2.029484873213167E-1    6.122306242524088E-4   -2.186390638938661E-3    6.174119284332131E-4   -2.293509589137939E-3   -4.513614063419306E-1   -9.941462401715923E-2
 8.184692814775000E9    -5.049876092845932E-1   -1.989086919340922E-1    5.838039853657937E-4   -2.204758870635186E-3    5.861026328644895E-4   -2.294558069386625E-3   -4.519813559791817E-1   -9.612281281703894E-2
 8.184755526500000E9    -5.065302956579841E-1   -1.947676983815590E-1    5.543295741733043E-4   -2.226174546813757E-3    5.757512154767853E-4   -2.274879885990100E-3   -4.526969279298689E-1   -9.258040205576203E-2
 8.184818238225000E9    -5.079383893564514E-1   -1.905933538141601E-1    5.686310171332897E-4   -2.255566417044395E-3    5.125437093820947E-4   -2.313359462430609E-3   -4.532327856824483E-1   -8.912357139941952E-2
 8.184880949950000E9    -5.095213194156346E-1   -1.865593068487360E-1    5.405568708197791E-4   -2.208986390155931E-3    5.237638407366977E-4   -2.300019384387890E-3   -4.540017147778577E-1   -8.558847363177881E-2
 8.184943661675000E9    -5.111685002013162E-1   -1.823879252776184E-1    5.359663547763835E-4   -2.225137198088939E-3    4.891616761608683E-4   -2.396081483435654E-3   -4.546245033217634E-1   -8.228678831320677E-2
 8.185006373400000E9    -5.125111907221390E-1   -1.783192483637551E-1    5.102324691415618E-4   -2.253325056650805E-3    4.836552326408668E-4   -2.307655303861749E-3   -4.550938721063181E-1   -7.881128940854037E-2
 8.185069085125000E9    -5.139286014488651E-1   -1.740365638270505E-1    4.747370267150912E-4   -2.235741236015485E-3    4.725948336619911E-4   -2.331041951936909E-3   -4.555472947115037E-1   -7.548355022574704E-2
 8.185131796850000E9    -5.152704116380751E-1   -1.700688063244071E-1    4.610659847733431E-4   -2.257917441470638E-3    4.710508879382386E-4   -2.314347747066698E-3   -4.563005310229107E-1   -7.191265947421757E-2
 8.185194508575000E9    -5.166281232088994E-1   -1.658181270957635E-1    4.506198189589486E-4   -2.262759315147783E-3    4.271829968221406E-4   -2.312901158223939E-3   -4.565323858029467E-1   -6.849951483448430E-2
 8.185257220300000E9    -5.179094309199714E-1   -1.616841193617786E-1    4.472360343589957E-4   -2.261532665172763E-3    4.146027303831868E-4   -2.355286788532000E-3   -4.568926115609310E-1   -6.501055568028953E-2
 8.185319932025000E9    -5.191650476212251E-1   -1.574027571263091E-1    4.194618632087549E-4   -2.265847394366643E-3    4.046883958680499E-4   -2.342780178806052E-3   -4.574882476186710E-1   -6.166299421051631E-2
 8.185382643750000E9    -5.203430653784068E-1   -1.533797346528644E-1    4.359428890252101E-4   -2.248447293435530E-3    3.814406774393212E-4   -2.338292587775928E-3   -4.578341243580353E-1   -5.796946506946432E-2
 8.185445355475000E9    -5.215829914638147E-1   -1.491622401535427E-1    3.868579024788294E-4   -2.248703132291276E-3    3.561822782950409E-4   -2.391602136653119E-3   -4.582386623791021E-1   -5.460480319093894E-2
 8.185508067200000E9    -5.227944178781823E-1   -1.449722463250988E-1    3.660729712244693E-4   -2.286497788901309E-3    3.270408366776060E-4   -2.378371407983748E-3   -4.582970893036137E-1   -5.112622423607683E-2
 8.185570778925000E9    -5.240211613237499E-1   -1.407066737803674E-1    3.414256703620247E-4   -2.296324413885984E-3    3.139413010296845E-4   -2.359455141038364E-3   -4.587184846262640E-1   -4.757522668690147E-2
 8.185633490650000E9    -5.249665152852452E-1   -1.364883735823836E-1    3.330734755306937E-4   -2.294835665835998E-3    3.262372211020132E-4   -2.362151172100772E-3   -4.589703823523588E-1   -4.420793122962149E-2
 8.185696202375000E9    -5.260544532025198E-1   -1.322542538971107E-1    3.107595733755693E-4   -2.280073580562928E-3    2.654698072662045E-4   -2.382542155303635E-3   -4.594470975746138E-1   -4.063555457962258E-2
 8.185758914100000E9    -5.270602888481158E-1   -1.279444427353743E-1    2.885711494122448E-4   -2.285936198195606E-3    2.959898285862011E-4   -2.387587523990905E-3   -4.595572054649329E-1   -3.707197534063937E-2
 8.185821625825000E9    -5.281643970923779E-1   -1.236333389269421E-1    2.619927344880563E-4   -2.308885544411905E-3    2.561877485149263E-4   -2.368271708162903E-3   -4.598640941630527E-1   -3.375984994658168E-2
 8.185884337550000E9    -5.292020332195313E-1   -1.193920104094969E-1    2.676465909587110E-4   -2.302802861161419E-3    2.361801620316439E-4   -2.384814706488477E-3   -4.600867300033983E-1   -3.025427167603683E-2
 8.185947049275000E9    -5.299522985340420E-1   -1.152196405017244E-1    2.550242108022078E-4   -2.313688264718518E-3    2.276761881852109E-4   -2.377037863879765E-3   -4.601961224051834E-1   -2.677771593651892E-2
 8.186009761000000E9    -5.309733210832321E-1   -1.108135705746142E-1    2.343435172096340E-4   -2.311892296515055E-3    1.993355165475802E-4   -2.402557338132339E-3   -4.603392732905731E-1   -2.329434110550530E-2
 8.186072472725000E9    -5.317793744405702E-1   -1.066598609775761E-1    2.276634092089914E-4   -2.332846899282685E-3    1.952136692369195E-4   -2.398008502788992E-3   -4.602335571414926E-1   -1.979224630813956E-2
 8.186135184450000E9    -5.324963480648937E-1   -1.022622412778862E-1    1.854704132716128E-4   -2.304653876471938E-3    1.519687713130866E-4   -2.409164634463174E-3   -4.603520788666871E-1   -1.632155740241291E-2
 8.186197896175000E9    -5.333072195189580E-1   -9.807178382908431E-2    1.869386004181957E-4   -2.324469894597401E-3    1.519246175688500E-4   -2.370037992390082E-3   -4.603526742140925E-1   -1.290674346493951E-2
 8.186260607900000E9    -5.340701742078104E-1   -9.369882267397706E-2    1.638491232388104E-4   -2.319617423273679E-3    1.416463095140517E-4   -2.402354606883260E-3   -4.603956155880632E-1   -9.310729833875033E-3
 8.186323319625000E9    -5.348669067041072E-1   -8.935159282668899E-2    1.517854354389223E-4   -2.327533724066153E-3    7.468956712151701E-5   -2.403442590786193E-3   -4.604052557762023E-1   -5.959717979080939E-3
 8.186386031350000E9    -5.354917104118115E-1   -8.497958971599892E-2    1.187426050187185E-4   -2.331006915091123E-3    8.042968507598029E-5   -2.398730541266086E-3   -4.604233510130710E-1   -2.367565214335475E-3
 8.186448743075000E9    -5.362416383117631E-1   -8.071022169025104E-2    1.102707011527267E-4   -2.316658652409201E-3    7.506798557735809E-5   -2.396146414944919E-3   -4.603371977198358E-1    1.148736852708784E-3
 8.186511454800000E9    -5.366561751633256E-1   -7.630578750095315E-2    8.843356216704407E-5   -2.307434338995742E-3    1.259945585405132E-5   -2.390825778244885E-3   -4.603195532781484E-1    4.528903736750686E-3
 8.186574166525000E9    -5.372749442148606E-1   -7.193179916066024E-2    7.858696840633605E-5   -2.310041047599095E-3    5.077845625753262E-5   -2.405082123695579E-3   -4.601445343571804E-1    8.101903384029390E-3
 8.186636878250000E9    -5.378096648931500E-1   -6.769451615854569E-2    3.769251164178631E-5   -2.316823673996413E-3   -2.393220234434880E-5   -2.412564868552523E-3   -4.601806164116706E-1    1.168396631843872E-2
 8.186699589975000E9    -5.383639359123890E-1   -6.329579182248717E-2    2.663601435508371E-5   -2.326864179636516E-3   -1.226836062975717E-5   -2.421080311576672E-3   -4.598653119773153E-1    1.494193878993535E-2
 8.186762301700000E9    -5.388679043017788E-1   -5.889962711822810E-2    3.635638947406756E-5   -2.339254233698407E-3   -5.915948084067790E-5   -2.403346594827273E-3   -4.596816372412629E-1    1.850090088083830E-2
 8.186825013425000E9    -5.392075808047415E-1   -5.454691198655424E-2    1.055114212510956E-5   -2.337365574608819E-3   -5.100772787601382E-5   -2.393365742176627E-3   -4.594334808949137E-1    2.205532424231040E-2
 8.186887725150000E9    -5.396837837979953E-1   -5.022104090079658E-2   -3.258727972507794E-5   -2.341866023971847E-3   -4.193539822052490E-5   -2.440325366916690E-3   -4.591905130237792E-1    2.557222265955046E-2
 8.186950436875000E9    -5.400727287449345E-1   -4.587524455238376E-2   -5.415475023373903E-5   -2.346204294354557E-3   -1.054028888077479E-4   -2.417641030755060E-3   -4.589740211259640E-1    2.902556278898178E-2
 8.187013148600000E9    -5.404288195013317E-1   -4.155193638320322E-2   -4.163123054915976E-5   -2.331839135500272E-3   -1.176597852434366E-4   -2.426456808978895E-3   -4.587172688948485E-1    3.251750241706523E-2
 8.187075860325000E9    -5.405824498604713E-1   -3.715026640889910E-2   -7.062746084979081E-5   -2.322445244395722E-3   -1.127306043188294E-4   -2.393995009191005E-3   -4.582249788103077E-1    3.598405597444319E-2
 8.187138572050000E9    -5.408752585300957E-1   -3.282544249656635E-2   -1.058478711618869E-4   -2.347160574576258E-3   -1.461325212789538E-4   -2.388851178887463E-3   -4.578731699045073E-1    3.947910996573194E-2
 8.187201283775000E9    -5.411783563389100E-1   -2.835351438507821E-2   -1.373439441194136E-4   -2.343848271080968E-3   -1.625734423628664E-4   -2.418078916435973E-3   -4.576622724953252E-1    4.298068545339358E-2
 8.187263995500000E9    -5.414573242955724E-1   -2.402858301204954E-2   -1.253583240993466E-4   -2.311518444568604E-3   -1.802381320622923E-4   -2.414220594626650E-3   -4.571338741068333E-1    4.637876170340607E-2
 8.187326707225000E9    -5.415055752026281E-1   -1.967967840259326E-2   -1.628570346074419E-4   -2.320925519042075E-3   -2.360707524083598E-4   -2.431649692639027E-3   -4.566708051127298E-1    4.980934110670601E-2
 8.187389418950000E9    -5.417241169342086E-1   -1.533434216817275E-2   -1.495811240773375E-4   -2.309885993925134E-3   -2.240724344995413E-4   -2.402714366156384E-3   -4.564924644094194E-1    5.319885219162403E-2
 8.187452130675000E9    -5.417913827862065E-1   -1.084927581093382E-2   -1.974924748552873E-4   -2.332784631645944E-3   -2.510027440679401E-4   -2.415895981841320E-3   -4.557190451959148E-1    5.668510178021717E-2
 8.187514842400000E9    -5.417435318861338E-1   -6.586386897467050E-3   -2.226074315388256E-4   -2.368777832078229E-3   -2.622699948319504E-4   -2.380930305745415E-3   -4.552303825823988E-1    6.021770633937479E-2
 8.187577554125000E9    -5.418948212965747E-1   -2.050458359604060E-3   -2.152143192820347E-4   -2.324853237589559E-3   -2.579651931417387E-4   -2.398300179212483E-3   -4.547566605059136E-1    6.345980063511018E-2
 8.187640265850000E9    -5.417556221028167E-1    2.255772795060679E-3   -2.342022106891926E-4   -2.331368485807446E-3   -2.820123874562070E-4   -2.425927576315418E-3   -4.542155176290811E-1    6.679780782932654E-2
 8.187702977575000E9    -5.416907611347656E-1    6.742174854723552E-3   -2.318715358823205E-4   -2.339123544655824E-3   -3.141532118581314E-4   -2.408772998358711E-3   -4.535676405335348E-1    7.040039691485511E-2
 8.187765689300000E9    -5.415898133639658E-1    1.103309425709447E-2   -2.596421612930749E-4   -2.341400354448785E-3   -3.514200659170793E-4   -2.400078139925019E-3   -4.530002444315061E-1    7.386521774468001E-2
 8.187828401025000E9    -5.414906484365390E-1    1.548372381469374E-2   -3.357702394827326E-4   -2.339190329493053E-3   -3.513474835097208E-4   -2.388879211504086E-3   -4.523425090417957E-1    7.728897141373416E-2
 8.187891112750000E9    -5.413591499292986E-1    1.969814624608714E-2   -3.335237362471868E-4   -2.315986876506552E-3   -3.953925945316931E-4   -2.432943448027111E-3   -4.517462262700057E-1    8.073308176714020E-2
 8.187953824475000E9    -5.410291664897835E-1    2.403140574237071E-2   -3.226978864252295E-4   -2.343354537987638E-3   -3.916208107049167E-4   -2.396149151924744E-3   -4.510492776717179E-1    8.417608925777058E-2
 8.188016536200000E9    -5.408147789480567E-1    2.847125498814104E-2   -3.540744346157050E-4   -2.346488610189127E-3   -3.972366510314804E-4   -2.394204350250785E-3   -4.502380402630951E-1    8.755730724377592E-2
 8.188079247925000E9    -5.406631157787689E-1    3.281722963120237E-2   -3.749849091780748E-4   -2.329875388411810E-3   -4.071500022371004E-4   -2.371919607726948E-3   -4.494889431028346E-1    9.084391672775682E-2
 8.188141959650000E9    -5.403931303743299E-1    3.724705428847105E-2   -4.055110829205036E-4   -2.322676842699775E-3   -4.697246018933771E-4   -2.399612642103413E-3   -4.487257884698714E-1    9.445018163120544E-2
 8.188204671375000E9    -5.398778705654770E-1    4.159855497130851E-2   -3.948615173786400E-4   -2.322141747326604E-3   -4.533614797295885E-4   -2.407184209325809E-3   -4.479246339661471E-1    9.778087402242802E-2
 8.188267383100000E9    -5.396184277357553E-1    4.611683060602865E-2   -4.130946831646475E-4   -2.330522882407071E-3   -5.159219446499951E-4   -2.395282845178897E-3   -4.472244552703419E-1    1.011084128847345E-1
 8.188330094825000E9    -5.390905130014934E-1    5.045235597790014E-2   -4.449532133079452E-4   -2.320822052435372E-3   -5.137663252923800E-4   -2.407024596325077E-3   -4.462984572563838E-1    1.045672132927122E-1
 8.188392806550000E9    -5.387522727560002E-1    5.480456219771996E-2   -4.530288528408198E-4   -2.333999341234686E-3   -5.357851602500498E-4   -2.366718284075979E-3   -4.454071712337578E-1    1.078919581390632E-1
 8.188455518275000E9    -5.382618342729463E-1    5.921267964366192E-2   -4.706626359775638E-4   -2.319028241840789E-3   -5.395491033772733E-4   -2.402046158991728E-3   -4.444289718577389E-1    1.113630466614704E-1
 8.188518230000000E9    -5.378067455370945E-1    6.344749189960536E-2   -5.111849450563615E-4   -2.287698913421637E-3   -5.743485417475226E-4   -2.403942753065375E-3   -4.435183711505198E-1    1.145624368540661E-1
 8.188580941725000E9    -5.371641762600992E-1    6.780300358787417E-2   -5.153970377991367E-4   -2.307882462048249E-3   -5.365890354126008E-4   -2.373180923829012E-3   -4.426545195526640E-1    1.180226769958348E-1
 8.188643653450000E9    -5.366380847754700E-1    7.229174902875975E-2   -5.204732633598602E-4   -2.302884421510602E-3   -6.178904148667489E-4   -2.404020385216471E-3   -4.417650956943608E-1    1.213056824215192E-1
 8.188706365175000E9    -5.359620301930218E-1    7.664957189533761E-2   -5.767323749901594E-4   -2.309551995234423E-3   -6.598124080079902E-4   -2.401863720729304E-3   -4.407116953510214E-1    1.247360592430699E-1
 8.188769076900000E9    -5.352778674478555E-1    8.084480768417872E-2   -5.593682116699721E-4   -2.311907544529435E-3   -6.535746372031237E-4   -2.379262053953806E-3   -4.397058135333752E-1    1.280463596864284E-1
 8.188831788625000E9    -5.345344356990621E-1    8.525173292574598E-2   -5.902157594709935E-4   -2.295047038385453E-3   -6.738736586706508E-4   -2.369810816816588E-3   -4.384891666207494E-1    1.313989256417246E-1
 8.188894500350000E9    -5.338140508135899E-1    8.943360395405409E-2   -5.957621232883086E-4   -2.268657080534224E-3   -6.748835887303564E-4   -2.375233675337421E-3   -4.375473988103824E-1    1.348153393465486E-1
 8.188957212075000E9    -5.329724476289990E-1    9.383298645222218E-2   -6.278398712158725E-4   -2.294985025618295E-3   -7.233724753455202E-4   -2.345863876937253E-3   -4.362875115898665E-1    1.379220337754456E-1
 8.189019923800000E9    -5.322214126480181E-1    9.819532644934437E-2   -6.444769491147046E-4   -2.293497255321021E-3   -7.360975369670288E-4   -2.358160281495488E-3   -4.352986009609768E-1    1.412504239828742E-1
 8.189082635525000E9    -5.313938373854341E-1    1.023604266411331E-1   -6.642101352278413E-4   -2.285717193337133E-3   -7.384255250962634E-4   -2.348623021025556E-3   -4.342121033396896E-1    1.445457613941628E-1
 8.189145347250000E9    -5.305760931188501E-1    1.068005877209125E-1   -6.856123154706224E-4   -2.291716977984727E-3   -7.643029942988167E-4   -2.340168535407968E-3   -4.329695727675471E-1    1.478870468176036E-1
