#  HZ   S   RI   R     50.00 
! Rohde & Schwarz Vector Network Analyzer 
! Rohde-Schwarz,ZNB20-2Port,1311601062101988,3.16
! Created: UTC 3/20/2024, 4:52:24 PM
! freq[Hz]                re:S11                  im:S11                  re:S21                  im:S21                  re:S12                  im:S12                  re:S22                  im:S22
 8.194622998000000E9    -3.295987938322057E-1    4.256383460533318E-1   -2.151079965432595E-3   -1.412338338767640E-3   -2.262814601823703E-3   -1.394082717997294E-3   -2.392614315997161E-1    3.787467661103042E-1
 8.194635458150000E9    -3.288986550496451E-1    4.261931733744971E-1   -2.186330568520375E-3   -1.411283094367631E-3   -2.264238714519818E-3   -1.376317977715143E-3   -2.385808839169458E-1    3.790835617441273E-1
 8.194647918300000E9    -3.281395786545567E-1    4.267403887326222E-1   -2.170054278035902E-3   -1.375265399655706E-3   -2.279150427520167E-3   -1.366953427910736E-3   -2.380952560567425E-1    3.794477738766811E-1
 8.194660378450000E9    -3.274542353683264E-1    4.271919660660626E-1   -2.194735814139025E-3   -1.399018248648540E-3   -2.279170486724600E-3   -1.363180637712632E-3   -2.374625640515121E-1    3.797113052087844E-1
 8.194672838600000E9    -3.267035688816259E-1    4.278477977197951E-1   -2.207247419686933E-3   -1.411531977482346E-3   -2.317840111278443E-3   -1.352874410420294E-3   -2.368501698685495E-1    3.802674599743003E-1
 8.194685298750000E9    -3.259534426736760E-1    4.282806792593650E-1   -2.195378811795740E-3   -1.413380140738931E-3   -2.284654066963493E-3   -1.374390741103114E-3   -2.362214960725906E-1    3.805094893378386E-1
 8.194697758900000E9    -3.252192718358155E-1    4.288034145606268E-1   -2.190695380761476E-3   -1.398941501793349E-3   -2.277513885387395E-3   -1.366635261319563E-3   -2.356650262579944E-1    3.808552728277809E-1
 8.194710219050000E9    -3.245168169317760E-1    4.294618833087894E-1   -2.197279851653485E-3   -1.387448208928413E-3   -2.302714400532219E-3   -1.355616860950314E-3   -2.351291382491212E-1    3.812466583828664E-1
 8.194722679200000E9    -3.237328327005121E-1    4.298162962986847E-1   -2.180208490032577E-3   -1.398294491457375E-3   -2.316285824121524E-3   -1.361779779386707E-3   -2.344107370089240E-1    3.816594647395770E-1
 8.194735139350000E9    -3.230331187275807E-1    4.305229617348926E-1   -2.191174596001217E-3   -1.398481190004336E-3   -2.306060574116195E-3   -1.354001701844532E-3   -2.337141224845484E-1    3.818293092568870E-1
 8.194747599500000E9    -3.225138951080473E-1    4.308692293981076E-1   -2.206733570640166E-3   -1.386246957437270E-3   -2.291557497121259E-3   -1.331769073542226E-3   -2.331058927113248E-1    3.822609958013032E-1
 8.194760059650000E9    -3.218039035702746E-1    4.316050832239691E-1   -2.245164617459332E-3   -1.401113093055674E-3   -2.299368571352510E-3   -1.341558228741864E-3   -2.327014014559788E-1    3.825949349116733E-1
 8.194772519800000E9    -3.209383214427373E-1    4.321882114967139E-1   -2.202913143097601E-3   -1.382093120314642E-3   -2.308760324837061E-3   -1.331701707073268E-3   -2.320018715063149E-1    3.829898339082149E-1
 8.194784979950000E9    -3.202720461490917E-1    4.324909567123671E-1   -2.219611325814398E-3   -1.376702793247252E-3   -2.309066870410893E-3   -1.320063854649792E-3   -2.314074488371457E-1    3.833514797670193E-1
 8.194797440100000E9    -3.196316840612261E-1    4.330823360472013E-1   -2.223744748494963E-3   -1.363068550225091E-3   -2.339512536637563E-3   -1.320503801379325E-3   -2.306804146207621E-1    3.837174156370911E-1
 8.194809900250000E9    -3.189909911320788E-1    4.335537485114938E-1   -2.209454869509461E-3   -1.372060374571464E-3   -2.328668470150867E-3   -1.343994889705930E-3   -2.301804630058012E-1    3.840024690308602E-1
 8.194822360400000E9    -3.181998622494903E-1    4.340357598446263E-1   -2.200050999770769E-3   -1.398736960702336E-3   -2.321677756272779E-3   -1.317636493088416E-3   -2.296376988327714E-1    3.844523034242648E-1
 8.194834820550000E9    -3.174891735478109E-1    4.346291425459989E-1   -2.216552909601354E-3   -1.366641201515318E-3   -2.320769285194743E-3   -1.315415217006135E-3   -2.288747608821219E-1    3.845905376795927E-1
 8.194847280700000E9    -3.166871093674118E-1    4.350945665067303E-1   -2.236580745744198E-3   -1.350222363784718E-3   -2.353282701658878E-3   -1.295276174004535E-3   -2.283701987691897E-1    3.851139230538019E-1
 8.194859740850000E9    -3.160993161154210E-1    4.356621368209301E-1   -2.219826499600900E-3   -1.365166911986128E-3   -2.357285000504175E-3   -1.324229217917313E-3   -2.277985499061032E-1    3.853432512815523E-1
 8.194872201000000E9    -3.152931266412038E-1    4.361447590737542E-1   -2.235854441967108E-3   -1.358926232183663E-3   -2.312998331677867E-3   -1.274020008295948E-3   -2.270614483865981E-1    3.856097914328067E-1
 8.194884661150000E9    -3.144650034186257E-1    4.367181949131331E-1   -2.240121093181908E-3   -1.348137525616931E-3   -2.323715501462142E-3   -1.321709533923343E-3   -2.265621679622286E-1    3.858654719817861E-1
 8.194897121300000E9    -3.138504480023803E-1    4.371096041616242E-1   -2.243318810711634E-3   -1.388767602506539E-3   -2.332293730973902E-3   -1.286437124947816E-3   -2.259188454161102E-1    3.862585036353457E-1
 8.194909581450000E9    -3.130794995213004E-1    4.376460950869430E-1   -2.241614562816889E-3   -1.341912728071102E-3   -2.376788030882993E-3   -1.272093304335938E-3   -2.253586915562317E-1    3.867956349681180E-1
 8.194922041600000E9    -3.123586487834306E-1    4.380677755881329E-1   -2.226888317121692E-3   -1.347999594118922E-3   -2.324813297509612E-3   -1.288958542477536E-3   -2.247356845355635E-1    3.871147831974602E-1
 8.194934501750000E9    -3.116954878007929E-1    4.387509997194816E-1   -2.259239599177988E-3   -1.337071845352177E-3   -2.361725097628303E-3   -1.305590660473620E-3   -2.240548131255113E-1    3.873312138977887E-1
 8.194946961900000E9    -3.109007972212999E-1    4.391116146046702E-1   -2.273664219591219E-3   -1.344311679456900E-3   -2.347563493052461E-3   -1.303964095270706E-3   -2.234274007391269E-1    3.876628952683058E-1
 8.194959422050000E9    -3.102302636095000E-1    4.396534481533067E-1   -2.228066679206251E-3   -1.356158484863648E-3   -2.360962133150567E-3   -1.265763464874927E-3   -2.228342570059690E-1    3.879737468225176E-1
 8.194971882200000E9    -3.095080568893941E-1    4.401644065136381E-1   -2.256442581141231E-3   -1.337533276540297E-3   -2.353282333133605E-3   -1.269290599499603E-3   -2.222391667147192E-1    3.883542203776341E-1
 8.194984342350000E9    -3.087989450729502E-1    4.404934071652479E-1   -2.259321513074097E-3   -1.346007211990411E-3   -2.403528444173112E-3   -1.301723508012994E-3   -2.216866769593853E-1    3.886332110902909E-1
 8.194996802500000E9    -3.080217513393317E-1    4.410932397240217E-1   -2.258453062694100E-3   -1.332111298216607E-3   -2.353333177627476E-3   -1.273298037563374E-3   -2.209574531581102E-1    3.888967831638522E-1
 8.195009262650000E9    -3.073574936528168E-1    4.415784867014200E-1   -2.281717801669714E-3   -1.316524507057096E-3   -2.370035593882374E-3   -1.264460780976064E-3   -2.204319543068857E-1    3.893604471762685E-1
 8.195021722800000E9    -3.066499959032051E-1    4.421537932178609E-1   -2.270578721736539E-3   -1.345120549063485E-3   -2.345699589089252E-3   -1.278048648866649E-3   -2.198317048823936E-1    3.897446136126805E-1
 8.195034182950000E9    -3.058095916857247E-1    4.426063279185542E-1   -2.256880919489868E-3   -1.330190393261991E-3   -2.374184635971273E-3   -1.282733066057650E-3   -2.191854129236070E-1    3.900212611249498E-1
 8.195046643100000E9    -3.050286709385143E-1    4.431764570115960E-1   -2.304804881709062E-3   -1.321584443667217E-3   -2.386623212371024E-3   -1.292690442453564E-3   -2.184995538848082E-1    3.904173844842256E-1
 8.195059103250000E9    -3.043229726264745E-1    4.436047178475718E-1   -2.299514237429484E-3   -1.315967151914781E-3   -2.381459346095365E-3   -1.290210249028946E-3   -2.179130536412356E-1    3.906456911611066E-1
 8.195071563400000E9    -3.036378419046551E-1    4.442500196167619E-1   -2.296160543606362E-3   -1.298514279144042E-3   -2.400827056190647E-3   -1.257460306556630E-3   -2.174075870086381E-1    3.908828619318908E-1
 8.195084023550000E9    -3.029543861843704E-1    4.445712316968257E-1   -2.269772775454208E-3   -1.302679393938389E-3   -2.379065483137270E-3   -1.244934839274325E-3   -2.167666246624311E-1    3.913353283579801E-1
 8.195096483700000E9    -3.021071525839554E-1    4.450648774627550E-1   -2.304346473892725E-3   -1.336391353782312E-3   -2.409154772362304E-3   -1.245203385365705E-3   -2.160237118045765E-1    3.915906182585444E-1
 8.195108943850000E9    -3.013868766366539E-1    4.455841795128851E-1   -2.309649048267145E-3   -1.260990129590023E-3   -2.411778368916225E-3   -1.251806030160197E-3   -2.154296237885773E-1    3.918913097708003E-1
 8.195121404000000E9    -3.007129074110266E-1    4.460641241259964E-1   -2.292895997290705E-3   -1.307429004976592E-3   -2.390483057078935E-3   -1.220264204019679E-3   -2.147278148990639E-1    3.922746576120723E-1
 8.195133864150000E9    -2.998866815055897E-1    4.464751031477067E-1   -2.317892967169697E-3   -1.305811647294951E-3   -2.392046961219987E-3   -1.249644512413251E-3   -2.143098879081157E-1    3.925902904499916E-1
 8.195146324300000E9    -2.990275441282663E-1    4.470205729046104E-1   -2.290541816648162E-3   -1.283028648249421E-3   -2.411289680163505E-3   -1.229422781430859E-3   -2.137139633209218E-1    3.930798763756858E-1
 8.195158784450000E9    -2.984823446848926E-1    4.475554013059099E-1   -2.302780795270120E-3   -1.281432911362676E-3   -2.403708755528267E-3   -1.209681011125135E-3   -2.129956992512673E-1    3.931550126980870E-1
 8.195171244600000E9    -2.975773241914995E-1    4.479560080210012E-1   -2.304118387885328E-3   -1.292202557685090E-3   -2.431976270391682E-3   -1.198871742672341E-3   -2.125081383236747E-1    3.935482741709491E-1
 8.195183704750000E9    -2.970666822280589E-1    4.483928612132823E-1   -2.341165364589582E-3   -1.275306217771227E-3   -2.404175915585271E-3   -1.189220366517242E-3   -2.118262503022053E-1    3.937781837230709E-1
 8.195196164900000E9    -2.962734046258145E-1    4.489933435321077E-1   -2.295988200355533E-3   -1.287919648308469E-3   -2.412107960701724E-3   -1.241134395474438E-3   -2.112597117332736E-1    3.942144560074799E-1
 8.195208625050000E9    -2.955191488358218E-1    4.494983405485804E-1   -2.313978822931459E-3   -1.259104843163522E-3   -2.413176640778948E-3   -1.237056143041723E-3   -2.104715925852819E-1    3.944598131904830E-1
 8.195221085200000E9    -2.946536837493164E-1    4.499259121368148E-1   -2.315119296660940E-3   -1.272478894472586E-3   -2.426822561498649E-3   -1.209423432324575E-3   -2.100112399504314E-1    3.947532189640968E-1
 8.195233545350000E9    -2.940637052016309E-1    4.504002441039736E-1   -2.339325678707594E-3   -1.255867614166260E-3   -2.456033964993417E-3   -1.242826242071090E-3   -2.092749860740094E-1    3.951373075163158E-1
 8.195246005500000E9    -2.933646572606140E-1    4.508965927555580E-1   -2.326899307149889E-3   -1.258850870712917E-3   -2.398355621829918E-3   -1.219489914703004E-3   -2.086250104500871E-1    3.953127005639498E-1
 8.195258465650000E9    -2.925660484446453E-1    4.513271821133151E-1   -2.351729566174225E-3   -1.266814586897444E-3   -2.444348197521045E-3   -1.184347111967192E-3   -2.079965725253008E-1    3.958099861902776E-1
 8.195270925800000E9    -2.917505754473343E-1    4.518290317777257E-1   -2.332372000994493E-3   -1.260782209504973E-3   -2.432146633973117E-3   -1.216623895252672E-3   -2.074596200430236E-1    3.960315802021410E-1
 8.195283385950000E9    -2.910498076392700E-1    4.521433026458525E-1   -2.347170479649011E-3   -1.252753398910906E-3   -2.443765266163100E-3   -1.191629782260926E-3   -2.068484916694831E-1    3.961134653755163E-1
 8.195295846100000E9    -2.903098100232611E-1    4.527627601357145E-1   -2.350445922772047E-3   -1.261702760203821E-3   -2.407206651753202E-3   -1.209907289355375E-3   -2.061329947409984E-1    3.966738303706815E-1
 8.195308306250000E9    -2.895575665473562E-1    4.533098502832449E-1   -2.341959688349178E-3   -1.253096601963112E-3   -2.438049748767885E-3   -1.177604807051154E-3   -2.056223562953489E-1    3.970150835265809E-1
 8.195320766400000E9    -2.888547065434053E-1    4.536369440464219E-1   -2.354848825085598E-3   -1.258041501212184E-3   -2.461881544984791E-3   -1.166817962584195E-3   -2.048667264884532E-1    3.972749083434866E-1
 8.195333226550000E9    -2.880290418988601E-1    4.541631421459203E-1   -2.348990419950648E-3   -1.242361116691534E-3   -2.410889468274728E-3   -1.172770476916373E-3   -2.042934744525178E-1    3.974655676153988E-1
 8.195345686700000E9    -2.873171030415766E-1    4.546601045668635E-1   -2.352705290691108E-3   -1.227750583575805E-3   -2.449557173977875E-3   -1.208524819905981E-3   -2.036694937606129E-1    3.978156669173216E-1
 8.195358146850000E9    -2.865172142272729E-1    4.551040008076050E-1   -2.374695218278886E-3   -1.254877605375525E-3   -2.456107568528891E-3   -1.163539793456087E-3   -2.031295333483786E-1    3.980327560822109E-1
 8.195370607000000E9    -2.857769888132723E-1    4.555946326988198E-1   -2.352575522604706E-3   -1.217753183329489E-3   -2.457119902327578E-3   -1.157298275845167E-3   -2.023735532466178E-1    3.982992416405406E-1
 8.195383067150000E9    -2.850751493880187E-1    4.559806090805209E-1   -2.351398818176348E-3   -1.228425919114038E-3   -2.452030300408915E-3   -1.164676203156000E-3   -2.017463244891619E-1    3.987714847802225E-1
 8.195395527300000E9    -2.842303223729059E-1    4.565038723988852E-1   -2.381908547926378E-3   -1.212630194749689E-3   -2.473486913655900E-3   -1.157073290318050E-3   -2.011142522682782E-1    3.990222434813832E-1
 8.195407987450000E9    -2.835331150796731E-1    4.568843904906928E-1   -2.346024710641136E-3   -1.226707289563102E-3   -2.463213931782011E-3   -1.162056136845328E-3   -2.004645349271492E-1    3.992254800298292E-1
 8.195420447600000E9    -2.827271381607449E-1    4.573748035765089E-1   -2.364978311154252E-3   -1.219901244911606E-3   -2.489273714780342E-3   -1.153815064028797E-3   -1.998480198317955E-1    3.994920853016646E-1
 8.195432907750000E9    -2.820634827015704E-1    4.578170198762787E-1   -2.375596892333133E-3   -1.202361490408383E-3   -2.478859147031939E-3   -1.170650849386656E-3   -1.994117625143665E-1    3.997652274167879E-1
 8.195445367900000E9    -2.812361273705816E-1    4.583286407838811E-1   -2.382136801960777E-3   -1.236506793672964E-3   -2.478607516360636E-3   -1.125009952248575E-3   -1.987289190288893E-1    4.002326990847757E-1
 8.195457828050000E9    -2.805236861680821E-1    4.586318420995409E-1   -2.376860371031183E-3   -1.211287295469498E-3   -2.446613491897239E-3   -1.146008853622523E-3   -1.980307008940557E-1    4.006787203353388E-1
 8.195470288200000E9    -2.797613299205326E-1    4.591665809708753E-1   -2.379278756625557E-3   -1.192090324681937E-3   -2.495686742562344E-3   -1.148678767768508E-3   -1.973039189706857E-1    4.006285253915721E-1
 8.195482748350000E9    -2.789642584061810E-1    4.596034903186181E-1   -2.391790858160066E-3   -1.209758431273808E-3   -2.506125571635379E-3   -1.137141049004152E-3   -1.967478528107854E-1    4.010917874332016E-1
 8.195495208500000E9    -2.781469808131729E-1    4.600447874634636E-1   -2.395744364464184E-3   -1.186398362029264E-3   -2.496727441900371E-3   -1.113707805715608E-3   -1.960475439649458E-1    4.014179285353267E-1
 8.195507668650000E9    -2.774721211089916E-1    4.605585439356827E-1   -2.419974286211875E-3   -1.173329990600288E-3   -2.444578757839323E-3   -1.096692857352829E-3   -1.953882368383427E-1    4.015813356268724E-1
 8.195520128800000E9    -2.768207416615620E-1    4.610329006762390E-1   -2.412821797085163E-3   -1.189517415938331E-3   -2.495599778935832E-3   -1.131289145248753E-3   -1.947197045944971E-1    4.019764023310558E-1
 8.195532588950000E9    -2.758958024077816E-1    4.614834626851324E-1   -2.398304707725841E-3   -1.195830174509069E-3   -2.513277484672978E-3   -1.114308207214701E-3   -1.941483872519513E-1    4.022250716112810E-1
 8.195545049100000E9    -2.751422650933931E-1    4.618868272607020E-1   -2.399073398567463E-3   -1.176146207835376E-3   -2.504295318880492E-3   -1.129359276894383E-3   -1.934715842074702E-1    4.026127756558592E-1
 8.195557509250000E9    -2.744380563630247E-1    4.623220487252571E-1   -2.421988504850599E-3   -1.203917751172622E-3   -2.516007261232682E-3   -1.113380852896689E-3   -1.928294044231009E-1    4.028701901020699E-1
 8.195569969400000E9    -2.734853017985863E-1    4.627056276603311E-1   -2.444215696026805E-3   -1.171659599498710E-3   -2.503590311323456E-3   -1.087403283371942E-3   -1.923103923926902E-1    4.030263293295296E-1
 8.195582429550000E9    -2.728172994515907E-1    4.631480743705061E-1   -2.440329569281321E-3   -1.158750490741740E-3   -2.541390356347119E-3   -1.106977939774956E-3   -1.916983661833163E-1    4.033694688187133E-1
 8.195594889700000E9    -2.721258487218596E-1    4.635521078206116E-1   -2.455823334969090E-3   -1.173547169450040E-3   -2.516728827555171E-3   -1.104482720684851E-3   -1.909387098129659E-1    4.035292278668122E-1
 8.195607349850000E9    -2.713464675014982E-1    4.640788409455178E-1   -2.466458642980224E-3   -1.168840814000913E-3   -2.529809431651857E-3   -1.088065020572518E-3   -1.905290018067615E-1    4.038745498095675E-1
 8.195619810000000E9    -2.704856866041857E-1    4.645228795955926E-1   -2.433345741185586E-3   -1.177813071478082E-3   -2.499390413269346E-3   -1.106576741266434E-3   -1.897046281982124E-1    4.041291835861322E-1
 8.195632270150000E9    -2.697633287401632E-1    4.649544810987096E-1   -2.423053556618812E-3   -1.171080622119826E-3   -2.543752948731450E-3   -1.093355644879505E-3   -1.890803537911693E-1    4.044458730064416E-1
 8.195644730300000E9    -2.690748639938015E-1    4.653939844344678E-1   -2.429202708771787E-3   -1.149696587672597E-3   -2.550668305482753E-3   -1.111611968177085E-3   -1.884423587342061E-1    4.046601501740951E-1
 8.195657190450000E9    -2.681854461258249E-1    4.658699662062053E-1   -2.438769241837806E-3   -1.155104157073513E-3   -2.539744898256575E-3   -1.083787257649896E-3   -1.878626979410789E-1    4.049727047468142E-1
 8.195669650600000E9    -2.673658024012990E-1    4.662768967551008E-1   -2.438958944787862E-3   -1.160003361325012E-3   -2.528673562433487E-3   -1.095671815105161E-3   -1.872058931329499E-1    4.052986195373791E-1
 8.195682110750000E9    -2.666270375651177E-1    4.666362233136166E-1   -2.459272226429852E-3   -1.148957460093381E-3   -2.547633015594415E-3   -1.075587027321745E-3   -1.865214751991492E-1    4.054549433540520E-1
 8.195694570900000E9    -2.658618535851276E-1    4.670783678907665E-1   -2.441852182440088E-3   -1.128396638429362E-3   -2.523363168899766E-3   -1.027570919441378E-3   -1.859025539010269E-1    4.056865231456801E-1
 8.195707031050000E9    -2.650046018401223E-1    4.675885313355770E-1   -2.480856801938363E-3   -1.122217166308047E-3   -2.556664101920284E-3   -1.088795474615863E-3   -1.852201994231679E-1    4.060212235134911E-1
 8.195719491200000E9    -2.644098392414311E-1    4.679730884754797E-1   -2.463545960795721E-3   -1.134613801608337E-3   -2.559536188752132E-3   -1.039322000825148E-3   -1.846075354566009E-1    4.063391840489273E-1
 8.195731951350000E9    -2.635005065110941E-1    4.683272924178723E-1   -2.446767203623177E-3   -1.120285025896855E-3   -2.582568324389306E-3   -1.081787423469501E-3   -1.838924059444537E-1    4.066739660685411E-1
 8.195744411500000E9    -2.627840531847399E-1    4.687727832190762E-1   -2.464840702255123E-3   -1.109160474264182E-3   -2.540996175770395E-3   -1.080366145526848E-3   -1.832959293198504E-1    4.068437204846799E-1
