#  HZ   S   RI   R     50.00 
! Rohde & Schwarz Vector Network Analyzer 
! Rohde-Schwarz,ZNB20-2Port,1311601062101988,3.16
! Created: UTC 3/20/2024, 4:52:37 PM
! freq[Hz]                re:S11                  im:S11                  re:S21                  im:S21                  re:S12                  im:S12                  re:S22                  im:S22
 8.194237425000000E9    -3.508218611524580E-1    4.087037577653942E-1   -2.098163192789821E-3   -1.526997720152128E-3   -2.166591851810628E-3   -1.494478147958978E-3   -2.575929624434862E-1    3.671902847308597E-1
 8.194251608450000E9    -3.500778733541408E-1    4.093275301278856E-1   -2.082603935263783E-3   -1.509533666320495E-3   -2.179227894659147E-3   -1.460948316609396E-3   -2.569562354040581E-1    3.676807101480792E-1
 8.194265791900000E9    -3.492827298823239E-1    4.100552924429942E-1   -2.073527431372040E-3   -1.491403573290657E-3   -2.167801982378835E-3   -1.483938144228255E-3   -2.562007403789677E-1    3.680684520882445E-1
 8.194279975350000E9    -3.484743304591315E-1    4.105907744866897E-1   -2.101509248936383E-3   -1.503842229383348E-3   -2.209579900527550E-3   -1.495953530374539E-3   -2.555776656712482E-1    3.683475752668109E-1
 8.194294158800000E9    -3.478348223079634E-1    4.111897846804152E-1   -2.095066274489337E-3   -1.485938141164623E-3   -2.209605903680273E-3   -1.457532092368312E-3   -2.549322546598544E-1    3.688921031280991E-1
 8.194308342250000E9    -3.469441579927903E-1    4.118982684908435E-1   -2.097798192839749E-3   -1.508386052014801E-3   -2.177946476821841E-3   -1.458678059181237E-3   -2.542810078559211E-1    3.692556578489551E-1
 8.194322525700000E9    -3.461563793290446E-1    4.124751607272519E-1   -2.092708783843259E-3   -1.494313484491485E-3   -2.181981059110831E-3   -1.456444679107272E-3   -2.536840630730534E-1    3.698786945059571E-1
 8.194336709150000E9    -3.454277554759512E-1    4.131702484734871E-1   -2.097381092812749E-3   -1.487747477172020E-3   -2.190372049323462E-3   -1.458370955500858E-3   -2.529176923763302E-1    3.702461533840593E-1
 8.194350892600000E9    -3.447140694549605E-1    4.139256490699025E-1   -2.118311333146656E-3   -1.483193012028965E-3   -2.231400772220347E-3   -1.477269369784110E-3   -2.524257166412586E-1    3.706612188848994E-1
 8.194365076050000E9    -3.439099701998832E-1    4.144628330176807E-1   -2.106393708950032E-3   -1.467526876794163E-3   -2.207591771639614E-3   -1.449991832418174E-3   -2.515946330848521E-1    3.710485080737940E-1
 8.194379259500000E9    -3.430925995877595E-1    4.150369788690817E-1   -2.089361254020401E-3   -1.475495488841101E-3   -2.225963943053819E-3   -1.427752382098536E-3   -2.509026983222650E-1    3.714531507181631E-1
 8.194393442950000E9    -3.421665996639210E-1    4.157787995108654E-1   -2.141656142408823E-3   -1.458395221860710E-3   -2.212066723981837E-3   -1.446825468275467E-3   -2.503600902003927E-1    3.720813004794782E-1
 8.194407626400000E9    -3.415254343910815E-1    4.163403386657262E-1   -2.129378685006869E-3   -1.468041136857164E-3   -2.244809771051004E-3   -1.444936446785880E-3   -2.496133856629327E-1    3.723612385492047E-1
 8.194421809850000E9    -3.406715589520470E-1    4.169415777837536E-1   -2.112916264435270E-3   -1.487396884200966E-3   -2.219583027171835E-3   -1.436450202399563E-3   -2.489201703430252E-1    3.728270461428259E-1
 8.194435993300000E9    -3.399424088467197E-1    4.176492382817337E-1   -2.133774757827801E-3   -1.485464138250282E-3   -2.223573035565994E-3   -1.432428126832437E-3   -2.483250644510756E-1    3.731384355249245E-1
 8.194450176750000E9    -3.391843678382824E-1    4.182705491294751E-1   -2.105417904175946E-3   -1.455282402606117E-3   -2.238380934641425E-3   -1.397336536796837E-3   -2.475521449641644E-1    3.735149894658737E-1
 8.194464360200000E9    -3.383587370264355E-1    4.189610821770898E-1   -2.122920156405912E-3   -1.466965927239325E-3   -2.280789487971764E-3   -1.433674515378130E-3   -2.469048804433020E-1    3.740299113713256E-1
 8.194478543650000E9    -3.375770922142015E-1    4.195743308245568E-1   -2.128515047665514E-3   -1.475714783214227E-3   -2.260564727770773E-3   -1.447854390266821E-3   -2.462984873391371E-1    3.746077630561405E-1
 8.194492727100000E9    -3.367303594605965E-1    4.201482614374362E-1   -2.135381915964640E-3   -1.486962380731400E-3   -2.252119855173089E-3   -1.431609486908119E-3   -2.455359971340671E-1    3.748912570311720E-1
 8.194506910550000E9    -3.360049877412660E-1    4.207538099504354E-1   -2.154206410984956E-3   -1.451338095567308E-3   -2.211178235369333E-3   -1.400142187794735E-3   -2.450817183395581E-1    3.753606251778883E-1
 8.194521094000000E9    -3.351470478390817E-1    4.214078350174523E-1   -2.146129781263885E-3   -1.465040278617806E-3   -2.246104631245175E-3   -1.434536745366570E-3   -2.442659744885085E-1    3.757704922790480E-1
 8.194535277450000E9    -3.343278193141039E-1    4.220052265436163E-1   -2.176867324997478E-3   -1.436514594954746E-3   -2.256345029792729E-3   -1.389547133369317E-3   -2.436945286867332E-1    3.760280192490506E-1
 8.194549460900000E9    -3.335356516436737E-1    4.226866976432376E-1   -2.174934401815089E-3   -1.442900198723628E-3   -2.268344127741843E-3   -1.395796340718465E-3   -2.430347098330149E-1    3.764673192168432E-1
 8.194563644350000E9    -3.328142369578144E-1    4.231852742030743E-1   -2.164302039639266E-3   -1.429840079204599E-3   -2.275542412221344E-3   -1.385428297496461E-3   -2.421917796849802E-1    3.767982341287433E-1
 8.194577827800000E9    -3.319876038223318E-1    4.237075854631482E-1   -2.149882531153287E-3   -1.411363026172957E-3   -2.253446334017813E-3   -1.405519584792747E-3   -2.415660883277572E-1    3.772836287086318E-1
 8.194592011250000E9    -3.312235942960709E-1    4.244537092962753E-1   -2.161417617416155E-3   -1.446642205140813E-3   -2.273685550621123E-3   -1.387331606449725E-3   -2.409729416265565E-1    3.776580852357511E-1
 8.194606194700000E9    -3.305408563058024E-1    4.250088704015134E-1   -2.183472918285950E-3   -1.413602542826948E-3   -2.284518016750796E-3   -1.367804057500578E-3   -2.401788788265256E-1    3.781030473244819E-1
 8.194620378150000E9    -3.296923343986390E-1    4.255458907492399E-1   -2.178651198714493E-3   -1.416109072734319E-3   -2.266881419267653E-3   -1.396351736438293E-3   -2.394993124494996E-1    3.784367659598384E-1
 8.194634561600000E9    -3.288625925050429E-1    4.261633076856423E-1   -2.190005001375529E-3   -1.434538956301635E-3   -2.273075589109686E-3   -1.385066949558538E-3   -2.387994081416946E-1    3.789635305186734E-1
 8.194648745050000E9    -3.280956664827149E-1    4.268621752097789E-1   -2.159412002925907E-3   -1.398663707046021E-3   -2.271473994519482E-3   -1.369964031113482E-3   -2.381988578826919E-1    3.793083656142122E-1
 8.194662928500000E9    -3.272136435287392E-1    4.274294130672807E-1   -2.166298516559044E-3   -1.407999794959864E-3   -2.314021882366703E-3   -1.373185920804779E-3   -2.375643499222553E-1    3.796521518471891E-1
 8.194677111950000E9    -3.264749676823704E-1    4.279922833317160E-1   -2.191185731255112E-3   -1.390152509368697E-3   -2.284242694432839E-3   -1.364975291841442E-3   -2.367352570211657E-1    3.801787318842519E-1
 8.194691295400000E9    -3.255447961677649E-1    4.285910736265261E-1   -2.183502338037632E-3   -1.424086600221943E-3   -2.280838263331790E-3   -1.342904065439999E-3   -2.360469390799555E-1    3.805364670090181E-1
 8.194705478850000E9    -3.248081752220073E-1    4.293096803745022E-1   -2.173480854808069E-3   -1.392514140963697E-3   -2.314475299810432E-3   -1.369839133710250E-3   -2.354725700199296E-1    3.809181027772689E-1
 8.194719662300000E9    -3.240423919354309E-1    4.298312163668702E-1   -2.203081366144859E-3   -1.366229692862935E-3   -2.309562665021146E-3   -1.343575230240283E-3   -2.347543386825947E-1    3.813498802123838E-1
 8.194733845750000E9    -3.232065967915284E-1    4.303939080356211E-1   -2.211437485772601E-3   -1.386493772506362E-3   -2.346310081344767E-3   -1.326253209676154E-3   -2.339805397762598E-1    3.817000213762500E-1
 8.194748029200000E9    -3.223670397142733E-1    4.310055907176406E-1   -2.220418766219492E-3   -1.384671055590169E-3   -2.306164520224507E-3   -1.345245508254072E-3   -2.332619409495658E-1    3.822444981042913E-1
 8.194762212650000E9    -3.216407275489286E-1    4.316464699640781E-1   -2.218089901267894E-3   -1.411835316601215E-3   -2.314463728244996E-3   -1.345700710986476E-3   -2.327408747494685E-1    3.824643780977294E-1
 8.194776396100000E9    -3.207570136359753E-1    4.321908047938517E-1   -2.228616946397817E-3   -1.374328969117039E-3   -2.312460524600447E-3   -1.333023038659063E-3   -2.320915831990935E-1    3.828139512474759E-1
 8.194790579550000E9    -3.200529381571069E-1    4.327013046639169E-1   -2.245855762311918E-3   -1.392458115207055E-3   -2.351001639189060E-3   -1.326625571368406E-3   -2.313448110822054E-1    3.833014031733786E-1
 8.194804763000000E9    -3.190963484577732E-1    4.334170429952683E-1   -2.232539798668168E-3   -1.372569675099864E-3   -2.318624667299819E-3   -1.355900632611856E-3   -2.306348873578549E-1    3.836862788002636E-1
 8.194818946450000E9    -3.183051218050440E-1    4.341095181658791E-1   -2.203241389910174E-3   -1.363825750493790E-3   -2.335019015035204E-3   -1.345234661432244E-3   -2.298900730013117E-1    3.840994382859391E-1
 8.194833129900000E9    -3.174250520711025E-1    4.345045231166535E-1   -2.205316647619830E-3   -1.387237206080641E-3   -2.325239077208760E-3   -1.346726711870355E-3   -2.292609521398971E-1    3.845340269918077E-1
 8.194847313350000E9    -3.166951656552384E-1    4.350491982049856E-1   -2.235194156301546E-3   -1.372641835730690E-3   -2.326506076332602E-3   -1.298412235884420E-3   -2.285227549420646E-1    3.849313348613915E-1
 8.194861496800000E9    -3.158944265520073E-1    4.357355777213410E-1   -2.243553174182533E-3   -1.367718773574355E-3   -2.333216939464318E-3   -1.320849470656039E-3   -2.277968615199309E-1    3.853366952439945E-1
 8.194875680250000E9    -3.150066948393309E-1    4.362917184373813E-1   -2.237601026274430E-3   -1.355530124919075E-3   -2.356163388592649E-3   -1.326484320246218E-3   -2.272045030508923E-1    3.856507887775624E-1
 8.194889863700000E9    -3.142890563393071E-1    4.367893988924447E-1   -2.247694991657360E-3   -1.357217879972984E-3   -2.348730795917504E-3   -1.306889746023606E-3   -2.265191113062793E-1    3.860792495875954E-1
 8.194904047150000E9    -3.135217030690258E-1    4.375193302520859E-1   -2.253688179959348E-3   -1.353110572344019E-3   -2.330660558547149E-3   -1.281670937738556E-3   -2.257703762085177E-1    3.863572824710326E-1
 8.194918230600000E9    -3.126616989725893E-1    4.380134646619360E-1   -2.265352312237036E-3   -1.348239866240118E-3   -2.356868936147659E-3   -1.315694903989816E-3   -2.251536005305678E-1    3.867524351260633E-1
 8.194932414050000E9    -3.118003776609602E-1    4.385844021108748E-1   -2.218313208570344E-3   -1.357575109406099E-3   -2.340302214810085E-3   -1.278916427219661E-3   -2.243786885833728E-1    3.872053076416964E-1
 8.194946597500000E9    -3.109941994831623E-1    4.390787709981148E-1   -2.251230568766957E-3   -1.322314140465530E-3   -2.340046811302002E-3   -1.307685580534563E-3   -2.238161115393379E-1    3.875884226914353E-1
 8.194960780950000E9    -3.102907572725405E-1    4.397510465872012E-1   -2.262853544557427E-3   -1.320939914315268E-3   -2.335585881316339E-3   -1.294104902366048E-3   -2.229815532514753E-1    3.881504893965158E-1
 8.194974964400000E9    -3.092196992966545E-1    4.402971285443050E-1   -2.253931508634759E-3   -1.332529732817029E-3   -2.385375019275133E-3   -1.259356946121552E-3   -2.222610888371559E-1    3.884209212621179E-1
 8.194989147850000E9    -3.084212840436618E-1    4.408140520071050E-1   -2.269214031538787E-3   -1.375099915676040E-3   -2.384027843461970E-3   -1.281792289722878E-3   -2.216955032247381E-1    3.887289306940124E-1
 8.195003331300000E9    -3.076762224572132E-1    4.413596511384499E-1   -2.252861752563418E-3   -1.340595563416205E-3   -2.384439420717100E-3   -1.257091791696545E-3   -2.209401867270722E-1    3.891399318163373E-1
 8.195017514750000E9    -3.069098089168462E-1    4.419365038907740E-1   -2.278404723001202E-3   -1.339631096565149E-3   -2.368745684093741E-3   -1.280550177614332E-3   -2.203102374979237E-1    3.894497480090656E-1
 8.195031698200000E9    -3.059718673022970E-1    4.425689825726546E-1   -2.274375741225020E-3   -1.315538013977777E-3   -2.422993078740046E-3   -1.308343134146012E-3   -2.195410536560577E-1    3.897508866315484E-1
 8.195045881650000E9    -3.051431137357942E-1    4.431056929788215E-1   -2.298147408988733E-3   -1.329925637538396E-3   -2.386304170721090E-3   -1.263248392255704E-3   -2.187609155000282E-1    3.902428224332670E-1
 8.195060065100000E9    -3.043724748324783E-1    4.435559974800120E-1   -2.281240214333874E-3   -1.313772531113737E-3   -2.372179117104709E-3   -1.253315794427394E-3   -2.181926550827835E-1    3.905051242953145E-1
 8.195074248550000E9    -3.035272591152987E-1    4.442247315407217E-1   -2.304140932962921E-3   -1.285044406158883E-3   -2.409402794199475E-3   -1.259753863720868E-3   -2.174199713157817E-1    3.909451160889125E-1
 8.195088432000000E9    -3.027121158991162E-1    4.446944335642575E-1   -2.274497010509320E-3   -1.309280931329463E-3   -2.406078923685200E-3   -1.264353344945356E-3   -2.168808164426923E-1    3.913065571704133E-1
 8.195102615450000E9    -3.017259125556067E-1    4.453505338582706E-1   -2.303346119513820E-3   -1.283734147103300E-3   -2.383341091613894E-3   -1.263820189439131E-3   -2.159416940413653E-1    3.914702740840106E-1
 8.195116798900000E9    -3.008961393494989E-1    4.457916045621286E-1   -2.305859809674305E-3   -1.305156474899923E-3   -2.417958408305151E-3   -1.239004058250935E-3   -2.153302055035563E-1    3.919560663168131E-1
 8.195130982350000E9    -3.001413759060355E-1    4.464427895042999E-1   -2.284450885170932E-3   -1.297795940810879E-3   -2.432693657338155E-3   -1.261593279048316E-3   -2.146156740424795E-1    3.923540267019970E-1
 8.195145165800000E9    -2.992087697179008E-1    4.469144647134516E-1   -2.305562775534049E-3   -1.310117831871404E-3   -2.401492437961305E-3   -1.255170379426443E-3   -2.138161652983063E-1    3.926770978320709E-1
 8.195159349250000E9    -2.984635709244278E-1    4.476531380547353E-1   -2.323004636470721E-3   -1.280409670048967E-3   -2.383364472482628E-3   -1.232486604066009E-3   -2.132420546999189E-1    3.931400513017272E-1
 8.195173532700000E9    -2.975786387369552E-1    4.480803085584567E-1   -2.313364151912378E-3   -1.276281921267501E-3   -2.416888281430345E-3   -1.181287305055863E-3   -2.125429154498468E-1    3.934992987777415E-1
 8.195187716150000E9    -2.966479017071349E-1    4.485733833188041E-1   -2.325008551734627E-3   -1.288755168036857E-3   -2.402017072583425E-3   -1.215098439290801E-3   -2.117019777999967E-1    3.937045121774203E-1
 8.195201899600000E9    -2.958683237020012E-1    4.490819457342768E-1   -2.332306575525680E-3   -1.278582670970074E-3   -2.442883359199396E-3   -1.224010313503074E-3   -2.111200528902294E-1    3.941282820045516E-1
 8.195216083050000E9    -2.950877778131416E-1    4.496392734575296E-1   -2.300404262513039E-3   -1.239479400191827E-3   -2.420017804403716E-3   -1.199311261221711E-3   -2.103859987170223E-1    3.944225127087405E-1
 8.195230266500000E9    -2.942910579084456E-1    4.503023028602832E-1   -2.299677580636364E-3   -1.283602340403079E-3   -2.389387779608534E-3   -1.235643506922004E-3   -2.096953389694838E-1    3.950118890937358E-1
 8.195244449950000E9    -2.932963057493331E-1    4.507020378615585E-1   -2.323388213383562E-3   -1.267081006216553E-3   -2.470559327141829E-3   -1.202478634768312E-3   -2.089331596257147E-1    3.952048599939676E-1
 8.195258633400000E9    -2.924359348652998E-1    4.513305189268691E-1   -2.341483689018929E-3   -1.260361792287808E-3   -2.423482711561493E-3   -1.200052651211426E-3   -2.082917990238449E-1    3.955533975807684E-1
 8.195272816850000E9    -2.917315787703319E-1    4.518273850419173E-1   -2.323706123051191E-3   -1.263453023682908E-3   -2.454623327606119E-3   -1.222966835066604E-3   -2.074748863996262E-1    3.959116020301468E-1
 8.195287000300000E9    -2.908781725105672E-1    4.523643947320696E-1   -2.338560813418810E-3   -1.283097107827661E-3   -2.412901840087361E-3   -1.196295939942986E-3   -2.068134892646981E-1    3.961705828170812E-1
 8.195301183750000E9    -2.900439511527782E-1    4.529637039487884E-1   -2.354764353148577E-3   -1.235709733978606E-3   -2.426039022452477E-3   -1.208970916672505E-3   -2.060812919694624E-1    3.964794469079096E-1
 8.195315367200000E9    -2.891276058100904E-1    4.535791695874970E-1   -2.362397048362757E-3   -1.247015667540315E-3   -2.474763742128588E-3   -1.151544672898030E-3   -2.054600617363038E-1    3.969742112802757E-1
 8.195329550650000E9    -2.881858569996891E-1    4.538884645251922E-1   -2.348424239754972E-3   -1.231480810137808E-3   -2.460124490742138E-3   -1.187970096897291E-3   -2.047792783060053E-1    3.972858045499190E-1
 8.195343734100000E9    -2.874316136618465E-1    4.545186967408537E-1   -2.350055062750749E-3   -1.248464591374755E-3   -2.446684352570506E-3   -1.177648758743892E-3   -2.039570853256334E-1    3.976760776245548E-1
 8.195357917550000E9    -2.865739138687993E-1    4.550932942832181E-1   -2.341564848190307E-3   -1.237903077101883E-3   -2.447158137246422E-3   -1.198709862744701E-3   -2.034060266797294E-1    3.979967445121158E-1
 8.195372101000000E9    -2.857140534914652E-1    4.555582507170906E-1   -2.353105318635563E-3   -1.203241045287688E-3   -2.467132546023912E-3   -1.137517029564679E-3   -2.024517972646357E-1    3.982967289064197E-1
 8.195386284450000E9    -2.848819588528529E-1    4.560906337129579E-1   -2.344528250888599E-3   -1.209431803020764E-3   -2.467448764228188E-3   -1.177279733636486E-3   -2.018178506257299E-1    3.986244254799983E-1
 8.195400467900000E9    -2.839232679464586E-1    4.566406828783676E-1   -2.376798091269325E-3   -1.224160677417507E-3   -2.474920082265887E-3   -1.162762469707033E-3   -2.010011505041844E-1    3.989760563698151E-1
 8.195414651350000E9    -2.832187453150470E-1    4.570718442822662E-1   -2.382268122822116E-3   -1.230236602615481E-3   -2.463336261824892E-3   -1.146522948020806E-3   -2.003676044127777E-1    3.994587530466781E-1
 8.195428834800000E9    -2.821440406119311E-1    4.577298120154121E-1   -2.396826448451852E-3   -1.213419329243962E-3   -2.476133022470098E-3   -1.147927889283875E-3   -1.994741703310847E-1    3.998266125699770E-1
 8.195443018250000E9    -2.813124315404287E-1    4.581548806199573E-1   -2.395606695235986E-3   -1.219234783107132E-3   -2.489251893908496E-3   -1.174844710471813E-3   -1.989140886505298E-1    3.999609793690545E-1
 8.195457201700000E9    -2.805932263082392E-1    4.587010061189954E-1   -2.379099764177520E-3   -1.219941813021602E-3   -2.480921920880275E-3   -1.178403324182553E-3   -1.982269472201153E-1    4.004474761054115E-1
 8.195471385150000E9    -2.796218495002433E-1    4.591914213662325E-1   -2.411486836146732E-3   -1.204217843621979E-3   -2.486067745763809E-3   -1.136099451860089E-3   -1.974932932023577E-1    4.007353028410173E-1
 8.195485568600000E9    -2.787941537651255E-1    4.596393280125700E-1   -2.388171886526839E-3   -1.193751743168634E-3   -2.503108856575095E-3   -1.158515792129245E-3   -1.966179195079021E-1    4.010796781086202E-1
 8.195499752050000E9    -2.778625761053133E-1    4.603208570766747E-1   -2.398867813423718E-3   -1.195233222430220E-3   -2.540579399923581E-3   -1.130319922887156E-3   -1.959960630831572E-1    4.013844464919200E-1
 8.195513935500000E9    -2.769527653824592E-1    4.605885481121725E-1   -2.402042052773706E-3   -1.188266890435232E-3   -2.505751091593598E-3   -1.142457438343932E-3   -1.954531164146946E-1    4.016392530149372E-1
