#  HZ   S   RI   R     50.00 
! Rohde & Schwarz Vector Network Analyzer 
! Rohde-Schwarz,ZNB20-2Port,1311601062101988,3.16
! Created: UTC 3/20/2024, 4:52:42 PM
! freq[Hz]                re:S11                  im:S11                  re:S21                  im:S21                  re:S12                  im:S12                  re:S22                  im:S22
 8.194109925000000E9    -3.576827038757552E-1    4.029344987072299E-1   -2.052741326542404E-3   -1.538846816484007E-3   -2.159971182736088E-3   -1.493189324182020E-3   -2.635134136364032E-1    3.631025003784777E-1
 8.194124675825000E9    -3.569216744016484E-1    4.035963143854586E-1   -2.056585351743283E-3   -1.546133840630841E-3   -2.150991553554877E-3   -1.520285048206646E-3   -2.629031750518542E-1    3.635588923701999E-1
 8.194139426650000E9    -3.561483082871096E-1    4.041155529900321E-1   -2.086000178179712E-3   -1.507452021443904E-3   -2.160782865254562E-3   -1.495916267914031E-3   -2.621266175313626E-1    3.641773082515427E-1
 8.194154177475000E9    -3.553309900594050E-1    4.049189863507291E-1   -2.077738617731504E-3   -1.539854321539347E-3   -2.148163224933794E-3   -1.492346289506009E-3   -2.616438628513085E-1    3.645130969722410E-1
 8.194168928300000E9    -3.544986734442619E-1    4.056572798227984E-1   -2.043616470676119E-3   -1.520351416125784E-3   -2.152738384117333E-3   -1.520676668685230E-3   -2.608350995212614E-1    3.650696219816241E-1
 8.194183679125000E9    -3.537583356008143E-1    4.062495399156997E-1   -2.096908788357779E-3   -1.558956637175034E-3   -2.176315084387818E-3   -1.465990795325336E-3   -2.600333177402378E-1    3.655363541963385E-1
 8.194198429950000E9    -3.528833203343268E-1    4.069525960702183E-1   -2.040029387542198E-3   -1.530768626284060E-3   -2.180399156775234E-3   -1.482892023374754E-3   -2.594803976637479E-1    3.658274371156371E-1
 8.194213180775000E9    -3.521539118316710E-1    4.076262315423840E-1   -2.079569106313455E-3   -1.505108034547986E-3   -2.146973083400537E-3   -1.486324869291545E-3   -2.588407840741379E-1    3.664230393569036E-1
 8.194227931600000E9    -3.514116652242764E-1    4.082136567456678E-1   -2.062946922219884E-3   -1.515273354589453E-3   -2.195856472372945E-3   -1.475111369806161E-3   -2.581115036391566E-1    3.669276448087877E-1
 8.194242682425000E9    -3.504928517378070E-1    4.089022269804845E-1   -2.079720752217878E-3   -1.497964666288243E-3   -2.166911661320965E-3   -1.496783649352790E-3   -2.575589066171188E-1    3.672620105390045E-1
 8.194257433250000E9    -3.497040797434671E-1    4.096771259970026E-1   -2.091061220013732E-3   -1.495916376302522E-3   -2.216102726720078E-3   -1.467283158720965E-3   -2.568617666695314E-1    3.677606089904760E-1
 8.194272184075000E9    -3.488564990608604E-1    4.102524119396084E-1   -2.069004818654187E-3   -1.524459352282790E-3   -2.186157926521225E-3   -1.458205990202116E-3   -2.559984298510248E-1    3.682399082865250E-1
 8.194286934900000E9    -3.481406317818931E-1    4.109610942863220E-1   -2.079237131485751E-3   -1.516173260341358E-3   -2.216982743529680E-3   -1.440911191535578E-3   -2.553555123736670E-1    3.685785008557898E-1
 8.194301685725000E9    -3.473527470689529E-1    4.116400077622012E-1   -2.071324050672212E-3   -1.515999444258995E-3   -2.215033158083055E-3   -1.453978032245405E-3   -2.546177192224284E-1    3.689800826707302E-1
 8.194316436550000E9    -3.465163561322312E-1    4.123387022487966E-1   -2.114466664279834E-3   -1.503736681312469E-3   -2.190975922549322E-3   -1.467097460727135E-3   -2.540216726303189E-1    3.695413312671366E-1
 8.194331187375000E9    -3.457156521387868E-1    4.129739460715893E-1   -2.094527856376040E-3   -1.495024141668792E-3   -2.224665310337447E-3   -1.455920729485963E-3   -2.534346112127144E-1    3.699039308638399E-1
 8.194345938200000E9    -3.447146617470559E-1    4.135593341445818E-1   -2.137756512678151E-3   -1.494774554741703E-3   -2.193281905967440E-3   -1.481926196746905E-3   -2.527272342355109E-1    3.703734984555808E-1
 8.194360689025000E9    -3.440915302930210E-1    4.142756523907897E-1   -2.109196080311567E-3   -1.485075427718065E-3   -2.237216443498998E-3   -1.424118489720024E-3   -2.518251754979981E-1    3.709737787269916E-1
 8.194375439850000E9    -3.433752930192268E-1    4.148888772588666E-1   -2.127666815288924E-3   -1.497517762879048E-3   -2.194120909500293E-3   -1.466079646407578E-3   -2.513076266057381E-1    3.713869534408233E-1
 8.194390190675000E9    -3.423543685559035E-1    4.155017934313748E-1   -2.121520735650046E-3   -1.464913512729682E-3   -2.215223462601835E-3   -1.440131894438718E-3   -2.505992881050576E-1    3.716721714622715E-1
 8.194404941500000E9    -3.416470360865426E-1    4.162542639461851E-1   -2.121939309064826E-3   -1.470759364010077E-3   -2.230963988655838E-3   -1.423932532617161E-3   -2.499727061219537E-1    3.722589683085257E-1
 8.194419692325000E9    -3.409354180565142E-1    4.168465612219119E-1   -2.131056461693155E-3   -1.471039416887708E-3   -2.234837247281368E-3   -1.430108292935860E-3   -2.490889006899199E-1    3.727117779954875E-1
 8.194434443150000E9    -3.400097891147020E-1    4.175918163152050E-1   -2.138940467059375E-3   -1.474120830914557E-3   -2.249438477378814E-3   -1.411447822190497E-3   -2.483984417759429E-1    3.730376866019137E-1
 8.194449193975000E9    -3.392060207263636E-1    4.181205336592259E-1   -2.103863590253661E-3   -1.448323520235879E-3   -2.236230550720518E-3   -1.418618743814220E-3   -2.478246276700998E-1    3.735150767245080E-1
 8.194463944800000E9    -3.383835030071971E-1    4.188504071659330E-1   -2.163763065554694E-3   -1.449126797930280E-3   -2.235562173708782E-3   -1.421963299751021E-3   -2.470690619249427E-1    3.739201430224814E-1
 8.194478695625000E9    -3.375382541472636E-1    4.194411674962334E-1   -2.128570011293213E-3   -1.455255845836792E-3   -2.260558009669426E-3   -1.401763977906368E-3   -2.463331574561829E-1    3.743561091809242E-1
 8.194493446450000E9    -3.367235514458230E-1    4.202128611174022E-1   -2.144777018361533E-3   -1.454011896985702E-3   -2.272083461642904E-3   -1.419963568356994E-3   -2.456307450776886E-1    3.749192663035867E-1
 8.194508197275000E9    -3.359065184945718E-1    4.208239131178064E-1   -2.147752076010240E-3   -1.437713526672942E-3   -2.246752814979984E-3   -1.381828805149139E-3   -2.449461154772593E-1    3.752070210790874E-1
 8.194522948100000E9    -3.350886031881989E-1    4.214190502095568E-1   -2.155820981019505E-3   -1.446359514100497E-3   -2.262865479067120E-3   -1.427809446953624E-3   -2.442570648406852E-1    3.755516319028194E-1
 8.194537698925000E9    -3.342623591752795E-1    4.218999307184064E-1   -2.150422819935143E-3   -1.428400759663829E-3   -2.260301719806217E-3   -1.421187339520767E-3   -2.436559603210266E-1    3.761044155134576E-1
 8.194552449750000E9    -3.335055289831732E-1    4.226533350779620E-1   -2.168648851341464E-3   -1.444844457790184E-3   -2.261187771032256E-3   -1.381026042443559E-3   -2.428011522222066E-1    3.764134049216883E-1
 8.194567200575000E9    -3.326342238056699E-1    4.232310525968487E-1   -2.154591036556758E-3   -1.421407740382660E-3   -2.264613077737520E-3   -1.402098016497858E-3   -2.421773275510790E-1    3.770070156355849E-1
 8.194581951400000E9    -3.318425225957293E-1    4.240018234435475E-1   -2.155186776128515E-3   -1.421211088857019E-3   -2.297398084202089E-3   -1.380414574006840E-3   -2.415345279314697E-1    3.773303122940395E-1
 8.194596702225000E9    -3.310535684870808E-1    4.245313310410680E-1   -2.166286120416830E-3   -1.436887880603761E-3   -2.285202948215522E-3   -1.366521036029193E-3   -2.409151526455373E-1    3.777281308100970E-1
 8.194611453050000E9    -3.300898803548551E-1    4.252224077542963E-1   -2.155759182709565E-3   -1.406892824789621E-3   -2.298720705858153E-3   -1.414084674456783E-3   -2.400672841138470E-1    3.782979069105071E-1
 8.194626203875000E9    -3.294240904283856E-1    4.258981772127126E-1   -2.166871881578861E-3   -1.437549472476624E-3   -2.293567473263524E-3   -1.390314711522720E-3   -2.393363111783046E-1    3.787472688228720E-1
 8.194640954700000E9    -3.284378134685415E-1    4.264035760834943E-1   -2.175269683618098E-3   -1.414633171986954E-3   -2.269644717274452E-3   -1.379538020535429E-3   -2.386834222943904E-1    3.790729427869884E-1
 8.194655705525000E9    -3.276750469811806E-1    4.270956966401031E-1   -2.207341640268782E-3   -1.419154317832063E-3   -2.295680530493483E-3   -1.374149061309162E-3   -2.378510048567578E-1    3.796579955020347E-1
 8.194670456350000E9    -3.267740778556618E-1    4.277879452261857E-1   -2.185278409120520E-3   -1.434383136674241E-3   -2.311585179608956E-3   -1.369985766190027E-3   -2.371735308686165E-1    3.799227097543830E-1
 8.194685207175000E9    -3.260268795378906E-1    4.284145041079950E-1   -2.196654436288315E-3   -1.401582290130582E-3   -2.304694635083631E-3   -1.383401632631452E-3   -2.364012678353885E-1    3.803523677770338E-1
 8.194699958000000E9    -3.252001847644215E-1    4.290578653988757E-1   -2.194810203922260E-3   -1.417897384015256E-3   -2.292064781662973E-3   -1.331773879852444E-3   -2.358674612844871E-1    3.808086033265922E-1
 8.194714708825000E9    -3.242628324499702E-1    4.296020390386698E-1   -2.209326271424065E-3   -1.401184151453353E-3   -2.294129054432733E-3   -1.375741754992304E-3   -2.350166243050293E-1    3.812270547807580E-1
 8.194729459650000E9    -3.235320079439876E-1    4.301986425684243E-1   -2.207081899981233E-3   -1.388824028903801E-3   -2.314083186133385E-3   -1.356452893666833E-3   -2.343601306465690E-1    3.815497459142730E-1
 8.194744210475000E9    -3.226716376409181E-1    4.307954249355444E-1   -2.198821304733166E-3   -1.377552981546270E-3   -2.317642736843624E-3   -1.341847225496256E-3   -2.335393780078615E-1    3.819295635712437E-1
 8.194758961300000E9    -3.217241759890851E-1    4.314134631691935E-1   -2.212146770611878E-3   -1.406001211879604E-3   -2.303432577480696E-3   -1.360875852189360E-3   -2.329392547323905E-1    3.824787076116526E-1
 8.194773712125000E9    -3.210403819313963E-1    4.321077937897123E-1   -2.217711076073540E-3   -1.380328871641627E-3   -2.311655482561835E-3   -1.325466297177920E-3   -2.321052429272152E-1    3.828002676774164E-1
 8.194788462950000E9    -3.201057922882428E-1    4.326746191429872E-1   -2.231658446443013E-3   -1.366925312173788E-3   -2.319991174168566E-3   -1.359516295041695E-3   -2.315438618318156E-1    3.831444643837928E-1
 8.194803213775000E9    -3.192941743602750E-1    4.333490890281798E-1   -2.249991857166362E-3   -1.375261120718576E-3   -2.287047240572639E-3   -1.356008889301524E-3   -2.307883417112481E-1    3.837187012167225E-1
 8.194817964600000E9    -3.183857837416356E-1    4.339610198156844E-1   -2.227368444499396E-3   -1.393928118471281E-3   -2.345365271806761E-3   -1.318277261525481E-3   -2.300738432833618E-1    3.840011460058773E-1
 8.194832715425000E9    -3.175487405119131E-1    4.346025163777122E-1   -2.222985857935198E-3   -1.357248587746488E-3   -2.349573331317560E-3   -1.302701268596425E-3   -2.295050977955879E-1    3.844721811192858E-1
 8.194847466250000E9    -3.167119920413471E-1    4.350535738662371E-1   -2.228565513989174E-3   -1.366115696035193E-3   -2.357230002001355E-3   -1.318452533889531E-3   -2.286763959433528E-1    3.847249574874252E-1
 8.194862217075000E9    -3.157419011915490E-1    4.355609315962129E-1   -2.226564327725632E-3   -1.372861392584775E-3   -2.318582923537222E-3   -1.328784442566143E-3   -2.278841003269051E-1    3.851708112227897E-1
 8.194876967900000E9    -3.149942145126240E-1    4.363134725763140E-1   -2.204736962692246E-3   -1.364236174744406E-3   -2.364595040867723E-3   -1.327109873697602E-3   -2.273103922906359E-1    3.855816479999035E-1
 8.194891718725000E9    -3.141364494399019E-1    4.369067117007891E-1   -2.254239125738609E-3   -1.352002788623917E-3   -2.335523778878622E-3   -1.300570970261813E-3   -2.264708875631583E-1    3.860046421375098E-1
 8.194906469550000E9    -3.133017993668303E-1    4.374698188666506E-1   -2.246767689647745E-3   -1.360670807266454E-3   -2.361624259557627E-3   -1.325424210288649E-3   -2.258800667387890E-1    3.865873199666810E-1
 8.194921220375000E9    -3.124444925525873E-1    4.381946644755924E-1   -2.251693734749780E-3   -1.343399716241144E-3   -2.346043162902340E-3   -1.301994947548595E-3   -2.250823621312635E-1    3.867752395198359E-1
 8.194935971200000E9    -3.116529754584888E-1    4.386719429824779E-1   -2.253929091736108E-3   -1.358153682777078E-3   -2.342391260360691E-3   -1.323156288074699E-3   -2.243468687700830E-1    3.870563675722538E-1
 8.194950722025000E9    -3.108252284224846E-1    4.394219372946874E-1   -2.269399510845913E-3   -1.311669237292028E-3   -2.360766086579215E-3   -1.322134033566410E-3   -2.236763017413018E-1    3.876245359075067E-1
 8.194965472850000E9    -3.099182279973889E-1    4.398898555350193E-1   -2.261577821070950E-3   -1.334818197445723E-3   -2.353724614807259E-3   -1.270251247218211E-3   -2.227974936624917E-1    3.879522545994784E-1
 8.194980223675000E9    -3.090300065822195E-1    4.404670409806110E-1   -2.246465638230049E-3   -1.319839458470691E-3   -2.347811132523876E-3   -1.276622209453567E-3   -2.220682531023593E-1    3.883946208554089E-1
 8.194994974500000E9    -3.080911987243052E-1    4.410465809789735E-1   -2.267204330618499E-3   -1.351813083646743E-3   -2.334264249654463E-3   -1.309650346982786E-3   -2.214425587871109E-1    3.887141675760592E-1
 8.195009725325000E9    -3.073082247163005E-1    4.417442349188952E-1   -2.289318735624331E-3   -1.334251990156878E-3   -2.375889753692133E-3   -1.272820065862983E-3   -2.207533936458249E-1    3.892852830125151E-1
 8.195024476150000E9    -3.064666164130370E-1    4.421983674127884E-1   -2.279877670506021E-3   -1.324745899517530E-3   -2.368787927629666E-3   -1.277747016519732E-3   -2.199365854326264E-1    3.896044026603202E-1
 8.195039226975000E9    -3.055900807144917E-1    4.427217493056907E-1   -2.263238618736502E-3   -1.314782234410237E-3   -2.388659606610712E-3   -1.282255873373040E-3   -2.191433479187969E-1    3.899894910566731E-1
 8.195053977800000E9    -3.047245779234719E-1    4.433719062677847E-1   -2.276584442660664E-3   -1.340121728865237E-3   -2.365651192452731E-3   -1.258174825209088E-3   -2.184676646907267E-1    3.902165958042005E-1
 8.195068728625000E9    -3.038045345895971E-1    4.439476015720760E-1   -2.270104553197134E-3   -1.312719648260148E-3   -2.380810166895113E-3   -1.262550502497023E-3   -2.178541086339412E-1    3.906917417708901E-1
 8.195083479450000E9    -3.029292747239204E-1    4.446181983968854E-1   -2.302165375616140E-3   -1.274300602722022E-3   -2.381915754330625E-3   -1.256660677865599E-3   -2.169919031754662E-1    3.909951034442763E-1
 8.195098230275000E9    -3.020151067394654E-1    4.452239964181002E-1   -2.283792832399366E-3   -1.317519896454616E-3   -2.379579405574513E-3   -1.250557499651203E-3   -2.163310231139289E-1    3.915893481502601E-1
 8.195112981100000E9    -3.012229305064406E-1    4.457393203052975E-1   -2.298174491082894E-3   -1.315586669537660E-3   -2.375796219748913E-3   -1.243891202850714E-3   -2.156109845456768E-1    3.918075731801891E-1
 8.195127731925000E9    -3.004022487538407E-1    4.463077026751622E-1   -2.320596422676011E-3   -1.278995560367290E-3   -2.400712220680520E-3   -1.209296224602146E-3   -2.148924938947080E-1    3.921270282610391E-1
 8.195142482750000E9    -2.994516394622292E-1    4.468876357311767E-1   -2.325138051122989E-3   -1.311233825144997E-3   -2.396720090917507E-3   -1.240905367457346E-3   -2.141941038841219E-1    3.926563702212189E-1
 8.195157233575000E9    -2.986245668372013E-1    4.474655190227363E-1   -2.301400810339402E-3   -1.328316177625025E-3   -2.440118208066645E-3   -1.226200265876922E-3   -2.133752501314192E-1    3.929365777133622E-1
 8.195171984400000E9    -2.977853703036138E-1    4.480289551114974E-1   -2.323483840160380E-3   -1.307217621249539E-3   -2.435710223219498E-3   -1.244138434376409E-3   -2.127051553331596E-1    3.933367287002136E-1
 8.195186735225000E9    -2.968511250814470E-1    4.485667820232007E-1   -2.327366211766236E-3   -1.290684404644448E-3   -2.420229348196318E-3   -1.247379765473481E-3   -2.118650789653522E-1    3.938792825526448E-1
 8.195201486050000E9    -2.960309881393560E-1    4.492017186186730E-1   -2.320277938027374E-3   -1.261193250506682E-3   -2.414027474845113E-3   -1.206884980120413E-3   -2.113326547453660E-1    3.942091066877355E-1
 8.195216236875000E9    -2.951709815086588E-1    4.496900474541610E-1   -2.346180432648613E-3   -1.266283128560136E-3   -2.413831685021664E-3   -1.231969559499350E-3   -2.105351632964830E-1    3.944554651233289E-1
 8.195230987700000E9    -2.941502892560119E-1    4.503292954528150E-1   -2.329421066976769E-3   -1.258294046143975E-3   -2.422799989039189E-3   -1.226492629661549E-3   -2.097216861164999E-1    3.948301255321102E-1
 8.195245738525000E9    -2.933181022205990E-1    4.508283617415015E-1   -2.327294311330349E-3   -1.259257083042093E-3   -2.420520640781906E-3   -1.236304680278288E-3   -2.090237196919197E-1    3.952147148209784E-1
 8.195260489350000E9    -2.924946441934256E-1    4.513737936867719E-1   -2.327170857862393E-3   -1.281166756192313E-3   -2.437848104454393E-3   -1.210094094175199E-3   -2.082675523190183E-1    3.955906781006622E-1
 8.195275240175000E9    -2.915146158961149E-1    4.519433999933978E-1   -2.380613346472404E-3   -1.265914654724709E-3   -2.447833747966923E-3   -1.181111616889094E-3   -2.075316664496433E-1    3.960201464618797E-1
 8.195289991000000E9    -2.906522110059220E-1    4.524921791884384E-1   -2.362490189667701E-3   -1.275255258442342E-3   -2.448725478228684E-3   -1.219651498233368E-3   -2.067662307287492E-1    3.962695121518860E-1
 8.195304741825000E9    -2.897244822735661E-1    4.530682171156822E-1   -2.349409576143899E-3   -1.260429219097707E-3   -2.469710551666337E-3   -1.199829361631253E-3   -2.060093887997602E-1    3.964929957735264E-1
 8.195319492650000E9    -2.888518030486599E-1    4.535987136305322E-1   -2.344715122779786E-3   -1.239647346032114E-3   -2.452984325691515E-3   -1.180123502793833E-3   -2.052797855053711E-1    3.969649730829386E-1
 8.195334243475000E9    -2.880021073772717E-1    4.540928663171847E-1   -2.355664950728027E-3   -1.231043433999958E-3   -2.457912756867298E-3   -1.175539055975499E-3   -2.046068686280137E-1    3.973802887466335E-1
 8.195348994300000E9    -2.871341849048085E-1    4.547852690192165E-1   -2.372868776202430E-3   -1.221692786742027E-3   -2.464326826071470E-3   -1.189511511747719E-3   -2.038856406871276E-1    3.976732554687584E-1
 8.195363745125000E9    -2.862601310782116E-1    4.553609839254220E-1   -2.355306094180691E-3   -1.218994430118868E-3   -2.455515648847871E-3   -1.178073397207282E-3   -2.030394623800190E-1    3.979157373493278E-1
 8.195378495950000E9    -2.853350253100778E-1    4.559433704158957E-1   -2.355011982096207E-3   -1.231426094708455E-3   -2.468712912250268E-3   -1.133133687864770E-3   -2.022065118791750E-1    3.983745666266701E-1
 8.195393246775000E9    -2.845507273854206E-1    4.562599248395601E-1   -2.368158989745743E-3   -1.227782767172197E-3   -2.485394904443833E-3   -1.161052585584070E-3   -2.015560307762490E-1    3.988330702450420E-1
 8.195407997600000E9    -2.835339471728478E-1    4.568524104160172E-1   -2.383442216229617E-3   -1.217079449936485E-3   -2.485184073315916E-3   -1.189121996500260E-3   -2.008644385146162E-1    3.990897886625717E-1
 8.195422748425000E9    -2.825651286822895E-1    4.574068029622830E-1   -2.364704981852148E-3   -1.251575499822334E-3   -2.455068185401935E-3   -1.162752071841454E-3   -2.000986451180337E-1    3.995377770865146E-1
 8.195437499250000E9    -2.816625409139564E-1    4.579501811920162E-1   -2.368392457619382E-3   -1.212728400308968E-3   -2.460524052821266E-3   -1.144662670126304E-3   -1.993411486561175E-1    3.999156288836095E-1
