#  HZ   S   RI   R     50.00 
! Rohde & Schwarz Vector Network Analyzer 
! Rohde-Schwarz,ZNB20-2Port,1311601062101988,3.16
! Created: UTC 3/20/2024, 4:52:47 PM
! freq[Hz]                re:S11                  im:S11                  re:S21                  im:S21                  re:S12                  im:S12                  re:S22                  im:S22
 8.194139003000000E9    -3.561285822135455E-1    4.042008625394231E-1   -2.069105985723668E-3   -1.556619035770243E-3   -2.166626615493490E-3   -1.518553311421790E-3   -2.623538157220157E-1    3.643111161640875E-1
 8.194153606250000E9    -3.554798888935941E-1    4.049151302189527E-1   -2.041951464612157E-3   -1.550425416311134E-3   -2.152528149302594E-3   -1.481584874042297E-3   -2.616309587951638E-1    3.646781476632820E-1
 8.194168209500000E9    -3.545961933958858E-1    4.055506308185579E-1   -2.068639689566133E-3   -1.538718874161994E-3   -2.145038142735198E-3   -1.510601524903400E-3   -2.609804335266909E-1    3.650325877562269E-1
 8.194182812750000E9    -3.537240004625498E-1    4.061781318182154E-1   -2.056136340520991E-3   -1.521104028994652E-3   -2.174313742955554E-3   -1.512924737508293E-3   -2.603019993774564E-1    3.654888515854416E-1
 8.194197416000000E9    -3.530605292460429E-1    4.067466489546464E-1   -2.080306800220536E-3   -1.532538850197882E-3   -2.183934914162245E-3   -1.502650033677957E-3   -2.596275906625984E-1    3.661106157092928E-1
 8.194212019250000E9    -3.521296664284420E-1    4.076316667349956E-1   -2.076159175532747E-3   -1.492235317322554E-3   -2.171242744156472E-3   -1.501403360791570E-3   -2.589089328107313E-1    3.663904027974942E-1
 8.194226622500000E9    -3.514425261411901E-1    4.081835180160154E-1   -2.078236364185143E-3   -1.505919198453179E-3   -2.190813613521252E-3   -1.494100736175477E-3   -2.582891781311865E-1    3.668240548173753E-1
 8.194241225750000E9    -3.506119146018473E-1    4.088275049278763E-1   -2.061637332415933E-3   -1.521278737395042E-3   -2.195674913893798E-3   -1.471115580239891E-3   -2.575577177300566E-1    3.673858095014310E-1
 8.194255829000000E9    -3.497485542225676E-1    4.095798826137724E-1   -2.097345365072563E-3   -1.526884783116712E-3   -2.214527572978717E-3   -1.494687923565209E-3   -2.569617569919501E-1    3.678217717714878E-1
 8.194270432250000E9    -3.490003891674622E-1    4.101581909175671E-1   -2.104624110762192E-3   -1.531011848937790E-3   -2.165057085160840E-3   -1.444592659710852E-3   -2.561403498231514E-1    3.683085764026169E-1
 8.194285035500000E9    -3.482691391957169E-1    4.107880639678084E-1   -2.106931878968315E-3   -1.514175161290013E-3   -2.196103810934242E-3   -1.444388565402143E-3   -2.555366980360045E-1    3.687140337846456E-1
 8.194299638750000E9    -3.474333868143479E-1    4.115733252884839E-1   -2.096916583841240E-3   -1.504486763656641E-3   -2.187032021333017E-3   -1.434872058821625E-3   -2.549291924348586E-1    3.690969736176779E-1
 8.194314242000000E9    -3.466960266400825E-1    4.121293830536658E-1   -2.126349615658033E-3   -1.497552084052521E-3   -2.203061185504931E-3   -1.438944099036892E-3   -2.541785598792046E-1    3.696871813250227E-1
 8.194328845250000E9    -3.457807119552840E-1    4.128650576634385E-1   -2.109030782648809E-3   -1.470192500355989E-3   -2.190916725569628E-3   -1.454893356502189E-3   -2.534613329906557E-1    3.701338137957319E-1
 8.194343448500000E9    -3.449252235692302E-1    4.135844573556644E-1   -2.103780556315822E-3   -1.500259561692314E-3   -2.184482462269777E-3   -1.462819992998568E-3   -2.527068219168968E-1    3.706102906214211E-1
 8.194358051750000E9    -3.443159911908560E-1    4.142107809805304E-1   -2.097921771546120E-3   -1.477605865564769E-3   -2.208280425095366E-3   -1.474136170754411E-3   -2.522448080102843E-1    3.707529459193128E-1
 8.194372655000000E9    -3.434436723368209E-1    4.148224592104851E-1   -2.120687817210614E-3   -1.485597773408465E-3   -2.214687317538686E-3   -1.487046764639043E-3   -2.515565256403431E-1    3.715221934741866E-1
 8.194387258250000E9    -3.426068340298656E-1    4.155098476515091E-1   -2.126579102214775E-3   -1.481317765877048E-3   -2.213126865727587E-3   -1.461617449424084E-3   -2.507394581313489E-1    3.718296226443531E-1
 8.194401861500000E9    -3.417760121388827E-1    4.161393705893253E-1   -2.118556217485312E-3   -1.492931968805228E-3   -2.211670265172216E-3   -1.418163650347758E-3   -2.500526898567876E-1    3.722040820114586E-1
 8.194416464750000E9    -3.410494466299350E-1    4.167744220407178E-1   -2.140305169093213E-3   -1.476750889400796E-3   -2.222147404804085E-3   -1.430138451284917E-3   -2.494417017895512E-1    3.725960537264978E-1
 8.194431068000000E9    -3.401350649318622E-1    4.173600583570286E-1   -2.129404116739845E-3   -1.467110624127270E-3   -2.233820080932314E-3   -1.423521819893476E-3   -2.488021434893444E-1    3.731983159791461E-1
 8.194445671250000E9    -3.394353520014912E-1    4.180930196348944E-1   -2.134396098444174E-3   -1.430569161152430E-3   -2.264574968561889E-3   -1.429965457984798E-3   -2.479333304119494E-1    3.736089778554718E-1
 8.194460274500000E9    -3.385431079816473E-1    4.185727229351874E-1   -2.142315368875206E-3   -1.444029434889631E-3   -2.249235960795073E-3   -1.433750223836359E-3   -2.473487005234131E-1    3.740969394105503E-1
 8.194474877750000E9    -3.377989762584243E-1    4.193634193208950E-1   -2.144924405570325E-3   -1.466704768354286E-3   -2.214787398980166E-3   -1.413995038925030E-3   -2.465636116378990E-1    3.745178501780814E-1
 8.194489481000000E9    -3.369949536720244E-1    4.200792124234535E-1   -2.180941089180591E-3   -1.435742314007858E-3   -2.235047191707675E-3   -1.428964581948425E-3   -2.459503229657690E-1    3.749672031880519E-1
 8.194504084250000E9    -3.361177172538691E-1    4.206728593729288E-1   -2.138289978068162E-3   -1.466137494137780E-3   -2.235567828116162E-3   -1.397702036095051E-3   -2.451322767572841E-1    3.753546884116101E-1
 8.194518687500000E9    -3.353353517628240E-1    4.212032449678439E-1   -2.187238024207190E-3   -1.430045875990131E-3   -2.264037098625450E-3   -1.384950191291270E-3   -2.445575926729465E-1    3.757790438728709E-1
 8.194533290750000E9    -3.344352743545894E-1    4.218618410281844E-1   -2.163013866317087E-3   -1.439961402235067E-3   -2.257612913211910E-3   -1.390247195038721E-3   -2.438140997158540E-1    3.761403597093785E-1
 8.194547894000000E9    -3.336107902016558E-1    4.225175050602021E-1   -2.161537044068950E-3   -1.442532821242743E-3   -2.285254522275057E-3   -1.395779814421134E-3   -2.431591146630558E-1    3.765833649826061E-1
 8.194562497250000E9    -3.329465793070632E-1    4.230987956859009E-1   -2.156237992636781E-3   -1.421765588776126E-3   -2.290066922241606E-3   -1.375863569597809E-3   -2.425103261636727E-1    3.770600979088714E-1
 8.194577100500000E9    -3.320639455028188E-1    4.237183092023211E-1   -2.165458129723872E-3   -1.426699842691174E-3   -2.290998229328455E-3   -1.403542375104691E-3   -2.418577423312380E-1    3.774843982284691E-1
 8.194591703750000E9    -3.311631123527875E-1    4.243530931453803E-1   -2.166990486913402E-3   -1.429025641171186E-3   -2.281083716749756E-3   -1.398416628149171E-3   -2.409897608630474E-1    3.778886798465368E-1
 8.194606307000000E9    -3.304004380374165E-1    4.249699090984593E-1   -2.157845469286440E-3   -1.414955954092812E-3   -2.303257370878757E-3   -1.421960852251771E-3   -2.402949069539818E-1    3.783053814635590E-1
 8.194620910250000E9    -3.294293562660192E-1    4.255703934548312E-1   -2.177048965971630E-3   -1.436985671702367E-3   -2.261206267260102E-3   -1.400574541451429E-3   -2.396120630259615E-1    3.787091972770744E-1
 8.194635513500000E9    -3.287502089162057E-1    4.263523265030747E-1   -2.191664364149406E-3   -1.439445903922119E-3   -2.295982764942727E-3   -1.368542932474411E-3   -2.389381717592165E-1    3.790116614085488E-1
 8.194650116750000E9    -3.279109833409193E-1    4.268462489089002E-1   -2.196622605239863E-3   -1.395611888805805E-3   -2.310504323471198E-3   -1.355558097285322E-3   -2.382613626480362E-1    3.794672325619537E-1
 8.194664720000000E9    -3.270567770196573E-1    4.274229719643839E-1   -2.172012705233979E-3   -1.426302685509902E-3   -2.283933088054768E-3   -1.337055064384190E-3   -2.377013949800685E-1    3.798077511455812E-1
 8.194679323250000E9    -3.264253158193619E-1    4.281666176479530E-1   -2.189447532760416E-3   -1.406523946470583E-3   -2.320559914552199E-3   -1.358728567390960E-3   -2.369555746174238E-1    3.803192355699770E-1
 8.194693926500000E9    -3.254517087481418E-1    4.287469117106675E-1   -2.199176713180280E-3   -1.395627664309367E-3   -2.293741884194779E-3   -1.378416642121828E-3   -2.361565806976326E-1    3.807442577593900E-1
 8.194708529750000E9    -3.245427302688065E-1    4.293628909512537E-1   -2.183121405223360E-3   -1.416264511889728E-3   -2.288815072779037E-3   -1.351343809718473E-3   -2.354531358327447E-1    3.811842975350577E-1
 8.194723133000000E9    -3.238599391836518E-1    4.300108007924035E-1   -2.182006332398112E-3   -1.412121562029815E-3   -2.312245149230180E-3   -1.374349175672559E-3   -2.348463661726062E-1    3.816241407382546E-1
 8.194737736250000E9    -3.229545426134540E-1    4.305711743266493E-1   -2.203939765507305E-3   -1.393967969378737E-3   -2.295059541079032E-3   -1.355038098933487E-3   -2.339452898749904E-1    3.819657916170037E-1
 8.194752339500000E9    -3.221609739722369E-1    4.311840590354613E-1   -2.210872065830893E-3   -1.401695204071838E-3   -2.313090037723088E-3   -1.363369862297277E-3   -2.332884639139661E-1    3.823743786069241E-1
 8.194766942750000E9    -3.213724291155720E-1    4.317696473900778E-1   -2.195668373945443E-3   -1.347410278236717E-3   -2.322452421649140E-3   -1.352399770939879E-3   -2.326376981295790E-1    3.827021568675125E-1
 8.194781546000000E9    -3.204388885902564E-1    4.324065029086374E-1   -2.216725700061058E-3   -1.349016569244135E-3   -2.306002362276740E-3   -1.339677848651633E-3   -2.320330584332051E-1    3.833110391630026E-1
 8.194796149250000E9    -3.196110020178607E-1    4.329647572954771E-1   -2.236356786932100E-3   -1.374607305912792E-3   -2.309057186428831E-3   -1.341686565538255E-3   -2.313338227746063E-1    3.835738259370311E-1
 8.194810752500000E9    -3.187736962852464E-1    4.336307719828683E-1   -2.219862169964315E-3   -1.380212644280512E-3   -2.328443104723363E-3   -1.356507398392363E-3   -2.304168548685515E-1    3.839209525560456E-1
 8.194825355750000E9    -3.180136670587121E-1    4.340860423653565E-1   -2.233948022671265E-3   -1.381165654356831E-3   -2.328897351066413E-3   -1.341651909119667E-3   -2.298154602503892E-1    3.843726762792676E-1
 8.194839959000000E9    -3.171291412127139E-1    4.348330518930780E-1   -2.246969633972591E-3   -1.392693373828147E-3   -2.362242922476549E-3   -1.323051639783304E-3   -2.290555049356355E-1    3.847389675735666E-1
 8.194854562250000E9    -3.161844340499446E-1    4.353422796931338E-1   -2.255043926076112E-3   -1.354343574397417E-3   -2.338018401868432E-3   -1.303437720479303E-3   -2.283949884863197E-1    3.851035227735858E-1
 8.194869165500000E9    -3.154213296572408E-1    4.360130584912811E-1   -2.228533702637121E-3   -1.357824454865935E-3   -2.346723667453519E-3   -1.329645886396406E-3   -2.278156931982536E-1    3.857120354994282E-1
 8.194883768750000E9    -3.145444642999964E-1    4.367210328594066E-1   -2.240627285401164E-3   -1.342847745828374E-3   -2.328502209805721E-3   -1.310317935934363E-3   -2.270236232991543E-1    3.860528952472630E-1
 8.194898372000000E9    -3.139009906323125E-1    4.371228506701189E-1   -2.257712702344974E-3   -1.349705049573947E-3   -2.341224554881173E-3   -1.300247201907563E-3   -2.263290397135888E-1    3.864647189755232E-1
 8.194912975250000E9    -3.128528914546156E-1    4.377355493825967E-1   -2.268850153241599E-3   -1.337437698120225E-3   -2.391458193645599E-3   -1.286704661120105E-3   -2.254572119662268E-1    3.868625461989589E-1
 8.194927578500000E9    -3.119851036387137E-1    4.384527130183384E-1   -2.248423257907368E-3   -1.365274789476346E-3   -2.371075739266542E-3   -1.291148967342668E-3   -2.248569601659622E-1    3.871420158078374E-1
 8.194942181750000E9    -3.111604952474418E-1    4.390121523425531E-1   -2.252968302256975E-3   -1.361916262536327E-3   -2.341862387291363E-3   -1.312634508592510E-3   -2.241223805817012E-1    3.876003896656408E-1
 8.194956785000000E9    -3.104092784126062E-1    4.395877360462911E-1   -2.267502848121736E-3   -1.315055077467673E-3   -2.350524595431375E-3   -1.321811996878722E-3   -2.233899146306879E-1    3.878697484087367E-1
 8.194971388250000E9    -3.095273083112940E-1    4.401642188237925E-1   -2.263432594721091E-3   -1.314671645959306E-3   -2.370981606966552E-3   -1.302181973602498E-3   -2.226263281895900E-1    3.883550211735347E-1
 8.194985991500000E9    -3.086819266975750E-1    4.406361658814213E-1   -2.283243767377011E-3   -1.331744391257631E-3   -2.373465309033526E-3   -1.278811615532012E-3   -2.218452753770208E-1    3.885967724963231E-1
 8.195000594750000E9    -3.077298341784123E-1    4.413391765716544E-1   -2.259356582528137E-3   -1.329841908651206E-3   -2.373592710012105E-3   -1.273334004479978E-3   -2.213473553542027E-1    3.890802104304399E-1
 8.195015198000000E9    -3.069770050913153E-1    4.418851880754823E-1   -2.281837879258323E-3   -1.328191150611122E-3   -2.368975078131722E-3   -1.309136096506591E-3   -2.204862687420348E-1    3.895388721891417E-1
 8.195029801250000E9    -3.061177871079556E-1    4.424058600162351E-1   -2.295062953341150E-3   -1.300170131700784E-3   -2.383644517830378E-3   -1.255193602223679E-3   -2.199431724594696E-1    3.896768954499807E-1
 8.195044404500000E9    -3.052373827207040E-1    4.429711934591540E-1   -2.271655855700479E-3   -1.321891449352420E-3   -2.348113467186133E-3   -1.244257274000826E-3   -2.190964474724768E-1    3.902745024656132E-1
 8.195059007750000E9    -3.042451982536690E-1    4.435612419046621E-1   -2.270376776182977E-3   -1.312710458539186E-3   -2.373896328020211E-3   -1.249073330871914E-3   -2.182267241937704E-1    3.906762066323831E-1
 8.195073611000000E9    -3.034235286763007E-1    4.441986063042896E-1   -2.291740496638138E-3   -1.293872092660018E-3   -2.400187350241215E-3   -1.268353161617224E-3   -2.176127003091482E-1    3.909200650231969E-1
 8.195088214250000E9    -3.027258846549165E-1    4.447893136016758E-1   -2.291967070628397E-3   -1.323235639163412E-3   -2.380853567683353E-3   -1.249957107009883E-3   -2.169599816931495E-1    3.913768164127386E-1
 8.195102817500000E9    -3.017307951263437E-1    4.452931684659469E-1   -2.290975444548854E-3   -1.320100916647599E-3   -2.373203107730146E-3   -1.237107378667013E-3   -2.161543486057071E-1    3.917574161505865E-1
 8.195117420750000E9    -3.009562642043346E-1    4.458666589441083E-1   -2.310662789135486E-3   -1.340446181412762E-3   -2.397861668488093E-3   -1.265148918868635E-3   -2.154371034127111E-1    3.921328008946986E-1
 8.195132024000000E9    -3.000433155718841E-1    4.465337633625264E-1   -2.290515747696131E-3   -1.294005434674142E-3   -2.432943456731470E-3   -1.247350644840816E-3   -2.146152494986405E-1    3.925353727163227E-1
 8.195146627250000E9    -2.992053473936591E-1    4.470852738880568E-1   -2.324141093718216E-3   -1.310268376564794E-3   -2.406019564057358E-3   -1.287610044224038E-3   -2.141148719726477E-1    3.928704179794688E-1
 8.195161230500000E9    -2.984188067557264E-1    4.475595056006895E-1   -2.323091679267775E-3   -1.288225972813523E-3   -2.422921256940559E-3   -1.237296286162320E-3   -2.132125575264986E-1    3.931468299287352E-1
 8.195175833750000E9    -2.973861883412011E-1    4.482013890974610E-1   -2.299874311833202E-3   -1.272734275698770E-3   -2.432112171897604E-3   -1.243559216340296E-3   -2.125320639115917E-1    3.936350533259629E-1
 8.195190437000000E9    -2.965137338161616E-1    4.486670122786611E-1   -2.333900803073312E-3   -1.252400361101092E-3   -2.409912840840556E-3   -1.258796895021370E-3   -2.117565558391825E-1    3.939869003306066E-1
 8.195205040250000E9    -2.956978247980664E-1    4.492915036396359E-1   -2.324089510463015E-3   -1.259205902262697E-3   -2.457333784125246E-3   -1.213146525801775E-3   -2.110380933166550E-1    3.942079388572707E-1
 8.195219643500000E9    -2.948587882802168E-1    4.498764907512569E-1   -2.325225272546647E-3   -1.281809705926589E-3   -2.444128377952967E-3   -1.211138888021304E-3   -2.103277605046257E-1    3.947878345269730E-1
 8.195234246750000E9    -2.939778629308590E-1    4.504920459945008E-1   -2.350906369271164E-3   -1.260838717268523E-3   -2.428366807728171E-3   -1.223857650059386E-3   -2.096261051710190E-1    3.951822070195960E-1
 8.195248850000000E9    -2.930985162322929E-1    4.509792014062883E-1   -2.307610066471016E-3   -1.285796650546255E-3   -2.448586969723095E-3   -1.190561850359348E-3   -2.089147464618816E-1    3.955107134979187E-1
 8.195263453250000E9    -2.921865023081315E-1    4.515538105778548E-1   -2.352766714090176E-3   -1.259669396412159E-3   -2.444553433990772E-3   -1.212046617039654E-3   -2.083024272921865E-1    3.958317490940342E-1
 8.195278056500000E9    -2.913418516092336E-1    4.520226661033250E-1   -2.351276877823833E-3   -1.261405572097233E-3   -2.441093081677404E-3   -1.199870402530957E-3   -2.074095105252731E-1    3.962535457457440E-1
 8.195292659750000E9    -2.904434625616474E-1    4.525833534258620E-1   -2.350884034048482E-3   -1.229008284196466E-3   -2.462161321450114E-3   -1.173350286649764E-3   -2.065377306745701E-1    3.965525262454820E-1
 8.195307263000000E9    -2.895338632811557E-1    4.530528152565795E-1   -2.344572452820423E-3   -1.226465337162468E-3   -2.458691599225897E-3   -1.208214682539675E-3   -2.060512971154291E-1    3.968751434633297E-1
 8.195321866250000E9    -2.886168369681654E-1    4.537349979740523E-1   -2.339587964927516E-3   -1.248076299696875E-3   -2.473569169558315E-3   -1.206214607574475E-3   -2.052127957168761E-1    3.973517673781365E-1
 8.195336469500000E9    -2.878394214804775E-1    4.542509028998112E-1   -2.348253028270422E-3   -1.241672300870213E-3   -2.478077608375928E-3   -1.177821013115772E-3   -2.044533313213602E-1    3.975316484025912E-1
 8.195351072750000E9    -2.869154802552858E-1    4.548740061644758E-1   -2.369718543632230E-3   -1.232349054271236E-3   -2.441818255387824E-3   -1.192811246531710E-3   -2.037829966066915E-1    3.979346205333775E-1
 8.195365676000000E9    -2.860917513723821E-1    4.552547289751285E-1   -2.375311453646046E-3   -1.191165425345166E-3   -2.450421987863449E-3   -1.188675405084975E-3   -2.030007184660988E-1    3.983032884592283E-1
 8.195380279250000E9    -2.850908444898898E-1    4.558736201861116E-1   -2.362458106590081E-3   -1.246119061311283E-3   -2.463912825064589E-3   -1.175511953544788E-3   -2.022234656693733E-1    3.987294819138566E-1
 8.195394882500000E9    -2.843158285341598E-1    4.564696717092970E-1   -2.379045910460417E-3   -1.203953179285362E-3   -2.439291198706007E-3   -1.159427951453011E-3   -2.015819096818078E-1    3.989851528021533E-1
 8.195409485750000E9    -2.833828189643178E-1    4.568735945892076E-1   -2.391823439761956E-3   -1.222900702159976E-3   -2.460025792033838E-3   -1.148740482012304E-3   -2.007142372463936E-1    3.993850310581096E-1
 8.195424089000000E9    -2.825764562505215E-1    4.573512193080587E-1   -2.387215127114671E-3   -1.201489823737968E-3   -2.457539265797448E-3   -1.164677753631384E-3   -2.001016260581453E-1    3.996068402542551E-1
 8.195438692250000E9    -2.817069346930491E-1    4.579758447140117E-1   -2.413831900656108E-3   -1.205581826733928E-3   -2.465428154104752E-3   -1.174849043418105E-3   -1.994376267181676E-1    4.000116086639109E-1
 8.195453295500000E9    -2.807442240749910E-1    4.584484157961489E-1   -2.377991782595407E-3   -1.215429652483460E-3   -2.465912718340029E-3   -1.148642313719729E-3   -1.986096759251768E-1    4.003532909857894E-1
