#  HZ   S   RI   R     50.00 
! Rohde & Schwarz Vector Network Analyzer 
! Rohde-Schwarz,ZNB20-2Port,1311601062101988,3.16
! Created: UTC 3/20/2024, 5:08:05 PM
! freq[Hz]                re:S11                  im:S11                  re:S21                  im:S21                  re:S12                  im:S12                  re:S22                  im:S22
 8.187720681000000E9    -5.415766081678550E-1    7.678039548255418E-3   -2.519157998445665E-4   -2.305463754194275E-3   -3.079417365878532E-4   -2.426852311366270E-3   -4.534117534183959E-1    7.156531521992548E-2
 8.187764265725000E9    -5.415538536944836E-1    1.075684780905623E-2   -2.988981361663449E-4   -2.325390305189076E-3   -3.564368088287675E-4   -2.416452638928315E-3   -4.529138141869747E-1    7.413603907247060E-2
 8.187807850450000E9    -5.415650077293641E-1    1.378833558979776E-2   -3.059035688839178E-4   -2.330059708613877E-3   -3.270697379642344E-4   -2.436523415015051E-3   -4.525224699278047E-1    7.620597243702588E-2
 8.187851435175000E9    -5.413257058029588E-1    1.676827538967169E-2   -3.064342113505551E-4   -2.305045242535552E-3   -3.678250335186626E-4   -2.416434554405565E-3   -4.522204462042781E-1    7.857415485750877E-2
 8.187895019900000E9    -5.412994678016242E-1    1.991035269207500E-2   -3.125637079604099E-4   -2.349502177503634E-3   -4.099749187037813E-4   -2.393824351173271E-3   -4.515601504876185E-1    8.094343962218718E-2
 8.187938604625000E9    -5.411737348624323E-1    2.295164040941122E-2   -3.215025887711466E-4   -2.323112306953495E-3   -3.894415003850994E-4   -2.375099365908465E-3   -4.512233136216415E-1    8.348272692336942E-2
 8.187982189350000E9    -5.410611794498486E-1    2.589842868558435E-2   -3.669596499744655E-4   -2.334073074487671E-3   -4.174232608101855E-4   -2.379962317861372E-3   -4.505946541841386E-1    8.589955985852606E-2
 8.188025774075000E9    -5.407498666489641E-1    2.894960896541051E-2   -3.306116234185392E-4   -2.311304487803672E-3   -4.162296803048856E-4   -2.419054526735405E-3   -4.502548517357267E-1    8.814587098136074E-2
 8.188069358800000E9    -5.406739344599848E-1    3.207112151320663E-2   -3.582024196827789E-4   -2.319456881729001E-3   -4.292846057350094E-4   -2.392689404232409E-3   -4.495622830305087E-1    9.068713490632593E-2
 8.188112943525000E9    -5.404292220636157E-1    3.513225525602399E-2   -3.898154015089626E-4   -2.322550920512405E-3   -4.564202642299896E-4   -2.417280320934475E-3   -4.490240594825520E-1    9.280812891796276E-2
 8.188156528250000E9    -5.401686504773209E-1    3.827156871675114E-2   -3.905598980353846E-4   -2.319404632983059E-3   -4.577717087126545E-4   -2.404851007840604E-3   -4.486973950984106E-1    9.520940548271374E-2
 8.188200112975000E9    -5.399868423640873E-1    4.115149844572021E-2   -4.127116719413669E-4   -2.315499565153313E-3   -4.651967439542942E-4   -2.415139317583579E-3   -4.480522276920306E-1    9.762821952192881E-2
 8.188243697700000E9    -5.398459558862305E-1    4.426943523213898E-2   -4.474864547969889E-4   -2.305141015937513E-3   -4.923912551355406E-4   -2.375033849169565E-3   -4.472945181593309E-1    1.000357896440819E-1
 8.188287282425000E9    -5.395269949327258E-1    4.736245039597758E-2   -4.352928755654427E-4   -2.312712495245880E-3   -5.075624522738123E-4   -2.370709283029996E-3   -4.468658446311716E-1    1.022739509768458E-1
 8.188330867150000E9    -5.391776412368741E-1    5.037560026188648E-2   -4.431771890198993E-4   -2.310552885914885E-3   -5.251317700266855E-4   -2.339300729087609E-3   -4.461961210089700E-1    1.046736275838521E-1
 8.188374451875000E9    -5.387624094813760E-1    5.338716715612944E-2   -4.443957342351282E-4   -2.309815858478277E-3   -5.271644691591466E-4   -2.369205534612279E-3   -4.457230412747717E-1    1.071171156716030E-1
 8.188418036600000E9    -5.385046585421723E-1    5.640214971066487E-2   -4.551497872468155E-4   -2.317774996226185E-3   -5.415676733324699E-4   -2.389382910882557E-3   -4.449598556706150E-1    1.094625899151187E-1
 8.188461621325000E9    -5.382691025229179E-1    5.941951581201507E-2   -4.816170133536493E-4   -2.313471024433238E-3   -5.605007134442948E-4   -2.419335752936789E-3   -4.442957530610102E-1    1.117385178572415E-1
 8.188505206050000E9    -5.380258051326412E-1    6.246318235692463E-2   -4.874191637523545E-4   -2.310419295655413E-3   -5.780591818110141E-4   -2.364998221803501E-3   -4.436302358054784E-1    1.140260978598480E-1
 8.188548790775000E9    -5.374258586590669E-1    6.551048412241910E-2   -5.351861125712304E-4   -2.287532175740349E-3   -6.253579883196535E-4   -2.402792180738906E-3   -4.430303578491195E-1    1.165004250619450E-1
 8.188592375500000E9    -5.370618148488215E-1    6.840807482568155E-2   -4.870401430273678E-4   -2.316493561901359E-3   -5.683147682879055E-4   -2.387144144822063E-3   -4.425123922724055E-1    1.187325492908265E-1
 8.188635960225000E9    -5.366502952625499E-1    7.150600085194714E-2   -5.509029101508088E-4   -2.314645389438126E-3   -6.288702017840132E-4   -2.394436219125806E-3   -4.416039584555395E-1    1.210492828303376E-1
 8.188679544950000E9    -5.361650619081822E-1    7.437033187007033E-2   -5.487854757361128E-4   -2.297577906558955E-3   -6.392874604130963E-4   -2.340801236937180E-3   -4.410186993833675E-1    1.232667766032226E-1
 8.188723129675000E9    -5.358866736289698E-1    7.743547032597643E-2   -5.417647117646205E-4   -2.305717323911917E-3   -6.259433344131951E-4   -2.359465820411220E-3   -4.402973791432081E-1    1.257513743486445E-1
 8.188766714400000E9    -5.353715563228247E-1    8.067735626628927E-2   -5.696227509119314E-4   -2.299648688462780E-3   -6.311148876844396E-4   -2.389758835584243E-3   -4.395385790656006E-1    1.280650945659993E-1
 8.188810299125000E9    -5.348165691784322E-1    8.369891857857967E-2   -5.979164818015811E-4   -2.293190191166286E-3   -6.883637698863603E-4   -2.348635502180669E-3   -4.388169528783360E-1    1.303331527539862E-1
 8.188853883850000E9    -5.342322714883551E-1    8.666755089626613E-2   -6.128836786602121E-4   -2.284754713467103E-3   -6.727054236428755E-4   -2.347874976942580E-3   -4.382162543619872E-1    1.326466957392969E-1
 8.188897468575000E9    -5.338136897084138E-1    8.976387651282580E-2   -6.349987318832744E-4   -2.302885574871774E-3   -6.735633688765235E-4   -2.373312817582055E-3   -4.372545881036785E-1    1.349931050543129E-1
 8.188941053300000E9    -5.333574038994856E-1    9.262099290846262E-2   -6.023419067818744E-4   -2.287887152496312E-3   -6.812852182264508E-4   -2.377437373237147E-3   -4.366722872136729E-1    1.371536410985839E-1
 8.188984638025000E9    -5.327552229208566E-1    9.566779367885170E-2   -6.342938982442670E-4   -2.288198385005869E-3   -6.997170909529295E-4   -2.345996683424653E-3   -4.358611928445711E-1    1.394534744940173E-1
 8.189028222750000E9    -5.321162048505932E-1    9.864441022285959E-2   -6.377652556660405E-4   -2.281290977846879E-3   -7.337679407278377E-4   -2.315113748206002E-3   -4.350233254308901E-1    1.417796880035617E-1
 8.189071807475000E9    -5.315049146453555E-1    1.016475045553436E-1   -6.651491570813904E-4   -2.286402633320498E-3   -7.330701873912866E-4   -2.356593640047253E-3   -4.342546927545829E-1    1.440575273267031E-1
 8.189115392200000E9    -5.309140639984151E-1    1.045242370196498E-1   -6.861625892836988E-4   -2.272915560139719E-3   -7.692334318291389E-4   -2.336331573178005E-3   -4.334324342303061E-1    1.464676407175105E-1
 8.189158976925000E9    -5.303631605162412E-1    1.076639486530318E-1   -6.987169549879455E-4   -2.267949226597858E-3   -7.477449661300756E-4   -2.335360173522434E-3   -4.327770593663601E-1    1.487026518375487E-1
 8.189202561650000E9    -5.299327512440863E-1    1.106806791395550E-1   -7.045677971205134E-4   -2.299998619238723E-3   -7.798635856496244E-4   -2.335793930616093E-3   -4.319317195766383E-1    1.510422807661052E-1
 8.189246146375000E9    -5.291601710707701E-1    1.135784132800305E-1   -7.220369879096007E-4   -2.268962312304195E-3   -7.819148028816770E-4   -2.350098557939688E-3   -4.311057935271541E-1    1.532085095024321E-1
 8.189289731100000E9    -5.284651359946184E-1    1.165537445538565E-1   -7.230975772021810E-4   -2.273411044515014E-3   -7.991202407441775E-4   -2.341844068052205E-3   -4.300809268615689E-1    1.554718818125337E-1
 8.189333315825000E9    -5.277440484272719E-1    1.195317752045571E-1   -7.387366382065557E-4   -2.276021713094905E-3   -8.384095839283120E-4   -2.342639608524482E-3   -4.292193362170909E-1    1.577863330996773E-1
 8.189376900550000E9    -5.270169980891392E-1    1.225004449428423E-1   -7.368903542281893E-4   -2.254164018168258E-3   -8.243273430954199E-4   -2.313274745951464E-3   -4.284841124114552E-1    1.599649852006399E-1
 8.189420485275000E9    -5.263185631355469E-1    1.254413017280891E-1   -7.730623966226371E-4   -2.273656201408993E-3   -8.621550268559588E-4   -2.326768778684938E-3   -4.273638209946131E-1    1.622644666294266E-1
 8.189464070000000E9    -5.256036381033499E-1    1.283590899252892E-1   -7.969479310601229E-4   -2.271875320278130E-3   -8.586440261922259E-4   -2.346162515167861E-3   -4.266149114449292E-1    1.645157406159849E-1
 8.189507654725000E9    -5.249161112402958E-1    1.313608919724685E-1   -7.832811549453310E-4   -2.256283073741907E-3   -8.700890571518826E-4   -2.285532639406662E-3   -4.255827916987988E-1    1.667686917698121E-1
 8.189551239450000E9    -5.240196045797987E-1    1.343680006469711E-1   -8.288278815958504E-4   -2.270420873390670E-3   -8.816999911792264E-4   -2.328444402570537E-3   -4.247362122596935E-1    1.689501792028542E-1
 8.189594824175000E9    -5.233325159689511E-1    1.372585900066776E-1   -7.909532926936964E-4   -2.241981322398086E-3   -9.263171996757276E-4   -2.316927923155427E-3   -4.237197014162283E-1    1.711471431724343E-1
 8.189638408900000E9    -5.225123608378585E-1    1.401682556714333E-1   -8.229461678407496E-4   -2.281839852108476E-3   -9.079067077395253E-4   -2.300288334212217E-3   -4.226987208323849E-1    1.733454570170450E-1
 8.189681993625000E9    -5.216770873961833E-1    1.431185525694257E-1   -8.353840411784391E-4   -2.233791890440748E-3   -9.112500453920124E-4   -2.281645804017275E-3   -4.219100821989021E-1    1.756695030064545E-1
 8.189725578350000E9    -5.209252574874379E-1    1.462077225039864E-1   -8.609793688767830E-4   -2.236713068030325E-3   -9.277592851750691E-4   -2.302986329026537E-3   -4.208137218031368E-1    1.778242792695297E-1
 8.189769163075000E9    -5.199934388579062E-1    1.490188308468620E-1   -8.568876237334491E-4   -2.255028144678554E-3   -9.700069849262013E-4   -2.302446633832461E-3   -4.197778534203199E-1    1.800223445532271E-1
 8.189812747800000E9    -5.190320656265427E-1    1.520415453649997E-1   -8.700634701403475E-4   -2.219195706484246E-3   -9.823707636267118E-4   -2.299711264896985E-3   -4.187731917906462E-1    1.823059314872776E-1
 8.189856332525000E9    -5.181726160148888E-1    1.548351092010278E-1   -8.760078748673588E-4   -2.218805211593915E-3   -9.354172323455277E-4   -2.255383063976316E-3   -4.177679228119328E-1    1.845409310875510E-1
 8.189899917250000E9    -5.173433254667751E-1    1.578124641263260E-1   -8.965442144448601E-4   -2.236867377560855E-3   -9.974565353830932E-4   -2.282854932358699E-3   -4.168223399511543E-1    1.867529966754376E-1
 8.189943501975000E9    -5.164237216926733E-1    1.607039473839719E-1   -8.982389366366566E-4   -2.215430116868266E-3   -9.845663337844173E-4   -2.246166886270104E-3   -4.157149387998822E-1    1.889120445414211E-1
 8.189987086700000E9    -5.155154910276974E-1    1.636129706597492E-1   -8.989023489226909E-4   -2.205594477075751E-3   -1.020620045721456E-3   -2.227678792985722E-3   -4.145564394691411E-1    1.909663083339660E-1
 8.190030671425000E9    -5.145501935938210E-1    1.666089082639683E-1   -9.210980889147322E-4   -2.209321905724710E-3   -1.030001686596152E-3   -2.275902288995353E-3   -4.134530980356063E-1    1.932892122776187E-1
 8.190074256150000E9    -5.135445755637911E-1    1.693927666630618E-1   -9.442883219683222E-4   -2.226835470216806E-3   -1.056013383669767E-3   -2.228223493840823E-3   -4.123751913463357E-1    1.954982757481020E-1
 8.190117840875000E9    -5.125515417791473E-1    1.722421386878603E-1   -9.605728703818908E-4   -2.199820486773776E-3   -1.005277216520244E-3   -2.257447444799719E-3   -4.113508828376763E-1    1.975226942667186E-1
 8.190161425600000E9    -5.115966116796837E-1    1.752139948881475E-1   -9.845517786189232E-4   -2.185988206522226E-3   -1.084869142003538E-3   -2.278399479706923E-3   -4.103156107300546E-1    1.997414262874720E-1
 8.190205010325000E9    -5.106786710316273E-1    1.780897440410627E-1   -9.903146354851952E-4   -2.197058297710519E-3   -1.042050203233122E-3   -2.254049629874949E-3   -4.091877234030677E-1    2.019477770985287E-1
 8.190248595050000E9    -5.095446996044068E-1    1.811106067573161E-1   -1.010654876297722E-3   -2.173753316515898E-3   -1.093771459436726E-3   -2.224476312729695E-3   -4.079728549545581E-1    2.039623359739246E-1
 8.190292179775000E9    -5.084221322532960E-1    1.838319428133457E-1   -1.003138032268448E-3   -2.182501372149161E-3   -1.092110936792281E-3   -2.264992702850741E-3   -4.069182242451208E-1    2.060747996968752E-1
 8.190335764500000E9    -5.073867310906003E-1    1.867615692507885E-1   -1.020020025992178E-3   -2.170621072840163E-3   -1.103260252505555E-3   -2.230986196477004E-3   -4.056904233355847E-1    2.083077953123256E-1
 8.190379349225000E9    -5.063900566708032E-1    1.896290426063658E-1   -1.033770517759716E-3   -2.179566069386709E-3   -1.116309636566074E-3   -2.215891756956656E-3   -4.046290637432051E-1    2.104588595778200E-1
 8.190422933950000E9    -5.051791443079796E-1    1.925218298463115E-1   -1.031854920015058E-3   -2.170388545533769E-3   -1.125220327697882E-3   -2.202930226541956E-3   -4.033984650844689E-1    2.125217365844822E-1
 8.190466518675000E9    -5.040273207696502E-1    1.952695533128721E-1   -1.086985409002547E-3   -2.195956573252946E-3   -1.160526295510302E-3   -2.208467687198223E-3   -4.022409509380509E-1    2.147288067859438E-1
 8.190510103400000E9    -5.030549506093520E-1    1.981801789804489E-1   -1.069205607155844E-3   -2.161066045285097E-3   -1.178946768383837E-3   -2.218465282660721E-3   -4.010982858766856E-1    2.167291684898667E-1
 8.190553688125000E9    -5.018058965212443E-1    2.008596009742223E-1   -1.079348530256628E-3   -2.174106734830567E-3   -1.180793707652919E-3   -2.223215328038062E-3   -3.998113454205618E-1    2.188212190674240E-1
 8.190597272850000E9    -5.006607884162171E-1    2.037606925211508E-1   -1.092379717171866E-3   -2.137898256106224E-3   -1.191875162407407E-3   -2.207069783958655E-3   -3.986414449747503E-1    2.209658869762642E-1
 8.190640857575000E9    -4.994300156869779E-1    2.065103677650031E-1   -1.091766872697418E-3   -2.136284763992807E-3   -1.217780258770540E-3   -2.191907661336123E-3   -3.974613641242029E-1    2.230541213303020E-1
 8.190684442300000E9    -4.982617878101849E-1    2.093662282237417E-1   -1.126666783022419E-3   -2.140745968959223E-3   -1.215634911199865E-3   -2.184753196692962E-3   -3.962164286939445E-1    2.252788693526400E-1
 8.190728027025000E9    -4.970247463776368E-1    2.122742075122392E-1   -1.170106055205901E-3   -2.131099488359281E-3   -1.240636726860870E-3   -2.162277525056294E-3   -3.949185571841042E-1    2.272623270662239E-1
 8.190771611750000E9    -4.957908620283948E-1    2.149462499866696E-1   -1.149012962836294E-3   -2.156127228176035E-3   -1.241278897586690E-3   -2.176575770514556E-3   -3.938020794416008E-1    2.293083440509127E-1
 8.190815196475000E9    -4.946182905603319E-1    2.178978563772617E-1   -1.142943436447496E-3   -2.107897493386962E-3   -1.251062077214053E-3   -2.177200247888830E-3   -3.923299221367528E-1    2.313112125694124E-1
 8.190858781200000E9    -4.932811030897071E-1    2.206255941582504E-1   -1.224233663699456E-3   -2.125197228766641E-3   -1.287541567399660E-3   -2.137514873934220E-3   -3.911522386798745E-1    2.334132950294889E-1
 8.190902365925000E9    -4.920245069353556E-1    2.234156301506691E-1   -1.175673465990321E-3   -2.119366640257513E-3   -1.301597672511865E-3   -2.147414486883504E-3   -3.898364105074240E-1    2.355982460915648E-1
 8.190945950650000E9    -4.908113057174650E-1    2.260573933087441E-1   -1.225398767406988E-3   -2.106026347871231E-3   -1.311750990307995E-3   -2.159838027746035E-3   -3.885898626253123E-1    2.376149937337480E-1
 8.190989535375000E9    -4.895692754218083E-1    2.288690634033638E-1   -1.219575217816081E-3   -2.120529213288791E-3   -1.311365828469357E-3   -2.157530960285317E-3   -3.872034416854107E-1    2.396203473758073E-1
 8.191033120100000E9    -4.880984202024145E-1    2.315726276815146E-1   -1.222469223479455E-3   -2.106106547319567E-3   -1.326072704036164E-3   -2.151606929422193E-3   -3.858318919819103E-1    2.416531690030206E-1
 8.191076704825000E9    -4.869721008344416E-1    2.344666293100466E-1   -1.218074201477058E-3   -2.114790576114503E-3   -1.334737749741539E-3   -2.100310668811760E-3   -3.845473356854309E-1    2.436512016686579E-1
 8.191120289550000E9    -4.855016611077112E-1    2.372182136911136E-1   -1.223844339104265E-3   -2.079511885703256E-3   -1.344136079894066E-3   -2.128153851459131E-3   -3.832259784479906E-1    2.455973317579683E-1
 8.191163874275000E9    -4.841498666185146E-1    2.398618838644044E-1   -1.265054334507236E-3   -2.093145491555755E-3   -1.382187909080580E-3   -2.151247922234286E-3   -3.818408871699461E-1    2.475833466079679E-1
 8.191207459000000E9    -4.826660204867182E-1    2.426506384204724E-1   -1.294005716483277E-3   -2.066431158896921E-3   -1.369478150108204E-3   -2.090932637781517E-3   -3.805250655995819E-1    2.497719069667819E-1
 8.191251043725000E9    -4.812361795912638E-1    2.454316194311177E-1   -1.274876245527554E-3   -2.089633452573449E-3   -1.380746401080496E-3   -2.105744256022841E-3   -3.792054653212200E-1    2.516329520001182E-1
 8.191294628450000E9    -4.798191136287110E-1    2.480398119340992E-1   -1.304160436230417E-3   -2.085036812631206E-3   -1.437614027866992E-3   -2.110744265251535E-3   -3.777748123701020E-1    2.537313626581708E-1
 8.191338213175000E9    -4.784795033377110E-1    2.508285788524777E-1   -1.305194822500938E-3   -2.067105143700411E-3   -1.408409308278316E-3   -2.068196301580367E-3   -3.761773128123412E-1    2.557065113338953E-1
 8.191381797900000E9    -4.768822158924372E-1    2.534520656677486E-1   -1.311456284145877E-3   -2.038298559536901E-3   -1.420825895689650E-3   -2.080005320808822E-3   -3.749137206651731E-1    2.574440013880732E-1
 8.191425382625000E9    -4.755471087221148E-1    2.560268149242627E-1   -1.340598092736744E-3   -2.050433585501879E-3   -1.416887076567592E-3   -2.088740299411146E-3   -3.734962331979313E-1    2.595378133627367E-1
 8.191468967350000E9    -4.740548592304963E-1    2.587408709441346E-1   -1.337382311140921E-3   -2.043586552823104E-3   -1.495968543868485E-3   -2.058529998979882E-3   -3.720103434896279E-1    2.616403182150357E-1
 8.191512552075000E9    -4.725722350343051E-1    2.615215627853841E-1   -1.359965306166981E-3   -2.056849240857281E-3   -1.427316907213232E-3   -2.051155610041952E-3   -3.706056713139501E-1    2.634273884750066E-1
 8.191556136800000E9    -4.711461565648473E-1    2.642199900148059E-1   -1.380011757561024E-3   -2.014680761610299E-3   -1.484543973621744E-3   -2.029082911033875E-3   -3.690077137727636E-1    2.653666487414664E-1
 8.191599721525000E9    -4.695800217086400E-1    2.666918382240193E-1   -1.387648670026032E-3   -1.998256785765437E-3   -1.485090323591312E-3   -2.061104058536210E-3   -3.677122481601119E-1    2.672993910338257E-1
 8.191643306250000E9    -4.680505346127757E-1    2.693969892826740E-1   -1.417519223037682E-3   -2.022676152930586E-3   -1.460271903296601E-3   -2.032338859853533E-3   -3.661130053426290E-1    2.692141772185436E-1
