#  HZ   S   RI   R     50.00 
! Rohde & Schwarz Vector Network Analyzer 
! Rohde-Schwarz,ZNB20-2Port,1311601062101988,3.16
! Created: UTC 12/23/2023, 3:46:16 AM
! freq[Hz]                re:S11                  im:S11                  re:S21                  im:S21                  re:S12                  im:S12                  re:S22                  im:S22
 6.516897261000000E9    -2.312245516858248E-1   -1.919422268940251E-2    1.291800475439082E-2   -5.038006299151334E-3    1.296387285395353E-2   -4.644789728820983E-3    1.960219704259363E-1    5.119330173280278E-1
 6.516909463675000E9    -2.310869271398389E-1   -1.896600853744890E-2    1.304111925976938E-2   -5.097922883186958E-3    1.296794702112821E-2   -4.599126940181235E-3    1.968644666110426E-1    5.117143876146575E-1
 6.516921666350000E9    -2.309582681660202E-1   -1.878411659921312E-2    1.302059810095412E-2   -5.124872134182377E-3    1.309414204465739E-2   -4.659777665795689E-3    1.977919752347410E-1    5.112315145392243E-1
 6.516933869025000E9    -2.308132306780082E-1   -1.862110567804821E-2    1.302119883028733E-2   -5.165823412275148E-3    1.320564309222628E-2   -4.713571538258451E-3    1.986379295325685E-1    5.109795782541432E-1
 6.516946071700000E9    -2.306959869261883E-1   -1.835406938254925E-2    1.295545021267009E-2   -5.198782650197519E-3    1.324100240557239E-2   -4.669325527137391E-3    1.995392333373061E-1    5.105622407864909E-1
 6.516958274375000E9    -2.305922407609021E-1   -1.824927675521244E-2    1.308171454622108E-2   -5.337618511261087E-3    1.327203690885497E-2   -4.858760184125031E-3    2.005479861278655E-1    5.101455622337769E-1
 6.516970477050000E9    -2.303865543270106E-1   -1.799526860465683E-2    1.332652905975415E-2   -5.307188442016781E-3    1.336819800897986E-2   -4.859616045059838E-3    2.013504021103582E-1    5.098011223567184E-1
 6.516982679725000E9    -2.302550676185708E-1   -1.788818575382750E-2    1.321441153160715E-2   -5.414659425470043E-3    1.331606641504368E-2   -4.878011675149388E-3    2.023163413846001E-1    5.095529759375345E-1
 6.516994882400000E9    -2.301564147367697E-1   -1.764357254132206E-2    1.331323660765031E-2   -5.452309329138679E-3    1.348166177496697E-2   -4.987697939838069E-3    2.032974654305278E-1    5.093183975102423E-1
 6.517007085075000E9    -2.300468748563277E-1   -1.745196362066587E-2    1.321935891736647E-2   -5.421507005017271E-3    1.354325961274204E-2   -5.116610724765015E-3    2.043138568225837E-1    5.087731406145379E-1
 6.517019287750000E9    -2.300736337202894E-1   -1.711869835089624E-2    1.339516597777978E-2   -5.515170502562268E-3    1.357319757957639E-2   -5.042131859984182E-3    2.049593917067567E-1    5.085313136918658E-1
 6.517031490425000E9    -2.297498423786977E-1   -1.714710526719425E-2    1.354787388950592E-2   -5.469246628519742E-3    1.353731243449516E-2   -5.268550258237882E-3    2.059478207970810E-1    5.082261917303005E-1
 6.517043693100000E9    -2.297788561224131E-1   -1.683718211517315E-2    1.362586672737958E-2   -5.591500756136269E-3    1.373528133881645E-2   -5.209784367146547E-3    2.068383801249264E-1    5.077514686872732E-1
 6.517055895775000E9    -2.296471268206281E-1   -1.671982765716729E-2    1.366928353795071E-2   -5.791590779109813E-3    1.376088390859810E-2   -5.200878089805796E-3    2.077576116469584E-1    5.074802495175651E-1
 6.517068098450000E9    -2.295333602043784E-1   -1.650074221063218E-2    1.348184811952408E-2   -5.737911756278156E-3    1.373295052784357E-2   -5.260260469543063E-3    2.087913265521392E-1    5.070700298623821E-1
 6.517080301125000E9    -2.294784347804698E-1   -1.634775264117232E-2    1.374454296456014E-2   -5.931095294671770E-3    1.373281283628693E-2   -5.459372421603432E-3    2.097158405808991E-1    5.068531804297417E-1
 6.517092503800000E9    -2.292516043794914E-1   -1.603348153740073E-2    1.369975532846254E-2   -5.926878603053526E-3    1.379815171511241E-2   -5.483460700973700E-3    2.104437105938362E-1    5.064401477759397E-1
 6.517104706475000E9    -2.290688276718813E-1   -1.597229664588593E-2    1.378140159297233E-2   -6.025777985634739E-3    1.394026216279546E-2   -5.435037616641557E-3    2.113738441265162E-1    5.058940592840302E-1
 6.517116909150000E9    -2.289828660108746E-1   -1.570337108454143E-2    1.400139569985819E-2   -5.938349391071391E-3    1.403295883743672E-2   -5.585598661282628E-3    2.122754895456796E-1    5.056651500630198E-1
 6.517129111825000E9    -2.288684838417807E-1   -1.550359298111926E-2    1.380606309552214E-2   -6.090496354032881E-3    1.399690349437427E-2   -5.620393768272415E-3    2.132901418108807E-1    5.051333652166644E-1
 6.517141314500000E9    -2.287572879130467E-1   -1.532251316760153E-2    1.401006758860220E-2   -6.177705672022193E-3    1.414731312930772E-2   -5.654436440101552E-3    2.141354751150984E-1    5.048764216082499E-1
 6.517153517175000E9    -2.287077948238084E-1   -1.519258859955619E-2    1.408480418684576E-2   -6.222883260520352E-3    1.412178605445924E-2   -5.693394166430082E-3    2.150494436116455E-1    5.045441247863016E-1
 6.517165719850000E9    -2.284711987920746E-1   -1.503758520838834E-2    1.417887510559592E-2   -6.392632023905083E-3    1.423653242891128E-2   -5.714468098636266E-3    2.159377921244299E-1    5.042242738137745E-1
 6.517177922525000E9    -2.282540563975676E-1   -1.476980566191937E-2    1.425601088494126E-2   -6.389786373580328E-3    1.440960150386437E-2   -5.836377641425356E-3    2.168403172719655E-1    5.037359580353558E-1
 6.517190125200000E9    -2.281261924926896E-1   -1.464063025962775E-2    1.427961021038683E-2   -6.387678976585542E-3    1.441210380400504E-2   -5.749740164590779E-3    2.176043903660851E-1    5.034870522922211E-1
 6.517202327875000E9    -2.279728863413523E-1   -1.449877156786337E-2    1.427824218470417E-2   -6.521529999528862E-3    1.455341193004310E-2   -5.890678928596658E-3    2.184842221784877E-1    5.030031605114222E-1
 6.517214530550000E9    -2.279080613762048E-1   -1.436923817817177E-2    1.440825822726038E-2   -6.565241284068065E-3    1.453104839528813E-2   -5.998259980958540E-3    2.195481336921034E-1    5.027205588754632E-1
 6.517226733225000E9    -2.279094623344329E-1   -1.412893611279873E-2    1.454525819263524E-2   -6.512304221373853E-3    1.460726292041705E-2   -6.054971964208443E-3    2.204023164838878E-1    5.023276036338897E-1
 6.517238935900000E9    -2.277231387683476E-1   -1.394841785513864E-2    1.452326345088967E-2   -6.640437033876289E-3    1.471343781234147E-2   -6.073240008009042E-3    2.211246774945289E-1    5.018502433456297E-1
 6.517251138575000E9    -2.274667686742777E-1   -1.371898476263222E-2    1.459531720189918E-2   -6.743299895422742E-3    1.473892864948439E-2   -6.193867164100086E-3    2.221778267626732E-1    5.014796560480677E-1
 6.517263341250000E9    -2.274306457034266E-1   -1.351865393033878E-2    1.466846287935616E-2   -6.787159434219928E-3    1.475867398355600E-2   -6.336217130759774E-3    2.230508874029780E-1    5.010000384569882E-1
 6.517275543925000E9    -2.271891909639692E-1   -1.344143256181165E-2    1.477296582331740E-2   -6.818442199168193E-3    1.484372031777109E-2   -6.348495833575059E-3    2.239524588256036E-1    5.008643371054350E-1
 6.517287746600000E9    -2.270455382435394E-1   -1.324928423893464E-2    1.480904630878347E-2   -6.907574446930917E-3    1.501254328250198E-2   -6.389108739640284E-3    2.249352104385382E-1    5.002601372999432E-1
 6.517299949275000E9    -2.270503010964024E-1   -1.316411170882516E-2    1.487310862787971E-2   -7.076914161568292E-3    1.512146781387539E-2   -6.438728647192527E-3    2.258304080387738E-1    4.999214386066154E-1
 6.517312151950000E9    -2.267254988185976E-1   -1.285725168518187E-2    1.501142720056795E-2   -7.077113093546483E-3    1.515924602074691E-2   -6.478459600306270E-3    2.265680881532078E-1    4.994827983572979E-1
 6.517324354625000E9    -2.266373144192645E-1   -1.276378889642254E-2    1.505966620674889E-2   -7.163771912212398E-3    1.510276052593703E-2   -6.623899131978541E-3    2.277168801795367E-1    4.990304881290125E-1
 6.517336557300000E9    -2.264751859650798E-1   -1.254142525805030E-2    1.514771944692426E-2   -7.238770172228758E-3    1.520682554680106E-2   -6.737179373169478E-3    2.285065575230376E-1    4.987934836240728E-1
 6.517348759975000E9    -2.263643635498152E-1   -1.250080202624661E-2    1.512843287305131E-2   -7.336862873967513E-3    1.534557827046055E-2   -6.831035136019288E-3    2.293881140693555E-1    4.982133768251615E-1
 6.517360962650000E9    -2.261835330470852E-1   -1.226464529060261E-2    1.522109193543783E-2   -7.347102115904256E-3    1.539803216154878E-2   -6.897270077976018E-3    2.302498541152321E-1    4.980000647523656E-1
 6.517373165325000E9    -2.260189908085949E-1   -1.200902699876116E-2    1.540221231126365E-2   -7.471246444581981E-3    1.550031078382968E-2   -6.945094993670876E-3    2.313216567400233E-1    4.975632246778598E-1
 6.517385368000000E9    -2.259252001474050E-1   -1.192090728992339E-2    1.528017862060302E-2   -7.500940624248949E-3    1.555508088780036E-2   -6.930128061191625E-3    2.320820012339013E-1    4.969958689229855E-1
 6.517397570675000E9    -2.257671968625122E-1   -1.182468134100320E-2    1.557520779409163E-2   -7.681751963887635E-3    1.561242414688216E-2   -7.080698578307999E-3    2.331382879457813E-1    4.966552823271626E-1
 6.517409773350000E9    -2.256223236394063E-1   -1.172617784018061E-2    1.557082143361630E-2   -7.795423926933507E-3    1.572692355153223E-2   -7.197106064454132E-3    2.338822311647063E-1    4.960714420015633E-1
 6.517421976025000E9    -2.254235550910414E-1   -1.138979476468947E-2    1.552161697439803E-2   -7.713458049749326E-3    1.576671617130714E-2   -7.169499690853834E-3    2.348127310973181E-1    4.957739019182049E-1
 6.517434178700000E9    -2.253060602097959E-1   -1.128879806697934E-2    1.574131578332228E-2   -7.857732673684689E-3    1.590046132312973E-2   -7.310668276181633E-3    2.357213450158638E-1    4.954454323247477E-1
 6.517446381375000E9    -2.250897556787638E-1   -1.107831051217015E-2    1.578810723352015E-2   -7.880675806445216E-3    1.606879882844854E-2   -7.466873331683128E-3    2.365797545242968E-1    4.949617422147209E-1
 6.517458584050000E9    -2.249356891479600E-1   -1.096061106652568E-2    1.595453798380714E-2   -7.958946699427804E-3    1.606236113411492E-2   -7.529123873703789E-3    2.375154840911934E-1    4.944976880904293E-1
 6.517470786725000E9    -2.247620884389228E-1   -1.082193083217991E-2    1.593185337824883E-2   -8.048109188744702E-3    1.613428015672149E-2   -7.486282259017702E-3    2.383564380728818E-1    4.940427921211787E-1
 6.517482989400000E9    -2.246191064418912E-1   -1.066148617115335E-2    1.612720173113543E-2   -8.270379826224101E-3    1.627109943367801E-2   -7.508470273448044E-3    2.393077609426713E-1    4.936834888952016E-1
 6.517495192075000E9    -2.245287705781216E-1   -1.061403871878111E-2    1.609364721756746E-2   -8.254888585841242E-3    1.630352412397792E-2   -7.677232335998921E-3    2.403277795441200E-1    4.932064391246800E-1
 6.517507394750000E9    -2.244339287313646E-1   -1.040105485498916E-2    1.620471651572542E-2   -8.365198212948965E-3    1.634955581318020E-2   -7.841639313524582E-3    2.411173329757422E-1    4.929643830653616E-1
 6.517519597425000E9    -2.240527176967174E-1   -1.023831393739920E-2    1.621862000448897E-2   -8.482801679236377E-3    1.657045936816087E-2   -7.826598580654036E-3    2.420387452675755E-1    4.923467314310808E-1
 6.517531800100000E9    -2.240407597131213E-1   -9.968870692392958E-3    1.632675814419992E-2   -8.626155333477371E-3    1.647328797534663E-2   -8.023254582007791E-3    2.428923191312422E-1    4.918566610045459E-1
 6.517544002775000E9    -2.238577979977434E-1   -9.863910938209151E-3    1.635246887900667E-2   -8.743067964540874E-3    1.670100536035953E-2   -8.020842969174777E-3    2.439697794358573E-1    4.914703245578479E-1
 6.517556205450000E9    -2.236169023375559E-1   -9.835966888754179E-3    1.646597882367768E-2   -8.767088779551457E-3    1.686956287828546E-2   -8.204377563306837E-3    2.447229342595192E-1    4.910317576282833E-1
 6.517568408125000E9    -2.234028419464734E-1   -9.726762519001789E-3    1.673841185596041E-2   -8.788096977498605E-3    1.685401250861662E-2   -8.289515395336957E-3    2.454653733327514E-1    4.905069651453651E-1
 6.517580610800000E9    -2.232947345658022E-1   -9.393360148215639E-3    1.676776548757755E-2   -8.911826248738311E-3    1.692700379426503E-2   -8.304232936838381E-3    2.466373177938618E-1    4.900539853595677E-1
 6.517592813475000E9    -2.230367098419449E-1   -9.433110189963331E-3    1.675194758545123E-2   -9.015256659660451E-3    1.702180932744242E-2   -8.460696447360619E-3    2.475685690668902E-1    4.896357471492361E-1
 6.517605016150000E9    -2.230465490232047E-1   -9.199835646161697E-3    1.692576073704435E-2   -9.078223378986358E-3    1.701748018406769E-2   -8.512792139339240E-3    2.484516650350076E-1    4.891753449201939E-1
 6.517617218825000E9    -2.228160585237468E-1   -9.097037794676849E-3    1.696269287313718E-2   -9.211650007161610E-3    1.717926436598644E-2   -8.687775057380004E-3    2.492758276932077E-1    4.887692641445398E-1
 6.517629421500000E9    -2.226344218009736E-1   -8.975443655669707E-3    1.714966887081809E-2   -9.325187144881935E-3    1.737407530944709E-2   -8.753726123914238E-3    2.503277868222231E-1    4.882958346146755E-1
 6.517641624175000E9    -2.224384528990286E-1   -8.823522458212786E-3    1.716323029501526E-2   -9.341090381397030E-3    1.738370952480113E-2   -8.888154358604843E-3    2.511545597222731E-1    4.877102009792192E-1
 6.517653826850000E9    -2.222026724686652E-1   -8.735970904551280E-3    1.719475892462893E-2   -9.413847384378378E-3    1.751390262682871E-2   -8.898931722653864E-3    2.519486366064281E-1    4.872904891061263E-1
 6.517666029525000E9    -2.219763217681003E-1   -8.455972441936254E-3    1.734120002642427E-2   -9.731313139938360E-3    1.760842618799225E-2   -9.117419487161589E-3    2.529606170708306E-1    4.868474891167273E-1
 6.517678232200000E9    -2.217965458525160E-1   -8.444792173741070E-3    1.741224843751852E-2   -9.789444269483480E-3    1.770918895774755E-2   -9.165868028664264E-3    2.538377081443560E-1    4.864088627611915E-1
 6.517690434875000E9    -2.217010565680319E-1   -8.329238287346727E-3    1.749384344271512E-2   -9.841443805299223E-3    1.773830144119597E-2   -9.297456285254651E-3    2.546752541890644E-1    4.858924549741611E-1
 6.517702637550000E9    -2.215271459944413E-1   -8.138686754234785E-3    1.765684446019412E-2   -9.961314862609668E-3    1.797796666904318E-2   -9.379809762939353E-3    2.555258346131918E-1    4.852656870841764E-1
 6.517714840225000E9    -2.212669411452593E-1   -8.040720633105068E-3    1.765485062384306E-2   -1.015134498225759E-2    1.810242993908763E-2   -9.598718665627694E-3    2.565976305290451E-1    4.849981527910849E-1
 6.517727042900000E9    -2.211038900557017E-1   -7.974481680351777E-3    1.780821326609945E-2   -1.022396214449824E-2    1.805125173847342E-2   -9.550930018565404E-3    2.574716768507405E-1    4.843981231400890E-1
 6.517739245575000E9    -2.208926647094152E-1   -7.757393086772018E-3    1.789798962015710E-2   -1.020293613814727E-2    1.824654470748692E-2   -9.811575486199299E-3    2.583428241945653E-1    4.841439446921823E-1
 6.517751448250000E9    -2.206757727272714E-1   -7.672196406326453E-3    1.797307370163166E-2   -1.049770887222909E-2    1.832700950065410E-2   -9.822181635212980E-3    2.591620401191458E-1    4.833659558330424E-1
 6.517763650925000E9    -2.204908823657910E-1   -7.598197531067473E-3    1.823868243036778E-2   -1.055654332185425E-2    1.845420901560076E-2   -9.968936982562814E-3    2.601552264997984E-1    4.830108277730758E-1
 6.517775853600000E9    -2.203848087990328E-1   -7.415337402559953E-3    1.821313627320344E-2   -1.075555243697834E-2    1.863925478565100E-2   -1.018549959992243E-2    2.610577623931378E-1    4.824717311345690E-1
 6.517788056275000E9    -2.200482487180938E-1   -7.379196402881174E-3    1.843519374993022E-2   -1.084062991371395E-2    1.866548250007664E-2   -1.024522447389937E-2    2.621069675340501E-1    4.819861496566119E-1
 6.517800258950000E9    -2.198764350518817E-1   -7.261978574414582E-3    1.841058794370965E-2   -1.091933614063010E-2    1.883173807946577E-2   -1.036226753976149E-2    2.627676391515786E-1    4.814437746836743E-1
 6.517812461625000E9    -2.195951175346057E-1   -7.164764144255472E-3    1.850652642959441E-2   -1.118268242482129E-2    1.896375117924468E-2   -1.052180945219220E-2    2.637509707259046E-1    4.807431211546194E-1
 6.517824664300000E9    -2.194749309671322E-1   -7.055751898434679E-3    1.884493213201231E-2   -1.121551218971045E-2    1.907227635540140E-2   -1.065787195409452E-2    2.646768193711717E-1    4.804043952118682E-1
 6.517836866975000E9    -2.192696778659934E-1   -6.977965479925497E-3    1.880929853813754E-2   -1.148546833385841E-2    1.913817523826570E-2   -1.076661694088952E-2    2.657127413119865E-1    4.797660736495649E-1
 6.517849069650000E9    -2.190820501086845E-1   -6.811691167836404E-3    1.897221020059739E-2   -1.163559107959773E-2    1.921854909314800E-2   -1.095223423834518E-2    2.666839694129507E-1    4.792930326129069E-1
 6.517861272325000E9    -2.188048565584690E-1   -6.748522783070062E-3    1.906260852772990E-2   -1.168085774461713E-2    1.942897488727525E-2   -1.099408151898029E-2    2.674022277599938E-1    4.788720300955278E-1
 6.517873475000000E9    -2.185629436845610E-1   -6.661220847352992E-3    1.913858911004342E-2   -1.187408414728662E-2    1.950061448263797E-2   -1.125235516278087E-2    2.684961477869910E-1    4.782603482774738E-1
 6.517885677675000E9    -2.183556455962481E-1   -6.565995467709418E-3    1.926055936890557E-2   -1.196368796487904E-2    1.955765458439457E-2   -1.137332590080682E-2    2.693875356651043E-1    4.776686182244046E-1
 6.517897880350000E9    -2.180840252131637E-1   -6.505936891946793E-3    1.939260935437754E-2   -1.217494769806116E-2    1.973505481083405E-2   -1.155234753050555E-2    2.700415740305266E-1    4.772570885011164E-1
 6.517910083025000E9    -2.179013938477762E-1   -6.372130119793977E-3    1.950334534092339E-2   -1.235401274383113E-2    2.001689068312701E-2   -1.166814135187555E-2    2.710437183316564E-1    4.767668322856411E-1
 6.517922285700000E9    -2.177164706134179E-1   -6.328987256351775E-3    1.969645396783236E-2   -1.232909549334641E-2    1.997210055870035E-2   -1.177518629390090E-2    2.718687266565281E-1    4.761289808787962E-1
 6.517934488375000E9    -2.174597199377813E-1   -6.249305418884522E-3    1.974022426549703E-2   -1.261200471567006E-2    2.014412605571540E-2   -1.194126517194826E-2    2.729298468362098E-1    4.755449227244860E-1
 6.517946691050000E9    -2.172382378143004E-1   -6.305013149499198E-3    1.998856325666897E-2   -1.282119048017732E-2    2.029072668128497E-2   -1.216555124379574E-2    2.738382490507810E-1    4.751185400855844E-1
 6.517958893725000E9    -2.170424099959076E-1   -6.123312760816016E-3    1.993289473413637E-2   -1.287902126183769E-2    2.042472430056204E-2   -1.223145764231477E-2    2.746002861763285E-1    4.743917582148203E-1
 6.517971096400000E9    -2.167338660266981E-1   -6.158085394851964E-3    2.016278421674758E-2   -1.308300787813886E-2    2.059196417091406E-2   -1.237196390609108E-2    2.754923358437088E-1    4.738366449124876E-1
 6.517983299075000E9    -2.165716589926335E-1   -5.944511200885190E-3    2.039102283378150E-2   -1.342159861793722E-2    2.072122909866498E-2   -1.260811786531275E-2    2.765204963118067E-1    4.733400115297747E-1
 6.517995501750000E9    -2.162931676182344E-1   -5.864804130249307E-3    2.035706921146134E-2   -1.350666084332870E-2    2.084130971075786E-2   -1.281270358090051E-2    2.774361332168828E-1    4.728091734532331E-1
