#  HZ   S   RI   R     50.00 
! Rohde & Schwarz Vector Network Analyzer 
! Rohde-Schwarz,ZNB20-2Port,1311601062101988,3.16
! Created: UTC 12/23/2023, 3:48:22 AM
! freq[Hz]                re:S11                  im:S11                  re:S21                  im:S21                  re:S12                  im:S12                  re:S22                  im:S22
 6.516837657000000E9    -2.315711814639757E-1   -2.014242965844743E-2    1.265871420143756E-2   -4.890270681553581E-3    1.274650187671338E-2   -4.370643451853271E-3    1.916344566973033E-1    5.135016095668563E-1
 6.516850069650000E9    -2.314955674183066E-1   -1.988879900218962E-2    1.274958629894466E-2   -4.932162349387875E-3    1.292951671027088E-2   -4.420685917412952E-3    1.926450179465622E-1    5.131094764091058E-1
 6.516862482300000E9    -2.312849365466621E-1   -1.967122599701734E-2    1.286403672448178E-2   -4.976087147977858E-3    1.294784664617441E-2   -4.545408615559825E-3    1.935400794221023E-1    5.126349640800111E-1
 6.516874894950000E9    -2.312800735495272E-1   -1.952054234910123E-2    1.295379190430305E-2   -5.155736897400338E-3    1.303057445592512E-2   -4.567666151910840E-3    1.945621836967302E-1    5.124436700976457E-1
 6.516887307600000E9    -2.310353549103238E-1   -1.927572707143522E-2    1.294672235112140E-2   -5.028722473165465E-3    1.302053209565423E-2   -4.610769454142749E-3    1.952977207444416E-1    5.121035667292780E-1
 6.516899720250000E9    -2.309824427406885E-1   -1.914413969942977E-2    1.286957222079634E-2   -5.197423887858215E-3    1.305619015648620E-2   -4.687852131319072E-3    1.963185731319724E-1    5.117757640121912E-1
 6.516912132900000E9    -2.310563564281002E-1   -1.892350495932931E-2    1.303489671621285E-2   -5.122985676893887E-3    1.313095537566030E-2   -4.639305213245204E-3    1.972604857437832E-1    5.113391584360123E-1
 6.516924545550000E9    -2.307373013690467E-1   -1.873634349165508E-2    1.304844574077548E-2   -5.243568064702761E-3    1.313548116420116E-2   -4.739539470110657E-3    1.980149214766638E-1    5.110891153143270E-1
 6.516936958200000E9    -2.305384134839788E-1   -1.857883276302245E-2    1.312989595094839E-2   -5.154768920065922E-3    1.327868572949011E-2   -4.679863919627930E-3    1.989613572651013E-1    5.105866032485066E-1
 6.516949370850000E9    -2.304500740603764E-1   -1.833565777638645E-2    1.317589671599928E-2   -5.305561157005360E-3    1.323312826392877E-2   -4.803210392042610E-3    1.999848021399685E-1    5.102763489788651E-1
 6.516961783500000E9    -2.303724706372554E-1   -1.815452741101037E-2    1.324146637974913E-2   -5.383390286238533E-3    1.342895801864293E-2   -4.873625629182047E-3    2.008576409960409E-1    5.098750499033181E-1
 6.516974196150000E9    -2.303181715644727E-1   -1.787924895378656E-2    1.333056437150944E-2   -5.373020840629564E-3    1.332363388753032E-2   -5.006806302642893E-3    2.017461621244322E-1    5.096153037859705E-1
 6.516986608800000E9    -2.300287260714290E-1   -1.781638433091344E-2    1.329945776999493E-2   -5.441749152466958E-3    1.346758813481353E-2   -5.009685252388569E-3    2.026549757684437E-1    5.092279315094371E-1
 6.516999021450000E9    -2.299008765273314E-1   -1.756397580939066E-2    1.336846003700722E-2   -5.543566281445076E-3    1.349807473586400E-2   -5.022661051367332E-3    2.036541299705289E-1    5.089454042992138E-1
 6.517011434100000E9    -2.299418616868277E-1   -1.735829774053990E-2    1.345089531827229E-2   -5.601966398303362E-3    1.366533967415112E-2   -5.095636185317140E-3    2.043938569549533E-1    5.085382425792150E-1
 6.517023846750000E9    -2.298092223122064E-1   -1.715152794062698E-2    1.360109728810257E-2   -5.640609368749422E-3    1.367841728063127E-2   -5.099258376601775E-3    2.053992721795360E-1    5.083371396803233E-1
 6.517036259400000E9    -2.296385186166335E-1   -1.696405337791008E-2    1.365181812518095E-2   -5.624923865481061E-3    1.376422532654620E-2   -5.202020578855974E-3    2.064722324031505E-1    5.078738620307545E-1
 6.517048672050000E9    -2.295118605175324E-1   -1.688991372309508E-2    1.360925306150456E-2   -5.824892956055896E-3    1.379229697357382E-2   -5.273852034841920E-3    2.072860163218879E-1    5.074477856238960E-1
 6.517061084700000E9    -2.293681903610231E-1   -1.652333212602680E-2    1.367295463145230E-2   -5.772623309605805E-3    1.386234094090751E-2   -5.365926392153626E-3    2.082833959523776E-1    5.070354122916353E-1
 6.517073497350000E9    -2.291832992067642E-1   -1.650671572772179E-2    1.374427599177456E-2   -5.963667208123722E-3    1.385295568548240E-2   -5.382485277946081E-3    2.092632514817691E-1    5.068608253296809E-1
 6.517085910000000E9    -2.289556062065593E-1   -1.629809892559035E-2    1.389877205403086E-2   -6.018343747294735E-3    1.397994498835472E-2   -5.383348014184745E-3    2.100976905227131E-1    5.064170087762083E-1
 6.517098322650000E9    -2.290054352327911E-1   -1.612930289922780E-2    1.396179560758851E-2   -5.892158340682670E-3    1.402341134368134E-2   -5.510064680020656E-3    2.109040371569066E-1    5.060494973359951E-1
 6.517110735300000E9    -2.288314495652662E-1   -1.592028054535443E-2    1.389039306651154E-2   -6.026282516029534E-3    1.416336315063855E-2   -5.600646293571498E-3    2.119647686584095E-1    5.057385516855946E-1
 6.517123147950000E9    -2.287015890796852E-1   -1.566581955985503E-2    1.402558975569993E-2   -6.173723069406296E-3    1.418660621999332E-2   -5.561693341617845E-3    2.126473257857162E-1    5.053098818493428E-1
 6.517135560600000E9    -2.285124205207264E-1   -1.546302116066013E-2    1.416593516909288E-2   -6.144908945418464E-3    1.424530406443909E-2   -5.632497712754413E-3    2.135969522826816E-1    5.049351556929821E-1
 6.517147973250000E9    -2.284811533843873E-1   -1.532707139383276E-2    1.427149276260419E-2   -6.320111911204209E-3    1.431381257800882E-2   -5.713745312124660E-3    2.146953287058857E-1    5.045923029967184E-1
 6.517160385900000E9    -2.283083696678617E-1   -1.517151139195852E-2    1.419629168192958E-2   -6.364344493492735E-3    1.441673698283115E-2   -5.827648644851964E-3    2.156133124911896E-1    5.041416456938022E-1
 6.517172798550000E9    -2.282458703631989E-1   -1.485558021189851E-2    1.431573698910841E-2   -6.432897852608124E-3    1.441929751049661E-2   -5.816916853267947E-3    2.164133865612337E-1    5.037933788733056E-1
 6.517185211200000E9    -2.281336523261527E-1   -1.475014653618635E-2    1.426179215965060E-2   -6.459660219041461E-3    1.461964374005406E-2   -5.865192680422306E-3    2.173688515955231E-1    5.034297035261066E-1
 6.517197623850000E9    -2.278158168943987E-1   -1.456323812369128E-2    1.444141495352043E-2   -6.443165764967396E-3    1.456147759835205E-2   -5.941775114409640E-3    2.182765074752435E-1    5.029526188049220E-1
 6.517210036500000E9    -2.277588168288575E-1   -1.440005820450167E-2    1.445282823937334E-2   -6.599788945860638E-3    1.459322841712074E-2   -6.175178477798069E-3    2.193518493447397E-1    5.025330152251627E-1
 6.517222449150000E9    -2.276229933470616E-1   -1.427938784549051E-2    1.461277348704958E-2   -6.559933886216861E-3    1.485991172242919E-2   -6.132519925531739E-3    2.201190042912573E-1    5.021613505495710E-1
 6.517234861800000E9    -2.274323318006613E-1   -1.402840493300009E-2    1.462924012298468E-2   -6.686388015769747E-3    1.475140567347487E-2   -6.273900362688907E-3    2.211649439397071E-1    5.018810664883396E-1
 6.517247274450000E9    -2.273778910818489E-1   -1.390214730569699E-2    1.465661102611205E-2   -6.917445915750046E-3    1.494419957785133E-2   -6.288093375525014E-3    2.220059711671826E-1    5.013037555930583E-1
 6.517259687100000E9    -2.272061139221775E-1   -1.380135105965975E-2    1.481352987397940E-2   -6.890676136119022E-3    1.484033275903402E-2   -6.307901668866770E-3    2.228786753560751E-1    5.010047060359869E-1
 6.517272099750000E9    -2.270699732600290E-1   -1.354722898550201E-2    1.484506903397661E-2   -6.871895783273895E-3    1.504543553580217E-2   -6.417808803980326E-3    2.238133845659956E-1    5.007583533596650E-1
 6.517284512400000E9    -2.269357381344690E-1   -1.334703402484094E-2    1.493155079210682E-2   -7.011787065674930E-3    1.504574409128471E-2   -6.422800754482700E-3    2.247768959572943E-1    5.003439665153335E-1
 6.517296925050000E9    -2.267611568807519E-1   -1.320116627657395E-2    1.497324744259480E-2   -7.094401618198163E-3    1.517172633304329E-2   -6.583012447565247E-3    2.258198477506989E-1    4.999440789710065E-1
 6.517309337700000E9    -2.265498366049799E-1   -1.298745862081994E-2    1.497321002615041E-2   -7.115035549857445E-3    1.517908866709932E-2   -6.608806053814802E-3    2.266286389020483E-1    4.995331307176518E-1
 6.517321750350000E9    -2.265268989072338E-1   -1.285090415007170E-2    1.498967324791252E-2   -7.205233146187434E-3    1.529549480072942E-2   -6.650703829257214E-3    2.275664682883769E-1    4.990061301977460E-1
 6.517334163000000E9    -2.262913860291225E-1   -1.274994277026529E-2    1.527137489615048E-2   -7.356726193851680E-3    1.534512398259770E-2   -6.663668969174968E-3    2.283875556788817E-1    4.986656547121962E-1
 6.517346575650000E9    -2.260587056799742E-1   -1.256384655869507E-2    1.526913314917218E-2   -7.260288008078837E-3    1.531022891065307E-2   -6.861815423060347E-3    2.293179170065327E-1    4.981553755360660E-1
 6.517358988300000E9    -2.259310614547280E-1   -1.234338444160363E-2    1.530934370353138E-2   -7.461012304765510E-3    1.554504589899674E-2   -7.001066269029566E-3    2.303093318477719E-1    4.978234168477455E-1
 6.517371400950000E9    -2.257899510747249E-1   -1.214502177449542E-2    1.545040160993768E-2   -7.516378238396000E-3    1.555721176753963E-2   -6.928653861337343E-3    2.313372074399470E-1    4.974152533034981E-1
 6.517383813600000E9    -2.257070049652979E-1   -1.202735821294368E-2    1.546162694860083E-2   -7.649393790214803E-3    1.576720721508408E-2   -6.879126538177733E-3    2.321028054308896E-1    4.968884486475186E-1
 6.517396226250000E9    -2.255709375148060E-1   -1.188185517858606E-2    1.547504271387412E-2   -7.676604638890380E-3    1.568923843625209E-2   -7.123192256895223E-3    2.330624143866953E-1    4.963855264706503E-1
 6.517408638900000E9    -2.253770072650920E-1   -1.163547550132923E-2    1.552956389599375E-2   -7.746953157261099E-3    1.587083269742543E-2   -7.299832687651702E-3    2.339916418658778E-1    4.960041082292878E-1
 6.517421051550000E9    -2.252481603095663E-1   -1.152944801155595E-2    1.572326453580657E-2   -7.891591480562116E-3    1.593690714146557E-2   -7.415722555674849E-3    2.347764514750079E-1    4.955456710240546E-1
 6.517433464200000E9    -2.250555600631164E-1   -1.141699492647775E-2    1.587161177028749E-2   -8.121072430904961E-3    1.598639018120522E-2   -7.392431712635667E-3    2.358031426771056E-1    4.952126303904152E-1
 6.517445876850000E9    -2.247184404158608E-1   -1.124739277478311E-2    1.586366060723089E-2   -8.065396976367408E-3    1.601412092018656E-2   -7.575620012592814E-3    2.366988409261454E-1    4.948304998404301E-1
 6.517458289500000E9    -2.247788426170577E-1   -1.095274084726695E-2    1.598300307605497E-2   -8.110444071389999E-3    1.619698974839550E-2   -7.525793533666386E-3    2.376111386880010E-1    4.943655370336489E-1
 6.517470702150000E9    -2.245560664994775E-1   -1.103478253453193E-2    1.610689638381511E-2   -8.147143025375314E-3    1.630248416392786E-2   -7.732439100965147E-3    2.385309245202430E-1    4.939412881717570E-1
 6.517483114800000E9    -2.244090708246975E-1   -1.064658503689329E-2    1.607163798465125E-2   -8.410236027767656E-3    1.636495479652403E-2   -7.794749992612494E-3    2.392394979140699E-1    4.935419559572004E-1
 6.517495527450000E9    -2.241935467831428E-1   -1.061500036488829E-2    1.611473949398634E-2   -8.443424381045849E-3    1.644664413361767E-2   -7.808024664027875E-3    2.404022948593524E-1    4.931371457749946E-1
 6.517507940100000E9    -2.239581564555253E-1   -1.057466209114664E-2    1.635971491040314E-2   -8.469535490500777E-3    1.658128756487866E-2   -7.887719389980067E-3    2.413517768970664E-1    4.926824540242530E-1
 6.517520352750000E9    -2.239061990313728E-1   -1.023212970965109E-2    1.641190507505236E-2   -8.565347703427035E-3    1.652839497830886E-2   -8.156234344071357E-3    2.422691786583625E-1    4.921406100361810E-1
 6.517532765400000E9    -2.237514889536232E-1   -1.018929643960757E-2    1.642126034296088E-2   -8.594806945583405E-3    1.684110801354838E-2   -8.160713052893447E-3    2.432574615080614E-1    4.917943119687117E-1
 6.517545178050000E9    -2.234944844377073E-1   -1.002418630715821E-2    1.652069492181400E-2   -8.831964170847929E-3    1.670306703241283E-2   -8.193983736566922E-3    2.439706707380759E-1    4.912835226080396E-1
 6.517557590700000E9    -2.233388508089405E-1   -9.848849039348150E-3    1.669672943916633E-2   -8.853384153593553E-3    1.676569770817042E-2   -8.384310870239742E-3    2.449033243085608E-1    4.907438167681337E-1
 6.517570003350000E9    -2.231930535063764E-1   -9.674501091863956E-3    1.674053845780618E-2   -9.002877504853801E-3    1.704498802511022E-2   -8.529023412874617E-3    2.459212592175041E-1    4.903164080564746E-1
 6.517582416000000E9    -2.229623921969723E-1   -9.656437950314761E-3    1.684454417869662E-2   -9.099190014350753E-3    1.712506197878179E-2   -8.600175857452009E-3    2.468551014969032E-1    4.898725110795434E-1
 6.517594828650000E9    -2.227846964823825E-1   -9.423598273152626E-3    1.698482238790238E-2   -8.987762282032991E-3    1.722143352367827E-2   -8.552578580157524E-3    2.479018839442621E-1    4.892633636016643E-1
 6.517607241300000E9    -2.227047026907611E-1   -9.241206588457288E-3    1.714025189491856E-2   -9.258018574379792E-3    1.722861940432560E-2   -8.715598672663836E-3    2.486937007034338E-1    4.889245387151094E-1
 6.517619653950000E9    -2.224766092630402E-1   -9.129387605453697E-3    1.718124466958296E-2   -9.468157349971420E-3    1.732403729786089E-2   -8.831431273328100E-3    2.495101209031990E-1    4.883809296279251E-1
 6.517632066600000E9    -2.222470870297439E-1   -9.024827931024470E-3    1.712054935033037E-2   -9.591538078717729E-3    1.743798356297472E-2   -8.829068820068177E-3    2.503670292533511E-1    4.879355043974289E-1
 6.517644479250000E9    -2.221491377708177E-1   -8.858285944693315E-3    1.734023646373529E-2   -9.660523553978650E-3    1.762225025331271E-2   -9.007207358352228E-3    2.513488449837939E-1    4.874745678302271E-1
 6.517656891900000E9    -2.219588139017179E-1   -8.715602966475515E-3    1.744300305052369E-2   -9.738855603685238E-3    1.771746224921792E-2   -9.246216183156075E-3    2.523252027771186E-1    4.870068414083271E-1
 6.517669304550000E9    -2.217757003386777E-1   -8.645124374382869E-3    1.740183868121320E-2   -9.911003602244575E-3    1.782923538838281E-2   -9.334717320197030E-3    2.533325669761679E-1    4.864771083981959E-1
 6.517681717200000E9    -2.214908751873478E-1   -8.529442365885622E-3    1.766088640982464E-2   -9.984501428201963E-3    1.779829032632181E-2   -9.281477172008581E-3    2.542219369665767E-1    4.858983986889051E-1
 6.517694129850000E9    -2.212593616485569E-1   -8.315725713730363E-3    1.775124760462276E-2   -1.012577719845818E-2    1.801452652669490E-2   -9.612505877942918E-3    2.550943133031383E-1    4.853744234434496E-1
 6.517706542500000E9    -2.212112634204267E-1   -8.171054905006730E-3    1.775542634798067E-2   -1.022188968511924E-2    1.828902930007918E-2   -9.603644551846277E-3    2.559302172258902E-1    4.851524837056503E-1
 6.517718955150000E9    -2.210307033484232E-1   -8.136697779583381E-3    1.784208246813118E-2   -1.040558529604065E-2    1.823090202246115E-2   -9.665717257133754E-3    2.568439488968293E-1    4.845734485272872E-1
 6.517731367800000E9    -2.207487277202216E-1   -8.067229799586182E-3    1.799503755736308E-2   -1.046137514904014E-2    1.835663837127638E-2   -9.881681535553884E-3    2.578053749294371E-1    4.839222892925311E-1
 6.517743780450000E9    -2.205169153397165E-1   -7.953787431417560E-3    1.813307032560501E-2   -1.063829000968425E-2    1.850762663496426E-2   -1.008323949356255E-2    2.588700692554778E-1    4.834428050604634E-1
 6.517756193100000E9    -2.202847583727804E-1   -7.887421299741289E-3    1.835699245958856E-2   -1.070697262245921E-2    1.854316715949340E-2   -1.006144891115974E-2    2.596824680065811E-1    4.829431019736884E-1
 6.517768605750000E9    -2.201245191321695E-1   -7.806466838978077E-3    1.832753604404516E-2   -1.085962893829904E-2    1.867873218720918E-2   -1.019831423954088E-2    2.607250274347527E-1    4.825356216975324E-1
 6.517781018400000E9    -2.198661373541693E-1   -7.554906649284414E-3    1.857777629873243E-2   -1.089505169284529E-2    1.880717862290262E-2   -1.033075971391247E-2    2.615251423649045E-1    4.819716205421856E-1
 6.517793431050000E9    -2.197496789251238E-1   -7.438842362359811E-3    1.854667329820577E-2   -1.097370628248117E-2    1.894233008991690E-2   -1.047696267535539E-2    2.624279235768232E-1    4.815667423959027E-1
 6.517805843700000E9    -2.194128942741484E-1   -7.272481911521174E-3    1.866489083328457E-2   -1.129515982934007E-2    1.895302747648866E-2   -1.066305865971577E-2    2.634751481164948E-1    4.809553791997296E-1
 6.517818256350000E9    -2.194295296960708E-1   -7.264864517711829E-3    1.881011937891603E-2   -1.136281039105301E-2    1.917418218301428E-2   -1.086126795723341E-2    2.643832838586174E-1    4.805899988603217E-1
 6.517830669000000E9    -2.190104587265786E-1   -7.100148312168033E-3    1.876092318276720E-2   -1.161772458620339E-2    1.924241231086943E-2   -1.093848279139525E-2    2.652707851988890E-1    4.799240968019158E-1
 6.517843081650000E9    -2.188640960614388E-1   -7.071921280899702E-3    1.897299630610856E-2   -1.170814642131503E-2    1.937629419752510E-2   -1.098422535679870E-2    2.661642625122402E-1    4.792385000648191E-1
 6.517855494300000E9    -2.185671923334312E-1   -6.937280902642464E-3    1.914374282493916E-2   -1.184656411036098E-2    1.955833802352877E-2   -1.117337459533395E-2    2.672686595992082E-1    4.788690983229288E-1
 6.517867906950000E9    -2.184297517198688E-1   -6.941574535805045E-3    1.921358239099068E-2   -1.208537153876979E-2    1.956166370263066E-2   -1.129663970527250E-2    2.681515787840936E-1    4.783438569539900E-1
 6.517880319600000E9    -2.181560376505735E-1   -6.899869527369575E-3    1.939265260202677E-2   -1.210327638000236E-2    1.983311350578303E-2   -1.149176175368880E-2    2.689795262281190E-1    4.777040602838053E-1
 6.517892732250000E9    -2.179822537345462E-1   -6.728846143048864E-3    1.939878943206305E-2   -1.219250511183409E-2    1.979260926811216E-2   -1.165271199934377E-2    2.699733574614754E-1    4.770820935227659E-1
 6.517905144900000E9    -2.177301736928564E-1   -6.706777885830769E-3    1.973917566070534E-2   -1.237472111304441E-2    2.001849947815339E-2   -1.186197631486574E-2    2.707956471678895E-1    4.765464791455207E-1
 6.517917557550000E9    -2.175391971388300E-1   -6.532748743506351E-3    1.975488213719463E-2   -1.275583014067290E-2    2.021744757503010E-2   -1.196068925262503E-2    2.717430569982390E-1    4.760705794159351E-1
 6.517929970200000E9    -2.172952217575066E-1   -6.527307391487791E-3    1.987560205334434E-2   -1.285247950772750E-2    2.035169819312907E-2   -1.210421795518564E-2    2.726821449268038E-1    4.754298728663110E-1
 6.517942382850000E9    -2.170105448310507E-1   -6.516933276563041E-3    1.997402581907166E-2   -1.296259674812722E-2    2.043851312308488E-2   -1.232310701498908E-2    2.737327257666138E-1    4.748217074231446E-1
 6.517954795500000E9    -2.168689020523037E-1   -6.395385165078558E-3    2.020286500483004E-2   -1.317765794662489E-2    2.055113717518401E-2   -1.232572326829858E-2    2.745831816843247E-1    4.742809180593686E-1
