#  HZ   S   RI   R     50.00 
! Rohde & Schwarz Vector Network Analyzer 
! Rohde-Schwarz,ZNB20-2Port,1311601062101988,3.16
! Created: UTC 12/23/2023, 3:48:28 AM
! freq[Hz]                re:S11                  im:S11                  re:S21                  im:S21                  re:S12                  im:S12                  re:S22                  im:S22
 6.516832810000000E9    -2.316552380615507E-1   -2.019237804497969E-2    1.269681862985519E-2   -4.797846036863840E-3    1.275782559105021E-2   -4.451233810235317E-3    1.913635832154167E-1    5.134176624517537E-1
 6.516845241450000E9    -2.315206381823963E-1   -1.996893642974639E-2    1.278498616228981E-2   -5.029239043961009E-3    1.283871170663988E-2   -4.429825872858911E-3    1.921974591409866E-1    5.131138690549772E-1
 6.516857672900000E9    -2.313364295464859E-1   -1.972182531288742E-2    1.284066379520260E-2   -4.890613045230745E-3    1.291271520760396E-2   -4.520969112267350E-3    1.931622356986252E-1    5.128429732283735E-1
 6.516870104350000E9    -2.312226062747019E-1   -1.959497861325077E-2    1.294549763753522E-2   -4.887426196596536E-3    1.299252110439099E-2   -4.488914778855218E-3    1.941454046930141E-1    5.124533933324010E-1
 6.516882535800000E9    -2.310529821938949E-1   -1.948881666765241E-2    1.282928813737088E-2   -5.003515273861658E-3    1.309331368679255E-2   -4.423047134978903E-3    1.950121420182016E-1    5.120840575449874E-1
 6.516894967250000E9    -2.308751033252487E-1   -1.918442579450982E-2    1.292841678321106E-2   -5.174723289948651E-3    1.304217165565841E-2   -4.577768063448628E-3    1.959919062617860E-1    5.119004877866687E-1
 6.516907398700000E9    -2.308352901233794E-1   -1.917899491106988E-2    1.315378545032224E-2   -5.155840472421980E-3    1.310850665506333E-2   -4.655235483281164E-3    1.969083067594580E-1    5.115502644500565E-1
 6.516919830150000E9    -2.307381785742065E-1   -1.887044732935098E-2    1.304695983303006E-2   -5.262176331086334E-3    1.316515442033897E-2   -4.753528206542453E-3    1.977652662623968E-1    5.111159323202459E-1
 6.516932261600000E9    -2.306882687719495E-1   -1.862765441372400E-2    1.319477136789649E-2   -5.246975547768021E-3    1.327989477497596E-2   -4.688471094269254E-3    1.987636222270019E-1    5.108293773742457E-1
 6.516944693050000E9    -2.305527626366284E-1   -1.838414187417195E-2    1.321227425047814E-2   -5.105700503233484E-3    1.325212589900663E-2   -4.852169226440405E-3    1.996241999533867E-1    5.103810178407711E-1
 6.516957124500000E9    -2.303501236388323E-1   -1.835275929585732E-2    1.326105667286284E-2   -5.342766235345382E-3    1.335010604111580E-2   -4.720701096306618E-3    2.005741758832929E-1    5.101398070471909E-1
 6.516969555950000E9    -2.303031347252566E-1   -1.804683592682947E-2    1.309312546832483E-2   -5.440341131879375E-3    1.343149518529121E-2   -4.933355881828736E-3    2.013473119884696E-1    5.096665564420952E-1
 6.516981987400000E9    -2.303627219761944E-1   -1.782695215353027E-2    1.335263911157181E-2   -5.438742395911400E-3    1.343959751143282E-2   -5.019267635472597E-3    2.023166457977251E-1    5.094805086980855E-1
 6.516994418850000E9    -2.301222571642719E-1   -1.763136224881402E-2    1.338296417216451E-2   -5.675252037364555E-3    1.349809245638489E-2   -5.075696962562020E-3    2.033831245979352E-1    5.090521575942705E-1
 6.517006850300000E9    -2.299208230947187E-1   -1.750955179975883E-2    1.349256294588472E-2   -5.616446033745334E-3    1.357176223746133E-2   -5.020224914496265E-3    2.041747070860628E-1    5.086880410936472E-1
 6.517019281750000E9    -2.298249560396361E-1   -1.725321645172140E-2    1.355704643560991E-2   -5.561118921685268E-3    1.365653625635414E-2   -5.085488787421814E-3    2.052525058569803E-1    5.084432872785188E-1
 6.517031713200000E9    -2.296177765312192E-1   -1.701926124218636E-2    1.364979815752053E-2   -5.645387181309379E-3    1.368002622101504E-2   -5.220761710769878E-3    2.060673583703291E-1    5.080802330778241E-1
 6.517044144650000E9    -2.295233730278397E-1   -1.687316503926376E-2    1.373779300390277E-2   -5.701554685440225E-3    1.371626237825028E-2   -5.323402686800479E-3    2.069468528226966E-1    5.075383968983549E-1
 6.517056576100000E9    -2.293295721387938E-1   -1.669081468119188E-2    1.365061873230113E-2   -5.991242029921727E-3    1.393264181117196E-2   -5.388621030216083E-3    2.078940149324079E-1    5.073200333401325E-1
 6.517069007550000E9    -2.291671148401032E-1   -1.658711967771406E-2    1.380876074285482E-2   -5.961170840675392E-3    1.393814868887877E-2   -5.389672592250442E-3    2.089085627267489E-1    5.069829769471974E-1
 6.517081439000000E9    -2.290937993176921E-1   -1.630432755499557E-2    1.389781136174401E-2   -5.872880822721550E-3    1.398142824233682E-2   -5.378640505394096E-3    2.097242573391425E-1    5.065100800216554E-1
 6.517093870450000E9    -2.289958452716986E-1   -1.614863036892217E-2    1.388579516496844E-2   -5.939592275180801E-3    1.397779112979697E-2   -5.484353697138626E-3    2.105162438250577E-1    5.061231209061805E-1
 6.517106301900000E9    -2.288794679398163E-1   -1.595930355479003E-2    1.401657686242385E-2   -6.151172234577693E-3    1.405501214365465E-2   -5.563963433366067E-3    2.116718448949959E-1    5.058155582636878E-1
 6.517118733350000E9    -2.287285131487005E-1   -1.578566239888752E-2    1.400550854476993E-2   -6.075040192222794E-3    1.417568309644980E-2   -5.580141643446898E-3    2.124258081382491E-1    5.055815066853229E-1
 6.517131164800000E9    -2.286074066029975E-1   -1.564299201898380E-2    1.409037368835779E-2   -6.304633797715243E-3    1.423949836286470E-2   -5.693060298732014E-3    2.134112162190817E-1    5.050596951070885E-1
 6.517143596250000E9    -2.285387980502481E-1   -1.550524078961095E-2    1.408487836663155E-2   -6.189245002711534E-3    1.422594148453199E-2   -5.766884741180907E-3    2.143273630795693E-1    5.045909807841112E-1
 6.517156027700000E9    -2.283163623860185E-1   -1.524122217767059E-2    1.409846740845175E-2   -6.134207790539450E-3    1.436584614169492E-2   -5.697534330314721E-3    2.151176491033824E-1    5.042863843918514E-1
 6.517168459150000E9    -2.282049779813072E-1   -1.509752817501679E-2    1.426738507889707E-2   -6.282770080532966E-3    1.432423836713118E-2   -5.970592913977023E-3    2.161620745915295E-1    5.038548567204509E-1
 6.517180890600000E9    -2.280595868595129E-1   -1.479568363851385E-2    1.439176340863186E-2   -6.434688256030093E-3    1.457244382217243E-2   -5.949488043870891E-3    2.171136039041989E-1    5.036206511622667E-1
 6.517193322050000E9    -2.278695111167620E-1   -1.468849109371990E-2    1.452702731922473E-2   -6.499881679396830E-3    1.458531194710707E-2   -6.046013715917497E-3    2.181102788578361E-1    5.030272663062748E-1
 6.517205753500000E9    -2.277938346273396E-1   -1.456455806016662E-2    1.450024727782345E-2   -6.557606230061086E-3    1.468588265969224E-2   -6.152352277428147E-3    2.189512230144413E-1    5.027704123567670E-1
 6.517218184950000E9    -2.276720486446827E-1   -1.433693964291425E-2    1.461902952843011E-2   -6.601641017051891E-3    1.466350678428413E-2   -6.168039046793278E-3    2.198840196458851E-1    5.023556262705801E-1
 6.517230616400000E9    -2.274230408818127E-1   -1.417013669023057E-2    1.462666316989604E-2   -6.673693182025532E-3    1.477716867097446E-2   -6.193753815820386E-3    2.206927524538817E-1    5.019905266059449E-1
 6.517243047850000E9    -2.273390727364494E-1   -1.390453179779033E-2    1.460296741074464E-2   -6.766454749757143E-3    1.484017409154066E-2   -6.322818640192766E-3    2.216574163402688E-1    5.015882394344393E-1
 6.517255479300000E9    -2.272051136376462E-1   -1.372842902771700E-2    1.475307215868051E-2   -6.917059925665613E-3    1.488328974941904E-2   -6.290084260134975E-3    2.225476618993088E-1    5.011231348489336E-1
 6.517267910750000E9    -2.270162697221024E-1   -1.362885499706771E-2    1.481094375623003E-2   -6.922239689323375E-3    1.492751596585574E-2   -6.286824628708075E-3    2.234803479715599E-1    5.008537199873420E-1
 6.517280342200000E9    -2.269454745210336E-1   -1.346383681853866E-2    1.489669609102933E-2   -6.980638943042157E-3    1.496467826254668E-2   -6.468527894148901E-3    2.244411625417836E-1    5.003560078088464E-1
 6.517292773650000E9    -2.267880460073381E-1   -1.325773359952133E-2    1.507363220833676E-2   -7.005011243542094E-3    1.515250807970886E-2   -6.575597951805076E-3    2.255921971186877E-1    5.000948075553279E-1
 6.517305205100000E9    -2.267044334597932E-1   -1.313639749364329E-2    1.497858341856866E-2   -7.151781551029594E-3    1.512506152773489E-2   -6.534374710747803E-3    2.263048821139843E-1    4.996778361524852E-1
 6.517317636550000E9    -2.265798559139366E-1   -1.291667460091571E-2    1.506697732085637E-2   -7.215400019339671E-3    1.530917426563283E-2   -6.599413565644752E-3    2.272310124334079E-1    4.991731511550360E-1
 6.517330068000000E9    -2.263943849382767E-1   -1.268805714954824E-2    1.518871332599832E-2   -7.255711777607922E-3    1.542646950423452E-2   -6.735609024095452E-3    2.282221454628777E-1    4.986885213019709E-1
 6.517342499450000E9    -2.262994065018170E-1   -1.250156601415638E-2    1.516352471806318E-2   -7.430409813427611E-3    1.546058893078856E-2   -6.804224226731857E-3    2.289822404361650E-1    4.983659760285933E-1
 6.517354930900000E9    -2.260675040091864E-1   -1.242335994049355E-2    1.529083837691534E-2   -7.511178266922001E-3    1.552718084584052E-2   -6.937374910569285E-3    2.300136305597213E-1    4.978750525807262E-1
 6.517367362350000E9    -2.258802545190342E-1   -1.219088370568449E-2    1.545248587984222E-2   -7.487372863137770E-3    1.558385453817989E-2   -6.997596484812780E-3    2.308543372792875E-1    4.975862142197318E-1
 6.517379793800000E9    -2.257481839390831E-1   -1.208702281591750E-2    1.546736389249791E-2   -7.573619663470916E-3    1.558297492533769E-2   -7.079623132130630E-3    2.317618643293859E-1    4.970868974362985E-1
 6.517392225250000E9    -2.255199736402011E-1   -1.192014340991555E-2    1.560175124720574E-2   -7.626478262790787E-3    1.565796008681979E-2   -7.144252325832306E-3    2.327729073154267E-1    4.965440963211726E-1
 6.517404656700000E9    -2.254004837207252E-1   -1.166942430171965E-2    1.568885834629010E-2   -7.831357511322192E-3    1.584051063567446E-2   -7.266060320082550E-3    2.335648795838053E-1    4.962292657454815E-1
 6.517417088150000E9    -2.252645397188807E-1   -1.176928008569876E-2    1.569018255404462E-2   -7.850725340138380E-3    1.585744379774442E-2   -7.389731070350031E-3    2.346533549871876E-1    4.957348416934166E-1
 6.517429519600000E9    -2.251105833159111E-1   -1.147385348478864E-2    1.584292326178096E-2   -7.839994698094897E-3    1.601780038658738E-2   -7.342048915801582E-3    2.354073002409217E-1    4.953454484326827E-1
 6.517441951050000E9    -2.248609729678429E-1   -1.123619247073494E-2    1.588957937831605E-2   -7.965241733457553E-3    1.612088107738745E-2   -7.455382999904916E-3    2.363329338512166E-1    4.949690390654524E-1
 6.517454382500000E9    -2.247789267705662E-1   -1.115642041234191E-2    1.597053240676075E-2   -8.108812913486203E-3    1.613840028080361E-2   -7.576636206584613E-3    2.373172317265990E-1    4.945467185006754E-1
 6.517466813950000E9    -2.246431637842606E-1   -1.099147020528290E-2    1.613999084533823E-2   -8.100786589580059E-3    1.614140985434655E-2   -7.717988384324670E-3    2.383666590461173E-1    4.940173987707875E-1
 6.517479245400000E9    -2.244515949301147E-1   -1.071563798765161E-2    1.609195793443915E-2   -8.453459690874330E-3    1.630857006771139E-2   -7.656270934251371E-3    2.391765338367123E-1    4.936882371296243E-1
 6.517491676850000E9    -2.244089381620266E-1   -1.070393072903578E-2    1.622138440887014E-2   -8.314875374081867E-3    1.639839129036979E-2   -7.782240645812865E-3    2.401802826478724E-1    4.932742316329624E-1
 6.517504108300000E9    -2.239939335129181E-1   -1.057020489140806E-2    1.613819081111396E-2   -8.431501956407910E-3    1.656127876950401E-2   -7.901963770297541E-3    2.410435259165879E-1    4.926813201227693E-1
 6.517516539750000E9    -2.238130406570146E-1   -1.032498051620798E-2    1.647470814264394E-2   -8.564707770293278E-3    1.661731860353774E-2   -7.908456899979953E-3    2.418454389742584E-1    4.922319041686271E-1
 6.517528971200000E9    -2.238882149584206E-1   -1.012964910026825E-2    1.640421152802083E-2   -8.626729345131709E-3    1.674998843899762E-2   -8.131458660342171E-3    2.429138018522907E-1    4.918313171310907E-1
 6.517541402650000E9    -2.235798857478060E-1   -1.006438484840659E-2    1.659067493521338E-2   -8.758962751498076E-3    1.687203213282306E-2   -8.357320637163018E-3    2.438725375672908E-1    4.913652390377544E-1
 6.517553834100000E9    -2.234114655226968E-1   -9.849656387036439E-3    1.670466387249083E-2   -8.886135427173720E-3    1.690339955135937E-2   -8.368451155173040E-3    2.447447452764019E-1    4.909536300668582E-1
 6.517566265550000E9    -2.232466600245023E-1   -9.825881643713862E-3    1.670071403376312E-2   -9.013603265063046E-3    1.696039245329518E-2   -8.435502507818051E-3    2.455299710810033E-1    4.904766488313392E-1
 6.517578697000000E9    -2.229923991733695E-1   -9.559750679588540E-3    1.688621461808057E-2   -9.033447150074895E-3    1.703736297078868E-2   -8.538559885636924E-3    2.463898889848399E-1    4.899731959077315E-1
 6.517591128450000E9    -2.228438036070555E-1   -9.565244957978346E-3    1.706454682128123E-2   -9.162430883602040E-3    1.713873320315444E-2   -8.526721898197826E-3    2.475627049779641E-1    4.895990407110357E-1
 6.517603559900000E9    -2.226644966914512E-1   -9.401797824621454E-3    1.695119315864109E-2   -9.297773932246312E-3    1.728685165260294E-2   -8.724738164400720E-3    2.482137130453668E-1    4.890775510989946E-1
 6.517615991350000E9    -2.225199019466273E-1   -9.196121081647510E-3    1.717697649166084E-2   -9.294023019569780E-3    1.734756032849797E-2   -8.785806976930837E-3    2.493750223141734E-1    4.885479033510852E-1
 6.517628422800000E9    -2.223060068106339E-1   -9.100163318594045E-3    1.722334645172087E-2   -9.504798290635016E-3    1.745385748941163E-2   -8.925851961630852E-3    2.502252884081415E-1    4.881411853617582E-1
 6.517640854250000E9    -2.220619661096873E-1   -8.890342822083759E-3    1.725168542483638E-2   -9.588812768880706E-3    1.754759071529890E-2   -9.022487908353319E-3    2.511981126662985E-1    4.875942306368333E-1
 6.517653285700000E9    -2.220759402063177E-1   -8.878005663371364E-3    1.744459015548197E-2   -9.782887717094893E-3    1.770077746681802E-2   -9.194847840323333E-3    2.519676729791672E-1    4.871599151603596E-1
 6.517665717150000E9    -2.217198466547935E-1   -8.639974643376767E-3    1.743047790759094E-2   -9.896047522051860E-3    1.781278150611747E-2   -9.263312317384790E-3    2.529244286051815E-1    4.865794093971785E-1
 6.517678148600000E9    -2.215943791820576E-1   -8.599888453032670E-3    1.754317595154765E-2   -1.000645300228072E-2    1.785736220651445E-2   -9.246765192987196E-3    2.539409073884045E-1    4.861360454150882E-1
 6.517690580050000E9    -2.212448653633306E-1   -8.407246999401530E-3    1.776277636598411E-2   -1.003959325532985E-2    1.792264141429336E-2   -9.586465985029881E-3    2.547699809343149E-1    4.856414773271789E-1
 6.517703011500000E9    -2.211915373025991E-1   -8.355617876247367E-3    1.776236763970034E-2   -1.013916181619710E-2    1.804264050923279E-2   -9.602525952250153E-3    2.557742155664620E-1    4.850760721894630E-1
 6.517715442950000E9    -2.210427867493800E-1   -8.150473978038350E-3    1.780557423548214E-2   -1.035696237300821E-2    1.831048707013036E-2   -9.759191999991965E-3    2.567347756590119E-1    4.846244076395477E-1
 6.517727874400000E9    -2.208962202791175E-1   -8.085260465949699E-3    1.795779330120103E-2   -1.043165180101724E-2    1.830369125403731E-2   -9.817602204055077E-3    2.575351041210097E-1    4.840861171914346E-1
 6.517740305850000E9    -2.204716815966881E-1   -8.030973739005980E-3    1.803586669452128E-2   -1.064330211071178E-2    1.841181704979411E-2   -9.952103095292887E-3    2.584899250747332E-1    4.836620328061834E-1
 6.517752737300000E9    -2.203191590727062E-1   -7.768090426652668E-3    1.817689046244119E-2   -1.075687947417415E-2    1.840687663806584E-2   -1.013210610731061E-2    2.594634120739739E-1    4.831754823750547E-1
 6.517765168750000E9    -2.201882114581143E-1   -7.690678422723703E-3    1.831983534856089E-2   -1.083884361284294E-2    1.866511029564356E-2   -1.013271205275459E-2    2.603752138805161E-1    4.826317261557828E-1
 6.517777600200000E9    -2.198696636421813E-1   -7.611645766710053E-3    1.854792749239007E-2   -1.101431223397530E-2    1.885591323519134E-2   -1.038594570098518E-2    2.613072218176458E-1    4.820763583715297E-1
 6.517790031650000E9    -2.196840039811031E-1   -7.497133593226813E-3    1.854294013069793E-2   -1.107909682983225E-2    1.881437834827689E-2   -1.042217013494187E-2    2.621431051019163E-1    4.815388672120979E-1
 6.517802463100000E9    -2.194842501561531E-1   -7.380746724371513E-3    1.860521669270940E-2   -1.120021704057086E-2    1.907684194253078E-2   -1.065422750262223E-2    2.632805911302005E-1    4.811325033626291E-1
 6.517814894550000E9    -2.192284773542924E-1   -7.366306502569133E-3    1.888588229592486E-2   -1.134821126528401E-2    1.916115816517745E-2   -1.080039358373762E-2    2.641583878394413E-1    4.806671930496716E-1
 6.517827326000000E9    -2.190976884469399E-1   -7.131312037310980E-3    1.887829133974299E-2   -1.147391568893636E-2    1.918904848597083E-2   -1.090390022857408E-2    2.650644593255194E-1    4.800258796552743E-1
 6.517839757450000E9    -2.188921846541015E-1   -7.055973984615921E-3    1.902592369472956E-2   -1.166495182736318E-2    1.943878108065722E-2   -1.110271573787495E-2    2.660549690906419E-1    4.795047632692649E-1
 6.517852188900000E9    -2.186276965450832E-1   -7.080978174533311E-3    1.919821297681631E-2   -1.175246454074967E-2    1.945671743422088E-2   -1.121447126263212E-2    2.668897186371491E-1    4.789990124164612E-1
 6.517864620350000E9    -2.184409945567942E-1   -6.977839003654331E-3    1.922722880116616E-2   -1.203487791960483E-2    1.949491028553191E-2   -1.127716439604901E-2    2.678261197301017E-1    4.783551487336837E-1
 6.517877051800000E9    -2.182436673446690E-1   -6.853201121959349E-3    1.936310351516264E-2   -1.221168334882447E-2    1.980661391354003E-2   -1.144614441003569E-2    2.688250736564827E-1    4.777792992399195E-1
 6.517889483250000E9    -2.180212496503602E-1   -6.863156310046891E-3    1.953008478615869E-2   -1.212343969027049E-2    1.988413706592645E-2   -1.170979933694486E-2    2.696941658614915E-1    4.772148190660725E-1
 6.517901914700000E9    -2.176534043639824E-1   -6.753232022959044E-3    1.966909783020539E-2   -1.243312836827828E-2    2.001142385749960E-2   -1.173852282713155E-2    2.704699140930873E-1    4.767514652741636E-1
 6.517914346150000E9    -2.175777834250427E-1   -6.558463942276081E-3    1.966116782187916E-2   -1.253302702474654E-2    2.010107969821161E-2   -1.196796302895070E-2    2.716159950206329E-1    4.760501333117352E-1
 6.517926777600000E9    -2.172974853455644E-1   -6.543522520776487E-3    1.986135949912255E-2   -1.286771368383677E-2    2.023142460214592E-2   -1.212760178684892E-2    2.723614489133179E-1    4.756206792889827E-1
 6.517939209050000E9    -2.170208540804651E-1   -6.542711258707195E-3    2.003813870864818E-2   -1.295571597669905E-2    2.032232461159680E-2   -1.238290362046364E-2    2.733502082541693E-1    4.750576443837233E-1
 6.517951640500000E9    -2.167026154802373E-1   -6.482249012494407E-3    2.013067801142633E-2   -1.301486944260514E-2    2.051845814816781E-2   -1.247749098467404E-2    2.742502908238143E-1    4.745295955607906E-1
