#  HZ   S   RI   R     50.00 
! Rohde & Schwarz Vector Network Analyzer 
! Rohde-Schwarz,ZNB20-2Port,1311601062101988,3.16
! Created: UTC 12/23/2023, 3:49:45 AM
! freq[Hz]                re:S11                  im:S11                  re:S21                  im:S21                  re:S12                  im:S12                  re:S22                  im:S22
 6.516807068000000E9    -2.316229017592082E-1   -2.081497341884715E-2    1.278751342667256E-2   -4.766143498182837E-3    1.279371105034132E-2   -4.466536336476633E-3    1.896545331583467E-1    5.141000674066860E-1
 6.516819567875000E9    -2.315463232829774E-1   -2.056615035280885E-2    1.270212125344306E-2   -4.817884922587640E-3    1.287901184860441E-2   -4.418204494923645E-3    1.904862971860242E-1    5.137019239732348E-1
 6.516832067750000E9    -2.314031636360261E-1   -2.040712638593209E-2    1.290872475556704E-2   -4.961397353505531E-3    1.285419684914966E-2   -4.402507521722910E-3    1.914486025579934E-1    5.135078512576496E-1
 6.516844567625000E9    -2.313257334327716E-1   -2.014831498164524E-2    1.282323996615077E-2   -5.034083394718698E-3    1.286056365765755E-2   -4.492970325732684E-3    1.923090886157592E-1    5.130227163042470E-1
 6.516857067500000E9    -2.311635410506004E-1   -1.990799191363393E-2    1.282281956551281E-2   -5.002555220060500E-3    1.294380306694996E-2   -4.516216288767922E-3    1.933251380744114E-1    5.128100177611196E-1
 6.516869567375000E9    -2.310955782472493E-1   -1.969020732392719E-2    1.300006744827342E-2   -5.022788804231557E-3    1.308783791128919E-2   -4.600521300556351E-3    1.942716471511445E-1    5.124767127383180E-1
 6.516882067250000E9    -2.309356999085737E-1   -1.950103410508269E-2    1.299858931698469E-2   -5.055271020025833E-3    1.298984470490853E-2   -4.683644103101280E-3    1.951949324197439E-1    5.120017527082433E-1
 6.516894567125000E9    -2.308355546076750E-1   -1.933571976914583E-2    1.301847307589451E-2   -5.130877923101433E-3    1.311025961513428E-2   -4.701059449466995E-3    1.961854564152618E-1    5.116880085637449E-1
 6.516907067000000E9    -2.307690104579093E-1   -1.913653233114573E-2    1.316571663469611E-2   -5.204351614693249E-3    1.323509539021531E-2   -4.696520647773222E-3    1.970767687328624E-1    5.113874262705059E-1
 6.516919566875000E9    -2.305973523093248E-1   -1.896750149456378E-2    1.312169681506231E-2   -5.279213108117593E-3    1.329258185204873E-2   -4.838358931421653E-3    1.979582114696675E-1    5.109915786531370E-1
 6.516932066750000E9    -2.305364865883509E-1   -1.875570699120381E-2    1.312660538929082E-2   -5.280208097082144E-3    1.335209631617458E-2   -4.845633411380214E-3    1.988770148372394E-1    5.106394124737332E-1
 6.516944566625000E9    -2.303505559238788E-1   -1.854729935441800E-2    1.329603782369174E-2   -5.335651089034693E-3    1.341598057356387E-2   -4.823664520778191E-3    1.998783519622153E-1    5.104195775721938E-1
 6.516957066500000E9    -2.302068076805377E-1   -1.824384177562951E-2    1.328178407036220E-2   -5.542955510609761E-3    1.346706609086381E-2   -4.900108590715294E-3    2.009053827375686E-1    5.100186744862429E-1
 6.516969566375000E9    -2.301862723037655E-1   -1.816695907753229E-2    1.329537038581601E-2   -5.454424643358349E-3    1.335824577322533E-2   -4.943288575643715E-3    2.016438561609263E-1    5.096569966209747E-1
 6.516982066250000E9    -2.300126966924218E-1   -1.802950141940667E-2    1.344139767679803E-2   -5.423220779533806E-3    1.347263510347696E-2   -5.099860754182762E-3    2.026716210568616E-1    5.092550067270694E-1
 6.516994566125000E9    -2.299222458401764E-1   -1.784289931141630E-2    1.345991344111744E-2   -5.585522120418470E-3    1.356989264072010E-2   -5.087171445333418E-3    2.036350430407862E-1    5.088590266688532E-1
 6.517007066000000E9    -2.297080574463404E-1   -1.764548923392206E-2    1.359006961764686E-2   -5.516371953523595E-3    1.364132221620012E-2   -5.183926794404022E-3    2.044900301192076E-1    5.085403602240706E-1
 6.517019565875000E9    -2.296913355042048E-1   -1.741405400679816E-2    1.349251430400022E-2   -5.573148324369207E-3    1.365396138155908E-2   -5.140495478664741E-3    2.053256843622311E-1    5.083344650757102E-1
 6.517032065750000E9    -2.294425154118090E-1   -1.722394519459928E-2    1.355844516233482E-2   -5.720180831517555E-3    1.369041061758597E-2   -5.283567080261170E-3    2.061753764442854E-1    5.079558398946891E-1
 6.517044565625000E9    -2.293502941286346E-1   -1.695299189073422E-2    1.374342948712335E-2   -5.797442738727882E-3    1.395472354603615E-2   -5.322538710332915E-3    2.072052856860242E-1    5.075856969963299E-1
 6.517057065500000E9    -2.292716094695371E-1   -1.689215174579179E-2    1.386536133525903E-2   -5.829755342111192E-3    1.387368194870692E-2   -5.395584007307028E-3    2.081356576495197E-1    5.072210521937095E-1
 6.517069565375000E9    -2.291796459900327E-1   -1.665364317061693E-2    1.381382914910782E-2   -5.996827246272312E-3    1.396025026143888E-2   -5.502662314001052E-3    2.090217467969379E-1    5.068057016195860E-1
 6.517082065250000E9    -2.289819834520299E-1   -1.641389375709917E-2    1.395340458655311E-2   -5.943470357983799E-3    1.403575188116764E-2   -5.543966849497413E-3    2.098877793655584E-1    5.063011053025208E-1
 6.517094565125000E9    -2.288501894344137E-1   -1.623524555055147E-2    1.381950743134168E-2   -6.012947042419260E-3    1.404491520724918E-2   -5.611690591406499E-3    2.108248087869775E-1    5.059866034148458E-1
 6.517107065000000E9    -2.287019145097815E-1   -1.595345568167033E-2    1.390420454639575E-2   -6.122301312384792E-3    1.416549814002202E-2   -5.690134589330635E-3    2.118717007051371E-1    5.056956174477516E-1
 6.517119564875000E9    -2.284952379351308E-1   -1.582862509228643E-2    1.416683558749181E-2   -6.246644884733062E-3    1.422643250952729E-2   -5.605722374922408E-3    2.127202175979524E-1    5.053577315338890E-1
 6.517132064750000E9    -2.283702482592658E-1   -1.557655952019042E-2    1.418106701346938E-2   -6.180795004026685E-3    1.430151545815236E-2   -5.781023737479304E-3    2.137960703913100E-1    5.049567825571881E-1
 6.517144564625000E9    -2.282396953949751E-1   -1.545392902845328E-2    1.424633758024047E-2   -6.198703234054566E-3    1.432310967288660E-2   -5.867983567234739E-3    2.145101698816954E-1    5.045035168718439E-1
 6.517157064500000E9    -2.281584121027394E-1   -1.531093124529032E-2    1.431043476184513E-2   -6.537590413561494E-3    1.431701622433735E-2   -5.927032015655015E-3    2.154802155737498E-1    5.040469036538998E-1
 6.517169564375000E9    -2.279876794459117E-1   -1.511355874150687E-2    1.444728783246368E-2   -6.503820632555826E-3    1.443717388903332E-2   -5.975482384561937E-3    2.164187008263902E-1    5.039002225494653E-1
 6.517182064250000E9    -2.279669271910046E-1   -1.501480155237946E-2    1.442164683793435E-2   -6.518162225905925E-3    1.449692570927676E-2   -6.031356338158107E-3    2.173708732730221E-1    5.034566902605173E-1
 6.517194564125000E9    -2.277032121867082E-1   -1.489711952757369E-2    1.441232723156229E-2   -6.594909542480929E-3    1.461470337250489E-2   -6.098267483149860E-3    2.183456013844159E-1    5.028227170366225E-1
 6.517207064000000E9    -2.276168268022518E-1   -1.466862728725296E-2    1.443978458571427E-2   -6.659199976233442E-3    1.472725341830163E-2   -6.044941585920214E-3    2.192478361818332E-1    5.024981866010620E-1
 6.517219563875000E9    -2.275336310561412E-1   -1.445870608225313E-2    1.455829877436857E-2   -6.756926854325717E-3    1.469334879124624E-2   -6.213711129736496E-3    2.202104425807479E-1    5.022306816736304E-1
 6.517232063750000E9    -2.272821635827930E-1   -1.427680817125582E-2    1.470436700583049E-2   -6.827106069457656E-3    1.481473884872337E-2   -6.205790000015685E-3    2.210334295197358E-1    5.017232764870911E-1
 6.517244563625000E9    -2.271679953373070E-1   -1.407839400028871E-2    1.482337896197976E-2   -6.841485995323973E-3    1.488969558468830E-2   -6.281426308990951E-3    2.220567787077311E-1    5.013348691273322E-1
 6.517257063500000E9    -2.271058626992818E-1   -1.383710596232595E-2    1.497574273308240E-2   -6.837895608960365E-3    1.495404704593562E-2   -6.342749067488653E-3    2.228513791022581E-1    5.011156353510368E-1
 6.517269563375000E9    -2.268536096871783E-1   -1.362465552320006E-2    1.494175467885213E-2   -6.844255749144433E-3    1.511281375755669E-2   -6.414500447072808E-3    2.239237712036030E-1    5.005087698735849E-1
 6.517282063250000E9    -2.267329706689837E-1   -1.355509401314333E-2    1.493173986563561E-2   -7.163754844491579E-3    1.510894326837411E-2   -6.510524466524705E-3    2.248756775203772E-1    5.002588620088282E-1
 6.517294563125000E9    -2.265394592227017E-1   -1.340276234640873E-2    1.496696854672131E-2   -7.169363628799832E-3    1.523324885756767E-2   -6.603345502507536E-3    2.256426448972554E-1    4.997872715701750E-1
 6.517307063000000E9    -2.264137874594601E-1   -1.318113524461404E-2    1.511789866261727E-2   -7.106595013195009E-3    1.544550701070439E-2   -6.699917901876927E-3    2.266861240308656E-1    4.993814242712751E-1
 6.517319562875000E9    -2.261543602740614E-1   -1.304832456830216E-2    1.513078639231322E-2   -7.298640900968698E-3    1.538996645255845E-2   -6.707530719014938E-3    2.275889177978011E-1    4.989865002659326E-1
 6.517332062750000E9    -2.262406044750383E-1   -1.295206768363963E-2    1.516734121538563E-2   -7.402667246854944E-3    1.543821180096858E-2   -6.902259888555190E-3    2.283853101664013E-1    4.986752647428039E-1
 6.517344562625000E9    -2.259725780279352E-1   -1.263502395268899E-2    1.544374232727851E-2   -7.406688430906970E-3    1.548055668353584E-2   -6.822466493256759E-3    2.295111530198471E-1    4.981344080490819E-1
 6.517357062500000E9    -2.259223807422137E-1   -1.251704736597163E-2    1.538694151049372E-2   -7.452167758480685E-3    1.566727235655484E-2   -7.074894992526410E-3    2.302206135078978E-1    4.977749138600949E-1
 6.517369562375000E9    -2.256786148035227E-1   -1.234326274000086E-2    1.551127911069188E-2   -7.597642303172045E-3    1.572189012392602E-2   -7.094632706398772E-3    2.312867107270076E-1    4.972576409179529E-1
 6.517382062250000E9    -2.254992237728801E-1   -1.226362840890071E-2    1.552247922290119E-2   -7.614118056443981E-3    1.568857011929472E-2   -7.117956462483601E-3    2.322050607353748E-1    4.968629202060703E-1
 6.517394562125000E9    -2.253981067045017E-1   -1.208087061524165E-2    1.556497571003795E-2   -7.831831551816012E-3    1.585249386854271E-2   -7.171175789219705E-3    2.331316009111793E-1    4.963550366531808E-1
 6.517407062000000E9    -2.251201340543616E-1   -1.186774032880355E-2    1.576924779434737E-2   -7.912533459504493E-3    1.591733565585156E-2   -7.397117726330222E-3    2.340055914136082E-1    4.960246499035152E-1
 6.517419561875000E9    -2.251075887847561E-1   -1.169047193021546E-2    1.589584034040941E-2   -7.979910948038186E-3    1.588270109637024E-2   -7.421940743924926E-3    2.347796362401547E-1    4.957478891729467E-1
 6.517432061750000E9    -2.248824125847904E-1   -1.150363332060410E-2    1.592194750875327E-2   -8.056277078467608E-3    1.608973767459457E-2   -7.554632284938756E-3    2.358392607706858E-1    4.950524350839257E-1
 6.517444561625000E9    -2.245493264710756E-1   -1.141736580881405E-2    1.593285418248379E-2   -8.179142706044635E-3    1.620927259060557E-2   -7.586279588068814E-3    2.367951498364748E-1    4.945472811452841E-1
 6.517457061500000E9    -2.245812413658126E-1   -1.122134152775590E-2    1.613362013946613E-2   -8.176284936113906E-3    1.615042942525010E-2   -7.648098282793341E-3    2.376849042491773E-1    4.943164342387186E-1
 6.517469561375000E9    -2.244537613172219E-1   -1.109589620544184E-2    1.617642170009411E-2   -8.279917909594125E-3    1.642497755492733E-2   -7.770164854611659E-3    2.386925678382637E-1    4.938318374479093E-1
 6.517482061250000E9    -2.242297059520014E-1   -1.092639472886117E-2    1.638433642559534E-2   -8.314760584492030E-3    1.646638822646924E-2   -7.824672464647736E-3    2.396734168849391E-1    4.933848899271274E-1
 6.517494561125000E9    -2.239937389012361E-1   -1.074564768560729E-2    1.630879028741656E-2   -8.504023779574033E-3    1.651837829483272E-2   -7.999175980753887E-3    2.406252572179458E-1    4.928720225691647E-1
 6.517507061000000E9    -2.238567776985190E-1   -1.061468378444853E-2    1.644036897758217E-2   -8.579572471707016E-3    1.664691969665761E-2   -8.026659559908788E-3    2.414330564780564E-1    4.923729095736399E-1
 6.517519560875000E9    -2.237734299937890E-1   -1.042284164142233E-2    1.641348451401081E-2   -8.864528633133806E-3    1.666274600996703E-2   -8.025504886326962E-3    2.423137914246898E-1    4.918854407041564E-1
 6.517532060750000E9    -2.235618411118702E-1   -1.023671391376335E-2    1.658661965335905E-2   -8.786337796908881E-3    1.683963322494881E-2   -8.182374798582748E-3    2.433688826249158E-1    4.914411501312034E-1
 6.517544560625000E9    -2.233135126537562E-1   -1.028037840747564E-2    1.666648904297609E-2   -8.840423011387344E-3    1.685977817522047E-2   -8.400022879846723E-3    2.442132112487425E-1    4.910992264592033E-1
 6.517557060500000E9    -2.231573342814105E-1   -1.007419678552081E-2    1.672414893533861E-2   -8.956553838320429E-3    1.693431088780224E-2   -8.409790959186364E-3    2.451553225460713E-1    4.905535615249749E-1
 6.517569560375000E9    -2.228382324551035E-1   -9.938277359948738E-3    1.669245036775942E-2   -9.177323104547216E-3    1.698513654441108E-2   -8.470344808581607E-3    2.460779282768498E-1    4.901822123965993E-1
 6.517582060250000E9    -2.226647773178849E-1   -9.803466176341924E-3    1.690998312950645E-2   -9.222870668440923E-3    1.720268577384143E-2   -8.622011224413610E-3    2.469762026357093E-1    4.895834332047361E-1
 6.517594560125000E9    -2.225465689741006E-1   -9.678098486014541E-3    1.704713849177493E-2   -9.387266990494478E-3    1.726766449575947E-2   -8.731206512497406E-3    2.480300847351445E-1    4.891462998467482E-1
 6.517607060000000E9    -2.223236658173662E-1   -9.530406318915902E-3    1.707749954581082E-2   -9.423816714846484E-3    1.742478938485846E-2   -8.787884641275480E-3    2.489236165471273E-1    4.887990052434704E-1
 6.517619559875000E9    -2.222792709477294E-1   -9.404406694591970E-3    1.714601273990982E-2   -9.532388403744483E-3    1.756417124816143E-2   -8.956909257958183E-3    2.497744095389897E-1    4.883336711522796E-1
 6.517632059750000E9    -2.220928428243868E-1   -9.255171368000630E-3    1.732017268632143E-2   -9.616025194099523E-3    1.756087431614338E-2   -9.140737318174065E-3    2.507429512786680E-1    4.876722847229712E-1
 6.517644559625000E9    -2.218392943432059E-1   -9.058653163253036E-3    1.730993403902885E-2   -9.741507403815217E-3    1.768393859209560E-2   -9.277558011189088E-3    2.515518480422601E-1    4.872548752295037E-1
 6.517657059500000E9    -2.216195406316240E-1   -8.973410263993325E-3    1.744951890593814E-2   -9.815013014086212E-3    1.784919449169643E-2   -9.312676322634123E-3    2.525845730717489E-1    4.868492366063553E-1
 6.517669559375000E9    -2.214793179908584E-1   -8.772979426450443E-3    1.761798952388953E-2   -9.868393653769642E-3    1.796458906730676E-2   -9.415098442718459E-3    2.533679967952713E-1    4.864194802100190E-1
 6.517682059250000E9    -2.212532119420956E-1   -8.632193842083883E-3    1.779643416332826E-2   -9.922304886559546E-3    1.806702264235047E-2   -9.535757790537433E-3    2.543123886601947E-1    4.857356354788116E-1
 6.517694559125000E9    -2.210406871424387E-1   -8.674919115295625E-3    1.780601862182183E-2   -1.012935730490669E-2    1.805213834814693E-2   -9.705355306642030E-3    2.553441836236857E-1    4.853299909874093E-1
 6.517707059000000E9    -2.208776534571961E-1   -8.473073974974947E-3    1.798494568807113E-2   -1.022160528200338E-2    1.821192496967534E-2   -9.754390581283986E-3    2.561705409876936E-1    4.850096131464999E-1
 6.517719558875000E9    -2.207325377465969E-1   -8.311147857023240E-3    1.806623353838688E-2   -1.056584855131366E-2    1.830103929322166E-2   -9.822418885754863E-3    2.570804082492645E-1    4.844115871240366E-1
 6.517732058750000E9    -2.204253717316795E-1   -8.209918879933442E-3    1.833289737215892E-2   -1.061762314789579E-2    1.848872671157707E-2   -9.955450524735824E-3    2.580843396992468E-1    4.837530116955380E-1
 6.517744558625000E9    -2.202707179585549E-1   -8.036879118535192E-3    1.823346822707996E-2   -1.079872905856934E-2    1.861445716618256E-2   -1.021324379545864E-2    2.590675365494418E-1    4.831508391135962E-1
 6.517757058500000E9    -2.200703047004721E-1   -7.956841312558369E-3    1.844202507138242E-2   -1.082607312717049E-2    1.866416740630044E-2   -1.019217806635589E-2    2.599553045811805E-1    4.827390810778564E-1
 6.517769558375000E9    -2.198224559216882E-1   -7.918763683173503E-3    1.845289673346666E-2   -1.096336917221896E-2    1.884831383997118E-2   -1.041780551156570E-2    2.610197008370476E-1    4.822304865388829E-1
 6.517782058250000E9    -2.195341081051727E-1   -7.814314443408450E-3    1.871500163018769E-2   -1.107547657209401E-2    1.892350618666327E-2   -1.049317922442249E-2    2.617859763598052E-1    4.818037885146814E-1
 6.517794558125000E9    -2.194224320000038E-1   -7.730242434982491E-3    1.870544263007539E-2   -1.136253931768228E-2    1.913518726791315E-2   -1.054101180202514E-2    2.629050869846730E-1    4.811113227157673E-1
 6.517807058000000E9    -2.193050023311076E-1   -7.657950241500075E-3    1.873187104413895E-2   -1.135564414992832E-2    1.923579834676535E-2   -1.084261860891370E-2    2.637583647973352E-1    4.807290258137858E-1
 6.517819557875000E9    -2.190265059745134E-1   -7.444700229401642E-3    1.889747651916778E-2   -1.157190322570177E-2    1.939710326988128E-2   -1.096903691450245E-2    2.647114188923281E-1    4.802123963721132E-1
 6.517832057750000E9    -2.187948428916957E-1   -7.462699312727521E-3    1.906471034817427E-2   -1.168106299433110E-2    1.944789373885113E-2   -1.102379725924253E-2    2.656005949774449E-1    4.796446786872026E-1
 6.517844557625000E9    -2.185739929905647E-1   -7.406635034833706E-3    1.919350892015155E-2   -1.189326575356276E-2    1.948483533155581E-2   -1.118479854266316E-2    2.667162752444436E-1    4.790481994195128E-1
 6.517857057500000E9    -2.183381277878318E-1   -7.164422196034552E-3    1.938592362052208E-2   -1.195251934006018E-2    1.966491599890153E-2   -1.141695098231798E-2    2.674556656881451E-1    4.784187951116792E-1
 6.517869557375000E9    -2.181482168260933E-1   -7.164043335565867E-3    1.940615542311721E-2   -1.204211004802257E-2    1.978079279451815E-2   -1.147965243795485E-2    2.685333623497392E-1    4.778890699882047E-1
 6.517882057250000E9    -2.178647035604791E-1   -7.115084830935870E-3    1.968771183233563E-2   -1.227548262569491E-2    1.984249479006389E-2   -1.174624085032604E-2    2.693446553282557E-1    4.774143761293374E-1
 6.517894557125000E9    -2.177290684419393E-1   -6.910819664964250E-3    1.968434184035188E-2   -1.242295077344435E-2    2.010228696093309E-2   -1.179798693700665E-2    2.702609388687602E-1    4.768452274897089E-1
 6.517907057000000E9    -2.174923375067187E-1   -6.877373324015887E-3    1.981594016018614E-2   -1.266975949419094E-2    2.015627123005053E-2   -1.199650354950215E-2    2.712178116622081E-1    4.762693936118285E-1
 6.517919556875000E9    -2.172137406775690E-1   -6.838968893925263E-3    2.001443900672128E-2   -1.283923343693873E-2    2.029727505111866E-2   -1.216695888628752E-2    2.721183972344097E-1    4.757126766087705E-1
 6.517932056750000E9    -2.169243698350786E-1   -6.744102663360811E-3    2.015643688578586E-2   -1.301369985379900E-2    2.043249312536016E-2   -1.247266080557328E-2    2.731958336639977E-1    4.752440336674333E-1
