#  HZ   S   RI   R     50.00 
! Rohde & Schwarz Vector Network Analyzer 
! Rohde-Schwarz,ZNB20-2Port,1311601062101988,3.16
! Created: UTC 12/23/2023, 3:50:45 AM
! freq[Hz]                re:S11                  im:S11                  re:S21                  im:S21                  re:S12                  im:S12                  re:S22                  im:S22
 6.516833019000000E9    -2.314495783270927E-1   -2.027436228558286E-2    1.270838133228236E-2   -4.781774009466801E-3    1.279613166129291E-2   -4.419289757822484E-3    1.913833186501573E-1    5.134399004675015E-1
 6.516845421700000E9    -2.312968622796840E-1   -2.008136522731215E-2    1.280017037594796E-2   -4.959047214878194E-3    1.283169399232167E-2   -4.550428424280130E-3    1.923137835810829E-1    5.131552327292508E-1
 6.516857824400000E9    -2.311400081754881E-1   -1.988583956969107E-2    1.296917360196657E-2   -4.902025314067626E-3    1.298569777967730E-2   -4.432023662791618E-3    1.932277103371106E-1    5.128014171690497E-1
 6.516870227100000E9    -2.310466645873661E-1   -1.972497454893599E-2    1.283932616116509E-2   -5.059518328406101E-3    1.304492852654742E-2   -4.492132578591058E-3    1.942206783046108E-1    5.124811157741788E-1
 6.516882629800000E9    -2.308863878936309E-1   -1.957782888548860E-2    1.305538119649700E-2   -4.992718848316140E-3    1.304954594534303E-2   -4.539070580268503E-3    1.951897786475302E-1    5.121303359619285E-1
 6.516895032500000E9    -2.308160394876391E-1   -1.916172605462809E-2    1.307779496997352E-2   -5.129751346184301E-3    1.312874098742414E-2   -4.660012594516578E-3    1.960894625949657E-1    5.118329677134581E-1
 6.516907435200000E9    -2.306720667964921E-1   -1.913128384641703E-2    1.308461093038442E-2   -5.136516430206415E-3    1.316736060590006E-2   -4.641322800512748E-3    1.970352350957782E-1    5.114984276080188E-1
 6.516919837900000E9    -2.305631748210672E-1   -1.883854412099342E-2    1.311663278392765E-2   -5.112904377404419E-3    1.309131042564655E-2   -4.702619109814643E-3    1.979123505354249E-1    5.111321780109113E-1
 6.516932240600000E9    -2.304770249754572E-1   -1.874975152776455E-2    1.327394940604038E-2   -5.150938275058743E-3    1.319738579450760E-2   -4.854469633386632E-3    1.988243551660852E-1    5.107797423680676E-1
 6.516944643300000E9    -2.303835454429048E-1   -1.846282186990840E-2    1.321169299298020E-2   -5.220752494732134E-3    1.340768375564009E-2   -4.929273637215133E-3    1.997004786037612E-1    5.104142749287165E-1
 6.516957046000000E9    -2.302350204074561E-1   -1.823778923093424E-2    1.319548756762027E-2   -5.318227452038968E-3    1.338647322133251E-2   -4.907587556601373E-3    2.006828249216606E-1    5.099707193641443E-1
 6.516969448700000E9    -2.301449310496111E-1   -1.821804694730778E-2    1.341627679435982E-2   -5.528786071714402E-3    1.334778560519215E-2   -5.005802108882373E-3    2.015897626765874E-1    5.096695419628191E-1
 6.516981851400000E9    -2.300088205475300E-1   -1.795808156290773E-2    1.345498521281198E-2   -5.452662206887247E-3    1.351360444672214E-2   -5.008387035067082E-3    2.024599342851687E-1    5.093801581218789E-1
 6.516994254100000E9    -2.299563112495100E-1   -1.768399515957536E-2    1.348832325015418E-2   -5.587924556536998E-3    1.351759144265286E-2   -5.014508909222654E-3    2.034430332123493E-1    5.089839589016336E-1
 6.517006656800000E9    -2.298610698532772E-1   -1.751352247661994E-2    1.360448116946650E-2   -5.550397383305089E-3    1.359223882217456E-2   -5.095316149955841E-3    2.042296962723501E-1    5.087358813244004E-1
 6.517019059500000E9    -2.296676864415955E-1   -1.728116795575591E-2    1.344975992708342E-2   -5.603117741397911E-3    1.375839879412746E-2   -5.199728522245367E-3    2.052109754718727E-1    5.083851637131018E-1
 6.517031462200000E9    -2.295221334459196E-1   -1.707539951620892E-2    1.366691424383078E-2   -5.687874521713942E-3    1.375553393910600E-2   -5.209871821410874E-3    2.060814804041688E-1    5.079125052709730E-1
 6.517043864900000E9    -2.293704615122908E-1   -1.682618660453801E-2    1.383403259527016E-2   -5.732888898410902E-3    1.378305951278061E-2   -5.293767636002783E-3    2.071236642696978E-1    5.075325685832467E-1
 6.517056267600000E9    -2.293467602702556E-1   -1.671481766001197E-2    1.378753625805015E-2   -5.679805903176297E-3    1.379537540256749E-2   -5.304499157816341E-3    2.080713859368449E-1    5.072477826519755E-1
 6.517068670300000E9    -2.291838897595359E-1   -1.652470137102833E-2    1.382749946363245E-2   -6.042969055203362E-3    1.398263440017324E-2   -5.470584739751275E-3    2.088655682420746E-1    5.068269045529338E-1
 6.517081073000000E9    -2.289491175639917E-1   -1.632808837756378E-2    1.384765498203157E-2   -5.920332446549297E-3    1.402303156968168E-2   -5.445746779034053E-3    2.098533608794623E-1    5.066663340443835E-1
 6.517093475700000E9    -2.288841407541576E-1   -1.624763322063497E-2    1.400544072911349E-2   -5.913550308073901E-3    1.402415426901974E-2   -5.580022825022313E-3    2.106641654640096E-1    5.062872735770708E-1
 6.517105878400000E9    -2.287315538605142E-1   -1.599200240671747E-2    1.399747317727913E-2   -6.037485033058732E-3    1.411042043161046E-2   -5.547017725065875E-3    2.117917202469170E-1    5.056813969037808E-1
 6.517118281100000E9    -2.286807542908759E-1   -1.577895028487175E-2    1.402952020686147E-2   -6.139066316705419E-3    1.429333318936778E-2   -5.682173055905394E-3    2.125817338582203E-1    5.053821303651418E-1
 6.517130683800000E9    -2.284993973413507E-1   -1.563072152841542E-2    1.408923450425758E-2   -6.132828404847381E-3    1.419117545518654E-2   -5.724674454112280E-3    2.135939312116809E-1    5.049559058191438E-1
 6.517143086500000E9    -2.282748769158603E-1   -1.547184411383010E-2    1.419558156401981E-2   -6.142216351349024E-3    1.432867841144810E-2   -5.664153230416831E-3    2.142691042276595E-1    5.046501201130840E-1
 6.517155489200000E9    -2.282927254535290E-1   -1.524676712708295E-2    1.422767129969704E-2   -6.251439159362798E-3    1.440448119618470E-2   -5.849526353728986E-3    2.153647415432260E-1    5.043156727079720E-1
 6.517167891900000E9    -2.282100800027476E-1   -1.508153558391367E-2    1.431863896006063E-2   -6.517164168486037E-3    1.441483562031651E-2   -5.921607391738859E-3    2.162584905633135E-1    5.039024700091027E-1
 6.517180294600000E9    -2.278965202367915E-1   -1.485744600560931E-2    1.439608692235105E-2   -6.454445108190287E-3    1.454412048387502E-2   -5.949322396820317E-3    2.172898060671727E-1    5.035583405977815E-1
 6.517192697300000E9    -2.277093506974378E-1   -1.469352162571869E-2    1.442118555907557E-2   -6.575353812639690E-3    1.466977112131190E-2   -5.870594520428408E-3    2.180923894529851E-1    5.030370521617240E-1
 6.517205100000000E9    -2.276746332832179E-1   -1.449247331559259E-2    1.456045040303910E-2   -6.540787401420797E-3    1.467507060672358E-2   -5.949305131624079E-3    2.189965415726848E-1    5.028187456090208E-1
 6.517217502700000E9    -2.274565708864367E-1   -1.439787920575788E-2    1.464487826603410E-2   -6.612145695485416E-3    1.472917758468248E-2   -6.126445957319903E-3    2.200256342831949E-1    5.023584836301925E-1
 6.517229905400000E9    -2.273609152420420E-1   -1.420402926859922E-2    1.474563775472344E-2   -6.697284300940211E-3    1.492680494750512E-2   -6.211827766963602E-3    2.208523161128638E-1    5.020153077341785E-1
 6.517242308100000E9    -2.272114972295330E-1   -1.405154036830698E-2    1.474724800596855E-2   -6.785244031955105E-3    1.480212097014651E-2   -6.320479331034374E-3    2.216918316537373E-1    5.014854304919552E-1
 6.517254710800000E9    -2.270808857177377E-1   -1.396587032797398E-2    1.489399927245415E-2   -6.958844193361133E-3    1.493102327988493E-2   -6.324953365717327E-3    2.227126180494118E-1    5.011826288585833E-1
 6.517267113500000E9    -2.269122365164971E-1   -1.367960784930588E-2    1.490248004684822E-2   -6.992202092868492E-3    1.503286625019246E-2   -6.412128860862926E-3    2.235395085306387E-1    5.006888550809300E-1
 6.517279516200000E9    -2.268142027746942E-1   -1.336552148031340E-2    1.493235347109236E-2   -7.029912640841977E-3    1.513908783343042E-2   -6.498912325947301E-3    2.244795715427871E-1    5.004277161905296E-1
 6.517291918900000E9    -2.266365331124034E-1   -1.339092850007422E-2    1.496114707369738E-2   -7.100372978968529E-3    1.513611732135739E-2   -6.595738003365320E-3    2.254671521890637E-1    4.999306410238694E-1
 6.517304321600000E9    -2.264920159172595E-1   -1.317993870331850E-2    1.501707088190867E-2   -7.171012981555182E-3    1.532994297301528E-2   -6.659859402049879E-3    2.263097777686834E-1    4.995124359338804E-1
 6.517316724300000E9    -2.262706194960059E-1   -1.307912675176967E-2    1.513873313229796E-2   -7.404354375325548E-3    1.529415435262565E-2   -6.778051924768336E-3    2.272422478404559E-1    4.990346594829734E-1
 6.517329127000000E9    -2.261403750040591E-1   -1.275247648656521E-2    1.524548715208413E-2   -7.167360632704326E-3    1.538335448416228E-2   -6.873376323309405E-3    2.281850080236419E-1    4.987186804630598E-1
 6.517341529700000E9    -2.260832998402941E-1   -1.271191452763247E-2    1.522531138226905E-2   -7.375111011321560E-3    1.552083685824153E-2   -6.887347879703427E-3    2.290276719864411E-1    4.982889276099124E-1
 6.517353932400000E9    -2.258813325897754E-1   -1.258645695205827E-2    1.536939517308488E-2   -7.407931289975698E-3    1.554939139914151E-2   -6.953543834983611E-3    2.301150069235511E-1    4.979069086679143E-1
 6.517366335100000E9    -2.256670214854554E-1   -1.231665924768607E-2    1.555691670417725E-2   -7.542356198548008E-3    1.560938916967478E-2   -7.130537022763177E-3    2.309295728533422E-1    4.974807439308371E-1
 6.517378737800000E9    -2.255523512424751E-1   -1.215123969719244E-2    1.546745647726949E-2   -7.720623300056005E-3    1.562588820520929E-2   -7.041385690551252E-3    2.318673745495518E-1    4.970969017803181E-1
 6.517391140500000E9    -2.255041272309008E-1   -1.211022445911848E-2    1.558515471595148E-2   -7.761733096435234E-3    1.578487234859872E-2   -7.114009311146897E-3    2.327530089883215E-1    4.966379235941478E-1
 6.517403543200000E9    -2.252312168284472E-1   -1.182134062316042E-2    1.571548240863697E-2   -7.717169127046805E-3    1.579021447389940E-2   -7.254196309495841E-3    2.336660550816873E-1    4.960491412471267E-1
 6.517415945900000E9    -2.251829438566594E-1   -1.163060401080892E-2    1.573440630259751E-2   -7.767408726568725E-3    1.597926924257626E-2   -7.284378419153059E-3    2.345859165247320E-1    4.957793523276551E-1
 6.517428348600000E9    -2.249249239247141E-1   -1.149109383420151E-2    1.583513559208426E-2   -7.956681955648732E-3    1.601658374114377E-2   -7.427015733474153E-3    2.355374329508155E-1    4.953981662032855E-1
 6.517440751300000E9    -2.249028015383722E-1   -1.133730317516480E-2    1.591296280578626E-2   -8.012868026266386E-3    1.612952056239031E-2   -7.508399936784763E-3    2.364603071985003E-1    4.948370284647088E-1
 6.517453154000000E9    -2.246157333580216E-1   -1.113256202789781E-2    1.598177776049046E-2   -8.216743612077974E-3    1.621668934782486E-2   -7.551169542443869E-3    2.374083947692145E-1    4.943650609771572E-1
 6.517465556700000E9    -2.245353977491162E-1   -1.102396988731161E-2    1.600216388965126E-2   -8.404264925064577E-3    1.620712757292167E-2   -7.664260941161854E-3    2.382167145810364E-1    4.939468415081800E-1
 6.517477959400000E9    -2.243540502502736E-1   -1.091599535189566E-2    1.605500272651277E-2   -8.384630036146748E-3    1.644220983006116E-2   -7.850877836201706E-3    2.391229103471831E-1    4.934435900170317E-1
 6.517490362100000E9    -2.240586048657643E-1   -1.072636289466070E-2    1.636388388748064E-2   -8.444631220495305E-3    1.646117298849655E-2   -7.864711497030916E-3    2.401465826073086E-1    4.931374401887310E-1
 6.517502764800000E9    -2.239219331242162E-1   -1.052633865177644E-2    1.630315326896550E-2   -8.327296806871784E-3    1.654082140450007E-2   -7.970513577623396E-3    2.409252930919718E-1    4.927285028347077E-1
 6.517515167500000E9    -2.237176781179310E-1   -1.037379418610504E-2    1.635652454901278E-2   -8.521876774410778E-3    1.668983741210999E-2   -8.019301641903474E-3    2.420761740363177E-1    4.921754234292554E-1
 6.517527570200000E9    -2.236430090833708E-1   -1.022991150213959E-2    1.650976251176330E-2   -8.635854163031595E-3    1.677463988506864E-2   -8.103847132250106E-3    2.428773002009308E-1    4.917960077799999E-1
 6.517539972900000E9    -2.234006470581655E-1   -1.024475958190296E-2    1.670182445351211E-2   -8.805708464886004E-3    1.693254088305402E-2   -8.294150605299937E-3    2.438499185511641E-1    4.912571338640384E-1
 6.517552375600000E9    -2.232853523011413E-1   -9.954404796315730E-3    1.668002132628032E-2   -8.954001070935497E-3    1.695064094450974E-2   -8.311774560047450E-3    2.446327029279921E-1    4.909471547522750E-1
 6.517564778300000E9    -2.230732071135504E-1   -9.993813316275978E-3    1.673359760848971E-2   -9.025788515252669E-3    1.701259879815856E-2   -8.489719930129690E-3    2.455480839626511E-1    4.903310680483920E-1
 6.517577181000000E9    -2.228927758374115E-1   -9.790738925014208E-3    1.688560912460682E-2   -9.153975600885319E-3    1.713205215202814E-2   -8.527873645530488E-3    2.465627305862758E-1    4.900148092633955E-1
 6.517589583700000E9    -2.227019324831863E-1   -9.558776128349929E-3    1.697345318800516E-2   -9.175919578007820E-3    1.720134405142118E-2   -8.699506945618265E-3    2.475074845011842E-1    4.896044190541932E-1
 6.517601986400000E9    -2.224650377230991E-1   -9.426615085887565E-3    1.712120261868984E-2   -9.304658272332027E-3    1.735295853726334E-2   -8.663890615772440E-3    2.485125631780863E-1    4.889684258874262E-1
 6.517614389100000E9    -2.223441361520633E-1   -9.312143266186844E-3    1.713554123966291E-2   -9.551034607338634E-3    1.743189572182120E-2   -8.855944036369325E-3    2.493012308724304E-1    4.885199577336357E-1
 6.517626791800000E9    -2.221621857886033E-1   -9.230719240714256E-3    1.721225686624868E-2   -9.504282936118769E-3    1.747017229399612E-2   -8.978263745864880E-3    2.501993154868969E-1    4.880722965484904E-1
 6.517639194500000E9    -2.219518272309070E-1   -9.188259484313552E-3    1.734816474216987E-2   -9.782539122980641E-3    1.764885191101972E-2   -9.008379778865446E-3    2.511899618093749E-1    4.875834458874791E-1
 6.517651597200000E9    -2.217397979253100E-1   -8.895240702510621E-3    1.743926123993224E-2   -9.638207390155295E-3    1.775283080104046E-2   -9.177586256417304E-3    2.521504642900482E-1    4.871702931660665E-1
 6.517663999900000E9    -2.215049924097082E-1   -8.778189398077389E-3    1.763417634355340E-2   -9.829958244171360E-3    1.784005674897807E-2   -9.237863080107420E-3    2.531524164052759E-1    4.866101407015248E-1
 6.517676402600000E9    -2.213782965756722E-1   -8.678286577001171E-3    1.758417182375088E-2   -1.004367084574015E-2    1.796061426847121E-2   -9.384201410050245E-3    2.539148926428592E-1    4.861732169253893E-1
 6.517688805300000E9    -2.212402196634270E-1   -8.640246125643201E-3    1.773403758831217E-2   -1.023393251202550E-2    1.804399579691009E-2   -9.471256235251756E-3    2.548071253062109E-1    4.854672374848396E-1
 6.517701208000000E9    -2.210292001509070E-1   -8.303106830192551E-3    1.777519103650775E-2   -1.027055009573496E-2    1.813336309243997E-2   -9.669655897646887E-3    2.558186994918644E-1    4.850418083213805E-1
 6.517713610700000E9    -2.207592232341125E-1   -8.304883470433852E-3    1.790094143073787E-2   -1.045441280253983E-2    1.819735817429172E-2   -9.823218958628498E-3    2.568085988103859E-1    4.845304020277924E-1
 6.517726013400000E9    -2.205853535834603E-1   -8.113224323949422E-3    1.808541696971923E-2   -1.047943950869641E-2    1.830045248649566E-2   -9.833699996291956E-3    2.576263595800267E-1    4.841123445083400E-1
 6.517738416100000E9    -2.204782139140178E-1   -8.077124129228716E-3    1.825514127816194E-2   -1.053704696336297E-2    1.846763255252078E-2   -9.916170271106087E-3    2.584923802638225E-1    4.836427662243363E-1
 6.517750818800000E9    -2.201214854937135E-1   -7.917833121380649E-3    1.825389531517778E-2   -1.070224600083844E-2    1.862120792459648E-2   -1.010057132058742E-2    2.594799841454277E-1    4.832289697166129E-1
 6.517763221500000E9    -2.200638472280755E-1   -7.839697798401511E-3    1.831162796160118E-2   -1.086056680397270E-2    1.875648482631911E-2   -1.026006598395008E-2    2.603263984402945E-1    4.826420669173778E-1
 6.517775624200000E9    -2.197322650346009E-1   -7.757985781669758E-3    1.856843549895914E-2   -1.101921800177066E-2    1.882387296843521E-2   -1.041063582194123E-2    2.614088004553064E-1    4.819380865108390E-1
 6.517788026900000E9    -2.195925595236324E-1   -7.556718274357381E-3    1.852643063331254E-2   -1.106680789613336E-2    1.887185692000732E-2   -1.052717669089984E-2    2.624104201093821E-1    4.816018120506607E-1
 6.517800429600000E9    -2.193553697993820E-1   -7.623726519930911E-3    1.878866234411349E-2   -1.117421317480277E-2    1.905068878289229E-2   -1.070592247131179E-2    2.632403886808040E-1    4.810318798357059E-1
 6.517812832300000E9    -2.191012402546603E-1   -7.288361480725054E-3    1.882061397315105E-2   -1.130628236996484E-2    1.917676480234281E-2   -1.093165936502265E-2    2.641208176546803E-1    4.805534102823188E-1
 6.517825235000000E9    -2.188561336877381E-1   -7.401238800802549E-3    1.903617146312101E-2   -1.161977140126101E-2    1.926885191545148E-2   -1.093441978440057E-2    2.650542567116780E-1    4.800745901221976E-1
 6.517837637700000E9    -2.187717723272575E-1   -7.210269562951958E-3    1.905541510014862E-2   -1.163710061613080E-2    1.933472504239436E-2   -1.112725008669133E-2    2.660540504022744E-1    4.794836847843928E-1
 6.517850040400000E9    -2.184139774075820E-1   -7.117941046908215E-3    1.917209969029155E-2   -1.188120610701004E-2    1.954050228984851E-2   -1.115030101148569E-2    2.669813629395809E-1    4.789398260260683E-1
 6.517862443100000E9    -2.183124829229440E-1   -7.095065187381338E-3    1.931576578838761E-2   -1.200979982641280E-2    1.973705865909402E-2   -1.145567685950957E-2    2.678748999710650E-1    4.785272929547383E-1
 6.517874845800000E9    -2.180842988846728E-1   -6.990648760842022E-3    1.936767781573567E-2   -1.216430035300796E-2    1.982778954933605E-2   -1.142457688779000E-2    2.687548975389758E-1    4.777466133690490E-1
 6.517887248500000E9    -2.177977798076099E-1   -6.903925778696399E-3    1.950253899028042E-2   -1.236866473803082E-2    1.993801621220441E-2   -1.163460255458376E-2    2.696654524756488E-1    4.773743719234066E-1
 6.517899651200000E9    -2.176503049912622E-1   -6.804546196070159E-3    1.969533207259674E-2   -1.247355669832882E-2    2.008964046177298E-2   -1.170441840323785E-2    2.705502918047943E-1    4.766883878031470E-1
 6.517912053900000E9    -2.173390230037305E-1   -6.690837080353455E-3    1.987462044470208E-2   -1.267883465946968E-2    2.021710808355892E-2   -1.200160656775853E-2    2.716767981186834E-1    4.762499623593947E-1
 6.517924456600000E9    -2.171401216724431E-1   -6.616270540443394E-3    1.982116701325163E-2   -1.267835276951812E-2    2.031251621183252E-2   -1.214321345730416E-2    2.723682207818936E-1    4.754961212563897E-1
 6.517936859300000E9    -2.168768066128080E-1   -6.581700914087720E-3    2.003455840124282E-2   -1.292750974233453E-2    2.051621187391350E-2   -1.236428303906914E-2    2.734002001416673E-1    4.750825546511622E-1
 6.517949262000000E9    -2.167434474254239E-1   -6.576886553585249E-3    2.001409987911172E-2   -1.302967311457515E-2    2.056300482728432E-2   -1.245615435672954E-2    2.742763531629452E-1    4.746207573568963E-1
