#  HZ   S   RI   R     50.00 
! Rohde & Schwarz Vector Network Analyzer 
! Rohde-Schwarz,ZNB20-2Port,1311601062101988,3.16
! Created: UTC 12/23/2023, 3:52:16 AM
! freq[Hz]                re:S11                  im:S11                  re:S21                  im:S21                  re:S12                  im:S12                  re:S22                  im:S22
 6.516871918000000E9    -2.310619593672924E-1   -1.938576575121747E-2    1.290250774335463E-2   -5.085854397910722E-3    1.291725035844585E-2   -4.457026272721145E-3    1.940771395175255E-1    5.123794082074342E-1
 6.516884190000000E9    -2.310591449227526E-1   -1.934713970680896E-2    1.281736047094518E-2   -5.010531927338917E-3    1.299515531132683E-2   -4.525650386204975E-3    1.951122990995343E-1    5.121196505110788E-1
 6.516896462000000E9    -2.309129618933232E-1   -1.909241786198019E-2    1.288056818222518E-2   -5.057628830311643E-3    1.307976840394674E-2   -4.530542657504660E-3    1.959430065312900E-1    5.118046343242830E-1
 6.516908734000000E9    -2.307948169034297E-1   -1.895991441688433E-2    1.304644351394848E-2   -5.119445855022700E-3    1.306576657667731E-2   -4.669398012420938E-3    1.969463856501807E-1    5.114345707163096E-1
 6.516921006000000E9    -2.307503603360195E-1   -1.869369450910736E-2    1.301346161120422E-2   -5.078020020689452E-3    1.312525141701188E-2   -4.646654103973941E-3    1.978297650976120E-1    5.110887020944975E-1
 6.516933278000000E9    -2.305486973742691E-1   -1.860874399472166E-2    1.313856252086897E-2   -5.115137851472430E-3    1.312704424350723E-2   -4.683652700284490E-3    1.987449607741816E-1    5.110035383833562E-1
 6.516945550000000E9    -2.303653893807557E-1   -1.831678795206640E-2    1.328064351744660E-2   -5.344385876455780E-3    1.337284296825752E-2   -4.896620595314092E-3    1.996216827309161E-1    5.105523435027781E-1
 6.516957822000000E9    -2.302633155110131E-1   -1.813935505873348E-2    1.330464854049047E-2   -5.309086180267279E-3    1.323118133231626E-2   -4.919263030250355E-3    2.004736664490118E-1    5.101166147834909E-1
 6.516970094000000E9    -2.301842161746301E-1   -1.788378986077610E-2    1.329498167692873E-2   -5.418988162823766E-3    1.336809415163280E-2   -4.847821416511314E-3    2.013706262690787E-1    5.098469892684339E-1
 6.516982366000000E9    -2.301338714624345E-1   -1.780250821908328E-2    1.321810483217613E-2   -5.380319560759818E-3    1.341128897636140E-2   -4.975794278560226E-3    2.021985410331190E-1    5.094522859506559E-1
 6.516994638000000E9    -2.299968075450913E-1   -1.756491550297340E-2    1.338240708807108E-2   -5.447294440810628E-3    1.352740683840459E-2   -4.992984049911389E-3    2.033551379302406E-1    5.091548182346054E-1
 6.517006910000000E9    -2.298635925058505E-1   -1.744035984583953E-2    1.339522220564910E-2   -5.530806108041715E-3    1.354826572666346E-2   -5.099802587023828E-3    2.041829641098026E-1    5.087004699087210E-1
 6.517019182000000E9    -2.297260089424505E-1   -1.725242742647167E-2    1.356907372092388E-2   -5.606269304485784E-3    1.363055552681106E-2   -5.041379637402958E-3    2.052036933316038E-1    5.086004326636820E-1
 6.517031454000000E9    -2.296235736036746E-1   -1.703827427798236E-2    1.358961149163202E-2   -5.588853958692736E-3    1.367136644658503E-2   -5.219012517363072E-3    2.058746456025690E-1    5.080171211216550E-1
 6.517043726000000E9    -2.294755060014367E-1   -1.671517747285776E-2    1.362308706762715E-2   -5.616864231622744E-3    1.372796815960189E-2   -5.225434214291858E-3    2.070196112297083E-1    5.076684484552146E-1
 6.517055998000000E9    -2.293284932502017E-1   -1.669089757738455E-2    1.371476048242140E-2   -5.824450570821520E-3    1.375962271096496E-2   -5.263024661195367E-3    2.078391289419613E-1    5.073673193820932E-1
 6.517068270000000E9    -2.292186170659787E-1   -1.639453786282413E-2    1.369958150964416E-2   -5.823558978893457E-3    1.378072397708946E-2   -5.313778202342183E-3    2.086457385195609E-1    5.070874746811751E-1
 6.517080542000000E9    -2.291164140522758E-1   -1.629920938454966E-2    1.393632489479244E-2   -5.854281972495360E-3    1.399425048647055E-2   -5.472145208980267E-3    2.095234559893899E-1    5.065970873235713E-1
 6.517092814000000E9    -2.290492136444665E-1   -1.605989688836327E-2    1.382221067312854E-2   -5.892182245199458E-3    1.398441626059417E-2   -5.448723963637103E-3    2.104695878960354E-1    5.063008284183927E-1
 6.517105086000000E9    -2.288348168471402E-1   -1.584211511341384E-2    1.396786341122314E-2   -6.084192761921780E-3    1.402484230441518E-2   -5.434845418858185E-3    2.113979406534899E-1    5.059878271166566E-1
 6.517117358000000E9    -2.288029393354067E-1   -1.581605354734375E-2    1.388519183475085E-2   -6.038071586861646E-3    1.411376798566474E-2   -5.514832297969478E-3    2.123210944094120E-1    5.055138365686744E-1
 6.517129630000000E9    -2.286101783471024E-1   -1.544304599693781E-2    1.399749734953839E-2   -6.100582930080829E-3    1.415310323109925E-2   -5.703127176896731E-3    2.133336045262836E-1    5.051361666118269E-1
 6.517141902000000E9    -2.284063665358615E-1   -1.524690220235012E-2    1.401546871906855E-2   -6.161343198273449E-3    1.423748148425294E-2   -5.580382285644800E-3    2.142122367952928E-1    5.048463778204947E-1
 6.517154174000000E9    -2.282738896395118E-1   -1.504713430445894E-2    1.403231456085388E-2   -6.152732366466297E-3    1.432231691308643E-2   -5.717585437683820E-3    2.148942162220083E-1    5.044347705515507E-1
 6.517166446000000E9    -2.282496260672508E-1   -1.501245278177627E-2    1.424617495455204E-2   -6.376492486818649E-3    1.437416014586211E-2   -5.856848980588822E-3    2.160206507285080E-1    5.039789140890492E-1
 6.517178718000000E9    -2.280121762208526E-1   -1.486233183488421E-2    1.426764724073531E-2   -6.415022375220343E-3    1.443527078053377E-2   -5.918293829618818E-3    2.168464585404803E-1    5.036773460235151E-1
 6.517190990000000E9    -2.279566697528710E-1   -1.451237744098072E-2    1.436950511959141E-2   -6.355061552464661E-3    1.446764604227198E-2   -5.927816857016035E-3    2.176674043124500E-1    5.031945735946566E-1
 6.517203262000000E9    -2.277495904319201E-1   -1.441301180018805E-2    1.441425798450565E-2   -6.476167549784370E-3    1.464907835629806E-2   -5.877709225023800E-3    2.187229096468660E-1    5.028647646863812E-1
 6.517215534000000E9    -2.276727777865918E-1   -1.427584672071998E-2    1.455635943766244E-2   -6.634518599270604E-3    1.460333167887061E-2   -6.046327354888234E-3    2.195501288119504E-1    5.024587489877236E-1
 6.517227806000000E9    -2.274807934906153E-1   -1.411534077856640E-2    1.460154546002906E-2   -6.532004968755674E-3    1.459624387517659E-2   -6.009756216216372E-3    2.205258357476349E-1    5.019848365831348E-1
 6.517240078000000E9    -2.273802115303681E-1   -1.389635548875210E-2    1.463433721326464E-2   -6.643745376746859E-3    1.473862327602184E-2   -6.111997676906049E-3    2.214312556431086E-1    5.016401427060150E-1
 6.517252350000000E9    -2.272474560312735E-1   -1.371564911597376E-2    1.454602063807194E-2   -6.775500453317081E-3    1.478955222520769E-2   -6.179637638671563E-3    2.223134215157447E-1    5.013901709677904E-1
 6.517264622000000E9    -2.270446636212590E-1   -1.356065057063093E-2    1.478506559200832E-2   -6.856547051173018E-3    1.493293960636062E-2   -6.441847101767836E-3    2.232268330604329E-1    5.007868074589583E-1
 6.517276894000000E9    -2.269252111235049E-1   -1.340544555453354E-2    1.485509114188222E-2   -6.874398134514219E-3    1.495277498243268E-2   -6.432744758867423E-3    2.240872124747844E-1    5.004160838909617E-1
 6.517289166000000E9    -2.268045132118806E-1   -1.320737143427373E-2    1.495928411541409E-2   -6.872337297170857E-3    1.505141901718051E-2   -6.491124466309650E-3    2.249675328906243E-1    5.001844333829332E-1
 6.517301438000000E9    -2.267380571474719E-1   -1.302800218936449E-2    1.501294129045854E-2   -7.039714545512355E-3    1.518083866899062E-2   -6.624171059734734E-3    2.259511413327338E-1    4.998211125019899E-1
 6.517313710000000E9    -2.264266749594840E-1   -1.284587738933453E-2    1.503353184087359E-2   -6.926880225414074E-3    1.518799925888025E-2   -6.533549515060535E-3    2.267995074131464E-1    4.992634025855315E-1
 6.517325982000000E9    -2.262435653403700E-1   -1.276297994951341E-2    1.509257428013427E-2   -7.134842372488661E-3    1.513698643993477E-2   -6.684538185380564E-3    2.277643611596337E-1    4.988769966545946E-1
 6.517338254000000E9    -2.261614455641935E-1   -1.253953050968618E-2    1.517411223257867E-2   -7.405954385202819E-3    1.538974170320584E-2   -6.735682791587798E-3    2.284996016232034E-1    4.985608926547692E-1
 6.517350526000000E9    -2.261059623054407E-1   -1.242210209785923E-2    1.527779948436027E-2   -7.206329746547064E-3    1.535901274031853E-2   -6.911913828859049E-3    2.296286666487160E-1    4.980455319399023E-1
 6.517362798000000E9    -2.259381176747955E-1   -1.223796118188086E-2    1.527975967874752E-2   -7.363116718283999E-3    1.555890890605481E-2   -6.776500620410013E-3    2.303092238066331E-1    4.976992484964290E-1
 6.517375070000000E9    -2.257606546062913E-1   -1.217840852588035E-2    1.535546812850416E-2   -7.566606157177708E-3    1.560135128135584E-2   -6.962528306604814E-3    2.313848851890452E-1    4.972114884298992E-1
 6.517387342000000E9    -2.255393831080233E-1   -1.193118929337280E-2    1.552040609627318E-2   -7.570015400308658E-3    1.569255447257217E-2   -7.121345012769001E-3    2.323386226942045E-1    4.968768904862997E-1
 6.517399614000000E9    -2.254592842745373E-1   -1.165705904000051E-2    1.554407473114637E-2   -7.692921770912057E-3    1.578552920379658E-2   -7.165688563648955E-3    2.332685767004318E-1    4.964105628787071E-1
 6.517411886000000E9    -2.252457858309615E-1   -1.153729911556894E-2    1.557191424634341E-2   -7.796920065471382E-3    1.578400440415407E-2   -7.233590794499919E-3    2.341971568240354E-1    4.960541403504802E-1
 6.517424158000000E9    -2.250464523446913E-1   -1.140200522612259E-2    1.575246115648963E-2   -7.906953642667181E-3    1.599842657882395E-2   -7.266352097605669E-3    2.350149080200923E-1    4.955026866896189E-1
 6.517436430000000E9    -2.249902701817745E-1   -1.130182273379217E-2    1.581103157746171E-2   -8.014371826726688E-3    1.603159647380969E-2   -7.412983989951998E-3    2.360249575467404E-1    4.952109074473880E-1
 6.517448702000000E9    -2.247361193419134E-1   -1.115000643276383E-2    1.597611372463752E-2   -7.809366180612567E-3    1.599669247082400E-2   -7.500547434225116E-3    2.368669014920473E-1    4.947413229735909E-1
 6.517460974000000E9    -2.247719126979670E-1   -1.093772709533117E-2    1.587116028150347E-2   -8.023311536473492E-3    1.610852402441568E-2   -7.625751206870542E-3    2.377079458578425E-1    4.943779865035387E-1
 6.517473246000000E9    -2.244439215575348E-1   -1.082714854149495E-2    1.607907055144317E-2   -8.098436839241411E-3    1.624496211862842E-2   -7.584271976207287E-3    2.387128814407661E-1    4.939672779470090E-1
 6.517485518000000E9    -2.243030745917252E-1   -1.059729124348677E-2    1.613792023134574E-2   -8.292854956025358E-3    1.630546119592234E-2   -7.751193899590437E-3    2.396278988586225E-1    4.935096636175242E-1
 6.517497790000000E9    -2.241180196312825E-1   -1.053569962396978E-2    1.625138637411140E-2   -8.296071564718304E-3    1.635928246237082E-2   -7.967428482427832E-3    2.406116173285035E-1    4.929593161912387E-1
 6.517510062000000E9    -2.239661414184884E-1   -1.024867053701189E-2    1.629998545864511E-2   -8.454577132860332E-3    1.641860218020783E-2   -7.871334426357271E-3    2.413897643386848E-1    4.926297387403840E-1
 6.517522334000000E9    -2.237243499058650E-1   -1.012448849363894E-2    1.642002254491233E-2   -8.482455880438009E-3    1.660772919089360E-2   -7.983474117736431E-3    2.424040437317641E-1    4.920148447523938E-1
 6.517534606000000E9    -2.235341454100020E-1   -9.988059567714360E-3    1.653555036372381E-2   -8.646819490880848E-3    1.664416168333755E-2   -8.081292102491150E-3    2.432455124467410E-1    4.915921776173175E-1
 6.517546878000000E9    -2.234700620236215E-1   -9.864958402461592E-3    1.653508816371928E-2   -8.807013992932792E-3    1.672227513743632E-2   -8.174987126350482E-3    2.441919048248179E-1    4.911612927841470E-1
 6.517559150000000E9    -2.232541939360063E-1   -9.694217056815830E-3    1.667584026445291E-2   -8.880364066375901E-3    1.692286760050427E-2   -8.310667742199858E-3    2.451178547339032E-1    4.907661095442238E-1
 6.517571422000000E9    -2.230595522499020E-1   -9.576064312474205E-3    1.664597430710719E-2   -9.057923643683383E-3    1.689433288425547E-2   -8.388920816590555E-3    2.459841271573235E-1    4.902988451399174E-1
 6.517583694000000E9    -2.228037832095173E-1   -9.473145352997769E-3    1.681574850825232E-2   -9.115316996081747E-3    1.703858472826943E-2   -8.430964530041838E-3    2.469461722137321E-1    4.898853763075954E-1
 6.517595966000000E9    -2.227616959543472E-1   -9.274146029606580E-3    1.690172034091689E-2   -9.180606765333220E-3    1.709880416914372E-2   -8.615236464780544E-3    2.476729880672522E-1    4.893477036113799E-1
 6.517608238000000E9    -2.226336858957630E-1   -9.184788220836775E-3    1.696235965644168E-2   -9.212638117367814E-3    1.722927114230910E-2   -8.797134484756377E-3    2.487437079496845E-1    4.888868447410507E-1
 6.517620510000000E9    -2.224369330828783E-1   -9.001043903643856E-3    1.705846320727286E-2   -9.214511519279385E-3    1.724619358161831E-2   -8.687773318713270E-3    2.495911711293783E-1    4.885232144611823E-1
 6.517632782000000E9    -2.222050138007646E-1   -8.827470493211816E-3    1.711304855582415E-2   -9.410123693518166E-3    1.756668489575314E-2   -8.860881857186710E-3    2.505109655536234E-1    4.880639131087526E-1
 6.517645054000000E9    -2.220505298375466E-1   -8.877133677930246E-3    1.732074361720766E-2   -9.650929428529409E-3    1.760239407109263E-2   -8.997394430834629E-3    2.515329999293304E-1    4.873898833243028E-1
 6.517657326000000E9    -2.218413715353369E-1   -8.728659312695685E-3    1.740823665693468E-2   -9.720953136357117E-3    1.764994839219719E-2   -9.108639416663188E-3    2.522513717553523E-1    4.869934939829733E-1
 6.517669598000000E9    -2.215836063156686E-1   -8.527487013519552E-3    1.770421471472799E-2   -9.868552315209519E-3    1.778866822842828E-2   -9.150683163549842E-3    2.532765265067983E-1    4.865983272444932E-1
 6.517681870000000E9    -2.214053362823255E-1   -8.387950574023990E-3    1.754899348490503E-2   -9.838260410962467E-3    1.787491390787193E-2   -9.305971686565407E-3    2.543417753764323E-1    4.859910765740004E-1
 6.517694142000000E9    -2.213062541543732E-1   -8.277728446466031E-3    1.768626603907045E-2   -1.002274908316141E-2    1.791835091679483E-2   -9.414910705845620E-3    2.548972656190270E-1    4.855449373052860E-1
 6.517706414000000E9    -2.210504255256798E-1   -8.202952960441353E-3    1.775273489447901E-2   -1.004969564418352E-2    1.808024176822369E-2   -9.450462645212676E-3    2.560398337308146E-1    4.851156614312656E-1
 6.517718686000000E9    -2.209369019110828E-1   -8.093810032324103E-3    1.776572815120150E-2   -1.031934220071473E-2    1.817156727008359E-2   -9.561738267831190E-3    2.568775867422071E-1    4.846103706272755E-1
 6.517730958000000E9    -2.206660650392856E-1   -7.903618760250671E-3    1.796464490185770E-2   -1.038512534409674E-2    1.822229272040749E-2   -9.860884860503882E-3    2.578471184595620E-1    4.841122381484954E-1
 6.517743230000000E9    -2.204385927458622E-1   -7.763934313005808E-3    1.811489655643934E-2   -1.052236722163154E-2    1.838937980871160E-2   -9.904790563776805E-3    2.587147231731103E-1    4.834767737874956E-1
 6.517755502000000E9    -2.203022995259194E-1   -7.630090523753364E-3    1.828722460246113E-2   -1.053183487771745E-2    1.858151631629313E-2   -1.002591177589823E-2    2.596351650439535E-1    4.831098701363235E-1
 6.517767774000000E9    -2.201800112725202E-1   -7.509572900583736E-3    1.829037082702346E-2   -1.085297606519282E-2    1.868796785020212E-2   -1.017967478857314E-2    2.604947397086101E-1    4.825188852416242E-1
 6.517780046000000E9    -2.197790896187227E-1   -7.473213529120288E-3    1.845198598641063E-2   -1.091600918013161E-2    1.873820869920786E-2   -1.024339905640611E-2    2.613933362741580E-1    4.820724116130055E-1
 6.517792318000000E9    -2.196535323116490E-1   -7.328910478668856E-3    1.849588586832172E-2   -1.103880787901221E-2    1.883133402411561E-2   -1.038556082340365E-2    2.624429488932463E-1    4.816549635736340E-1
 6.517804590000000E9    -2.193516561669531E-1   -7.250473079709257E-3    1.856794045167462E-2   -1.122717464858484E-2    1.902290967732113E-2   -1.056818562882565E-2    2.632450999647917E-1    4.810687321543202E-1
 6.517816862000000E9    -2.191516875385695E-1   -7.057360449117578E-3    1.882037133586956E-2   -1.130937350900754E-2    1.904323645668813E-2   -1.062761872796479E-2    2.640395730974414E-1    4.805339987475835E-1
 6.517829134000000E9    -2.191185012038356E-1   -7.064631771733613E-3    1.891564365980651E-2   -1.144159153125894E-2    1.920565878640549E-2   -1.095663767954519E-2    2.650502346960883E-1    4.799963799060324E-1
 6.517841406000000E9    -2.187542908960326E-1   -6.914345440506981E-3    1.901027922935439E-2   -1.167652978611415E-2    1.936025342863134E-2   -1.104059244253491E-2    2.660026359495316E-1    4.795948420060122E-1
 6.517853678000000E9    -2.185143055578967E-1   -6.933255586282752E-3    1.898320906160268E-2   -1.172183013360831E-2    1.942489100963658E-2   -1.107444308002082E-2    2.668098767597224E-1    4.790984285724205E-1
 6.517865950000000E9    -2.183819143698990E-1   -6.639515336124302E-3    1.902705809804677E-2   -1.191404232580579E-2    1.953862309919820E-2   -1.122458357009209E-2    2.678231595203455E-1    4.783696464493487E-1
 6.517878222000000E9    -2.180892758260556E-1   -6.665895586865448E-3    1.935443000844447E-2   -1.211556265747339E-2    1.973391740277604E-2   -1.134550795146797E-2    2.689243432976564E-1    4.779490450070052E-1
 6.517890494000000E9    -2.178591924320978E-1   -6.652075478008703E-3    1.934480151918658E-2   -1.223932388541299E-2    1.980382953944622E-2   -1.146482149277775E-2    2.696532038008927E-1    4.773961392245513E-1
 6.517902766000000E9    -2.177445169024335E-1   -6.569751725566542E-3    1.963413385416001E-2   -1.229673875847419E-2    2.000769926200125E-2   -1.170557480161503E-2    2.706479049894182E-1    4.767308630543127E-1
 6.517915038000000E9    -2.175512582806480E-1   -6.369815438467110E-3    1.973990819612384E-2   -1.239568956058566E-2    2.004263941993748E-2   -1.185755552554544E-2    2.714443939824734E-1    4.761751912959605E-1
 6.517927310000000E9    -2.173317578069141E-1   -6.432614860615679E-3    1.987262952880839E-2   -1.254475674885189E-2    2.016364622287389E-2   -1.194348663545980E-2    2.725166951839686E-1    4.758683597200110E-1
 6.517939582000000E9    -2.170247464771537E-1   -6.375760516291511E-3    2.006837409113828E-2   -1.293244914146893E-2    2.042606716152432E-2   -1.216499415440468E-2    2.732585517770216E-1    4.751907747907726E-1
 6.517951854000000E9    -2.167375266203335E-1   -6.311532964923728E-3    2.015420087382475E-2   -1.302770249241275E-2    2.050848211729783E-2   -1.241294421415971E-2    2.743021473932639E-1    4.747255177401708E-1
 6.517964126000000E9    -2.165049098159708E-1   -6.115219505958263E-3    2.027433905368208E-2   -1.322362530386090E-2    2.066683868773699E-2   -1.242523775436929E-2    2.750958165581447E-1    4.740131497609624E-1
 6.517976398000000E9    -2.163177497588519E-1   -6.162964603784732E-3    2.036977125341445E-2   -1.335494183089092E-2    2.075675615565162E-2   -1.256282596661406E-2    2.760730326028767E-1    4.734482189930814E-1
