#  HZ   S   RI   R     50.00 
! Rohde & Schwarz Vector Network Analyzer 
! Rohde-Schwarz,ZNB20-2Port,1311601062101988,3.16
! Created: UTC 12/23/2023, 3:36:22 AM
! freq[Hz]                re:S11                  im:S11                  re:S21                  im:S21                  re:S12                  im:S12                  re:S22                  im:S22
 6.517134715000000E9    -2.297911084145216E-1   -1.433646116226556E-2    1.356136343500338E-2   -5.899593354556799E-3    1.364844643537381E-2   -5.304509588979576E-3    2.136522118577828E-1    5.054377875672366E-1
 6.517146101450000E9    -2.296776968567637E-1   -1.403760649441140E-2    1.355080110397218E-2   -5.710087895674565E-3    1.380198366492280E-2   -5.338631934921193E-3    2.144210436051603E-1    5.051018385327860E-1
 6.517157487900000E9    -2.295937661027177E-1   -1.401360300732531E-2    1.382020925707420E-2   -5.964443400049212E-3    1.395783552533831E-2   -5.341481207875751E-3    2.152953166984038E-1    5.047976462564822E-1
 6.517168874350000E9    -2.295511069770109E-1   -1.386389788264297E-2    1.372408777965256E-2   -5.884746073676090E-3    1.385410544784903E-2   -5.450286147533425E-3    2.161233837447427E-1    5.044646642083764E-1
 6.517180260800000E9    -2.293212899185890E-1   -1.361170272081907E-2    1.368139609599050E-2   -5.992524868222590E-3    1.400068702403148E-2   -5.523502208952713E-3    2.170569203439589E-1    5.039289796839296E-1
 6.517191647250000E9    -2.292364800026046E-1   -1.347471150133705E-2    1.381381442676262E-2   -6.035380456940714E-3    1.394644562146712E-2   -5.623833998321933E-3    2.178374125333057E-1    5.037434604823511E-1
 6.517203033700000E9    -2.291375803245042E-1   -1.339599206425275E-2    1.396273317673771E-2   -6.046640791539415E-3    1.397717695913241E-2   -5.639527869133391E-3    2.186865943212838E-1    5.033072194299941E-1
 6.517214420150000E9    -2.289784313290185E-1   -1.303200195727184E-2    1.393776443788924E-2   -6.206777754712266E-3    1.417631192018172E-2   -5.675849182051831E-3    2.193865021357740E-1    5.030428794303543E-1
 6.517225806600000E9    -2.288168420504268E-1   -1.291141749210380E-2    1.396136655149738E-2   -6.173494608502559E-3    1.410514422920662E-2   -5.656619618590951E-3    2.203926142172678E-1    5.026354315220365E-1
 6.517237193050000E9    -2.287049913993662E-1   -1.275855152476875E-2    1.403809758323855E-2   -6.246232741599316E-3    1.416266313694203E-2   -5.852363372783582E-3    2.212134330888492E-1    5.022184406281899E-1
 6.517248579500000E9    -2.285909472829715E-1   -1.265883878985984E-2    1.408665334223597E-2   -6.245873823440683E-3    1.426158443457195E-2   -5.783888691617237E-3    2.220499515582985E-1    5.019333162906057E-1
 6.517259965950000E9    -2.284704613988132E-1   -1.245788947852779E-2    1.417497690568990E-2   -6.462352596428850E-3    1.448346865524873E-2   -5.989570386844446E-3    2.229403424757280E-1    5.014777767520512E-1
 6.517271352400000E9    -2.283883041991828E-1   -1.229462091160371E-2    1.435662787628650E-2   -6.502709143435935E-3    1.442451647795621E-2   -5.923595508170984E-3    2.237437356192546E-1    5.012145288656602E-1
 6.517282738850000E9    -2.281937556882472E-1   -1.211050249197488E-2    1.434505934818738E-2   -6.475047231933103E-3    1.453280777366859E-2   -6.080552067199940E-3    2.246346105823976E-1    5.007405122610588E-1
 6.517294125300000E9    -2.280246084449457E-1   -1.195807245493239E-2    1.426280894102719E-2   -6.632950236408247E-3    1.455430989278599E-2   -5.997361777614264E-3    2.253327683793732E-1    5.004435928910789E-1
 6.517305511750000E9    -2.279423897429338E-1   -1.181480901284667E-2    1.458000963790588E-2   -6.618664634361466E-3    1.456586057841950E-2   -6.122317596010101E-3    2.261649215499156E-1    5.002177279128258E-1
 6.517316898200000E9    -2.278975753475696E-1   -1.159246454562306E-2    1.454014679905598E-2   -6.741644859988411E-3    1.465435565153956E-2   -6.200172340248331E-3    2.270266704779170E-1    4.996891903200636E-1
 6.517328284650000E9    -2.277542114138434E-1   -1.152305488394002E-2    1.453643341443236E-2   -6.801601617754629E-3    1.466629818244662E-2   -6.313065180837954E-3    2.278622632100030E-1    4.993489718767937E-1
 6.517339671100000E9    -2.275583690985183E-1   -1.134331170056938E-2    1.458619418853795E-2   -6.858293346472445E-3    1.479336963623203E-2   -6.302340316514340E-3    2.287291602825546E-1    4.989886843259747E-1
 6.517351057550000E9    -2.274613526020692E-1   -1.111084365452513E-2    1.459443765035768E-2   -6.872349516861706E-3    1.486303019044102E-2   -6.345815304758319E-3    2.295970814452156E-1    4.985248082357999E-1
 6.517362444000000E9    -2.272911524603356E-1   -1.102540858943535E-2    1.493271945977897E-2   -6.931162535509494E-3    1.489522360908362E-2   -6.400164865309949E-3    2.304239528818358E-1    4.982211547192906E-1
 6.517373830450000E9    -2.271572499934503E-1   -1.079857076612358E-2    1.487227820452988E-2   -7.079427356151908E-3    1.500939771702993E-2   -6.504577296369066E-3    2.313708429519690E-1    4.978277024555119E-1
 6.517385216900000E9    -2.270509951720061E-1   -1.052229453351246E-2    1.482475380731354E-2   -7.091687329156553E-3    1.508173612052035E-2   -6.664423685318193E-3    2.322456377195683E-1    4.975887104182170E-1
 6.517396603350000E9    -2.269391510874846E-1   -1.047846842368668E-2    1.495734422507291E-2   -7.262526903873674E-3    1.512257632863571E-2   -6.590143396908456E-3    2.330147766988919E-1    4.971210371016976E-1
 6.517407989800000E9    -2.267059659495359E-1   -1.034502664432134E-2    1.512021688200285E-2   -7.181803555992112E-3    1.518240224202140E-2   -6.645212483935396E-3    2.339104555879410E-1    4.967262583380527E-1
 6.517419376250000E9    -2.265739481486544E-1   -1.017633950846129E-2    1.506030709253291E-2   -7.287686474880219E-3    1.532844518675353E-2   -6.740824341932527E-3    2.346012578363706E-1    4.962889808903184E-1
 6.517430762700000E9    -2.264431614610216E-1   -1.003054034719425E-2    1.535726164888581E-2   -7.405366225942790E-3    1.537416687228924E-2   -6.842293118961154E-3    2.353255621727970E-1    4.958476577640556E-1
 6.517442149150000E9    -2.263892216245080E-1   -9.916636241052674E-3    1.516873741381314E-2   -7.425175608037988E-3    1.545128994825685E-2   -6.899421936343179E-3    2.362938766775518E-1    4.955692079321115E-1
 6.517453535600000E9    -2.261655554262361E-1   -9.762116100102570E-3    1.532990271481340E-2   -7.538547283230418E-3    1.558037890223198E-2   -6.970465834890535E-3    2.372484571583831E-1    4.952501123036616E-1
 6.517464922050000E9    -2.260574965233823E-1   -9.655067094020524E-3    1.534797524648256E-2   -7.500681159794105E-3    1.552514136047222E-2   -7.123826486919821E-3    2.380044298775056E-1    4.946976680715617E-1
 6.517476308500000E9    -2.258742231654940E-1   -9.463686493407808E-3    1.546021674104566E-2   -7.698248908670895E-3    1.564004473347115E-2   -7.174979909092704E-3    2.388655476878993E-1    4.943293494591309E-1
 6.517487694950000E9    -2.257453912613413E-1   -9.281248328698621E-3    1.538228773653243E-2   -7.708855233131989E-3    1.577967869804547E-2   -7.243974637045810E-3    2.396575789789770E-1    4.939293393836666E-1
 6.517499081400000E9    -2.255567979126834E-1   -9.123176994743866E-3    1.561042495660080E-2   -7.611471615944327E-3    1.580711767058194E-2   -7.305082833888512E-3    2.402790174327783E-1    4.936959202529915E-1
 6.517510467850000E9    -2.254595784682933E-1   -9.007160056436215E-3    1.572459204469544E-2   -7.945309696983796E-3    1.585982201632838E-2   -7.380112755286066E-3    2.413601589015865E-1    4.932772503280233E-1
 6.517521854300000E9    -2.252307555514260E-1   -8.861035595667725E-3    1.573519916572647E-2   -7.901891250182962E-3    1.590117614841772E-2   -7.398003775612175E-3    2.421026043395751E-1    4.927262994323128E-1
 6.517533240750000E9    -2.252199080130810E-1   -8.658542528185516E-3    1.584727140517854E-2   -8.047214686265711E-3    1.602569600685469E-2   -7.482035279238198E-3    2.430339768246960E-1    4.923571366067500E-1
 6.517544627200000E9    -2.249433557813372E-1   -8.540234903230135E-3    1.595391590326055E-2   -8.086562159669896E-3    1.600845385026656E-2   -7.536554060072464E-3    2.439089948891727E-1    4.918634659621594E-1
 6.517556013650000E9    -2.248389396135371E-1   -8.385772695348603E-3    1.595179594109288E-2   -8.181196946063167E-3    1.624266107192509E-2   -7.611732717488192E-3    2.447942060535727E-1    4.914894665331643E-1
 6.517567400100000E9    -2.246982569775986E-1   -8.243272311983803E-3    1.612697507911886E-2   -8.391013586275201E-3    1.625788059422637E-2   -7.723584509128323E-3    2.455430067492263E-1    4.911379706095623E-1
 6.517578786550000E9    -2.244972690252557E-1   -8.196268052152685E-3    1.617023058025935E-2   -8.248874319442821E-3    1.637153897467588E-2   -7.906963741660734E-3    2.463974663514443E-1    4.906629892920100E-1
 6.517590173000000E9    -2.243406122196580E-1   -7.957865018426926E-3    1.638253301295716E-2   -8.474125661580510E-3    1.648327678239121E-2   -7.890184485194780E-3    2.471754043970368E-1    4.902166583974933E-1
 6.517601559450000E9    -2.242945586412635E-1   -7.866839117490851E-3    1.633807151681892E-2   -8.468346665197081E-3    1.651448305815800E-2   -7.962439624575046E-3    2.479665635295528E-1    4.897362430347715E-1
 6.517612945900000E9    -2.240462754362453E-1   -7.737023843314371E-3    1.630368746684200E-2   -8.666424280713122E-3    1.659859730150185E-2   -8.089491424961110E-3    2.489932174056722E-1    4.894263454160759E-1
 6.517624332350000E9    -2.238170148851427E-1   -7.514333866730514E-3    1.651650840470080E-2   -8.598238295520219E-3    1.679151260689067E-2   -8.085236620693039E-3    2.498399409543036E-1    4.890822527175797E-1
 6.517635718800000E9    -2.237958688582714E-1   -7.481016303968891E-3    1.653069473395373E-2   -8.808538118788145E-3    1.682786493894802E-2   -8.360976768412883E-3    2.505272462060518E-1    4.886868769754030E-1
 6.517647105250000E9    -2.236179404331935E-1   -7.315079543684763E-3    1.660066478431431E-2   -8.851967577768132E-3    1.690533771830035E-2   -8.272116427786016E-3    2.515458842831037E-1    4.881092582198153E-1
 6.517658491700000E9    -2.233505328444405E-1   -7.220996216110023E-3    1.667654402009668E-2   -8.981941247690400E-3    1.697555500792704E-2   -8.503336611041532E-3    2.523732570787736E-1    4.877748908091877E-1
 6.517669878150000E9    -2.233420294615682E-1   -7.120894365480359E-3    1.669474334324892E-2   -9.065989725950380E-3    1.697935659359325E-2   -8.510063074256960E-3    2.530595310603903E-1    4.872497329926249E-1
 6.517681264600000E9    -2.231427373145204E-1   -6.805352656444106E-3    1.690189264279326E-2   -9.147269837175218E-3    1.729645420362463E-2   -8.618786983459017E-3    2.539856541955903E-1    4.867759931712242E-1
 6.517692651050000E9    -2.230034828807419E-1   -6.797627615574335E-3    1.702290700256644E-2   -9.309351439291288E-3    1.742819408120316E-2   -8.560128007966029E-3    2.548476734651141E-1    4.864320989280938E-1
 6.517704037500000E9    -2.227163432184429E-1   -6.688883814903917E-3    1.704974580655904E-2   -9.237305404669639E-3    1.728207478268605E-2   -8.742138833403504E-3    2.557290266635462E-1    4.860668631913356E-1
 6.517715423950000E9    -2.225666573299492E-1   -6.589975588165795E-3    1.719273893719064E-2   -9.454381215911975E-3    1.738559665877228E-2   -8.931377642184093E-3    2.563564300215196E-1    4.854699181208196E-1
 6.517726810400000E9    -2.224038413947580E-1   -6.385432532420165E-3    1.722806151653486E-2   -9.593906120266182E-3    1.742513450329288E-2   -9.027475998015254E-3    2.573742294046871E-1    4.849211025145337E-1
 6.517738196850000E9    -2.221980608913758E-1   -6.308651049818587E-3    1.739933375638815E-2   -9.589098916454025E-3    1.753129249076904E-2   -9.070657406544990E-3    2.581278931799046E-1    4.846144634217255E-1
 6.517749583300000E9    -2.220553347736317E-1   -6.174376860549778E-3    1.734002800675944E-2   -9.635877561650092E-3    1.778713790116843E-2   -9.178250052999824E-3    2.590058939225213E-1    4.842052485823830E-1
 6.517760969750000E9    -2.218975895245993E-1   -6.035941982552834E-3    1.750356032389739E-2   -9.800731818618184E-3    1.784089453459194E-2   -9.238308238231855E-3    2.598021688426900E-1    4.837716406795718E-1
 6.517772356200000E9    -2.217226965183951E-1   -5.963267183709231E-3    1.762973155459203E-2   -9.985445384476861E-3    1.786330252254506E-2   -9.440576911088506E-3    2.607065103796536E-1    4.831530844542655E-1
 6.517783742650000E9    -2.214510348142591E-1   -5.803966244996279E-3    1.760652676935856E-2   -1.009386807373085E-2    1.797369139068007E-2   -9.456178720988438E-3    2.615672781185518E-1    4.828370986291008E-1
 6.517795129100000E9    -2.213169820751667E-1   -5.643093834511780E-3    1.774539425022687E-2   -1.009577200252097E-2    1.801004410400348E-2   -9.594652632739472E-3    2.624352576766786E-1    4.822325832423319E-1
 6.517806515550000E9    -2.211947307880147E-1   -5.687189671330225E-3    1.788950159142684E-2   -1.028335196118064E-2    1.823308335262529E-2   -9.756064307038823E-3    2.632121197261647E-1    4.819268912301142E-1
 6.517817902000000E9    -2.209840924720477E-1   -5.324552432520897E-3    1.799120587154594E-2   -1.035302252601172E-2    1.828297106824726E-2   -9.906908437028973E-3    2.639938582939992E-1    4.814426158916593E-1
 6.517829288450000E9    -2.207217958802051E-1   -5.384795675694358E-3    1.803326443086319E-2   -1.061516280176704E-2    1.832846255812336E-2   -9.981742195714073E-3    2.648922603916355E-1    4.809658087584364E-1
 6.517840674900000E9    -2.205835305575044E-1   -5.280534835814001E-3    1.816433733151648E-2   -1.062277017629681E-2    1.843733326816007E-2   -1.005128414760847E-2    2.655850390766444E-1    4.804700116744809E-1
 6.517852061350000E9    -2.203887417563616E-1   -5.040152942920971E-3    1.830527046663992E-2   -1.084502641187361E-2    1.871032264547416E-2   -1.014865434776549E-2    2.666128668893292E-1    4.799805767712526E-1
 6.517863447800000E9    -2.202054356372400E-1   -5.121766165565459E-3    1.833584025874199E-2   -1.078994550744902E-2    1.866405818934454E-2   -1.016894099312347E-2    2.674044447289151E-1    4.793874541630867E-1
 6.517874834250000E9    -2.200899163209232E-1   -5.051239429058880E-3    1.855967749181212E-2   -1.105327159611966E-2    1.878766204627783E-2   -1.037043578129604E-2    2.682516066761468E-1    4.788978216218926E-1
 6.517886220700000E9    -2.198064075741417E-1   -4.840289014099426E-3    1.855876021000211E-2   -1.104104594898117E-2    1.894478190658702E-2   -1.046030781334256E-2    2.690721355236286E-1    4.785031869207562E-1
 6.517897607150000E9    -2.196465024662602E-1   -4.694986908340282E-3    1.869703128998219E-2   -1.122962965947836E-2    1.906837414429068E-2   -1.059781751282578E-2    2.699781337430263E-1    4.781112238583182E-1
 6.517908993600000E9    -2.193519479883785E-1   -4.648961640414167E-3    1.886943127421531E-2   -1.135282296029361E-2    1.904058195498184E-2   -1.073995915926495E-2    2.707608083521367E-1    4.776293288266745E-1
 6.517920380050000E9    -2.192438740764920E-1   -4.606833116610645E-3    1.887252224651820E-2   -1.151783608189807E-2    1.918301024728581E-2   -1.091838072300977E-2    2.717354216451556E-1    4.770335995554157E-1
 6.517931766500000E9    -2.189532598315402E-1   -4.549164441484331E-3    1.912081546635731E-2   -1.157727020697645E-2    1.941376697873271E-2   -1.097479761603578E-2    2.724668631552308E-1    4.766384365398690E-1
 6.517943152950000E9    -2.187816016172261E-1   -4.363764446798970E-3    1.908065830359325E-2   -1.182027462697504E-2    1.951006669750868E-2   -1.108071249961963E-2    2.732599542629955E-1    4.759877923002829E-1
 6.517954539400000E9    -2.186390121300146E-1   -4.331824743532319E-3    1.929315972033078E-2   -1.192185153775569E-2    1.946347772875344E-2   -1.135218643158919E-2    2.742548415392622E-1    4.755589911917967E-1
 6.517965925850000E9    -2.184172418110045E-1   -4.201287140109290E-3    1.931576398573193E-2   -1.210734718119423E-2    1.968134095522941E-2   -1.143585059031922E-2    2.750956886972059E-1    4.750985168178074E-1
 6.517977312300000E9    -2.181097709896003E-1   -4.248786322160761E-3    1.937399542178919E-2   -1.224310395509312E-2    1.991341470132078E-2   -1.154120125367840E-2    2.758882527878408E-1    4.745549352021448E-1
 6.517988698750000E9    -2.178944937167095E-1   -4.096613864318693E-3    1.963340504173000E-2   -1.228799047901053E-2    1.995424025337531E-2   -1.163173637291062E-2    2.767869878637722E-1    4.740586644010771E-1
 6.518000085200000E9    -2.177704414449281E-1   -3.997423512407550E-3    1.982623427724858E-2   -1.253280159268668E-2    2.006326289234940E-2   -1.176769646823598E-2    2.775274362480507E-1    4.734844156610768E-1
 6.518011471650000E9    -2.175593284988523E-1   -3.999326605527265E-3    1.987780926651250E-2   -1.267318577090568E-2    2.022852168582939E-2   -1.204014019141974E-2    2.785014200327703E-1    4.731699210082144E-1
 6.518022858100000E9    -2.172970968038855E-1   -3.931314715194013E-3    1.989599047754003E-2   -1.280851255854649E-2    2.028813559060742E-2   -1.207664944155991E-2    2.793676493510323E-1    4.724256719975485E-1
 6.518034244550000E9    -2.171537667671403E-1   -3.773674778595151E-3    2.009660995884583E-2   -1.292786625138976E-2    2.049401391697776E-2   -1.233607848158321E-2    2.802216991887997E-1    4.718403762985593E-1
 6.518045631000000E9    -2.167923846924352E-1   -3.774749708610369E-3    2.025748444586916E-2   -1.303201769618736E-2    2.056729451826752E-2   -1.238282915513754E-2    2.809652436423741E-1    4.713517929262236E-1
 6.518057017450000E9    -2.166894007074258E-1   -3.782419624368340E-3    2.032507498606370E-2   -1.328694282663512E-2    2.075252522655176E-2   -1.257204195295940E-2    2.818804015452430E-1    4.707944778551968E-1
 6.518068403900000E9    -2.164148144384681E-1   -3.666823328726418E-3    2.049226510595900E-2   -1.345806722504612E-2    2.088776852821352E-2   -1.272891853855253E-2    2.826556318775253E-1    4.701153207547822E-1
 6.518079790350000E9    -2.161607162210898E-1   -3.553485828147903E-3    2.061199549063374E-2   -1.361415347598881E-2    2.102302814621929E-2   -1.289528630366646E-2    2.835976253765210E-1    4.696910976132538E-1
 6.518091176800000E9    -2.159583385612328E-1   -3.502894944133537E-3    2.073475853349651E-2   -1.384704984292463E-2    2.119835451504425E-2   -1.314089093900596E-2    2.843855754346990E-1    4.692292298750597E-1
 6.518102563250000E9    -2.156907983119903E-1   -3.399470467531826E-3    2.078735104943065E-2   -1.391391153788052E-2    2.133563060023087E-2   -1.326097671322349E-2    2.851987548642769E-1    4.688457239327579E-1
 6.518113949700000E9    -2.153889452883007E-1   -3.476400391926635E-3    2.100232964804292E-2   -1.402500376888766E-2    2.160839340158149E-2   -1.345414864374312E-2    2.861689100753048E-1    4.679856393892682E-1
 6.518125336150000E9    -2.152023219906026E-1   -3.399690368232533E-3    2.104416562066108E-2   -1.430509744252355E-2    2.152052328083864E-2   -1.356395182270166E-2    2.870897573492759E-1    4.674795260142772E-1
 6.518136722600000E9    -2.149462938601581E-1   -3.411642174373814E-3    2.113933883962269E-2   -1.444331957366301E-2    2.170241172730962E-2   -1.378916233789125E-2    2.878494414212339E-1    4.668681846586331E-1
 6.518148109050000E9    -2.148305485713820E-1   -3.345570442644410E-3    2.137070832715278E-2   -1.465091930369904E-2    2.178687747876213E-2   -1.396698518059485E-2    2.888389175233532E-1    4.663384329596290E-1
 6.518159495500000E9    -2.143902113441359E-1   -3.400677081495355E-3    2.160220718783163E-2   -1.487498563375028E-2    2.200294245725144E-2   -1.406454429148347E-2    2.896589506002871E-1    4.656478345207967E-1
