#  HZ   S   RI   R     50.00 
! Rohde & Schwarz Vector Network Analyzer 
! Rohde-Schwarz,ZNB20-2Port,1311601062101988,3.16
! Created: UTC 12/23/2023, 3:56:10 AM
! freq[Hz]                re:S11                  im:S11                  re:S21                  im:S21                  re:S12                  im:S12                  re:S22                  im:S22
 6.516985969000000E9    -2.303643226956561E-1   -1.739582515180280E-2    1.319457934745590E-2   -5.341495540708887E-3    1.326591172919547E-2   -4.829274434054120E-3    2.020919469232852E-1    5.095819295592099E-1
 6.516997916075000E9    -2.301969511306615E-1   -1.721552732739118E-2    1.311162339298758E-2   -5.317939652260632E-3    1.320457142102288E-2   -4.814599939412128E-3    2.031518042041828E-1    5.092069449205021E-1
 6.517009863150000E9    -2.301256578175197E-1   -1.703493873203829E-2    1.314554145608963E-2   -5.438846349895310E-3    1.325986444913213E-2   -4.993805036282261E-3    2.038583859969439E-1    5.088111986629860E-1
 6.517021810225000E9    -2.298936424914671E-1   -1.694480824164148E-2    1.321790494016031E-2   -5.258839367074618E-3    1.337109578887893E-2   -4.935521457496627E-3    2.047803118673882E-1    5.087421035255169E-1
 6.517033757300000E9    -2.299234093409956E-1   -1.659701995676473E-2    1.333226483400472E-2   -5.490322212597298E-3    1.344713455137601E-2   -4.948164842690467E-3    2.056007532430442E-1    5.083762114599484E-1
 6.517045704375000E9    -2.297072583453492E-1   -1.650349009229829E-2    1.336893416827746E-2   -5.495153415461747E-3    1.350701307962905E-2   -5.069690921282188E-3    2.066220396976461E-1    5.078515539198583E-1
 6.517057651450000E9    -2.296789577809523E-1   -1.625117189159181E-2    1.345419779261440E-2   -5.587668808078813E-3    1.362562493540815E-2   -5.143266004161351E-3    2.074349016449230E-1    5.074978730509352E-1
 6.517069598525000E9    -2.294474352614917E-1   -1.610962913444633E-2    1.344433238062705E-2   -5.479305490262099E-3    1.367403325511249E-2   -5.128880989855129E-3    2.082614812837047E-1    5.072153360675212E-1
 6.517081545600000E9    -2.293274430533167E-1   -1.598021795582137E-2    1.354788974494846E-2   -5.684906656906817E-3    1.354117126391878E-2   -5.162833021312966E-3    2.090799743906107E-1    5.069401139743560E-1
 6.517093492675000E9    -2.292754205173821E-1   -1.577928027470877E-2    1.363320587981829E-2   -5.820133658047419E-3    1.380309176193660E-2   -5.255490188469963E-3    2.100934844368433E-1    5.065421793475436E-1
 6.517105439750000E9    -2.291287861787066E-1   -1.553089207918973E-2    1.361288338809837E-2   -5.693563439286653E-3    1.370763414117931E-2   -5.313384455938842E-3    2.110123041545006E-1    5.062259795409577E-1
 6.517117386825000E9    -2.290356615991039E-1   -1.541137338192168E-2    1.369685900394408E-2   -5.968636246965082E-3    1.383101022864423E-2   -5.388731114222649E-3    2.119334521586373E-1    5.059457904274574E-1
 6.517129333900000E9    -2.287975872910554E-1   -1.514152218933821E-2    1.369866677343615E-2   -5.926411373850084E-3    1.392993481399178E-2   -5.447972113225953E-3    2.127800255545775E-1    5.056815454989777E-1
 6.517141280975000E9    -2.287019359753001E-1   -1.510127729463717E-2    1.379817383858308E-2   -5.923958356546561E-3    1.393893884271704E-2   -5.494867614840546E-3    2.136472718584062E-1    5.050451406192376E-1
 6.517153228050000E9    -2.286150922529507E-1   -1.480052896938977E-2    1.386639420845599E-2   -5.960095161469149E-3    1.407434931773892E-2   -5.578829337254457E-3    2.145836578272469E-1    5.047498463583242E-1
 6.517165175125000E9    -2.285043351473987E-1   -1.462334461643854E-2    1.405984948221077E-2   -6.122416550695007E-3    1.402378171282215E-2   -5.653378276503695E-3    2.155567078977865E-1    5.044837656690349E-1
 6.517177122200000E9    -2.284294906750807E-1   -1.451040163373926E-2    1.387854456213501E-2   -6.099340252711425E-3    1.414624749222603E-2   -5.674056641166427E-3    2.162285185325626E-1    5.039029994051587E-1
 6.517189069275000E9    -2.282662365852138E-1   -1.426706631822790E-2    1.412691083881605E-2   -6.278325028904036E-3    1.414888540423165E-2   -5.754369686464441E-3    2.172188354083233E-1    5.036088076272869E-1
 6.517201016350000E9    -2.280530499038758E-1   -1.420814099051269E-2    1.413000319543236E-2   -6.297302895933987E-3    1.431315985943630E-2   -5.819990057974130E-3    2.180593961332261E-1    5.032343278335878E-1
 6.517212963425000E9    -2.279903249381232E-1   -1.396395595572189E-2    1.421895240734552E-2   -6.275513271743357E-3    1.432126255081867E-2   -5.802299660939792E-3    2.188940285589657E-1    5.027854080199062E-1
 6.517224910500000E9    -2.279614431833688E-1   -1.390529686973942E-2    1.430948034738851E-2   -6.366620623356837E-3    1.437763613053528E-2   -5.859200475469746E-3    2.197621399059578E-1    5.024389853533189E-1
 6.517236857575000E9    -2.277104540100912E-1   -1.362107769284620E-2    1.439746237649964E-2   -6.406808057080910E-3    1.450674501351365E-2   -5.885603222641721E-3    2.207475524971646E-1    5.021655160503509E-1
 6.517248804650000E9    -2.276565979795505E-1   -1.343712631205844E-2    1.443393957623784E-2   -6.469076796662026E-3    1.443147466579965E-2   -5.996559939878289E-3    2.215754239646625E-1    5.018021509784926E-1
 6.517260751725000E9    -2.273339613063093E-1   -1.330796317896055E-2    1.454145512315932E-2   -6.471944097944242E-3    1.452443420193342E-2   -6.122067742818729E-3    2.224856617740897E-1    5.014802539708157E-1
 6.517272698800000E9    -2.271516721704528E-1   -1.314868349437000E-2    1.457182347984915E-2   -6.656686993777233E-3    1.467825425426381E-2   -6.118961463818663E-3    2.234664422185969E-1    5.008646191648581E-1
 6.517284645875000E9    -2.271371140782198E-1   -1.302212741997170E-2    1.452441579833754E-2   -6.682383195155996E-3    1.472789806384236E-2   -6.261192609707239E-3    2.242622096889508E-1    5.005171467320649E-1
 6.517296592950000E9    -2.270974850894422E-1   -1.279073211038864E-2    1.458469735283929E-2   -6.824029118546549E-3    1.479985715600661E-2   -6.298017409786629E-3    2.250558636330077E-1    5.002260526059785E-1
 6.517308540025000E9    -2.269003472462558E-1   -1.244642286047113E-2    1.466236590013597E-2   -6.835965529071826E-3    1.488855949339069E-2   -6.338890066075570E-3    2.260375539723878E-1    4.997927213695169E-1
 6.517320487100000E9    -2.267365485795394E-1   -1.244145223177519E-2    1.467509304790877E-2   -6.866385025602102E-3    1.492639308368157E-2   -6.375314105482538E-3    2.269849087052224E-1    4.994060513610812E-1
 6.517332434175000E9    -2.267283484315467E-1   -1.230827765841440E-2    1.489791264582169E-2   -6.996318972173489E-3    1.510899007293551E-2   -6.444451922653149E-3    2.276958494693064E-1    4.991428016384117E-1
 6.517344381250000E9    -2.264577538813774E-1   -1.201936586155042E-2    1.490046306465813E-2   -7.002438705745628E-3    1.511379621528119E-2   -6.609556446582326E-3    2.287461530820086E-1    4.985888189269467E-1
 6.517356328325000E9    -2.264116322067638E-1   -1.180091167957606E-2    1.507191457913847E-2   -7.124702424900123E-3    1.517457424011041E-2   -6.642960742469730E-3    2.296498978004294E-1    4.982147990115759E-1
 6.517368275400000E9    -2.261674665624795E-1   -1.170473472987121E-2    1.506749550632137E-2   -7.113224583418606E-3    1.528784623946851E-2   -6.592616872045945E-3    2.305213653298145E-1    4.978531016637749E-1
 6.517380222475000E9    -2.260760224524263E-1   -1.149402633025643E-2    1.503908863829820E-2   -7.345049999797034E-3    1.526959197283700E-2   -6.692049262454185E-3    2.313779335310227E-1    4.974591445253377E-1
 6.517392169550000E9    -2.259032551918177E-1   -1.146920775301749E-2    1.515505545360204E-2   -7.445892496478122E-3    1.536463810640669E-2   -6.805897844571031E-3    2.322828912825848E-1    4.970370312105296E-1
 6.517404116625000E9    -2.257036640824364E-1   -1.138442719753108E-2    1.534461318419780E-2   -7.376501947353343E-3    1.548798169743127E-2   -6.977502473096118E-3    2.331612801255098E-1    4.967474105663957E-1
 6.517416063700000E9    -2.254952052622904E-1   -1.114557209078430E-2    1.543294992409633E-2   -7.502068686432248E-3    1.545173786173615E-2   -6.972522631955349E-3    2.339599415914935E-1    4.962874281599821E-1
 6.517428010775000E9    -2.254377394043204E-1   -1.093319214696130E-2    1.547057092167001E-2   -7.555835293912943E-3    1.558561776066952E-2   -7.014725125135905E-3    2.348523286198927E-1    4.957682888019221E-1
 6.517439957850000E9    -2.252091852840791E-1   -1.080596906545557E-2    1.553226571372879E-2   -7.688062571392820E-3    1.566706531691884E-2   -7.186664896722189E-3    2.357726933406484E-1    4.954021228848164E-1
 6.517451904925000E9    -2.250908661080228E-1   -1.068507552262164E-2    1.552335039503770E-2   -7.666478259330711E-3    1.560499732207646E-2   -7.238360648818472E-3    2.366729027486344E-1    4.951846635450822E-1
 6.517463852000000E9    -2.249315245246983E-1   -1.045488493424477E-2    1.566023635643385E-2   -7.777222928485875E-3    1.583251600122139E-2   -7.334206775948329E-3    2.375463597986850E-1    4.948193418425157E-1
 6.517475799075000E9    -2.248655896180822E-1   -1.041335827959136E-2    1.576987354571752E-2   -8.011333698395238E-3    1.587131394305938E-2   -7.421297027394695E-3    2.383994080694137E-1    4.942820700284776E-1
 6.517487746150000E9    -2.246724496641432E-1   -1.018423754321221E-2    1.574747446778261E-2   -7.980795683540418E-3    1.609632863625976E-2   -7.513660073604306E-3    2.391260189120972E-1    4.938825099641854E-1
 6.517499693225000E9    -2.245071418847501E-1   -1.010137619958341E-2    1.589445243089896E-2   -8.145715587974726E-3    1.615255662421611E-2   -7.406205115955781E-3    2.400780488391449E-1    4.932641410832753E-1
 6.517511640300000E9    -2.243545851661248E-1   -9.887235035409973E-3    1.590956296893629E-2   -8.198450394746223E-3    1.613870294740340E-2   -7.669000943576143E-3    2.410414425722062E-1    4.929130372494646E-1
 6.517523587375000E9    -2.240890288339237E-1   -9.816705997459303E-3    1.608230858289604E-2   -8.144935454592614E-3    1.628049297348558E-2   -7.729609812392053E-3    2.417342609685731E-1    4.924160718148181E-1
 6.517535534450000E9    -2.240062278093916E-1   -9.569031820692584E-3    1.614653171106836E-2   -8.390340901573170E-3    1.639109531832281E-2   -7.719631898450958E-3    2.428372725041570E-1    4.921457325513293E-1
 6.517547481525000E9    -2.238547519031536E-1   -9.565066683904468E-3    1.617709496611513E-2   -8.447802581472560E-3    1.642139464216048E-2   -7.823651077214342E-3    2.435594069526555E-1    4.916740552838783E-1
 6.517559428600000E9    -2.237258157768833E-1   -9.331843612929101E-3    1.616815146780187E-2   -8.517601582885859E-3    1.649417630418944E-2   -7.980889447887489E-3    2.444521706615509E-1    4.911933368262781E-1
 6.517571375675000E9    -2.235205516593393E-1   -9.160447222020926E-3    1.638619758058989E-2   -8.728991335909972E-3    1.649475531400064E-2   -8.142876662332318E-3    2.454110246078932E-1    4.907752915120310E-1
 6.517583322750000E9    -2.233441938972565E-1   -9.036279492009235E-3    1.633085910854777E-2   -8.675403389866464E-3    1.673137520401104E-2   -8.087802386929049E-3    2.463008961694740E-1    4.901780887835726E-1
 6.517595269825000E9    -2.231826463013550E-1   -8.838507933874452E-3    1.643680527697985E-2   -8.824372747991582E-3    1.679531011315943E-2   -8.258817057168445E-3    2.471606110821209E-1    4.898701163299952E-1
 6.517607216900000E9    -2.229638263422409E-1   -8.693310166854580E-3    1.662778007726818E-2   -8.872026560244507E-3    1.682109860891502E-2   -8.305664631371491E-3    2.480881355808687E-1    4.894901873666337E-1
 6.517619163975000E9    -2.228798533759212E-1   -8.614534622282640E-3    1.673857023669980E-2   -8.900575688021923E-3    1.696714561495380E-2   -8.390419137288380E-3    2.489704198351933E-1    4.890380459766167E-1
 6.517631111050000E9    -2.227976409553042E-1   -8.404895246091414E-3    1.676555362079199E-2   -9.014688173328570E-3    1.697324865067979E-2   -8.522437119705394E-3    2.498605227068030E-1    4.885108442729597E-1
 6.517643058125000E9    -2.224855876701805E-1   -8.347146435113384E-3    1.695015549438586E-2   -9.128297138469096E-3    1.707104163653524E-2   -8.603979545997269E-3    2.506664300134472E-1    4.881109388096078E-1
 6.517655005200000E9    -2.223367928110208E-1   -8.263601269662640E-3    1.709261165792631E-2   -9.315293522611243E-3    1.717027839524115E-2   -8.601497137540966E-3    2.514740037565888E-1    4.875768267946661E-1
 6.517666952275000E9    -2.222799890174781E-1   -8.063080696681818E-3    1.711977764657541E-2   -9.379031818094076E-3    1.731666757669305E-2   -8.881687436334672E-3    2.524930654887289E-1    4.871138386848294E-1
 6.517678899350000E9    -2.219087137213191E-1   -7.869359716626867E-3    1.717309255167246E-2   -9.332721162668138E-3    1.744662920804623E-2   -8.866670218346629E-3    2.534321156618844E-1    4.866874634736205E-1
 6.517690846425000E9    -2.218208271614700E-1   -7.734650410306442E-3    1.728554581039123E-2   -9.645604146252101E-3    1.748781092047915E-2   -9.014869541393166E-3    2.542772580945080E-1    4.862557596969467E-1
 6.517702793500000E9    -2.217108876337114E-1   -7.659380330593984E-3    1.712413387153453E-2   -9.674760172805438E-3    1.758418439524724E-2   -9.142528693997218E-3    2.550557565308290E-1    4.858423060709181E-1
 6.517714740575000E9    -2.213309105500068E-1   -7.539740470754399E-3    1.745209529776057E-2   -9.852998531082584E-3    1.769657909662430E-2   -9.170455513208903E-3    2.559883270447836E-1    4.854033077661426E-1
 6.517726687650000E9    -2.211785373137181E-1   -7.506979909646619E-3    1.757772524993445E-2   -1.004604644432711E-2    1.778219771509637E-2   -9.340293896361932E-3    2.569792758681335E-1    4.848078996596200E-1
 6.517738634725000E9    -2.209714148064557E-1   -7.318062415800042E-3    1.758908962601395E-2   -1.002767985701097E-2    1.785219577672097E-2   -9.348794320976135E-3    2.576812174382122E-1    4.843076499409486E-1
 6.517750581800000E9    -2.209575261741313E-1   -7.120026193499280E-3    1.766742928344453E-2   -1.017007525679973E-2    1.801634797545063E-2   -9.376667991243317E-3    2.586278266727741E-1    4.838659728114991E-1
 6.517762528875000E9    -2.207526516998856E-1   -7.059300005338385E-3    1.798045675310738E-2   -1.027530584019073E-2    1.811647986270655E-2   -9.718778685037370E-3    2.595062578438715E-1    4.834130558013801E-1
 6.517774475950000E9    -2.205310192050225E-1   -6.999860620177745E-3    1.795882298268383E-2   -1.050382274217873E-2    1.823227858379323E-2   -9.737264104307612E-3    2.604838621743419E-1    4.828568716079966E-1
 6.517786423025000E9    -2.202811285054393E-1   -6.779414820607489E-3    1.804746157862068E-2   -1.052608768489471E-2    1.827437073735077E-2   -9.845423298404644E-3    2.613138115263907E-1    4.825372461818384E-1
 6.517798370100000E9    -2.200661544965429E-1   -6.845187299541799E-3    1.817645457493120E-2   -1.061232743829978E-2    1.848260846479264E-2   -9.968546568146410E-3    2.623123441475506E-1    4.820976484736090E-1
 6.517810317175000E9    -2.199282870489662E-1   -6.495231141518397E-3    1.819841476846651E-2   -1.072899648687052E-2    1.855787480660497E-2   -1.017388997077530E-2    2.629653379920330E-1    4.814539287650531E-1
 6.517822264250000E9    -2.197635088778556E-1   -6.515259413686297E-3    1.838645490321349E-2   -1.084044868070451E-2    1.867527994531652E-2   -1.020424569631219E-2    2.638602766943381E-1    4.809868283584923E-1
 6.517834211325000E9    -2.194848508953851E-1   -6.419574231121017E-3    1.840636988064469E-2   -1.107501855439943E-2    1.873148406766854E-2   -1.036518501278877E-2    2.648355375926253E-1    4.804148826983420E-1
 6.517846158400000E9    -2.193043652614803E-1   -6.390169701322160E-3    1.849633482561548E-2   -1.105669823519599E-2    1.882372519290011E-2   -1.047751141559288E-2    2.657107723176381E-1    4.799811404436362E-1
 6.517858105475000E9    -2.190959320832101E-1   -6.232693431889632E-3    1.874524367597260E-2   -1.128908832069494E-2    1.906146133517763E-2   -1.066668378934058E-2    2.666217022085300E-1    4.794512355789289E-1
 6.517870052550000E9    -2.188766704116737E-1   -6.149083062563979E-3    1.858119753804599E-2   -1.137892905341187E-2    1.904454064335068E-2   -1.079724897570198E-2    2.675462593154543E-1    4.789419761491457E-1
 6.517881999625000E9    -2.186688345059917E-1   -6.026024948203149E-3    1.889351368300239E-2   -1.144600123626651E-2    1.916653941457147E-2   -1.095968301681254E-2    2.684845960621683E-1    4.784568361006839E-1
 6.517893946700000E9    -2.184910341530882E-1   -5.962252171130413E-3    1.909126103023715E-2   -1.169921324497347E-2    1.928411513850698E-2   -1.095812265713739E-2    2.693437766230701E-1    4.779039025372975E-1
 6.517905893775000E9    -2.182944829376345E-1   -5.829301950054745E-3    1.909744510089442E-2   -1.175339961169238E-2    1.951488978630358E-2   -1.111183840832509E-2    2.701613280312481E-1    4.773823701142005E-1
 6.517917840850000E9    -2.181623594125777E-1   -5.697398147520145E-3    1.908950321891069E-2   -1.188744184884222E-2    1.953102290635263E-2   -1.129352812676004E-2    2.711454994623470E-1    4.768117878734512E-1
 6.517929787925000E9    -2.177735361668159E-1   -5.701001078019100E-3    1.937242392169439E-2   -1.208265171883596E-2    1.967838381972673E-2   -1.140775191184472E-2    2.720016636318300E-1    4.762585293824823E-1
 6.517941735000000E9    -2.175676288830782E-1   -5.664351666205407E-3    1.951170596789203E-2   -1.224071910479521E-2    1.987367951190085E-2   -1.165122671820474E-2    2.728177761445513E-1    4.756829030702721E-1
 6.517953682075000E9    -2.173519873140060E-1   -5.475194367182786E-3    1.970202375606413E-2   -1.260040726346702E-2    1.993123249240869E-2   -1.179096131182247E-2    2.737277847437876E-1    4.752166938974569E-1
 6.517965629150000E9    -2.171847355676090E-1   -5.335334104585571E-3    1.968004474051934E-2   -1.250852557637983E-2    2.012706845428031E-2   -1.188679103957169E-2    2.744960287175350E-1    4.746843849645080E-1
 6.517977576225000E9    -2.168555563238863E-1   -5.408698455815201E-3    1.974305018424084E-2   -1.255575617566996E-2    2.024247826581037E-2   -1.213604290618537E-2    2.755292725525468E-1    4.741836560696271E-1
 6.517989523300000E9    -2.165837447222973E-1   -5.291005761913857E-3    2.002196728658843E-2   -1.283522235781176E-2    2.039497592243127E-2   -1.225108862300625E-2    2.764492404146933E-1    4.737098802675040E-1
 6.518001470375000E9    -2.164918392758742E-1   -5.229037700864794E-3    1.996601017874335E-2   -1.309407704128310E-2    2.042471318302368E-2   -1.226742837943530E-2    2.773574951857966E-1    4.731033330896349E-1
 6.518013417450000E9    -2.161117657132861E-1   -5.122589769886262E-3    2.013908688485147E-2   -1.308971198758400E-2    2.056179199969304E-2   -1.250726645821647E-2    2.781718079496290E-1    4.724129675431039E-1
 6.518025364525000E9    -2.158970035364033E-1   -5.146990233645382E-3    2.033939766242264E-2   -1.338597923249755E-2    2.056895650987614E-2   -1.268310695461649E-2    2.791259907887965E-1    4.719515050878274E-1
 6.518037311600000E9    -2.156688239173302E-1   -5.014545542899007E-3    2.046276420282631E-2   -1.356801670268486E-2    2.092939031121828E-2   -1.292662254644909E-2    2.801443482729143E-1    4.712631991366135E-1
 6.518049258675000E9    -2.154288680706160E-1   -4.929229638070071E-3    2.066074361277306E-2   -1.376118197738114E-2    2.100803828646108E-2   -1.299812597447551E-2    2.808664056321323E-1    4.708735049055122E-1
 6.518061205750000E9    -2.152531697696938E-1   -5.030669438206349E-3    2.083813103947938E-2   -1.385971662682598E-2    2.124049084747800E-2   -1.326909234400424E-2    2.817129784749022E-1    4.702203135827468E-1
