#  HZ   S   RI   R     50.00 
! Rohde & Schwarz Vector Network Analyzer 
! Rohde-Schwarz,ZNB20-2Port,1311601062101988,3.16
! Created: UTC 12/23/2023, 3:58:59 AM
! freq[Hz]                re:S11                  im:S11                  re:S21                  im:S21                  re:S12                  im:S12                  re:S22                  im:S22
 6.517064699000000E9    -2.297412374139129E-1   -1.572640052301148E-2    1.333206166615362E-2   -5.438145621700864E-3    1.334421557241497E-2   -4.984757022404200E-3    2.077077711822766E-1    5.075718911230263E-1
 6.517076419125000E9    -2.296621669739917E-1   -1.565129223077004E-2    1.339937795462245E-2   -5.396344772272468E-3    1.356556623604428E-2   -5.078851349581322E-3    2.085327805073832E-1    5.069935546174590E-1
 6.517088139250000E9    -2.295533397835259E-1   -1.536559834135941E-2    1.336892859179033E-2   -5.551107398670833E-3    1.372204982359805E-2   -5.042895818285387E-3    2.095136628695326E-1    5.069580214782682E-1
 6.517099859375000E9    -2.294305974315626E-1   -1.515292131207055E-2    1.347342057728469E-2   -5.778606576645384E-3    1.352790947761928E-2   -5.277982681183154E-3    2.101598487009243E-1    5.064812600453440E-1
 6.517111579500000E9    -2.293152029381922E-1   -1.506361203246548E-2    1.342929160392488E-2   -5.683504102292313E-3    1.357543082567517E-2   -5.246465433174615E-3    2.111915948706030E-1    5.061740224028290E-1
 6.517123299625000E9    -2.291925981050798E-1   -1.493660130497598E-2    1.350790355163834E-2   -5.807436695737757E-3    1.360782974464804E-2   -5.267236030318560E-3    2.119486530946482E-1    5.057318286839821E-1
 6.517135019750000E9    -2.290332211532077E-1   -1.471353678385196E-2    1.350323031222644E-2   -5.760160184486425E-3    1.375749876167243E-2   -5.362625213998338E-3    2.128357063835966E-1    5.054156520501571E-1
 6.517146739875000E9    -2.290131024825245E-1   -1.444746871656199E-2    1.380426637561995E-2   -5.876792874419262E-3    1.384937199662715E-2   -5.383456317071931E-3    2.137119433121557E-1    5.052333677105958E-1
 6.517158460000000E9    -2.288230470415978E-1   -1.425551208890313E-2    1.373897042060063E-2   -5.922960096407754E-3    1.385430690266209E-2   -5.403057910695074E-3    2.146693278439635E-1    5.047482293881209E-1
 6.517170180125000E9    -2.287242610852649E-1   -1.416785288032996E-2    1.374830243017106E-2   -6.055879217922556E-3    1.392378518532909E-2   -5.490441700904625E-3    2.155364814988736E-1    5.043199137217339E-1
 6.517181900250000E9    -2.285997485000079E-1   -1.386815129472407E-2    1.375226642799770E-2   -6.105346817342479E-3    1.396480792708783E-2   -5.609353378412101E-3    2.163739257797680E-1    5.041140500820807E-1
 6.517193620375000E9    -2.284370657000910E-1   -1.386666578854859E-2    1.373911795595015E-2   -6.037602955809619E-3    1.411020750909790E-2   -5.630149413250311E-3    2.173140619073362E-1    5.037556485665998E-1
 6.517205340500000E9    -2.283111290922616E-1   -1.359488146642993E-2    1.404613934624820E-2   -6.288199632590194E-3    1.416000713953003E-2   -5.675749571152027E-3    2.180253822099840E-1    5.032424520465649E-1
 6.517217060625000E9    -2.281570876947200E-1   -1.344324931783614E-2    1.396758318270549E-2   -6.267751532421752E-3    1.417711994237271E-2   -5.760355923712074E-3    2.189298275758704E-1    5.029118522678092E-1
 6.517228780750000E9    -2.281699957380173E-1   -1.323244657496541E-2    1.408849445330269E-2   -6.381576953803413E-3    1.417486604454520E-2   -5.758089456056687E-3    2.198246151252835E-1    5.025575253071507E-1
 6.517240500875000E9    -2.278897206616124E-1   -1.310694000264839E-2    1.407572587569830E-2   -6.233053610785922E-3    1.429462221295738E-2   -5.846801474837475E-3    2.207111479255457E-1    5.022499441251033E-1
 6.517252221000000E9    -2.278807653354887E-1   -1.290043167938044E-2    1.415348634276731E-2   -6.517256984184954E-3    1.431467762656732E-2   -5.919697083092959E-3    2.216029801451530E-1    5.017894137418432E-1
 6.517263941125000E9    -2.276675018140885E-1   -1.277743728521564E-2    1.426015915031436E-2   -6.495013954869258E-3    1.446120382949071E-2   -6.086700606619917E-3    2.222936779187331E-1    5.016284276463533E-1
 6.517275661250000E9    -2.275787442826304E-1   -1.252747769283227E-2    1.443124927746578E-2   -6.458313389535076E-3    1.451619735382638E-2   -6.094193626454669E-3    2.233040087282541E-1    5.010325328346499E-1
 6.517287381375000E9    -2.275220713744691E-1   -1.243809943908364E-2    1.448914355458991E-2   -6.691679302963483E-3    1.448300950264033E-2   -6.128976689612709E-3    2.240119960618215E-1    5.007319848853858E-1
 6.517299101500000E9    -2.274240770454579E-1   -1.222383557421735E-2    1.441632517574709E-2   -6.589690908604497E-3    1.463180494400989E-2   -6.090187157530187E-3    2.250921878824693E-1    5.004994637586753E-1
 6.517310821625000E9    -2.271739798929600E-1   -1.208269130160811E-2    1.442040823368840E-2   -6.768598055835196E-3    1.466958377267549E-2   -6.228308834789427E-3    2.257935914002723E-1    4.999350947580832E-1
 6.517322541750000E9    -2.270420826950031E-1   -1.195412391801729E-2    1.458201510084007E-2   -6.863018898446713E-3    1.472885496435259E-2   -6.301623281717173E-3    2.267646136698125E-1    4.996137548692421E-1
 6.517334261875000E9    -2.268994347300147E-1   -1.173981107315958E-2    1.449406910462166E-2   -6.833092922977878E-3    1.487492795828057E-2   -6.439359714174271E-3    2.275777642938174E-1    4.992164409696304E-1
 6.517345982000000E9    -2.267222626900457E-1   -1.146322954285799E-2    1.450360383858261E-2   -6.819836738869419E-3    1.483253153836209E-2   -6.393645023788804E-3    2.284106673747460E-1    4.989312818325178E-1
 6.517357702125000E9    -2.266417466145254E-1   -1.150456101360549E-2    1.469032040840718E-2   -6.935525246543412E-3    1.503605366000225E-2   -6.431609912481391E-3    2.293417188084051E-1    4.986246373180196E-1
 6.517369422250000E9    -2.265192961604369E-1   -1.122862101937615E-2    1.471983705043319E-2   -7.039419590109636E-3    1.502789990261458E-2   -6.518880035007961E-3    2.302200185081834E-1    4.981223810338376E-1
 6.517381142375000E9    -2.263073337959172E-1   -1.112445500279516E-2    1.495841408345809E-2   -7.167308688237857E-3    1.502956859492633E-2   -6.628271757229547E-3    2.310036735146058E-1    4.977073163056777E-1
 6.517392862500000E9    -2.262766651003406E-1   -1.093101207434311E-2    1.503644033052371E-2   -7.274684781497653E-3    1.512361618086378E-2   -6.641124640883835E-3    2.318580095820909E-1    4.972873027695511E-1
 6.517404582625000E9    -2.260407938342359E-1   -1.081243812771829E-2    1.497853532962297E-2   -7.246139687101181E-3    1.526398985089029E-2   -6.781318568171507E-3    2.327151911535077E-1    4.969975174039567E-1
 6.517416302750000E9    -2.259298915504120E-1   -1.044276480616335E-2    1.504661492662424E-2   -7.320780155923477E-3    1.530923899367125E-2   -6.786496825932996E-3    2.335922385942954E-1    4.965654271437538E-1
 6.517428022875000E9    -2.257479869194062E-1   -1.039201405509573E-2    1.531314190456050E-2   -7.337750834794272E-3    1.537314811449289E-2   -6.943311500034909E-3    2.344543227335252E-1    4.960244269302980E-1
 6.517439743000000E9    -2.256256661639861E-1   -1.023343411141672E-2    1.530428383815203E-2   -7.442211067629861E-3    1.551907244351078E-2   -6.953124072626441E-3    2.352769346161915E-1    4.958162950033232E-1
 6.517451463125000E9    -2.254061018291181E-1   -1.011486260132085E-2    1.541836466659785E-2   -7.543106352701728E-3    1.548769528548284E-2   -7.016159367204262E-3    2.362057023853875E-1    4.953698684590021E-1
 6.517463183250000E9    -2.253719832920409E-1   -9.962100954220043E-3    1.539611831054573E-2   -7.570545876837607E-3    1.558355193239841E-2   -7.105420218283819E-3    2.369467058545539E-1    4.948147096928907E-1
 6.517474903375000E9    -2.251682810911321E-1   -9.851555085762347E-3    1.551964845135544E-2   -7.601038548106156E-3    1.578405695541018E-2   -7.095347682813978E-3    2.379215036420387E-1    4.945889860156006E-1
 6.517486623500000E9    -2.250230157298696E-1   -9.604307388894982E-3    1.558082834549228E-2   -7.842318634507241E-3    1.581852811358850E-2   -7.277321393202795E-3    2.389529266268450E-1    4.940448009485157E-1
 6.517498343625000E9    -2.249566328079710E-1   -9.479393730846134E-3    1.557752336536849E-2   -7.851243433744678E-3    1.578770487958849E-2   -7.319720485984301E-3    2.396534584406498E-1    4.935859088904784E-1
 6.517510063750000E9    -2.247149924883476E-1   -9.341564226318575E-3    1.571044756358980E-2   -7.850072775713417E-3    1.598957548776273E-2   -7.419642869552422E-3    2.404768923762678E-1    4.932066697985596E-1
 6.517521783875000E9    -2.245737986347190E-1   -9.167878081273938E-3    1.583401358296819E-2   -8.065441210696418E-3    1.596660410460491E-2   -7.449528564445741E-3    2.413932502170505E-1    4.928328517543731E-1
 6.517533504000000E9    -2.244153881989052E-1   -9.085535818218979E-3    1.589269439570479E-2   -8.111316093415206E-3    1.602899853010403E-2   -7.620021556770534E-3    2.421051897475975E-1    4.924930113792992E-1
 6.517545224125000E9    -2.242534088709638E-1   -9.044090266401641E-3    1.584006902489904E-2   -8.182640272927002E-3    1.621975757268525E-2   -7.733961311522890E-3    2.432118945015999E-1    4.918611779097535E-1
 6.517556944250000E9    -2.240911127899547E-1   -8.724059911818250E-3    1.599006881808828E-2   -8.259392763814315E-3    1.613735611763081E-2   -7.711722332294437E-3    2.439107784517277E-1    4.915919009419610E-1
 6.517568664375000E9    -2.239608222665485E-1   -8.658888030882991E-3    1.618957610936058E-2   -8.361932443080991E-3    1.627373401286597E-2   -7.761473332521950E-3    2.448450032380987E-1    4.911181727591755E-1
 6.517580384500000E9    -2.238084461153128E-1   -8.518374609472234E-3    1.608427552895618E-2   -8.419187973612312E-3    1.638585907134480E-2   -7.944251670525133E-3    2.458561989074192E-1    4.907200394597585E-1
 6.517592104625000E9    -2.236164890471573E-1   -8.378764970602184E-3    1.621254933310386E-2   -8.459227354862287E-3    1.643108517714611E-2   -7.883612169500752E-3    2.464999589657775E-1    4.901600573519300E-1
 6.517603824750000E9    -2.234268094457222E-1   -8.183096690329966E-3    1.630628228530628E-2   -8.587382206460527E-3    1.654698335436248E-2   -8.027980997078972E-3    2.474491663404548E-1    4.898177355736765E-1
 6.517615544875000E9    -2.233450304387207E-1   -8.049067366765398E-3    1.635467830046294E-2   -8.754699820986939E-3    1.675723873981646E-2   -8.179752267367502E-3    2.483957500982716E-1    4.894398551336108E-1
 6.517627265000000E9    -2.230796752401016E-1   -7.947620569619521E-3    1.644393086768167E-2   -8.938210463304648E-3    1.667059563065939E-2   -8.318063618352798E-3    2.491965367617302E-1    4.890360611342106E-1
 6.517638985125000E9    -2.229540701200251E-1   -7.727169237452828E-3    1.654407214805726E-2   -8.788782034395252E-3    1.685289343878292E-2   -8.398006347007709E-3    2.500068706268331E-1    4.885751683999527E-1
 6.517650705250000E9    -2.228085204814628E-1   -7.553322181516569E-3    1.663579988368576E-2   -8.983714364893139E-3    1.686832017504141E-2   -8.327094366953688E-3    2.509638719295445E-1    4.880746652220577E-1
 6.517662425375000E9    -2.225134901245962E-1   -7.554261381715329E-3    1.680334042584181E-2   -9.068410820094804E-3    1.703575608163872E-2   -8.588016070114522E-3    2.519002405863195E-1    4.877170269285793E-1
 6.517674145500000E9    -2.224357830905685E-1   -7.430494565752587E-3    1.672843553613935E-2   -9.176243154267601E-3    1.714140760114083E-2   -8.645432615536283E-3    2.525877570568492E-1    4.872216192281510E-1
 6.517685865625000E9    -2.222497552765466E-1   -7.264151189358164E-3    1.686569888430354E-2   -9.214823393347173E-3    1.716369152112562E-2   -8.646985936705291E-3    2.534325130715369E-1    4.866444958555458E-1
 6.517697585750000E9    -2.221385650568559E-1   -7.213866017184623E-3    1.699673444340142E-2   -9.310101142607337E-3    1.724789467211399E-2   -8.789310118564351E-3    2.542427154758902E-1    4.863586777970147E-1
 6.517709305875000E9    -2.218537878284294E-1   -7.004430235556879E-3    1.712973991180851E-2   -9.518066217318098E-3    1.736617368948733E-2   -8.954014731202378E-3    2.552202717144473E-1    4.858768838398771E-1
 6.517721026000000E9    -2.218299558774437E-1   -6.915925255565796E-3    1.724521346496278E-2   -9.603236846200881E-3    1.747290972814401E-2   -9.008293239819094E-3    2.560143401911571E-1    4.855124223890415E-1
 6.517732746125000E9    -2.215682866611293E-1   -6.792726456141401E-3    1.745807775728813E-2   -9.776970358072101E-3    1.756382122390570E-2   -9.176781239563123E-3    2.568302163493649E-1    4.848832287371022E-1
 6.517744466250000E9    -2.213817682008989E-1   -6.695444964390209E-3    1.739217088583499E-2   -9.787810090986150E-3    1.760507506716696E-2   -9.196171704788630E-3    2.578110214564174E-1    4.845919431879835E-1
 6.517756186375000E9    -2.212997750241564E-1   -6.476247915543770E-3    1.755832104386740E-2   -9.871942174318502E-3    1.776022413630932E-2   -9.302136227870666E-3    2.587904799480514E-1    4.839968310714189E-1
 6.517767906500000E9    -2.210599250021406E-1   -6.420384523833473E-3    1.758644775986305E-2   -9.953945200552544E-3    1.779899381990053E-2   -9.478955745465367E-3    2.596876291260116E-1    4.835142010949385E-1
 6.517779626625000E9    -2.208138351240092E-1   -6.290610632853727E-3    1.768721914906670E-2   -1.002494140860602E-2    1.799500548722104E-2   -9.543597775737779E-3    2.603656849699305E-1    4.830278523019420E-1
 6.517791346750000E9    -2.206302816109087E-1   -6.192460967743230E-3    1.776723717282213E-2   -1.023543646044384E-2    1.812749547533491E-2   -9.730071002244801E-3    2.614411182051892E-1    4.825143334226727E-1
 6.517803066875000E9    -2.203834606276672E-1   -6.043605762797966E-3    1.784378653781916E-2   -1.037074892862741E-2    1.813078069903855E-2   -9.863055050209958E-3    2.622029440732158E-1    4.820454944441082E-1
 6.517814787000000E9    -2.202842531239131E-1   -5.918283014574219E-3    1.795555243084673E-2   -1.044519474570211E-2    1.828566574900517E-2   -9.919891755512228E-3    2.631489277248009E-1    4.815558562301427E-1
 6.517826507125000E9    -2.201424710235906E-1   -5.896125620580910E-3    1.797174646354707E-2   -1.045765371097128E-2    1.847554877903710E-2   -9.988588136783058E-3    2.638342410048327E-1    4.810306641105870E-1
 6.517838227250000E9    -2.199626021286364E-1   -5.744872360859441E-3    1.835850208437127E-2   -1.055232134547198E-2    1.847293659987390E-2   -1.001739321512074E-2    2.647780738484868E-1    4.805566057153575E-1
 6.517849947375000E9    -2.197905325772063E-1   -5.600528942276257E-3    1.814007692445366E-2   -1.079778228786268E-2    1.860684321502284E-2   -1.013525473955864E-2    2.656175713213084E-1    4.801320108069309E-1
 6.517861667500000E9    -2.194278367788851E-1   -5.589908938413264E-3    1.839866274646026E-2   -1.094932479221483E-2    1.872019736606205E-2   -1.033038865709680E-2    2.665106547673827E-1    4.795581895098714E-1
 6.517873387625000E9    -2.192653002583861E-1   -5.440271689924707E-3    1.845953870054451E-2   -1.107461739560016E-2    1.892007821160897E-2   -1.038648656143665E-2    2.674552112212921E-1    4.791249323090541E-1
 6.517885107750000E9    -2.190769871451415E-1   -5.412046495624330E-3    1.873482106266126E-2   -1.124379670453061E-2    1.887704267646587E-2   -1.052095420073963E-2    2.682631818975945E-1    4.787208900599761E-1
 6.517896827875000E9    -2.188659620274530E-1   -5.225698512400694E-3    1.862166308366621E-2   -1.135837781197527E-2    1.892962204852045E-2   -1.076276186353525E-2    2.690870316425197E-1    4.781503532055788E-1
 6.517908548000000E9    -2.187117692956370E-1   -5.163606673378352E-3    1.871621584811291E-2   -1.152242981772455E-2    1.917721273500077E-2   -1.077353894494479E-2    2.700067286410557E-1    4.776989456929761E-1
 6.517920268125000E9    -2.184530848687189E-1   -5.074499793694473E-3    1.891718147350924E-2   -1.154837796214849E-2    1.932624417920524E-2   -1.095581401778377E-2    2.708534282230077E-1    4.771448253836237E-1
 6.517931988250000E9    -2.182813150760708E-1   -5.006094637982790E-3    1.905431368996510E-2   -1.172451306934365E-2    1.934812602346658E-2   -1.114253056752409E-2    2.716635229799386E-1    4.765541861867746E-1
 6.517943708375000E9    -2.180717993423683E-1   -4.846686390618871E-3    1.911893056066949E-2   -1.194434121395580E-2    1.958694651405027E-2   -1.128976628502442E-2    2.725795004498497E-1    4.761114749516260E-1
 6.517955428500000E9    -2.178862363049675E-1   -4.789282704640971E-3    1.925767256330020E-2   -1.208531043676783E-2    1.953429730090399E-2   -1.141459251780806E-2    2.733408807624940E-1    4.755300770166729E-1
 6.517967148625000E9    -2.177141374728636E-1   -4.814245166011120E-3    1.940180356623591E-2   -1.208409348162380E-2    1.986773792589233E-2   -1.154616433456702E-2    2.742993935851846E-1    4.751039217687976E-1
 6.517978868750000E9    -2.172850470457064E-1   -4.471390815261731E-3    1.937392137525437E-2   -1.226100156548491E-2    1.989905333627686E-2   -1.167626461322043E-2    2.751757274065967E-1    4.745156412855410E-1
 6.517990588875000E9    -2.172174988231275E-1   -4.592229300425597E-3    1.956075156649470E-2   -1.244903806733732E-2    2.001886587603499E-2   -1.170974671296557E-2    2.760414474498190E-1    4.740681503095498E-1
 6.518002309000000E9    -2.169281354561831E-1   -4.452820144423419E-3    1.964183224189821E-2   -1.274522360065592E-2    2.015965870425467E-2   -1.195527651585219E-2    2.768853846597459E-1    4.735120717792869E-1
 6.518014029125000E9    -2.167489496968474E-1   -4.356261813228978E-3    1.988469695061430E-2   -1.262283939111052E-2    2.019002651426339E-2   -1.197820516158011E-2    2.778310673819502E-1    4.728575824839026E-1
 6.518025749250000E9    -2.164606806324412E-1   -4.384569869703636E-3    1.993850522220097E-2   -1.293329908605446E-2    2.037619463200270E-2   -1.234713699328229E-2    2.787605599418910E-1    4.724986712236602E-1
 6.518037469375000E9    -2.163224441028003E-1   -4.318105629924038E-3    2.007454914110072E-2   -1.304531954804221E-2    2.045737873512639E-2   -1.238747339547488E-2    2.795349937915839E-1    4.718434625669364E-1
 6.518049189500000E9    -2.160796578886863E-1   -4.320956076923177E-3    2.035590478495857E-2   -1.318774080644844E-2    2.069708708143221E-2   -1.256558539167692E-2    2.803463023916692E-1    4.712745750432316E-1
 6.518060909625000E9    -2.158370575842967E-1   -4.089121236387065E-3    2.039153336287340E-2   -1.346464237566975E-2    2.083106415382007E-2   -1.283072579872896E-2    2.812557465022511E-1    4.707452113677802E-1
 6.518072629750000E9    -2.156135492352721E-1   -4.065537645298406E-3    2.049559261407896E-2   -1.354506440541626E-2    2.085231635798321E-2   -1.290381764338426E-2    2.823081644962611E-1    4.702594709396337E-1
 6.518084349875000E9    -2.153825472477565E-1   -4.052091253662771E-3    2.076317765927288E-2   -1.367733258253136E-2    2.109454012631940E-2   -1.310113256211954E-2    2.830694716689297E-1    4.695003514036719E-1
 6.518096070000000E9    -2.149037860647602E-1   -3.976877141233679E-3    2.065109100839663E-2   -1.395648705302270E-2    2.112633024383476E-2   -1.323741762494198E-2    2.839024523744238E-1    4.690588659727425E-1
 6.518107790125000E9    -2.149432479744786E-1   -4.027548509772032E-3    2.096009704588486E-2   -1.422816231494543E-2    2.135573937115595E-2   -1.341065911589344E-2    2.847841450779380E-1    4.685357875348725E-1
 6.518119510250000E9    -2.146391644818004E-1   -4.005761726728592E-3    2.110590614550465E-2   -1.434474731219695E-2    2.154431509212132E-2   -1.361373643096223E-2    2.857756849085186E-1    4.680529222073399E-1
