#  HZ   S   RI   R     50.00 
! Rohde & Schwarz Vector Network Analyzer 
! Rohde-Schwarz,ZNB20-2Port,1311601062101988,3.16
! Created: UTC 12/23/2023, 4:01:34 AM
! freq[Hz]                re:S11                  im:S11                  re:S21                  im:S21                  re:S12                  im:S12                  re:S22                  im:S22
 6.517157311000000E9    -2.290319589728626E-1   -1.384950606143216E-2    1.351736702331433E-2   -5.788844970970837E-3    1.362136507189808E-2   -5.422111319813396E-3    2.144091739659360E-1    5.050049142437342E-1
 6.517168725000000E9    -2.289927514962327E-1   -1.364035664232237E-2    1.378065080410830E-2   -5.790069233593321E-3    1.371914698833882E-2   -5.317709402141551E-3    2.151002038687266E-1    5.045890898069227E-1
 6.517180139000000E9    -2.289666377827591E-1   -1.353296227960586E-2    1.377849024637680E-2   -5.943427905474016E-3    1.380289961164209E-2   -5.391150490527222E-3    2.161501609079720E-1    5.042842944313424E-1
 6.517191553000000E9    -2.286480365911913E-1   -1.325460067270817E-2    1.380914119449798E-2   -5.862489301287049E-3    1.386384180359663E-2   -5.414571903766465E-3    2.169161056655389E-1    5.039921477199188E-1
 6.517202967000000E9    -2.286807174411283E-1   -1.317784244022629E-2    1.372914056295779E-2   -5.971576559312905E-3    1.386499527238619E-2   -5.515834347454123E-3    2.178014134117482E-1    5.035261765183431E-1
 6.517214381000000E9    -2.286420018856413E-1   -1.290560694591706E-2    1.377305989479226E-2   -6.112063589496034E-3    1.399085597469376E-2   -5.502972995725198E-3    2.186160728620863E-1    5.031268061226489E-1
 6.517225795000000E9    -2.283229681880415E-1   -1.289711509464924E-2    1.385874332511205E-2   -6.049676665948431E-3    1.415655601311010E-2   -5.647698665571995E-3    2.193536224128255E-1    5.028695920900100E-1
 6.517237209000000E9    -2.283636049624796E-1   -1.271046779752460E-2    1.390226217558554E-2   -6.241239543962746E-3    1.414386159462998E-2   -5.657722249907605E-3    2.203094112585822E-1    5.024253314409772E-1
 6.517248623000000E9    -2.280644050206974E-1   -1.248635914277374E-2    1.400651790103252E-2   -6.216743106224182E-3    1.419154627981722E-2   -5.737757081489766E-3    2.209951623849592E-1    5.021463684008149E-1
 6.517260037000000E9    -2.279382412652297E-1   -1.226542736709464E-2    1.402192155642224E-2   -6.208621946652506E-3    1.418218294854267E-2   -5.772844244625449E-3    2.218938954032588E-1    5.016920043551210E-1
 6.517271451000000E9    -2.279874012180237E-1   -1.206768824734304E-2    1.422852083440082E-2   -6.321393132477689E-3    1.423225459522577E-2   -5.904080057058408E-3    2.227835154607463E-1    5.014744432279686E-1
 6.517282865000000E9    -2.278259336274229E-1   -1.199718448342684E-2    1.427207666559418E-2   -6.275902876063819E-3    1.431850901767352E-2   -5.816452908865314E-3    2.236406960619765E-1    5.011327554166788E-1
 6.517294279000000E9    -2.275940755967064E-1   -1.175901934417158E-2    1.425124946199166E-2   -6.465016721071933E-3    1.445072065028119E-2   -5.996581015329577E-3    2.245021483937373E-1    5.007330130870783E-1
 6.517305693000000E9    -2.275396859515671E-1   -1.166350004089112E-2    1.432973445050060E-2   -6.487066294979612E-3    1.441713171293046E-2   -6.068534164642304E-3    2.253369703541938E-1    5.001774661684744E-1
 6.517317107000000E9    -2.273966921738595E-1   -1.152047716763882E-2    1.440274976436307E-2   -6.623099743623181E-3    1.456460083245074E-2   -6.126279183241154E-3    2.260951633424571E-1    5.000003505800235E-1
 6.517328521000000E9    -2.272240802392701E-1   -1.133603797061633E-2    1.440133985648010E-2   -6.701871414040820E-3    1.456168826950060E-2   -6.145656673289976E-3    2.269737344016003E-1    4.997243816508016E-1
 6.517339935000000E9    -2.271260550049881E-1   -1.108685107586717E-2    1.443846450945856E-2   -6.770388099710959E-3    1.466434454316001E-2   -6.168120718047376E-3    2.278299623591764E-1    4.993771432648070E-1
 6.517351349000000E9    -2.269890726918727E-1   -1.102085971839103E-2    1.450740121436645E-2   -6.763539268520713E-3    1.467084613567832E-2   -6.302420324003393E-3    2.286286984380692E-1    4.989409948161322E-1
 6.517362763000000E9    -2.269214660232259E-1   -1.082202269158840E-2    1.459791869021487E-2   -6.876671497340385E-3    1.480859761200127E-2   -6.399862792910743E-3    2.294470779277862E-1    4.984905751698502E-1
 6.517374177000000E9    -2.267706843564110E-1   -1.059023078348724E-2    1.466338808203616E-2   -6.961836763173623E-3    1.481759482785828E-2   -6.355274265463262E-3    2.304348450302900E-1    4.980750553504944E-1
 6.517385591000000E9    -2.266852182918713E-1   -1.053525541992772E-2    1.474379320203142E-2   -6.862520903345964E-3    1.489713108198344E-2   -6.534597939680458E-3    2.312279976367414E-1    4.975799655895730E-1
 6.517397005000000E9    -2.264799730211519E-1   -1.039718990416560E-2    1.480244484123823E-2   -7.090190905054616E-3    1.495564794940176E-2   -6.417035979338472E-3    2.320991996652006E-1    4.974658870943880E-1
 6.517408419000000E9    -2.262999921658605E-1   -1.016819493927835E-2    1.490398979619160E-2   -7.141410530945748E-3    1.511646467467214E-2   -6.593579281200026E-3    2.328559744081218E-1    4.970170967602799E-1
 6.517419833000000E9    -2.261305788440265E-1   -9.958198726170812E-3    1.489956872678490E-2   -7.147212631941947E-3    1.507113998146255E-2   -6.685885254064701E-3    2.337212962435367E-1    4.966048966439009E-1
 6.517431247000000E9    -2.260469559118231E-1   -9.889065965266400E-3    1.504912610633568E-2   -7.241199967356785E-3    1.530266011494595E-2   -6.799517946213839E-3    2.344377000637862E-1    4.963273869180234E-1
 6.517442661000000E9    -2.259957363358104E-1   -9.706415306031066E-3    1.506457870927096E-2   -7.342828361782537E-3    1.531290055498435E-2   -6.776219854959237E-3    2.353351153452769E-1    4.957583718208554E-1
 6.517454075000000E9    -2.257691156876175E-1   -9.553995223181662E-3    1.516962107113480E-2   -7.334809936470212E-3    1.524112874791573E-2   -6.903956419193892E-3    2.363567673312006E-1    4.953723499766797E-1
 6.517465489000000E9    -2.255827529045294E-1   -9.400192569707460E-3    1.525425238341175E-2   -7.498553770325008E-3    1.543569224647680E-2   -6.860800265779061E-3    2.370951558092969E-1    4.949811745094450E-1
 6.517476903000000E9    -2.254635442721095E-1   -9.276172101317320E-3    1.526501910663581E-2   -7.427627413322812E-3    1.554365494720023E-2   -6.916290172978440E-3    2.378993349203503E-1    4.946988333546785E-1
 6.517488317000000E9    -2.252883622014241E-1   -8.952097719890946E-3    1.530145263234410E-2   -7.581266930930769E-3    1.553188396055220E-2   -7.078091184027706E-3    2.386099424718860E-1    4.942135447450703E-1
 6.517499731000000E9    -2.252302897068824E-1   -8.864683978768835E-3    1.544938755153590E-2   -7.650397963121628E-3    1.554955063372477E-2   -7.209022387925398E-3    2.396118445979747E-1    4.937401073842089E-1
 6.517511145000000E9    -2.249382960088444E-1   -8.735862384790459E-3    1.548328586128882E-2   -7.688878979332109E-3    1.557798253952842E-2   -7.199666662086621E-3    2.403248806577436E-1    4.934163322335792E-1
 6.517522559000000E9    -2.249020321795706E-1   -8.646523533492738E-3    1.568086330045675E-2   -7.894301510557420E-3    1.576852287329449E-2   -7.310359385921988E-3    2.412540823636327E-1    4.929631610752495E-1
 6.517533973000000E9    -2.246243948219522E-1   -8.500124386415030E-3    1.565327715772103E-2   -7.916656552778619E-3    1.582498070446473E-2   -7.483460095493523E-3    2.421536599428776E-1    4.926765971517439E-1
 6.517545387000000E9    -2.245538125994158E-1   -8.362458544472975E-3    1.577110665924946E-2   -7.976107925208135E-3    1.591767439544719E-2   -7.452086628338466E-3    2.428012375262075E-1    4.923194227565661E-1
 6.517556801000000E9    -2.243983497311360E-1   -8.178029528420680E-3    1.577774790941827E-2   -8.055292525288768E-3    1.602553799819811E-2   -7.537284854513875E-3    2.437763150248063E-1    4.917840407702273E-1
 6.517568215000000E9    -2.243429105487297E-1   -8.061499176438051E-3    1.580750125898163E-2   -8.197685377878485E-3    1.614102122457447E-2   -7.598059546468166E-3    2.446451566658075E-1    4.913403268089841E-1
 6.517579629000000E9    -2.241435970629747E-1   -7.848803669708282E-3    1.600866226203887E-2   -8.250568363650053E-3    1.621430337233559E-2   -7.680782577165699E-3    2.454920257868976E-1    4.909146503020358E-1
 6.517591043000000E9    -2.239903180074924E-1   -7.802185585285854E-3    1.603590674726272E-2   -8.215908498147642E-3    1.629068251431733E-2   -7.697742266123033E-3    2.463219369845422E-1    4.905660641068337E-1
 6.517602457000000E9    -2.237478830568775E-1   -7.594547766300942E-3    1.623518563699679E-2   -8.354676237980991E-3    1.626786184784536E-2   -7.845077046831928E-3    2.470222381561440E-1    4.901293823337566E-1
 6.517613871000000E9    -2.237537135117141E-1   -7.495055468777436E-3    1.627807057875764E-2   -8.489688120026463E-3    1.644138640162432E-2   -7.863280259211200E-3    2.479858587657269E-1    4.898378778193598E-1
 6.517625285000000E9    -2.235092449366860E-1   -7.307943124733459E-3    1.625772312625762E-2   -8.521711873860272E-3    1.645142687143258E-2   -7.967313947228617E-3    2.487602486164406E-1    4.892723697863053E-1
 6.517636699000000E9    -2.233039269566844E-1   -7.190589448894586E-3    1.637127223029244E-2   -8.677979067909004E-3    1.664294817323585E-2   -8.147891806857462E-3    2.496861446722383E-1    4.890280166182743E-1
 6.517648113000000E9    -2.231270176186090E-1   -7.187398871119687E-3    1.643233743556699E-2   -8.583875685895113E-3    1.670435845913201E-2   -8.182670934749690E-3    2.504468551426093E-1    4.884130726823646E-1
 6.517659527000000E9    -2.230692106384858E-1   -6.986965215234778E-3    1.661866435953251E-2   -8.800987812251571E-3    1.678580041725091E-2   -8.291905158004223E-3    2.513380193516529E-1    4.879963339118816E-1
 6.517670941000000E9    -2.229870878769234E-1   -6.744957141754409E-3    1.661801908393012E-2   -8.905536671010449E-3    1.683238893167036E-2   -8.339761839795855E-3    2.521764833327871E-1    4.875581688810849E-1
 6.517682355000000E9    -2.226159710103509E-1   -6.624902319734995E-3    1.669821386320220E-2   -8.970327178493439E-3    1.692386845280067E-2   -8.455833419044640E-3    2.530314877344714E-1    4.871847243546404E-1
 6.517693769000000E9    -2.225574479876984E-1   -6.647520077136128E-3    1.677420168990815E-2   -9.129648554332969E-3    1.691645136696974E-2   -8.452262432960652E-3    2.537826275467656E-1    4.867299943174190E-1
 6.517705183000000E9    -2.224225142328013E-1   -6.445867434190923E-3    1.672195435054870E-2   -9.199609380224471E-3    1.723650296223877E-2   -8.580568632226299E-3    2.546565430917699E-1    4.862430047335239E-1
 6.517716597000000E9    -2.222430852204692E-1   -6.281995398523586E-3    1.687542022449974E-2   -9.228290931605182E-3    1.714534000061388E-2   -8.722589176815091E-3    2.554408592205030E-1    4.857680666386410E-1
 6.517728011000000E9    -2.220363938421026E-1   -6.209932634889796E-3    1.700846215624826E-2   -9.466810681339760E-3    1.714544081400883E-2   -8.857362157491867E-3    2.563252550605405E-1    4.853262295992683E-1
 6.517739425000000E9    -2.218155350287470E-1   -6.096035675029635E-3    1.715267618547743E-2   -9.418616154218544E-3    1.736069647757717E-2   -8.889067310145762E-3    2.573622721111006E-1    4.850302436629726E-1
 6.517750839000000E9    -2.216614646630022E-1   -5.905492506012469E-3    1.719258941455528E-2   -9.532740035858186E-3    1.737790855640673E-2   -8.936549761958960E-3    2.580515331134023E-1    4.844895547187361E-1
 6.517762253000000E9    -2.214521178391804E-1   -5.800177144034187E-3    1.725092739154619E-2   -9.717961076756577E-3    1.759857150386357E-2   -9.099085467439779E-3    2.589593208593325E-1    4.838995718179294E-1
 6.517773667000000E9    -2.212995682165624E-1   -5.649456434535852E-3    1.725779938007612E-2   -9.658401122615944E-3    1.765149860437039E-2   -9.116638316248867E-3    2.598142431683488E-1    4.834214674189379E-1
 6.517785081000000E9    -2.211396820215490E-1   -5.578967429081325E-3    1.749880308889293E-2   -9.933369027993825E-3    1.778064081056292E-2   -9.367158474203004E-3    2.606487797519343E-1    4.830845182186716E-1
 6.517796495000000E9    -2.210304431847593E-1   -5.364443867713528E-3    1.756188464906554E-2   -1.001496846226337E-2    1.783961392858278E-2   -9.418044739015287E-3    2.612526497627106E-1    4.826966179916365E-1
 6.517807909000000E9    -2.207234912189235E-1   -5.317166067027539E-3    1.766771379919915E-2   -1.006376763243578E-2    1.796999865286568E-2   -9.513941180383137E-3    2.621806841841921E-1    4.822312541553015E-1
 6.517819323000000E9    -2.205940402947431E-1   -5.183812533991592E-3    1.774122915135908E-2   -1.008748667376201E-2    1.805007556023876E-2   -9.599242489533387E-3    2.632383959721139E-1    4.817339298735948E-1
 6.517830737000000E9    -2.202991490387619E-1   -5.190889963577736E-3    1.789757790916758E-2   -1.030969382220152E-2    1.816200333703342E-2   -9.795888065234527E-3    2.639312337423180E-1    4.812221086500716E-1
 6.517842151000000E9    -2.202458664427444E-1   -5.071717911740022E-3    1.792122393965384E-2   -1.041341510130650E-2    1.826512134141044E-2   -9.896089395829349E-3    2.648177133561734E-1    4.807287692766594E-1
 6.517853565000000E9    -2.200835153224965E-1   -4.905592702710697E-3    1.796075671764641E-2   -1.047532359718207E-2    1.823025255554841E-2   -1.001441200831901E-2    2.656541640339917E-1    4.801717897474301E-1
 6.517864979000000E9    -2.197211084080359E-1   -4.705113069370378E-3    1.813039285169036E-2   -1.066138404714586E-2    1.846799541294753E-2   -1.002592932868636E-2    2.664089752299689E-1    4.798943020578182E-1
 6.517876393000000E9    -2.196610760818552E-1   -4.655259103485842E-3    1.815049938310596E-2   -1.077056662997482E-2    1.855252317621838E-2   -1.021473729029998E-2    2.673152089306873E-1    4.795234641190868E-1
 6.517887807000000E9    -2.194719059161397E-1   -4.552838789898329E-3    1.822729374196830E-2   -1.095858357335884E-2    1.864112229705191E-2   -1.041616817311133E-2    2.682522817914146E-1    4.788288310000863E-1
 6.517899221000000E9    -2.193226530653591E-1   -4.472313553857852E-3    1.848724452475856E-2   -1.102636831603291E-2    1.877298651825234E-2   -1.040245412802571E-2    2.690485088950283E-1    4.783449756363148E-1
 6.517910635000000E9    -2.190686232170544E-1   -4.457430915114805E-3    1.857362820469515E-2   -1.113836163532271E-2    1.886140102120161E-2   -1.052148311963094E-2    2.698694204749092E-1    4.779328027968209E-1
 6.517922049000000E9    -2.189513756215990E-1   -4.366383373197250E-3    1.869717100361831E-2   -1.116301416694094E-2    1.904224907396000E-2   -1.070370422836125E-2    2.706119441548895E-1    4.774085073960931E-1
 6.517933463000000E9    -2.186092972094539E-1   -4.298060468323899E-3    1.884256454326500E-2   -1.139444717433379E-2    1.902691184310238E-2   -1.075959685349106E-2    2.715470188916611E-1    4.770250820691744E-1
 6.517944877000000E9    -2.184180418490875E-1   -4.055570996963389E-3    1.882059454243034E-2   -1.152408533249060E-2    1.924014186053645E-2   -1.093878581149682E-2    2.721618783426215E-1    4.764212894335098E-1
 6.517956291000000E9    -2.183259501816338E-1   -4.049616662553462E-3    1.892089067489552E-2   -1.165926674099078E-2    1.924140245758453E-2   -1.097467731279558E-2    2.733640074641920E-1    4.759735926184091E-1
 6.517967705000000E9    -2.180946401544140E-1   -3.978104881020262E-3    1.898448192864467E-2   -1.179028416962490E-2    1.947807023939539E-2   -1.109468309015640E-2    2.741590875648910E-1    4.754066762098550E-1
 6.517979119000000E9    -2.177742397388280E-1   -3.730162058351835E-3    1.912252726894518E-2   -1.179541468334791E-2    1.954066966966631E-2   -1.130070716803561E-2    2.749210392588465E-1    4.748877329089964E-1
 6.517990533000000E9    -2.176410403086697E-1   -3.772759313074197E-3    1.925358768866270E-2   -1.205313166034395E-2    1.968408692068565E-2   -1.140055441922927E-2    2.757581902982865E-1    4.744194161051310E-1
 6.518001947000000E9    -2.174460213376903E-1   -3.691257411889141E-3    1.948569329419939E-2   -1.216622799270547E-2    1.979303043368125E-2   -1.151066829187780E-2    2.766433119769322E-1    4.739538854459996E-1
 6.518013361000000E9    -2.171786420871079E-1   -3.640590507562586E-3    1.981575607883306E-2   -1.243371142336107E-2    1.988659797263695E-2   -1.175153235377170E-2    2.774838545523514E-1    4.734233285871341E-1
 6.518024775000000E9    -2.170011027166358E-1   -3.557106999486363E-3    1.970733949088056E-2   -1.254394940048368E-2    2.010863575932199E-2   -1.191728070289437E-2    2.783984179253295E-1    4.729400368980471E-1
 6.518036189000000E9    -2.168012990248751E-1   -3.465585918443535E-3    1.977282459191907E-2   -1.255953716987555E-2    2.022519666772724E-2   -1.202621361076722E-2    2.790913903534612E-1    4.723271559398529E-1
 6.518047603000000E9    -2.166103526722404E-1   -3.222333418632247E-3    1.991493731837343E-2   -1.271234882344062E-2    2.026057805077597E-2   -1.214624830787044E-2    2.801438159240366E-1    4.717869903152064E-1
 6.518059017000000E9    -2.163906208293218E-1   -3.321881269258952E-3    2.004356547685062E-2   -1.287759902268681E-2    2.037435167236747E-2   -1.224263289983607E-2    2.809119880813549E-1    4.713371001754764E-1
 6.518070431000000E9    -2.162869349954819E-1   -3.247328891163386E-3    2.008442216068837E-2   -1.312064745040671E-2    2.056418840726091E-2   -1.244833937073117E-2    2.818687902358389E-1    4.706927510616272E-1
 6.518081845000000E9    -2.158519801415459E-1   -3.236607609149634E-3    2.027969722154393E-2   -1.326627839971073E-2    2.068166132101159E-2   -1.257465987829598E-2    2.826026059966515E-1    4.702689598238032E-1
 6.518093259000000E9    -2.155646821842147E-1   -3.133702875459309E-3    2.049060234756455E-2   -1.349613438706882E-2    2.080417099128493E-2   -1.280568831482092E-2    2.834890101926099E-1    4.697751495292540E-1
 6.518104673000000E9    -2.152923032384337E-1   -3.173736656007107E-3    2.049405888499261E-2   -1.358695103923126E-2    2.092049212170400E-2   -1.292565722985848E-2    2.843469738966208E-1    4.691368938551301E-1
 6.518116087000000E9    -2.152147843058765E-1   -3.117576323329085E-3    2.064546127995365E-2   -1.365652904540385E-2    2.107266459815128E-2   -1.307820008036524E-2    2.853097132921862E-1    4.684911561521858E-1
 6.518127501000000E9    -2.149624653593645E-1   -3.049632808704470E-3    2.077914085222373E-2   -1.404768365042940E-2    2.121922336839180E-2   -1.320246826943857E-2    2.861492188402370E-1    4.681368944587457E-1
 6.518138915000000E9    -2.146297076786818E-1   -3.164294135768489E-3    2.087290528593423E-2   -1.412047561089184E-2    2.136282088606854E-2   -1.341673352256470E-2    2.868085870781538E-1    4.674503456621484E-1
 6.518150329000000E9    -2.145349434705741E-1   -3.031614635545497E-3    2.107136776501616E-2   -1.424560703631450E-2    2.151151704621147E-2   -1.371533517830264E-2    2.876982452413603E-1    4.669218773339078E-1
 6.518161743000000E9    -2.141454221545425E-1   -2.959280805064598E-3    2.109012243398489E-2   -1.444899921150470E-2    2.165080805733825E-2   -1.381597470983085E-2    2.886156748384799E-1    4.664130923352608E-1
 6.518173157000000E9    -2.139145015264488E-1   -2.864785249357950E-3    2.141459776029738E-2   -1.463430546589767E-2    2.172469963588933E-2   -1.393501563586570E-2    2.894536468367335E-1    4.656899707527176E-1
 6.518184571000000E9    -2.137444272947356E-1   -2.856522084866226E-3    2.146916247807577E-2   -1.485391957193236E-2    2.202349942252381E-2   -1.417413045175908E-2    2.903438140319466E-1    4.652235525250536E-1
