#  HZ   S   RI   R     50.00 
! Rohde & Schwarz Vector Network Analyzer 
! Rohde-Schwarz,ZNB20-2Port,1311601062101988,3.16
! Created: UTC 12/23/2023, 4:03:33 AM
! freq[Hz]                re:S11                  im:S11                  re:S21                  im:S21                  re:S12                  im:S12                  re:S22                  im:S22
 6.517229243000000E9    -2.286530659666798E-1   -1.240663145923173E-2    1.370942718151547E-2   -5.948037664727057E-3    1.387122644275477E-2   -5.522490671782071E-3    2.195118141835888E-1    5.029014547095089E-1
 6.517240410950000E9    -2.286207887292645E-1   -1.219087731826581E-2    1.382596902446536E-2   -6.020736329389710E-3    1.388572390930524E-2   -5.662389158875967E-3    2.204767697182083E-1    5.024477947005705E-1
 6.517251578900000E9    -2.284043174180897E-1   -1.195399636622300E-2    1.387647445449925E-2   -6.073793235718362E-3    1.402807368918251E-2   -5.567236840356750E-3    2.213201438463568E-1    5.023510582909998E-1
 6.517262746850000E9    -2.282604487129365E-1   -1.178857592984305E-2    1.398418445646342E-2   -6.189304416863310E-3    1.415310874630562E-2   -5.622402101803727E-3    2.221062560472556E-1    5.018631129017380E-1
 6.517273914800000E9    -2.282099814245504E-1   -1.172558941367998E-2    1.399499986020689E-2   -6.271179783262810E-3    1.411771138180506E-2   -5.689216572390896E-3    2.228368977303321E-1    5.013571840225473E-1
 6.517285082750000E9    -2.280946876462827E-1   -1.170747950518538E-2    1.405839381117664E-2   -6.262171898615812E-3    1.423080776257821E-2   -5.786406289298119E-3    2.237140631275334E-1    5.011671725328187E-1
 6.517296250700000E9    -2.279852305249612E-1   -1.142551842948667E-2    1.408184625966084E-2   -6.397275883084178E-3    1.427699063537081E-2   -5.935328034974135E-3    2.245770089201717E-1    5.007433941136779E-1
 6.517307418650000E9    -2.279078516383422E-1   -1.129595790061303E-2    1.409360104923225E-2   -6.420089776399350E-3    1.432471955363515E-2   -5.927175932908797E-3    2.253804929620246E-1    5.004296641770910E-1
 6.517318586600000E9    -2.276393764075223E-1   -1.114480235415898E-2    1.433215551095321E-2   -6.487182739305838E-3    1.446441356495604E-2   -5.897234756056090E-3    2.262440426729223E-1    4.999279197870926E-1
 6.517329754550000E9    -2.276234686923693E-1   -1.081231319414668E-2    1.440977185129633E-2   -6.462363036226658E-3    1.448603572010515E-2   -5.989996298296286E-3    2.268986376485753E-1    4.997448724559964E-1
 6.517340922500000E9    -2.274827723045253E-1   -1.075946677146669E-2    1.432573516605489E-2   -6.560678892552878E-3    1.460100602584266E-2   -6.192746456449847E-3    2.278087876531329E-1    4.993145456487572E-1
 6.517352090450000E9    -2.272508269643591E-1   -1.055955710146165E-2    1.439062862816898E-2   -6.695440698302491E-3    1.465329433407547E-2   -6.128882969910762E-3    2.285890638098340E-1    4.988763670443541E-1
 6.517363258400000E9    -2.271973625653149E-1   -1.037427700398604E-2    1.460722121106469E-2   -6.667002949097996E-3    1.470278996393955E-2   -6.242837196057299E-3    2.295036199559524E-1    4.984807111235451E-1
 6.517374426350000E9    -2.270976639379078E-1   -1.019875513392021E-2    1.461340077762160E-2   -6.700806296544786E-3    1.481234598951660E-2   -6.283726975539809E-3    2.302939433223972E-1    4.983192142844877E-1
 6.517385594300000E9    -2.271218897509656E-1   -1.004178189409312E-2    1.464120270801358E-2   -6.760977492145757E-3    1.481401874882042E-2   -6.443221337348501E-3    2.311737388600790E-1    4.978552287082034E-1
 6.517396762250000E9    -2.267666506052110E-1   -9.984752826936342E-3    1.463110428675775E-2   -7.012224265339586E-3    1.485577087024756E-2   -6.403539457289603E-3    2.318626436947389E-1    4.974674139544028E-1
 6.517407930200000E9    -2.267308558529895E-1   -9.709986823202215E-3    1.476020662467046E-2   -7.020793862208164E-3    1.484519394398833E-2   -6.517343446671054E-3    2.327356202395407E-1    4.970306644091837E-1
 6.517419098150000E9    -2.265514300027640E-1   -9.592155098594311E-3    1.477161021104007E-2   -6.953385335906169E-3    1.498774489672680E-2   -6.515231375865099E-3    2.335237906650163E-1    4.967114716698839E-1
 6.517430266100000E9    -2.264511847211856E-1   -9.579065033711023E-3    1.474210546886557E-2   -7.023454169035830E-3    1.509503125161640E-2   -6.661113183646481E-3    2.343864408406220E-1    4.962820399754617E-1
 6.517441434050000E9    -2.263134156914776E-1   -9.370471141780657E-3    1.490142551738550E-2   -7.115183487380875E-3    1.527115393205385E-2   -6.587438015440292E-3    2.352723663722473E-1    4.960496655567629E-1
 6.517452602000000E9    -2.261346549316881E-1   -9.207128789108622E-3    1.503572790946514E-2   -7.155552157196508E-3    1.519679933353495E-2   -6.653631192759715E-3    2.360679915212341E-1    4.956517191489397E-1
 6.517463769950000E9    -2.259487264827658E-1   -8.947467076567092E-3    1.504744258276912E-2   -7.258522025827263E-3    1.518518590139816E-2   -6.814925765040338E-3    2.367160114929132E-1    4.952341077001161E-1
 6.517474937900000E9    -2.258291008677800E-1   -8.879023008391470E-3    1.499724727957150E-2   -7.223479774479124E-3    1.533608668600550E-2   -6.801858933662237E-3    2.376000604405616E-1    4.948104036231988E-1
 6.517486105850000E9    -2.256992450625875E-1   -8.594807726789954E-3    1.524453529240301E-2   -7.399086371082884E-3    1.539377642377694E-2   -6.782538856836910E-3    2.384480471109456E-1    4.944286436767916E-1
 6.517497273800000E9    -2.255616935443371E-1   -8.549552499712950E-3    1.544183988180895E-2   -7.608576997096440E-3    1.552307040869762E-2   -6.996834715384143E-3    2.391765711089063E-1    4.939764229612053E-1
 6.517508441750000E9    -2.254323666038982E-1   -8.366036505413430E-3    1.539098799986774E-2   -7.419078171352597E-3    1.546950067502048E-2   -7.027725467895178E-3    2.400544697603439E-1    4.936167494548793E-1
 6.517519609700000E9    -2.253499283926602E-1   -8.370346615770057E-3    1.547048027243227E-2   -7.676397597156307E-3    1.563183388460570E-2   -7.145969909882794E-3    2.409532746682381E-1    4.932303356507891E-1
 6.517530777650000E9    -2.251604946470278E-1   -7.994171421882463E-3    1.550052831404837E-2   -7.754788617794633E-3    1.567695205078353E-2   -7.285761987527446E-3    2.417485591493638E-1    4.928447550640443E-1
 6.517541945600000E9    -2.250759888097710E-1   -8.052540063906965E-3    1.557510534204534E-2   -7.793948206532713E-3    1.571352079048574E-2   -7.221458040158453E-3    2.426558176824958E-1    4.924831771098647E-1
 6.517553113550000E9    -2.247994767891760E-1   -7.866758847796253E-3    1.557331307446435E-2   -7.953027553824817E-3    1.583732630679571E-2   -7.432555447061350E-3    2.434504852904664E-1    4.921974762926593E-1
 6.517564281500000E9    -2.246633984802228E-1   -7.707134542881966E-3    1.569067432526051E-2   -7.960442150655032E-3    1.589860341932988E-2   -7.465391112336719E-3    2.441677143646048E-1    4.916743272465589E-1
 6.517575449450000E9    -2.244913942953786E-1   -7.629750756849910E-3    1.582491783145101E-2   -7.992906293683454E-3    1.593109192041621E-2   -7.492502738219701E-3    2.449207199798855E-1    4.913224034852445E-1
 6.517586617400000E9    -2.243804047618619E-1   -7.334692950391548E-3    1.579467041128294E-2   -7.992158789899194E-3    1.601752331400743E-2   -7.547564007499856E-3    2.459912102867185E-1    4.907895613407851E-1
 6.517597785350000E9    -2.242957345104068E-1   -7.282902775458260E-3    1.591841433922757E-2   -8.089285213941118E-3    1.605329905102174E-2   -7.619897054063807E-3    2.467304787181652E-1    4.905484418730444E-1
 6.517608953300000E9    -2.241028376371150E-1   -7.136645677097792E-3    1.600548773896688E-2   -8.306277742871578E-3    1.625236367626376E-2   -7.775080199382706E-3    2.475137423612483E-1    4.901775623315675E-1
 6.517620121250000E9    -2.239246968922676E-1   -6.964842331031822E-3    1.605837145847885E-2   -8.301564455747937E-3    1.625489251485947E-2   -7.770544580912158E-3    2.483153574631699E-1    4.896589458135069E-1
 6.517631289200000E9    -2.237932202290948E-1   -6.961890894198393E-3    1.613491951274166E-2   -8.433076961269661E-3    1.628805097343290E-2   -7.841577560348258E-3    2.489402211299614E-1    4.891881966214776E-1
 6.517642457150000E9    -2.237352375838377E-1   -6.705837866868646E-3    1.633388984240217E-2   -8.550526439876442E-3    1.650325788478570E-2   -8.055798309081642E-3    2.499992473503632E-1    4.889158192105904E-1
 6.517653625100000E9    -2.233946256918339E-1   -6.521980642987721E-3    1.625186390387081E-2   -8.631575417720725E-3    1.640926314743401E-2   -8.004416297557189E-3    2.507540528926145E-1    4.883725641539789E-1
 6.517664793050000E9    -2.233406515241364E-1   -6.530653902074501E-3    1.649605232148379E-2   -8.707413123367544E-3    1.662846218391444E-2   -8.092959590184926E-3    2.516534285895957E-1    4.881064062582170E-1
 6.517675961000000E9    -2.230867244911562E-1   -6.201281557752283E-3    1.642028480621463E-2   -8.690981904079785E-3    1.670522611250756E-2   -8.029074324699617E-3    2.523087445499698E-1    4.875706104825484E-1
 6.517687128950000E9    -2.229819046796667E-1   -6.209343955079945E-3    1.657727646851696E-2   -8.711692913894988E-3    1.673612498155835E-2   -8.342532237292106E-3    2.533403027917934E-1    4.872988368658142E-1
 6.517698296900000E9    -2.228691237526386E-1   -6.025368620728585E-3    1.666618023596899E-2   -9.004457032508897E-3    1.684420629876425E-2   -8.356569580685256E-3    2.539533262897047E-1    4.866625561465965E-1
 6.517709464850000E9    -2.226675134724787E-1   -5.914169376596068E-3    1.671635567799411E-2   -9.117656044668437E-3    1.694472465573878E-2   -8.378155048245623E-3    2.548260270292639E-1    4.863171957574557E-1
 6.517720632800000E9    -2.225042756512081E-1   -5.676042473092334E-3    1.674722910389722E-2   -9.080672912849327E-3    1.700496089171993E-2   -8.572453111461254E-3    2.557687869099197E-1    4.857131216068809E-1
 6.517731800750000E9    -2.224518638443535E-1   -5.623227400011954E-3    1.687814366012556E-2   -9.079620832164360E-3    1.714827962498488E-2   -8.707802391000526E-3    2.565099488215409E-1    4.854827801714200E-1
 6.517742968700000E9    -2.221217935314800E-1   -5.437092932899014E-3    1.707367276641117E-2   -9.203931833653064E-3    1.727355523545031E-2   -8.716806310505044E-3    2.573694791804138E-1    4.851044981561630E-1
 6.517754136650000E9    -2.219140937708094E-1   -5.427833573533384E-3    1.699386600642492E-2   -9.345673270813259E-3    1.732416232210429E-2   -8.803007579630985E-3    2.581687801704849E-1    4.845589718719697E-1
 6.517765304600000E9    -2.218103615106330E-1   -5.348356782373170E-3    1.706766096726691E-2   -9.458564303365859E-3    1.736729982143766E-2   -8.841421443492077E-3    2.590058070105626E-1    4.841537024974636E-1
 6.517776472550000E9    -2.217267802145608E-1   -5.221949991829866E-3    1.716845336870140E-2   -9.642961583063435E-3    1.755610072161411E-2   -9.026184993748619E-3    2.600067035027425E-1    4.836435525694198E-1
 6.517787640500000E9    -2.215111521848308E-1   -5.018115720856923E-3    1.719918359481594E-2   -9.725415067982978E-3    1.750534161564420E-2   -9.083480682826698E-3    2.606837407900107E-1    4.831539029841572E-1
 6.517798808450000E9    -2.213068190371051E-1   -4.953207539847402E-3    1.732106085039013E-2   -9.653807370597060E-3    1.770340175119459E-2   -9.225527656008694E-3    2.614530093500168E-1    4.828194071815508E-1
 6.517809976400000E9    -2.211444157966671E-1   -4.821051747114856E-3    1.750618097820067E-2   -9.833496674411597E-3    1.785117282266241E-2   -9.246545408981472E-3    2.623379816371657E-1    4.822427105059117E-1
 6.517821144350000E9    -2.209586923987914E-1   -4.652946093572642E-3    1.754381758576480E-2   -9.952125750402071E-3    1.779910502031547E-2   -9.417758004768618E-3    2.631625016440161E-1    4.818119308206303E-1
 6.517832312300000E9    -2.207559918732870E-1   -4.601694602667378E-3    1.761249579354555E-2   -9.964308986281086E-3    1.793784474302672E-2   -9.645335775722606E-3    2.638556793532618E-1    4.812742636960816E-1
 6.517843480250000E9    -2.206133875281412E-1   -4.445930887722945E-3    1.765399277111372E-2   -1.026210812503459E-2    1.802567722103183E-2   -9.598918512229944E-3    2.648610330301948E-1    4.809860621607520E-1
 6.517854648200000E9    -2.204107058129390E-1   -4.431806702881153E-3    1.782041407357543E-2   -1.038261162724686E-2    1.814412524782034E-2   -9.671916687845672E-3    2.656042592437992E-1    4.806108439104106E-1
 6.517865816150000E9    -2.202329168687719E-1   -4.198834013001957E-3    1.789821571289595E-2   -1.042441609886676E-2    1.836499998245155E-2   -9.800832528521012E-3    2.664376738751089E-1    4.800629499908567E-1
 6.517876984100000E9    -2.200213611795220E-1   -4.231697938052676E-3    1.811270317867572E-2   -1.055058709032381E-2    1.837515548556237E-2   -9.868561376481592E-3    2.672825058097727E-1    4.794800536640577E-1
 6.517888152050000E9    -2.198385408942700E-1   -4.004465259288267E-3    1.816953726838880E-2   -1.065722077695645E-2    1.851282172877389E-2   -9.915647185062711E-3    2.681185985600802E-1    4.789975583692028E-1
 6.517899320000000E9    -2.195698032950479E-1   -3.951344732138863E-3    1.819562907590038E-2   -1.076643340274505E-2    1.865770587481765E-2   -1.026916955234218E-2    2.688179851968436E-1    4.785479243200270E-1
 6.517910487950000E9    -2.194387759995484E-1   -3.872242228566840E-3    1.827800918183734E-2   -1.089616399409692E-2    1.859799266290051E-2   -1.026549361460027E-2    2.697163820620667E-1    4.782351325367672E-1
 6.517921655900000E9    -2.192758203253672E-1   -3.712920259286369E-3    1.844315571720039E-2   -1.105955014409264E-2    1.871167321814726E-2   -1.033513545844310E-2    2.704450988091399E-1    4.778481781644586E-1
 6.517932823850000E9    -2.191719471498373E-1   -3.561837149011797E-3    1.854781212754805E-2   -1.110601586452734E-2    1.888653104378162E-2   -1.050561396526449E-2    2.714055830778543E-1    4.771842734669502E-1
 6.517943991800000E9    -2.189206217319448E-1   -3.539733332188218E-3    1.848914674312846E-2   -1.122145475122360E-2    1.901155826983889E-2   -1.065733129745548E-2    2.722245541818398E-1    4.767824767808380E-1
 6.517955159750000E9    -2.187048475115380E-1   -3.561060251214754E-3    1.871888492611742E-2   -1.141844816614803E-2    1.904582822148626E-2   -1.086900326915998E-2    2.730434220159280E-1    4.762224618701643E-1
 6.517966327700000E9    -2.185703122672594E-1   -3.412378844706022E-3    1.889429379055916E-2   -1.152537840460753E-2    1.913134223282347E-2   -1.092118488357257E-2    2.738406240930731E-1    4.757458828530221E-1
 6.517977495650000E9    -2.183240650841105E-1   -3.324861850242562E-3    1.894969989146186E-2   -1.167367163337159E-2    1.937223130526687E-2   -1.099789622221676E-2    2.746854576517634E-1    4.752550255856810E-1
 6.517988663600000E9    -2.181284872089879E-1   -3.246756733251281E-3    1.901896468948458E-2   -1.162390045961335E-2    1.947051454232102E-2   -1.118432109438367E-2    2.755074935300617E-1    4.747549586403487E-1
 6.517999831550000E9    -2.178870293799692E-1   -3.130481529880722E-3    1.914901157996793E-2   -1.192543132140457E-2    1.955370369367635E-2   -1.122398880309666E-2    2.763347643502251E-1    4.742844997527730E-1
 6.518010999500000E9    -2.177226221409024E-1   -3.102743431169880E-3    1.928916251396087E-2   -1.195701367678734E-2    1.967945582759174E-2   -1.142013217025222E-2    2.772262360330361E-1    4.737817392703666E-1
 6.518022167450000E9    -2.174962233441884E-1   -2.969559147816483E-3    1.943244508685858E-2   -1.216767595882826E-2    1.975771402473606E-2   -1.145302309964150E-2    2.780775708088555E-1    4.732986431553063E-1
 6.518033335400000E9    -2.173208734122756E-1   -3.049531595364062E-3    1.960863460759653E-2   -1.224924757680990E-2    1.998266108298806E-2   -1.174020749125255E-2    2.786658142941381E-1    4.727791537883795E-1
 6.518044503350000E9    -2.170001450469224E-1   -2.835029605518942E-3    1.958646961390238E-2   -1.236453872785914E-2    2.002883765691587E-2   -1.185984729530694E-2    2.796486224513159E-1    4.723574878373794E-1
 6.518055671300000E9    -2.167699915381071E-1   -2.647216800174508E-3    1.976351689641827E-2   -1.253324681154621E-2    2.005457462091209E-2   -1.196290823042273E-2    2.804808045631313E-1    4.716839532446785E-1
 6.518066839250000E9    -2.166471317799495E-1   -2.732663124093919E-3    1.991172036223934E-2   -1.276245778382087E-2    2.030294364000974E-2   -1.196238769299546E-2    2.814259637505513E-1    4.712699795816108E-1
 6.518078007200000E9    -2.163658889248732E-1   -2.596825200085248E-3    1.986765381815099E-2   -1.285041544247436E-2    2.032421296425622E-2   -1.225227172550032E-2    2.822451736635514E-1    4.707710024490202E-1
 6.518089175150000E9    -2.162350788582681E-1   -2.645652354346527E-3    2.008589810029894E-2   -1.306454007519904E-2    2.048935709484169E-2   -1.241125230675491E-2    2.831042515852527E-1    4.702284807576892E-1
 6.518100343100000E9    -2.160251728559258E-1   -2.571002581479333E-3    2.026037763857298E-2   -1.321660628855041E-2    2.060153715070291E-2   -1.252863075721646E-2    2.838806121902722E-1    4.695749866014045E-1
 6.518111511050000E9    -2.157133873410267E-1   -2.531394677152887E-3    2.017009170599461E-2   -1.337641090444812E-2    2.076399670708028E-2   -1.266448545861143E-2    2.845715970683470E-1    4.690983230711066E-1
 6.518122679000000E9    -2.156047203879434E-1   -2.427324650598399E-3    2.053112472790717E-2   -1.346718290204927E-2    2.091236085222747E-2   -1.285270075415360E-2    2.855719534183178E-1    4.685654635139700E-1
 6.518133846950000E9    -2.153542739972224E-1   -2.485102500239910E-3    2.060729262354452E-2   -1.376001274426376E-2    2.109841015714663E-2   -1.296411317212138E-2    2.862992728007331E-1    4.681777315672649E-1
 6.518145014900000E9    -2.149982759982742E-1   -2.359472076722133E-3    2.080109593970138E-2   -1.380254432814437E-2    2.117758450642937E-2   -1.317319135645360E-2    2.872449077411273E-1    4.674901010005486E-1
 6.518156182850000E9    -2.148099509666254E-1   -2.282025378632617E-3    2.090040363388753E-2   -1.395618212719521E-2    2.126395400342402E-2   -1.336151934701658E-2    2.878266149253133E-1    4.669817884363939E-1
 6.518167350800000E9    -2.145267636134091E-1   -2.241341643816497E-3    2.089332792184565E-2   -1.408447750907914E-2    2.146820415809220E-2   -1.339768982084412E-2    2.889507806196761E-1    4.665820965811973E-1
 6.518178518750000E9    -2.142931540195793E-1   -2.267345470783747E-3    2.115554008593430E-2   -1.435574583370452E-2    2.150383599841614E-2   -1.369699216741097E-2    2.897391322956864E-1    4.658477854435775E-1
 6.518189686700000E9    -2.139999267656598E-1   -2.148435527493820E-3    2.121119443757269E-2   -1.458868001367159E-2    2.180435936774743E-2   -1.387873159119821E-2    2.906113249494815E-1    4.653706134018808E-1
 6.518200854650000E9    -2.138306322684383E-1   -2.136938156056343E-3    2.138792699138511E-2   -1.470352048598121E-2    2.181348945822410E-2   -1.399346668116026E-2    2.913323835835763E-1    4.646729079925732E-1
 6.518212022600000E9    -2.136546178319392E-1   -2.067314410022726E-3    2.150960228386610E-2   -1.491850846696396E-2    2.198329535769768E-2   -1.434666547394256E-2    2.922275847678209E-1    4.641673929815320E-1
 6.518223190550000E9    -2.133645733151810E-1   -2.003160354000033E-3    2.176351574417267E-2   -1.505283675828359E-2    2.203443767943176E-2   -1.438129038322277E-2    2.931226081963579E-1    4.634519118113914E-1
 6.518234358500000E9    -2.131348564378122E-1   -2.035914387961613E-3    2.181906678574091E-2   -1.528193219507404E-2    2.240628812189787E-2   -1.458033753973876E-2    2.939362755620342E-1    4.630178675425842E-1
