#  HZ   S   RI   R     50.00 
! Rohde & Schwarz Vector Network Analyzer 
! Rohde-Schwarz,ZNB20-2Port,1311601062101988,3.16
! Created: UTC 12/23/2023, 3:37:22 AM
! freq[Hz]                re:S11                  im:S11                  re:S21                  im:S21                  re:S12                  im:S12                  re:S22                  im:S22
 6.517092427000000E9    -2.300715889933924E-1   -1.529295991050980E-2    1.344735095180219E-2   -5.616453668054061E-3    1.356702945527302E-2   -5.127803913754564E-3    2.104769333433837E-1    5.067754413737110E-1
 6.517103978325000E9    -2.299072636723735E-1   -1.509016440236972E-2    1.326907260375857E-2   -5.624262568927348E-3    1.353430928904790E-2   -5.206356806903882E-3    2.114539648064921E-1    5.062916844321483E-1
 6.517115529650000E9    -2.298436172815538E-1   -1.498526913241343E-2    1.354687023273995E-2   -5.618489982905087E-3    1.358160774070341E-2   -5.257387436750286E-3    2.121219998243777E-1    5.059601094174694E-1
 6.517127080975000E9    -2.297647237260240E-1   -1.473719620079560E-2    1.355579466723697E-2   -5.738292040065323E-3    1.361427327344537E-2   -5.303436627584845E-3    2.130982291085343E-1    5.056151320079720E-1
 6.517138632300000E9    -2.295274768907448E-1   -1.458258289192787E-2    1.361650541376623E-2   -5.851983750985824E-3    1.369281015700761E-2   -5.323452791803784E-3    2.139698105606871E-1    5.052979625115381E-1
 6.517150183625000E9    -2.294736837773811E-1   -1.438191330643247E-2    1.376413563018327E-2   -5.800893202843652E-3    1.393476340687191E-2   -5.431465079325835E-3    2.148788477474433E-1    5.050169825059068E-1
 6.517161734950000E9    -2.293255305573722E-1   -1.421813965554707E-2    1.375306605139154E-2   -6.026199206294287E-3    1.385989195260060E-2   -5.500634788560901E-3    2.156310041012006E-1    5.045594553941445E-1
 6.517173286275000E9    -2.291649509618057E-1   -1.397695040763172E-2    1.394746901928497E-2   -6.169680990830325E-3    1.391947000611961E-2   -5.453382652930004E-3    2.164974735895411E-1    5.041321394478051E-1
 6.517184837600000E9    -2.291090404185270E-1   -1.378154464616673E-2    1.395958279621817E-2   -6.035674485922620E-3    1.394418921127965E-2   -5.545839882683658E-3    2.173674574368870E-1    5.039350957856626E-1
 6.517196388925000E9    -2.291328129925058E-1   -1.364896259343050E-2    1.398176061671880E-2   -6.126176237875853E-3    1.406540858570586E-2   -5.677684233105172E-3    2.180513705948604E-1    5.036105926509420E-1
 6.517207940250000E9    -2.288312768217695E-1   -1.346908505994573E-2    1.395392525803061E-2   -6.308147143869541E-3    1.419310687200094E-2   -5.725467755293510E-3    2.190699677246704E-1    5.031839428248577E-1
 6.517219491575000E9    -2.286941463485658E-1   -1.343911234206656E-2    1.409688722738324E-2   -6.352357571549722E-3    1.413639042318057E-2   -5.774498213110576E-3    2.197332159573782E-1    5.026934414958506E-1
 6.517231042900000E9    -2.287377670086054E-1   -1.313539490126722E-2    1.408607321548673E-2   -6.174532911308963E-3    1.428183770854061E-2   -5.895168634798108E-3    2.206782003670030E-1    5.025149657842994E-1
 6.517242594225000E9    -2.285204677603255E-1   -1.298718923618628E-2    1.420840903742712E-2   -6.382025204970644E-3    1.433553647212768E-2   -5.729521416378557E-3    2.216441036987424E-1    5.021231071667354E-1
 6.517254145550000E9    -2.283849778321421E-1   -1.279614614704298E-2    1.415271905775787E-2   -6.384701448410681E-3    1.439939909699246E-2   -5.836100045895876E-3    2.224683778379902E-1    5.016542379175429E-1
 6.517265696875000E9    -2.282448982518935E-1   -1.268064280403489E-2    1.422468952701752E-2   -6.481510607515159E-3    1.448354027826742E-2   -6.004823244953900E-3    2.231838746281529E-1    5.012963512626216E-1
 6.517277248200000E9    -2.281183419138641E-1   -1.244415086775624E-2    1.448492342256390E-2   -6.464526679839458E-3    1.446823610822883E-2   -6.061662520190935E-3    2.239888785328954E-1    5.009470337519696E-1
 6.517288799525000E9    -2.279490634955906E-1   -1.227419168697186E-2    1.445287866899700E-2   -6.714842614999072E-3    1.454590744582543E-2   -5.984861959674459E-3    2.250435988933597E-1    5.006784465482955E-1
 6.517300350850000E9    -2.278164735152950E-1   -1.211463569978299E-2    1.454290159487654E-2   -6.534914481071565E-3    1.474583411304574E-2   -6.153412127689388E-3    2.258261783806684E-1    5.001818357649664E-1
 6.517311902175000E9    -2.276699663168704E-1   -1.199942401531747E-2    1.461963293520809E-2   -6.751506496569699E-3    1.479759026631971E-2   -6.205782244833685E-3    2.267492639271336E-1    4.999206099149500E-1
 6.517323453500000E9    -2.276279187871606E-1   -1.189303812628349E-2    1.451939315104786E-2   -6.777139735174152E-3    1.478216869067996E-2   -6.332994244220119E-3    2.275320757041335E-1    4.993740975955090E-1
 6.517335004825000E9    -2.275017673070402E-1   -1.167104514301197E-2    1.462155234202405E-2   -6.869791554531151E-3    1.478085051916317E-2   -6.327087702945417E-3    2.284450449936084E-1    4.990896479413278E-1
 6.517346556150000E9    -2.272026164613216E-1   -1.153368306933196E-2    1.483084124145952E-2   -6.997899720768338E-3    1.482388255408937E-2   -6.393958979704574E-3    2.292861344506543E-1    4.987613805578629E-1
 6.517358107475000E9    -2.271268861143423E-1   -1.138048857529337E-2    1.478665953931721E-2   -6.915150189865793E-3    1.493381897167967E-2   -6.365782771129136E-3    2.299545925835386E-1    4.983122045025740E-1
 6.517369658800000E9    -2.269250559110529E-1   -1.130359408138809E-2    1.483632039767493E-2   -6.944228420013600E-3    1.498792365770272E-2   -6.504350891622654E-3    2.308962905869755E-1    4.980178626989106E-1
 6.517381210125000E9    -2.269817110570605E-1   -1.097578264036890E-2    1.499801431087779E-2   -7.179899551821254E-3    1.520349518002070E-2   -6.573966413632469E-3    2.317816165514136E-1    4.975831265115764E-1
 6.517392761450000E9    -2.266895046243880E-1   -1.079912240816756E-2    1.492500338309964E-2   -7.236992601455200E-3    1.511646980065670E-2   -6.638830398946798E-3    2.325550087785495E-1    4.973388380072125E-1
 6.517404312775000E9    -2.265796242264068E-1   -1.073099124343259E-2    1.506119723609830E-2   -7.168152024741945E-3    1.531763604115440E-2   -6.693168473233833E-3    2.336201375068418E-1    4.967790522568443E-1
 6.517415864100000E9    -2.264622684641588E-1   -1.061652987824413E-2    1.529042355377472E-2   -7.380032205564809E-3    1.531984563274395E-2   -6.847018897923655E-3    2.342804555720487E-1    4.963450894494894E-1
 6.517427415425000E9    -2.263298128413340E-1   -1.028603716587086E-2    1.527294827317839E-2   -7.361173330368148E-3    1.534130750458998E-2   -6.949905768775054E-3    2.352426228378003E-1    4.960244172009984E-1
 6.517438966750000E9    -2.261935996945552E-1   -1.022137167863757E-2    1.535008506248291E-2   -7.489201793321722E-3    1.555061229507947E-2   -6.980898292856674E-3    2.359713117257665E-1    4.956268098160386E-1
 6.517450518075000E9    -2.259739965302337E-1   -1.007587078582751E-2    1.521568769744173E-2   -7.590838676486730E-3    1.554251716261919E-2   -6.996543195960667E-3    2.368651717745864E-1    4.952592042745480E-1
 6.517462069400000E9    -2.258349399154369E-1   -9.917910233982197E-3    1.531897403426494E-2   -7.638094910180474E-3    1.562216237961249E-2   -7.130856993200779E-3    2.377422724972872E-1    4.948098876061431E-1
 6.517473620725000E9    -2.257216833129624E-1   -9.812871913254070E-3    1.553686250613884E-2   -7.728102535322003E-3    1.568124469975651E-2   -7.160639481319324E-3    2.386871147051514E-1    4.943130674330428E-1
 6.517485172050000E9    -2.256266545450908E-1   -9.762594070085048E-3    1.556845230624089E-2   -7.863899205419737E-3    1.577673262078786E-2   -7.183897834155403E-3    2.394469073189856E-1    4.940579046260664E-1
 6.517496723375000E9    -2.254474755147267E-1   -9.404864138783145E-3    1.556483656121809E-2   -7.746896910782440E-3    1.587267521599631E-2   -7.327117972279580E-3    2.402467417561295E-1    4.935819680342014E-1
 6.517508274700000E9    -2.253260783158544E-1   -9.279376587214463E-3    1.575239035349787E-2   -8.039291948913299E-3    1.597502972997488E-2   -7.443509014186766E-3    2.411173068911381E-1    4.932242940437500E-1
 6.517519826025000E9    -2.251308041348825E-1   -9.178012716153077E-3    1.578949582179722E-2   -8.129606251268628E-3    1.607697862467462E-2   -7.477369442526130E-3    2.420463740754804E-1    4.929120498040706E-1
 6.517531377350000E9    -2.248699016629323E-1   -9.000251286703995E-3    1.586936129810954E-2   -8.010562595799414E-3    1.609540047663777E-2   -7.601069219842419E-3    2.429954160989992E-1    4.923134816833593E-1
 6.517542928675000E9    -2.249048513737458E-1   -8.892230115046654E-3    1.598651771761637E-2   -8.185405094663466E-3    1.608939974287291E-2   -7.616110734782806E-3    2.434768772263712E-1    4.919623213177914E-1
 6.517554480000000E9    -2.246920040794271E-1   -8.682936704767235E-3    1.604812088212478E-2   -8.265996446059281E-3    1.619640266556038E-2   -7.696006069860739E-3    2.445348018152128E-1    4.915414071144717E-1
 6.517566031325000E9    -2.245124666797608E-1   -8.641259370649978E-3    1.612151193372209E-2   -8.372694996641577E-3    1.627564988769068E-2   -7.768733968542546E-3    2.453963809603364E-1    4.911226492787032E-1
 6.517577582650000E9    -2.243566011638758E-1   -8.515357055948060E-3    1.621642006767144E-2   -8.411191848025688E-3    1.639440031980519E-2   -7.782802032921528E-3    2.462847279783563E-1    4.906902342170776E-1
 6.517589133975000E9    -2.242715331744705E-1   -8.285622466319300E-3    1.618165919484418E-2   -8.525403300902644E-3    1.652826323568829E-2   -8.025186488285839E-3    2.469687700103559E-1    4.903618641017661E-1
 6.517600685300000E9    -2.239742763597302E-1   -8.175733661881023E-3    1.628185370555780E-2   -8.786216759074711E-3    1.657993296692171E-2   -8.043015793071189E-3    2.479745690131049E-1    4.899699352427263E-1
 6.517612236625000E9    -2.238021770327988E-1   -8.051595647368740E-3    1.640237519402230E-2   -8.732217315267788E-3    1.660867518636890E-2   -8.157126732606530E-3    2.488349129789178E-1    4.894244428930581E-1
 6.517623787950000E9    -2.237047581613529E-1   -7.892289949234080E-3    1.650351318795246E-2   -8.761755782988967E-3    1.674676061331307E-2   -8.204024547106914E-3    2.494930914288077E-1    4.890406161687099E-1
 6.517635339275000E9    -2.235286397433692E-1   -7.768605414966104E-3    1.658161662642397E-2   -8.894618414511274E-3    1.683310096649232E-2   -8.316707878515741E-3    2.505850039066069E-1    4.886582948194075E-1
 6.517646890600000E9    -2.233659426012001E-1   -7.606587192549940E-3    1.655092970153806E-2   -8.962147654167571E-3    1.694313321453251E-2   -8.299291122692572E-3    2.514935963324789E-1    4.882163892869529E-1
 6.517658441925000E9    -2.231037927040458E-1   -7.553413886279617E-3    1.680647954385213E-2   -9.238824221095308E-3    1.691720627482146E-2   -8.532233339852223E-3    2.521646215915967E-1    4.878074378788911E-1
 6.517669993250000E9    -2.230166644804499E-1   -7.346274561021173E-3    1.673855773159740E-2   -9.091458782623872E-3    1.706559455144438E-2   -8.549883534930433E-3    2.530983756049756E-1    4.872961093071554E-1
 6.517681544575000E9    -2.228636092832760E-1   -7.192023734802382E-3    1.693802689715363E-2   -9.262463937872480E-3    1.716258853830181E-2   -8.671412509161694E-3    2.538224100698194E-1    4.869058412746173E-1
 6.517693095900000E9    -2.227268122146537E-1   -7.221956981148659E-3    1.712614520278190E-2   -9.399776748982619E-3    1.740770537308817E-2   -8.771947689030085E-3    2.547742489746553E-1    4.862663339897454E-1
 6.517704647225000E9    -2.226364001974321E-1   -6.952141918776075E-3    1.707078793564040E-2   -9.477540194815505E-3    1.734677093570416E-2   -8.823272385145011E-3    2.557258677026551E-1    4.858791934223108E-1
 6.517716198550000E9    -2.223462709369405E-1   -6.877229671119429E-3    1.726689044919272E-2   -9.558765243537321E-3    1.753358399788848E-2   -8.967614905663853E-3    2.563927594291615E-1    4.854944716355338E-1
 6.517727749875000E9    -2.222510476098134E-1   -6.751054557657327E-3    1.728249018202344E-2   -9.635509267658103E-3    1.747525835349929E-2   -9.070021302292518E-3    2.572201962192551E-1    4.848962500065666E-1
 6.517739301200000E9    -2.220173945416294E-1   -6.712238679711612E-3    1.741363914101889E-2   -9.709619944420062E-3    1.767554433481644E-2   -9.116082406735315E-3    2.581602741690707E-1    4.845150173493845E-1
 6.517750852525000E9    -2.218734121634575E-1   -6.518800734118498E-3    1.750324311901293E-2   -9.895607770602223E-3    1.778992894529969E-2   -9.300286302877091E-3    2.590851952241487E-1    4.842079297727039E-1
 6.517762403850000E9    -2.216280641103215E-1   -6.384306992760873E-3    1.753119353341683E-2   -9.862389954009652E-3    1.785742259733105E-2   -9.401490618949493E-3    2.599586363995608E-1    4.836575705971361E-1
 6.517773955175000E9    -2.215365246981205E-1   -6.272634750714202E-3    1.748320623594512E-2   -9.979561191070149E-3    1.797328587038688E-2   -9.444984124276924E-3    2.607287604865196E-1    4.831746472900117E-1
 6.517785506500000E9    -2.211969861508845E-1   -6.151000031919263E-3    1.784884721523011E-2   -1.016639345318008E-2    1.811230869890612E-2   -9.675966425075270E-3    2.615971980876122E-1    4.826086784564511E-1
 6.517797057825000E9    -2.211295479125236E-1   -6.134577530069766E-3    1.774892924039499E-2   -1.025324606595800E-2    1.822454460527404E-2   -9.708675765833358E-3    2.624724133734002E-1    4.821371870715711E-1
 6.517808609150000E9    -2.208590780730029E-1   -5.949193896555221E-3    1.787528956139887E-2   -1.042524198202393E-2    1.823345030239878E-2   -9.808719535962825E-3    2.632848077839024E-1    4.817244602301679E-1
 6.517820160475000E9    -2.206829183097142E-1   -5.873841976559891E-3    1.800269017892025E-2   -1.052874492399994E-2    1.843991501733915E-2   -9.899903930814842E-3    2.642483277941418E-1    4.813213651086689E-1
 6.517831711800000E9    -2.205257611565632E-1   -5.728882835984311E-3    1.820003087869267E-2   -1.057022482092545E-2    1.846185267410985E-2   -1.004817707699653E-2    2.650038786704368E-1    4.808804424647809E-1
 6.517843263125000E9    -2.202928344562627E-1   -5.648670943458571E-3    1.833185136333644E-2   -1.077565116200692E-2    1.864400930572336E-2   -1.010485925532817E-2    2.658465644324656E-1    4.802166458601718E-1
 6.517854814450000E9    -2.201696096630146E-1   -5.616441945417184E-3    1.832658918477896E-2   -1.084385507883916E-2    1.857201755981231E-2   -1.031812377829720E-2    2.668535510491225E-1    4.799680389802363E-1
 6.517866365775000E9    -2.198492432466740E-1   -5.390270827558551E-3    1.845604791347477E-2   -1.083747801626385E-2    1.888575021013098E-2   -1.041840084751220E-2    2.677198444051994E-1    4.792529337027406E-1
 6.517877917100000E9    -2.197195154295442E-1   -5.322663133525402E-3    1.855504411560745E-2   -1.098070393717236E-2    1.893784415664911E-2   -1.047870658351015E-2    2.684812273433175E-1    4.787145792696063E-1
 6.517889468425000E9    -2.194707238995333E-1   -5.279578302391694E-3    1.864097716441679E-2   -1.126634369273779E-2    1.893565468221527E-2   -1.065519449766670E-2    2.694802286627995E-1    4.784091952979032E-1
 6.517901019750000E9    -2.192336730336300E-1   -5.087117164338730E-3    1.874945065634312E-2   -1.139967015725500E-2    1.911418311350955E-2   -1.077778642904837E-2    2.700506362585610E-1    4.778496664762754E-1
 6.517912571075000E9    -2.192338120378966E-1   -5.021966574254935E-3    1.903590802913523E-2   -1.161163691737605E-2    1.925290334816526E-2   -1.102457912661467E-2    2.711738263323030E-1    4.772967109056815E-1
 6.517924122400000E9    -2.188849796960086E-1   -5.033017355751369E-3    1.903233027278710E-2   -1.160498899677250E-2    1.937178030741638E-2   -1.100584721367379E-2    2.719110965098372E-1    4.767868815929507E-1
 6.517935673725000E9    -2.186302664765962E-1   -4.791127113849807E-3    1.900729684277766E-2   -1.181799715268364E-2    1.942214418125248E-2   -1.119177057358674E-2    2.727137719569920E-1    4.762487111874554E-1
 6.517947225050000E9    -2.185281361883493E-1   -4.796868268981164E-3    1.920764853025627E-2   -1.203721015394410E-2    1.953039382473534E-2   -1.139273602311421E-2    2.736762467383203E-1    4.758910506782950E-1
 6.517958776375000E9    -2.181665876456365E-1   -4.638974100252164E-3    1.928180085442742E-2   -1.229365095740644E-2    1.977523309143824E-2   -1.141766735902442E-2    2.745283738787707E-1    4.753821016139401E-1
 6.517970327700000E9    -2.180026806530361E-1   -4.557281656199246E-3    1.935502697548406E-2   -1.217959044459275E-2    1.982339605979718E-2   -1.165713361563694E-2    2.753617006749298E-1    4.750073270968652E-1
 6.517981879025000E9    -2.178765259217067E-1   -4.554675482282009E-3    1.971322192036836E-2   -1.235328670870399E-2    1.991390562531120E-2   -1.169902376379634E-2    2.762469601169472E-1    4.743169059635411E-1
 6.517993430350000E9    -2.175658562010772E-1   -4.404732837781930E-3    1.965645159216192E-2   -1.249797206311430E-2    2.009134119518753E-2   -1.181921070521477E-2    2.771395822271198E-1    4.738453316842474E-1
 6.518004981675000E9    -2.173071785049929E-1   -4.313870103684930E-3    1.970599969909231E-2   -1.266425484450760E-2    2.017427561029895E-2   -1.207193309585658E-2    2.778132334237891E-1    4.731682749930780E-1
 6.518016533000000E9    -2.170782559092385E-1   -4.312930457736173E-3    2.000603167697674E-2   -1.282411134175978E-2    2.033398699638761E-2   -1.216894100699989E-2    2.789504628482705E-1    4.726989074003189E-1
 6.518028084325000E9    -2.169395790945812E-1   -4.274687523995168E-3    2.014861951592233E-2   -1.299251961035917E-2    2.043476547094423E-2   -1.234196254981483E-2    2.796003472963972E-1    4.720785304025004E-1
 6.518039635650000E9    -2.167036457704322E-1   -4.223224143354257E-3    2.015862978888446E-2   -1.312232818358849E-2    2.073756033499718E-2   -1.257100764844515E-2    2.805320386202178E-1    4.716931673375889E-1
 6.518051186975000E9    -2.164911249540219E-1   -4.147267005181799E-3    2.040206561157874E-2   -1.328629778904835E-2    2.070514470908289E-2   -1.260368717750573E-2    2.814044150119081E-1    4.711181436818843E-1
 6.518062738300000E9    -2.162206999686941E-1   -4.078816974997056E-3    2.048245381698206E-2   -1.349428584221514E-2    2.083267571474522E-2   -1.283360164273914E-2    2.821744403800560E-1    4.706261239946715E-1
 6.518074289625000E9    -2.160068341989118E-1   -3.967989865652904E-3    2.059992264341378E-2   -1.349269429159794E-2    2.104714068128600E-2   -1.298378787108790E-2    2.831355696307605E-1    4.697670470666895E-1
 6.518085840950000E9    -2.158059799628216E-1   -3.867422102552311E-3    2.093460025021961E-2   -1.384439977267959E-2    2.120178916303896E-2   -1.322956887177378E-2    2.840753633965226E-1    4.694602408837927E-1
 6.518097392275000E9    -2.156279327954503E-1   -3.916592067318895E-3    2.088163637100011E-2   -1.387620391952927E-2    2.124893163366654E-2   -1.328530703988080E-2    2.848917328795456E-1    4.688498100834388E-1
 6.518108943600000E9    -2.152629822540837E-1   -3.931351703339295E-3    2.097738642551057E-2   -1.422697746925810E-2    2.149046275507532E-2   -1.348813979737497E-2    2.855867195958502E-1    4.682282425718186E-1
 6.518120494925000E9    -2.151339991071552E-1   -3.813789333526754E-3    2.111676501665942E-2   -1.426325903322283E-2    2.160598087210114E-2   -1.370950994336056E-2    2.867167145909122E-1    4.676408399064133E-1
 6.518132046250000E9    -2.148165644469682E-1   -3.831645618002803E-3    2.136191687054380E-2   -1.450865274248560E-2    2.168582987313414E-2   -1.395054965152871E-2    2.874976587041865E-1    4.671450674148302E-1
