#  HZ   S   RI   R     50.00 
! Rohde & Schwarz Vector Network Analyzer 
! Rohde-Schwarz,ZNB20-2Port,1311601062101988,3.16
! Created: UTC 12/23/2023, 4:05:16 AM
! freq[Hz]                re:S11                  im:S11                  re:S21                  im:S21                  re:S12                  im:S12                  re:S22                  im:S22
 6.517247535000000E9    -2.287859922421513E-1   -1.163682294284354E-2    1.375522380794651E-2   -5.982173138013458E-3    1.395878797122113E-2   -5.579940473074542E-3    2.209287471430276E-1    5.023267518148582E-1
 6.517258704800000E9    -2.286954171329270E-1   -1.143382843737349E-2    1.387843252038507E-2   -6.008474328213114E-3    1.402354537068134E-2   -5.543582422373524E-3    2.216999747837346E-1    5.020000823756600E-1
 6.517269874600000E9    -2.285640345013991E-1   -1.128355182808106E-2    1.388340754459882E-2   -6.183937622605277E-3    1.409084183269332E-2   -5.613064091239788E-3    2.225663655085914E-1    5.014893392469871E-1
 6.517281044400000E9    -2.283895730040257E-1   -1.106152194963354E-2    1.387350524516812E-2   -6.095447664653552E-3    1.414827180118763E-2   -5.831463132169409E-3    2.234459773778109E-1    5.013732422447450E-1
 6.517292214200000E9    -2.283186559189064E-1   -1.093644462046597E-2    1.404816174547740E-2   -6.245853535009528E-3    1.409935111197051E-2   -5.766959737259326E-3    2.242198343042825E-1    5.009475326498097E-1
 6.517303384000000E9    -2.282009662782168E-1   -1.074809188212426E-2    1.409394700036071E-2   -6.236131840796936E-3    1.417665723350255E-2   -5.760602674963566E-3    2.250737405975407E-1    5.004977566280646E-1
 6.517314553800000E9    -2.279835544527820E-1   -1.062832027708129E-2    1.420492272970036E-2   -6.340986259184152E-3    1.423984079178096E-2   -5.922920954449339E-3    2.259792998728225E-1    5.001027516691657E-1
 6.517325723600000E9    -2.278953167379812E-1   -1.044422249784093E-2    1.411259265906237E-2   -6.485214002302963E-3    1.437640825381506E-2   -5.971705618894969E-3    2.267592110197147E-1    4.998258534405995E-1
 6.517336893400000E9    -2.278516704841934E-1   -1.031047151515437E-2    1.423260103272300E-2   -6.427682844472007E-3    1.443716500982770E-2   -5.969180004358161E-3    2.276092434025037E-1    4.995219186477048E-1
 6.517348063200000E9    -2.276621349832903E-1   -1.011208102120605E-2    1.428870692149156E-2   -6.512687432941847E-3    1.459268315597477E-2   -6.079392767557009E-3    2.282618245826928E-1    4.990686890125544E-1
 6.517359233000000E9    -2.274955343394569E-1   -9.980063729058663E-3    1.447460333942967E-2   -6.567660836558106E-3    1.446513394520681E-2   -6.124338368293766E-3    2.291988002390241E-1    4.986847094213170E-1
 6.517370402800000E9    -2.274135348839284E-1   -9.693879900713104E-3    1.450588084348568E-2   -6.574280187244399E-3    1.458859533260032E-2   -6.203154020362109E-3    2.299252305313745E-1    4.982731687921649E-1
 6.517381572600000E9    -2.272798218618167E-1   -9.655798468082349E-3    1.449210016842665E-2   -6.801492579674693E-3    1.461680134934378E-2   -6.198981198988142E-3    2.307684600944623E-1    4.979329050742254E-1
 6.517392742400000E9    -2.271673137800986E-1   -9.542512208995695E-3    1.453522923644110E-2   -6.777769319481366E-3    1.463112757054988E-2   -6.259782461404896E-3    2.315566315790402E-1    4.976081114121202E-1
 6.517403912200000E9    -2.269094610848775E-1   -9.396400713079687E-3    1.450785032743984E-2   -6.977160605686876E-3    1.482549689241704E-2   -6.379882031329555E-3    2.323594528463899E-1    4.971378618135779E-1
 6.517415082000000E9    -2.268842497169956E-1   -9.044260412968342E-3    1.470097854497298E-2   -6.934689241069953E-3    1.485333904597103E-2   -6.465112685793447E-3    2.331906540923014E-1    4.968617395916186E-1
 6.517426251800000E9    -2.267667756183749E-1   -9.046398496375377E-3    1.476231411143800E-2   -6.956544204536021E-3    1.479980742556536E-2   -6.483083181154674E-3    2.340197167139342E-1    4.965499751520204E-1
 6.517437421600000E9    -2.266604958572198E-1   -8.869198036094919E-3    1.480954179152676E-2   -7.061616596601521E-3    1.500868743891078E-2   -6.537896833201677E-3    2.348440090241049E-1    4.961386713036920E-1
 6.517448591400000E9    -2.264860242756572E-1   -8.738996128887290E-3    1.483839323172118E-2   -7.090839294820979E-3    1.492742862631138E-2   -6.668485710810099E-3    2.358522540673100E-1    4.956712810280526E-1
 6.517459761200000E9    -2.263548418238495E-1   -8.560873302650929E-3    1.488564606205948E-2   -7.243451875455559E-3    1.506474717544136E-2   -6.728131777964857E-3    2.365097297370115E-1    4.952682093240600E-1
 6.517470931000000E9    -2.261711728545169E-1   -8.414026708290258E-3    1.490174249894862E-2   -7.252908194738010E-3    1.513637686228847E-2   -6.725759084337170E-3    2.373225257499387E-1    4.949413458156177E-1
 6.517482100800000E9    -2.260152932247738E-1   -8.392770031041722E-3    1.498910957593149E-2   -7.334314981717640E-3    1.531419486860148E-2   -6.776199369717153E-3    2.382980898531294E-1    4.946437643460267E-1
 6.517493270600000E9    -2.259868964357580E-1   -8.081297689924671E-3    1.519164622788288E-2   -7.329796293892711E-3    1.535726541424022E-2   -6.862075829866501E-3    2.389977284783972E-1    4.942866752394468E-1
 6.517504440400000E9    -2.258983017259379E-1   -8.028318530965277E-3    1.523890952476732E-2   -7.454605055675096E-3    1.539179402798783E-2   -6.972672790558650E-3    2.398303814101512E-1    4.937526892744919E-1
 6.517515610200000E9    -2.257165017100480E-1   -7.737354269107561E-3    1.521780421225289E-2   -7.515542469195678E-3    1.551492372502542E-2   -7.034568616966311E-3    2.405875254756039E-1    4.934314660823121E-1
 6.517526780000000E9    -2.255251491642846E-1   -7.697418281187463E-3    1.541056245143081E-2   -7.615863501796585E-3    1.550827832856554E-2   -7.032542368886645E-3    2.414475005767132E-1    4.930603503982461E-1
 6.517537949800000E9    -2.253819763466710E-1   -7.532752320224761E-3    1.531037792305845E-2   -7.657881351876636E-3    1.557922727817500E-2   -7.116025809611884E-3    2.423603867124136E-1    4.926976357916281E-1
 6.517549119600000E9    -2.252398771789364E-1   -7.304644266948011E-3    1.548546899334940E-2   -7.684046917105268E-3    1.574138032459880E-2   -7.180590728143379E-3    2.430134302814918E-1    4.921796282599886E-1
 6.517560289400000E9    -2.250218220960513E-1   -7.182311125656377E-3    1.539582175579033E-2   -7.729455229523907E-3    1.580203889880509E-2   -7.337338130521468E-3    2.438926294637796E-1    4.918951341621430E-1
 6.517571459200000E9    -2.248562408237456E-1   -7.046935404890439E-3    1.561230871651895E-2   -7.818648840718504E-3    1.579482889520388E-2   -7.268896268723478E-3    2.447562953013584E-1    4.914912912357808E-1
 6.517582629000000E9    -2.247031555666666E-1   -6.966462133299008E-3    1.565466594221786E-2   -7.936303893315925E-3    1.607821300640933E-2   -7.552697111769113E-3    2.453824153761673E-1    4.910295455928593E-1
 6.517593798800000E9    -2.245946312224634E-1   -6.810457646210669E-3    1.578201350375112E-2   -8.006109047655877E-3    1.599948623165010E-2   -7.553793589152622E-3    2.463754023252434E-1    4.905622337218293E-1
 6.517604968600000E9    -2.244439076523856E-1   -6.546944870592332E-3    1.570356437445804E-2   -8.123327221773054E-3    1.600314482417485E-2   -7.575659397064671E-3    2.470911319003197E-1    4.903319500228273E-1
 6.517616138400000E9    -2.243147121615780E-1   -6.402511462156663E-3    1.580204590128783E-2   -8.256027257522889E-3    1.609828685616535E-2   -7.749978910137783E-3    2.480324403305060E-1    4.898152442030519E-1
 6.517627308200000E9    -2.241349706798598E-1   -6.339429308472319E-3    1.593426852143690E-2   -8.178482544428902E-3    1.613344333549887E-2   -7.766177541023207E-3    2.487620952396463E-1    4.894312662267772E-1
 6.517638478000000E9    -2.240356551524927E-1   -6.188923836814194E-3    1.613548283967958E-2   -8.412322137340349E-3    1.626303206724310E-2   -7.872090861152455E-3    2.495650554698824E-1    4.890269577070351E-1
 6.517649647800000E9    -2.237846713414251E-1   -6.112198919459041E-3    1.614876252779041E-2   -8.279319033808191E-3    1.633063178062436E-2   -7.900844620731434E-3    2.503405208473222E-1    4.886835790408001E-1
 6.517660817600000E9    -2.237385275024999E-1   -5.876888739770891E-3    1.605077327231761E-2   -8.453521031338085E-3    1.650448864179948E-2   -7.944222632624939E-3    2.511294980043888E-1    4.881571223740117E-1
 6.517671987400000E9    -2.236144361606476E-1   -5.814842933684067E-3    1.624358572595580E-2   -8.659362389544695E-3    1.656775999299303E-2   -8.101479602257511E-3    2.521565306819218E-1    4.876578539281708E-1
 6.517683157200000E9    -2.234142793331023E-1   -5.690473133032291E-3    1.633452966806867E-2   -8.672467312226938E-3    1.659749655384242E-2   -8.027099162790456E-3    2.529435218383398E-1    4.873626451878197E-1
 6.517694327000000E9    -2.232705536460156E-1   -5.674272430748052E-3    1.642730199225927E-2   -8.724545349921311E-3    1.669091161551959E-2   -8.228445339662783E-3    2.539140790514067E-1    4.869050004989681E-1
 6.517705496800000E9    -2.230810587340070E-1   -5.396571365038062E-3    1.660728850632177E-2   -8.892336138461328E-3    1.677768121707551E-2   -8.301931039997908E-3    2.545689384916169E-1    4.864967984589863E-1
 6.517716666600000E9    -2.229937033337435E-1   -5.290714835594944E-3    1.662927413067279E-2   -8.970587951854066E-3    1.687952187777387E-2   -8.412313239054685E-3    2.553476549238765E-1    4.861705394724233E-1
 6.517727836400000E9    -2.227446438208325E-1   -5.113335857005893E-3    1.667827330476837E-2   -8.956332147877985E-3    1.681373818140062E-2   -8.502540929869830E-3    2.562161424401623E-1    4.857231085928915E-1
 6.517739006200000E9    -2.225870546963106E-1   -5.189270137683196E-3    1.676968333772248E-2   -9.129587325041441E-3    1.699372666734932E-2   -8.491796856955895E-3    2.570055697961289E-1    4.851557221544541E-1
 6.517750176000000E9    -2.224902519809463E-1   -4.912663591419743E-3    1.686943282828215E-2   -9.377317234971219E-3    1.698487820294976E-2   -8.761285385081518E-3    2.579282954003498E-1    4.849308698463115E-1
 6.517761345800000E9    -2.222311634143084E-1   -4.775781386037760E-3    1.687801575620420E-2   -9.509953358668945E-3    1.720041904740096E-2   -8.800339877248610E-3    2.586002788188743E-1    4.843600698644900E-1
 6.517772515600000E9    -2.221777848140796E-1   -4.677217947146767E-3    1.708198645303951E-2   -9.412363966616401E-3    1.734086763863807E-2   -8.839213144652315E-3    2.596098720770891E-1    4.840350561831652E-1
 6.517783685400000E9    -2.218929134513573E-1   -4.596774389786864E-3    1.720740273176333E-2   -9.591640159606367E-3    1.746074091185580E-2   -9.022632487998606E-3    2.602989617014512E-1    4.835222963938143E-1
 6.517794855200000E9    -2.217796915204970E-1   -4.468977629837569E-3    1.714129681442019E-2   -9.509666175042585E-3    1.742815182370345E-2   -9.112451069726923E-3    2.611275095462775E-1    4.830777825307968E-1
 6.517806025000000E9    -2.215766109282316E-1   -4.150235705549839E-3    1.718956485575805E-2   -9.765297341989524E-3    1.752527041670849E-2   -9.172184334573372E-3    2.620236120037003E-1    4.825244516190976E-1
 6.517817194800000E9    -2.214306879972376E-1   -4.160173736604060E-3    1.735880069265625E-2   -9.959312153483410E-3    1.769840470044257E-2   -9.276294814953354E-3    2.628588558598125E-1    4.821226840861235E-1
 6.517828364600000E9    -2.212127790213353E-1   -4.162064806634507E-3    1.744883266021260E-2   -9.869057522932280E-3    1.777531559931164E-2   -9.277990830356008E-3    2.636762525091672E-1    4.815569203438030E-1
 6.517839534400000E9    -2.210849083686018E-1   -3.998580297860326E-3    1.764593649245599E-2   -1.000155217585491E-2    1.790376500980136E-2   -9.461223059543460E-3    2.643607260741671E-1    4.811800158836885E-1
 6.517850704200000E9    -2.208184846904414E-1   -3.816862909067611E-3    1.767492848572142E-2   -1.019523146982482E-2    1.793337303472364E-2   -9.490421764646432E-3    2.652875595552102E-1    4.808108718727823E-1
 6.517861874000000E9    -2.207088001709736E-1   -3.740088504505237E-3    1.773704620714313E-2   -1.034560154983676E-2    1.807210432133012E-2   -9.611879283125029E-3    2.661424538489237E-1    4.802334105158108E-1
 6.517873043800000E9    -2.204360917861667E-1   -3.639686376874351E-3    1.768458793451470E-2   -1.023365062210515E-2    1.810498162557907E-2   -9.758582659830581E-3    2.667841779727680E-1    4.797748376579046E-1
 6.517884213600000E9    -2.202975356549017E-1   -3.491677977677777E-3    1.796514137247086E-2   -1.040869375856552E-2    1.826555645072762E-2   -9.907637694609077E-3    2.677473039144132E-1    4.794141827499337E-1
 6.517895383400000E9    -2.201376420634534E-1   -3.415313495483684E-3    1.803314551663851E-2   -1.063156235403892E-2    1.832192273627948E-2   -1.005065662034885E-2    2.686359191364684E-1    4.789509064617931E-1
 6.517906553200000E9    -2.198729838955857E-1   -3.311051239962262E-3    1.817383178185150E-2   -1.067102731827819E-2    1.844693974142137E-2   -1.007479295000293E-2    2.693538062617679E-1    4.785752885557935E-1
 6.517917723000000E9    -2.197015216477541E-1   -3.224380727235982E-3    1.815342091860487E-2   -1.063271780366517E-2    1.848604308592833E-2   -1.025795238733342E-2    2.701916952939911E-1    4.779956454163132E-1
 6.517928892800000E9    -2.195684991106770E-1   -3.207661579351935E-3    1.825888521392829E-2   -1.094369370621816E-2    1.860402488345045E-2   -1.028634026162502E-2    2.710180122159636E-1    4.774271707568096E-1
 6.517940062600000E9    -2.193394074399174E-1   -3.042743372076397E-3    1.844101593391666E-2   -1.107245218861279E-2    1.873221970262239E-2   -1.043858292586886E-2    2.719159289548758E-1    4.770500520727589E-1
 6.517951232400000E9    -2.191561486082143E-1   -2.993374261531113E-3    1.855688120796048E-2   -1.132979810888396E-2    1.895547224647707E-2   -1.049300934525597E-2    2.726363261786119E-1    4.765068301810236E-1
 6.517962402200000E9    -2.189668685232965E-1   -2.821271078261389E-3    1.866100738573575E-2   -1.121174428802121E-2    1.900469416642424E-2   -1.063195663585353E-2    2.734801531669062E-1    4.761594461284606E-1
 6.517973572000000E9    -2.187710678797962E-1   -2.846503571829682E-3    1.883906309500953E-2   -1.135043291739165E-2    1.913134788282643E-2   -1.081388154863793E-2    2.744064900058433E-1    4.756344300679813E-1
 6.517984741800000E9    -2.185469790033055E-1   -2.560864669697237E-3    1.873075579525528E-2   -1.158067663973800E-2    1.920337606595360E-2   -1.096706980595777E-2    2.751598099141225E-1    4.750706934563579E-1
 6.517995911600000E9    -2.182671799917065E-1   -2.517373585801741E-3    1.902096920334153E-2   -1.168051297628547E-2    1.927903416878859E-2   -1.113225742272470E-2    2.759852846492291E-1    4.744985405672437E-1
 6.518007081400000E9    -2.182208095315835E-1   -2.440959981981059E-3    1.904610401020883E-2   -1.162386358017130E-2    1.950071520099204E-2   -1.123495262690635E-2    2.767502259648708E-1    4.740235464463998E-1
 6.518018251200000E9    -2.179386463758435E-1   -2.422449978195429E-3    1.917669109161339E-2   -1.180473088255893E-2    1.943187624280424E-2   -1.135750379637078E-2    2.775787164204445E-1    4.735839117728894E-1
 6.518029421000000E9    -2.177439966457680E-1   -2.381299201929879E-3    1.927043277043774E-2   -1.209758682885985E-2    1.962499505166072E-2   -1.143785390152622E-2    2.783960534675989E-1    4.731012312281648E-1
 6.518040590800000E9    -2.176610084667992E-1   -2.277660225301865E-3    1.942543695662148E-2   -1.227632604648016E-2    1.986744421866999E-2   -1.158511530907959E-2    2.793578970332926E-1    4.726089864119765E-1
 6.518051760600000E9    -2.173221903637712E-1   -2.088291667521521E-3    1.944887059498700E-2   -1.229639597567761E-2    2.003728588561294E-2   -1.163242766563583E-2    2.801435794450065E-1    4.720082246932039E-1
 6.518062930400000E9    -2.171017870842398E-1   -2.149083727986250E-3    1.961639921539325E-2   -1.251860156536218E-2    2.009933209292143E-2   -1.185084134473259E-2    2.809051835095663E-1    4.714993196503354E-1
 6.518074100200000E9    -2.168218133720222E-1   -2.046304692638107E-3    1.968427926827259E-2   -1.260540606826127E-2    2.018895500059664E-2   -1.197293236953107E-2    2.817297182391256E-1    4.708929076137428E-1
 6.518085270000000E9    -2.167928745635954E-1   -1.985278489764000E-3    1.984269801543205E-2   -1.277805113498343E-2    2.027630171608568E-2   -1.214027929795986E-2    2.825246015282799E-1    4.706521073624110E-1
 6.518096439800000E9    -2.164631631007270E-1   -1.819783499620943E-3    1.988381467932699E-2   -1.292773629223291E-2    2.024128148692223E-2   -1.223859857245025E-2    2.834525958859407E-1    4.700665437875445E-1
 6.518107609600000E9    -2.163318558021356E-1   -1.796252753033469E-3    1.992929236044814E-2   -1.302877926047727E-2    2.051492642165717E-2   -1.241498302604497E-2    2.842660696944249E-1    4.695028677476173E-1
 6.518118779400000E9    -2.159690063217053E-1   -1.656862529265768E-3    2.033586496817341E-2   -1.316367761430023E-2    2.068005539079109E-2   -1.259279887481969E-2    2.851763271644734E-1    4.690059479107533E-1
 6.518129949200000E9    -2.158795729391094E-1   -1.737830242540022E-3    2.029145822798499E-2   -1.324194135359172E-2    2.082434783830990E-2   -1.274903758558919E-2    2.858998912178951E-1    4.684663985155545E-1
 6.518141119000000E9    -2.155135224902180E-1   -1.709212813554328E-3    2.050330484743106E-2   -1.351597085466298E-2    2.094719711402921E-2   -1.291349813385842E-2    2.867773372427035E-1    4.678989273800997E-1
 6.518152288800000E9    -2.153026572257522E-1   -1.581045344337815E-3    2.060341170724708E-2   -1.352924877856611E-2    2.107941004714548E-2   -1.295468186832713E-2    2.875324269168543E-1    4.673296261539608E-1
 6.518163458600000E9    -2.150421827585006E-1   -1.590432632997714E-3    2.069793273061455E-2   -1.384502992979439E-2    2.114531646488840E-2   -1.310623756405405E-2    2.884716691536711E-1    4.668972104285083E-1
 6.518174628400000E9    -2.148819646120377E-1   -1.575964778681920E-3    2.081593587926010E-2   -1.406192263644168E-2    2.128123235488369E-2   -1.345162303953240E-2    2.892779912755095E-1    4.661729582119814E-1
 6.518185798200000E9    -2.146657021685330E-1   -1.544739669821948E-3    2.090585450073387E-2   -1.422725622687357E-2    2.138789669804611E-2   -1.352087799196792E-2    2.900919664103321E-1    4.657871666385514E-1
 6.518196968000000E9    -2.143617677541992E-1   -1.424607419569923E-3    2.107684696411854E-2   -1.439242752520622E-2    2.159779678840917E-2   -1.369536802272116E-2    2.909323581456903E-1    4.651542552155067E-1
 6.518208137800000E9    -2.140398995111260E-1   -1.476444958858405E-3    2.120187353937547E-2   -1.449653639659242E-2    2.163576504413353E-2   -1.385932630322198E-2    2.917348384532276E-1    4.646278767129722E-1
 6.518219307600000E9    -2.138902502651650E-1   -1.451036128493803E-3    2.148246302243132E-2   -1.471669606136129E-2    2.185503566394355E-2   -1.399219341209304E-2    2.926781726434926E-1    4.640186311374052E-1
 6.518230477400000E9    -2.136071419555194E-1   -1.401174196816510E-3    2.158731120273831E-2   -1.490189867046570E-2    2.198897382360855E-2   -1.420976963705532E-2    2.933813077196746E-1    4.634189192218360E-1
 6.518241647200000E9    -2.133564886509500E-1   -1.257859164957399E-3    2.179910058728782E-2   -1.515203313547641E-2    2.211459768931554E-2   -1.443316188393365E-2    2.943294054801686E-1    4.628656393656170E-1
 6.518252817000000E9    -2.131322326499748E-1   -1.461526617389139E-3    2.170833837408689E-2   -1.527828113950881E-2    2.229005155188798E-2   -1.456460171644582E-2    2.951136397812211E-1    4.624576635491718E-1
