#  HZ   S   RI   R     50.00 
! Rohde & Schwarz Vector Network Analyzer 
! Rohde-Schwarz,ZNB20-2Port,1311601062101988,3.16
! Created: UTC 12/23/2023, 3:41:22 AM
! freq[Hz]                re:S11                  im:S11                  re:S21                  im:S21                  re:S12                  im:S12                  re:S22                  im:S22
 6.517036296000000E9    -2.303139147303248E-1   -1.657244188892185E-2    1.341429345081240E-2   -5.421284462802245E-3    1.348655418683218E-2   -5.098839243990752E-3    2.063014120347519E-1    5.081856497962262E-1
 6.517047972725000E9    -2.301721291916108E-1   -1.640962047056229E-2    1.341205213820339E-2   -5.557894302856414E-3    1.352610915933707E-2   -4.967518354366472E-3    2.071546138956829E-1    5.079286210243985E-1
 6.517059649450000E9    -2.300660602967931E-1   -1.615977068635102E-2    1.336657260800409E-2   -5.480339351278119E-3    1.360745287239549E-2   -5.070168416778926E-3    2.080665389570084E-1    5.076096311209307E-1
 6.517071326175000E9    -2.297552220286775E-1   -1.605497740439020E-2    1.354378786947124E-2   -5.665142156484880E-3    1.359408621274721E-2   -5.092079480300303E-3    2.089158523680998E-1    5.071752683546813E-1
 6.517083002900000E9    -2.296854131074302E-1   -1.587658690800740E-2    1.349249656747191E-2   -5.683971761154086E-3    1.356008967427491E-2   -5.286325259546109E-3    2.098327611186335E-1    5.068300733290878E-1
 6.517094679625000E9    -2.297099244540992E-1   -1.574760728086728E-2    1.358025138408574E-2   -5.764420992469568E-3    1.371297509526703E-2   -5.260049339539797E-3    2.105699542878688E-1    5.065283535149372E-1
 6.517106356350000E9    -2.295402989226434E-1   -1.545971500971182E-2    1.363877315243213E-2   -5.805784954743499E-3    1.393219813927662E-2   -5.243621853439336E-3    2.114057077887875E-1    5.060623341089983E-1
 6.517118033075000E9    -2.294603970600319E-1   -1.538065889011801E-2    1.378109455476475E-2   -5.750837753574011E-3    1.386814850443785E-2   -5.292837504582467E-3    2.124574817660765E-1    5.057668161989949E-1
 6.517129709800000E9    -2.292468458528134E-1   -1.511480857424784E-2    1.377609003794796E-2   -5.911458491385208E-3    1.391648617205586E-2   -5.393828860606749E-3    2.132568786263661E-1    5.054621856334114E-1
 6.517141386525000E9    -2.292162908033314E-1   -1.497020821616574E-2    1.391762968458531E-2   -6.083770004544158E-3    1.404774200760423E-2   -5.472368186726979E-3    2.140433862899132E-1    5.050894452184355E-1
 6.517153063250000E9    -2.289125255917171E-1   -1.476861144689539E-2    1.394829861908835E-2   -5.990011386978293E-3    1.399954279401645E-2   -5.520722189378033E-3    2.149683273488807E-1    5.047347974980225E-1
 6.517164739975000E9    -2.289671250785163E-1   -1.457463520508006E-2    1.397301304210827E-2   -5.997512421195519E-3    1.410605805790598E-2   -5.637271656954705E-3    2.157926960609029E-1    5.044157448562071E-1
 6.517176416700000E9    -2.287381342863239E-1   -1.436110701473895E-2    1.406238294805091E-2   -6.132805438695835E-3    1.413457495845525E-2   -5.649875493200092E-3    2.165628496668958E-1    5.041228201308439E-1
 6.517188093425000E9    -2.285633778627131E-1   -1.430928559051396E-2    1.405048800585747E-2   -6.121303125122812E-3    1.422667643959793E-2   -5.664919418543119E-3    2.174561360827956E-1    5.038085111212672E-1
 6.517199770150000E9    -2.285075926989718E-1   -1.409356194260610E-2    1.408327251793482E-2   -6.304860959380309E-3    1.430374667350375E-2   -5.741295030575002E-3    2.185288554241730E-1    5.033738223841744E-1
 6.517211446875000E9    -2.283256672545470E-1   -1.392057502320387E-2    1.410144714330946E-2   -6.314741324070667E-3    1.428407734341052E-2   -5.787961418037040E-3    2.192124176618198E-1    5.031240392679102E-1
 6.517223123600000E9    -2.281698589052152E-1   -1.383135846404268E-2    1.418524508463924E-2   -6.375565410211353E-3    1.446604439766412E-2   -5.915715579537552E-3    2.202423239484522E-1    5.026303070775228E-1
 6.517234800325000E9    -2.281400705773235E-1   -1.347436326418284E-2    1.424442296030168E-2   -6.437686313018645E-3    1.441998314962776E-2   -6.006311063873178E-3    2.209235733270064E-1    5.022782934768220E-1
 6.517246477050000E9    -2.280297580006261E-1   -1.346475689758580E-2    1.447705001076263E-2   -6.453243228650153E-3    1.456317996038053E-2   -6.077925147073130E-3    2.219036432065825E-1    5.018438981278727E-1
 6.517258153775000E9    -2.278516758490903E-1   -1.319375590140567E-2    1.443117695104774E-2   -6.490404964822612E-3    1.459551338781944E-2   -5.990940942977567E-3    2.226730337173664E-1    5.016473531697171E-1
 6.517269830500000E9    -2.277797478950772E-1   -1.307204644400382E-2    1.463424364133926E-2   -6.577722866632732E-3    1.461829432384317E-2   -6.134695791115075E-3    2.235707974951283E-1    5.012009908743100E-1
 6.517281507225000E9    -2.275259495302813E-1   -1.301309663546417E-2    1.458933167119900E-2   -6.663693846785912E-3    1.475927038917671E-2   -6.085804986760940E-3    2.243714614780670E-1    5.007835531687201E-1
 6.517293183950000E9    -2.274864470282672E-1   -1.276222026886007E-2    1.473318003967941E-2   -6.811661313898263E-3    1.473034003991598E-2   -6.223482101060398E-3    2.252775027231443E-1    5.005505796889378E-1
 6.517304860675000E9    -2.273008630909687E-1   -1.253499318710681E-2    1.469371471913341E-2   -6.740454302724093E-3    1.483807226885227E-2   -6.237882111299184E-3    2.261572211510108E-1    5.000180660224266E-1
 6.517316537400000E9    -2.271931888983479E-1   -1.237628030215534E-2    1.470052269292833E-2   -6.777215865535862E-3    1.491009284084394E-2   -6.377402548788766E-3    2.269979483580849E-1    4.996724970696117E-1
 6.517328214125000E9    -2.270341423526801E-1   -1.225479126163326E-2    1.499051412730069E-2   -7.008259875562248E-3    1.503213169677470E-2   -6.409597564713984E-3    2.277746585022110E-1    4.992624198864618E-1
 6.517339890850000E9    -2.268105596950051E-1   -1.204338901321132E-2    1.492220896899607E-2   -7.007607654465215E-3    1.507035660849497E-2   -6.468822535900249E-3    2.287979813544967E-1    4.988088011332284E-1
 6.517351567575000E9    -2.267968438906554E-1   -1.198866445587453E-2    1.495705335176978E-2   -7.091817401975503E-3    1.524443701641274E-2   -6.583891826428388E-3    2.296383597526260E-1    4.985059706054155E-1
 6.517363244300000E9    -2.266911565240028E-1   -1.177945834281379E-2    1.505366023039043E-2   -7.188100260388814E-3    1.524200634497675E-2   -6.572144173006398E-3    2.303685684121068E-1    4.980135386762648E-1
 6.517374921025000E9    -2.264319958185171E-1   -1.153886644161240E-2    1.500033122181924E-2   -7.184444137350730E-3    1.532461527937379E-2   -6.729673408237625E-3    2.313196572539827E-1    4.976314565499835E-1
 6.517386597750000E9    -2.264574836085117E-1   -1.142871376832795E-2    1.514050777204868E-2   -7.224669600560841E-3    1.531606886338177E-2   -6.809912761279068E-3    2.321509130285104E-1    4.972412402253449E-1
 6.517398274475000E9    -2.261530932971464E-1   -1.120324674286179E-2    1.519070519057169E-2   -7.493708057225858E-3    1.545767590378360E-2   -6.850443916192505E-3    2.329457845884084E-1    4.970675811869656E-1
 6.517409951200000E9    -2.260600482030190E-1   -1.107285770932887E-2    1.530504040125260E-2   -7.488997220798040E-3    1.563989470889801E-2   -6.788246777638775E-3    2.340044230234941E-1    4.964851250875149E-1
 6.517421627925000E9    -2.259044033266975E-1   -1.091396174759510E-2    1.540785184772385E-2   -7.584551112258509E-3    1.560851740141945E-2   -7.023302162785373E-3    2.347050898572720E-1    4.960887360821738E-1
 6.517433304650000E9    -2.257867338053969E-1   -1.080252435407865E-2    1.548078503454240E-2   -7.634113760333734E-3    1.564293366920137E-2   -7.037922359783792E-3    2.355369259613070E-1    4.957261214419238E-1
 6.517444981375000E9    -2.257034702948880E-1   -1.055940853626655E-2    1.552781456275168E-2   -7.678825479237563E-3    1.592357846761755E-2   -7.116083142619573E-3    2.364991928758498E-1    4.953178291759367E-1
 6.517456658100000E9    -2.255027275968179E-1   -1.054731646682794E-2    1.571970255410133E-2   -7.743540664012921E-3    1.592412849878607E-2   -7.194158642457844E-3    2.373733084078587E-1    4.949268968207879E-1
 6.517468334825000E9    -2.252295314825757E-1   -1.034461226425476E-2    1.573055055615948E-2   -7.898247853419587E-3    1.585184991364306E-2   -7.279706346106622E-3    2.381558234593047E-1    4.944872439733378E-1
 6.517480011550000E9    -2.252263558200079E-1   -1.016791331544112E-2    1.569169602770515E-2   -7.864172362779510E-3    1.599744485682703E-2   -7.324396997086153E-3    2.390809311210108E-1    4.939349279128955E-1
 6.517491688275000E9    -2.249723760752398E-1   -1.005063758987472E-2    1.585846888873790E-2   -7.899294286789579E-3    1.610584437752767E-2   -7.475923163964261E-3    2.399184982002723E-1    4.937477439654870E-1
 6.517503365000000E9    -2.247787290206314E-1   -9.943666068299778E-3    1.579160142517419E-2   -8.272298798166110E-3    1.610120143162087E-2   -7.533413926453331E-3    2.408670415231004E-1    4.932239977396807E-1
 6.517515041725000E9    -2.247647043020024E-1   -9.711305708814042E-3    1.592421174608444E-2   -8.253755226311190E-3    1.616583190265823E-2   -7.660561012575466E-3    2.417137566254278E-1    4.927648428837993E-1
 6.517526718450000E9    -2.245064715741459E-1   -9.573185825525792E-3    1.608948740264996E-2   -8.205455252792922E-3    1.629208946724222E-2   -7.700920309836212E-3    2.424996984458936E-1    4.924058900385981E-1
 6.517538395175000E9    -2.243310178973584E-1   -9.501523530440561E-3    1.612910979612407E-2   -8.358850416175271E-3    1.636287410602534E-2   -7.672067565176265E-3    2.434037420209601E-1    4.919643348558684E-1
 6.517550071900000E9    -2.242544454409651E-1   -9.454809351798857E-3    1.619133112807997E-2   -8.399733947750704E-3    1.644278957574435E-2   -7.939911168296230E-3    2.442859447784634E-1    4.916254134021599E-1
 6.517561748625000E9    -2.240398846973376E-1   -9.229268920105598E-3    1.628202289843642E-2   -8.582219100431636E-3    1.649381797982608E-2   -7.926424914878903E-3    2.451565036436595E-1    4.912132298698350E-1
 6.517573425350000E9    -2.239082025171371E-1   -9.012909344156373E-3    1.640895870233038E-2   -8.524132806576384E-3    1.675927948345388E-2   -8.028513322706592E-3    2.460687961597678E-1    4.905070519080695E-1
 6.517585102075000E9    -2.236845130369148E-1   -8.966106425265487E-3    1.645275366035111E-2   -8.535452745260739E-3    1.665069534499120E-2   -8.187026785346423E-3    2.469005096967335E-1    4.902959715594488E-1
 6.517596778800000E9    -2.235392962261642E-1   -8.770308876799995E-3    1.654512215159842E-2   -8.852635974192374E-3    1.678695494661509E-2   -8.193726700793134E-3    2.476889707088638E-1    4.898431857271625E-1
 6.517608455525000E9    -2.234779977003237E-1   -8.667420424011318E-3    1.655207451577890E-2   -8.862803210980269E-3    1.691757830849584E-2   -8.304299183971150E-3    2.484635438091590E-1    4.894459109511018E-1
 6.517620132250000E9    -2.232398495231593E-1   -8.409458765499207E-3    1.652767094681977E-2   -9.003281225533488E-3    1.705316870492161E-2   -8.345705493530080E-3    2.495332416055402E-1    4.889840188219695E-1
 6.517631808975000E9    -2.231611273023794E-1   -8.340767307190368E-3    1.688841044109408E-2   -8.984670387119175E-3    1.706660436428150E-2   -8.497877787923314E-3    2.503196293924548E-1    4.884907230572516E-1
 6.517643485700000E9    -2.229312038723659E-1   -8.255775356113750E-3    1.682629884498466E-2   -9.187805372895902E-3    1.726114645321715E-2   -8.503983730825218E-3    2.512489715270599E-1    4.880834812271144E-1
 6.517655162425000E9    -2.227257975548999E-1   -8.203934832723287E-3    1.704293014019816E-2   -9.173180385785207E-3    1.728713777776111E-2   -8.666159454071639E-3    2.521544885263942E-1    4.876442100836064E-1
 6.517666839150000E9    -2.225686575649707E-1   -7.887016367967315E-3    1.714811493297945E-2   -9.394422237154249E-3    1.728926123439056E-2   -8.779204619793474E-3    2.527083318000051E-1    4.872199951420248E-1
 6.517678515875000E9    -2.223828889884298E-1   -7.717507971656652E-3    1.716076796197021E-2   -9.369785860361426E-3    1.742872491850633E-2   -8.836468673607538E-3    2.538907116578700E-1    4.867583126842155E-1
 6.517690192600000E9    -2.221935557566698E-1   -7.767332892744064E-3    1.727933082382734E-2   -9.582610637471385E-3    1.755822032667506E-2   -9.015233885869979E-3    2.547209333062542E-1    4.861889874976167E-1
 6.517701869325000E9    -2.219949241494721E-1   -7.592067623635465E-3    1.725783109760079E-2   -9.699571015406439E-3    1.761825794130513E-2   -9.039845409512762E-3    2.556245981382226E-1    4.858587133408960E-1
 6.517713546050000E9    -2.217425223452361E-1   -7.526980975537747E-3    1.728465885787862E-2   -9.688077755597923E-3    1.768996366811735E-2   -9.108748186430997E-3    2.564241355356197E-1    4.853326508174234E-1
 6.517725222775000E9    -2.215710321214215E-1   -7.372292614008577E-3    1.765212194279921E-2   -9.935195110381535E-3    1.784115802467458E-2   -9.267549252949937E-3    2.572301604117962E-1    4.848122315008752E-1
 6.517736899500000E9    -2.213647581707891E-1   -7.192022416735766E-3    1.768685890056503E-2   -1.001496392860457E-2    1.803176262623553E-2   -9.295222427210939E-3    2.580785910271385E-1    4.846077278289492E-1
 6.517748576225000E9    -2.212376586334614E-1   -7.144646940724376E-3    1.791306059009326E-2   -1.012294623853420E-2    1.812875687397322E-2   -9.543777842289778E-3    2.588089057617253E-1    4.839628783264440E-1
 6.517760252950000E9    -2.211312402271611E-1   -6.853176170118627E-3    1.791985791978831E-2   -1.028060737697980E-2    1.813742777738964E-2   -9.684524035363937E-3    2.598331958735151E-1    4.835095773534825E-1
 6.517771929675000E9    -2.208639702235798E-1   -6.950970143226804E-3    1.794288523950522E-2   -1.020139357854845E-2    1.822966056503464E-2   -9.703465103219788E-3    2.606791611827953E-1    4.829715833139250E-1
 6.517783606400000E9    -2.207636423683093E-1   -6.786722215836941E-3    1.808086859275150E-2   -1.054743367418711E-2    1.842387775243731E-2   -9.825246878459173E-3    2.614896687547363E-1    4.825449299716804E-1
 6.517795283125000E9    -2.204554585003518E-1   -6.733722595582759E-3    1.814224740111643E-2   -1.052077452849322E-2    1.846678729256634E-2   -9.999480619830551E-3    2.623768319172419E-1    4.820852647099488E-1
 6.517806959850000E9    -2.203587324646473E-1   -6.591914104303932E-3    1.826090868384708E-2   -1.063436665333103E-2    1.858584545083083E-2   -1.006991111202395E-2    2.632101675785040E-1    4.816042593951300E-1
 6.517818636575000E9    -2.202002529230872E-1   -6.523251753964475E-3    1.836339290282565E-2   -1.075852525228922E-2    1.863827770689061E-2   -1.021286030269412E-2    2.641816004489093E-1    4.810009260075253E-1
 6.517830313300000E9    -2.199087575267022E-1   -6.287515107298200E-3    1.850154562384236E-2   -1.094881366301256E-2    1.882374933259263E-2   -1.034317885654203E-2    2.649671021308385E-1    4.805576294467286E-1
 6.517841990025000E9    -2.198089899614552E-1   -6.123255862629463E-3    1.860399427282533E-2   -1.105612611384086E-2    1.890557377895246E-2   -1.046245287310810E-2    2.659517088528783E-1    4.800390430983558E-1
 6.517853666750000E9    -2.195200444645547E-1   -6.170819419367690E-3    1.881522712901500E-2   -1.124826181553627E-2    1.894470480046305E-2   -1.054707892421685E-2    2.667417288080879E-1    4.796111101033030E-1
 6.517865343475000E9    -2.193111310067668E-1   -5.911084639368636E-3    1.889984876242815E-2   -1.127641019418768E-2    1.905622052182412E-2   -1.060164248997006E-2    2.675696515137606E-1    4.790264735825289E-1
 6.517877020200000E9    -2.191381411205915E-1   -5.988504980914031E-3    1.890431947488616E-2   -1.142655030003546E-2    1.920047965800208E-2   -1.088437202008025E-2    2.685127569101760E-1    4.783488041564133E-1
 6.517888696925000E9    -2.189422818987860E-1   -5.876709700852125E-3    1.896079859287059E-2   -1.159795429676334E-2    1.934352630408332E-2   -1.092062444220390E-2    2.694688859818807E-1    4.780206529091811E-1
 6.517900373650000E9    -2.187313215494827E-1   -5.733103197296092E-3    1.917206944429696E-2   -1.165841932191047E-2    1.948765888542112E-2   -1.110427761461100E-2    2.701453292967182E-1    4.776731822375524E-1
 6.517912050375000E9    -2.185113719948221E-1   -5.654800212478178E-3    1.917328757096883E-2   -1.183881392538133E-2    1.958716026723398E-2   -1.126475043386550E-2    2.710299329547394E-1    4.769657485080139E-1
 6.517923727100000E9    -2.182844560893081E-1   -5.669051827043968E-3    1.936961153598860E-2   -1.213377189024920E-2    1.962977195055231E-2   -1.127533076692139E-2    2.718984119629239E-1    4.764425637604504E-1
 6.517935403825000E9    -2.181395808840464E-1   -5.472375480996505E-3    1.953417745537488E-2   -1.221690468791646E-2    1.990544561444698E-2   -1.147723121336468E-2    2.728576981345854E-1    4.759773395024687E-1
 6.517947080550000E9    -2.178738509117008E-1   -5.462635301482110E-3    1.955698019248101E-2   -1.229177007106682E-2    1.994320620610148E-2   -1.160030551940694E-2    2.737255174451583E-1    4.755368694952167E-1
 6.517958757275000E9    -2.176812082211761E-1   -5.478064843432872E-3    1.955756296663951E-2   -1.234447891926987E-2    2.009299419815912E-2   -1.181142501194359E-2    2.747130892728116E-1    4.749688854632266E-1
 6.517970434000000E9    -2.174846788744960E-1   -5.334450507859121E-3    1.990078390032771E-2   -1.260158893415544E-2    2.032326613989343E-2   -1.190758024775602E-2    2.753874695166873E-1    4.744703098555678E-1
 6.517982110725000E9    -2.171435515607477E-1   -5.129821739598410E-3    2.003555892709976E-2   -1.276738784266189E-2    2.036776896263270E-2   -1.211108837272784E-2    2.762970806090482E-1    4.739644051165703E-1
 6.517993787450000E9    -2.168718850093198E-1   -5.276275896714088E-3    2.004064398795488E-2   -1.282747452040098E-2    2.043960654390927E-2   -1.225476771668654E-2    2.772823999244514E-1    4.734503051147342E-1
 6.518005464175000E9    -2.166373294383126E-1   -5.077115109997132E-3    2.035809337225322E-2   -1.302427016210818E-2    2.061957121105416E-2   -1.243179376700489E-2    2.780960295733697E-1    4.728049199945796E-1
 6.518017140900000E9    -2.165265103903078E-1   -5.122175539189740E-3    2.031397338806287E-2   -1.317554387815587E-2    2.076049204937339E-2   -1.257154077142435E-2    2.790320315595153E-1    4.722296456493147E-1
 6.518028817625000E9    -2.162642965939322E-1   -5.072898601673712E-3    2.049391996978133E-2   -1.344441729676489E-2    2.096780052247824E-2   -1.267963027014377E-2    2.798685108067416E-1    4.718005261796926E-1
 6.518040494350000E9    -2.159984702461809E-1   -4.967331459194806E-3    2.060192835396133E-2   -1.363621162028859E-2    2.104017726011116E-2   -1.289816813507164E-2    2.805900409271781E-1    4.712748678184047E-1
 6.518052171075000E9    -2.157695536789239E-1   -4.898088026703482E-3    2.060064266132695E-2   -1.374488040810792E-2    2.118783043103614E-2   -1.309193879213616E-2    2.816327010624429E-1    4.706063764629964E-1
 6.518063847800000E9    -2.154802886761285E-1   -4.839851388199975E-3    2.089763479759822E-2   -1.385985755309953E-2    2.137964654438190E-2   -1.329132852185257E-2    2.824711072987853E-1    4.700865244944902E-1
 6.518075524525000E9    -2.153958946116341E-1   -4.776148498735435E-3    2.108375633195445E-2   -1.408935239757965E-2    2.151673002733908E-2   -1.342511429111390E-2    2.833610283244638E-1    4.695009214484060E-1
 6.518087201250000E9    -2.151104296219105E-1   -4.778473371268539E-3    2.110746049492733E-2   -1.432407879656222E-2    2.158270222662519E-2   -1.363256498427665E-2    2.843792254696436E-1    4.688166283980180E-1
