#  HZ   S   RI   R     50.00 
! Rohde & Schwarz Vector Network Analyzer 
! Rohde-Schwarz,ZNB20-2Port,1311601062101988,3.16
! Created: UTC 12/23/2023, 3:35:10 AM
! freq[Hz]                re:S11                  im:S11                  re:S21                  im:S21                  re:S12                  im:S12                  re:S22                  im:S22
 6.517149194000000E9    -2.298811245578146E-1   -1.387256525437735E-2    1.345980246525592E-2   -5.852710891501730E-3    1.371414941365727E-2   -5.360673701901509E-3    2.147712794788116E-1    5.049262471698640E-1
 6.517160563300000E9    -2.297183335488933E-1   -1.366052904134883E-2    1.372265009986619E-2   -5.798164869146768E-3    1.371712461498988E-2   -5.354430897846354E-3    2.155192758273709E-1    5.046682741138230E-1
 6.517171932600000E9    -2.296033934329694E-1   -1.358088122909793E-2    1.364583199633237E-2   -5.911423647373435E-3    1.381143461196723E-2   -5.433813671893768E-3    2.163773770596939E-1    5.044597642088433E-1
 6.517183301900000E9    -2.295549564681597E-1   -1.329933335965138E-2    1.375278190130763E-2   -6.007957819174689E-3    1.396189331677627E-2   -5.439916207902451E-3    2.171985319592778E-1    5.040903516490266E-1
 6.517194671200000E9    -2.294265686939518E-1   -1.317742424530876E-2    1.384456236502099E-2   -5.991339455921694E-3    1.386174340994083E-2   -5.541742670038927E-3    2.180271780094399E-1    5.036916483372479E-1
 6.517206040500000E9    -2.293120562726606E-1   -1.294353327885569E-2    1.396169603082792E-2   -5.989813254898409E-3    1.404643671014584E-2   -5.553084633201707E-3    2.188195250910601E-1    5.033757966447504E-1
 6.517217409800000E9    -2.292341097816572E-1   -1.286830119066393E-2    1.390487657744716E-2   -6.146166972677762E-3    1.413673532695121E-2   -5.731036291165952E-3    2.198067945126664E-1    5.029826858480649E-1
 6.517228779100000E9    -2.291615255244601E-1   -1.273206318532751E-2    1.386462330390450E-2   -6.205506321235087E-3    1.418152372115608E-2   -5.736885805926482E-3    2.206081346589783E-1    5.026922708708862E-1
 6.517240148400000E9    -2.288940999426428E-1   -1.249320641208835E-2    1.400464937361907E-2   -6.358811543454938E-3    1.425155724732393E-2   -5.807902382486352E-3    2.214007610176086E-1    5.021868343419004E-1
 6.517251517700000E9    -2.288235874991897E-1   -1.238955786476886E-2    1.417425294817524E-2   -6.381553726943359E-3    1.423019443675426E-2   -5.848237593960509E-3    2.221499231070680E-1    5.019214088957156E-1
 6.517262887000000E9    -2.287312767471253E-1   -1.212600161267382E-2    1.423822835517138E-2   -6.298132083162298E-3    1.429894841891800E-2   -5.928195977598919E-3    2.231187759524498E-1    5.015254618446030E-1
 6.517274256300000E9    -2.285573795265375E-1   -1.204663486777799E-2    1.414917450243889E-2   -6.435003848223453E-3    1.436129263803082E-2   -5.936146330151212E-3    2.238662734141854E-1    5.011509141321937E-1
 6.517285625600000E9    -2.284237396085567E-1   -1.192163729111779E-2    1.426324815885866E-2   -6.339558229570699E-3    1.437796051807638E-2   -6.027110643037815E-3    2.246895638854560E-1    5.007029466808336E-1
 6.517296994900000E9    -2.283451234104297E-1   -1.172064423832003E-2    1.421380093808254E-2   -6.607851432468976E-3    1.446653766689989E-2   -6.054850214064500E-3    2.256015819082949E-1    5.004214196701418E-1
 6.517308364200000E9    -2.281303242873449E-1   -1.154976823958342E-2    1.431178498960622E-2   -6.554818016223765E-3    1.458090920862244E-2   -6.061317729579460E-3    2.263951420257535E-1    5.001210711201194E-1
 6.517319733500000E9    -2.279542707691780E-1   -1.123898418005423E-2    1.462290290098977E-2   -6.715753173921216E-3    1.454717131273027E-2   -6.228926735391655E-3    2.271127959011276E-1    4.998304300974616E-1
 6.517331102800000E9    -2.278981710954017E-1   -1.118619102203250E-2    1.430506480458824E-2   -6.816431119652141E-3    1.468087581238984E-2   -6.179153268943922E-3    2.280889966645175E-1    4.993902692378344E-1
 6.517342472100000E9    -2.277736461368581E-1   -1.106197515632978E-2    1.466381980731960E-2   -6.885859431339098E-3    1.469802681301814E-2   -6.264901041971099E-3    2.290007957131001E-1    4.989611594587052E-1
 6.517353841400000E9    -2.276476133787559E-1   -1.082085621927072E-2    1.476022109298791E-2   -6.861287485531499E-3    1.480407453959047E-2   -6.375897870691723E-3    2.297924282179194E-1    4.984888343153713E-1
 6.517365210700000E9    -2.274312876731973E-1   -1.067399090714607E-2    1.472946172911977E-2   -6.858121372997264E-3    1.490534463315832E-2   -6.391541040760906E-3    2.305200440172570E-1    4.981333680095233E-1
 6.517376580000000E9    -2.273788638427644E-1   -1.056052706175730E-2    1.480781819054086E-2   -7.071282289227336E-3    1.498840817942820E-2   -6.436086534824905E-3    2.314523727484238E-1    4.977639405592870E-1
 6.517387949300000E9    -2.272551038851177E-1   -1.040697408510072E-2    1.487926537300303E-2   -6.964342505232446E-3    1.502855140321924E-2   -6.547523116322110E-3    2.322360143831996E-1    4.975634219076647E-1
 6.517399318600000E9    -2.270687863847622E-1   -1.024534490741967E-2    1.485252897140590E-2   -7.108241394074451E-3    1.516462199827006E-2   -6.618206362861609E-3    2.332099330413694E-1    4.970497880643885E-1
 6.517410687900000E9    -2.269294906908514E-1   -1.007026251381379E-2    1.498016324946283E-2   -7.240495849281842E-3    1.522485576526754E-2   -6.802906157449743E-3    2.339069102347406E-1    4.965933025447000E-1
 6.517422057200000E9    -2.268060655710803E-1   -9.788077823750404E-3    1.512611921995452E-2   -7.183404528300802E-3    1.518957111327504E-2   -6.811783591002801E-3    2.347168023992648E-1    4.964564277089922E-1
 6.517433426500000E9    -2.265951782254307E-1   -9.913538160944020E-3    1.508589491667863E-2   -7.295293979864309E-3    1.537927092348952E-2   -6.861267748789763E-3    2.355752599131591E-1    4.958018330154501E-1
 6.517444795800000E9    -2.265374250293737E-1   -9.528003958893682E-3    1.511402975601621E-2   -7.415700061018014E-3    1.536157705048225E-2   -6.815259175794884E-3    2.365061364880023E-1    4.956072005329798E-1
 6.517456165100000E9    -2.264157448253618E-1   -9.321502294165207E-3    1.528351619553975E-2   -7.294348524194466E-3    1.540960127948550E-2   -6.925438544623026E-3    2.373336815026502E-1    4.950264312492492E-1
 6.517467534400000E9    -2.262884030146469E-1   -9.234913333013175E-3    1.549064798797195E-2   -7.609165048056003E-3    1.546894074317825E-2   -7.013956112981739E-3    2.382401781525389E-1    4.948252823707290E-1
 6.517478903700000E9    -2.261799549262903E-1   -9.085941105250411E-3    1.544108212635163E-2   -7.661761576693754E-3    1.548651364372003E-2   -7.085844494435316E-3    2.390016115322160E-1    4.943582721442749E-1
 6.517490273000000E9    -2.259398357785068E-1   -8.962075935111084E-3    1.548635311793081E-2   -7.669920615102622E-3    1.563209471881090E-2   -7.176811849296523E-3    2.397523831186761E-1    4.940326399300560E-1
 6.517501642300000E9    -2.257818612176532E-1   -8.807352841543511E-3    1.554785532396545E-2   -7.772137991247844E-3    1.581441255326075E-2   -7.214734877637395E-3    2.407284232293490E-1    4.934853292230698E-1
 6.517513011600000E9    -2.257013291433058E-1   -8.722267138843076E-3    1.554935311583418E-2   -8.001345868675533E-3    1.581328389184043E-2   -7.304734682130074E-3    2.414996235742300E-1    4.932168402094578E-1
 6.517524380900000E9    -2.254702187770167E-1   -8.486790704569586E-3    1.558597391235925E-2   -7.935470031320096E-3    1.585564425799533E-2   -7.409102125716122E-3    2.423390077681754E-1    4.926698568411491E-1
 6.517535750200000E9    -2.253774863560878E-1   -8.469268739037351E-3    1.567530772695509E-2   -8.048775504322484E-3    1.583538739738807E-2   -7.514972411193154E-3    2.432393006326412E-1    4.923410373288003E-1
 6.517547119500000E9    -2.252042576810296E-1   -8.256105145409181E-3    1.588883698776482E-2   -8.031625306752400E-3    1.603794926397435E-2   -7.422861198516717E-3    2.439745167135399E-1    4.920482341169296E-1
 6.517558488800000E9    -2.250882793544998E-1   -8.172390379775947E-3    1.590184802303473E-2   -8.201398833971387E-3    1.610257946609778E-2   -7.577202787744687E-3    2.448405938245742E-1    4.914155568523536E-1
 6.517569858100000E9    -2.248641516869344E-1   -7.974798894845817E-3    1.600965804607362E-2   -8.322347011483378E-3    1.618864207536843E-2   -7.622677195244722E-3    2.455732974753707E-1    4.909816662111198E-1
 6.517581227400000E9    -2.248874694379171E-1   -7.831672171136499E-3    1.613594268481719E-2   -8.337529245635293E-3    1.615161126430391E-2   -7.653153795563358E-3    2.464052206443007E-1    4.905949731793473E-1
 6.517592596700000E9    -2.246141848344253E-1   -7.708108688746037E-3    1.618895497936109E-2   -8.450426228653369E-3    1.629287524485306E-2   -7.975408000156309E-3    2.473502884985713E-1    4.902658350005981E-1
 6.517603966000000E9    -2.244358622258006E-1   -7.585459959094592E-3    1.620951752060769E-2   -8.350884456906580E-3    1.651706412755361E-2   -8.015192972445778E-3    2.481219076668114E-1    4.896533598418937E-1
 6.517615335300000E9    -2.244333192421592E-1   -7.421204761978722E-3    1.630053470592309E-2   -8.564616655202419E-3    1.653973457909102E-2   -8.147942312359616E-3    2.490620008208332E-1    4.893839261305035E-1
 6.517626704600000E9    -2.241510686247608E-1   -7.220012273460459E-3    1.634243299939902E-2   -8.603978974300319E-3    1.656314362561070E-2   -8.093506344681324E-3    2.498894709709822E-1    4.889584892438176E-1
 6.517638073900000E9    -2.239528860035995E-1   -7.203645818034747E-3    1.648070072547878E-2   -8.749081649568417E-3    1.669600242935853E-2   -8.164968098397981E-3    2.506854865148701E-1    4.887030981911797E-1
 6.517649443200000E9    -2.237918201219156E-1   -6.870755062153702E-3    1.650004604129412E-2   -8.753751147131873E-3    1.680857991262189E-2   -8.421288488426557E-3    2.515270108535840E-1    4.880624186172575E-1
 6.517660812500000E9    -2.236306214848537E-1   -6.756458261456723E-3    1.658521839011026E-2   -8.863204418528604E-3    1.691591329941299E-2   -8.366278904568676E-3    2.523249458343504E-1    4.876878939443912E-1
 6.517672181800000E9    -2.234690578984076E-1   -6.781443397037601E-3    1.674176284106785E-2   -9.023827697178029E-3    1.694395779778234E-2   -8.506916678400721E-3    2.532120363768387E-1    4.872434000652291E-1
 6.517683551100000E9    -2.232279773680822E-1   -6.493988475888560E-3    1.686607877328085E-2   -9.235823403083935E-3    1.709847717129112E-2   -8.527344547739280E-3    2.540985997558563E-1    4.867943932161559E-1
 6.517694920400000E9    -2.231487366343320E-1   -6.597151604430574E-3    1.679988425368378E-2   -9.195530111480702E-3    1.707046404076321E-2   -8.663861900067427E-3    2.548874791968685E-1    4.864764069178064E-1
 6.517706289700000E9    -2.230003301232462E-1   -6.389475133109365E-3    1.696715634888370E-2   -9.229823217219822E-3    1.726947465432228E-2   -8.725842002595456E-3    2.557565171472174E-1    4.859386826760556E-1
 6.517717659000000E9    -2.228792427382789E-1   -6.208765558780796E-3    1.693759684067117E-2   -9.371199172464751E-3    1.723188197469437E-2   -8.820024998766472E-3    2.565416912004338E-1    4.854933333847884E-1
 6.517729028300000E9    -2.225366804242748E-1   -6.100615128605124E-3    1.705215349352433E-2   -9.467670660669138E-3    1.749456230040326E-2   -8.942068367325990E-3    2.573526290554363E-1    4.850636506718888E-1
 6.517740397600000E9    -2.224857586792053E-1   -5.969829324094044E-3    1.710007962787382E-2   -9.718561617904522E-3    1.754424929985879E-2   -9.013822565197250E-3    2.583219955779230E-1    4.846037561261149E-1
 6.517751766900000E9    -2.222296857116213E-1   -5.829952745648465E-3    1.729763964788067E-2   -9.713583562951676E-3    1.751712310023957E-2   -9.131294772783599E-3    2.591156316614789E-1    4.841589503234756E-1
 6.517763136200000E9    -2.220963059232924E-1   -5.734928576782176E-3    1.743694424386262E-2   -9.750238636729193E-3    1.769757821167925E-2   -9.283769652675879E-3    2.598669229038951E-1    4.836802328178777E-1
 6.517774505500000E9    -2.219247203267566E-1   -5.605792501563923E-3    1.757627644242275E-2   -9.888836109547718E-3    1.779159211694493E-2   -9.314193728971829E-3    2.607849350821801E-1    4.831600004825081E-1
 6.517785874800000E9    -2.217163359837677E-1   -5.411263084786824E-3    1.753632369466377E-2   -1.008731310082920E-2    1.789497519229004E-2   -9.526410267512025E-3    2.615569155225626E-1    4.827031574552658E-1
 6.517797244100000E9    -2.215385590604474E-1   -5.422295435321967E-3    1.761811968966404E-2   -1.017454188245454E-2    1.804733163307920E-2   -9.416444032637351E-3    2.623832847126571E-1    4.824129605411820E-1
 6.517808613400000E9    -2.213986004082647E-1   -5.247726630126126E-3    1.762047446569190E-2   -1.020417906609438E-2    1.817310953045341E-2   -9.611839870006130E-3    2.633302649083929E-1    4.819900778799457E-1
 6.517819982700000E9    -2.211953426762942E-1   -5.133673036867791E-3    1.790489737143493E-2   -1.037100414237820E-2    1.812334220895079E-2   -9.716915949624726E-3    2.641956277892192E-1    4.814717076513134E-1
 6.517831352000000E9    -2.208161604113161E-1   -4.954057478778846E-3    1.803209853770342E-2   -1.030153761516476E-2    1.831871812206966E-2   -9.949406304431139E-3    2.650269967458467E-1    4.809045730478514E-1
 6.517842721300000E9    -2.208886131562003E-1   -5.018373450113049E-3    1.813009698984878E-2   -1.056051954870313E-2    1.832324648646420E-2   -9.879285699425923E-3    2.656514993321791E-1    4.803996128371793E-1
 6.517854090600000E9    -2.205318485326742E-1   -4.836386324271887E-3    1.812735244083927E-2   -1.073595070166495E-2    1.855175066116807E-2   -1.008059508724998E-2    2.666726667828279E-1    4.799873261724991E-1
 6.517865459900000E9    -2.203954532254862E-1   -4.683748134475467E-3    1.820873978586141E-2   -1.084198422656194E-2    1.856965661920883E-2   -1.020369047535161E-2    2.675626869459918E-1    4.794196469627174E-1
 6.517876829200000E9    -2.202049044539259E-1   -4.655159108391662E-3    1.837691947058273E-2   -1.093591702012781E-2    1.867994004465020E-2   -1.030261841880733E-2    2.683565815570669E-1    4.789835561146532E-1
 6.517888198500000E9    -2.199543956826181E-1   -4.544616270465575E-3    1.850529880883555E-2   -1.101903693874610E-2    1.881253929603474E-2   -1.054751196653297E-2    2.690958669927805E-1    4.785548001280317E-1
 6.517899567800000E9    -2.199011475866311E-1   -4.471099223579742E-3    1.863721423347803E-2   -1.111779978892983E-2    1.887823330940255E-2   -1.065453591123512E-2    2.698890821258800E-1    4.780363363824017E-1
 6.517910937100000E9    -2.195567113954791E-1   -4.428869566507268E-3    1.865334677599467E-2   -1.121551046044998E-2    1.901224031988281E-2   -1.073103839811083E-2    2.708546314910597E-1    4.775780253253192E-1
 6.517922306400000E9    -2.194400278180252E-1   -4.149115407226252E-3    1.882161156377186E-2   -1.133478826715114E-2    1.913131301720674E-2   -1.085612289977107E-2    2.716354316882060E-1    4.771958158639770E-1
 6.517933675700000E9    -2.191845390685642E-1   -4.099306726769821E-3    1.883143651153681E-2   -1.143344737171607E-2    1.929772970062082E-2   -1.093004054880851E-2    2.726497606379675E-1    4.765121768336305E-1
 6.517945045000000E9    -2.190378387043542E-1   -3.998094751924528E-3    1.904890908869114E-2   -1.154536407167664E-2    1.930235334447171E-2   -1.101235244613749E-2    2.735269375725620E-1    4.761228000726088E-1
 6.517956414300000E9    -2.188435934740575E-1   -4.015096704318517E-3    1.910534650094283E-2   -1.187516814319178E-2    1.962922288602771E-2   -1.110921631234007E-2    2.741767650633044E-1    4.756554308179312E-1
 6.517967783600000E9    -2.186545078290472E-1   -3.937205924895664E-3    1.926510344774603E-2   -1.195459981025655E-2    1.953760156712059E-2   -1.134875613362021E-2    2.750045372577377E-1    4.751040853974874E-1
 6.517979152900000E9    -2.184344663186635E-1   -3.884440382812326E-3    1.941229940689506E-2   -1.204390778018443E-2    1.966798045820706E-2   -1.152271474172217E-2    2.759070560987787E-1    4.746623889174463E-1
 6.517990522200000E9    -2.182434131124055E-1   -3.850218592437281E-3    1.937449965496775E-2   -1.211227626474420E-2    1.981612297794103E-2   -1.163128191024104E-2    2.767440700630422E-1    4.740275842734358E-1
 6.518001891500000E9    -2.180280101645250E-1   -3.642561375144652E-3    1.967806782558924E-2   -1.236536097845962E-2    1.995358546237866E-2   -1.179129569223338E-2    2.775181666159395E-1    4.735198946499248E-1
 6.518013260800000E9    -2.178091372691413E-1   -3.594936097038914E-3    1.971151715751134E-2   -1.263692576270718E-2    2.015328991629971E-2   -1.181659668070721E-2    2.784514821521036E-1    4.729972420943597E-1
 6.518024630100000E9    -2.175828918477120E-1   -3.491910068575858E-3    1.990144469598093E-2   -1.273863879553275E-2    2.023848165244101E-2   -1.205834580318628E-2    2.794430444909648E-1    4.725199917024291E-1
 6.518035999400000E9    -2.174174345591999E-1   -3.331054066062963E-3    1.987927276320440E-2   -1.279905583718560E-2    2.034273859633778E-2   -1.214333137760082E-2    2.802024918199766E-1    4.719442227021446E-1
 6.518047368700000E9    -2.170701499231974E-1   -3.359709913883073E-3    2.015639005465431E-2   -1.278085701143073E-2    2.045207103357276E-2   -1.238360268144781E-2    2.809242561602583E-1    4.715072506553944E-1
 6.518058738000000E9    -2.168261360018701E-1   -3.335653113454247E-3    2.016509916055848E-2   -1.309275155764053E-2    2.055121010991846E-2   -1.257334944263434E-2    2.817967659333762E-1    4.708904149435703E-1
 6.518070107300000E9    -2.167110977985115E-1   -3.337816820073530E-3    2.028478862912715E-2   -1.331189410078676E-2    2.071330744750462E-2   -1.263926682685208E-2    2.826765844449225E-1    4.704321573300856E-1
 6.518081476600000E9    -2.163922402549155E-1   -3.269159933024926E-3    2.035003308846371E-2   -1.351977672039739E-2    2.092169785295070E-2   -1.277530827111106E-2    2.835907642623416E-1    4.697100283698477E-1
 6.518092845900000E9    -2.162580077111640E-1   -3.189260437476982E-3    2.066471988894374E-2   -1.360478205100247E-2    2.104877107188610E-2   -1.305250749700220E-2    2.843992821496200E-1    4.692341016529999E-1
 6.518104215200000E9    -2.159567399694206E-1   -3.116280323733391E-3    2.053382103158757E-2   -1.382961521082541E-2    2.107350906738582E-2   -1.317104669395008E-2    2.852954258000237E-1    4.688298592567745E-1
 6.518115584500000E9    -2.157013409395113E-1   -3.048388622113984E-3    2.084452528108949E-2   -1.403939793537036E-2    2.123009806453606E-2   -1.324387141453730E-2    2.861689314514195E-1    4.680607159471373E-1
 6.518126953800000E9    -2.155597671827771E-1   -3.038739912045860E-3    2.088397144074364E-2   -1.420155703370658E-2    2.138289336394031E-2   -1.336759409267447E-2    2.870654115215617E-1    4.675576665252700E-1
 6.518138323100000E9    -2.151506919043055E-1   -3.035069230020251E-3    2.113853458957403E-2   -1.427046632619832E-2    2.146118644419600E-2   -1.361275425752504E-2    2.879710374042393E-1    4.670053697633267E-1
 6.518149692400000E9    -2.149903211254487E-1   -3.008360918119915E-3    2.117870369239692E-2   -1.447209037422825E-2    2.167125072697496E-2   -1.377976781201028E-2    2.888098712589288E-1    4.664059862561870E-1
 6.518161061700000E9    -2.147467270693836E-1   -2.988032556572080E-3    2.130827972108203E-2   -1.477419088718614E-2    2.188054584897664E-2   -1.406715029119537E-2    2.895929707088912E-1    4.658982269844043E-1
 6.518172431000000E9    -2.145490447519456E-1   -2.924638389319222E-3    2.142530733130477E-2   -1.490841983275248E-2    2.198945746960888E-2   -1.418637657970668E-2    2.904262981197495E-1    4.652653131978543E-1
