#  HZ   S   RI   R     50.00 
! Rohde & Schwarz Vector Network Analyzer 
! Rohde-Schwarz,ZNB20-2Port,1311601062101988,3.16
! Created: UTC 12/23/2023, 3:35:16 AM
! freq[Hz]                re:S11                  im:S11                  re:S21                  im:S21                  re:S12                  im:S12                  re:S22                  im:S22
 6.517151186000000E9    -2.299353130740633E-1   -1.392023541460381E-2    1.369709395363363E-2   -5.769652239848248E-3    1.369459062369788E-2   -5.353380706043282E-3    2.147746709367266E-1    5.049427467302520E-1
 6.517162546400000E9    -2.297333422601913E-1   -1.369931793371258E-2    1.363215930543726E-2   -5.815464698111112E-3    1.381552946391889E-2   -5.447179163954750E-3    2.156559015016168E-1    5.046687127740210E-1
 6.517173906800000E9    -2.295805308056623E-1   -1.360206410985148E-2    1.369550695556488E-2   -5.975401481099693E-3    1.381054749679580E-2   -5.525667688556789E-3    2.165534312363774E-1    5.042766533868602E-1
 6.517185267200000E9    -2.294333048894279E-1   -1.330778858845974E-2    1.377364718463428E-2   -5.970939974648280E-3    1.378126274861538E-2   -5.491380901734296E-3    2.172638451113401E-1    5.040084560047537E-1
 6.517196627600000E9    -2.294066427753667E-1   -1.315215500674376E-2    1.380454863371870E-2   -6.116387033267074E-3    1.397553257210867E-2   -5.526082733576649E-3    2.183017813971400E-1    5.036258964674845E-1
 6.517207988000000E9    -2.292417095433274E-1   -1.308811205051333E-2    1.397378216319982E-2   -6.148226150407815E-3    1.399791914124389E-2   -5.613521838989714E-3    2.188215957930665E-1    5.033573419072126E-1
 6.517219348400000E9    -2.291288285799253E-1   -1.271326729979157E-2    1.393692891107820E-2   -6.138322672040134E-3    1.402214351546923E-2   -5.789202999183704E-3    2.197475039107790E-1    5.029346162347149E-1
 6.517230708800000E9    -2.289639362841641E-1   -1.270371105330300E-2    1.398414188060585E-2   -6.207171241822577E-3    1.420573443013449E-2   -5.726991950887250E-3    2.206696364070253E-1    5.024252188178440E-1
 6.517242069200000E9    -2.288660548228433E-1   -1.254148230584892E-2    1.412772448726200E-2   -6.223388449387415E-3    1.421307231799485E-2   -5.824169267341337E-3    2.216706319880444E-1    5.022088021189914E-1
 6.517253429600000E9    -2.288411026254754E-1   -1.238218993857425E-2    1.410172040093402E-2   -6.268055974450382E-3    1.422537060850355E-2   -5.803881094158035E-3    2.223959814976900E-1    5.017762909032780E-1
 6.517264790000000E9    -2.286597486005726E-1   -1.214378323972442E-2    1.419753393500041E-2   -6.287043330692951E-3    1.425875569913040E-2   -5.745021610806381E-3    2.232182152923793E-1    5.014561774316334E-1
 6.517276150400000E9    -2.285784677160169E-1   -1.197022188012881E-2    1.419785441713916E-2   -6.363079568194495E-3    1.440831924104712E-2   -5.930421459825697E-3    2.241403783950687E-1    5.010805418215075E-1
 6.517287510800000E9    -2.283902135560683E-1   -1.182706710396209E-2    1.430036108521097E-2   -6.526836414316141E-3    1.448345019708802E-2   -6.059290148582144E-3    2.247451269507262E-1    5.008302055322624E-1
 6.517298871200000E9    -2.282153126140787E-1   -1.164238229927711E-2    1.437879821923846E-2   -6.531099764554799E-3    1.452062355934401E-2   -6.043647302711262E-3    2.256506971284674E-1    5.003525165992382E-1
 6.517310231600000E9    -2.281768396140616E-1   -1.140783338186172E-2    1.441205443817984E-2   -6.656969766544583E-3    1.453881565047954E-2   -6.197283477692699E-3    2.265440284950477E-1    5.000207624469054E-1
 6.517321592000000E9    -2.279063409038354E-1   -1.135708265550659E-2    1.452871306116277E-2   -6.708089426856329E-3    1.458830051798587E-2   -6.170898760268339E-3    2.273940879346874E-1    4.997337917056293E-1
 6.517332952400000E9    -2.279547460184573E-1   -1.110192827135849E-2    1.438216052697746E-2   -6.696600242199505E-3    1.477311822782262E-2   -6.179061311549058E-3    2.282064745847976E-1    4.992871682901095E-1
 6.517344312800000E9    -2.277480374951297E-1   -1.112410363687182E-2    1.457272198156590E-2   -6.793971042920266E-3    1.467934210945899E-2   -6.254606450783788E-3    2.290449104841919E-1    4.989074589269768E-1
 6.517355673200000E9    -2.276042801529400E-1   -1.083030559055081E-2    1.468194277316257E-2   -6.928712558937291E-3    1.472319159664532E-2   -6.389703284510115E-3    2.299767022743470E-1    4.984944212534208E-1
 6.517367033600000E9    -2.275182651725935E-1   -1.061813698261569E-2    1.483129116697336E-2   -6.886687604595424E-3    1.487839767326903E-2   -6.459536629964916E-3    2.306519376917135E-1    4.982264294743149E-1
 6.517378394000000E9    -2.272583782531045E-1   -1.066270712062059E-2    1.476106740737809E-2   -6.964505608959109E-3    1.492549580018290E-2   -6.414039255089686E-3    2.314783411437243E-1    4.978861434474581E-1
 6.517389754400000E9    -2.271846818316713E-1   -1.030650378926435E-2    1.478450449578656E-2   -7.169643517220575E-3    1.501439781447468E-2   -6.485136598620704E-3    2.323509310714952E-1    4.973543274144676E-1
 6.517401114800000E9    -2.270007296494221E-1   -1.019483056968819E-2    1.494141057268974E-2   -7.150184657000312E-3    1.515406852881239E-2   -6.634412879379561E-3    2.331178281789970E-1    4.969970983761065E-1
 6.517412475200000E9    -2.268927392698011E-1   -1.005945630883460E-2    1.500547013444319E-2   -7.323140508153622E-3    1.522291549800209E-2   -6.702461634594974E-3    2.340611633738335E-1    4.965381516895345E-1
 6.517423835600000E9    -2.267692365496798E-1   -9.954639130674058E-3    1.514920486500517E-2   -7.239142083139089E-3    1.531069066856897E-2   -6.773902695479271E-3    2.349504071036438E-1    4.962924185969821E-1
 6.517435196000000E9    -2.266654476144435E-1   -9.759001520546293E-3    1.519438673840985E-2   -7.327437121896170E-3    1.528143541774734E-2   -6.892396421183426E-3    2.356340967488834E-1    4.959478433179097E-1
 6.517446556400000E9    -2.265550192877145E-1   -9.543518360180622E-3    1.508089328625106E-2   -7.354080839706144E-3    1.541470347733972E-2   -6.769260908901258E-3    2.365387219542932E-1    4.955090369978475E-1
 6.517457916800000E9    -2.263151775909858E-1   -9.460759200004764E-3    1.532974321172892E-2   -7.472400971830279E-3    1.541764240498270E-2   -6.907461131886602E-3    2.374638990072387E-1    4.951358919723479E-1
 6.517469277200000E9    -2.262080994020700E-1   -9.314325085649540E-3    1.524361062877706E-2   -7.662825029084926E-3    1.548077792620807E-2   -7.123306180042343E-3    2.383041715700354E-1    4.947839995121785E-1
 6.517480637600000E9    -2.261480770004078E-1   -9.105589298701514E-3    1.544166760024445E-2   -7.636812609866502E-3    1.551421703073584E-2   -7.170139241265837E-3    2.390228476175884E-1    4.942823058824030E-1
 6.517491998000000E9    -2.259408562684780E-1   -8.928773078605307E-3    1.539111205820328E-2   -7.706937744451102E-3    1.566427053818634E-2   -7.209527796166695E-3    2.398003665910452E-1    4.938650219170577E-1
 6.517503358400000E9    -2.259334909004681E-1   -8.901604440234055E-3    1.553072676868512E-2   -7.817803592854616E-3    1.570419733287988E-2   -7.175950802813211E-3    2.408132290175800E-1    4.934638868160688E-1
 6.517514718800000E9    -2.256254208222571E-1   -8.684149161589688E-3    1.565959198214740E-2   -7.791891640168941E-3    1.587254003771820E-2   -7.317853076652508E-3    2.415760305213118E-1    4.929882561062527E-1
 6.517526079200000E9    -2.255844224982538E-1   -8.480976477293962E-3    1.565568683965361E-2   -7.930389043935244E-3    1.593482031706331E-2   -7.458664150965007E-3    2.425037617249558E-1    4.926123077520155E-1
 6.517537439600000E9    -2.252682550352672E-1   -8.327672563899725E-3    1.573471827479328E-2   -7.982828107669888E-3    1.595497522097073E-2   -7.435757680128057E-3    2.432481883455098E-1    4.922425306894898E-1
 6.517548800000000E9    -2.251051917627352E-1   -8.303972657353062E-3    1.589864876224733E-2   -8.012578153241608E-3    1.604040212065400E-2   -7.514254092010932E-3    2.441409731128992E-1    4.918657348619685E-1
 6.517560160400000E9    -2.249278251853338E-1   -8.143053975515640E-3    1.603268652294594E-2   -8.293456535006561E-3    1.618402957448732E-2   -7.635200087379823E-3    2.449536119185577E-1    4.914074218583041E-1
 6.517571520800000E9    -2.248983904208805E-1   -7.960669876078377E-3    1.600052474169607E-2   -8.133507193848777E-3    1.626883784706400E-2   -7.642072076484609E-3    2.458225371900084E-1    4.910077262414159E-1
 6.517582881200000E9    -2.247180658882050E-1   -7.858786943054056E-3    1.602800745929742E-2   -8.226536429997416E-3    1.632366497807616E-2   -7.660587507683485E-3    2.465902605665286E-1    4.906102369578821E-1
 6.517594241600000E9    -2.245945021337025E-1   -7.679360798214867E-3    1.615629591398739E-2   -8.333822875804647E-3    1.629211919006151E-2   -7.982203467105485E-3    2.474279404828160E-1    4.902179186528600E-1
 6.517605602000000E9    -2.244092763742679E-1   -7.559913766979877E-3    1.613620127840738E-2   -8.464955492916117E-3    1.646033831307494E-2   -7.964291987195326E-3    2.482363107311413E-1    4.898409937926391E-1
 6.517616962400000E9    -2.243213804395715E-1   -7.425810842072637E-3    1.623552473859094E-2   -8.498843170162773E-3    1.653963627455167E-2   -7.974345438326697E-3    2.492954351638045E-1    4.894801832470755E-1
 6.517628322800000E9    -2.240535756003896E-1   -7.337107223414107E-3    1.657696685907983E-2   -8.657398820914715E-3    1.669729869971623E-2   -8.082518768172288E-3    2.500008448783050E-1    4.890616533905128E-1
 6.517639683200000E9    -2.239313281703833E-1   -7.262804443498240E-3    1.644617490953786E-2   -8.794683143054148E-3    1.666014695216526E-2   -8.263840459262949E-3    2.508113352576605E-1    4.885385686448428E-1
 6.517651043600000E9    -2.237089400234959E-1   -6.951515994040243E-3    1.643492366646035E-2   -8.866931895534086E-3    1.667606891877326E-2   -8.169671218282874E-3    2.516917158151969E-1    4.880985333284319E-1
 6.517662404000000E9    -2.235993368410899E-1   -6.943735493550586E-3    1.670006483136378E-2   -8.969095129489433E-3    1.679671816981489E-2   -8.324150216309927E-3    2.524443645099851E-1    4.876396866310732E-1
 6.517673764400000E9    -2.235207500166358E-1   -6.657816144734903E-3    1.675688198596363E-2   -9.006279209375420E-3    1.704536999688620E-2   -8.476369869345657E-3    2.533424784285448E-1    4.872257749756477E-1
 6.517685124800000E9    -2.232089364807385E-1   -6.589650045876836E-3    1.683812609543802E-2   -9.213835905929627E-3    1.707622259356271E-2   -8.678276192370618E-3    2.541459554421992E-1    4.867754517532257E-1
 6.517696485200000E9    -2.230906485757526E-1   -6.419902329616128E-3    1.701843311299503E-2   -9.250899245236900E-3    1.706538525083569E-2   -8.626251846558798E-3    2.548007147751450E-1    4.862623513877953E-1
 6.517707845600000E9    -2.229492402901559E-1   -6.454982678209926E-3    1.700174464469115E-2   -9.203173509781679E-3    1.717316460091192E-2   -8.842560074268398E-3    2.557981570721257E-1    4.858988167469971E-1
 6.517719206000000E9    -2.227263581005136E-1   -6.170607085305591E-3    1.709699489624055E-2   -9.490299820781147E-3    1.725760641326812E-2   -8.725381701385794E-3    2.566194469411965E-1    4.854540659042432E-1
 6.517730566400000E9    -2.225169613294013E-1   -6.104172390151756E-3    1.713547573146047E-2   -9.648804698949619E-3    1.743476179814000E-2   -8.892260201020016E-3    2.575166982168917E-1    4.850468812678986E-1
 6.517741926800000E9    -2.225242344752814E-1   -5.946950345206132E-3    1.735458489145955E-2   -9.568035546731081E-3    1.744169626296331E-2   -9.149217652989660E-3    2.583610315588206E-1    4.844577035212655E-1
 6.517753287200000E9    -2.222426281261606E-1   -5.865970134594685E-3    1.726557566378003E-2   -9.748398586818183E-3    1.755089950430559E-2   -9.263405463137572E-3    2.592508379152576E-1    4.842082226918741E-1
 6.517764647600000E9    -2.221879616567676E-1   -5.683531743066426E-3    1.749421900037760E-2   -9.834097577560626E-3    1.767753006479016E-2   -9.193840237743375E-3    2.599659985095886E-1    4.838681756969591E-1
 6.517776008000000E9    -2.218323540038504E-1   -5.533005942968811E-3    1.754635359799982E-2   -9.880178095838280E-3    1.781889216431953E-2   -9.333282281932436E-3    2.608578712592586E-1    4.834039615099741E-1
 6.517787368400000E9    -2.216767052504373E-1   -5.563701277529928E-3    1.750595029458571E-2   -1.001711732166449E-2    1.795465085083142E-2   -9.448140913201133E-3    2.617814107223276E-1    4.829008570340471E-1
 6.517798728800000E9    -2.214987397340329E-1   -5.362251670137892E-3    1.773229972961622E-2   -1.007888883303647E-2    1.797749285423860E-2   -9.518447006048788E-3    2.626004651216750E-1    4.823041070100880E-1
 6.517810089200000E9    -2.213256304407755E-1   -5.251146037799713E-3    1.778407061935672E-2   -1.030672770418692E-2    1.807657881063179E-2   -9.642150833490409E-3    2.632966038612026E-1    4.818543003882146E-1
 6.517821449600000E9    -2.211407358997989E-1   -5.149011937937595E-3    1.800095108768534E-2   -1.021149777827434E-2    1.811045982678565E-2   -9.798659404516023E-3    2.640990247756864E-1    4.813775817169781E-1
 6.517832810000000E9    -2.208688291475499E-1   -5.114186729549949E-3    1.807526124299084E-2   -1.037584017396867E-2    1.830703160311540E-2   -9.898528265449845E-3    2.651389701535404E-1    4.808546772423575E-1
 6.517844170400000E9    -2.207367207881676E-1   -5.029813364201020E-3    1.808925724031428E-2   -1.047312718460554E-2    1.834145507981732E-2   -1.000253409468616E-2    2.659394033495885E-1    4.805283450314381E-1
 6.517855530800000E9    -2.205608494586014E-1   -4.875338400802603E-3    1.814604783941986E-2   -1.071968994078693E-2    1.857130771921593E-2   -1.010477982766232E-2    2.668521270094137E-1    4.798196259804443E-1
 6.517866891200000E9    -2.202672297718941E-1   -4.775579825862600E-3    1.820701301995129E-2   -1.068625124686245E-2    1.865184566044900E-2   -1.025893246553929E-2    2.677395383233656E-1    4.795371847489792E-1
 6.517878251600000E9    -2.202052760276244E-1   -4.697901260949230E-3    1.847923838084409E-2   -1.096383794868290E-2    1.870777971614480E-2   -1.041441404273401E-2    2.683260845166128E-1    4.788857561724043E-1
 6.517889612000000E9    -2.201106630055289E-1   -4.604043758185748E-3    1.844611233615632E-2   -1.102509838743129E-2    1.882727858708916E-2   -1.042715064467072E-2    2.692801253665108E-1    4.785395612256421E-1
 6.517900972400000E9    -2.198210470519613E-1   -4.617029990816570E-3    1.853485740718232E-2   -1.117294817531014E-2    1.890169606221636E-2   -1.056524178505869E-2    2.700091055259044E-1    4.780873438927453E-1
 6.517912332800000E9    -2.195801935666344E-1   -4.384295676587685E-3    1.867314365933791E-2   -1.119397386976791E-2    1.904396410613933E-2   -1.064451903974572E-2    2.709041951531837E-1    4.774281783892803E-1
 6.517923693200000E9    -2.193903556229314E-1   -4.227250222530484E-3    1.870020239398324E-2   -1.146142871931835E-2    1.918716151439018E-2   -1.094846975763889E-2    2.718359519880670E-1    4.771639043346269E-1
 6.517935053600000E9    -2.191840014105724E-1   -4.203189438298855E-3    1.888656513191697E-2   -1.159349867944529E-2    1.924053437102602E-2   -1.098427218427526E-2    2.725967514680243E-1    4.765218089208766E-1
 6.517946414000000E9    -2.189976073389900E-1   -4.102677918629915E-3    1.904813075036937E-2   -1.170678916293009E-2    1.936390628875344E-2   -1.112878132707181E-2    2.734621100483436E-1    4.760157690272524E-1
 6.517957774400000E9    -2.188295639077642E-1   -4.059269195770684E-3    1.920914147770324E-2   -1.180811875979889E-2    1.957784175411610E-2   -1.126154938501095E-2    2.743044272422302E-1    4.754844636465221E-1
 6.517969134800000E9    -2.185440338952339E-1   -3.860027268415564E-3    1.913648227442706E-2   -1.193644657404820E-2    1.973124030383427E-2   -1.138879140993340E-2    2.751064047846610E-1    4.750676554213650E-1
 6.517980495200000E9    -2.183279667953784E-1   -3.789220032500555E-3    1.934699344696804E-2   -1.208095613677282E-2    1.969717258623256E-2   -1.150593947956724E-2    2.760532923733058E-1    4.746193304646991E-1
 6.517991855600000E9    -2.181727657370590E-1   -3.711264624147540E-3    1.950380266429683E-2   -1.212952867196818E-2    1.981634350157003E-2   -1.168336782803223E-2    2.768118892221084E-1    4.739715743517486E-1
 6.518003216000000E9    -2.179481068579898E-1   -3.673965011152671E-3    1.957684589536448E-2   -1.240387980572280E-2    1.997280782536952E-2   -1.185010208153181E-2    2.778953864428051E-1    4.735121774448711E-1
 6.518014576400000E9    -2.177379246677427E-1   -3.575745142317400E-3    1.961761634994985E-2   -1.255695758721014E-2    2.002594795720427E-2   -1.192876084580574E-2    2.785378801255090E-1    4.730531135262946E-1
 6.518025936800000E9    -2.176280065221391E-1   -3.502370723793647E-3    1.987614823231420E-2   -1.269495925955794E-2    2.020548117834702E-2   -1.200631983420144E-2    2.794754202679626E-1    4.723954509030635E-1
 6.518037297200000E9    -2.173079312076936E-1   -3.521566413879874E-3    1.995873286251813E-2   -1.283927435748665E-2    2.027826699705989E-2   -1.218880600944340E-2    2.802739811174433E-1    4.719985818787525E-1
 6.518048657600000E9    -2.170613872328970E-1   -3.419733672947951E-3    2.012274563352799E-2   -1.296831740408899E-2    2.048407843349326E-2   -1.228633146563958E-2    2.812236627780324E-1    4.714858773704708E-1
 6.518060018000000E9    -2.168471253815253E-1   -3.481608406222495E-3    2.025408216194888E-2   -1.319754279277232E-2    2.056088349357826E-2   -1.254898899367515E-2    2.819649861297618E-1    4.708022937683436E-1
 6.518071378400000E9    -2.166006952983099E-1   -3.248363067168531E-3    2.031738520268109E-2   -1.338403865717810E-2    2.071764600410270E-2   -1.265851937178342E-2    2.827644504301514E-1    4.702557977987334E-1
 6.518082738800000E9    -2.163887585366845E-1   -3.164156136432959E-3    2.041074996709498E-2   -1.346929601032877E-2    2.092454407010247E-2   -1.280737759842023E-2    2.836109145158617E-1    4.697788819136610E-1
 6.518094099200000E9    -2.162603994154413E-1   -3.162084499776294E-3    2.068241090893110E-2   -1.354302350487388E-2    2.100808781744127E-2   -1.299956563338409E-2    2.845711274671139E-1    4.692952816805604E-1
 6.518105459600000E9    -2.158883736194790E-1   -3.226125666207252E-3    2.064893063659085E-2   -1.375954208420962E-2    2.117721358563631E-2   -1.307035591239191E-2    2.853724180089007E-1    4.686478093102024E-1
 6.518116820000000E9    -2.156695422355675E-1   -3.118672121258610E-3    2.079615735761094E-2   -1.390685029109769E-2    2.134327372284838E-2   -1.338485433321513E-2    2.861975031697040E-1    4.681388018918132E-1
 6.518128180400000E9    -2.154311150830343E-1   -3.064041791890271E-3    2.093972029329978E-2   -1.417784500484552E-2    2.134436592727841E-2   -1.346150295845569E-2    2.871274954148194E-1    4.675626363344244E-1
 6.518139540800000E9    -2.151169854866276E-1   -3.016816118976799E-3    2.099964682943838E-2   -1.431272867104579E-2    2.162094280250329E-2   -1.366121555668334E-2    2.879597526886448E-1    4.670748547321435E-1
 6.518150901200000E9    -2.150291343273966E-1   -2.938734168619498E-3    2.137448808595915E-2   -1.456042580340457E-2    2.172733002109164E-2   -1.382018326950875E-2    2.888943258180110E-1    4.664809843613958E-1
 6.518162261600000E9    -2.146702286000766E-1   -2.906949582227823E-3    2.137749031695527E-2   -1.458922442360320E-2    2.176897461355325E-2   -1.404941568107125E-2    2.896461966457912E-1    4.659522464493046E-1
 6.518173622000000E9    -2.144911949616422E-1   -2.832742287961424E-3    2.152866411235676E-2   -1.487141862840316E-2    2.205627523499174E-2   -1.416925981625066E-2    2.904891072495797E-1    4.651964789525132E-1
