#  HZ   S   RI   R     50.00 
! Rohde & Schwarz Vector Network Analyzer 
! Rohde-Schwarz,ZNB20-2Port,1311601062101988,3.16
! Created: UTC 12/23/2023, 3:47:23 AM
! freq[Hz]                re:S11                  im:S11                  re:S21                  im:S21                  re:S12                  im:S12                  re:S22                  im:S22
 1.000951328200000E+10  -3.905849356670307E-1    3.357512517526950E-1   -1.691934294781340E-2   -1.275635887156541E-2   -1.566090599315365E-2   -1.301963919880182E-2   -2.107995679804800E-1    4.731315553837181E-1
 1.000952633522500E+10  -3.897950417964249E-1    3.363781755901022E-1   -1.691519915997939E-2   -1.274756974424136E-2   -1.572579590636513E-2   -1.306219417432519E-2   -2.100508682875309E-1    4.733789870366947E-1
 1.000953938845000E+10  -3.891734888577566E-1    3.373056106070292E-1   -1.714784439231576E-2   -1.287789922716466E-2   -1.589641855155125E-2   -1.312924707955548E-2   -2.093716262876131E-1    4.736572857200043E-1
 1.000955244167500E+10  -3.883977861676340E-1    3.381102207170312E-1   -1.714761823584196E-2   -1.260819539581097E-2   -1.580911634598094E-2   -1.325298555320636E-2   -2.084356311760833E-1    4.741833935534948E-1
 1.000956549490000E+10  -3.877523587864128E-1    3.388246423993334E-1   -1.721828029724055E-2   -1.269720989500158E-2   -1.598854729433717E-2   -1.309368277947637E-2   -2.077711958134678E-1    4.746068134150834E-1
 1.000957854812500E+10  -3.870317032944803E-1    3.396147965567533E-1   -1.733734394945031E-2   -1.282406370213862E-2   -1.605172177701182E-2   -1.323052443943869E-2   -2.069141595746698E-1    4.748834430478783E-1
 1.000959160135000E+10  -3.862167696022001E-1    3.404921794258801E-1   -1.743358200489605E-2   -1.274943049745915E-2   -1.619862244176925E-2   -1.319793835544528E-2   -2.060063879882370E-1    4.752741238804687E-1
 1.000960465457500E+10  -3.856360995699153E-1    3.413494854953483E-1   -1.747495873612190E-2   -1.276187221583346E-2   -1.627852553431070E-2   -1.315676172125285E-2   -2.052782794066424E-1    4.754044074005657E-1
 1.000961770780000E+10  -3.848132418314008E-1    3.421939156047067E-1   -1.756659134314466E-2   -1.277744496460058E-2   -1.630611655381808E-2   -1.322156497358986E-2   -2.046153689994054E-1    4.758283121906990E-1
 1.000963076102500E+10  -3.842742504957063E-1    3.429418102870547E-1   -1.771602244835140E-2   -1.279442829063534E-2   -1.649760850116386E-2   -1.320381693097630E-2   -2.039025861169120E-1    4.764441527536844E-1
 1.000964381425000E+10  -3.835567019593473E-1    3.438170828776428E-1   -1.772496788351410E-2   -1.279006218693907E-2   -1.648380454776454E-2   -1.319374074674983E-2   -2.030200032420612E-1    4.766759726423554E-1
 1.000965686747500E+10  -3.827337458766728E-1    3.446106586126327E-1   -1.793528988459851E-2   -1.288081503323473E-2   -1.661773751878378E-2   -1.323028809755880E-2   -2.021781349350349E-1    4.771137828039640E-1
 1.000966992070000E+10  -3.819425672006367E-1    3.453298301807600E-1   -1.816878004860027E-2   -1.292346548770349E-2   -1.665478247125428E-2   -1.330916008769161E-2   -2.013892002537091E-1    4.774427896721886E-1
 1.000968297392500E+10  -3.813258142259601E-1    3.461565266649004E-1   -1.804639590180472E-2   -1.294730108568833E-2   -1.689357740764322E-2   -1.334074408780284E-2   -2.006135739452574E-1    4.776255559817925E-1
 1.000969602715000E+10  -3.806732404891369E-1    3.469369515381382E-1   -1.818489345797412E-2   -1.307362217928186E-2   -1.690722699941458E-2   -1.340950310401339E-2   -1.998598490646143E-1    4.781501388677166E-1
 1.000970908037500E+10  -3.798081060887895E-1    3.476825104900035E-1   -1.817041172072700E-2   -1.295834481387753E-2   -1.697357967521361E-2   -1.337903778045879E-2   -1.989868139932814E-1    4.783689248576163E-1
 1.000972213360000E+10  -3.791186697899721E-1    3.486275356064327E-1   -1.826449746197647E-2   -1.311650063302846E-2   -1.703469819600767E-2   -1.336756437248098E-2   -1.982668384136569E-1    4.786416664220723E-1
 1.000973518682500E+10  -3.783295834928623E-1    3.495449314005383E-1   -1.866790242550856E-2   -1.308300433145941E-2   -1.714195947210320E-2   -1.342743202358593E-2   -1.975698516088982E-1    4.790176361106865E-1
 1.000974824005000E+10  -3.776889446189975E-1    3.502548352721943E-1   -1.861422546357728E-2   -1.312888356979700E-2   -1.735554242596929E-2   -1.329498678486088E-2   -1.967733031238386E-1    4.795394146535918E-1
 1.000976129327500E+10  -3.770200388107683E-1    3.510917391483214E-1   -1.874669897526400E-2   -1.308289900473934E-2   -1.739146898993011E-2   -1.341698501967980E-2   -1.957650109096168E-1    4.798101075955233E-1
 1.000977434650000E+10  -3.762390708277237E-1    3.518971119532974E-1   -1.880262937403741E-2   -1.304311049119719E-2   -1.757507763517170E-2   -1.334260368583539E-2   -1.949885927750243E-1    4.802095328834948E-1
 1.000978739972500E+10  -3.754389792886152E-1    3.527288163802697E-1   -1.901103995492387E-2   -1.304543904694331E-2   -1.763629722042942E-2   -1.347545874364226E-2   -1.943372514344666E-1    4.803774894802049E-1
 1.000980045295000E+10  -3.746132439067873E-1    3.534660780701182E-1   -1.903827292869284E-2   -1.298421134092087E-2   -1.774297469789383E-2   -1.335535163847500E-2   -1.934849755279341E-1    4.809429569716993E-1
 1.000981350617500E+10  -3.738201016880259E-1    3.543836138945136E-1   -1.911878901310191E-2   -1.296037011720506E-2   -1.776553154119288E-2   -1.354559807026846E-2   -1.926815049922878E-1    4.811863112338665E-1
 1.000982655940000E+10  -3.731468565936623E-1    3.551593121882538E-1   -1.929263678943030E-2   -1.300300375931979E-2   -1.801015447204445E-2   -1.348826326690370E-2   -1.918173528933251E-1    4.816193064436096E-1
 1.000983961262500E+10  -3.723325802853604E-1    3.559824081500073E-1   -1.944132821410144E-2   -1.315277236134843E-2   -1.815299104302315E-2   -1.351933994920308E-2   -1.910024875272216E-1    4.818494777472756E-1
 1.000985266585000E+10  -3.715921633133001E-1    3.566171294593536E-1   -1.945832584835605E-2   -1.314289351313910E-2   -1.817766942062228E-2   -1.359475379895593E-2   -1.903164348743688E-1    4.820350462858338E-1
 1.000986571907500E+10  -3.708162930635535E-1    3.575919567572437E-1   -1.961231022793539E-2   -1.313483296593877E-2   -1.845437661629510E-2   -1.350171364318145E-2   -1.893685288145981E-1    4.824923932463621E-1
 1.000987877230000E+10  -3.700477812081727E-1    3.582894697757473E-1   -1.970123534623184E-2   -1.320225301164634E-2   -1.842593362426934E-2   -1.367126590666404E-2   -1.886828549947607E-1    4.829167378281199E-1
 1.000989182552500E+10  -3.691682437111798E-1    3.592816919306659E-1   -1.996612960314441E-2   -1.320994912178968E-2   -1.848916235035493E-2   -1.357126670143924E-2   -1.877917329108295E-1    4.832159918931636E-1
 1.000990487875000E+10  -3.684835973771044E-1    3.600516356101267E-1   -2.001459341968912E-2   -1.320824737958130E-2   -1.861192707749521E-2   -1.364145732591098E-2   -1.871096736764084E-1    4.834980714584422E-1
 1.000991793197500E+10  -3.675824417675966E-1    3.609013145767198E-1   -2.009461433960896E-2   -1.341550692767697E-2   -1.870891976106647E-2   -1.382816137300320E-2   -1.861840902370439E-1    4.837868560250446E-1
 1.000993098520000E+10  -3.670405472966126E-1    3.615886901382678E-1   -2.022839211800229E-2   -1.326317141023816E-2   -1.891663230091589E-2   -1.373775863792711E-2   -1.852869247078662E-1    4.841947924691314E-1
 1.000994403842500E+10  -3.660372008496848E-1    3.623790577228095E-1   -2.028837986253416E-2   -1.334092870302746E-2   -1.904393524789692E-2   -1.370321704811819E-2   -1.845238147383771E-1    4.845666493864575E-1
 1.000995709165000E+10  -3.652360067464899E-1    3.633549167760202E-1   -2.038499989965662E-2   -1.316854319998511E-2   -1.913349083605415E-2   -1.375680097833518E-2   -1.837296710652641E-1    4.847579490105199E-1
 1.000997014487500E+10  -3.643420170900233E-1    3.641044877938131E-1   -2.064462651971985E-2   -1.325607624856668E-2   -1.929014786778522E-2   -1.375122866005212E-2   -1.830378528533276E-1    4.851888064508785E-1
 1.000998319810000E+10  -3.636194013332481E-1    3.650038448337779E-1   -2.069448573038667E-2   -1.331683802577787E-2   -1.944992735843675E-2   -1.365727969005037E-2   -1.820210710108939E-1    4.854023272956787E-1
 1.000999625132500E+10  -3.627730825549442E-1    3.657836150785675E-1   -2.095513715762180E-2   -1.327300874796749E-2   -1.948321946087449E-2   -1.367359385206959E-2   -1.812963331634131E-1    4.857765514799269E-1
 1.001000930455000E+10  -3.618361418574230E-1    3.666081202991632E-1   -2.120121074675166E-2   -1.325274227261316E-2   -1.959176142165880E-2   -1.374355210781757E-2   -1.805268647072663E-1    4.860853310385493E-1
 1.001002235777500E+10  -3.611184949210228E-1    3.673064827965926E-1   -2.104909287515810E-2   -1.317910974103957E-2   -1.965256443255025E-2   -1.374737183537036E-2   -1.796717386231163E-1    4.864445073410178E-1
 1.001003541100000E+10  -3.603693471206471E-1    3.682431819223621E-1   -2.126834625435822E-2   -1.326279679353949E-2   -1.981616463787928E-2   -1.372408277376680E-2   -1.789698542788693E-1    4.866571616274711E-1
 1.001004846422500E+10  -3.595089836540508E-1    3.689436499037672E-1   -2.145341201385087E-2   -1.330562762224047E-2   -2.006543366952711E-2   -1.379940248462094E-2   -1.780671665119699E-1    4.870689842711238E-1
 1.001006151745000E+10  -3.584710791783411E-1    3.696587233884960E-1   -2.160848307614603E-2   -1.343251963962712E-2   -2.003064987741942E-2   -1.380308028916064E-2   -1.772165685674122E-1    4.873047605404792E-1
 1.001007457067500E+10  -3.575709333381609E-1    3.706281265309020E-1   -2.157985300902182E-2   -1.337064044490643E-2   -2.029317517581748E-2   -1.384741635470036E-2   -1.764725973025031E-1    4.875079979704310E-1
 1.001008762390000E+10  -3.567374632066472E-1    3.714720894974881E-1   -2.174126992663430E-2   -1.361346427148214E-2   -2.037366627086042E-2   -1.387135326659655E-2   -1.756394915512012E-1    4.880559862194727E-1
 1.001010067712500E+10  -3.559316020968620E-1    3.721712981267787E-1   -2.193973293996531E-2   -1.338688996908289E-2   -2.055665447117678E-2   -1.389237910295836E-2   -1.748594637450000E-1    4.882334927112773E-1
 1.001011373035000E+10  -3.551479889968459E-1    3.730524923286068E-1   -2.203398911677145E-2   -1.349282733569191E-2   -2.068937295841606E-2   -1.383216942214858E-2   -1.739731817089502E-1    4.886399588770008E-1
 1.001012678357500E+10  -3.542761659283347E-1    3.738838860419307E-1   -2.237065664956717E-2   -1.337941065412584E-2   -2.095769346248105E-2   -1.392659772483573E-2   -1.729899428983819E-1    4.889187170800527E-1
 1.001013983680000E+10  -3.533774755761448E-1    3.746599878665600E-1   -2.249000179683413E-2   -1.342593356595451E-2   -2.094760158657076E-2   -1.404713384811273E-2   -1.723737149965261E-1    4.892490516788201E-1
 1.001015289002500E+10  -3.526014355568804E-1    3.754757406617040E-1   -2.259887718690277E-2   -1.357602471603314E-2   -2.113076643791954E-2   -1.399930531064512E-2   -1.714016979555829E-1    4.895212385953049E-1
 1.001016594325000E+10  -3.515834555212390E-1    3.764905669823165E-1   -2.270305086955990E-2   -1.344654787824567E-2   -2.125464866522899E-2   -1.406965199385906E-2   -1.705656945488695E-1    4.897834691356776E-1
 1.001017899647500E+10  -3.508448725034697E-1    3.771341558832258E-1   -2.291887868797861E-2   -1.353259502742043E-2   -2.126044265678997E-2   -1.409246264785853E-2   -1.697493702042268E-1    4.900596432605581E-1
 1.001019204970000E+10  -3.497159008785304E-1    3.778104439274920E-1   -2.304076813622844E-2   -1.349486327995529E-2   -2.146356267136103E-2   -1.409120074180535E-2   -1.689863947002394E-1    4.904413512864553E-1
 1.001020510292500E+10  -3.487917499230498E-1    3.788216824345694E-1   -2.326353226918554E-2   -1.350938866025791E-2   -2.158312584598580E-2   -1.414171549543029E-2   -1.680679261595103E-1    4.906080411064665E-1
 1.001021815615000E+10  -3.479384631320179E-1    3.795975328085348E-1   -2.336776904988442E-2   -1.346872275291745E-2   -2.183934850960275E-2   -1.403079929016054E-2   -1.674208452982202E-1    4.909480472497672E-1
 1.001023120937500E+10  -3.469799136032929E-1    3.804991271681980E-1   -2.351811127203671E-2   -1.345911865139832E-2   -2.205775697346364E-2   -1.405663073473158E-2   -1.664797316146723E-1    4.911723099509063E-1
 1.001024426260000E+10  -3.462570225249059E-1    3.812141140402978E-1   -2.368493682866374E-2   -1.352246067255363E-2   -2.223108208888495E-2   -1.420509981236491E-2   -1.655457547014679E-1    4.917479467191777E-1
 1.001025731582500E+10  -3.452908768037134E-1    3.819536420857071E-1   -2.387678011584370E-2   -1.371349339150884E-2   -2.233206006592691E-2   -1.420762204438155E-2   -1.648334481064522E-1    4.917966027996009E-1
 1.001027036905000E+10  -3.442209428195344E-1    3.828068341167620E-1   -2.399066409134119E-2   -1.365568877491338E-2   -2.237724370190107E-2   -1.434528853463212E-2   -1.640731097433350E-1    4.922389067823429E-1
 1.001028342227500E+10  -3.432512178660997E-1    3.836179172151802E-1   -2.417855115650064E-2   -1.381239456225167E-2   -2.260412975656289E-2   -1.431171026409983E-2   -1.631365229513618E-1    4.925342794701772E-1
 1.001029647550000E+10  -3.423350797980746E-1    3.845709691771423E-1   -2.431889314870308E-2   -1.365891889607519E-2   -2.287620058077497E-2   -1.421525020304231E-2   -1.622710031224017E-1    4.925735750965249E-1
 1.001030952872500E+10  -3.413761015930030E-1    3.853363666091857E-1   -2.446863448462836E-2   -1.367821103933558E-2   -2.287519590024419E-2   -1.412285365392065E-2   -1.615454694943979E-1    4.928623352367087E-1
 1.001032258195000E+10  -3.403688521003913E-1    3.861856970026220E-1   -2.472474529470778E-2   -1.377243191261511E-2   -2.308221149065434E-2   -1.423995966460115E-2   -1.606505894696197E-1    4.932331526328644E-1
 1.001033563517500E+10  -3.395914511815288E-1    3.869814354220686E-1   -2.485723323548376E-2   -1.367903095915790E-2   -2.332524462980290E-2   -1.437767529064181E-2   -1.597769649085944E-1    4.934374302961249E-1
 1.001034868840000E+10  -3.383963900519817E-1    3.880051390410595E-1   -2.508809157003325E-2   -1.372626261013088E-2   -2.350234399197304E-2   -1.434708196831144E-2   -1.588914703364829E-1    4.938293054481240E-1
 1.001036174162500E+10  -3.373739117752361E-1    3.886382797601270E-1   -2.529613163779174E-2   -1.365801727470629E-2   -2.366847119689102E-2   -1.441257569465069E-2   -1.580537027795278E-1    4.941546489025405E-1
 1.001037479485000E+10  -3.363674379470087E-1    3.893839439435753E-1   -2.534144103601478E-2   -1.360189444243398E-2   -2.389027128018291E-2   -1.443580386724623E-2   -1.572474483752505E-1    4.942978514653723E-1
 1.001038784807500E+10  -3.354090126017596E-1    3.903452437650033E-1   -2.574293115249164E-2   -1.376769370936893E-2   -2.399668167683269E-2   -1.450057872180970E-2   -1.564405773239856E-1    4.946700304783382E-1
 1.001040090130000E+10  -3.343720013741953E-1    3.910981650352114E-1   -2.579834444771545E-2   -1.366262682327233E-2   -2.415546762866002E-2   -1.456497253159575E-2   -1.555047458911474E-1    4.949572298327068E-1
 1.001041395452500E+10  -3.334644085568700E-1    3.920170220664626E-1   -2.615412765955779E-2   -1.365551641309790E-2   -2.444223371612151E-2   -1.443598055091761E-2   -1.547791442324753E-1    4.952515072719889E-1
 1.001042700775000E+10  -3.322758681094587E-1    3.929513438909553E-1   -2.630719531206496E-2   -1.360604747919439E-2   -2.462462534086691E-2   -1.439407371645636E-2   -1.538138230114242E-1    4.954480973755424E-1
 1.001044006097500E+10  -3.313560482541051E-1    3.937269592306441E-1   -2.651463030856310E-2   -1.388403948021005E-2   -2.483280914192538E-2   -1.448309243468344E-2   -1.529416857265184E-1    4.958164588891480E-1
 1.001045311420000E+10  -3.303151615744465E-1    3.945016303490684E-1   -2.662979092621163E-2   -1.391803046456428E-2   -2.509626190562806E-2   -1.449751286497961E-2   -1.522100850271540E-1    4.960749341563113E-1
 1.001046616742500E+10  -3.292279723514544E-1    3.953573196992831E-1   -2.674834372999384E-2   -1.379469135463994E-2   -2.516108880242253E-2   -1.449419318339279E-2   -1.511254261407292E-1    4.962820122929318E-1
 1.001047922065000E+10  -3.280692032288001E-1    3.960878135682777E-1   -2.704849040139803E-2   -1.384072310598950E-2   -2.544919722690527E-2   -1.462815361743111E-2   -1.505695463011933E-1    4.964389962841158E-1
 1.001049227387500E+10  -3.270827207599358E-1    3.969080409991552E-1   -2.726425249582579E-2   -1.389441230819911E-2   -2.573692664758358E-2   -1.466861305584460E-2   -1.494353338467489E-1    4.966870156669277E-1
 1.001050532710000E+10  -3.259422497607286E-1    3.976606739762736E-1   -2.753205325862945E-2   -1.384542824393483E-2   -2.586556242253388E-2   -1.453906501355503E-2   -1.486207367518889E-1    4.971713459177957E-1
 1.001051838032500E+10  -3.248638494065701E-1    3.985404495969892E-1   -2.779097402758766E-2   -1.390558022563903E-2   -2.604774330208871E-2   -1.463423806526131E-2   -1.478259543580517E-1    4.972747277887566E-1
 1.001053143355000E+10  -3.236625662569745E-1    3.994171426310172E-1   -2.799709855901235E-2   -1.384490621834636E-2   -2.620838455692958E-2   -1.457752812714181E-2   -1.469223897076339E-1    4.975448842348961E-1
 1.001054448677500E+10  -3.226211785647072E-1    4.002168497445414E-1   -2.814253413341237E-2   -1.380983978654920E-2   -2.635975155637522E-2   -1.479536276723082E-2   -1.461021385827384E-1    4.977998490385367E-1
 1.001055754000000E+10  -3.214661144728430E-1    4.010653440887320E-1   -2.856728232679160E-2   -1.395421648137883E-2   -2.668800346888532E-2   -1.469692934828077E-2   -1.450788866201632E-1    4.980116392517917E-1
 1.001057059322500E+10  -3.202540870274488E-1    4.019634867315578E-1   -2.859828794725596E-2   -1.387391518539577E-2   -2.691410828275451E-2   -1.468756794388241E-2   -1.444364476942639E-1    4.982729803565965E-1
 1.001058364645000E+10  -3.191507372587085E-1    4.026557619390984E-1   -2.889496400267763E-2   -1.394779553694520E-2   -2.712552626739106E-2   -1.456451717610511E-2   -1.434733384590432E-1    4.985452043505076E-1
 1.001059669967500E+10  -3.180074050713357E-1    4.035139040568619E-1   -2.924473500028667E-2   -1.376666461376432E-2   -2.736595073692501E-2   -1.468262415992663E-2   -1.427561221338036E-1    4.987709674407032E-1
 1.001060975290000E+10  -3.168699249347741E-1    4.044533118920586E-1   -2.937714487549612E-2   -1.393257660001867E-2   -2.758105632161593E-2   -1.473674939818391E-2   -1.417046664228752E-1    4.990627129858626E-1
 1.001062280612500E+10  -3.157457079252698E-1    4.054002334551705E-1   -2.957686981706658E-2   -1.388849633828577E-2   -2.786553552980366E-2   -1.490812803783455E-2   -1.408277838504849E-1    4.992448693138729E-1
 1.001063585935000E+10  -3.145598992949707E-1    4.060631517488016E-1   -2.993112898709789E-2   -1.405416907353461E-2   -2.806555687037306E-2   -1.487441235536344E-2   -1.399921751424870E-1    4.996514179153474E-1
 1.001064891257500E+10  -3.131661037162832E-1    4.069745798950830E-1   -3.009513046957629E-2   -1.405783277927014E-2   -2.829708811466067E-2   -1.499061840190988E-2   -1.390793231507125E-1    4.997727372991070E-1
 1.001066196580000E+10  -3.118761196980190E-1    4.078285221130317E-1   -3.031876783419261E-2   -1.388634452453629E-2   -2.866618414921500E-2   -1.481716976009271E-2   -1.382550770858896E-1    5.000048721316105E-1
 1.001067501902500E+10  -3.108026086415660E-1    4.086200502406837E-1   -3.080334248956850E-2   -1.400831100726645E-2   -2.880174548345556E-2   -1.495340052523103E-2   -1.373391532048968E-1    5.001713332718228E-1
 1.001068807225000E+10  -3.095216304281898E-1    4.094631618992098E-1   -3.099808027504340E-2   -1.415655368317006E-2   -2.899405039926336E-2   -1.499395335121464E-2   -1.363973980891249E-1    5.004923163686869E-1
