#  HZ   S   RI   R     50.00 
! Rohde & Schwarz Vector Network Analyzer 
! Rohde-Schwarz,ZNB20-2Port,1311601062101988,3.16
! Created: UTC 12/23/2023, 4:02:40 AM
! freq[Hz]                re:S11                  im:S11                  re:S21                  im:S21                  re:S12                  im:S12                  re:S22                  im:S22
 1.001063874700000E+10  -3.276227497376920E-1    4.015335015010099E-1   -2.492448626709484E-2   -1.349257627562318E-2   -2.321259193473190E-2   -1.420224040631020E-2   -1.422151367385439E-1    4.999138028980023E-1
 1.001064782592500E+10  -3.268854753276520E-1    4.020763344916792E-1   -2.505618111824816E-2   -1.339826330336681E-2   -2.334579733984884E-2   -1.423847090230470E-2   -1.415126080518413E-1    4.999668401009719E-1
 1.001065690485000E+10  -3.261880865779724E-1    4.028012595369431E-1   -2.524116270602778E-2   -1.352315105943012E-2   -2.341264699850537E-2   -1.430731694699720E-2   -1.410420186793147E-1    5.001283894022397E-1
 1.001066598377500E+10  -3.255156262528094E-1    4.030543043192547E-1   -2.513426513977097E-2   -1.356219319787429E-2   -2.362468318244630E-2   -1.429911989030901E-2   -1.403913809964037E-1    5.003088326178199E-1
 1.001067506270000E+10  -3.247700100968509E-1    4.036018135556111E-1   -2.549811485148431E-2   -1.355679695423389E-2   -2.369661628752162E-2   -1.435110550029649E-2   -1.397130026954272E-1    5.005170778186386E-1
 1.001068414162500E+10  -3.239406667762549E-1    4.042318787939628E-1   -2.548437997177880E-2   -1.355242367888162E-2   -2.382599835320288E-2   -1.442580321882672E-2   -1.392218542943764E-1    5.006607212050126E-1
 1.001069322055000E+10  -3.233230524208247E-1    4.049412664101061E-1   -2.576436476279333E-2   -1.360489013106256E-2   -2.389305509968779E-2   -1.445554703867347E-2   -1.384828457238367E-1    5.007954932918608E-1
 1.001070229947500E+10  -3.224921805942921E-1    4.055526408568859E-1   -2.592355201710326E-2   -1.349316071210349E-2   -2.401534003361504E-2   -1.455089999604838E-2   -1.379919039719562E-1    5.010456888967741E-1
 1.001071137840000E+10  -3.220312720339466E-1    4.060070436305164E-1   -2.595122454342251E-2   -1.356073565732548E-2   -2.416404841986051E-2   -1.433793482569127E-2   -1.374961812566178E-1    5.011998256451706E-1
 1.001072045732500E+10  -3.213548813690912E-1    4.067515946221423E-1   -2.594436520131225E-2   -1.366249500806422E-2   -2.427061893261956E-2   -1.432315078790892E-2   -1.367664625559092E-1    5.013136402770313E-1
 1.001072953625000E+10  -3.205940248936856E-1    4.071823697012378E-1   -2.613286952387975E-2   -1.359805699004107E-2   -2.444878753941488E-2   -1.449810423558599E-2   -1.362215840707688E-1    5.015443002821879E-1
 1.001073861517500E+10  -3.197611043215220E-1    4.078010140362419E-1   -2.639575825325701E-2   -1.363294958890170E-2   -2.454022834229692E-2   -1.445643273212431E-2   -1.355147357653291E-1    5.015333340175951E-1
 1.001074769410000E+10  -3.189326571820443E-1    4.083339428524616E-1   -2.647749839354449E-2   -1.357875409502072E-2   -2.484757599022867E-2   -1.441890158208096E-2   -1.348829439497856E-1    5.018082009407652E-1
 1.001075677302500E+10  -3.182735304406852E-1    4.089814860138472E-1   -2.663955607044693E-2   -1.373811423649126E-2   -2.495222201738858E-2   -1.451760651165913E-2   -1.343613102485955E-1    5.020577495377473E-1
 1.001076585195000E+10  -3.173842230034532E-1    4.095762926413397E-1   -2.680161529163217E-2   -1.368321141867422E-2   -2.489801236625233E-2   -1.452529830794358E-2   -1.339018469522012E-1    5.022194662351881E-1
 1.001077493087500E+10  -3.166584896993492E-1    4.102877960796784E-1   -2.685158733285941E-2   -1.385446978907445E-2   -2.513421934812530E-2   -1.458792018574733E-2   -1.331928068934435E-1    5.024402742720713E-1
 1.001078400980000E+10  -3.160376602278431E-1    4.107003097130545E-1   -2.698548362596605E-2   -1.401159188749421E-2   -2.529621603743810E-2   -1.461722005625725E-2   -1.326074389745963E-1    5.025665039393817E-1
 1.001079308872500E+10  -3.151290530301464E-1    4.114191984076189E-1   -2.707666310382686E-2   -1.394023174804455E-2   -2.530691738316365E-2   -1.448391377207283E-2   -1.319971475175436E-1    5.027418809316394E-1
 1.001080216765000E+10  -3.144673421561354E-1    4.117822901687572E-1   -2.737792399369187E-2   -1.405157619553483E-2   -2.552871649995136E-2   -1.470551084463465E-2   -1.312888937029395E-1    5.028100782862119E-1
 1.001081124657500E+10  -3.135840315564387E-1    4.124654978833001E-1   -2.747371358086858E-2   -1.392915864238801E-2   -2.575267675666775E-2   -1.466788921372348E-2   -1.306296036681254E-1    5.030265638652847E-1
 1.001082032550000E+10  -3.130529202062291E-1    4.131716764605179E-1   -2.754801888642911E-2   -1.389942622475477E-2   -2.577845373230088E-2   -1.485283118383800E-2   -1.301750195583475E-1    5.031580827929129E-1
 1.001082940442500E+10  -3.120692915150013E-1    4.137998381359577E-1   -2.775029748179685E-2   -1.396235405748169E-2   -2.580208438150158E-2   -1.473245986343919E-2   -1.295253821922339E-1    5.033225568731975E-1
 1.001083848335000E+10  -3.113256306779594E-1    4.141995734495126E-1   -2.791680159843129E-2   -1.381238919573478E-2   -2.616012567691329E-2   -1.472815664466227E-2   -1.289704096749928E-1    5.033857391582979E-1
 1.001084756227500E+10  -3.106463736300297E-1    4.148461071462893E-1   -2.804074141760386E-2   -1.399637053452560E-2   -2.627922898066184E-2   -1.467810823946507E-2   -1.282261018089661E-1    5.036391363837336E-1
 1.001085664120000E+10  -3.097933565433790E-1    4.153644789351273E-1   -2.823019534480698E-2   -1.381762908488364E-2   -2.641414962250352E-2   -1.476622592537914E-2   -1.276715336649530E-1    5.037699626136275E-1
 1.001086572012500E+10  -3.089109674134525E-1    4.159824602557290E-1   -2.835429773402843E-2   -1.377157115091378E-2   -2.658546715057749E-2   -1.477363501739105E-2   -1.270219896695276E-1    5.039139887271117E-1
 1.001087479905000E+10  -3.083036393993075E-1    4.166738749069026E-1   -2.855084677017547E-2   -1.391026831885370E-2   -2.668155258301190E-2   -1.489511232012220E-2   -1.265763113546876E-1    5.040819382210828E-1
 1.001088387797500E+10  -3.074291384559332E-1    4.171406384589667E-1   -2.868292174317477E-2   -1.382539026747284E-2   -2.682003153056665E-2   -1.489761310555798E-2   -1.259128863157732E-1    5.043103244038367E-1
 1.001089295690000E+10  -3.066555557876522E-1    4.177824964283618E-1   -2.880449166551573E-2   -1.400595171888472E-2   -2.696236655823175E-2   -1.502994850365163E-2   -1.252572935448280E-1    5.044039970589562E-1
 1.001090203582500E+10  -3.058219750677558E-1    4.181986188216123E-1   -2.911090484562098E-2   -1.395958592970408E-2   -2.728052875165595E-2   -1.493635248381349E-2   -1.246329645139695E-1    5.045698686879003E-1
 1.001091111475000E+10  -3.051008941135632E-1    4.188585153565794E-1   -2.912684900063371E-2   -1.404286486013569E-2   -2.724230513622431E-2   -1.496550008394420E-2   -1.239887117385064E-1    5.046946587157245E-1
 1.001092019367500E+10  -3.041419552095978E-1    4.195404814160512E-1   -2.919127752209343E-2   -1.412555383943013E-2   -2.752188456976377E-2   -1.500053721736235E-2   -1.232761017293330E-1    5.048617244407398E-1
 1.001092927260000E+10  -3.033612905458385E-1    4.201181054404239E-1   -2.941933723422703E-2   -1.430671940742016E-2   -2.757743098923517E-2   -1.500546153270401E-2   -1.227337432370571E-1    5.051273334206354E-1
 1.001093835152500E+10  -3.026338800014280E-1    4.207543069976931E-1   -2.966748588362890E-2   -1.411111933420772E-2   -2.772373194152367E-2   -1.509905356718209E-2   -1.222567164907671E-1    5.052098551292284E-1
 1.001094743045000E+10  -3.017540512448691E-1    4.213676290063273E-1   -2.980491149093718E-2   -1.412774449097708E-2   -2.796980871735031E-2   -1.509207937648946E-2   -1.216053460968124E-1    5.052159902582594E-1
 1.001095650937500E+10  -3.010242276796891E-1    4.219219963929922E-1   -2.996096209596381E-2   -1.412022176655847E-2   -2.814587499902571E-2   -1.503170299817397E-2   -1.209559088438642E-1    5.055121594549067E-1
 1.001096558830000E+10  -3.000016991411384E-1    4.224256440477340E-1   -3.018589272115101E-2   -1.402455138198873E-2   -2.824924110539825E-2   -1.495590090502965E-2   -1.203552018042212E-1    5.055554970065942E-1
 1.001097466722500E+10  -2.992062111014793E-1    4.231597565877888E-1   -3.036344531249080E-2   -1.421918603412440E-2   -2.858257182903457E-2   -1.497976887907171E-2   -1.196627796782737E-1    5.058216038687341E-1
 1.001098374615000E+10  -2.982787953524987E-1    4.237482712126867E-1   -3.060208921314529E-2   -1.401876263294553E-2   -2.861434860293319E-2   -1.508991004884995E-2   -1.189854247276023E-1    5.058476051722560E-1
 1.001099282507500E+10  -2.973895680549009E-1    4.244069974520677E-1   -3.074608208049798E-2   -1.412702484145471E-2   -2.877164589653933E-2   -1.517001328950194E-2   -1.185053997066197E-1    5.061685939496660E-1
 1.001100190400000E+10  -2.966115056398597E-1    4.249807113043594E-1   -3.101192747637961E-2   -1.409731163604133E-2   -2.900716595732318E-2   -1.510500579148751E-2   -1.178811264399871E-1    5.063147386894068E-1
 1.001101098292500E+10  -2.956986808792673E-1    4.254698657706802E-1   -3.123012350996759E-2   -1.410911656909852E-2   -2.919720082183815E-2   -1.515764800689265E-2   -1.171469034848852E-1    5.063987632338314E-1
 1.001102006185000E+10  -2.948146640341098E-1    4.261932249671154E-1   -3.126430138846045E-2   -1.421241492937494E-2   -2.933468052823238E-2   -1.531047901889868E-2   -1.165038453003513E-1    5.064115608517488E-1
 1.001102914077500E+10  -2.939196146250796E-1    4.268182205593909E-1   -3.173423563448351E-2   -1.422842755053877E-2   -2.957397100324777E-2   -1.520031371207010E-2   -1.159412113322758E-1    5.064702486667856E-1
 1.001103821970000E+10  -2.930546712144884E-1    4.272825276561042E-1   -3.165648802034530E-2   -1.428409302132618E-2   -2.980142957757467E-2   -1.546433575837635E-2   -1.152420340439478E-1    5.066966553761719E-1
 1.001104729862500E+10  -2.921420329518293E-1    4.279058953025191E-1   -3.185441621407619E-2   -1.435174116050240E-2   -2.988745247112107E-2   -1.528249433753185E-2   -1.145597104444488E-1    5.068484684850812E-1
 1.001105637755000E+10  -2.912385228280208E-1    4.284100208384345E-1   -3.203314647732280E-2   -1.437927055973836E-2   -3.006397548197723E-2   -1.516702088770759E-2   -1.141338246365003E-1    5.070602219930613E-1
 1.001106545647500E+10  -2.902843333694292E-1    4.291152868765525E-1   -3.213541116328156E-2   -1.453791895909494E-2   -3.042033480662480E-2   -1.531970744205017E-2   -1.135807452797242E-1    5.071731689501927E-1
 1.001107453540000E+10  -2.893352913244484E-1    4.297714987943411E-1   -3.253387414791841E-2   -1.454486928343455E-2   -3.073461620455516E-2   -1.529305743533806E-2   -1.128399369521765E-1    5.072632612990662E-1
 1.001108361432500E+10  -2.884313047113093E-1    4.302324856259644E-1   -3.271925777466841E-2   -1.440050349673248E-2   -3.082483173334051E-2   -1.533080231818233E-2   -1.122845661371188E-1    5.074085074272707E-1
 1.001109269325000E+10  -2.874411048503683E-1    4.309436393941669E-1   -3.288955074367834E-2   -1.433059233833345E-2   -3.092156757058551E-2   -1.537465561088705E-2   -1.114181828263384E-1    5.074885863982097E-1
 1.001110177217500E+10  -2.865216973907281E-1    4.315666216784559E-1   -3.303686621001684E-2   -1.422210367006116E-2   -3.112234644094187E-2   -1.555060746142434E-2   -1.111024911819734E-1    5.076963990945702E-1
 1.001111085110000E+10  -2.855552977987103E-1    4.320611921815244E-1   -3.332466689580934E-2   -1.428005094403199E-2   -3.133797064526190E-2   -1.546437310553592E-2   -1.102305888639166E-1    5.077733604799703E-1
 1.001111993002500E+10  -2.845825182584459E-1    4.326609954242909E-1   -3.353865279319696E-2   -1.419637489026981E-2   -3.156795403669106E-2   -1.560399243217749E-2   -1.097158061490381E-1    5.080121443211458E-1
 1.001112900895000E+10  -2.837047535617166E-1    4.335271450466785E-1   -3.380462056238687E-2   -1.441057954849174E-2   -3.172949914350096E-2   -1.555900716762245E-2   -1.089604808058614E-1    5.082032334504516E-1
 1.001113808787500E+10  -2.826415795995793E-1    4.339632971842233E-1   -3.402317409468315E-2   -1.432418456678182E-2   -3.195464964229490E-2   -1.561838824598755E-2   -1.083288720127798E-1    5.082227921217386E-1
 1.001114716680000E+10  -2.817958633781266E-1    4.345899292983615E-1   -3.437542480401352E-2   -1.429007444085932E-2   -3.227311907535395E-2   -1.551136921633194E-2   -1.076512292918034E-1    5.083820138917390E-1
 1.001115624572500E+10  -2.807182048796035E-1    4.352901812043600E-1   -3.448186662192598E-2   -1.442079310203014E-2   -3.246663384262866E-2   -1.560970768382588E-2   -1.070404636452354E-1    5.085439415368590E-1
 1.001116532465000E+10  -2.796752408737974E-1    4.357713526810836E-1   -3.469626312314947E-2   -1.449599704329199E-2   -3.272758107976508E-2   -1.548392945752127E-2   -1.063971303467160E-1    5.087399766909479E-1
 1.001117440357500E+10  -2.786603056475145E-1    4.365350799533197E-1   -3.506032909229913E-2   -1.458852303624325E-2   -3.283158842762734E-2   -1.573035176657890E-2   -1.058996160240192E-1    5.087288734101576E-1
 1.001118348250000E+10  -2.776991441914555E-1    4.371528696809418E-1   -3.519122951988700E-2   -1.462154886508853E-2   -3.306504848274212E-2   -1.567719191610649E-2   -1.050869046347316E-1    5.087955609126542E-1
 1.001119256142500E+10  -2.766109022887013E-1    4.376385699772093E-1   -3.539908315297175E-2   -1.459623046168206E-2   -3.324920247660339E-2   -1.576176798929243E-2   -1.045247137075658E-1    5.090222321871947E-1
 1.001120164035000E+10  -2.756774794361804E-1    4.384265364003330E-1   -3.566524277934959E-2   -1.449796804563778E-2   -3.361250002053839E-2   -1.582513430291883E-2   -1.037530973733714E-1    5.092257585460156E-1
 1.001121071927500E+10  -2.745193953103764E-1    4.388925375018927E-1   -3.599779068194129E-2   -1.454257873645371E-2   -3.374824795556077E-2   -1.582393851752515E-2   -1.031633412955805E-1    5.092426766263460E-1
 1.001121979820000E+10  -2.734506619122747E-1    4.396124701302386E-1   -3.620559083688672E-2   -1.446095215866758E-2   -3.405116979784712E-2   -1.583735181811688E-2   -1.025091422717457E-1    5.094288743112753E-1
 1.001122887712500E+10  -2.722761177762728E-1    4.402042107178539E-1   -3.651518542496419E-2   -1.459089792039701E-2   -3.425935204453971E-2   -1.586048032014441E-2   -1.018837079122552E-1    5.094328576788413E-1
 1.001123795605000E+10  -2.712503750618480E-1    4.408008410513130E-1   -3.680661211359505E-2   -1.442286685991481E-2   -3.452523941699542E-2   -1.577062576323896E-2   -1.011765218535167E-1    5.097195684465290E-1
 1.001124703497500E+10  -2.702671574971174E-1    4.414862377345838E-1   -3.710281636984968E-2   -1.457513075838597E-2   -3.487430857976114E-2   -1.571580778436246E-2   -1.005096502357401E-1    5.096751160922930E-1
 1.001125611390000E+10  -2.690719895558374E-1    4.420421172571862E-1   -3.736689708309649E-2   -1.441757715206342E-2   -3.518334871626261E-2   -1.579348357843837E-2   -9.984739615723372E-2    5.098304191486794E-1
 1.001126519282500E+10  -2.680130195907965E-1    4.427798351884326E-1   -3.755322073752606E-2   -1.460921158568133E-2   -3.543387519391566E-2   -1.572734773701530E-2   -9.937553566017741E-2    5.100235878985109E-1
 1.001127427175000E+10  -2.667473581056231E-1    4.432485225410958E-1   -3.794118500095204E-2   -1.456239312848023E-2   -3.563383175292397E-2   -1.584718954350105E-2   -9.860165916111892E-2    5.101485789653928E-1
 1.001128335067500E+10  -2.657742011262207E-1    4.439852661590963E-1   -3.806031483673544E-2   -1.457169401502452E-2   -3.585187742700120E-2   -1.597799922121826E-2   -9.797938512043632E-2    5.102150917691441E-1
 1.001129242960000E+10  -2.646300731797969E-1    4.447129002316186E-1   -3.847585828218435E-2   -1.466162590372289E-2   -3.614890590269026E-2   -1.607430066666502E-2   -9.729314401908065E-2    5.102653710035030E-1
 1.001130150852500E+10  -2.634010621077712E-1    4.452456936128261E-1   -3.863474894181533E-2   -1.472026140579460E-2   -3.631695114567920E-2   -1.601366142734627E-2   -9.650052142498483E-2    5.105645056916460E-1
 1.001131058745000E+10  -2.623200887869776E-1    4.458254136508086E-1   -3.906668968981541E-2   -1.472506269702776E-2   -3.677639748468828E-2   -1.609879505020393E-2   -9.585235505199920E-2    5.104642735328491E-1
 1.001131966637500E+10  -2.610237648769644E-1    4.464993179063674E-1   -3.914638240827917E-2   -1.475300738102605E-2   -3.701644433825421E-2   -1.605928835719781E-2   -9.527911639013066E-2    5.106212604140319E-1
 1.001132874530000E+10  -2.597674356913908E-1    4.472819114936905E-1   -3.961639625660104E-2   -1.471408040927182E-2   -3.724887557446346E-2   -1.611139846329328E-2   -9.461314937320357E-2    5.107739852598114E-1
 1.001133782422500E+10  -2.585962575660378E-1    4.478235691386244E-1   -3.996695228502054E-2   -1.460698895518700E-2   -3.770630708850207E-2   -1.599290824135807E-2   -9.390121499250662E-2    5.109178727654703E-1
 1.001134690315000E+10  -2.575187162312065E-1    4.484571594863723E-1   -4.021129495989301E-2   -1.459828101102229E-2   -3.788192556534929E-2   -1.611742388815548E-2   -9.332102128266999E-2    5.110596251067879E-1
 1.001135598207500E+10  -2.561833402712402E-1    4.492339179736120E-1   -4.054809956561154E-2   -1.456773876211709E-2   -3.813775533871535E-2   -1.613406662992758E-2   -9.268316273958584E-2    5.110681913776334E-1
 1.001136506100000E+10  -2.550189592078261E-1    4.499225909656754E-1   -4.099920605674997E-2   -1.449247658421664E-2   -3.843714329940276E-2   -1.621297860610888E-2   -9.203759785703947E-2    5.111611515702150E-1
 1.001137413992500E+10  -2.536596486039377E-1    4.505277714396879E-1   -4.130011984829088E-2   -1.452913425746293E-2   -3.867996669423079E-2   -1.624185107112701E-2   -9.126837906312009E-2    5.112723512117578E-1
 1.001138321885000E+10  -2.524679746021833E-1    4.510911836072141E-1   -4.161736855626035E-2   -1.457064125545926E-2   -3.907068715532312E-2   -1.629830561676329E-2   -9.047428908520484E-2    5.113712647162770E-1
 1.001139229777500E+10  -2.511596262227238E-1    4.516553193989948E-1   -4.180260236090933E-2   -1.464368857314387E-2   -3.949629308375189E-2   -1.626546255616450E-2   -8.982597767521484E-2    5.113510336075493E-1
 1.001140137670000E+10  -2.498106846168633E-1    4.523185396226455E-1   -4.220368550861751E-2   -1.456169273651377E-2   -3.988773652837854E-2   -1.632386693508168E-2   -8.916838904317871E-2    5.116633043546203E-1
 1.001141045562500E+10  -2.484859871435201E-1    4.529486279559622E-1   -4.266229981073024E-2   -1.462610383016249E-2   -4.007483034556512E-2   -1.626615499932075E-2   -8.849607735316942E-2    5.116990642249991E-1
 1.001141953455000E+10  -2.472095279318750E-1    4.536523964945541E-1   -4.289574812375246E-2   -1.475635971217242E-2   -4.040135875289792E-2   -1.627686130815138E-2   -8.776786011200213E-2    5.116889504599108E-1
 1.001142861347500E+10  -2.459048116846065E-1    4.543102108560574E-1   -4.330113841221971E-2   -1.486024942855469E-2   -4.085416417289063E-2   -1.626181633667775E-2   -8.719398526389761E-2    5.118428526675360E-1
 1.001143769240000E+10  -2.443271439902764E-1    4.550514438463442E-1   -4.365101546078096E-2   -1.469310584345323E-2   -4.130570245781426E-2   -1.616249417272293E-2   -8.651189758784497E-2    5.119701807552132E-1
 1.001144677132500E+10  -2.429768488592322E-1    4.557559276155827E-1   -4.398937116863903E-2   -1.469595739504513E-2   -4.156062898836519E-2   -1.638123182207846E-2   -8.582212383527865E-2    5.121146869554811E-1
 1.001145585025000E+10  -2.415968759812088E-1    4.563712986312821E-1   -4.428295848474560E-2   -1.463302311668102E-2   -4.193727513571567E-2   -1.639586896838615E-2   -8.513124509348365E-2    5.121097009935487E-1
