#  HZ   S   RI   R     50.00 
! Rohde & Schwarz Vector Network Analyzer 
! Rohde-Schwarz,ZNB20-2Port,1311601062101988,3.16
! Created: UTC 12/23/2023, 3:39:00 AM
! freq[Hz]                re:S11                  im:S11                  re:S21                  im:S21                  re:S12                  im:S12                  re:S22                  im:S22
 1.001035315800000E+10  -3.438067855692392E-1    3.867696252282335E-1   -2.273062024231377E-2   -1.347721077699561E-2   -2.097759879648916E-2   -1.408837516884479E-2   -1.592951861162325E-1    4.943870957321970E-1
 1.001036305712500E+10  -3.430196645081012E-1    3.874319953348324E-1   -2.291789817977592E-2   -1.347268813502866E-2   -2.134492118556532E-2   -1.413870527788975E-2   -1.586790595159306E-1    4.944350033707084E-1
 1.001037295625000E+10  -3.424081891973145E-1    3.879697024798711E-1   -2.289707241985519E-2   -1.331191567175871E-2   -2.134809158567294E-2   -1.399149665520264E-2   -1.579646277203759E-1    4.945957565356313E-1
 1.001038285537500E+10  -3.416361675644023E-1    3.884421220026864E-1   -2.302995561184377E-2   -1.331153684522884E-2   -2.143096190663223E-2   -1.398591969859064E-2   -1.573299242682591E-1    4.949241188615479E-1
 1.001039275450000E+10  -3.409357527739098E-1    3.891166369221010E-1   -2.321543842820001E-2   -1.344037393329927E-2   -2.173411045727069E-2   -1.406492592854774E-2   -1.566756385268169E-1    4.952167145402837E-1
 1.001040265362500E+10  -3.403204214819925E-1    3.896714218967903E-1   -2.346468611813959E-2   -1.348546637771754E-2   -2.179185250087027E-2   -1.421461988938915E-2   -1.559331709710286E-1    4.954728823437658E-1
 1.001041255275000E+10  -3.395129800275424E-1    3.904026479292459E-1   -2.346611591289111E-2   -1.348249787319037E-2   -2.185176359075638E-2   -1.413476871502307E-2   -1.554407484740122E-1    4.956206032999960E-1
 1.001042245187500E+10  -3.388184814236903E-1    3.909852625841216E-1   -2.341156804352122E-2   -1.331083456214873E-2   -2.206626442487962E-2   -1.421019816785664E-2   -1.548160230919988E-1    4.957920452877688E-1
 1.001043235100000E+10  -3.380766195632937E-1    3.916715018579503E-1   -2.377832302849424E-2   -1.349648186818589E-2   -2.205045128696055E-2   -1.413293570188884E-2   -1.540901534617468E-1    4.959493801685395E-1
 1.001044225012500E+10  -3.373305852687794E-1    3.922090798450412E-1   -2.383443434926669E-2   -1.356194550438518E-2   -2.213742044960302E-2   -1.416073860633775E-2   -1.535110888496137E-1    4.961745225061921E-1
 1.001045214925000E+10  -3.368269080639839E-1    3.929587928541266E-1   -2.394249385505070E-2   -1.348110520774714E-2   -2.224953983085695E-2   -1.434457137414384E-2   -1.529835948878971E-1    4.964303798538973E-1
 1.001046204837500E+10  -3.358727303381226E-1    3.935048648586453E-1   -2.407462818877607E-2   -1.346861496891516E-2   -2.245968782536616E-2   -1.438941698969175E-2   -1.522473721296101E-1    4.966498534110807E-1
 1.001047194750000E+10  -3.352274226808877E-1    3.941825489592252E-1   -2.431664783780954E-2   -1.354792150953242E-2   -2.240881370418931E-2   -1.428582321140469E-2   -1.516556671994826E-1    4.968269527755357E-1
 1.001048184662500E+10  -3.345584112868820E-1    3.948318596004012E-1   -2.424401283245599E-2   -1.356080594369771E-2   -2.281220110525531E-2   -1.428773294732119E-2   -1.509824463333069E-1    4.971057621106386E-1
 1.001049174575000E+10  -3.336862855333998E-1    3.952588573581630E-1   -2.438168192773296E-2   -1.357161771318257E-2   -2.288829131463849E-2   -1.432368629195851E-2   -1.501923438147454E-1    4.972241702754809E-1
 1.001050164487500E+10  -3.328839191393674E-1    3.961087790410521E-1   -2.445689157246627E-2   -1.371424203195035E-2   -2.304234774899871E-2   -1.439530891414116E-2   -1.497058635955914E-1    4.973959160775498E-1
 1.001051154400000E+10  -3.322321299729153E-1    3.966772176801567E-1   -2.467974359040037E-2   -1.369899442588692E-2   -2.317712672977603E-2   -1.443646314768099E-2   -1.490483281285265E-1    4.977355628998228E-1
 1.001052144312500E+10  -3.315380723967041E-1    3.972945266503646E-1   -2.470472717364147E-2   -1.368240153947231E-2   -2.323564119078327E-2   -1.439123930697134E-2   -1.484390650196117E-1    4.977881481920344E-1
 1.001053134225000E+10  -3.307239674562388E-1    3.979114750088629E-1   -2.496680450853439E-2   -1.379991840595645E-2   -2.334027625050538E-2   -1.450044333026493E-2   -1.477996883561515E-1    4.980536677819577E-1
 1.001054124137500E+10  -3.299260210199495E-1    3.985623963231891E-1   -2.504293341048357E-2   -1.387402569620642E-2   -2.342947814926772E-2   -1.441866548526145E-2   -1.470772575937905E-1    4.981831645981052E-1
 1.001055114050000E+10  -3.292533054420776E-1    3.991020365635310E-1   -2.531942650154230E-2   -1.369598529327326E-2   -2.362418567092639E-2   -1.440210492767096E-2   -1.463581112992637E-1    4.983706872770570E-1
 1.001056103962500E+10  -3.285004545886930E-1    3.998129244916048E-1   -2.538824924917339E-2   -1.375691502438150E-2   -2.375373710874235E-2   -1.434010627318664E-2   -1.458015651783767E-1    4.986421626952830E-1
 1.001057093875000E+10  -3.276421959116517E-1    4.004669776932701E-1   -2.553192520228666E-2   -1.373855043995958E-2   -2.384115113691132E-2   -1.448433295411226E-2   -1.450875786974155E-1    4.988588776402739E-1
 1.001058083787500E+10  -3.269697713038834E-1    4.010163896756310E-1   -2.572533647351126E-2   -1.381627642636098E-2   -2.399999429889775E-2   -1.456678250173562E-2   -1.444028461932594E-1    4.989686785932004E-1
 1.001059073700000E+10  -3.261932427200722E-1    4.017052832266069E-1   -2.595051387976936E-2   -1.385679867472690E-2   -2.415485207602811E-2   -1.446626399134204E-2   -1.438817288716486E-1    4.992898915513578E-1
 1.001060063612500E+10  -3.252246989455973E-1    4.024040844024913E-1   -2.588308772365536E-2   -1.369304320621200E-2   -2.442065047781852E-2   -1.448969976767036E-2   -1.432128210976749E-1    4.993079845782007E-1
 1.001061053525000E+10  -3.245908429973876E-1    4.030525406216893E-1   -2.611948832825341E-2   -1.388263950673261E-2   -2.445114101664543E-2   -1.452416517404036E-2   -1.424764511708461E-1    4.995950553298293E-1
 1.001062043437500E+10  -3.237453315439890E-1    4.036454504330776E-1   -2.629536965276946E-2   -1.382626650028865E-2   -2.467867074412887E-2   -1.461260615577419E-2   -1.417132150720348E-1    4.998051821975645E-1
 1.001063033350000E+10  -3.229965124175802E-1    4.042330880118838E-1   -2.646608369935402E-2   -1.390162446946653E-2   -2.475901204766003E-2   -1.453898135170734E-2   -1.411703133983649E-1    5.001150909971005E-1
 1.001064023262500E+10  -3.222006112680346E-1    4.047616729799863E-1   -2.650157432014052E-2   -1.391621527081577E-2   -2.478681402461323E-2   -1.469695384185078E-2   -1.405726775329095E-1    5.000975246743100E-1
 1.001065013175000E+10  -3.213024160740382E-1    4.054208850826868E-1   -2.684675098459112E-2   -1.397536803147713E-2   -2.490739120340649E-2   -1.464991870258857E-2   -1.399877204043287E-1    5.003009855445657E-1
 1.001066003087500E+10  -3.205841052559350E-1    4.063458738497964E-1   -2.674032417605458E-2   -1.398576880537961E-2   -2.513108583102560E-2   -1.471124581379784E-2   -1.392842113471983E-1    5.005423536437387E-1
 1.001066993000000E+10  -3.197040241425398E-1    4.068614967185564E-1   -2.703902357242663E-2   -1.396697822287217E-2   -2.528861952289105E-2   -1.465473297574724E-2   -1.386474348896587E-1    5.008417427236207E-1
 1.001067982912500E+10  -3.190176864369692E-1    4.073383132131786E-1   -2.713599169680678E-2   -1.407379900593849E-2   -2.553769976787937E-2   -1.471909235864924E-2   -1.379037986642249E-1    5.009941703361125E-1
 1.001068972825000E+10  -3.180776106130819E-1    4.081151391994076E-1   -2.731009260430122E-2   -1.393949434837193E-2   -2.565511968112740E-2   -1.471143717766403E-2   -1.371186857955553E-1    5.010818391734616E-1
 1.001069962737500E+10  -3.172286941149212E-1    4.087596543090471E-1   -2.743468894109202E-2   -1.391538620283652E-2   -2.579599426185224E-2   -1.467310687264078E-2   -1.365288415523578E-1    5.012057090360698E-1
 1.001070952650000E+10  -3.164727917447457E-1    4.093382135495963E-1   -2.775297431011419E-2   -1.403512459514306E-2   -2.594716814799874E-2   -1.469193891034668E-2   -1.360526528647819E-1    5.014533792629546E-1
 1.001071942562500E+10  -3.153667163245710E-1    4.099690354626366E-1   -2.793722618439602E-2   -1.408446211029686E-2   -2.603755244560568E-2   -1.481634909280202E-2   -1.351730283112940E-1    5.015399893385039E-1
 1.001072932475000E+10  -3.148031909386175E-1    4.106639493057679E-1   -2.806048880860253E-2   -1.406592993413599E-2   -2.632471650954846E-2   -1.488087072222954E-2   -1.346149307865263E-1    5.019105930252283E-1
 1.001073922387500E+10  -3.138879383905360E-1    4.111148094613369E-1   -2.835730317893390E-2   -1.394761438327507E-2   -2.645718228214510E-2   -1.487033511053721E-2   -1.339980007649504E-1    5.018618700951765E-1
 1.001074912300000E+10  -3.130288782888666E-1    4.120257487669218E-1   -2.843471497412274E-2   -1.411699380821962E-2   -2.655679241584443E-2   -1.493299907775056E-2   -1.332561831826563E-1    5.022364507564587E-1
 1.001075902212500E+10  -3.121598290465696E-1    4.124933779290278E-1   -2.859959288366876E-2   -1.392977430016559E-2   -2.669897460888398E-2   -1.484941628151692E-2   -1.326602462730529E-1    5.023100708832502E-1
 1.001076892125000E+10  -3.112448872511563E-1    4.131516476682897E-1   -2.887638802808162E-2   -1.398870547947820E-2   -2.688896645475521E-2   -1.495508458758780E-2   -1.319664009881301E-1    5.024272774041408E-1
 1.001077882037500E+10  -3.105126536300352E-1    4.138812937433870E-1   -2.901202235685287E-2   -1.419029001768341E-2   -2.711284156679419E-2   -1.482845480740003E-2   -1.312243549796614E-1    5.027744414385951E-1
 1.001078871950000E+10  -3.095720074968614E-1    4.144433112665143E-1   -2.907203289089260E-2   -1.402594105811235E-2   -2.726018315788357E-2   -1.487121151960987E-2   -1.306779546053359E-1    5.028861279300283E-1
 1.001079861862500E+10  -3.087471705230258E-1    4.150092521759772E-1   -2.925949298535745E-2   -1.428680392446765E-2   -2.747009914938923E-2   -1.493399240613227E-2   -1.299090909382682E-1    5.031585121967074E-1
 1.001080851775000E+10  -3.078803482646291E-1    4.158043374654984E-1   -2.939757828264740E-2   -1.432657262387929E-2   -2.754428227874832E-2   -1.486107983924267E-2   -1.292519943698097E-1    5.032651502894220E-1
 1.001081841687500E+10  -3.068760336060202E-1    4.163864732967287E-1   -2.956548738690897E-2   -1.423152594138333E-2   -2.774024533550661E-2   -1.505947348696603E-2   -1.285606976775506E-1    5.033571765529624E-1
 1.001082831600000E+10  -3.059056624970054E-1    4.169811871716390E-1   -2.976838596033353E-2   -1.419778235654068E-2   -2.805376305212704E-2   -1.510529564425279E-2   -1.278480087811184E-1    5.035616621461178E-1
 1.001083821512500E+10  -3.049964697655144E-1    4.177259208388192E-1   -3.004461208639391E-2   -1.424939166752187E-2   -2.802445850942823E-2   -1.511357923019945E-2   -1.272502810664589E-1    5.038094754357126E-1
 1.001084811425000E+10  -3.040153104078805E-1    4.184089759978261E-1   -3.026238999398924E-2   -1.418214156067432E-2   -2.831337345374177E-2   -1.517664238270783E-2   -1.266499459339218E-1    5.038786807252812E-1
 1.001085801337500E+10  -3.030537816673303E-1    4.189905330296717E-1   -3.043570482286873E-2   -1.423100677333334E-2   -2.857537782216804E-2   -1.523881243139063E-2   -1.260440272494840E-1    5.040751123821973E-1
 1.001086791250000E+10  -3.021091473484790E-1    4.195613838971741E-1   -3.062132325305012E-2   -1.417097463812150E-2   -2.872479970948952E-2   -1.522776205382548E-2   -1.252229719275078E-1    5.041675661959464E-1
 1.001087781162500E+10  -3.011887862137846E-1    4.202995010513263E-1   -3.086473639443799E-2   -1.421716110478567E-2   -2.889900059881072E-2   -1.525107565535375E-2   -1.245733702545028E-1    5.045077934965140E-1
 1.001088771075000E+10  -3.001533784704171E-1    4.209678938997875E-1   -3.097115606593006E-2   -1.438084715243807E-2   -2.929856358075251E-2   -1.513918156043332E-2   -1.239702073760255E-1    5.045911769220639E-1
 1.001089760987500E+10  -2.993555687784606E-1    4.215154378493838E-1   -3.130109252621008E-2   -1.424377962968205E-2   -2.938735502954377E-2   -1.517264511597087E-2   -1.231520959831205E-1    5.048313480509343E-1
 1.001090750900000E+10  -2.983469984512768E-1    4.223051356935938E-1   -3.154449798819462E-2   -1.443070357964707E-2   -2.957713208068209E-2   -1.520633138217123E-2   -1.225265895286930E-1    5.049369605487189E-1
 1.001091740812500E+10  -2.973701842162891E-1    4.228847610359446E-1   -3.166696465827350E-2   -1.428188744516070E-2   -2.964216987019399E-2   -1.535152997483998E-2   -1.217680004417755E-1    5.050299809380592E-1
 1.001092730725000E+10  -2.964054755998962E-1    4.236034136296957E-1   -3.188327226151893E-2   -1.445676839022905E-2   -2.993280047017365E-2   -1.546486888698247E-2   -1.212642286227424E-1    5.052371285860402E-1
 1.001093720637500E+10  -2.954839229562157E-1    4.241775007020312E-1   -3.205092014152364E-2   -1.456116249250382E-2   -3.019770164361382E-2   -1.540637696342158E-2   -1.204023797596467E-1    5.052910833855919E-1
 1.001094710550000E+10  -2.943946690749366E-1    4.249669479850969E-1   -3.235104262200054E-2   -1.451574174441303E-2   -3.026344204642064E-2   -1.557798292064482E-2   -1.198853194355728E-1    5.055004731854971E-1
 1.001095700462500E+10  -2.934167411382375E-1    4.255450048423472E-1   -3.256260679312447E-2   -1.451752599867845E-2   -3.059123354627625E-2   -1.548086553050025E-2   -1.191892619452748E-1    5.058223483802526E-1
 1.001096690375000E+10  -2.924069322135676E-1    4.261317368061180E-1   -3.278818457387178E-2   -1.442094301454992E-2   -3.086925535507102E-2   -1.553369487263377E-2   -1.184611078516256E-1    5.059700502576951E-1
 1.001097680287500E+10  -2.913445251581945E-1    4.269582907690902E-1   -3.313041262313424E-2   -1.435807799262233E-2   -3.111015646641503E-2   -1.546781938578461E-2   -1.178713305165377E-1    5.059971506455182E-1
 1.001098670200000E+10  -2.902967674313287E-1    4.275067147571746E-1   -3.327196597302128E-2   -1.438841776702124E-2   -3.127676347311695E-2   -1.551449875769678E-2   -1.170960918367063E-1    5.061568271057464E-1
 1.001099660112500E+10  -2.892866886056606E-1    4.281875248031649E-1   -3.361269287485966E-2   -1.449227166632329E-2   -3.161569643905619E-2   -1.546935939458208E-2   -1.163887294547831E-1    5.062912371566269E-1
 1.001100650025000E+10  -2.881936493273205E-1    4.289419150464973E-1   -3.388592092257903E-2   -1.439290398600178E-2   -3.167837689353524E-2   -1.553136641431756E-2   -1.156813005243362E-1    5.063834541040142E-1
 1.001101639937500E+10  -2.870069758079223E-1    4.295857663974757E-1   -3.407070623627152E-2   -1.435878031609857E-2   -3.196104525451905E-2   -1.547487563154659E-2   -1.149309080244607E-1    5.066059982482281E-1
 1.001102629850000E+10  -2.859638108223620E-1    4.301180883094258E-1   -3.417808893593077E-2   -1.437651592204270E-2   -3.222256877694222E-2   -1.579498739573234E-2   -1.141247453099384E-1    5.067608061892930E-1
 1.001103619762500E+10  -2.849449352580201E-1    4.309238924214137E-1   -3.455582371102004E-2   -1.449783026487312E-2   -3.241775043447880E-2   -1.566023266528488E-2   -1.137325623866444E-1    5.069165506525272E-1
 1.001104609675000E+10  -2.839509544912401E-1    4.315914561631584E-1   -3.472155830793095E-2   -1.447436639323962E-2   -3.259701631476025E-2   -1.571655232216985E-2   -1.127821241498684E-1    5.071387568042725E-1
 1.001105599587500E+10  -2.826166076553795E-1    4.322333548972883E-1   -3.494420353521027E-2   -1.458558854581564E-2   -3.301847537925200E-2   -1.559490267210406E-2   -1.121475143662406E-1    5.072126085776161E-1
 1.001106589500000E+10  -2.815601604565743E-1    4.329010851030516E-1   -3.529939459075139E-2   -1.451525581351185E-2   -3.326183149444991E-2   -1.567708159929559E-2   -1.115995584010020E-1    5.073860616257767E-1
 1.001107579412500E+10  -2.804411523718108E-1    4.335924871459475E-1   -3.545797529227337E-2   -1.471272545732765E-2   -3.339043781906353E-2   -1.570394634383878E-2   -1.107853737774013E-1    5.073755938084396E-1
 1.001108569325000E+10  -2.793736612212333E-1    4.342649344170920E-1   -3.579922161648384E-2   -1.458375820101811E-2   -3.362750892944728E-2   -1.575104684318024E-2   -1.100805423889021E-1    5.076542042782504E-1
 1.001109559237500E+10  -2.783512295905774E-1    4.350791045187782E-1   -3.612848053693584E-2   -1.464563879166132E-2   -3.391203426345681E-2   -1.563184012254940E-2   -1.094122841638952E-1    5.077377336151238E-1
 1.001110549150000E+10  -2.769166981023304E-1    4.356235205031916E-1   -3.648310622382210E-2   -1.460764042177957E-2   -3.427469439869019E-2   -1.579718242884819E-2   -1.087876402508988E-1    5.078582915295585E-1
 1.001111539062500E+10  -2.758843692294500E-1    4.361920304352112E-1   -3.683995975058080E-2   -1.469297564570870E-2   -3.450798845884868E-2   -1.575651012602457E-2   -1.079185385471958E-1    5.079306290588683E-1
 1.001112528975000E+10  -2.746394800394799E-1    4.370049351286456E-1   -3.695861076777272E-2   -1.464469248064026E-2   -3.481166876702788E-2   -1.586760031577970E-2   -1.071111436233252E-1    5.082795459194372E-1
 1.001113518887500E+10  -2.735083886124121E-1    4.376145141865533E-1   -3.736153924152921E-2   -1.459704445009829E-2   -3.516243017209118E-2   -1.603620575919663E-2   -1.064051588852437E-1    5.083665669520403E-1
 1.001114508800000E+10  -2.723758041450581E-1    4.383432780745150E-1   -3.767088187972191E-2   -1.457660618219317E-2   -3.534015020444470E-2   -1.585626042915055E-2   -1.058026010582370E-1    5.084789601280053E-1
 1.001115498712500E+10  -2.709728128431757E-1    4.391021496071189E-1   -3.791542605342305E-2   -1.459181142248730E-2   -3.569727839005918E-2   -1.590937203875215E-2   -1.050950983324693E-1    5.085859517507793E-1
 1.001116488625000E+10  -2.698952694158708E-1    4.396818478905809E-1   -3.818096261742274E-2   -1.452146129702455E-2   -3.592065567160698E-2   -1.591545018167478E-2   -1.042585809019915E-1    5.087679942004592E-1
 1.001117478537500E+10  -2.684226134500485E-1    4.403955017658278E-1   -3.872091333149818E-2   -1.447379374479972E-2   -3.629644652540860E-2   -1.585402367391030E-2   -1.036106470839810E-1    5.088105447289761E-1
 1.001118468450000E+10  -2.671902271146832E-1    4.410153581394306E-1   -3.882695571635640E-2   -1.452600187056283E-2   -3.661744549587166E-2   -1.582654599992399E-2   -1.029493330155286E-1    5.090376058756197E-1
 1.001119458362500E+10  -2.661587438666785E-1    4.418279779708466E-1   -3.895705812689482E-2   -1.467982159657178E-2   -3.696024985274429E-2   -1.587263158374689E-2   -1.022073144755469E-1    5.091440934642971E-1
 1.001120448275000E+10  -2.647598038050565E-1    4.425123680613396E-1   -3.946040974835838E-2   -1.467485071869856E-2   -3.720266911190962E-2   -1.587202776716326E-2   -1.015239711664000E-1    5.090735598754064E-1
 1.001121438187500E+10  -2.633952576627340E-1    4.432635361865013E-1   -3.976315511371387E-2   -1.466808749222244E-2   -3.747008632663011E-2   -1.596266044797220E-2   -1.007873520241774E-1    5.093382533081248E-1
 1.001122428100000E+10  -2.620433691043679E-1    4.437581233401090E-1   -4.024885009233892E-2   -1.475631238726137E-2   -3.789147532705452E-2   -1.610535822396799E-2   -1.000657002054831E-1    5.095131336869742E-1
 1.001123418012500E+10  -2.607260105593978E-1    4.444801975459431E-1   -4.047195927598710E-2   -1.465703608004563E-2   -3.819990791443596E-2   -1.611385200123293E-2   -9.924406517333877E-2    5.094896708546853E-1
 1.001124407925000E+10  -2.594464162051609E-1    4.453307809484979E-1   -4.074488716841215E-2   -1.474759421309526E-2   -3.856554731327018E-2   -1.607897850890552E-2   -9.845248071128014E-2    5.096994002209773E-1
