#  HZ   S   RI   R     50.00 
! Rohde & Schwarz Vector Network Analyzer 
! Rohde-Schwarz,ZNB20-2Port,1311601062101988,3.16
! Created: UTC 3/20/2024, 5:08:20 PM
! freq[Hz]                re:S11                  im:S11                  re:S21                  im:S21                  re:S12                  im:S12                  re:S22                  im:S22
 1.010195245300000E+10  -4.121514125926188E-1    2.553158984233532E-1   -6.273258668485562E-4   -6.590380101609924E-4   -5.839419310847614E-4   -7.033328844073242E-4   -2.584342447184588E-1    4.010669875012153E-1
 1.010196757587500E+10  -4.116366799036209E-1    2.560848769687951E-1   -6.624993355096781E-4   -6.451291632602197E-4   -5.680607447418160E-4   -6.613022854365523E-4   -2.576116910630931E-1    4.016241441583549E-1
 1.010198269875000E+10  -4.110947406775767E-1    2.568814633602434E-1   -6.426168882426522E-4   -6.493457020031242E-4   -5.500391137706815E-4   -6.853401552802956E-4   -2.567737968594339E-1    4.023159507559615E-1
 1.010199782162500E+10  -4.108004931527138E-1    2.576066177026929E-1   -6.328871421656912E-4   -6.378537449189720E-4   -5.650546181470012E-4   -6.784685763890666E-4   -2.559098628784383E-1    4.027347890570778E-1
 1.010201294450000E+10  -4.103449844837740E-1    2.583975852506047E-1   -6.402114923317624E-4   -6.187297075250364E-4   -5.690335743260334E-4   -6.834686226764864E-4   -2.553159816506689E-1    4.034121906752183E-1
 1.010202806737500E+10  -4.099438055820214E-1    2.592875759842306E-1   -6.459461647223346E-4   -6.198768747790909E-4   -5.594095035440693E-4   -6.844907832564097E-4   -2.543632238390668E-1    4.038747103101269E-1
 1.010204319025000E+10  -4.094054928789960E-1    2.601210716869342E-1   -6.284642061874789E-4   -6.500029001443869E-4   -5.545510815452499E-4   -6.555044158041830E-4   -2.535075247817449E-1    4.044705995184886E-1
 1.010205831312500E+10  -4.089823133138505E-1    2.608716146003947E-1   -6.211454467262605E-4   -6.395634014035487E-4   -5.554894359410583E-4   -6.674867834149934E-4   -2.526695862291438E-1    4.049110916285862E-1
 1.010207343600000E+10  -4.085249529209522E-1    2.614535018887716E-1   -6.378134620514996E-4   -6.205698379298139E-4   -5.681158705534129E-4   -6.450293039687115E-4   -2.519416924793271E-1    4.056505236338620E-1
 1.010208855887500E+10  -4.080315262919272E-1    2.626301966002474E-1   -6.256923404087392E-4   -6.280678894596149E-4   -5.583556623199280E-4   -6.817453056981965E-4   -2.510253340203629E-1    4.062704745368013E-1
 1.010210368175000E+10  -4.075460509917979E-1    2.633183145971619E-1   -6.409421691459964E-4   -6.256752804603618E-4   -5.547709603017329E-4   -6.656864111808081E-4   -2.503476175308789E-1    4.065967826189382E-1
 1.010211880462500E+10  -4.071684543210520E-1    2.641854265358266E-1   -6.639605132384609E-4   -6.217755358190776E-4   -5.589470984972055E-4   -6.470493667757265E-4   -2.495485254765224E-1    4.073521139386871E-1
 1.010213392750000E+10  -4.066884231720667E-1    2.649392200569086E-1   -6.141236451646134E-4   -6.224591936763121E-4   -5.588081007749462E-4   -6.513628273441350E-4   -2.486597267766808E-1    4.078910250707701E-1
 1.010214905037500E+10  -4.062356023739680E-1    2.656723449688885E-1   -6.088644962378902E-4   -6.419665064638961E-4   -5.381669102028430E-4   -6.530229035018917E-4   -2.478254010922722E-1    4.082810319344332E-1
 1.010216417325000E+10  -4.056514411974075E-1    2.664201731581570E-1   -6.204455819688676E-4   -5.819928037704836E-4   -5.552798050437350E-4   -6.457757781733425E-4   -2.468945476882178E-1    4.090608984075726E-1
 1.010217929612500E+10  -4.052163052551576E-1    2.673106980038459E-1   -6.078818308136676E-4   -6.306298938543542E-4   -5.408202431671029E-4   -6.548184952989048E-4   -2.461932655594256E-1    4.094576226430230E-1
 1.010219441900000E+10  -4.046264212413637E-1    2.680186671813705E-1   -6.469457198328811E-4   -6.096987351777592E-4   -5.528804314999913E-4   -6.486859837874901E-4   -2.454842862825233E-1    4.098632956214003E-1
 1.010220954187500E+10  -4.043283377973532E-1    2.689658696815109E-1   -6.398335831243714E-4   -6.236776987286849E-4   -5.606582467013387E-4   -6.553696376040360E-4   -2.445381165999367E-1    4.105362225022999E-1
 1.010222466475000E+10  -4.039331685760305E-1    2.697196522797761E-1   -6.186940972643317E-4   -6.007476288455764E-4   -5.579298566942286E-4   -6.475786137216469E-4   -2.437087027851073E-1    4.110440121485175E-1
 1.010223978762500E+10  -4.033992722914352E-1    2.704853323090027E-1   -5.944831333284048E-4   -6.160664544691725E-4   -5.709168365874796E-4   -6.224017040858893E-4   -2.429177708206719E-1    4.114962498237161E-1
 1.010225491050000E+10  -4.030128064879409E-1    2.712516320115781E-1   -6.221225008220117E-4   -5.829183427357104E-4   -5.372729916825367E-4   -6.213076154993181E-4   -2.420695615782129E-1    4.120113105019719E-1
 1.010227003337500E+10  -4.024013300377540E-1    2.719587216209691E-1   -6.143482577301504E-4   -6.079852535957038E-4   -5.624280920574190E-4   -6.359609395948531E-4   -2.412227834098238E-1    4.126739921329667E-1
 1.010228515625000E+10  -4.020736214505287E-1    2.728646087392830E-1   -6.456428020304132E-4   -6.015968895372064E-4   -5.489458572599944E-4   -6.489889599933180E-4   -2.403599312280370E-1    4.132621689218031E-1
 1.010230027912500E+10  -4.014538279695001E-1    2.738217603413978E-1   -6.276067184148752E-4   -5.963626108913013E-4   -5.561972162607207E-4   -6.272449163164181E-4   -2.395994112689494E-1    4.136806828903253E-1
 1.010231540200000E+10  -4.009943731821813E-1    2.744926971738179E-1   -6.430676587029066E-4   -6.179723021222522E-4   -5.526512335547237E-4   -6.075209968508064E-4   -2.388337887343923E-1    4.142597037897362E-1
 1.010233052487500E+10  -4.004244012108462E-1    2.752570491422988E-1   -6.062424986180051E-4   -5.978231329380977E-4   -5.507132566860292E-4   -6.273773659344222E-4   -2.380173934925244E-1    4.149474506120525E-1
 1.010234564775000E+10  -3.999932794927005E-1    2.758876712366857E-1   -6.233854167896546E-4   -6.126611966868097E-4   -5.741120326378368E-4   -6.303754408534806E-4   -2.371663909194191E-1    4.152450053950744E-1
 1.010236077062500E+10  -3.994406230129707E-1    2.767375201579382E-1   -5.955627508282785E-4   -5.873840178511490E-4   -5.699367284304733E-4   -6.152879792221383E-4   -2.361485609058054E-1    4.157597197850731E-1
 1.010237589350000E+10  -3.991031632669560E-1    2.775172072514254E-1   -6.052014541061283E-4   -6.017721237446615E-4   -5.593722088833358E-4   -6.255814520226344E-4   -2.354846544544593E-1    4.163674606201858E-1
 1.010239101637500E+10  -3.985945790897812E-1    2.782945861812886E-1   -6.209706360228867E-4   -5.727057322834062E-4   -5.534085118002912E-4   -6.131373979235452E-4   -2.346246731917265E-1    4.168784727177817E-1
 1.010240613925000E+10  -3.981978295348674E-1    2.790794425581881E-1   -5.957058457504077E-4   -5.873657831890940E-4   -5.476267322769622E-4   -6.002732131322898E-4   -2.337512207340322E-1    4.175664997236732E-1
 1.010242126212500E+10  -3.975412739932663E-1    2.798976370901966E-1   -5.903880666709701E-4   -5.807098249245045E-4   -5.376510880116305E-4   -6.004903180903803E-4   -2.328033143755821E-1    4.178939397210642E-1
 1.010243638500000E+10  -3.970854136900806E-1    2.807634399935259E-1   -6.124952071527603E-4   -5.912231672327408E-4   -5.549449029167804E-4   -6.169158660480281E-4   -2.320437003804058E-1    4.184295136741601E-1
 1.010245150787500E+10  -3.966055429606101E-1    2.815229983729482E-1   -6.021764537830211E-4   -5.758047598076352E-4   -5.557591025673580E-4   -5.937387055066424E-4   -2.310914244076406E-1    4.190533496724200E-1
 1.010246663075000E+10  -3.960519059198663E-1    2.821187110547536E-1   -6.095634158300737E-4   -5.905929481995657E-4   -5.706638933461315E-4   -6.106359073626418E-4   -2.303709692444460E-1    4.194549398363539E-1
 1.010248175362500E+10  -3.955714118990262E-1    2.829174006638518E-1   -6.275578000314424E-4   -5.406591592098486E-4   -5.458172821140033E-4   -6.031153795909339E-4   -2.294760229498805E-1    4.200319815144908E-1
 1.010249687650000E+10  -3.950150910931826E-1    2.837392957884107E-1   -6.363920755415955E-4   -5.783579218359587E-4   -5.413608513891793E-4   -6.062184651080203E-4   -2.286677821267144E-1    4.205062328078518E-1
 1.010251199937500E+10  -3.946392181275522E-1    2.846036961042110E-1   -6.367372295558499E-4   -5.708792156427224E-4   -5.387890508940379E-4   -5.728985948415320E-4   -2.277443431207774E-1    4.209172579744652E-1
 1.010252712225000E+10  -3.941229211852996E-1    2.852945678401551E-1   -6.013953467563410E-4   -5.613572205673439E-4   -5.323814966128954E-4   -5.743441349729837E-4   -2.268022486507646E-1    4.214678030278330E-1
 1.010254224512500E+10  -3.935961820375718E-1    2.859658805749231E-1   -6.073321771796582E-4   -5.839577906668584E-4   -5.520907180505329E-4   -5.880198576515491E-4   -2.259800255438785E-1    4.220054058908412E-1
 1.010255736800000E+10  -3.930483519970943E-1    2.868099082423583E-1   -6.215977990896615E-4   -5.554111055594723E-4   -5.341920896022219E-4   -5.752501742402585E-4   -2.253574702934200E-1    4.223648451338677E-1
 1.010257249087500E+10  -3.925407545726978E-1    2.875394546756679E-1   -6.043568574184522E-4   -5.779259098031455E-4   -5.413545167682088E-4   -6.112873138639366E-4   -2.242421758493634E-1    4.230027504652112E-1
 1.010258761375000E+10  -3.922328382637326E-1    2.883240323776426E-1   -6.271820849792531E-4   -5.428832839630017E-4   -5.294561901500320E-4   -6.030146498957331E-4   -2.235580094208877E-1    4.235557265244060E-1
 1.010260273662500E+10  -3.914875921375185E-1    2.892601636220978E-1   -6.085993420304028E-4   -5.332034879729815E-4   -5.504783256549564E-4   -5.820613631666457E-4   -2.226412588053720E-1    4.240058029897563E-1
 1.010261785950000E+10  -3.909839864816945E-1    2.899989550632106E-1   -5.867543514172239E-4   -5.552630653593720E-4   -5.129152976553653E-4   -5.517166409491436E-4   -2.216700252118053E-1    4.245648844927804E-1
 1.010263298237500E+10  -3.905405462077052E-1    2.906526517009711E-1   -6.025140901288521E-4   -5.760602499747850E-4   -5.431456371097334E-4   -5.726661921906656E-4   -2.209531459105085E-1    4.250167144006572E-1
 1.010264810525000E+10  -3.899955559768179E-1    2.914055944827281E-1   -5.927356081039799E-4   -5.533936512516119E-4   -5.481135866707372E-4   -5.902417555321447E-4   -2.200915035773280E-1    4.255676021763614E-1
 1.010266322812500E+10  -3.895575840179815E-1    2.923332043713815E-1   -6.176772432521110E-4   -5.391984261315434E-4   -5.231583217653863E-4   -5.609167195735424E-4   -2.192709950677252E-1    4.260520983162870E-1
 1.010267835100000E+10  -3.889759713566596E-1    2.929988904989220E-1   -5.981476205073642E-4   -5.338608170707836E-4   -5.477783901810592E-4   -5.752462535760687E-4   -2.183869743645617E-1    4.264789786484918E-1
 1.010269347387500E+10  -3.883845710739145E-1    2.937482207284507E-1   -5.937977608056051E-4   -5.547239201923458E-4   -5.253944563348232E-4   -5.576565558760320E-4   -2.174823215106235E-1    4.271043042760694E-1
 1.010270859675000E+10  -3.879667951088084E-1    2.946078341503598E-1   -6.024907094120613E-4   -5.031461522368192E-4   -5.292132098449031E-4   -5.607824506874280E-4   -2.166446903510731E-1    4.275799681036766E-1
 1.010272371962500E+10  -3.873543295006566E-1    2.951776532006347E-1   -5.871459860295349E-4   -5.245354744843330E-4   -5.318164145916991E-4   -5.326945034784599E-4   -2.156536964027790E-1    4.279948581669595E-1
 1.010273884250000E+10  -3.868703452966744E-1    2.961255949001468E-1   -6.069788494143892E-4   -5.347735626313201E-4   -5.378837094294619E-4   -5.556733319216566E-4   -2.149065839698576E-1    4.284096498397090E-1
 1.010275396537500E+10  -3.864720561828648E-1    2.967161843212512E-1   -5.861997952028083E-4   -4.871980119951241E-4   -5.266546911490502E-4   -5.518864058464115E-4   -2.138830827985266E-1    4.290355684788058E-1
 1.010276908825000E+10  -3.857330412129208E-1    2.974250741485532E-1   -5.935551364901154E-4   -5.286118699819991E-4   -5.250033449237423E-4   -5.672673160273334E-4   -2.132199258421139E-1    4.293093018698874E-1
 1.010278421112500E+10  -3.853322379977154E-1    2.982949861492905E-1   -6.137742306804327E-4   -5.262448066729446E-4   -5.316518808329682E-4   -5.632009296377438E-4   -2.123166665652721E-1    4.299098528809478E-1
 1.010279933400000E+10  -3.848242508871457E-1    2.990663842566522E-1   -5.847212315007467E-4   -5.457333637706206E-4   -5.220991800569438E-4   -5.539321001111813E-4   -2.113895472090713E-1    4.304314828154079E-1
 1.010281445687500E+10  -3.842993728403141E-1    2.996354093065817E-1   -5.764168181623084E-4   -5.344191925417306E-4   -5.461884682502435E-4   -5.580589731715231E-4   -2.105238547549863E-1    4.308643287119122E-1
 1.010282957975000E+10  -3.837682964608669E-1    3.004771585539834E-1   -5.861287123871099E-4   -5.182481782139421E-4   -5.309784144571334E-4   -5.429173370409119E-4   -2.096225123422006E-1    4.312404027296980E-1
 1.010284470262500E+10  -3.832777047356495E-1    3.013002005239385E-1   -5.628204498608897E-4   -4.933853209097582E-4   -5.150545682795469E-4   -5.353599774822857E-4   -2.087733630916083E-1    4.317740962998318E-1
 1.010285982550000E+10  -3.827581700347040E-1    3.019900719061700E-1   -5.661688016163547E-4   -4.831297460510967E-4   -5.117792603301086E-4   -5.603485376515165E-4   -2.077535267941094E-1    4.322457905205724E-1
 1.010287494837500E+10  -3.821053756549776E-1    3.028490272937004E-1   -5.929814433929591E-4   -5.108732874848950E-4   -5.277251597693163E-4   -5.332874340680192E-4   -2.067805663042969E-1    4.326213343677744E-1
 1.010289007125000E+10  -3.815824734609691E-1    3.034142427763047E-1   -5.919613297945208E-4   -4.962007001208589E-4   -4.930954516542137E-4   -5.145802542052081E-4   -2.059401795884747E-1    4.332035859041888E-1
 1.010290519412500E+10  -3.810715480753468E-1    3.042829756064823E-1   -5.659590620024599E-4   -4.892629620753824E-4   -5.091947157415634E-4   -5.138890158124799E-4   -2.053116402159157E-1    4.337749963234907E-1
 1.010292031700000E+10  -3.805120891670751E-1    3.049248454493036E-1   -5.898842247816461E-4   -4.987258023291699E-4   -5.265433361911349E-4   -5.200484925216247E-4   -2.041600399399150E-1    4.341321056353079E-1
 1.010293543987500E+10  -3.799711774252258E-1    3.057612792263494E-1   -5.712009036973352E-4   -4.808022198917519E-4   -5.238528518565820E-4   -5.421268294774337E-4   -2.034059029082061E-1    4.344590980486295E-1
 1.010295056275000E+10  -3.794630714280638E-1    3.065282595855334E-1   -5.649288986598208E-4   -5.013364168814275E-4   -5.180391604889639E-4   -5.264279016990966E-4   -2.025475904359348E-1    4.350452966365849E-1
 1.010296568562500E+10  -3.789020365999640E-1    3.071247747917213E-1   -5.646874772245198E-4   -4.769504846386640E-4   -5.196168843659867E-4   -5.152031066531626E-4   -2.015950467188233E-1    4.353714812791757E-1
 1.010298080850000E+10  -3.783192078977060E-1    3.080050328344467E-1   -5.447209094420042E-4   -4.652839062175805E-4   -5.000096923972207E-4   -5.068270928274061E-4   -2.006660746051605E-1    4.359999604670425E-1
 1.010299593137500E+10  -3.778261906655957E-1    3.086625733694441E-1   -5.528952573040241E-4   -4.830173365843323E-4   -5.316313721778917E-4   -5.134582064798487E-4   -1.997948312814302E-1    4.363634229138333E-1
 1.010301105425000E+10  -3.773586584795013E-1    3.095182438790517E-1   -5.491334018223338E-4   -4.867509428718099E-4   -5.138099681992574E-4   -4.802306282056015E-4   -1.988632792563876E-1    4.368509972249517E-1
 1.010302617712500E+10  -3.767383347902097E-1    3.102218960561706E-1   -5.327695288976448E-4   -4.546904490316731E-4   -4.759214597400770E-4   -5.018935313015553E-4   -1.979355375119588E-1    4.373693775015011E-1
 1.010304130000000E+10  -3.761289656518006E-1    3.108311315487946E-1   -5.609514194047567E-4   -4.663247911657286E-4   -5.040244613994930E-4   -5.242257898730502E-4   -1.969118553451677E-1    4.377294921458680E-1
 1.010305642287500E+10  -3.757346707252881E-1    3.116101784918969E-1   -5.493412610250473E-4   -4.756096641125057E-4   -4.702954514778766E-4   -5.117261175710975E-4   -1.962792168005297E-1    4.382685622040512E-1
 1.010307154575000E+10  -3.751516940980849E-1    3.123885527923253E-1   -5.155500423617303E-4   -4.888621256462790E-4   -4.631688335477810E-4   -4.805223736197606E-4   -1.953393218983938E-1    4.385454656004489E-1
 1.010308666862500E+10  -3.745088524644553E-1    3.131869359938869E-1   -5.167019260167730E-4   -4.849537376249193E-4   -4.916701082862964E-4   -5.084101874239820E-4   -1.943624950932673E-1    4.391024363411430E-1
 1.010310179150000E+10  -3.740689844659694E-1    3.139257926326540E-1   -5.283785533289393E-4   -4.782295821673029E-4   -4.902200543217557E-4   -4.898173107954622E-4   -1.933632919039197E-1    4.394331315751590E-1
 1.010311691437500E+10  -3.734618521602879E-1    3.145448219708820E-1   -5.262322220064211E-4   -4.781765240454955E-4   -4.739565176304949E-4   -4.802047129429546E-4   -1.924812674180875E-1    4.399737569756529E-1
 1.010313203725000E+10  -3.727770637390143E-1    3.153585976873404E-1   -5.459136021085054E-4   -4.633472826201928E-4   -4.726017105334321E-4   -4.937600256104348E-4   -1.916089660631506E-1    4.402540774279865E-1
 1.010314716012500E+10  -3.723290484195397E-1    3.158904034176787E-1   -5.388892610634034E-4   -4.694821033605180E-4   -4.613354519941458E-4   -4.616780611607134E-4   -1.906335270712367E-1    4.407140203199663E-1
 1.010316228300000E+10  -3.716700984778812E-1    3.168885014183411E-1   -5.128138117829585E-4   -4.598821462142778E-4   -4.708449877901319E-4   -4.882116038423224E-4   -1.898039017315853E-1    4.413058384280688E-1
 1.010317740587500E+10  -3.712463591096906E-1    3.176426171953717E-1   -5.212583690986252E-4   -4.418138288283693E-4   -4.512288236717589E-4   -5.028291634464364E-4   -1.889033793177119E-1    4.416617368864834E-1
 1.010319252875000E+10  -3.706259872340954E-1    3.183685216626085E-1   -5.399636241550123E-4   -4.467556497016853E-4   -4.452360731543237E-4   -4.543223714228920E-4   -1.878580372419870E-1    4.420226764765803E-1
 1.010320765162500E+10  -3.700456550277502E-1    3.190244872920476E-1   -5.043355773827898E-4   -4.823944230608414E-4   -4.478338044463896E-4   -4.682400086144375E-4   -1.870168491160949E-1    4.425481469161109E-1
 1.010322277450000E+10  -3.695300947372754E-1    3.197751827869698E-1   -5.054800959924018E-4   -4.448931015661336E-4   -4.370524793151678E-4   -4.583291825902774E-4   -1.861018195649924E-1    4.429788186916898E-1
 1.010323789737500E+10  -3.689047824206516E-1    3.204088111312346E-1   -5.049213677804412E-4   -4.612663404164964E-4   -4.578624881848169E-4   -4.584722720172462E-4   -1.851932956988960E-1    4.434211213863143E-1
 1.010325302025000E+10  -3.683641472660307E-1    3.210765176709290E-1   -5.203156126469646E-4   -4.203806574023509E-4   -4.363091180127550E-4   -4.622101183782575E-4   -1.841275733559772E-1    4.437845388842324E-1
 1.010326814312500E+10  -3.678157088570452E-1    3.219267274916379E-1   -5.067308100613554E-4   -4.406318948055297E-4   -4.352451489451251E-4   -4.729012315240587E-4   -1.834506136566388E-1    4.442081546186179E-1
 1.010328326600000E+10  -3.672283570048634E-1    3.226622960541629E-1   -5.251305571790364E-4   -4.152409102409363E-4   -4.355961038153628E-4   -4.482814115653719E-4   -1.823045801095153E-1    4.444661184669262E-1
 1.010329838887500E+10  -3.665890594759348E-1    3.231464171184927E-1   -4.920136929500310E-4   -4.576213969028929E-4   -4.330418094717990E-4   -4.456725551436504E-4   -1.813299443217860E-1    4.450947302603034E-1
 1.010331351175000E+10  -3.659823853114189E-1    3.239191806921835E-1   -4.784934284211311E-4   -4.498448557158832E-4   -4.430891230058733E-4   -4.423809360971917E-4   -1.806061866180148E-1    4.455811080046733E-1
