#  HZ   S   RI   R     50.00 
! Rohde & Schwarz Vector Network Analyzer 
! Rohde-Schwarz,ZNB20-2Port,1311601062101988,3.16
! Created: UTC 3/20/2024, 5:04:08 PM
! freq[Hz]                re:S11                  im:S11                  re:S21                  im:S21                  re:S12                  im:S12                  re:S22                  im:S22
 1.010016602400000E+10  -4.530591579738997E-1    1.551391526448901E-1   -5.293299476039397E-4   -8.639999974983818E-4   -4.246699851323692E-4   -8.558544390877264E-4   -3.429726102774370E-1    3.234566392785819E-1
 1.010018974767500E+10  -4.526208679645070E-1    1.566105281168235E-1   -5.214579242095451E-4   -8.664274296198170E-4   -4.371739803264863E-4   -8.602965614432022E-4   -3.423101266878604E-1    3.245580660496828E-1
 1.010021347135000E+10  -4.522459633800943E-1    1.580011530909543E-1   -5.167850780311272E-4   -8.524780212432147E-4   -4.396060615527848E-4   -8.660265775032843E-4   -3.411773324742927E-1    3.256653147593642E-1
 1.010023719502500E+10  -4.518956163912690E-1    1.592693811007801E-1   -5.342924771780419E-4   -8.724885408069944E-4   -4.634060130086287E-4   -8.850159227440064E-4   -3.403619147159262E-1    3.268845109238968E-1
 1.010026091870000E+10  -4.514600062592392E-1    1.606869212884022E-1   -5.097188567666032E-4   -8.477695698024598E-4   -4.288208664294605E-4   -8.602353371133585E-4   -3.392334280982960E-1    3.279256628454351E-1
 1.010028464237500E+10  -4.510236474062321E-1    1.621565776941962E-1   -5.239632288601991E-4   -8.490553039392400E-4   -4.550577836026106E-4   -8.542789829195189E-4   -3.381200703759937E-1    3.291633964140468E-1
 1.010030836605000E+10  -4.505471882010998E-1    1.635869418441384E-1   -5.208797862798845E-4   -8.569173818675013E-4   -4.465084015549452E-4   -8.463441748598528E-4   -3.370029537679325E-1    3.302541239058619E-1
 1.010033208972500E+10  -4.501118199054248E-1    1.650369253868167E-1   -5.303969244200783E-4   -8.378983654495172E-4   -4.477619981401110E-4   -8.766659916273377E-4   -3.361293748300027E-1    3.314459379447001E-1
 1.010035581340000E+10  -4.497843815198908E-1    1.663898947566866E-1   -5.415926138081012E-4   -8.498816820891077E-4   -4.345315713891286E-4   -8.673376075811191E-4   -3.351549875926626E-1    3.326303307349895E-1
 1.010037953707500E+10  -4.493067584689081E-1    1.677402724274962E-1   -5.417048686536502E-4   -8.353905291855709E-4   -4.423939131014403E-4   -8.520311422826712E-4   -3.339749120504247E-1    3.337586561005192E-1
 1.010040326075000E+10  -4.489781512857899E-1    1.690613417877375E-1   -5.303790536839860E-4   -8.503369129713589E-4   -4.539812704618656E-4   -8.233429650780170E-4   -3.330644767256772E-1    3.349014963547893E-1
 1.010042698442500E+10  -4.483724769692230E-1    1.704586060822381E-1   -5.431130248520480E-4   -8.270795615732295E-4   -4.398559152594899E-4   -8.544283785733514E-4   -3.319778972770667E-1    3.359872167424553E-1
 1.010045070810000E+10  -4.480035969761830E-1    1.718455268103744E-1   -5.340032517843820E-4   -8.324745822633661E-4   -4.785626896318871E-4   -8.195857609086773E-4   -3.307785101185853E-1    3.371204738223361E-1
 1.010047443177500E+10  -4.476220727109887E-1    1.732449768586694E-1   -5.405353973742667E-4   -8.210806863618961E-4   -4.768646998609525E-4   -8.124324625779347E-4   -3.300246378796300E-1    3.382627388876709E-1
 1.010049815545000E+10  -4.471436644330086E-1    1.747028956615714E-1   -5.444590406417600E-4   -8.283477046220808E-4   -4.604157047358717E-4   -8.226102143971537E-4   -3.290165063477889E-1    3.392560885395392E-1
 1.010052187912500E+10  -4.465647479692841E-1    1.759528615762603E-1   -5.210096714535293E-4   -8.474050656042713E-4   -4.724393121848265E-4   -8.437195329404098E-4   -3.278992353735866E-1    3.405212020441384E-1
 1.010054560280000E+10  -4.460699572702111E-1    1.774494933531253E-1   -5.574703081619105E-4   -8.473719338385032E-4   -4.674075719807224E-4   -8.207091630996334E-4   -3.268215791566322E-1    3.414951197207730E-1
 1.010056932647500E+10  -4.457346215459250E-1    1.787723425787708E-1   -5.602831072652385E-4   -8.152828095197734E-4   -4.746151698865168E-4   -8.432869567965679E-4   -3.257454309100141E-1    3.428069594444414E-1
 1.010059305015000E+10  -4.453278724577978E-1    1.801781439932334E-1   -5.285837840882844E-4   -8.221346382767267E-4   -4.684714405120353E-4   -8.411257863094253E-4   -3.246529814568313E-1    3.437494781806261E-1
 1.010061677382500E+10  -4.449607735380152E-1    1.815680956564627E-1   -5.198581814958080E-4   -7.933362071294040E-4   -4.946990073717384E-4   -8.309710218921149E-4   -3.236627406172953E-1    3.448752442120626E-1
 1.010064049750000E+10  -4.444394343175740E-1    1.828401050303340E-1   -5.359271904238280E-4   -8.055368585864555E-4   -4.627720306411239E-4   -8.259248092820949E-4   -3.225965758499535E-1    3.460419530815923E-1
 1.010066422117500E+10  -4.438426909459807E-1    1.842335861698398E-1   -5.440501009941986E-4   -8.151509699509632E-4   -4.538931090385872E-4   -8.585417288726939E-4   -3.214776378224447E-1    3.471585059957311E-1
 1.010068794485000E+10  -4.434672309550841E-1    1.854086263071187E-1   -5.768226586135768E-4   -8.067238457172807E-4   -4.753085336186033E-4   -8.123131069071389E-4   -3.203809170486903E-1    3.482380572817765E-1
 1.010071166852500E+10  -4.428419364954143E-1    1.869242867918211E-1   -5.235070283510148E-4   -8.049559357943965E-4   -5.079442186682224E-4   -8.088340577221077E-4   -3.193089693488617E-1    3.493448762240783E-1
 1.010073539220000E+10  -4.423430451723345E-1    1.882653607376588E-1   -5.352715383285708E-4   -8.004533792370649E-4   -5.050703664235445E-4   -8.276560629391011E-4   -3.182591620544922E-1    3.503064318441713E-1
 1.010075911587500E+10  -4.417360822380418E-1    1.896132714170581E-1   -5.553250004503982E-4   -8.098620404552437E-4   -4.893744825463210E-4   -8.128228274985081E-4   -3.170871635211306E-1    3.515383576987426E-1
 1.010078283955000E+10  -4.414385835222920E-1    1.911240136320115E-1   -5.507758430439748E-4   -8.028181477961958E-4   -4.841433345918099E-4   -7.939688216209766E-4   -3.160321286017937E-1    3.525230597314411E-1
 1.010080656322500E+10  -4.408969062861430E-1    1.923118181644336E-1   -5.620476565932691E-4   -8.037148245567831E-4   -4.866827488210059E-4   -8.065514654144520E-4   -3.149663029245066E-1    3.536825332786200E-1
 1.010083028690000E+10  -4.403634658581528E-1    1.937227410908949E-1   -5.558035037738703E-4   -7.934302849772110E-4   -4.851247219331534E-4   -8.049125820793655E-4   -3.138145801361454E-1    3.547591534439934E-1
 1.010085401057500E+10  -4.398845714129900E-1    1.951427864789627E-1   -5.823781394119156E-4   -7.987306843289685E-4   -4.926911607410799E-4   -7.952937963742673E-4   -3.127355049187973E-1    3.557602583158798E-1
 1.010087773425000E+10  -4.393535137588974E-1    1.964569285815817E-1   -5.665271521812036E-4   -7.886098497915055E-4   -4.637560657944926E-4   -8.111430157422920E-4   -3.115503813560324E-1    3.568618158438678E-1
 1.010090145792500E+10  -4.389551017399496E-1    1.977947657473480E-1   -5.936276743614354E-4   -8.062321384166822E-4   -4.807725103476120E-4   -8.009364770184535E-4   -3.105275690334175E-1    3.578439394641358E-1
 1.010092518160000E+10  -4.382723059760595E-1    1.991907700468747E-1   -5.777750646286358E-4   -7.616214190838189E-4   -4.693064698414885E-4   -7.848965016488044E-4   -3.093711764076292E-1    3.589951066900444E-1
 1.010094890527500E+10  -4.378359402686237E-1    2.005410462610883E-1   -6.033713489548658E-4   -7.967089666663046E-4   -4.805145770910775E-4   -7.879595034154647E-4   -3.082427935065015E-1    3.600765454204307E-1
 1.010097262895000E+10  -4.374095999900919E-1    2.017964950424835E-1   -5.863325411519547E-4   -7.632184561588137E-4   -5.202732898862101E-4   -8.023285154614162E-4   -3.071906559821929E-1    3.610442861317420E-1
 1.010099635262500E+10  -4.367865881329361E-1    2.032759434554125E-1   -5.955039286115488E-4   -7.597807913928826E-4   -5.375082803389879E-4   -7.894175132654210E-4   -3.061871065119827E-1    3.620952798678254E-1
 1.010102007630000E+10  -4.361295199507303E-1    2.045253385457667E-1   -5.405966965011250E-4   -7.507631605563715E-4   -5.008929912982204E-4   -7.980908568521976E-4   -3.047857875642384E-1    3.631534813442955E-1
 1.010104379997500E+10  -4.357030360217206E-1    2.059270533038417E-1   -5.653724201768371E-4   -7.762559843714162E-4   -5.257871393061373E-4   -7.857984404276010E-4   -3.038859561403827E-1    3.642148134315787E-1
 1.010106752365000E+10  -4.351519453414114E-1    2.071487633583291E-1   -5.690510892961988E-4   -7.831088229897360E-4   -5.200655901871849E-4   -8.005732842792446E-4   -3.026813113822757E-1    3.652571085958985E-1
 1.010109124732500E+10  -4.345637422953870E-1    2.085484319980722E-1   -5.656455577828181E-4   -7.535585625899865E-4   -4.998149763675473E-4   -7.776190299546716E-4   -3.015214689585808E-1    3.663957063387515E-1
 1.010111497100000E+10  -4.339674770008217E-1    2.099158762983559E-1   -5.940272998192528E-4   -7.613559350491787E-4   -5.033129002357425E-4   -7.792482768242540E-4   -3.004744695480716E-1    3.672205765373197E-1
 1.010113869467500E+10  -4.334845709082109E-1    2.112067779629126E-1   -5.915691396063663E-4   -7.474947669868770E-4   -5.123689276381746E-4   -7.808144088040770E-4   -2.990758414946892E-1    3.682829643427007E-1
 1.010116241835000E+10  -4.327330777465558E-1    2.126430357073383E-1   -5.826577208131606E-4   -7.387644848814633E-4   -5.203542750366761E-4   -7.582348099124457E-4   -2.980621589638862E-1    3.693343649886530E-1
 1.010118614202500E+10  -4.323601168385644E-1    2.139694673110774E-1   -5.755319481613740E-4   -7.407824649581941E-4   -5.557009280351794E-4   -7.586918652588353E-4   -2.969982695680446E-1    3.703171006110449E-1
 1.010120986570000E+10  -4.317277983715227E-1    2.151647052296639E-1   -5.840969357476274E-4   -7.354987275616221E-4   -5.319227443592539E-4   -7.588962809874739E-4   -2.957759066602216E-1    3.712961808764634E-1
 1.010123358937500E+10  -4.311256993253361E-1    2.165246444861734E-1   -5.818493449077027E-4   -7.690201408931182E-4   -5.410155687392106E-4   -7.777022082733956E-4   -2.946922017966671E-1    3.722993409833525E-1
 1.010125731305000E+10  -4.305168542632494E-1    2.179688193299164E-1   -5.552181763478475E-4   -7.428801619222204E-4   -5.227964288496502E-4   -7.522675916040578E-4   -2.934996311789904E-1    3.733612771712587E-1
 1.010128103672500E+10  -4.301433540468995E-1    2.191251197986488E-1   -5.854120958983077E-4   -7.509304247450157E-4   -5.193086691063206E-4   -7.479355043711905E-4   -2.922995609976913E-1    3.743793575537438E-1
 1.010130476040000E+10  -4.292998366905817E-1    2.206727347274531E-1   -5.689825490961078E-4   -7.386637166054597E-4   -5.353917944820461E-4   -7.559914363221793E-4   -2.911437390357628E-1    3.755175204705877E-1
 1.010132848407500E+10  -4.288343169019458E-1    2.218021240086785E-1   -5.807761631624591E-4   -7.369404350728067E-4   -5.167954758076339E-4   -7.463698714744001E-4   -2.900263238953531E-1    3.763772377944123E-1
 1.010135220775000E+10  -4.281602735241362E-1    2.230623952391740E-1   -6.123788817619544E-4   -7.373808728786249E-4   -5.376954807000839E-4   -7.370157687215679E-4   -2.887681989610208E-1    3.774186160545424E-1
 1.010137593142500E+10  -4.276017043610764E-1    2.244709741365712E-1   -6.187064783808880E-4   -7.490845703365428E-4   -5.350214882378311E-4   -7.397036560184274E-4   -2.875358893640472E-1    3.784323774510311E-1
 1.010139965510000E+10  -4.270186982731307E-1    2.256314256125457E-1   -5.957804748263733E-4   -7.245279406206917E-4   -5.064232148410951E-4   -7.264230493529348E-4   -2.863597393326738E-1    3.792992562618656E-1
 1.010142337877500E+10  -4.264461753818171E-1    2.270728028874218E-1   -5.908885032555900E-4   -7.057382671290296E-4   -5.335359656229413E-4   -7.150878477064735E-4   -2.853402846330221E-1    3.803645035100161E-1
 1.010144710245000E+10  -4.258768561857678E-1    2.282894671147197E-1   -5.950926402890426E-4   -7.219885367860061E-4   -5.356469948260349E-4   -7.497294222436892E-4   -2.840339642492128E-1    3.812249380482550E-1
 1.010147082612500E+10  -4.252292364579049E-1    2.297950530899817E-1   -6.304687704729250E-4   -7.015985666773160E-4   -5.313057141457055E-4   -7.520903846933913E-4   -2.828214821210234E-1    3.822296951440565E-1
 1.010149454980000E+10  -4.244844310727620E-1    2.309346405863889E-1   -5.931945148971041E-4   -7.193827048054668E-4   -5.071587610173700E-4   -7.283784423775511E-4   -2.816475683175203E-1    3.832739118803936E-1
 1.010151827347500E+10  -4.239026365569085E-1    2.322042705799515E-1   -5.909312683723979E-4   -6.855362056563390E-4   -5.066398370632143E-4   -7.269271279859749E-4   -2.804207486850334E-1    3.842570637214610E-1
 1.010154199715000E+10  -4.232266045463861E-1    2.336360198668533E-1   -5.938177811291196E-4   -7.079689116364100E-4   -5.410406683401594E-4   -7.400644076949654E-4   -2.792525819872114E-1    3.852114554587016E-1
 1.010156572082500E+10  -4.228519197157153E-1    2.349467993080601E-1   -5.862076771279852E-4   -6.937686703809126E-4   -5.078544553014374E-4   -7.089682375971328E-4   -2.780950918852728E-1    3.860920165323034E-1
 1.010158944450000E+10  -4.221174511418561E-1    2.362619947652280E-1   -5.913155826356012E-4   -6.737349406613141E-4   -5.124604987785495E-4   -7.359836005552757E-4   -2.770520439810417E-1    3.872118714792719E-1
 1.010161316817500E+10  -4.213822284109029E-1    2.374992607722703E-1   -5.973634132962865E-4   -7.046575092993112E-4   -5.130856925997387E-4   -7.202631322942080E-4   -2.756042082513038E-1    3.879436557933307E-1
 1.010163689185000E+10  -4.207882999589950E-1    2.387516393439853E-1   -5.922853512114511E-4   -6.799847180216066E-4   -5.115929102555866E-4   -7.258150659299640E-4   -2.744304051692402E-1    3.890118662466449E-1
 1.010166061552500E+10  -4.201563282002622E-1    2.400433200349291E-1   -5.866144234998072E-4   -7.032483090875371E-4   -5.337101506965802E-4   -7.089501574199803E-4   -2.730402362115257E-1    3.900612238939580E-1
 1.010168433920000E+10  -4.193962793281411E-1    2.413217596305805E-1   -6.009085831665003E-4   -6.667294826464642E-4   -5.458669686952693E-4   -6.901511788228486E-4   -2.720299262548779E-1    3.910119130392393E-1
 1.010170806287500E+10  -4.188320848368929E-1    2.426788227003663E-1   -6.413113355783286E-4   -6.816618921482216E-4   -5.183459775282280E-4   -6.921195318128058E-4   -2.707648692353672E-1    3.918105362106857E-1
 1.010173178655000E+10  -4.180751531369534E-1    2.439458956003221E-1   -6.008013888448136E-4   -6.608472143379678E-4   -5.280375560428715E-4   -7.132803798875122E-4   -2.696241456051348E-1    3.926402656324697E-1
 1.010175551022500E+10  -4.174970647947814E-1    2.453241711643861E-1   -5.886326744668608E-4   -6.426453857775499E-4   -5.402034087076505E-4   -6.995313379537814E-4   -2.682289477281439E-1    3.936813469406863E-1
 1.010177923390000E+10  -4.168338545546117E-1    2.464931441911763E-1   -5.955110298669082E-4   -6.919827590182620E-4   -5.206171069840476E-4   -6.828278637371521E-4   -2.669547529055933E-1    3.946364404522859E-1
 1.010180295757500E+10  -4.161607927276212E-1    2.477095848776653E-1   -5.856610437814907E-4   -6.418409238180652E-4   -5.086755264375113E-4   -6.849835740919378E-4   -2.658000221310699E-1    3.956457239138920E-1
 1.010182668125000E+10  -4.155550700233064E-1    2.490184396016684E-1   -6.083810152562510E-4   -6.591438547738310E-4   -5.413542941866969E-4   -6.935636020113282E-4   -2.645776312932512E-1    3.964468657212163E-1
 1.010185040492500E+10  -4.148604798990433E-1    2.501909406785416E-1   -5.885311765410776E-4   -6.619038243882465E-4   -5.131227839212026E-4   -6.773539600667014E-4   -2.633474206422444E-1    3.972921380436195E-1
 1.010187412860000E+10  -4.141284199564971E-1    2.515594978106570E-1   -5.859011290495400E-4   -6.650889254675555E-4   -5.453047340834324E-4   -6.848667631825616E-4   -2.620839753152394E-1    3.981898238478824E-1
 1.010189785227500E+10  -4.133467780204862E-1    2.527430233066514E-1   -6.216968436913914E-4   -6.564729321931582E-4   -5.395857197075811E-4   -6.873542527232212E-4   -2.608105454536137E-1    3.991222736478056E-1
 1.010192157595000E+10  -4.127845836032772E-1    2.541629720677548E-1   -5.909797557296231E-4   -6.838042029469430E-4   -5.199789210709821E-4   -6.654511740403842E-4   -2.595770182887879E-1    4.000858694390179E-1
 1.010194529962500E+10  -4.119735931025556E-1    2.553280498161655E-1   -6.122942253604128E-4   -6.748778932901322E-4   -5.337814927516573E-4   -6.585404537245707E-4   -2.582110741490767E-1    4.009841438407403E-1
 1.010196902330000E+10  -4.113750477799660E-1    2.566128345637460E-1   -5.988604656540615E-4   -6.303126854328365E-4   -5.032477170695209E-4   -6.645521029583387E-4   -2.570578059318032E-1    4.017174412605723E-1
 1.010199274697500E+10  -4.106419955845962E-1    2.578110722136123E-1   -6.050095727705651E-4   -6.521658946836492E-4   -5.245659287105630E-4   -6.590698467286921E-4   -2.556883934922150E-1    4.026149860852479E-1
 1.010201647065000E+10  -4.099803008038423E-1    2.591899276467569E-1   -5.812600266343899E-4   -6.305829863594071E-4   -5.362975726135952E-4   -6.841082657761953E-4   -2.544188937475603E-1    4.036613408115932E-1
 1.010204019432500E+10  -4.093486267714396E-1    2.603737136060340E-1   -5.932449246209499E-4   -6.521811502864531E-4   -5.425903305121310E-4   -6.482130575477812E-4   -2.532874394727969E-1    4.045833059427428E-1
 1.010206391800000E+10  -4.084046309156416E-1    2.616009142020553E-1   -6.076374164486925E-4   -6.466214562128021E-4   -5.318106027650763E-4   -6.444326682332785E-4   -2.518616493431253E-1    4.054305977031507E-1
 1.010208764167500E+10  -4.078346029892110E-1    2.629038748103860E-1   -6.080853985364165E-4   -6.533220273636593E-4   -4.844607302203954E-4   -6.480421191703627E-4   -2.506884972544199E-1    4.062044850578438E-1
 1.010211136535000E+10  -4.070951618089581E-1    2.641875494035393E-1   -5.768492184536340E-4   -6.033031853122111E-4   -4.986514933491760E-4   -6.318378931165526E-4   -2.493223034399585E-1    4.071235049446679E-1
 1.010213508902500E+10  -4.063438003926568E-1    2.654812870838926E-1   -5.915156280859883E-4   -6.122008852049196E-4   -5.290659089916128E-4   -6.389895361680811E-4   -2.480659611175462E-1    4.079923705367743E-1
 1.010215881270000E+10  -4.056573584047121E-1    2.665928201716029E-1   -6.053150273489697E-4   -6.263224972788997E-4   -5.156713008273577E-4   -6.375867810556788E-4   -2.467178002990975E-1    4.088924064943726E-1
 1.010218253637500E+10  -4.049487277796362E-1    2.680092311685369E-1   -5.813736681236197E-4   -6.114333101932221E-4   -5.381262483507546E-4   -6.308876449094371E-4   -2.455354695834486E-1    4.096568038014413E-1
 1.010220626005000E+10  -4.042492537003870E-1    2.691216708435427E-1   -5.774697899957731E-4   -6.208560363534330E-4   -5.259679420212474E-4   -6.314818868745283E-4   -2.442678170476101E-1    4.105491721701344E-1
 1.010222998372500E+10  -4.033582129883179E-1    2.704656660313354E-1   -5.922178707600655E-4   -6.082584473574942E-4   -4.904649560794730E-4   -6.376689976765010E-4   -2.430104031781752E-1    4.113839915425464E-1
 1.010225370740000E+10  -4.026681191008498E-1    2.716658158984614E-1   -6.075435967368679E-4   -5.858850325841633E-4   -5.051673406036891E-4   -6.084550097971941E-4   -2.416136838440590E-1    4.123093712599633E-1
 1.010227743107500E+10  -4.018346692898404E-1    2.728626744210751E-1   -5.967334845981149E-4   -6.100491422474472E-4   -5.107268542856745E-4   -6.462848788890891E-4   -2.404047664460651E-1    4.129426029102770E-1
 1.010230115475000E+10  -4.012048740886007E-1    2.741190838453416E-1   -5.974398732683457E-4   -6.078683794880212E-4   -5.004352013711482E-4   -5.753562772698936E-4   -2.389907659232679E-1    4.139199258689243E-1
