#  HZ   S   RI   R     50.00 
! Rohde & Schwarz Vector Network Analyzer 
! Rohde-Schwarz,ZNB20-2Port,1311601062101988,3.16
! Created: UTC 3/20/2024, 5:09:19 PM
! freq[Hz]                re:S11                  im:S11                  re:S21                  im:S21                  re:S12                  im:S12                  re:S22                  im:S22
 1.010236283500000E+10  -3.996107562333647E-1    2.767355553202496E-1   -6.355454671394270E-4   -5.771038239431922E-4   -5.699738237596493E-4   -6.215167627563391E-4   -2.361743934407655E-1    4.159800672081044E-1
 1.010237603555000E+10  -3.991470200177674E-1    2.774649048979155E-1   -6.456818963961785E-4   -5.909856468755139E-4   -5.578656312392696E-4   -6.172232418988049E-4   -2.355994058927944E-1    4.164285244655080E-1
 1.010238923610000E+10  -3.986617846822134E-1    2.781176710208728E-1   -6.118454287520340E-4   -5.987810024484846E-4   -5.521859421242498E-4   -6.001149856574615E-4   -2.346933973440193E-1    4.168467070443482E-1
 1.010240243665000E+10  -3.983245761252182E-1    2.789685006131102E-1   -6.160847168765948E-4   -5.965483114195887E-4   -5.585780374566957E-4   -6.064208303942306E-4   -2.339527630489970E-1    4.173068344656831E-1
 1.010241563720000E+10  -3.978038815616795E-1    2.794075383889688E-1   -6.351742945050618E-4   -5.822538483335519E-4   -5.642666756272923E-4   -5.915588415375064E-4   -2.331805531619827E-1    4.177282640736473E-1
 1.010242883775000E+10  -3.973385243949826E-1    2.800751857208286E-1   -6.382056736916672E-4   -5.965474851008915E-4   -5.593094236601813E-4   -6.177234155666866E-4   -2.324320148513789E-1    4.182335476444346E-1
 1.010244203830000E+10  -3.969978391897215E-1    2.808887680643177E-1   -6.288039940590782E-4   -5.829074356154999E-4   -5.625898200513973E-4   -6.070321879168632E-4   -2.318115590121316E-1    4.186234360138089E-1
 1.010245523885000E+10  -3.964972097749592E-1    2.814565712070655E-1   -6.209338719041497E-4   -5.652019638374979E-4   -5.797932308321163E-4   -6.113379634956856E-4   -2.310567763151358E-1    4.190960506365474E-1
 1.010246843940000E+10  -3.960770360834234E-1    2.820487364708635E-1   -6.365082881142842E-4   -5.503037413956164E-4   -5.341468942041263E-4   -6.100152705358726E-4   -2.302638328673496E-1    4.196014940023556E-1
 1.010248163995000E+10  -3.955747721640339E-1    2.828462356721326E-1   -6.212558413655402E-4   -5.787397299408760E-4   -5.743485407866704E-4   -5.979361631640853E-4   -2.295811378277197E-1    4.200885304720702E-1
 1.010249484050000E+10  -3.950860920142910E-1    2.834999850460101E-1   -6.284618631333035E-4   -5.699278846461976E-4   -5.525339214546764E-4   -5.752839635705869E-4   -2.288339593677508E-1    4.205980627965877E-1
 1.010250804105000E+10  -3.947646326044015E-1    2.842226443411036E-1   -6.063559135163209E-4   -5.814839198826563E-4   -5.452402960663854E-4   -5.925506082472826E-4   -2.281404878035259E-1    4.208534940471114E-1
 1.010252124160000E+10  -3.943875900241107E-1    2.848555735367657E-1   -6.315418681308579E-4   -6.001826576015605E-4   -5.621317487379036E-4   -6.021935817288194E-4   -2.273250356274169E-1    4.214655957815532E-1
 1.010253444215000E+10  -3.939493992408643E-1    2.857394542814681E-1   -6.492853012787957E-4   -5.492753503494054E-4   -5.766988108578348E-4   -5.894383210173586E-4   -2.265461374374445E-1    4.217925808831159E-1
 1.010254764270000E+10  -3.935258859751363E-1    2.862414100683035E-1   -6.380790854971908E-4   -5.625327512376234E-4   -5.707518968081658E-4   -6.000237303753942E-4   -2.257583313741825E-1    4.222261312077537E-1
 1.010256084325000E+10  -3.930369518670321E-1    2.869532963802330E-1   -6.382561032676702E-4   -5.805262152016651E-4   -5.611060218552463E-4   -6.016894041916361E-4   -2.249977986886801E-1    4.227256550049373E-1
 1.010257404380000E+10  -3.925150290502544E-1    2.875845433573788E-1   -6.406205666684895E-4   -5.737668911725850E-4   -5.661767385362660E-4   -5.824236468880869E-4   -2.245106066227568E-1    4.231179190493796E-1
 1.010258724435000E+10  -3.921337500057613E-1    2.882122215108183E-1   -6.057299362835988E-4   -5.523899903322920E-4   -5.649802204187057E-4   -5.588918069598862E-4   -2.236855395820709E-1    4.234609198175691E-1
 1.010260044490000E+10  -3.916634387568084E-1    2.889132459873411E-1   -6.342049120606943E-4   -5.801064633453004E-4   -5.371708550554406E-4   -5.694946614251626E-4   -2.229319888663765E-1    4.241223893447957E-1
 1.010261364545000E+10  -3.911758965051021E-1    2.895356506908256E-1   -6.167057110252743E-4   -5.840849812550804E-4   -5.787012934890348E-4   -5.838067898507052E-4   -2.220932348519000E-1    4.244717867847771E-1
 1.010262684600000E+10  -3.907724860866350E-1    2.901504480499351E-1   -6.146699461684341E-4   -5.565851553784126E-4   -5.567471102169566E-4   -5.714616651409742E-4   -2.214290352875016E-1    4.248355224124508E-1
 1.010264004655000E+10  -3.903323697006906E-1    2.909034376734737E-1   -6.330119615299097E-4   -5.432312798974056E-4   -5.518412649867767E-4   -5.737744659816505E-4   -2.205694368494912E-1    4.252958531033053E-1
 1.010265324710000E+10  -3.898471871462785E-1    2.916309354047843E-1   -6.364909640181825E-4   -5.776949879265420E-4   -5.391354100048963E-4   -5.708672568926974E-4   -2.199024312728509E-1    4.256702049353540E-1
 1.010266644765000E+10  -3.894225500858912E-1    2.924161373610175E-1   -6.132501505273227E-4   -5.412741724030115E-4   -5.348069841399941E-4   -5.628909011137737E-4   -2.190210866369203E-1    4.261111488791787E-1
 1.010267964820000E+10  -3.889488865697304E-1    2.929293571460492E-1   -6.381378466186860E-4   -5.467916053884786E-4   -5.438962327311246E-4   -5.780741081661920E-4   -2.182862954234812E-1    4.265109860362872E-1
 1.010269284875000E+10  -3.884760706461352E-1    2.935410006032165E-1   -6.134156448926337E-4   -5.388277371949313E-4   -5.516708864141851E-4   -5.380243335305347E-4   -2.175272995932111E-1    4.270633096013652E-1
 1.010270604930000E+10  -3.880192287122990E-1    2.942037245989239E-1   -6.212424557167957E-4   -5.529224755714339E-4   -5.546349523111735E-4   -5.609196721290216E-4   -2.168970694863477E-1    4.274729132956237E-1
 1.010271924985000E+10  -3.876149748367377E-1    2.948655911135356E-1   -6.323571058261704E-4   -5.072748470666051E-4   -5.433732452273920E-4   -5.584108112463335E-4   -2.161021988236294E-1    4.277919864358845E-1
 1.010273245040000E+10  -3.871586641462474E-1    2.956144535099207E-1   -6.155823668235715E-4   -5.566927212605052E-4   -5.343925684727794E-4   -5.512568047468090E-4   -2.153126645812411E-1    4.283099179595691E-1
 1.010274565095000E+10  -3.867215260451413E-1    2.962020301588980E-1   -5.921885790121988E-4   -5.473091849567481E-4   -5.359940016133627E-4   -5.847830227944183E-4   -2.146828990694708E-1    4.287074464898237E-1
 1.010275885150000E+10  -3.861962225243840E-1    2.968616374995309E-1   -6.271546599239745E-4   -5.258227267742222E-4   -5.409582011316644E-4   -5.430608465052274E-4   -2.138219523349645E-1    4.291768932486106E-1
 1.010277205205000E+10  -3.858625324344988E-1    2.975669816496866E-1   -6.184865288731043E-4   -5.246711533077867E-4   -5.367751389171938E-4   -5.598754876966364E-4   -2.130700143320327E-1    4.295220753676075E-1
 1.010278525260000E+10  -3.853350810443779E-1    2.982236385295405E-1   -5.992897148572871E-4   -5.159835474104164E-4   -5.418546241410413E-4   -5.546612460280429E-4   -2.122790376674061E-1    4.300008494353734E-1
 1.010279845315000E+10  -3.849557862263877E-1    2.988132134383609E-1   -5.872252705440528E-4   -5.488151026714788E-4   -5.511334837044755E-4   -5.336108506487246E-4   -2.114142425263225E-1    4.305270305170495E-1
 1.010281165370000E+10  -3.843117867764265E-1    2.996004153122427E-1   -6.028010159425068E-4   -5.180022906460283E-4   -5.248198945355232E-4   -5.408702802381961E-4   -2.106977062375315E-1    4.306342970795970E-1
 1.010282485425000E+10  -3.839618897802947E-1    3.001342407054328E-1   -5.768009166636450E-4   -5.091719007451218E-4   -5.415190951716805E-4   -5.414845198509020E-4   -2.099502773182147E-1    4.312290701681590E-1
 1.010283805480000E+10  -3.834980989797082E-1    3.008020583657370E-1   -5.960714534529343E-4   -5.113035189323497E-4   -5.435813616534535E-4   -5.343229414504824E-4   -2.093019403493145E-1    4.315839869096186E-1
 1.010285125535000E+10  -3.831497099959242E-1    3.016206643717562E-1   -5.826231225097527E-4   -4.766835413410846E-4   -5.455962376067212E-4   -5.363514805864272E-4   -2.084012850926244E-1    4.320860753748678E-1
 1.010286445590000E+10  -3.826236671861398E-1    3.022104497155487E-1   -5.799373342246715E-4   -5.067523045412340E-4   -5.215712714855923E-4   -5.228047696623447E-4   -2.076401229636204E-1    4.324279483640520E-1
 1.010287765645000E+10  -3.821043512001238E-1    3.028580172146214E-1   -5.837542580836018E-4   -5.299540875745695E-4   -4.864422477990771E-4   -5.460665921604365E-4   -2.068837680748780E-1    4.328691610708710E-1
 1.010289085700000E+10  -3.816748541993184E-1    3.035067588597001E-1   -5.768541294636923E-4   -5.195896710473010E-4   -5.339794442699260E-4   -5.119198621991141E-4   -2.060750605419968E-1    4.331840463949475E-1
 1.010290405755000E+10  -3.811762026149040E-1    3.042131491309215E-1   -5.675980690918557E-4   -5.048161032965853E-4   -5.294780702266468E-4   -5.206089555015201E-4   -2.053556977510105E-1    4.336688841768162E-1
 1.010291725810000E+10  -3.806810250736359E-1    3.047861185238773E-1   -5.761085575413967E-4   -5.182086674781190E-4   -5.163781641310093E-4   -5.272026854523494E-4   -2.044797427468526E-1    4.341518519544564E-1
 1.010293045865000E+10  -3.801622268603391E-1    3.053311583139762E-1   -6.069796529678426E-4   -4.952081610715367E-4   -5.246566096206348E-4   -5.208778300711202E-4   -2.038745032682605E-1    4.345918503971987E-1
 1.010294365920000E+10  -3.797879381509863E-1    3.060455647491371E-1   -5.729160601498266E-4   -4.846144351642483E-4   -5.178873743438089E-4   -5.126693527816722E-4   -2.030232915381053E-1    4.348179725174656E-1
 1.010295685975000E+10  -3.792878860764041E-1    3.067701613873220E-1   -5.724399867140404E-4   -4.981683532720819E-4   -4.947202948157914E-4   -5.208055929375148E-4   -2.022173443617522E-1    4.352211438387362E-1
 1.010297006030000E+10  -3.788352236647850E-1    3.073664071887525E-1   -5.640473083245330E-4   -5.243664004336657E-4   -5.389065960481079E-4   -5.375195651427671E-4   -2.014189369931322E-1    4.356305829491005E-1
 1.010298326085000E+10  -3.782803345003130E-1    3.079279114867660E-1   -5.816382559488238E-4   -5.227715242208409E-4   -4.999657439265795E-4   -5.160431447113513E-4   -2.006096568224067E-1    4.359643366431279E-1
 1.010299646140000E+10  -3.778593298147614E-1    3.086000507635503E-1   -5.779747324588346E-4   -5.081285095398812E-4   -5.199463937509351E-4   -5.160027146483833E-4   -1.999373010424794E-1    4.362701500667044E-1
 1.010300966195000E+10  -3.773960879231845E-1    3.093400465125681E-1   -5.710002292274613E-4   -5.122411856919466E-4   -5.098714400192628E-4   -4.998888091283194E-4   -1.991606520374962E-1    4.368189316647256E-1
 1.010302286250000E+10  -3.768079507526089E-1    3.099038387332837E-1   -5.919104144208047E-4   -4.683170458520699E-4   -5.079917193050543E-4   -5.107697131633476E-4   -1.982923632340897E-1    4.372782285409086E-1
 1.010303606305000E+10  -3.763110829158198E-1    3.106227979791022E-1   -5.767419658152294E-4   -4.801312126456077E-4   -5.092201946996108E-4   -5.013531853003975E-4   -1.976537409510212E-1    4.375904756454648E-1
 1.010304926360000E+10  -3.759144880497335E-1    3.112463746879088E-1   -5.657923107738195E-4   -4.903822273758263E-4   -5.151170158255517E-4   -4.922754952036364E-4   -1.967912030459823E-1    4.380075065396163E-1
 1.010306246415000E+10  -3.755404658379800E-1    3.118650319307312E-1   -5.346711188063019E-4   -4.520274190026043E-4   -5.205961713651383E-4   -4.822862820705944E-4   -1.958191302333344E-1    4.384080124630932E-1
 1.010307566470000E+10  -3.749367801826595E-1    3.126816266760538E-1   -5.865322760318968E-4   -4.595281721982186E-4   -4.806598904295269E-4   -4.952308259074898E-4   -1.950021879948003E-1    4.388305726352176E-1
 1.010308886525000E+10  -3.743566319101265E-1    3.130805052906713E-1   -5.436566357620843E-4   -4.547874981683408E-4   -5.095354105247239E-4   -5.099088973596410E-4   -1.944388216421926E-1    4.393166504340517E-1
 1.010310206580000E+10  -3.740922649924405E-1    3.137992598891901E-1   -5.448083507922455E-4   -4.339260478260145E-4   -5.108459331093080E-4   -4.933175002661680E-4   -1.935498133856561E-1    4.394928020906024E-1
 1.010311526635000E+10  -3.734897329125207E-1    3.144691398608952E-1   -5.375336803386440E-4   -4.532151317827624E-4   -5.125471349057624E-4   -4.920893193791903E-4   -1.928401180328489E-1    4.399808727185521E-1
 1.010312846690000E+10  -3.729571839414729E-1    3.150999333499745E-1   -5.630161250259225E-4   -4.719124702104371E-4   -4.892445272012311E-4   -4.818307925543564E-4   -1.919479526144537E-1    4.402710890826124E-1
 1.010314166745000E+10  -3.725589454297450E-1    3.157511884059391E-1   -5.584835623895955E-4   -4.544184360349778E-4   -5.102681268241427E-4   -4.760751825491078E-4   -1.912222096447041E-1    4.407295246814359E-1
 1.010315486800000E+10  -3.721490330691203E-1    3.163471877822930E-1   -5.627301788351681E-4   -4.693138784438194E-4   -5.224607331894827E-4   -4.756427784354462E-4   -1.905187283899619E-1    4.411611649595100E-1
 1.010316806855000E+10  -3.715670519826917E-1    3.170324070000084E-1   -5.395051958216314E-4   -4.443803756705785E-4   -4.916442351769586E-4   -4.784707740978671E-4   -1.894728230018494E-1    4.413342582405084E-1
 1.010318126910000E+10  -3.710557153614099E-1    3.176352840266722E-1   -5.367892551197500E-4   -4.644451546487255E-4   -4.806670557998076E-4   -4.732590422905020E-4   -1.889772695879361E-1    4.419643923725468E-1
 1.010319446965000E+10  -3.706266277941495E-1    3.183993725445404E-1   -5.356356465014744E-4   -4.653882201116735E-4   -4.981015993581206E-4   -4.726333079883752E-4   -1.878577377780349E-1    4.423700687599704E-1
 1.010320767020000E+10  -3.700319316477245E-1    3.189578025382707E-1   -5.205952762719279E-4   -4.584558326715744E-4   -4.741324368364566E-4   -4.915831831169826E-4   -1.872584145776645E-1    4.425528466702551E-1
 1.010322087075000E+10  -3.696051669432210E-1    3.195333445775592E-1   -5.065804540162738E-4   -4.411468086675945E-4   -4.752350393522262E-4   -4.692795500744947E-4   -1.864622337206607E-1    4.430101004767051E-1
 1.010323407130000E+10  -3.690425603235914E-1    3.200810648917802E-1   -5.419858953628164E-4   -4.256443197484883E-4   -4.623573625839395E-4   -4.503580588424285E-4   -1.854819730310116E-1    4.433496063671844E-1
 1.010324727185000E+10  -3.685743764964999E-1    3.208254668253219E-1   -5.437547359070227E-4   -4.501872760339986E-4   -4.544754106408491E-4   -4.574596287467866E-4   -1.847203365374140E-1    4.437052743188919E-1
 1.010326047240000E+10  -3.680781847276020E-1    3.214140589322307E-1   -5.436849928594018E-4   -4.438805540695174E-4   -4.809790052818450E-4   -4.745320311519531E-4   -1.838943405825336E-1    4.439935637917729E-1
 1.010327367295000E+10  -3.676403685725843E-1    3.221909033188797E-1   -5.354002001143331E-4   -4.341539955137594E-4   -4.660121610345695E-4   -4.434293685658915E-4   -1.831816672129427E-1    4.444428946204699E-1
 1.010328687350000E+10  -3.671991742467879E-1    3.226568833516958E-1   -5.230825427375871E-4   -4.295233956179270E-4   -4.724232343009262E-4   -4.524463984394276E-4   -1.824215480150690E-1    4.447678129386565E-1
 1.010330007405000E+10  -3.666943941383615E-1    3.233215538567691E-1   -5.115965541983139E-4   -4.329013769778538E-4   -4.608885444900373E-4   -4.610989706533485E-4   -1.816321884020851E-1    4.450213665019681E-1
 1.010331327460000E+10  -3.660943276777474E-1    3.239786178785443E-1   -4.746768662504786E-4   -4.273895213846696E-4   -4.841106571077252E-4   -4.264182065693480E-4   -1.807596951072901E-1    4.455480889559582E-1
 1.010332647515000E+10  -3.655489082712070E-1    3.245605380122866E-1   -5.109509478069285E-4   -4.145333317381398E-4   -4.692512362692782E-4   -4.285104848224704E-4   -1.798491177674346E-1    4.458587850171731E-1
 1.010333967570000E+10  -3.651263335390489E-1    3.251344206404023E-1   -5.139437046799538E-4   -4.144032818573015E-4   -4.695785359813841E-4   -4.460178780695766E-4   -1.790493614824760E-1    4.462063674156974E-1
 1.010335287625000E+10  -3.645712309101076E-1    3.258211669482723E-1   -4.749795142559550E-4   -4.210457627317900E-4   -4.509652221984477E-4   -4.558785042866469E-4   -1.782435108769456E-1    4.466268274044146E-1
 1.010336607680000E+10  -3.640891681755737E-1    3.262990934895708E-1   -4.915159025467116E-4   -3.916037569186839E-4   -4.370472084766453E-4   -4.398145021201826E-4   -1.774440398810042E-1    4.469331454450335E-1
 1.010337927735000E+10  -3.637026745862226E-1    3.270238078205141E-1   -4.948680926278087E-4   -4.024280921059108E-4   -4.351868020033621E-4   -4.564435969818105E-4   -1.765377641571488E-1    4.473403001593017E-1
 1.010339247790000E+10  -3.631053554274044E-1    3.277361456969011E-1   -5.099879683406726E-4   -4.191802545736901E-4   -4.502782439212064E-4   -4.279320224531228E-4   -1.756290114582915E-1    4.477270891722634E-1
 1.010340567845000E+10  -3.624936257724160E-1    3.282825528939045E-1   -4.873741477970249E-4   -4.011821727851309E-4   -4.594609007573007E-4   -4.168246817730461E-4   -1.750336762541309E-1    4.480140146029430E-1
 1.010341887900000E+10  -3.620567495640801E-1    3.288596582538424E-1   -4.796574087759641E-4   -4.294392076723354E-4   -4.325132407579909E-4   -4.454091306626239E-4   -1.739886432133690E-1    4.483823637182008E-1
 1.010343207955000E+10  -3.615295720551561E-1    3.296156271475548E-1   -4.690336659463725E-4   -3.853101706826954E-4   -4.120070499157281E-4   -4.169501189195241E-4   -1.732312007924852E-1    4.486230461831855E-1
 1.010344528010000E+10  -3.610132496452327E-1    3.301316426224264E-1   -4.832597666090436E-4   -4.016696168728256E-4   -4.149602784975533E-4   -4.021151665707320E-4   -1.724294204725156E-1    4.490966159788322E-1
 1.010345848065000E+10  -3.605440380717690E-1    3.308009949860406E-1   -4.740220903380230E-4   -3.978685221509615E-4   -4.174581487196690E-4   -3.903512815204588E-4   -1.716353748130804E-1    4.493358634077866E-1
 1.010347168120000E+10  -3.601380732855371E-1    3.312772255988112E-1   -4.620571270021490E-4   -4.084973808671143E-4   -4.141927654255564E-4   -4.276263385706840E-4   -1.706585369399997E-1    4.499218529876552E-1
 1.010348488175000E+10  -3.593721606479781E-1    3.319820268569854E-1   -4.481110046293646E-4   -3.893592866295759E-4   -3.904471570615179E-4   -3.677112247962822E-4   -1.697785777222200E-1    4.499935273497764E-1
 1.010349808230000E+10  -3.589982348491813E-1    3.324812697087700E-1   -4.516309726893071E-4   -3.800598123688243E-4   -4.066146592685879E-4   -4.155995760354598E-4   -1.689739549908569E-1    4.503665807204038E-1
 1.010351128285000E+10  -3.583682816947321E-1    3.332768317294014E-1   -4.487734124299334E-4   -3.804349644942491E-4   -4.020000351523896E-4   -4.110569533329833E-4   -1.682531639363228E-1    4.508219383510683E-1
 1.010352448340000E+10  -3.579041983382458E-1    3.338174531479918E-1   -4.517947220721856E-4   -3.972704776884586E-4   -3.933683319983925E-4   -4.165685970263111E-4   -1.674009612604250E-1    4.511875253278358E-1
 1.010353768395000E+10  -3.575325811714055E-1    3.345163593443017E-1   -4.318732838197603E-4   -3.738308347714774E-4   -3.895489966163568E-4   -3.556410075694623E-4   -1.665481940363648E-1    4.514636482600149E-1
 1.010355088450000E+10  -3.568617113296433E-1    3.349547216417886E-1   -4.320216150971954E-4   -3.549136317958310E-4   -3.823902717358157E-4   -3.829555467903432E-4   -1.656985412595700E-1    4.518915814727690E-1
