#  HZ   S   RI   R     50.00 
! Rohde & Schwarz Vector Network Analyzer 
! Rohde-Schwarz,ZNB20-2Port,1311601062101988,3.16
! Created: UTC 3/20/2024, 4:54:14 PM
! freq[Hz]                re:S11                  im:S11                  re:S21                  im:S21                  re:S12                  im:S12                  re:S22                  im:S22
 1.010246561900000E+10  -3.961952990978304E-1    2.827418558585853E-1   -6.724559380633497E-4   -5.763433443985995E-4   -5.668192621169734E-4   -6.105795629859094E-4   -2.291656118227312E-1    4.208101778990802E-1
 1.010247797690000E+10  -3.957982770388341E-1    2.832970113791632E-1   -6.440037545489249E-4   -5.730643447805720E-4   -5.511785566232260E-4   -6.301079573615809E-4   -2.284241348255577E-1    4.212649104540112E-1
 1.010249033480000E+10  -3.953661173847164E-1    2.839492128692984E-1   -6.439277061508195E-4   -5.973883106493148E-4   -5.467541704309232E-4   -5.777230980009729E-4   -2.276593567365679E-1    4.216185982206878E-1
 1.010250269270000E+10  -3.949385612027807E-1    2.846749028364284E-1   -6.162076194837118E-4   -5.517828102728383E-4   -5.308234724827520E-4   -6.049792199684899E-4   -2.269622198358938E-1    4.220277027389810E-1
 1.010251505060000E+10  -3.946384623511120E-1    2.852871354103713E-1   -6.330239013383203E-4   -5.582084325694235E-4   -5.455935559535549E-4   -6.001730809162083E-4   -2.264155015377634E-1    4.225113257840102E-1
 1.010252740850000E+10  -3.941336434111881E-1    2.859135432097416E-1   -6.288733672554663E-4   -5.664783927223848E-4   -5.332740237002519E-4   -5.940367936273953E-4   -2.255695105743323E-1    4.229002777755170E-1
 1.010253976640000E+10  -3.937448747644648E-1    2.865517092697139E-1   -6.081508259340847E-4   -5.450426345630266E-4   -5.491385843006972E-4   -5.910774679103211E-4   -2.249006477864063E-1    4.233088061569025E-1
 1.010255212430000E+10  -3.931537640029947E-1    2.871264262232689E-1   -6.303455331398826E-4   -5.724421125635085E-4   -5.663659027031238E-4   -5.903987623345922E-4   -2.241251797127517E-1    4.236134807019642E-1
 1.010256448220000E+10  -3.928216075616228E-1    2.878283328119190E-1   -6.367577240098340E-4   -5.521909226762582E-4   -5.589937374390667E-4   -5.843017011435956E-4   -2.234728109457909E-1    4.241500758231067E-1
 1.010257684010000E+10  -3.924524884868013E-1    2.885322029808790E-1   -6.066558502804988E-4   -5.574918256540496E-4   -5.467393751490724E-4   -5.674023549207032E-4   -2.227574371825068E-1    4.244818756442528E-1
 1.010258919800000E+10  -3.920861914513527E-1    2.891636720828904E-1   -6.346031889263405E-4   -5.594883115368576E-4   -5.598062600175780E-4   -5.793358171300242E-4   -2.220863584682643E-1    4.249086107572461E-1
 1.010260155590000E+10  -3.916474753779529E-1    2.897740518507763E-1   -6.144170325159513E-4   -5.422200626297251E-4   -5.453072839683818E-4   -5.534490607102444E-4   -2.215682382362428E-1    4.252408589039818E-1
 1.010261391380000E+10  -3.912867916665891E-1    2.901982920600268E-1   -5.881982298761429E-4   -5.334439458720648E-4   -5.315450955683145E-4   -5.951747966786659E-4   -2.207210005538033E-1    4.255770096641777E-1
 1.010262627170000E+10  -3.908036855616230E-1    2.909231866017037E-1   -6.175571421335352E-4   -5.348182797482217E-4   -5.636181832143183E-4   -5.857482781361525E-4   -2.200332947188287E-1    4.261510278257811E-1
 1.010263862960000E+10  -3.903316201505580E-1    2.914787879364699E-1   -6.231514845368022E-4   -5.350345428851507E-4   -5.338469727453975E-4   -5.792852712466283E-4   -2.192962385404576E-1    4.266081323450350E-1
 1.010265098750000E+10  -3.899692314986902E-1    2.921538216140471E-1   -6.347320246745864E-4   -5.532725356516602E-4   -5.431846570534189E-4   -5.962714441647687E-4   -2.186052916549825E-1    4.269727978959389E-1
 1.010266334540000E+10  -3.895177684832263E-1    2.928917588130355E-1   -5.983815465113839E-4   -5.296664615750486E-4   -5.499675027963140E-4   -5.506387961616336E-4   -2.179227325209893E-1    4.273211770257458E-1
 1.010267570330000E+10  -3.890795295287284E-1    2.934470011314435E-1   -6.346981797726414E-4   -5.341692789021897E-4   -5.368383463655625E-4   -5.764612698941965E-4   -2.171487851090074E-1    4.276995320865489E-1
 1.010268806120000E+10  -3.886748038930536E-1    2.940185809690268E-1   -6.333358565780967E-4   -5.284027144724806E-4   -5.465768824153860E-4   -5.443363885578574E-4   -2.163724966091927E-1    4.280492848518061E-1
 1.010270041910000E+10  -3.882067144236745E-1    2.947493763473029E-1   -6.043256842295398E-4   -5.093367897635344E-4   -5.505980700391687E-4   -5.500056524338203E-4   -2.158144469990745E-1    4.286388318502583E-1
 1.010271277700000E+10  -3.877010913939717E-1    2.953981454095633E-1   -6.045454948857896E-4   -5.306418586243309E-4   -5.401088459047088E-4   -5.369332788966245E-4   -2.151359878346213E-1    4.288430606711498E-1
 1.010272513490000E+10  -3.873678270068974E-1    2.960041520647083E-1   -6.050831945405841E-4   -5.202264256055808E-4   -5.516721571977196E-4   -5.449926205439541E-4   -2.143471099553342E-1    4.293633066636747E-1
 1.010273749280000E+10  -3.869858218878668E-1    2.966064851933033E-1   -6.174324751889428E-4   -5.423261067771084E-4   -5.182865689216204E-4   -5.554778682323276E-4   -2.135795185766209E-1    4.298647350893683E-1
 1.010274985070000E+10  -3.865067885066926E-1    2.972206295970967E-1   -6.156763689151582E-4   -5.277796655769787E-4   -5.308297506965710E-4   -5.661809805874389E-4   -2.128481395822898E-1    4.300777879119453E-1
 1.010276220860000E+10  -3.860491031221984E-1    2.977654162237786E-1   -5.970160557054442E-4   -5.303072388082938E-4   -5.301292268391198E-4   -5.349666244243663E-4   -2.121461276831945E-1    4.305585785948232E-1
 1.010277456650000E+10  -3.856448427226287E-1    2.983698643262813E-1   -6.105459522609541E-4   -5.185778256541830E-4   -5.379500943376758E-4   -5.636925710706328E-4   -2.114772605949147E-1    4.310231618965839E-1
 1.010278692440000E+10  -3.851819390402291E-1    2.991312554633156E-1   -5.874377324514287E-4   -4.802162957893216E-4   -5.469767788057389E-4   -5.493819264134038E-4   -2.107207659383448E-1    4.312816772607183E-1
 1.010279928230000E+10  -3.846945283219680E-1    2.997064184348838E-1   -6.181313884566349E-4   -5.115745831235541E-4   -5.108453697053611E-4   -5.358488417445584E-4   -2.100772663579177E-1    4.317420346593728E-1
 1.010281164020000E+10  -3.843186549115385E-1    3.002374870026122E-1   -5.810203211863442E-4   -4.936569186328489E-4   -5.367855179607544E-4   -5.317607542763105E-4   -2.093959840084222E-1    4.321892024147028E-1
 1.010282399810000E+10  -3.840119750010946E-1    3.009726787729058E-1   -5.705488093588640E-4   -5.124795680838787E-4   -5.334923950488365E-4   -5.356710952278247E-4   -2.086123234380192E-1    4.325437901442457E-1
 1.010283635600000E+10  -3.835514349735683E-1    3.014701482612253E-1   -6.019807374562646E-4   -5.326490824412479E-4   -5.460953083624911E-4   -5.535446771359843E-4   -2.079203167718557E-1    4.327455331513939E-1
 1.010284871390000E+10  -3.830531960828170E-1    3.021114364795653E-1   -6.027174851092266E-4   -5.014338778634584E-4   -5.207662512704689E-4   -5.440734353787203E-4   -2.073270336636824E-1    4.331907094317576E-1
 1.010286107180000E+10  -3.825902082643748E-1    3.026821153485100E-1   -5.981351116979961E-4   -5.110162196979769E-4   -5.019881385649028E-4   -5.322600057697148E-4   -2.063348712056684E-1    4.335806380682848E-1
 1.010287342970000E+10  -3.821433746179933E-1    3.032227510512747E-1   -5.924273264232987E-4   -5.237075920809215E-4   -5.182928644861300E-4   -5.223305456340412E-4   -2.057342587934689E-1    4.341215155378310E-1
 1.010288578760000E+10  -3.817181742340469E-1    3.038586456479164E-1   -5.747981499489578E-4   -4.975518511449831E-4   -5.135338919094982E-4   -5.135220206676958E-4   -2.048488402031012E-1    4.342786366765364E-1
 1.010289814550000E+10  -3.813670892111580E-1    3.045712511539513E-1   -5.797256027084447E-4   -4.794810635765872E-4   -4.980937667914421E-4   -5.077191237313554E-4   -2.042275156211322E-1    4.347675498955080E-1
 1.010291050340000E+10  -3.808353527009274E-1    3.052453086539768E-1   -5.844764136322517E-4   -4.821953727200036E-4   -4.916476505549646E-4   -5.240992988924766E-4   -2.035482439021689E-1    4.352033015211900E-1
 1.010292286130000E+10  -3.803441076228280E-1    3.058993580798430E-1   -5.661805446299396E-4   -4.891700564753716E-4   -5.276522585614757E-4   -5.057866706970821E-4   -2.026282913531819E-1    4.354196651339702E-1
 1.010293521920000E+10  -3.799403771432427E-1    3.064081758455638E-1   -5.630866171640001E-4   -4.825753960580274E-4   -5.086482953786708E-4   -5.090376350550973E-4   -2.019953418705753E-1    4.358146314676545E-1
 1.010294757710000E+10  -3.795142217233373E-1    3.070360335953097E-1   -5.960866208437317E-4   -4.816149303787583E-4   -5.213919100356525E-4   -4.974222456331605E-4   -2.013085118499707E-1    4.363412923620874E-1
 1.010295993500000E+10  -3.790770865326045E-1    3.076573900950932E-1   -5.795166329876043E-4   -4.562608250167817E-4   -5.094133631933735E-4   -5.136209617240444E-4   -2.004238527660058E-1    4.367124281987593E-1
 1.010297229290000E+10  -3.786489789060150E-1    3.082701611884110E-1   -5.733286228026851E-4   -4.678946168375343E-4   -5.245760585293322E-4   -5.191849778713509E-4   -1.999021400172090E-1    4.370573487660935E-1
 1.010298465080000E+10  -3.781162577016199E-1    3.088602437414742E-1   -5.804638225509136E-4   -4.910454696102854E-4   -5.033676250424316E-4   -5.124551930476996E-4   -1.990457284958877E-1    4.373533285276477E-1
 1.010299700870000E+10  -3.775760375029331E-1    3.094386154426003E-1   -5.648417508735701E-4   -4.762604114083644E-4   -5.183655403666721E-4   -5.047366810911718E-4   -1.983966181444752E-1    4.377568300001121E-1
 1.010300936660000E+10  -3.773042866672032E-1    3.100059301068466E-1   -5.639058850491635E-4   -4.701372321287115E-4   -4.922167363157498E-4   -4.710651746567228E-4   -1.975922429366908E-1    4.381045674536992E-1
 1.010302172450000E+10  -3.768688199900017E-1    3.106696378975974E-1   -5.641145774968692E-4   -4.707824651110857E-4   -5.125171102561464E-4   -4.847175108944796E-4   -1.968655811224308E-1    4.385130608954466E-1
 1.010303408240000E+10  -3.763065662104587E-1    3.112417060112727E-1   -5.947929500059960E-4   -4.769437961618666E-4   -4.964025080660039E-4   -4.781959173092238E-4   -1.960393812673978E-1    4.388986006851522E-1
 1.010304644030000E+10  -3.759423915437957E-1    3.118038617529212E-1   -5.868343087726468E-4   -4.692588466391685E-4   -5.151451542681894E-4   -4.885563349176012E-4   -1.953601145658979E-1    4.392405142961996E-1
 1.010305879820000E+10  -3.755041226771234E-1    3.125206215943214E-1   -5.438104156310095E-4   -4.653098563459387E-4   -4.893023618828726E-4   -4.885282836052241E-4   -1.947167555768483E-1    4.395837121361216E-1
 1.010307115610000E+10  -3.751077018851283E-1    3.130745844010109E-1   -5.483358350311015E-4   -4.612527988740811E-4   -4.722428303818950E-4   -4.649424489769448E-4   -1.938433665791834E-1    4.398451247747429E-1
 1.010308351400000E+10  -3.745651327202540E-1    3.135955849777688E-1   -5.621486444232682E-4   -4.776370339241377E-4   -4.728349108721304E-4   -5.191579031030696E-4   -1.931595709200564E-1    4.403093620336565E-1
 1.010309587190000E+10  -3.740570333582878E-1    3.141128136718633E-1   -5.478013957596721E-4   -4.773082723149697E-4   -4.881862381117436E-4   -4.893560558260258E-4   -1.923129817188563E-1    4.407841875137636E-1
 1.010310822980000E+10  -3.736490069346993E-1    3.148207544020959E-1   -5.547999130992498E-4   -4.597025219792730E-4   -4.955024901531367E-4   -4.640120836664902E-4   -1.916450792323998E-1    4.409915344822573E-1
 1.010312058770000E+10  -3.730866165201162E-1    3.154408735068051E-1   -5.452942674149935E-4   -4.610925334216406E-4   -4.792480969883936E-4   -4.582762682711147E-4   -1.908841380449054E-1    4.413918923513999E-1
 1.010313294560000E+10  -3.727485513260155E-1    3.160079786790485E-1   -5.174095270255076E-4   -4.559410347855971E-4   -4.816859730483011E-4   -4.786878965577379E-4   -1.901548377278370E-1    4.417321429047645E-1
 1.010314530350000E+10  -3.724169459259744E-1    3.166438502516966E-1   -5.406098869341860E-4   -4.704093423171468E-4   -4.917329031214137E-4   -4.668946397451337E-4   -1.893077884849356E-1    4.420681015485130E-1
 1.010315766140000E+10  -3.719270687356540E-1    3.172347625540316E-1   -5.466764897068875E-4   -4.136698916247335E-4   -4.757208642709334E-4   -4.569960467363028E-4   -1.886721352489777E-1    4.424369848094147E-1
 1.010317001930000E+10  -3.714217132265922E-1    3.178204577706555E-1   -5.251521619354338E-4   -4.269149733677369E-4   -4.788852823402599E-4   -4.606432510599246E-4   -1.878000715611382E-1    4.427886638431638E-1
 1.010318237720000E+10  -3.708646869163673E-1    3.184475082851173E-1   -5.314632316119823E-4   -4.478611385446849E-4   -4.660363304709103E-4   -4.779599228941712E-4   -1.870428686478603E-1    4.432188169186903E-1
 1.010319473510000E+10  -3.704960476753462E-1    3.190594986106009E-1   -5.247928233605017E-4   -4.483716824810245E-4   -4.766288433790999E-4   -4.478891970755441E-4   -1.865066647810269E-1    4.434891984037128E-1
 1.010320709300000E+10  -3.700742454807514E-1    3.196164796540562E-1   -5.297246355030152E-4   -4.455387794451746E-4   -4.320748171548315E-4   -4.595247667772807E-4   -1.856894906701721E-1    4.438958325468401E-1
 1.010321945090000E+10  -3.694410274811853E-1    3.200095548334732E-1   -5.359761556332884E-4   -4.252810436526309E-4   -4.792755223925743E-4   -4.302710947125476E-4   -1.848526377880521E-1    4.441556679114204E-1
 1.010323180880000E+10  -3.690374916116437E-1    3.207030351687575E-1   -5.363790364008315E-4   -4.267110860049000E-4   -4.421422784498175E-4   -4.509000436170978E-4   -1.840349068552331E-1    4.445412226519617E-1
 1.010324416670000E+10  -3.686717911457453E-1    3.213519354383775E-1   -5.279815075927259E-4   -4.358608826740592E-4   -4.634494313191118E-4   -4.548460890663638E-4   -1.833228637003334E-1    4.448578836813039E-1
 1.010325652460000E+10  -3.680556020557485E-1    3.218943076403928E-1   -5.151493901138854E-4   -4.287090449590136E-4   -4.596812038979000E-4   -4.447148513183991E-4   -1.825634160105366E-1    4.451088487814343E-1
 1.010326888250000E+10  -3.677599821473075E-1    3.224841775818652E-1   -5.323204233708168E-4   -4.217114085009100E-4   -4.612781722840614E-4   -4.100772307402807E-4   -1.818851611042120E-1    4.455876361695965E-1
 1.010328124040000E+10  -3.673612208536597E-1    3.230339208902912E-1   -5.275965550787165E-4   -4.125093667916514E-4   -4.631928508795056E-4   -4.202055745438272E-4   -1.809997020724826E-1    4.458290922045934E-1
 1.010329359830000E+10  -3.666568138175834E-1    3.236862948741293E-1   -4.986710511416728E-4   -4.260285696138377E-4   -4.302857935384716E-4   -4.289151950280020E-4   -1.802867537436307E-1    4.462690108073671E-1
 1.010330595620000E+10  -3.662909103233086E-1    3.241702253177281E-1   -4.744272106600249E-4   -4.097305209498950E-4   -4.426808886044192E-4   -4.345200089556880E-4   -1.795794612623531E-1    4.465447908274502E-1
 1.010331831410000E+10  -3.656864527972595E-1    3.249375130454907E-1   -4.975127133314013E-4   -3.770346705104392E-4   -4.317135488701707E-4   -4.316234619371508E-4   -1.787620983887022E-1    4.469992744456270E-1
 1.010333067200000E+10  -3.653331317485122E-1    3.254082141421243E-1   -4.794099406140162E-4   -4.099686212098283E-4   -4.336992568009153E-4   -4.239757719344121E-4   -1.779854643744617E-1    4.471967338164107E-1
 1.010334302990000E+10  -3.648588715697704E-1    3.260407829476202E-1   -4.625334578505556E-4   -3.996768830429309E-4   -4.378685837704541E-4   -4.475156110321281E-4   -1.771391530292019E-1    4.475873712899965E-1
 1.010335538780000E+10  -3.643258962911538E-1    3.266115350939138E-1   -4.919619608647411E-4   -4.142142107519053E-4   -4.238848572348478E-4   -4.609500938250776E-4   -1.764187277654833E-1    4.479268612833553E-1
 1.010336774570000E+10  -3.639059665612568E-1    3.272361187723104E-1   -4.867429543763415E-4   -4.069527980708434E-4   -4.382917646536271E-4   -4.151578204233489E-4   -1.756281400766233E-1    4.481693081369094E-1
 1.010338010360000E+10  -3.634375078158153E-1    3.278129152422561E-1   -4.976957009074805E-4   -4.165607193159170E-4   -4.272363182125993E-4   -4.101527873471770E-4   -1.749267930712439E-1    4.484618013354258E-1
 1.010339246150000E+10  -3.629387579066135E-1    3.284459527579917E-1   -4.813027428618870E-4   -3.938508987113936E-4   -3.999332336391678E-4   -4.219907326285735E-4   -1.741489911519142E-1    4.489291089556653E-1
 1.010340481940000E+10  -3.625573554583931E-1    3.289976307981113E-1   -4.645279798329028E-4   -4.074825712631874E-4   -4.072698127511308E-4   -4.115404248800614E-4   -1.733216866403299E-1    4.492957724718980E-1
 1.010341717730000E+10  -3.618188584179472E-1    3.294506835712219E-1   -4.669984940805021E-4   -4.065684801727229E-4   -4.201844441130518E-4   -4.301305256290011E-4   -1.725736945090837E-1    4.494835212856677E-1
 1.010342953520000E+10  -3.614500220369949E-1    3.301530211994129E-1   -4.608417207202501E-4   -4.067749876171910E-4   -4.107151656360026E-4   -4.264457222397652E-4   -1.717127612045658E-1    4.498568169752949E-1
 1.010344189310000E+10  -3.610286823787366E-1    3.306399256704357E-1   -4.622164390089913E-4   -3.599582949360128E-4   -3.923188415123425E-4   -4.035945310751701E-4   -1.709223529374448E-1    4.502812021281189E-1
 1.010345425100000E+10  -3.605507571132752E-1    3.312344970180383E-1   -4.444405519914476E-4   -3.876402778155677E-4   -4.065521310848646E-4   -4.157208298740477E-4   -1.701801440928223E-1    4.505622311209109E-1
 1.010346660890000E+10  -3.600739133853286E-1    3.318509467370053E-1   -4.235091128045004E-4   -3.634641366932091E-4   -3.760046908640598E-4   -4.156082132423446E-4   -1.693239855233095E-1    4.507867792051251E-1
 1.010347896680000E+10  -3.596519609140370E-1    3.324087245597810E-1   -4.512939544739927E-4   -3.906469687444186E-4   -3.758604760709387E-4   -3.909846550633116E-4   -1.686343377858497E-1    4.511087382748635E-1
 1.010349132470000E+10  -3.591663376629438E-1    3.329132985208166E-1   -4.303260897830942E-4   -3.960897374647052E-4   -3.700464465858411E-4   -3.969140395491212E-4   -1.677786348911006E-1    4.515673811623319E-1
 1.010350368260000E+10  -3.584505899187776E-1    3.334423276901068E-1   -4.245761784438312E-4   -3.775683593589414E-4   -3.723726401495230E-4   -3.699754058768069E-4   -1.671090873914390E-1    4.517104893669645E-1
 1.010351604050000E+10  -3.582141758822507E-1    3.341402666397809E-1   -4.131526573697966E-4   -3.763842922128147E-4   -3.431136609664842E-4   -4.105080901727098E-4   -1.661360982692275E-1    4.520699250033153E-1
 1.010352839840000E+10  -3.576690857055886E-1    3.346508917208274E-1   -4.150163420503508E-4   -3.784145465381143E-4   -3.593100628440423E-4   -3.658340800140285E-4   -1.654872868225109E-1    4.524088034246906E-1
 1.010354075630000E+10  -3.571006108955756E-1    3.350984623704006E-1   -4.382406870523353E-4   -3.485120198059016E-4   -3.975374553947064E-4   -3.797111228634954E-4   -1.646871901598416E-1    4.526348134919483E-1
 1.010355311420000E+10  -3.566829107436881E-1    3.358160872132895E-1   -4.145807751248072E-4   -3.763617843038924E-4   -3.660952982763946E-4   -3.711929289786848E-4   -1.638337358718542E-1    4.530666829638056E-1
 1.010356547210000E+10  -3.560625865694949E-1    3.363416469957597E-1   -3.953352594270638E-4   -3.607547957948270E-4   -3.480640203542058E-4   -3.709605691416505E-4   -1.630242171555176E-1    4.533880728077527E-1
 1.010357783000000E+10  -3.555850922724569E-1    3.369686627342669E-1   -3.841786176846498E-4   -3.510718786475279E-4   -3.412984870639270E-4   -3.548902773217922E-4   -1.621756045090352E-1    4.536929794548517E-1
