#  HZ   S   RI   R     50.00 
! Rohde & Schwarz Vector Network Analyzer 
! Rohde-Schwarz,ZNB20-2Port,1311601062101988,3.16
! Created: UTC 3/20/2024, 5:09:35 PM
! freq[Hz]                re:S11                  im:S11                  re:S21                  im:S21                  re:S12                  im:S12                  re:S22                  im:S22
 1.010253720300000E+10  -3.937900372665927E-1    2.857511199760250E-1   -5.932103091491194E-4   -5.374248663018601E-4   -5.665741322100220E-4   -6.061526395056084E-4   -2.263933843642950E-1    4.218729904753983E-1
 1.010254955712500E+10  -3.934425081045575E-1    2.862427697425977E-1   -6.442208227797736E-4   -5.643683456314095E-4   -5.688261771117235E-4   -5.933904299440163E-4   -2.258033612262333E-1    4.223136902226612E-1
 1.010256191125000E+10  -3.929634254450743E-1    2.868629334271798E-1   -6.361075112304043E-4   -5.657677533876370E-4   -5.740990329691100E-4   -5.685818275911069E-4   -2.251033774435114E-1    4.226251657854331E-1
 1.010257426537500E+10  -3.926515624548050E-1    2.875308865649641E-1   -6.245296139889971E-4   -5.469909820769402E-4   -5.724174122553035E-4   -5.898340481704143E-4   -2.243772185036547E-1    4.232276869414858E-1
 1.010258661950000E+10  -3.922302143775774E-1    2.880684576258105E-1   -6.236535060661409E-4   -5.802898509796228E-4   -5.420193571871028E-4   -5.707087460681418E-4   -2.237292863544442E-1    4.235516200251128E-1
 1.010259897362500E+10  -3.917927285352740E-1    2.888601730151265E-1   -6.329375742942267E-4   -5.466251259902786E-4   -5.524270075761951E-4   -6.138221982167842E-4   -2.229707902289080E-1    4.238882694542799E-1
 1.010261132775000E+10  -3.913831805075665E-1    2.894610450577173E-1   -6.059549180684124E-4   -5.729044217612922E-4   -5.630382377805471E-4   -5.872531253529231E-4   -2.221941880436195E-1    4.242596567142886E-1
 1.010262368187500E+10  -3.909941135499228E-1    2.900780948723435E-1   -6.070040439272205E-4   -5.754137885514617E-4   -5.562355336182711E-4   -5.839609569893706E-4   -2.215297219540469E-1    4.246619245464659E-1
 1.010263603600000E+10  -3.906244813720597E-1    2.907635335742116E-1   -6.442297461621475E-4   -5.634091509975606E-4   -5.664026213186845E-4   -6.039266961236793E-4   -2.208678927368952E-1    4.251731626347099E-1
 1.010264839012500E+10  -3.900255813471468E-1    2.913549057951796E-1   -6.161407217060723E-4   -5.421242246994928E-4   -5.673555848203718E-4   -5.667457018372388E-4   -2.202193442999915E-1    4.255963024451163E-1
 1.010266074425000E+10  -3.897764209326435E-1    2.919239841591783E-1   -6.262099758309366E-4   -5.478171299956901E-4   -5.533173904824858E-4   -5.575949869428558E-4   -2.194449738360618E-1    4.259371269975558E-1
 1.010267309837500E+10  -3.892447999360943E-1    2.924838415395094E-1   -6.231304945231871E-4   -5.290215789741821E-4   -5.705450862613786E-4   -5.701803191249403E-4   -2.187617227905151E-1    4.263869096977727E-1
 1.010268545250000E+10  -3.887642941276603E-1    2.932374996195835E-1   -6.161173649480516E-4   -5.501512651931239E-4   -5.294219838569989E-4   -5.804891765287407E-4   -2.179748890831296E-1    4.265948764479306E-1
 1.010269780662500E+10  -3.884427030752187E-1    2.936509284827457E-1   -6.124765931355248E-4   -5.620722981185458E-4   -5.455456868560620E-4   -5.725530093319953E-4   -2.173077309530402E-1    4.271287329470076E-1
 1.010271016075000E+10  -3.880230348637905E-1    2.944809274315025E-1   -6.270624896470954E-4   -5.178132354615380E-4   -5.278995073073286E-4   -5.559684365680480E-4   -2.166468848402324E-1    4.274922737977291E-1
 1.010272251487500E+10  -3.875417914941699E-1    2.950334169393095E-1   -5.979970893118570E-4   -5.144989189154872E-4   -5.463049036093634E-4   -5.505945389608581E-4   -2.158585527615128E-1    4.279281483331037E-1
 1.010273486900000E+10  -3.872455626493814E-1    2.955712592604158E-1   -6.039266545152081E-4   -5.031379543862861E-4   -5.579961478721106E-4   -5.605947171282341E-4   -2.151257473279499E-1    4.283200198537840E-1
 1.010274722312500E+10  -3.867572150995553E-1    2.962774724277520E-1   -6.063956002723361E-4   -5.033440351238287E-4   -5.614527053385704E-4   -5.556268268955876E-4   -2.145834221749547E-1    4.287198539679679E-1
 1.010275957725000E+10  -3.862564316949728E-1    2.969643679665486E-1   -5.914812977914927E-4   -5.495489047904879E-4   -5.643179489145285E-4   -5.490004601868198E-4   -2.138396020007292E-1    4.292129152841166E-1
 1.010277193137500E+10  -3.858611068339561E-1    2.975236781683635E-1   -6.209884955290012E-4   -5.294075394662528E-4   -5.580686248862726E-4   -5.428824766137625E-4   -2.130998495101380E-1    4.295358188149594E-1
 1.010278428550000E+10  -3.854171576033084E-1    2.981340865041881E-1   -6.264783274614085E-4   -5.325414036970035E-4   -5.278328648196792E-4   -5.545848397668416E-4   -2.123612108902061E-1    4.298909065387883E-1
 1.010279663962500E+10  -3.849853187041604E-1    2.987566540493146E-1   -6.153913681077776E-4   -5.255097279126971E-4   -5.160091291963335E-4   -5.375110548796487E-4   -2.116096157996287E-1    4.303056075375328E-1
 1.010280899375000E+10  -3.845707809128659E-1    2.992796333796342E-1   -6.067758551463243E-4   -5.142383338378982E-4   -5.245537393213884E-4   -5.494607587234975E-4   -2.109136421454992E-1    4.306821042962318E-1
 1.010282134787500E+10  -3.841803794560708E-1    3.000102405007996E-1   -6.164423354193492E-4   -5.311115193981518E-4   -5.501368954140332E-4   -5.458211285726787E-4   -2.101757208658373E-1    4.310478485786294E-1
 1.010283370200000E+10  -3.837125256282002E-1    3.006020100359642E-1   -6.046834550201034E-4   -5.060221391487428E-4   -5.534024611325087E-4   -5.699534156573757E-4   -2.096200416607213E-1    4.314583200078192E-1
 1.010284605612500E+10  -3.831788456624391E-1    3.012520831804378E-1   -5.985514064845198E-4   -5.031067402780301E-4   -5.348065689192091E-4   -5.228883405699110E-4   -2.089404581282148E-1    4.319566842686752E-1
 1.010285841025000E+10  -3.827398091358554E-1    3.017573253632007E-1   -5.992563097610569E-4   -5.060425470402977E-4   -5.213186219992039E-4   -5.458167970952763E-4   -2.081344853700061E-1    4.321245841077326E-1
 1.010287076437500E+10  -3.822816396814708E-1    3.024123777578369E-1   -5.938921778966789E-4   -5.299933852672606E-4   -5.586766092198252E-4   -5.493844904776572E-4   -2.073259430981614E-1    4.325356360614327E-1
 1.010288311850000E+10  -3.818920625219939E-1    3.030422785575732E-1   -6.015735568073336E-4   -5.302266644943194E-4   -5.377502692587138E-4   -5.218046226313747E-4   -2.067025715348369E-1    4.329584247875505E-1
 1.010289547262500E+10  -3.814973927177455E-1    3.037139412908418E-1   -5.944702944096298E-4   -4.955002620009466E-4   -5.559359131726221E-4   -5.319697616074833E-4   -2.057901536792459E-1    4.333844805109315E-1
 1.010290782675000E+10  -3.811194102038234E-1    3.042539616926763E-1   -6.209097884997426E-4   -5.109099784396814E-4   -5.428569289146606E-4   -5.125822411536037E-4   -2.051675552419958E-1    4.337472538865245E-1
 1.010292018087500E+10  -3.805731434672696E-1    3.048515804181842E-1   -6.004678465886387E-4   -5.149610451441640E-4   -5.126436821541454E-4   -5.270867362918962E-4   -2.044852713292584E-1    4.342384210545904E-1
 1.010293253500000E+10  -3.802469325960884E-1    3.056009782279117E-1   -5.939506470367191E-4   -4.978983329965461E-4   -5.234739060294711E-4   -5.323395710255994E-4   -2.037849971210699E-1    4.346434171339447E-1
 1.010294488912500E+10  -3.798499805787847E-1    3.060736623082729E-1   -5.703653788329726E-4   -4.865111151492378E-4   -5.250071025999162E-4   -5.235735162609344E-4   -2.029739344786447E-1    4.349603561280621E-1
 1.010295724325000E+10  -3.793236131206443E-1    3.068027672979463E-1   -5.948142263820987E-4   -4.924502219845008E-4   -5.301016718404203E-4   -5.124242911258138E-4   -2.023268644552460E-1    4.351688937225270E-1
 1.010296959737500E+10  -3.788252599395561E-1    3.073634843828729E-1   -5.991006222531850E-4   -4.797636193135297E-4   -5.140063162332896E-4   -5.172412583781044E-4   -2.015572746336233E-1    4.357060279061028E-1
 1.010298195150000E+10  -3.784112522133648E-1    3.078913212058382E-1   -5.743665202503996E-4   -4.976988241845900E-4   -5.163979184607493E-4   -5.109528266102736E-4   -2.007561022607097E-1    4.360382590133614E-1
 1.010299430562500E+10  -3.779784543384149E-1    3.085648853144711E-1   -5.572236042097462E-4   -5.198722210340903E-4   -5.112303520887413E-4   -5.291172440440086E-4   -1.999787792469607E-1    4.363484263317510E-1
 1.010300665975000E+10  -3.774199088713499E-1    3.092281029724396E-1   -5.973740304516465E-4   -4.749404600332878E-4   -5.187713483552343E-4   -5.154999334297155E-4   -1.994205020819660E-1    4.366846216649428E-1
 1.010301901387500E+10  -3.772195611359613E-1    3.098400760189327E-1   -5.860073737530071E-4   -4.833092788684725E-4   -5.062595229965587E-4   -4.872442025505390E-4   -1.985066289676662E-1    4.371119133169248E-1
 1.010303136800000E+10  -3.766923010473853E-1    3.104922087694843E-1   -5.451635138315195E-4   -4.989853683999131E-4   -4.962063316427900E-4   -5.130119300689048E-4   -1.978560070556099E-1    4.374703101733208E-1
 1.010304372212500E+10  -3.763187185014500E-1    3.109758437785925E-1   -5.513198661569685E-4   -4.843428603583307E-4   -5.029960552370092E-4   -5.144657914909739E-4   -1.971453722962279E-1    4.378798240302011E-1
 1.010305607625000E+10  -3.756737678777591E-1    3.115825209839332E-1   -5.668044174177437E-4   -4.811525558364774E-4   -5.137948391509467E-4   -5.114524987156972E-4   -1.962447566701161E-1    4.381803881619419E-1
 1.010306843037500E+10  -3.754224446449739E-1    3.120580349436973E-1   -5.426184030813073E-4   -4.561634236399692E-4   -5.134383884825662E-4   -5.118110381687252E-4   -1.956582853854767E-1    4.385606800662868E-1
 1.010308078450000E+10  -3.749968901020228E-1    3.127593569401041E-1   -5.631544867716539E-4   -4.953232360377294E-4   -5.093143092231645E-4   -5.023251458076427E-4   -1.949193445189581E-1    4.388331368390676E-1
 1.010309313862500E+10  -3.744806761809912E-1    3.133309952371434E-1   -5.838443756468966E-4   -4.567959900958299E-4   -5.081155423140808E-4   -5.116223007587552E-4   -1.942877720887083E-1    4.392741273202004E-1
 1.010310549275000E+10  -3.739751459995152E-1    3.139786877676184E-1   -5.614670840743417E-4   -4.529179913953643E-4   -5.170066329214397E-4   -4.998583515656462E-4   -1.933177297372638E-1    4.396546804006499E-1
 1.010311784687500E+10  -3.734928487047295E-1    3.144848199548859E-1   -5.731324885923398E-4   -4.465256552778374E-4   -4.555529543853515E-4   -4.766990424383042E-4   -1.927185303871776E-1    4.401212371071908E-1
 1.010313020100000E+10  -3.729873631152484E-1    3.150637898766945E-1   -5.638811422642003E-4   -4.671726509062841E-4   -5.035870669034690E-4   -4.804048598572666E-4   -1.917700918813030E-1    4.404706929792487E-1
 1.010314255512500E+10  -3.726067349668554E-1    3.157320071608281E-1   -5.347975810849904E-4   -4.551925022780534E-4   -4.833046136054745E-4   -4.986170114262019E-4   -1.910300991152309E-1    4.407886723881021E-1
 1.010315490925000E+10  -3.721706162233959E-1    3.162829878623430E-1   -5.595936235847020E-4   -4.432752742881282E-4   -4.834601842958467E-4   -4.789738003712828E-4   -1.904189855408557E-1    4.410421243292094E-1
 1.010316726337500E+10  -3.715650248867643E-1    3.168915103826461E-1   -5.600905719016692E-4   -4.450762175162406E-4   -4.717279331368407E-4   -5.004883621811833E-4   -1.896282608647909E-1    4.415254685404355E-1
 1.010317961750000E+10  -3.711672844087787E-1    3.175652071898938E-1   -5.605587699474423E-4   -4.688660553322534E-4   -4.966766245901067E-4   -4.787375652432500E-4   -1.889071419460459E-1    4.417756129551048E-1
 1.010319197162500E+10  -3.708600263732205E-1    3.180830811281700E-1   -5.383360105841144E-4   -4.665885668008898E-4   -4.877544302159853E-4   -4.919862762101384E-4   -1.880968126766581E-1    4.421679766482101E-1
 1.010320432575000E+10  -3.702350236796318E-1    3.186694501338991E-1   -5.580964849839741E-4   -4.751524122827205E-4   -4.910061855441969E-4   -4.552532693957937E-4   -1.875465813480668E-1    4.426337230895476E-1
 1.010321667987500E+10  -3.697872465956027E-1    3.193700256841427E-1   -5.187831057004070E-4   -4.520504154920039E-4   -4.839547235379979E-4   -4.783104317021374E-4   -1.865859931941333E-1    4.429416215506448E-1
 1.010322903400000E+10  -3.692584318183061E-1    3.199791461235429E-1   -5.514855854172194E-4   -4.313877944040909E-4   -4.688343331699177E-4   -4.552187676155154E-4   -1.858103037399154E-1    4.432194446148696E-1
 1.010324138812500E+10  -3.689402636009563E-1    3.205233681121743E-1   -5.266393525231416E-4   -4.376295757978377E-4   -4.731843565164051E-4   -4.740140435338287E-4   -1.853176078528243E-1    4.435346863489912E-1
 1.010325374225000E+10  -3.683541007894620E-1    3.211216116452464E-1   -5.212605071189931E-4   -4.219464736616750E-4   -4.691315953948464E-4   -4.460238635250388E-4   -1.844319154827276E-1    4.438131264748033E-1
 1.010326609637500E+10  -3.679349360824301E-1    3.217332675722539E-1   -5.388992202820582E-4   -4.455610348746983E-4   -4.592180241058867E-4   -4.626598080840746E-4   -1.837525282546804E-1    4.443475637149005E-1
 1.010327845050000E+10  -3.674816087573287E-1    3.222101082937781E-1   -5.418176537603006E-4   -4.355041645744091E-4   -4.765538275337731E-4   -4.680826178493536E-4   -1.830001274839309E-1    4.446719253983032E-1
 1.010329080462500E+10  -3.670421180169312E-1    3.227811145641252E-1   -5.290183649839285E-4   -4.067233118916801E-4   -4.640721686471717E-4   -4.174069415104476E-4   -1.821183924728295E-1    4.449401033426961E-1
 1.010330315875000E+10  -3.665553000292799E-1    3.233233587665261E-1   -4.988280455135702E-4   -4.324940926678923E-4   -4.634248791420917E-4   -4.629925743443610E-4   -1.812356093854449E-1    4.452342455823755E-1
 1.010331551287500E+10  -3.660192421023558E-1    3.239876322721318E-1   -4.901121001707407E-4   -4.183397022643340E-4   -4.667855771946860E-4   -4.530950640522196E-4   -1.805647881369124E-1    4.456338939150425E-1
 1.010332786700000E+10  -3.655937540384349E-1    3.245436879112950E-1   -5.090906597647574E-4   -4.595722680439000E-4   -4.328500794776488E-4   -4.361677045558227E-4   -1.798758839586427E-1    4.459736868833782E-1
 1.010334022112500E+10  -3.651033103249101E-1    3.251783609874554E-1   -5.024301067095740E-4   -4.070884241096868E-4   -4.323223177137580E-4   -4.444790336001774E-4   -1.791257062482443E-1    4.463490493089423E-1
 1.010335257525000E+10  -3.646873499202584E-1    3.259009809346012E-1   -4.805612364148834E-4   -4.167439230383942E-4   -4.346045384010229E-4   -4.542662138821183E-4   -1.783479824026893E-1    4.465503162435927E-1
 1.010336492937500E+10  -3.643240233926290E-1    3.263509307601528E-1   -5.279693859615724E-4   -4.234467416111613E-4   -4.378852429889324E-4   -4.243398715615667E-4   -1.774793539741230E-1    4.467944306272768E-1
 1.010337728350000E+10  -3.636842690581781E-1    3.269322998773009E-1   -4.987851925481692E-4   -4.107928652156646E-4   -4.571740054374122E-4   -4.485326938928013E-4   -1.767178330575677E-1    4.472376681664487E-1
 1.010338963762500E+10  -3.632079261779644E-1    3.274849683513753E-1   -5.030498107903808E-4   -4.163138403202796E-4   -4.286969625745565E-4   -4.368307846657393E-4   -1.759827969284803E-1    4.476664899135879E-1
 1.010340199175000E+10  -3.626806720015217E-1    3.281732393010618E-1   -5.094259417820729E-4   -4.005839727204907E-4   -4.513588008081813E-4   -4.134283052302725E-4   -1.754120169101112E-1    4.478996305678146E-1
 1.010341434587500E+10  -3.622222086062746E-1    3.286728519344156E-1   -5.051020830659388E-4   -3.831077777490210E-4   -4.350812185732934E-4   -4.370431319633368E-4   -1.744514020047451E-1    4.481262180324533E-1
 1.010342670000000E+10  -3.617996793300013E-1    3.292490049497286E-1   -4.932366402824165E-4   -4.183327162090063E-4   -4.409691209499442E-4   -4.086389029466920E-4   -1.738030377021654E-1    4.484895717171286E-1
 1.010343905412500E+10  -3.613569111650461E-1    3.298896999627663E-1   -4.749720983131992E-4   -4.047388581646955E-4   -4.335110391162153E-4   -4.184787594682828E-4   -1.729516142144832E-1    4.488427234647404E-1
 1.010345140825000E+10  -3.608127773783846E-1    3.304096097870304E-1   -4.712520754956772E-4   -3.675333982365063E-4   -4.350222962167983E-4   -4.069315302413066E-4   -1.721400832807840E-1    4.491573847224221E-1
 1.010346376237500E+10  -3.603565650687142E-1    3.310190166489328E-1   -4.701052635640309E-4   -3.985509783793908E-4   -4.189254935088954E-4   -4.129473308882211E-4   -1.713696260496481E-1    4.495888127144883E-1
 1.010347611650000E+10  -3.600199844073436E-1    3.315458340809575E-1   -4.582331159892795E-4   -3.770676929842013E-4   -4.180604783217558E-4   -4.218417599663850E-4   -1.705732242415429E-1    4.498948099499972E-1
 1.010348847062500E+10  -3.594752679984370E-1    3.320736968359219E-1   -4.752148841431822E-4   -3.991074435060962E-4   -3.835460826094000E-4   -4.049312204536114E-4   -1.698160524163898E-1    4.502354763453527E-1
 1.010350082475000E+10  -3.589526376758235E-1    3.326352749316724E-1   -4.723449346427354E-4   -3.886535066752221E-4   -4.051086093435901E-4   -4.066947996800325E-4   -1.690297529273933E-1    4.504612922230924E-1
 1.010351317887500E+10  -3.584307723335383E-1    3.331580126303932E-1   -4.668382700330784E-4   -4.286163104216844E-4   -4.141262617491347E-4   -4.204243489931207E-4   -1.681609899982269E-1    4.507003201718409E-1
 1.010352553300000E+10  -3.581282539853559E-1    3.339150523975404E-1   -4.748998657760656E-4   -3.691754175326450E-4   -3.972056392235143E-4   -4.205730735610681E-4   -1.674273003733177E-1    4.509939676454212E-1
 1.010353788712500E+10  -3.574633009752187E-1    3.343978315169299E-1   -4.680667013110991E-4   -3.639499371093695E-4   -3.880988777274432E-4   -3.747782300784591E-4   -1.666462212133391E-1    4.515975671667054E-1
 1.010355024125000E+10  -3.569750005464546E-1    3.350579652127973E-1   -4.346412299775176E-4   -3.812450501687332E-4   -3.795145935275889E-4   -3.995000818937524E-4   -1.658285455545409E-1    4.517570093223131E-1
 1.010356259537500E+10  -3.565373073932736E-1    3.356247397348389E-1   -4.621528234958153E-4   -3.989671553593740E-4   -3.997661408986650E-4   -3.761824670829015E-4   -1.650960114729370E-1    4.521704755366540E-1
 1.010357494950000E+10  -3.560167986051664E-1    3.361665333960351E-1   -4.151041510390923E-4   -3.797788577836760E-4   -3.939081189449229E-4   -4.049771749814756E-4   -1.643108556948459E-1    4.524315904763622E-1
 1.010358730362500E+10  -3.554932902158797E-1    3.368058008274797E-1   -4.151585470926828E-4   -3.607024029641820E-4   -3.606030930587936E-4   -3.790051782068642E-4   -1.635331135483893E-1    4.527912365208955E-1
 1.010359965775000E+10  -3.550646524709982E-1    3.373654583809196E-1   -4.173246009256736E-4   -3.645165047018567E-4   -3.760423415989178E-4   -3.747359597401187E-4   -1.625988716561182E-1    4.529749898730265E-1
 1.010361201187500E+10  -3.544802071584471E-1    3.377865221409709E-1   -4.360426138299357E-4   -3.684838338009020E-4   -3.648256750107868E-4   -3.874294943587374E-4   -1.618692756975593E-1    4.532166008071494E-1
 1.010362436600000E+10  -3.539697670535673E-1    3.385454083670039E-1   -3.836397934302101E-4   -3.469431046136437E-4   -3.481436269188973E-4   -3.778715931875428E-4   -1.609818853397713E-1    4.536935317477523E-1
 1.010363672012500E+10  -3.534602744897655E-1    3.390267100453798E-1   -3.955038692228242E-4   -3.557375891760018E-4   -3.520015900437321E-4   -3.667467581386325E-4   -1.602099476383465E-1    4.538897687210224E-1
 1.010364907425000E+10  -3.529659280922624E-1    3.396322332056645E-1   -4.134947962196642E-4   -3.721176071093518E-4   -3.486368416098057E-4   -3.611108826370202E-4   -1.595110938678142E-1    4.541711400041846E-1
