#  HZ   S   RI   R     50.00 
! Rohde & Schwarz Vector Network Analyzer 
! Rohde-Schwarz,ZNB20-2Port,1311601062101988,3.16
! Created: UTC 3/20/2024, 5:09:40 PM
! freq[Hz]                re:S11                  im:S11                  re:S21                  im:S21                  re:S12                  im:S12                  re:S22                  im:S22
 1.010249163300000E+10  -3.953242107411059E-1    2.833262822907600E-1   -6.328880473555604E-4   -5.782088809282783E-4   -5.504449560961482E-4   -5.958975717212604E-4   -2.290439174231443E-1    4.204137170585348E-1
 1.010250425230000E+10  -3.949379968860084E-1    2.837918499265448E-1   -6.215684044910033E-4   -5.800026319370426E-4   -5.537599747987693E-4   -5.670824175194668E-4   -2.283021609346339E-1    4.209270187735734E-1
 1.010251687160000E+10  -3.945738919135269E-1    2.846244203996900E-1   -6.434599866389156E-4   -5.499557104855007E-4   -5.493934128287541E-4   -6.184009207318554E-4   -2.276473456425039E-1    4.211609950620334E-1
 1.010252949090000E+10  -3.942156768371144E-1    2.853685481026312E-1   -6.461161239526496E-4   -5.826886115563825E-4   -5.809062439689170E-4   -6.147549073798448E-4   -2.269598229684529E-1    4.215457236611143E-1
 1.010254211020000E+10  -3.937136115067147E-1    2.858218945339191E-1   -6.437957076375753E-4   -5.665715233485609E-4   -5.727279082256612E-4   -6.213995869319668E-4   -2.261229482336250E-1    4.219728660198711E-1
 1.010255472950000E+10  -3.932669844782264E-1    2.865471671308712E-1   -6.263508795170415E-4   -5.629606174126185E-4   -5.816446095950404E-4   -5.992994226704728E-4   -2.255169857310204E-1    4.223182395591359E-1
 1.010256734880000E+10  -3.928151595427346E-1    2.872262154225999E-1   -6.240351135756506E-4   -5.487838660017851E-4   -5.573781060095593E-4   -5.671969444302575E-4   -2.247925957274635E-1    4.229240285133274E-1
 1.010257996810000E+10  -3.924081549993086E-1    2.878731420512856E-1   -6.058712662712990E-4   -5.564562188065613E-4   -5.675251901559862E-4   -5.620804282212062E-4   -2.240714690604559E-1    4.232417605391384E-1
 1.010259258740000E+10  -3.920608523312793E-1    2.884192510232351E-1   -6.319088034047372E-4   -5.458819098471065E-4   -5.417396591589458E-4   -5.847253544821902E-4   -2.234287328906727E-1    4.237538708100251E-1
 1.010260520670000E+10  -3.916417136553880E-1    2.891489343096190E-1   -6.074595782837183E-4   -5.618020611830771E-4   -5.446501923974322E-4   -5.863349534267631E-4   -2.227028691546324E-1    4.241806533917335E-1
 1.010261782600000E+10  -3.911485763803235E-1    2.897493393086155E-1   -6.383290764081380E-4   -5.630129297097522E-4   -5.412328056928973E-4   -5.831722241360630E-4   -2.219640923337181E-1    4.245868536192007E-1
 1.010263044530000E+10  -3.907828270382595E-1    2.904073453204455E-1   -6.231222020501864E-4   -5.377590471989885E-4   -5.529756057515374E-4   -5.682996062805214E-4   -2.212483472085337E-1    4.249347634631095E-1
 1.010264306460000E+10  -3.903510620946857E-1    2.908951722908258E-1   -5.969040175321449E-4   -5.693950790024124E-4   -5.495933051490317E-4   -5.746833182702589E-4   -2.203499180374688E-1    4.253708344906773E-1
 1.010265568390000E+10  -3.898191482396580E-1    2.917755522961480E-1   -6.415329992596041E-4   -5.393450596965884E-4   -5.649831891746461E-4   -5.855749005713169E-4   -2.198458925258713E-1    4.257541083567880E-1
 1.010266830320000E+10  -3.894263060695874E-1    2.924153296660710E-1   -6.173788908654341E-4   -5.463113174520687E-4   -5.623259685620017E-4   -5.799415558085703E-4   -2.191071633372821E-1    4.262423742865500E-1
 1.010268092250000E+10  -3.890792132207569E-1    2.928087761535202E-1   -6.334126985170172E-4   -5.409815524435875E-4   -5.504953269781297E-4   -5.652530080361046E-4   -2.183208907487236E-1    4.265919990380785E-1
 1.010269354180000E+10  -3.885647709999130E-1    2.936496047793369E-1   -6.321927590318930E-4   -5.510286387288483E-4   -5.699533816374094E-4   -5.742406137100707E-4   -2.175140177705373E-1    4.269939423261591E-1
 1.010270616110000E+10  -3.880883986602573E-1    2.942093015290945E-1   -6.418549802048382E-4   -5.335618078131636E-4   -5.559671741969864E-4   -6.007514579206342E-4   -2.168525548649837E-1    4.274607824891422E-1
 1.010271878040000E+10  -3.876357788569383E-1    2.947755743512945E-1   -6.109364271251269E-4   -4.982351187147224E-4   -5.282906863890218E-4   -5.592456657205097E-4   -2.161171150401477E-1    4.277606361065514E-1
 1.010273139970000E+10  -3.873281646382699E-1    2.954422145873026E-1   -6.325757689654966E-4   -5.218753901416806E-4   -5.402656938469597E-4   -5.611513818580891E-4   -2.153780564661181E-1    4.282335556140266E-1
 1.010274401900000E+10  -3.869604715499919E-1    2.961454832578721E-1   -6.249884100954824E-4   -5.410005135892987E-4   -5.430957806985850E-4   -5.486161747897525E-4   -2.148033865282696E-1    4.285432626827670E-1
 1.010275663830000E+10  -3.864512808995971E-1    2.967973674746637E-1   -6.147405933782216E-4   -5.335729479395199E-4   -5.495599419023699E-4   -5.412191606464611E-4   -2.139225725212658E-1    4.290292281992066E-1
 1.010276925760000E+10  -3.860285432648869E-1    2.975170280354902E-1   -6.248578679393207E-4   -5.297954835042071E-4   -5.299264934361319E-4   -5.480686493437543E-4   -2.133344401381068E-1    4.293394248950534E-1
 1.010278187690000E+10  -3.855742431978400E-1    2.978954465845066E-1   -6.034521657996964E-4   -5.125384421250548E-4   -5.692802951227387E-4   -5.338560442884615E-4   -2.124050765806666E-1    4.297022720004631E-1
 1.010279449620000E+10  -3.850417492750283E-1    2.987414515566201E-1   -6.071004552598785E-4   -5.343524312474436E-4   -5.472334068868605E-4   -5.643752409360016E-4   -2.117075953681016E-1    4.300914301576002E-1
 1.010280711550000E+10  -3.846125196566337E-1    2.993942098949105E-1   -5.973487720601229E-4   -5.105059931643992E-4   -5.316943361821807E-4   -5.337590886010499E-4   -2.110207162442678E-1    4.306525684527255E-1
 1.010281973480000E+10  -3.841698915378706E-1    2.999226018090601E-1   -5.922530570352538E-4   -5.082146851440972E-4   -5.438643759221236E-4   -5.588090161061702E-4   -2.104352188489556E-1    4.309491498371094E-1
 1.010283235410000E+10  -3.838802916699631E-1    3.004148598080326E-1   -5.820109176089698E-4   -5.296685432171376E-4   -5.633734035479178E-4   -5.427676333704714E-4   -2.094967352118564E-1    4.313603681748679E-1
 1.010284497340000E+10  -3.832527387413914E-1    3.012024942917599E-1   -5.933277211548079E-4   -5.004323364736951E-4   -5.352538120071542E-4   -5.406648289889501E-4   -2.088539727964625E-1    4.318867289863101E-1
 1.010285759270000E+10  -3.828831865281920E-1    3.017564218095548E-1   -6.128362167772500E-4   -4.707139760994192E-4   -5.472108271676978E-4   -5.325105271694420E-4   -2.081820250005640E-1    4.322230457237039E-1
 1.010287021200000E+10  -3.823989364167560E-1    3.022736525297793E-1   -5.764878327685940E-4   -4.975820719865254E-4   -5.345963253930248E-4   -5.355516376310983E-4   -2.072740184377252E-1    4.326531550072628E-1
 1.010288283130000E+10  -3.819859961687408E-1    3.030321221392951E-1   -5.775936455036608E-4   -5.014293784915498E-4   -5.509620892063884E-4   -5.525461051591339E-4   -2.067268453642363E-1    4.329441987414364E-1
 1.010289545060000E+10  -3.816097055155533E-1    3.036479163562220E-1   -5.948980178486139E-4   -5.178657669904100E-4   -5.504033786027645E-4   -5.336532290425363E-4   -2.058711312543232E-1    4.333451597749507E-1
 1.010290806990000E+10  -3.810992005413521E-1    3.043925282965604E-1   -5.846950462972784E-4   -5.037196067411555E-4   -5.325688967008044E-4   -5.252035970212251E-4   -2.051877973307003E-1    4.337747836285040E-1
 1.010292068920000E+10  -3.805670250953082E-1    3.049468494459768E-1   -5.823240966347377E-4   -4.810083970523499E-4   -5.208271554003252E-4   -5.194156951265542E-4   -2.044352247000293E-1    4.341239649884961E-1
 1.010293330850000E+10  -3.801676162556344E-1    3.054703667757024E-1   -5.715435840159909E-4   -4.956372132587667E-4   -5.264216244816511E-4   -5.476467368129454E-4   -2.037387526760139E-1    4.344176314252995E-1
 1.010294592780000E+10  -3.797784862176750E-1    3.061508789467436E-1   -5.588476219333452E-4   -5.148750601607130E-4   -5.268952680034164E-4   -5.353838515285932E-4   -2.029638690436026E-1    4.348479240356594E-1
 1.010295854710000E+10  -3.792031914069407E-1    3.067691820945436E-1   -5.900109156634631E-4   -4.787003220133349E-4   -5.232126061190162E-4   -5.300620205827215E-4   -2.021391415548820E-1    4.353277043171308E-1
 1.010297116640000E+10  -3.788257089437123E-1    3.072887226667024E-1   -5.984864549006155E-4   -4.996906482632469E-4   -5.211492291539996E-4   -5.128517251047002E-4   -2.014382017276041E-1    4.356495756206588E-1
 1.010298378570000E+10  -3.782809328498062E-1    3.079917160405785E-1   -5.739793424125321E-4   -4.999101372302590E-4   -5.166221311559584E-4   -5.243987819224791E-4   -2.008367183014571E-1    4.361361905833466E-1
 1.010299640500000E+10  -3.779771112368658E-1    3.086277884150713E-1   -5.807288617305697E-4   -4.550934200446567E-4   -4.950363040380164E-4   -5.123080465088848E-4   -1.999461628449300E-1    4.364144531837296E-1
 1.010300902430000E+10  -3.774865254148104E-1    3.092578486646007E-1   -5.596179267023773E-4   -4.768783602424180E-4   -5.251600160295305E-4   -5.249042379925121E-4   -1.992571482650311E-1    4.368698215295072E-1
 1.010302164360000E+10  -3.769815198396129E-1    3.099123022970708E-1   -5.810359748189620E-4   -4.903221573131121E-4   -5.199867721806339E-4   -5.240450096020900E-4   -1.984346051626181E-1    4.372899759283755E-1
 1.010303426290000E+10  -3.765366788877130E-1    3.105247262634202E-1   -5.813720440297912E-4   -4.980586708716695E-4   -5.271728056897910E-4   -5.279584380533414E-4   -1.975583031203508E-1    4.375451606704985E-1
 1.010304688220000E+10  -3.760904173554276E-1    3.110943691350767E-1   -5.940197466029774E-4   -4.779331206684854E-4   -5.216932378683083E-4   -5.108492976696426E-4   -1.968976061630928E-1    4.379781897864788E-1
 1.010305950150000E+10  -3.755913568910758E-1    3.118390870423763E-1   -5.722524730709697E-4   -4.885100918718206E-4   -5.245902050234162E-4   -5.156034132966223E-4   -1.961575937189849E-1    4.384373014366088E-1
 1.010307212080000E+10  -3.751395664787385E-1    3.122616878675612E-1   -5.525851944968215E-4   -4.890633194291852E-4   -4.985130931064450E-4   -4.937252364398940E-4   -1.954752167626581E-1    4.386669109884875E-1
 1.010308474010000E+10  -3.745974437751901E-1    3.129477222308212E-1   -5.466485340185188E-4   -4.961930397322531E-4   -5.170305074220168E-4   -4.820902729522089E-4   -1.946901024179711E-1    4.391922514565385E-1
 1.010309735940000E+10  -3.741432213758902E-1    3.135018033129893E-1   -5.606401668606414E-4   -4.757915373654562E-4   -5.168933838840186E-4   -5.216393252252891E-4   -1.939155201338984E-1    4.393927807104001E-1
 1.010310997870000E+10  -3.738966880540617E-1    3.141102420375826E-1   -5.762398250081029E-4   -4.366915484424112E-4   -5.109805172673665E-4   -4.863087806766646E-4   -1.932220519007467E-1    4.397576508792938E-1
 1.010312259800000E+10  -3.732668781747160E-1    3.148395573310794E-1   -5.506575231779698E-4   -4.591613708621506E-4   -4.920301607787506E-4   -4.785105025669347E-4   -1.924153570989427E-1    4.401435448269675E-1
 1.010313521730000E+10  -3.726490211252189E-1    3.152901301439525E-1   -5.779161482231058E-4   -4.435765178519849E-4   -4.951871655162987E-4   -4.789699924116173E-4   -1.916437542574294E-1    4.405618695585072E-1
 1.010314783660000E+10  -3.724134380628319E-1    3.160258231598359E-1   -5.691084705332391E-4   -4.539907775892863E-4   -5.079187300855910E-4   -4.952290940231609E-4   -1.908948027688157E-1    4.408716144248596E-1
 1.010316045590000E+10  -3.719965498327673E-1    3.165665733483709E-1   -5.522261836147899E-4   -4.864785793500592E-4   -5.118114211055195E-4   -4.780288310868232E-4   -1.901126160407484E-1    4.413135765102640E-1
 1.010317307520000E+10  -3.714844587621292E-1    3.171517813674644E-1   -5.420263484571660E-4   -4.448794577684830E-4   -5.269754948990924E-4   -4.777700993639648E-4   -1.893231850050593E-1    4.415571603869932E-1
 1.010318569450000E+10  -3.709186451745399E-1    3.178530648144703E-1   -5.377805131890157E-4   -4.554075238873129E-4   -5.009303330681579E-4   -4.830772370115137E-4   -1.885885922857872E-1    4.419973388136304E-1
 1.010319831380000E+10  -3.704463891862846E-1    3.184547936976859E-1   -5.567094959902584E-4   -4.490130364127487E-4   -4.871591279337227E-4   -4.866764997121349E-4   -1.877993180077428E-1    4.423433466846514E-1
 1.010321093310000E+10  -3.700256051702477E-1    3.189897161763749E-1   -5.266115628832464E-4   -4.340188460238436E-4   -4.861909884667995E-4   -4.697803305486581E-4   -1.871395501012893E-1    4.425539428340561E-1
 1.010322355240000E+10  -3.695342064363056E-1    3.195846121412059E-1   -5.339841306461454E-4   -4.454209307876332E-4   -4.983299619178286E-4   -4.732215294612853E-4   -1.862911594086251E-1    4.431310629451018E-1
 1.010323617170000E+10  -3.690582546037587E-1    3.202339526581380E-1   -5.338329806652514E-4   -4.454300291337097E-4   -4.708727091533735E-4   -4.832558158134087E-4   -1.855020772138768E-1    4.433589884027729E-1
 1.010324879100000E+10  -3.686438742908585E-1    3.208294490117683E-1   -5.297467451332474E-4   -4.401392785996462E-4   -4.743325019163414E-4   -4.706888051743004E-4   -1.848066953818200E-1    4.436244305601047E-1
 1.010326141030000E+10  -3.680874047079197E-1    3.212713677523480E-1   -5.301209249278690E-4   -4.287567370546941E-4   -4.844496719965582E-4   -4.461070446321141E-4   -1.840545617780184E-1    4.441890566549598E-1
 1.010327402960000E+10  -3.676091172111993E-1    3.220580113052187E-1   -5.569473137610317E-4   -4.265582952012519E-4   -4.384504669235519E-4   -4.511941738819924E-4   -1.831822003362288E-1    4.444917767426807E-1
 1.010328664890000E+10  -3.670946578668584E-1    3.225532706208138E-1   -5.436182482104003E-4   -4.343489655735458E-4   -4.236381480889974E-4   -4.572713871501683E-4   -1.824439208401420E-1    4.448508082315520E-1
 1.010329926820000E+10  -3.666828880511202E-1    3.233451781689664E-1   -5.052772405474730E-4   -4.320796667043951E-4   -4.981172720713314E-4   -4.406513452717535E-4   -1.816899417930545E-1    4.451800057502169E-1
 1.010331188750000E+10  -3.661806269536229E-1    3.238132706952800E-1   -5.261088356651751E-4   -4.104711037278257E-4   -4.597188958321378E-4   -4.333744030760214E-4   -1.809879129073234E-1    4.455621325760548E-1
 1.010332450680000E+10  -3.657868288320899E-1    3.244122581707099E-1   -5.161250463514067E-4   -4.179585666548352E-4   -4.809101761372039E-4   -4.515074788732263E-4   -1.801612917159680E-1    4.458465090959960E-1
 1.010333712610000E+10  -3.652394931895593E-1    3.250528570429707E-1   -5.051309885371909E-4   -4.281752341832600E-4   -4.605584239088464E-4   -4.567716131014957E-4   -1.793373942573768E-1    4.460793774887077E-1
 1.010334974540000E+10  -3.648270663699340E-1    3.256829347495435E-1   -5.320671785082345E-4   -4.206449282941922E-4   -4.487494147424756E-4   -4.264566263904928E-4   -1.785827291649521E-1    4.466121835596445E-1
 1.010336236470000E+10  -3.643522927777376E-1    3.260791435294499E-1   -5.091658904437629E-4   -3.983752955684042E-4   -4.345282571407267E-4   -4.442563160814613E-4   -1.777816619054561E-1    4.469437825431014E-1
 1.010337498400000E+10  -3.637757755862599E-1    3.267790032576285E-1   -4.931259818534817E-4   -4.210273384248387E-4   -4.595744371080556E-4   -4.343771037490431E-4   -1.769568551930706E-1    4.471970590352422E-1
 1.010338760330000E+10  -3.632340428048005E-1    3.274180630739240E-1   -4.936439336218721E-4   -4.092934461958846E-4   -4.318175850373994E-4   -4.409229856167276E-4   -1.762255344444246E-1    4.475434058662924E-1
 1.010340022260000E+10  -3.628317599154336E-1    3.279967711253747E-1   -4.699650543284108E-4   -3.991150786244687E-4   -4.558445097085921E-4   -4.616613636140616E-4   -1.753255553492300E-1    4.479150919787561E-1
 1.010341284190000E+10  -3.622868960547694E-1    3.286312837092878E-1   -4.949400293681917E-4   -4.129557634992685E-4   -4.416673873708532E-4   -4.282511555361996E-4   -1.745888866246794E-1    4.481674005128213E-1
 1.010342546120000E+10  -3.618494879801346E-1    3.291531734933334E-1   -4.851514990371461E-4   -4.051772850958671E-4   -4.409413832448611E-4   -4.313429206882315E-4   -1.737238714002966E-1    4.485098361712913E-1
 1.010343808050000E+10  -3.612542378804216E-1    3.296432857920645E-1   -4.879091167284686E-4   -3.873598594738355E-4   -4.298209174488759E-4   -4.399200938080717E-4   -1.728748372640788E-1    4.489085046373915E-1
 1.010345069980000E+10  -3.608089670402702E-1    3.304025064797003E-1   -4.780294538061905E-4   -4.065062349577438E-4   -4.343859553063027E-4   -4.055461237425923E-4   -1.722237132015149E-1    4.490957679504862E-1
 1.010346331910000E+10  -3.605956257850879E-1    3.309910314972223E-1   -4.464263839962042E-4   -3.954923320449879E-4   -4.248610611037799E-4   -4.180997611873086E-4   -1.714150873824472E-1    4.496326279814865E-1
 1.010347593840000E+10  -3.600008950726165E-1    3.315459879357429E-1   -4.706610619221099E-4   -3.836369717643281E-4   -4.098305030360173E-4   -4.138679395654789E-4   -1.706389703128899E-1    4.498731566956571E-1
 1.010348855770000E+10  -3.594468919426273E-1    3.321613514923583E-1   -4.868271896354475E-4   -3.776792293062945E-4   -4.176878147470109E-4   -4.448967977192093E-4   -1.698420727592247E-1    4.501675444700703E-1
 1.010350117700000E+10  -3.589548102262247E-1    3.327472414314060E-1   -4.803335304133437E-4   -4.122008494465621E-4   -4.206800640529343E-4   -4.260098972281303E-4   -1.689235252631579E-1    4.506233986735746E-1
 1.010351379630000E+10  -3.584425582424246E-1    3.332755330613874E-1   -4.499130312612676E-4   -3.823272292583205E-4   -3.976931220684454E-4   -3.963346214695598E-4   -1.682236483452019E-1    4.508175863308788E-1
 1.010352641560000E+10  -3.579627958037190E-1    3.338826762324863E-1   -4.756826027082249E-4   -4.115440042249381E-4   -3.787114509599727E-4   -3.890570829320260E-4   -1.674241205320435E-1    4.512559297983703E-1
 1.010353903490000E+10  -3.573063214924980E-1    3.345850034441449E-1   -4.392961432788488E-4   -3.924527553416031E-4   -4.138533534459068E-4   -4.132691374265036E-4   -1.665019760613856E-1    4.515036549243164E-1
 1.010355165420000E+10  -3.569247784707498E-1    3.351370241799055E-1   -4.340343376198929E-4   -3.531088673033088E-4   -3.706174662465675E-4   -3.899547278558407E-4   -1.657106788623523E-1    4.518570484739549E-1
 1.010356427350000E+10  -3.563520105289635E-1    3.356169746845660E-1   -4.271437556664457E-4   -3.748764017703213E-4   -3.819893882976083E-4   -4.066136582591930E-4   -1.650286688834747E-1    4.522571981802148E-1
 1.010357689280000E+10  -3.559273678787158E-1    3.361042848169646E-1   -4.310581679575948E-4   -3.619861903413962E-4   -3.699044801269832E-4   -3.938165094925442E-4   -1.641281957286584E-1    4.524329557316689E-1
 1.010358951210000E+10  -3.554098829936602E-1    3.368570875747401E-1   -4.224841713845645E-4   -3.556645651190419E-4   -3.634474558362684E-4   -3.734794906395194E-4   -1.632538104799984E-1    4.527727082165768E-1
 1.010360213140000E+10  -3.549683995930765E-1    3.374089278503626E-1   -4.197573633501700E-4   -3.733251335959890E-4   -3.841458957482723E-4   -3.695946496971491E-4   -1.625456735510587E-1    4.531466251786525E-1
 1.010361475070000E+10  -3.544053664971432E-1    3.379618411329094E-1   -3.908075097562260E-4   -4.037413199495745E-4   -3.811925203627589E-4   -3.439615657260418E-4   -1.616960180352516E-1    4.532549451596024E-1
 1.010362737000000E+10  -3.540449837327090E-1    3.384802350524180E-1   -4.000983649512792E-4   -3.682251042116639E-4   -3.682784845023014E-4   -3.493101345638012E-4   -1.608222459643409E-1    4.536997804499171E-1
