#  HZ   S   RI   R     50.00 
! Rohde & Schwarz Vector Network Analyzer 
! Rohde-Schwarz,ZNB20-2Port,1311601062101988,3.16
! Created: UTC 3/20/2024, 5:09:55 PM
! freq[Hz]                re:S11                  im:S11                  re:S21                  im:S21                  re:S12                  im:S12                  re:S22                  im:S22
 1.010260064500000E+10  -3.917125051654181E-1    2.889082636947560E-1   -6.348940328801802E-4   -5.866532330346974E-4   -5.774131003274102E-4   -5.916049825857747E-4   -2.229034851455793E-1    4.240290260397993E-1
 1.010261275752500E+10  -3.913537203034361E-1    2.893681765850060E-1   -6.191462799818273E-4   -5.617275539267912E-4   -5.665672362692377E-4   -5.618156281714863E-4   -2.222054572819471E-1    4.244087377014229E-1
 1.010262487005000E+10  -3.909219134524418E-1    2.900786388294604E-1   -6.327915893473671E-4   -5.582943320075097E-4   -5.658290580089351E-4   -5.667602054999267E-4   -2.216247967867906E-1    4.247890281636363E-1
 1.010263698257500E+10  -3.905211917595316E-1    2.907492737593148E-1   -6.307300241143633E-4   -5.449141541773152E-4   -5.510207244643751E-4   -5.576084234125511E-4   -2.208549699110289E-1    4.252125615805267E-1
 1.010264909510000E+10  -3.900817657765153E-1    2.913295982212555E-1   -6.131718044089315E-4   -5.509569519317248E-4   -5.461231818092182E-4   -5.918975671974582E-4   -2.200970039849698E-1    4.255538592761355E-1
 1.010266120762500E+10  -3.896106715074998E-1    2.919026219324550E-1   -6.133093844831028E-4   -5.458599877621132E-4   -5.662680978559506E-4   -5.782786083049414E-4   -2.193389409654312E-1    4.259573921545793E-1
 1.010267332015000E+10  -3.892232224634343E-1    2.925451070510702E-1   -6.480950270309301E-4   -5.328846766111562E-4   -5.328365004348759E-4   -5.637833138921150E-4   -2.188073577957273E-1    4.263441481944092E-1
 1.010268543267500E+10  -3.889350596632717E-1    2.931873493164754E-1   -6.284872730201559E-4   -5.375078288793166E-4   -5.602152812643734E-4   -5.616132503791894E-4   -2.180974230115962E-1    4.267922416207779E-1
 1.010269754520000E+10  -3.885570136166198E-1    2.937678569044574E-1   -6.446782964428152E-4   -5.409163486544620E-4   -5.545931769584899E-4   -5.782421186143275E-4   -2.174281226672497E-1    4.271255158672680E-1
 1.010270965772500E+10  -3.880371126972803E-1    2.942126082566363E-1   -6.155085124013059E-4   -5.361930526991965E-4   -5.453903081747660E-4   -5.666693074839859E-4   -2.165886662658403E-1    4.275644365191900E-1
 1.010272177025000E+10  -3.876958688506994E-1    2.949406360296153E-1   -5.887155967259961E-4   -5.447548122994346E-4   -6.018213356612210E-4   -5.513673006051063E-4   -2.160622157962082E-1    4.279005250605391E-1
 1.010273388277500E+10  -3.872496383182438E-1    2.956140496410442E-1   -6.119060051183358E-4   -5.293313914907088E-4   -5.285100874940080E-4   -5.342299890153926E-4   -2.151986299541496E-1    4.282947955804793E-1
 1.010274599530000E+10  -3.868718040300053E-1    2.962425282358068E-1   -6.134099158493624E-4   -5.345509136970260E-4   -5.530081744417577E-4   -5.319401874523845E-4   -2.146717194568528E-1    4.287554936899463E-1
 1.010275810782500E+10  -3.864225646190971E-1    2.967920531723932E-1   -6.084701647650560E-4   -5.321712855595391E-4   -5.515018148169323E-4   -5.351525437494274E-4   -2.138621772124749E-1    4.290882365625359E-1
 1.010277022035000E+10  -3.859236870763191E-1    2.973992496667636E-1   -6.116919626805878E-4   -5.300769573349912E-4   -5.552180531313611E-4   -5.408089566418867E-4   -2.132500589092755E-1    4.294743883766919E-1
 1.010278233287500E+10  -3.855578346392258E-1    2.978800916772322E-1   -6.261160173436442E-4   -5.382132097306484E-4   -5.575116100212980E-4   -5.565932625836797E-4   -2.125219545789487E-1    4.298493348738404E-1
 1.010279444540000E+10  -3.850947768185779E-1    2.986085128502543E-1   -6.203789810291400E-4   -5.003847883595275E-4   -5.496010178885413E-4   -5.503111239331040E-4   -2.119529463638010E-1    4.302300852446533E-1
 1.010280655792500E+10  -3.846478143167656E-1    2.992627375090429E-1   -6.030710083386123E-4   -5.269934237920126E-4   -5.414037576137216E-4   -5.460821883284480E-4   -2.111304829720826E-1    4.306986981326147E-1
 1.010281867045000E+10  -3.842778071469701E-1    2.997931393547888E-1   -5.939482427111965E-4   -5.488785689580626E-4   -5.486036921691427E-4   -5.620077462792196E-4   -2.105044906149256E-1    4.311272998744447E-1
 1.010283078297500E+10  -3.838812543968240E-1    3.004567603043036E-1   -6.101475222557827E-4   -5.071672366829456E-4   -5.501442434030188E-4   -5.402649624082408E-4   -2.097995684194094E-1    4.313352341203248E-1
 1.010284289550000E+10  -3.834379482705514E-1    3.009578069066189E-1   -6.102445463459540E-4   -4.698387186615178E-4   -5.228973891259855E-4   -5.370465298288419E-4   -2.089642327747132E-1    4.316340629700361E-1
 1.010285500802500E+10  -3.830413619338211E-1    3.015593412281727E-1   -5.965805473432522E-4   -5.121116551912999E-4   -5.525860068502119E-4   -5.239261132356434E-4   -2.083217651999311E-1    4.321794913294697E-1
 1.010286712055000E+10  -3.825470496772132E-1    3.022707110622183E-1   -5.993817538602052E-4   -5.065346407724026E-4   -5.593607926046655E-4   -5.407624760783845E-4   -2.075566512879788E-1    4.325134390101127E-1
 1.010287923307500E+10  -3.821413799349729E-1    3.027342570309879E-1   -6.337500596306632E-4   -4.912267133631828E-4   -5.401653855925213E-4   -5.134807437724333E-4   -2.068671300488475E-1    4.330162414414632E-1
 1.010289134560000E+10  -3.815443807867610E-1    3.033609801310032E-1   -5.867419615143688E-4   -4.966503052394427E-4   -5.656206234272690E-4   -5.320625535465308E-4   -2.062544848276280E-1    4.333981543760006E-1
 1.010290345812500E+10  -3.812133360030668E-1    3.040340314131324E-1   -6.000955611888562E-4   -4.934685017889532E-4   -5.363371901017250E-4   -5.396859813206226E-4   -2.054105860358290E-1    4.335741152200019E-1
 1.010291557065000E+10  -3.808269395514524E-1    3.046212048636234E-1   -6.017622518918986E-4   -5.105935836378545E-4   -5.399754786511640E-4   -4.908237628723223E-4   -2.047632168635117E-1    4.340585652056775E-1
 1.010292768317500E+10  -3.803180772790371E-1    3.054209948031187E-1   -5.730048577411494E-4   -5.208837798132145E-4   -5.495080907625600E-4   -5.139097601868821E-4   -2.040131732449030E-1    4.344464028446804E-1
 1.010293979570000E+10  -3.799212089769468E-1    3.058083379403034E-1   -5.790836174348304E-4   -4.974180694180647E-4   -5.475619444705549E-4   -5.229884128343567E-4   -2.033185447135719E-1    4.347262012500389E-1
 1.010295190822500E+10  -3.794995270881695E-1    3.064600837210381E-1   -5.759378873124303E-4   -4.992001857907373E-4   -5.173975717372195E-4   -5.412229804480119E-4   -2.027157939630482E-1    4.350421447360230E-1
 1.010296402075000E+10  -3.790110253810758E-1    3.069277363872543E-1   -6.068625564534580E-4   -4.774307786174384E-4   -5.320438881914382E-4   -5.194909579537371E-4   -2.018333277293235E-1    4.353912563482804E-1
 1.010297613327500E+10  -3.785319363377611E-1    3.076429812026195E-1   -6.061638195455486E-4   -4.783468075566167E-4   -5.079992211255072E-4   -5.211915581873947E-4   -2.012263995109117E-1    4.358727390611592E-1
 1.010298824580000E+10  -3.781762301394713E-1    3.081706145429920E-1   -5.925842142323343E-4   -4.847215063700038E-4   -5.238152055940625E-4   -4.872558977391198E-4   -2.005832301545539E-1    4.361985669827090E-1
 1.010300035832500E+10  -3.778085825367994E-1    3.088629271474185E-1   -5.937536785652482E-4   -5.067034275445559E-4   -5.320046282291436E-4   -5.338764339790744E-4   -1.997404819526834E-1    4.365781197451190E-1
 1.010301247085000E+10  -3.772526215823085E-1    3.093905545876971E-1   -5.827972628948974E-4   -4.699998332741527E-4   -5.133588578190787E-4   -5.321556848652063E-4   -1.990129059094128E-1    4.368586988873685E-1
 1.010302458337500E+10  -3.769569507927304E-1    3.099822401620871E-1   -5.762438531657722E-4   -4.788302504752473E-4   -5.056761126125865E-4   -5.128905677209509E-4   -1.981957294575951E-1    4.372514262923092E-1
 1.010303669590000E+10  -3.764047577716834E-1    3.106105962030730E-1   -5.857803918018783E-4   -4.851001999218157E-4   -5.240515695402303E-4   -5.128695470930357E-4   -1.974940836201167E-1    4.378272137488760E-1
 1.010304880842500E+10  -3.759383496605287E-1    3.111964051533072E-1   -5.808445770879429E-4   -4.822219606892063E-4   -5.162876864471231E-4   -5.111217636782329E-4   -1.967411648606718E-1    4.379983743050089E-1
 1.010306092095000E+10  -3.755513802364894E-1    3.118147929707213E-1   -5.871907879502737E-4   -4.911117127241102E-4   -5.216680557199677E-4   -5.025252738870740E-4   -1.962056564372973E-1    4.383873313865434E-1
 1.010307303347500E+10  -3.751978203045471E-1    3.123190672727144E-1   -5.689334986569468E-4   -4.705491716613475E-4   -5.282618026117596E-4   -4.992722871293534E-4   -1.953849272573266E-1    4.385841010749543E-1
 1.010308514600000E+10  -3.747321625218405E-1    3.128786164998244E-1   -5.585889935752181E-4   -4.811691598382085E-4   -5.096982739694881E-4   -5.036717435982344E-4   -1.947590042547176E-1    4.392272351327544E-1
 1.010309725852500E+10  -3.741459476918798E-1    3.135351761006189E-1   -5.496049834474987E-4   -4.426889803646259E-4   -5.157048043458664E-4   -4.863981027628662E-4   -1.940714104260501E-1    4.393965430891164E-1
 1.010310937105000E+10  -3.737960894309129E-1    3.140524116565487E-1   -5.683959632423355E-4   -4.522632650237435E-4   -5.037869295815868E-4   -4.953689830405551E-4   -1.933376606323222E-1    4.396922748676651E-1
 1.010312148357500E+10  -3.732724371342724E-1    3.146646006383759E-1   -5.787769989082001E-4   -4.172214520734891E-4   -5.111591079380402E-4   -5.080386063879814E-4   -1.925185966952599E-1    4.401568806152721E-1
 1.010313359610000E+10  -3.729196319872311E-1    3.154656688710777E-1   -5.598284579285638E-4   -4.234162084784867E-4   -4.864123474330408E-4   -4.515910403655868E-4   -1.918107998115805E-1    4.405433852335320E-1
 1.010314570862500E+10  -3.723950384969971E-1    3.157669420945172E-1   -5.675780243867357E-4   -4.532001195950445E-4   -5.134993871512142E-4   -4.861545706179110E-4   -1.910785911848139E-1    4.408592517417262E-1
 1.010315782115000E+10  -3.720795208884413E-1    3.163518961712501E-1   -5.462987024648861E-4   -4.579156281238223E-4   -5.078804984218089E-4   -4.830652417018963E-4   -1.903014602544350E-1    4.412180970844337E-1
 1.010316993367500E+10  -3.715821478188699E-1    3.170264429385622E-1   -5.563232157696688E-4   -4.490923863923443E-4   -5.094477783869163E-4   -4.733041712076436E-4   -1.896349685769461E-1    4.415364337352295E-1
 1.010318204620000E+10  -3.709843159541856E-1    3.176541227589517E-1   -5.533013582745553E-4   -4.371203172756769E-4   -5.016573197421980E-4   -4.995123578958781E-4   -1.887194936854453E-1    4.419989123070433E-1
 1.010319415872500E+10  -3.706255627907049E-1    3.182191072138404E-1   -5.847954543754051E-4   -4.466983494045490E-4   -5.092546443006186E-4   -4.844780499781843E-4   -1.880522670501432E-1    4.421209240695915E-1
 1.010320627125000E+10  -3.702996568059312E-1    3.187684511711342E-1   -5.510176587636529E-4   -4.496897724353373E-4   -5.040004143612645E-4   -4.745797506906819E-4   -1.875104017583614E-1    4.425939573233338E-1
 1.010321838377500E+10  -3.697847036366232E-1    3.193609627529183E-1   -5.404902317890526E-4   -4.432195363972986E-4   -4.874574220832783E-4   -4.539858942121598E-4   -1.867363877189373E-1    4.429268618512817E-1
 1.010323049630000E+10  -3.692476508448048E-1    3.199682090772376E-1   -5.323505155971084E-4   -4.449093204685984E-4   -4.880853608307882E-4   -4.402176000183779E-4   -1.860880548491275E-1    4.432223922789450E-1
 1.010324260882500E+10  -3.688917134485411E-1    3.205006926737130E-1   -5.681782923373322E-4   -4.199732255734387E-4   -5.016960025666752E-4   -4.684789602826654E-4   -1.851714540395489E-1    4.436302501470434E-1
 1.010325472135000E+10  -3.683468048966697E-1    3.211559101325101E-1   -5.255469050337575E-4   -4.257057594758762E-4   -4.662385883669932E-4   -4.703628613529695E-4   -1.843975418774934E-1    4.438264586098396E-1
 1.010326683387500E+10  -3.679705252572886E-1    3.216090444421797E-1   -5.304565676285876E-4   -4.395608109765248E-4   -4.829996594785846E-4   -4.472744232902141E-4   -1.837060085631543E-1    4.442506043717331E-1
 1.010327894640000E+10  -3.674048425627733E-1    3.222552105842152E-1   -5.044691634966255E-4   -4.557569762371353E-4   -4.806482587303972E-4   -4.398015251269593E-4   -1.829152541058230E-1    4.446022408782997E-1
 1.010329105892500E+10  -3.669078767133486E-1    3.227060405475503E-1   -5.346367803829175E-4   -3.929200538598551E-4   -4.800985246575195E-4   -4.672231831188696E-4   -1.822366963895475E-1    4.450432841388602E-1
 1.010330317145000E+10  -3.665940639085875E-1    3.234373382258500E-1   -5.234781472647984E-4   -4.234304877024516E-4   -4.716651870260032E-4   -4.432567174895267E-4   -1.813974139691370E-1    4.451800585636743E-1
 1.010331528397500E+10  -3.661204818613431E-1    3.239459098501173E-1   -5.288811500680525E-4   -4.209734568766313E-4   -4.475450219505530E-4   -4.406759028879908E-4   -1.806977994035291E-1    4.455939446315812E-1
 1.010332739650000E+10  -3.656986932467411E-1    3.244011967764066E-1   -5.337207033805205E-4   -4.419682710521439E-4   -4.715032368224744E-4   -4.724154452174928E-4   -1.799395887210364E-1    4.459048745037662E-1
 1.010333950902500E+10  -3.651971188186801E-1    3.252299043850152E-1   -4.985433054571966E-4   -4.247916223850336E-4   -4.597783188416018E-4   -4.603188012004048E-4   -1.793377750284718E-1    4.463604562188351E-1
 1.010335162155000E+10  -3.646432746303600E-1    3.256846780023750E-1   -5.226305187175429E-4   -4.306057338620264E-4   -4.710879449278156E-4   -4.430941930797917E-4   -1.785302624347979E-1    4.465311749945374E-1
 1.010336373407500E+10  -3.641756797945400E-1    3.262183035025084E-1   -5.109095425342304E-4   -4.098293791483188E-4   -4.456570361597242E-4   -4.411708163096122E-4   -1.777216948550498E-1    4.470094025475205E-1
 1.010337584660000E+10  -3.637912796495891E-1    3.267425998757199E-1   -4.827217057383530E-4   -4.164869424743517E-4   -4.434900105786959E-4   -4.312226676685731E-4   -1.770158264374566E-1    4.471691145250281E-1
 1.010338795912500E+10  -3.634268294987882E-1    3.273903885670059E-1   -5.183340079821865E-4   -4.265817980971992E-4   -4.547644161012148E-4   -4.403408238774049E-4   -1.761973871467954E-1    4.475313453968797E-1
 1.010340007165000E+10  -3.626542776842543E-1    3.280149970379596E-1   -4.982214915379123E-4   -4.128441882569171E-4   -4.618375408466062E-4   -4.553922794761060E-4   -1.754798436729910E-1    4.477666609299925E-1
 1.010341218417500E+10  -3.623991240631730E-1    3.284644014443234E-1   -5.199269843781734E-4   -4.041139200535711E-4   -4.408513529654443E-4   -4.396511697495657E-4   -1.746311578274988E-1    4.481437153139743E-1
 1.010342429670000E+10  -3.618763713666325E-1    3.290950391031308E-1   -4.705252963095171E-4   -4.112607625418816E-4   -4.241965081648622E-4   -4.156662930329170E-4   -1.739995195811964E-1    4.485761375791990E-1
 1.010343640922500E+10  -3.613811729775110E-1    3.297525823537901E-1   -4.844547652855436E-4   -3.973413707135986E-4   -4.261038566124269E-4   -4.416554816351714E-4   -1.731918339436788E-1    4.488458000021568E-1
 1.010344852175000E+10  -3.610519692044492E-1    3.302816246841074E-1   -4.978383087795572E-4   -4.262664690169514E-4   -4.323246547028695E-4   -4.181633994220270E-4   -1.724867411639822E-1    4.492223187533069E-1
 1.010346063427500E+10  -3.605100870696458E-1    3.308303133978279E-1   -4.804077735325095E-4   -3.833789902917849E-4   -4.410993464673744E-4   -4.244397027538368E-4   -1.717072081554037E-1    4.496260072083159E-1
 1.010347274680000E+10  -3.600583065579097E-1    3.314484532256040E-1   -4.950804833679284E-4   -3.759300287829837E-4   -4.021182569617636E-4   -4.186662815499121E-4   -1.706742846814592E-1    4.498415136801312E-1
 1.010348485932500E+10  -3.594678235840400E-1    3.319640423158811E-1   -4.713610890953531E-4   -3.811653364157270E-4   -4.102946694634632E-4   -4.394263016231195E-4   -1.700273560790813E-1    4.500214165533863E-1
 1.010349697185000E+10  -3.590257649285381E-1    3.324217594971998E-1   -4.353373042479038E-4   -4.051418805568863E-4   -4.098565055120144E-4   -4.176203157963196E-4   -1.692918874598100E-1    4.504901350262978E-1
 1.010350908437500E+10  -3.586610234059059E-1    3.330794442509141E-1   -4.904747853350946E-4   -3.732680245575069E-4   -4.227852783737884E-4   -3.920333524066850E-4   -1.685729277125810E-1    4.508294017952305E-1
 1.010352119690000E+10  -3.580652895011739E-1    3.336745368062118E-1   -4.428623967451233E-4   -3.932753071206652E-4   -4.228216571240773E-4   -4.080641141669979E-4   -1.677107350870477E-1    4.510996643976352E-1
 1.010353330942500E+10  -3.576782876659251E-1    3.342918618860508E-1   -4.636551170965733E-4   -3.434413389042465E-4   -4.191041441796345E-4   -3.813621198827590E-4   -1.670209057219373E-1    4.513291090285479E-1
 1.010354542195000E+10  -3.571508157693724E-1    3.347882363591426E-1   -4.665388645453450E-4   -3.862135114423704E-4   -3.910600777633372E-4   -3.880833020173709E-4   -1.662480486771845E-1    4.517273448216232E-1
 1.010355753447500E+10  -3.566525756170571E-1    3.353386212118646E-1   -4.484359872893112E-4   -3.439924205110836E-4   -3.876216011688757E-4   -4.334076058524114E-4   -1.654593283537502E-1    4.518998886214899E-1
 1.010356964700000E+10  -3.562491495459311E-1    3.357982390176203E-1   -4.628570211388668E-4   -3.592815806669770E-4   -3.731623580851543E-4   -4.099908519811899E-4   -1.645839807514560E-1    4.523066083628561E-1
 1.010358175952500E+10  -3.557856505314702E-1    3.363094435807265E-1   -4.266818145814033E-4   -3.721316771071793E-4   -3.851354412511140E-4   -3.975449889378405E-4   -1.638729777280921E-1    4.526785447021874E-1
 1.010359387205000E+10  -3.552244827050346E-1    3.370025557978864E-1   -4.085424319340202E-4   -3.428692793829187E-4   -4.076511296207247E-4   -3.820190065295185E-4   -1.631595820383875E-1    4.528620722805387E-1
 1.010360598457500E+10  -3.546836924366522E-1    3.374496752754066E-1   -4.287366058945363E-4   -3.539698394887209E-4   -3.809612733659627E-4   -3.596600651634650E-4   -1.623932492561660E-1    4.531587878281997E-1
 1.010361809710000E+10  -3.541928232540796E-1    3.379932807345318E-1   -4.136233985936106E-4   -3.537331373521862E-4   -3.889375125097437E-4   -3.842670504870053E-4   -1.616633405449664E-1    4.535288851914801E-1
 1.010363020962500E+10  -3.536992399654770E-1    3.385285655154177E-1   -4.086228807797708E-4   -3.458832499128081E-4   -3.843914915854163E-4   -3.690605510660004E-4   -1.608128931883539E-1    4.539016224498184E-1
 1.010364232215000E+10  -3.533121687954717E-1    3.391654062882731E-1   -4.409071088732750E-4   -3.388901770073357E-4   -3.812776660912269E-4   -3.740639795435758E-4   -1.599746672602085E-1    4.541710351902972E-1
 1.010365443467500E+10  -3.527861465111224E-1    3.397702127309487E-1   -4.045015399114872E-4   -3.351394021750367E-4   -3.617695215891825E-4   -3.638706094041022E-4   -1.592231505911444E-1    4.544270758627081E-1
 1.010366654720000E+10  -3.523882939460029E-1    3.402861976769384E-1   -3.852465080887522E-4   -3.397726522472609E-4   -3.785700845733975E-4   -3.811111136038013E-4   -1.583679769137590E-1    4.546212663638505E-1
 1.010367865972500E+10  -3.517424514560017E-1    3.408638820566765E-1   -3.708442884341020E-4   -3.426495100098737E-4   -3.360504537754741E-4   -3.620180265315316E-4   -1.575573927850922E-1    4.549501142114191E-1
 1.010369077225000E+10  -3.514766680470757E-1    3.414532651102415E-1   -3.576129857860863E-4   -3.626097035180195E-4   -3.550562434371608E-4   -3.356386421218870E-4   -1.568735600737732E-1    4.552996551901495E-1
