#  HZ   S   RI   R     50.00 
! Rohde & Schwarz Vector Network Analyzer 
! Rohde-Schwarz,ZNB20-2Port,1311601062101988,3.16
! Created: UTC 3/20/2024, 4:54:51 PM
! freq[Hz]                re:S11                  im:S11                  re:S21                  im:S21                  re:S12                  im:S12                  re:S22                  im:S22
 1.010224159600000E+10  -4.032855598775867E-1    2.712582754116997E-1   -6.246974500708786E-4   -6.183882843760989E-4   -5.564637700432739E-4   -6.075248928526976E-4   -2.415367586619815E-1    4.129699303502480E-1
 1.010225501950000E+10  -4.029332838953136E-1    2.718095476953862E-1   -6.051113346301001E-4   -6.041717700950260E-4   -5.722342898012156E-4   -6.448204577098149E-4   -2.407122310899887E-1    4.135239953936894E-1
 1.010226844300000E+10  -4.024959487590313E-1    2.724225107321981E-1   -5.773829487500963E-4   -6.171915770726961E-4   -5.529903119047069E-4   -6.398148981882414E-4   -2.401617421503309E-1    4.141470988390517E-1
 1.010228186650000E+10  -4.020269760627711E-1    2.732411116756803E-1   -6.033745738084362E-4   -5.936857063192183E-4   -5.394982305747174E-4   -6.537724573559027E-4   -2.394600673348202E-1    4.144744303333056E-1
 1.010229529000000E+10  -4.016635854582654E-1    2.740327137244497E-1   -5.983813145168029E-4   -5.942812911295221E-4   -5.554544841386116E-4   -6.210136592621533E-4   -2.386032899413474E-1    4.148518167437545E-1
 1.010230871350000E+10  -4.012338324360413E-1    2.746612867316147E-1   -6.194551331331107E-4   -5.815463808593025E-4   -5.446721362283959E-4   -6.186558971385082E-4   -2.379864368719904E-1    4.152171609375518E-1
 1.010232213700000E+10  -4.007399558093033E-1    2.751794261923670E-1   -6.109006571513626E-4   -6.194296710430756E-4   -5.623577942516524E-4   -6.307734328351139E-4   -2.371681611636755E-1    4.157308193913484E-1
 1.010233556050000E+10  -4.003182207750699E-1    2.760753537764079E-1   -6.382682931751565E-4   -5.862391786904257E-4   -5.712667185159412E-4   -6.304406459689009E-4   -2.363866305207190E-1    4.161431615292978E-1
 1.010234898400000E+10  -3.997510540614870E-1    2.767774645312847E-1   -6.361801707903369E-4   -5.922944354315087E-4   -5.512840877118297E-4   -6.244246050316621E-4   -2.357348460653757E-1    4.168231743596927E-1
 1.010236240750000E+10  -3.994427438183116E-1    2.774308115668386E-1   -6.224725759865565E-4   -5.863232799654143E-4   -5.675055069374706E-4   -6.264217381411212E-4   -2.349027198509454E-1    4.172019546651450E-1
 1.010237583100000E+10  -3.990763306194383E-1    2.781685305387098E-1   -6.112030644184199E-4   -5.921600263303208E-4   -5.489711235695964E-4   -6.170158937366812E-4   -2.340529787342715E-1    4.178104624999939E-1
 1.010238925450000E+10  -3.985511087857747E-1    2.789122783268674E-1   -6.179265871883846E-4   -5.901193020989636E-4   -5.646203114942622E-4   -6.052593225643617E-4   -2.333761798821374E-1    4.180853159379590E-1
 1.010240267800000E+10  -3.981444962133182E-1    2.794738655782922E-1   -6.227964877027588E-4   -5.694649289343998E-4   -5.606209391881933E-4   -5.984842395264829E-4   -2.326786852768652E-1    4.185456612221996E-1
 1.010241610150000E+10  -3.977266282430386E-1    2.801992179400430E-1   -6.495287622503318E-4   -5.778093989384711E-4   -5.361871207181134E-4   -6.130598525082225E-4   -2.318976781970737E-1    4.190883915758025E-1
 1.010242952500000E+10  -3.971989607595288E-1    2.809206871124187E-1   -6.199197510725246E-4   -5.613941309844798E-4   -5.488694739163156E-4   -6.044053820065025E-4   -2.312034497061500E-1    4.196650955262623E-1
 1.010244294850000E+10  -3.969053401695570E-1    2.816155359742539E-1   -6.147544981392302E-4   -5.771173359157045E-4   -5.468529416569592E-4   -5.911249709932618E-4   -2.305661933760793E-1    4.199944269415423E-1
 1.010245637200000E+10  -3.964045886805616E-1    2.823201441911553E-1   -6.217868789732943E-4   -5.767601369885076E-4   -5.474638823587392E-4   -6.047778890449952E-4   -2.297255156304619E-1    4.203745130195314E-1
 1.010246979550000E+10  -3.959358019202970E-1    2.829903647042949E-1   -6.217903431911907E-4   -5.915939614040076E-4   -5.327166322495425E-4   -5.997806741061276E-4   -2.287430185647478E-1    4.209290685821303E-1
 1.010248321900000E+10  -3.955037383533414E-1    2.836691679369809E-1   -6.069105649754231E-4   -5.622835285523459E-4   -5.812276936335417E-4   -5.778830049159018E-4   -2.281816286405149E-1    4.213276410300432E-1
 1.010249664250000E+10  -3.950675660925352E-1    2.842329897910181E-1   -6.305465333015438E-4   -5.643857632132613E-4   -5.315637541863649E-4   -5.886198031220931E-4   -2.273194633678993E-1    4.216758939548810E-1
 1.010251006600000E+10  -3.947288376731353E-1    2.848108436747219E-1   -6.436199070193838E-4   -5.638518520756391E-4   -5.210660278695743E-4   -6.036462180705826E-4   -2.265443848653132E-1    4.221173939797052E-1
 1.010252348950000E+10  -3.941730653543658E-1    2.857656889027537E-1   -6.226506874977239E-4   -5.566991818820871E-4   -5.524768446526489E-4   -5.778096040802089E-4   -2.259933357487580E-1    4.226929170839978E-1
 1.010253691300000E+10  -3.937989164708491E-1    2.863610883725142E-1   -6.080329595621598E-4   -5.565077096778365E-4   -5.558165514512721E-4   -5.875802370771123E-4   -2.250662514155204E-1    4.230536720380052E-1
 1.010255033650000E+10  -3.932973705168096E-1    2.869808418658457E-1   -6.094215775913731E-4   -5.761365088145531E-4   -5.461796623893675E-4   -6.023763988673579E-4   -2.243767616753580E-1    4.236029478797335E-1
 1.010256376000000E+10  -3.928899472055571E-1    2.877590237075136E-1   -6.245746990040113E-4   -5.697831899635812E-4   -5.405641592953729E-4   -5.654478161523914E-4   -2.235583539602358E-1    4.240271202994535E-1
 1.010257718350000E+10  -3.923592464922106E-1    2.883136768888889E-1   -6.001348448530757E-4   -5.372677597498758E-4   -5.416624549326451E-4   -5.679620872418694E-4   -2.228954807462794E-1    4.244970562252208E-1
 1.010259060700000E+10  -3.917705543726815E-1    2.890564718963102E-1   -5.978829971041883E-4   -5.464998532004675E-4   -5.288104048741164E-4   -5.417897275199133E-4   -2.220367382754082E-1    4.247654572414040E-1
 1.010260403050000E+10  -3.914601043131435E-1    2.898091721948672E-1   -6.238047023246221E-4   -5.283817430591622E-4   -5.169810470144342E-4   -6.040767177919934E-4   -2.212523778710223E-1    4.254396784630848E-1
 1.010261745400000E+10  -3.909240822983325E-1    2.905638402111257E-1   -6.061747613037049E-4   -5.860278163892320E-4   -5.235998835774223E-4   -5.881486758718852E-4   -2.204962173259858E-1    4.258251550705643E-1
 1.010263087750000E+10  -3.904721447711887E-1    2.911536326458621E-1   -6.224657567880931E-4   -5.486136763289912E-4   -5.191825808215323E-4   -5.671133570907827E-4   -2.197373988395925E-1    4.262533254895830E-1
 1.010264430100000E+10  -3.901206702617042E-1    2.918932915547329E-1   -6.070811325663701E-4   -5.441352601436250E-4   -5.224798814462640E-4   -5.660518490179458E-4   -2.190250408600631E-1    4.267327335312192E-1
 1.010265772450000E+10  -3.896351806625240E-1    2.925770015843908E-1   -6.111922404600998E-4   -5.541732498729537E-4   -5.197119491852753E-4   -5.497300763654190E-4   -2.182377800938707E-1    4.270247800424191E-1
 1.010267114800000E+10  -3.891351728885562E-1    2.932522562862359E-1   -6.295195422191135E-4   -5.360485297504453E-4   -5.482918987419351E-4   -5.485744833110621E-4   -2.174065220923362E-1    4.275632934786652E-1
 1.010268457150000E+10  -3.888139401356173E-1    2.938725112553026E-1   -6.139240463487814E-4   -5.438650732335066E-4   -5.487593061404771E-4   -5.549829931219510E-4   -2.166999630303214E-1    4.281471178200443E-1
 1.010269799500000E+10  -3.882312221145159E-1    2.945247334402970E-1   -6.113320865373152E-4   -5.349801298624933E-4   -5.259891700649079E-4   -5.617165671136007E-4   -2.159711917891818E-1    4.283999936559036E-1
 1.010271141850000E+10  -3.878730081093873E-1    2.951051510278216E-1   -5.931272406225347E-4   -5.098892126844449E-4   -5.279885724994880E-4   -5.407799018576397E-4   -2.149788822586635E-1    4.289096836541063E-1
 1.010272484200000E+10  -3.874164635826486E-1    2.959392917432670E-1   -5.927331267762670E-4   -5.353984180871345E-4   -5.203127026319078E-4   -5.582310166347829E-4   -2.143144977718446E-1    4.290490077690238E-1
 1.010273826550000E+10  -3.867531851848535E-1    2.964454710181079E-1   -6.010849194741600E-4   -5.201098866326497E-4   -5.290046018394451E-4   -5.520455123070649E-4   -2.135334937387341E-1    4.298365772082595E-1
 1.010275168900000E+10  -3.863886214640748E-1    2.972635375586721E-1   -6.050419338209200E-4   -5.192858485705402E-4   -5.113227377853962E-4   -5.431498489523018E-4   -2.126725083740078E-1    4.300825865319799E-1
 1.010276511250000E+10  -3.859557105899351E-1    2.979781452838192E-1   -6.022858078856506E-4   -5.155442326507532E-4   -5.333229843564387E-4   -5.632833452569986E-4   -2.119697355394661E-1    4.305774863105242E-1
 1.010277853600000E+10  -3.853086358253350E-1    2.986056320312910E-1   -6.002651894007932E-4   -5.179971406630445E-4   -5.189013212729900E-4   -5.348414282461133E-4   -2.111909283793000E-1    4.309775535409119E-1
 1.010279195950000E+10  -3.849409331995428E-1    2.993168842821037E-1   -5.841684686754199E-4   -5.154542190532023E-4   -5.191443901676846E-4   -5.336050545229393E-4   -2.103983757025617E-1    4.313499609691391E-1
 1.010280538300000E+10  -3.845023829445654E-1    2.998816673745250E-1   -5.787315915612635E-4   -5.263566814561359E-4   -5.270312520362890E-4   -5.511396157132534E-4   -2.096315709105055E-1    4.317530816251314E-1
 1.010281880650000E+10  -3.839919306252265E-1    3.005571095039148E-1   -5.769573423336081E-4   -5.167564698759154E-4   -5.145010972883825E-4   -5.477168531401065E-4   -2.088630975376806E-1    4.321183979774392E-1
 1.010283223000000E+10  -3.835514547006592E-1    3.012123044560176E-1   -5.881781041391588E-4   -4.942090992661940E-4   -5.214827108931380E-4   -5.343812460946486E-4   -2.079773473411620E-1    4.325516261533081E-1
 1.010284565350000E+10  -3.832097609287265E-1    3.019178800728659E-1   -5.751794315614167E-4   -4.990507396724434E-4   -5.140334450079806E-4   -5.367862152040223E-4   -2.073179199372726E-1    4.330148773096348E-1
 1.010285907700000E+10  -3.826221273398013E-1    3.026083320349563E-1   -5.931753921969185E-4   -5.017432252396372E-4   -5.196284344684642E-4   -5.317491604334351E-4   -2.064001082214177E-1    4.334804319803022E-1
 1.010287250050000E+10  -3.821763416205986E-1    3.032862898528663E-1   -5.730363113931958E-4   -5.066846082322704E-4   -5.227523822493132E-4   -5.180150402869768E-4   -2.057838696403004E-1    4.339153151638700E-1
 1.010288592400000E+10  -3.817311189592446E-1    3.038988045029730E-1   -5.812413166226487E-4   -5.126880639992462E-4   -5.227794079897467E-4   -5.014886623719484E-4   -2.048742079265632E-1    4.342612296198080E-1
 1.010289934750000E+10  -3.813936069530457E-1    3.047642421113967E-1   -5.591050427893737E-4   -4.783772147142476E-4   -5.022921178871559E-4   -5.074792898437638E-4   -2.041174645317002E-1    4.348229048039513E-1
 1.010291277100000E+10  -3.806571767955358E-1    3.053261578950828E-1   -5.937452840493478E-4   -4.684206274581067E-4   -5.118273483948577E-4   -5.156724048844206E-4   -2.033156481899594E-1    4.351294777242044E-1
 1.010292619450000E+10  -3.801586659376464E-1    3.058091830519815E-1   -5.584246698454149E-4   -5.055019355780388E-4   -5.131142482665900E-4   -4.972696758700570E-4   -2.025550877944314E-1    4.354791898656969E-1
 1.010293961800000E+10  -3.797532163516916E-1    3.064802558760295E-1   -5.744617112357051E-4   -4.909456283464757E-4   -5.074736386495103E-4   -5.216204970471831E-4   -2.018554489100467E-1    4.358578789667551E-1
 1.010295304150000E+10  -3.792505009591335E-1    3.073079461736947E-1   -5.685277412457821E-4   -4.705576160278250E-4   -4.969123977925272E-4   -5.242057285530471E-4   -2.009076134587505E-1    4.363464891002253E-1
 1.010296646500000E+10  -3.787106984065493E-1    3.077983819651521E-1   -5.713619706615365E-4   -5.037554044266531E-4   -5.001960368983272E-4   -5.136786997133708E-4   -2.001519823645905E-1    4.367807077500007E-1
 1.010297988850000E+10  -3.782592158114263E-1    3.086988193273782E-1   -5.746398252596312E-4   -4.733643316845968E-4   -4.957793904522075E-4   -4.879458949635293E-4   -1.994040475405545E-1    4.371193110423904E-1
 1.010299331200000E+10  -3.778238011945544E-1    3.090518546879393E-1   -5.456836554379350E-4   -4.755678540958025E-4   -5.192533089083047E-4   -4.870437254939245E-4   -1.984883191669287E-1    4.376008639716608E-1
 1.010300673550000E+10  -3.773169450281435E-1    3.098637408778316E-1   -5.660760186868279E-4   -4.837748590146992E-4   -4.958463574443744E-4   -5.124357985379129E-4   -1.977792937087310E-1    4.379162030999677E-1
 1.010302015900000E+10  -3.769367259690619E-1    3.104391726222691E-1   -5.480968028828063E-4   -4.887942860617271E-4   -4.975822826712644E-4   -4.978896948141154E-4   -1.968386228790327E-1    4.382923394057175E-1
 1.010303358250000E+10  -3.763755578520129E-1    3.110807623418161E-1   -5.442056864805265E-4   -4.753961717649216E-4   -4.995679238660789E-4   -5.063923691325121E-4   -1.962044184773203E-1    4.387059793205432E-1
 1.010304700600000E+10  -3.759387098317123E-1    3.117943181909394E-1   -5.458688661583200E-4   -4.841863319425957E-4   -4.693391017168923E-4   -5.075361337613251E-4   -1.953079486891522E-1    4.392350301474971E-1
 1.010306042950000E+10  -3.753746936366901E-1    3.125020406497836E-1   -5.489839819328935E-4   -4.705857852094441E-4   -5.169565498433119E-4   -4.948408953878610E-4   -1.944654478215609E-1    4.394845923860957E-1
 1.010307385300000E+10  -3.748857228094219E-1    3.130588455354035E-1   -5.335901570175019E-4   -4.687100900573501E-4   -4.826396833361591E-4   -4.772667317428402E-4   -1.935543491578036E-1    4.399289107057626E-1
 1.010308727650000E+10  -3.744092848952887E-1    3.136518498824079E-1   -5.402936596610865E-4   -4.969366088782513E-4   -4.723031421639897E-4   -4.774150773039800E-4   -1.929252734045148E-1    4.402667903896220E-1
 1.010310070000000E+10  -3.738707977686801E-1    3.144570714716012E-1   -5.540150309913743E-4   -4.464314103191587E-4   -4.742360911488800E-4   -4.919200046141290E-4   -1.921618997309392E-1    4.408217742314123E-1
 1.010311412350000E+10  -3.734646817272646E-1    3.149955512572694E-1   -5.158758157018053E-4   -4.520357973916876E-4   -4.776718891937449E-4   -4.619333482456595E-4   -1.912423043648516E-1    4.410644292205030E-1
 1.010312754700000E+10  -3.728430002838984E-1    3.157297719877100E-1   -5.239744560880884E-4   -4.475432758857828E-4   -4.828776729728718E-4   -4.605771910739231E-4   -1.903478757034651E-1    4.414881175691921E-1
 1.010314097050000E+10  -3.726046760443944E-1    3.163634883936727E-1   -5.300012820559937E-4   -4.292808867486574E-4   -4.680412678476760E-4   -4.679791342494331E-4   -1.895484944868464E-1    4.419641676988733E-1
 1.010315439400000E+10  -3.720061142454257E-1    3.169929942240272E-1   -5.163047000152978E-4   -4.511058070225213E-4   -4.730112737572496E-4   -4.679220196494166E-4   -1.888934032800373E-1    4.422384923945932E-1
 1.010316781750000E+10  -3.714041908603652E-1    3.176568421892362E-1   -5.165720377230446E-4   -4.543648897134928E-4   -4.834174547151361E-4   -4.566651262317517E-4   -1.879794488439880E-1    4.425877938301617E-1
 1.010318124100000E+10  -3.710264383652311E-1    3.183511967037881E-1   -5.187600840583814E-4   -4.541795839532995E-4   -4.668648677957423E-4   -4.782137141696371E-4   -1.871296549549269E-1    4.429719593113193E-1
 1.010319466450000E+10  -3.704767085014984E-1    3.190676516684559E-1   -4.976050581918717E-4   -4.262386468214762E-4   -4.577282651665257E-4   -4.610790125002473E-4   -1.863949258084409E-1    4.433253479389811E-1
 1.010320808800000E+10  -3.699086262793059E-1    3.196126983713491E-1   -4.755729153809635E-4   -4.066784483044777E-4   -4.551416089397629E-4   -4.560381468871324E-4   -1.855288738822881E-1    4.436780200977628E-1
 1.010322151150000E+10  -3.694384000416792E-1    3.202921427229710E-1   -5.078666416498344E-4   -4.480265214332442E-4   -4.538246488638315E-4   -4.643918116598658E-4   -1.847438583587429E-1    4.441362145641349E-1
 1.010323493500000E+10  -3.689656271670947E-1    3.210511111009427E-1   -5.439026564761432E-4   -4.281501959099159E-4   -4.491550472696646E-4   -4.440914298793863E-4   -1.838014205039622E-1    4.444667064418250E-1
 1.010324835850000E+10  -3.683610348165526E-1    3.214858023628075E-1   -5.053169241848431E-4   -4.211110277707380E-4   -4.491541362323381E-4   -4.511937498232782E-4   -1.829707493314714E-1    4.449393627504594E-1
 1.010326178200000E+10  -3.679631579705815E-1    3.221325577418983E-1   -5.021327521449854E-4   -4.171315919911694E-4   -4.294443281774337E-4   -4.434722088550254E-4   -1.823125554887116E-1    4.452142717947789E-1
 1.010327520550000E+10  -3.673080635480215E-1    3.228606028271149E-1   -5.156538016033218E-4   -4.488508471782394E-4   -4.266610292282391E-4   -4.478481112718844E-4   -1.813764746448575E-1    4.455198522414267E-1
 1.010328862900000E+10  -3.669216669117091E-1    3.234837017095012E-1   -4.904223716873903E-4   -4.305501949048015E-4   -4.270033874564072E-4   -4.386258428409249E-4   -1.805164695878151E-1    4.458973962008322E-1
 1.010330205250000E+10  -3.663869829232410E-1    3.240806145461357E-1   -4.666976030349655E-4   -4.296724305964777E-4   -4.155035610289148E-4   -4.388426138461326E-4   -1.797067553162846E-1    4.463343845520346E-1
 1.010331547600000E+10  -3.658689351771148E-1    3.247777162008503E-1   -4.710853533707858E-4   -4.209298812565803E-4   -4.062799887631793E-4   -4.303734042556598E-4   -1.789351524609302E-1    4.465718861907512E-1
 1.010332889950000E+10  -3.653959792614513E-1    3.253188601091555E-1   -4.767362459073925E-4   -4.231464073852124E-4   -4.265842096087995E-4   -4.192350065463590E-4   -1.779560822828082E-1    4.471051473259572E-1
 1.010334232300000E+10  -3.648736085714598E-1    3.259286919991824E-1   -4.814691840240276E-4   -4.002992575188702E-4   -4.327334026310087E-4   -4.270775535601556E-4   -1.772507152148982E-1    4.474037412950143E-1
 1.010335574650000E+10  -3.643235123139993E-1    3.266453468221962E-1   -5.003226961276170E-4   -3.990215748755036E-4   -4.210761309985842E-4   -4.226840547377754E-4   -1.762628517607341E-1    4.478211092068984E-1
 1.010336917000000E+10  -3.637639907957484E-1    3.272569743624356E-1   -4.822586397245949E-4   -4.007740936196168E-4   -4.423348407137960E-4   -4.382939193697785E-4   -1.753637310904207E-1    4.482356476188671E-1
 1.010338259350000E+10  -3.632810627356404E-1    3.278696655044379E-1   -4.507920099500679E-4   -3.870439266396918E-4   -4.217115849635549E-4   -4.313245662031167E-4   -1.746846858348370E-1    4.483646284530899E-1
 1.010339601700000E+10  -3.627689184006461E-1    3.285642279038133E-1   -4.415474884305698E-4   -4.005233401649990E-4   -3.983891313111323E-4   -4.043831180058521E-4   -1.736203213814983E-1    4.488853744290709E-1
 1.010340944050000E+10  -3.621968040223757E-1    3.291746584325075E-1   -4.184382857967159E-4   -3.895031933162938E-4   -4.107211609104474E-4   -4.285960145537795E-4   -1.731259003868166E-1    4.491817387844925E-1
 1.010342286400000E+10  -3.618619463517695E-1    3.298521563083844E-1   -4.328105373260948E-4   -3.724671196887868E-4   -3.655174640105144E-4   -4.104327466415573E-4   -1.720333365777459E-1    4.496286218575298E-1
 1.010343628750000E+10  -3.611246898036926E-1    3.304001604848975E-1   -4.395252649744396E-4   -4.105255885802469E-4   -3.993914519954761E-4   -3.918236397855429E-4   -1.712163606184057E-1    4.499754322131068E-1
 1.010344971100000E+10  -3.606828712271750E-1    3.310730553813818E-1   -4.068709055266838E-4   -4.084276030788301E-4   -3.859709569518929E-4   -4.168579417951907E-4   -1.703704111172369E-1    4.501958668142602E-1
