#  HZ   S   RI   R     50.00 
! Rohde & Schwarz Vector Network Analyzer 
! Rohde-Schwarz,ZNB20-2Port,1311601062101988,3.16
! Created: UTC 3/20/2024, 5:10:09 PM
! freq[Hz]                re:S11                  im:S11                  re:S21                  im:S21                  re:S12                  im:S12                  re:S22                  im:S22
 1.010268139100000E+10  -3.890467715090933E-1    2.927914529615956E-1   -6.215649886329046E-4   -5.436376986953154E-4   -5.487143619214469E-4   -5.615799577640506E-4   -2.183833177888298E-1    4.266110713872217E-1
 1.010269315585000E+10  -3.886001939039989E-1    2.934224994478288E-1   -6.264501748392250E-4   -5.150355419946794E-4   -5.435945651584947E-4   -5.688121156139017E-4   -2.176167724746867E-1    4.270204251089499E-1
 1.010270492070000E+10  -3.882196652162320E-1    2.940784864227822E-1   -6.100437991406391E-4   -5.432601389429823E-4   -5.447334607002608E-4   -5.713167033455619E-4   -2.170330518693144E-1    4.273460382428778E-1
 1.010271668555000E+10  -3.878024742941057E-1    2.946456726287897E-1   -6.305450561641725E-4   -5.358848741002340E-4   -5.695506858252517E-4   -5.652578147715828E-4   -2.163372709596696E-1    4.277333278880475E-1
 1.010272845040000E+10  -3.874267708933872E-1    2.952415670150320E-1   -6.381428590203341E-4   -5.355697802384885E-4   -5.655634025675931E-4   -5.727713099862126E-4   -2.156587065369097E-1    4.282351449118554E-1
 1.010274021525000E+10  -3.871029118487199E-1    2.958493671006573E-1   -6.091802966354377E-4   -5.377868660275199E-4   -5.610018803462580E-4   -5.680791855115400E-4   -2.149705270285991E-1    4.284626274211483E-1
 1.010275198010000E+10  -3.865388087580323E-1    2.963898897025650E-1   -6.353039435344574E-4   -5.488001714110011E-4   -5.470412799816329E-4   -5.470936425585564E-4   -2.142557148735217E-1    4.287267991248162E-1
 1.010276374495000E+10  -3.861500240854479E-1    2.969627022870486E-1   -6.229416821664509E-4   -5.393741666356891E-4   -5.452413873495137E-4   -5.697512251719871E-4   -2.137109007110829E-1    4.291180632001473E-1
 1.010277550980000E+10  -3.858661190911644E-1    2.975461628671665E-1   -6.175788360228854E-4   -5.484398504197923E-4   -5.743197507189922E-4   -5.636127215232374E-4   -2.128981688834105E-1    4.296609534310138E-1
 1.010278727465000E+10  -3.854363452283400E-1    2.983027263829744E-1   -6.127820019470829E-4   -5.379108390304346E-4   -5.454625883541909E-4   -5.611513228453016E-4   -2.122119243426127E-1    4.300898456274014E-1
 1.010279903950000E+10  -3.848529582198211E-1    2.987474344944047E-1   -6.029456299969539E-4   -5.032608011836315E-4   -5.312520049415309E-4   -5.350644487245887E-4   -2.115065026663485E-1    4.304384403840930E-1
 1.010281080435000E+10  -3.845495701613373E-1    2.993774318748080E-1   -6.168664111883458E-4   -4.998016946980152E-4   -5.378441269329470E-4   -5.465519272272109E-4   -2.108421174110545E-1    4.307600013473554E-1
 1.010282256920000E+10  -3.841286748242241E-1    2.999950076539621E-1   -5.985534059542950E-4   -5.363178882746766E-4   -5.592842419940293E-4   -5.347332524087978E-4   -2.101512521782352E-1    4.311049472476390E-1
 1.010283433405000E+10  -3.837268636820714E-1    3.004604482806782E-1   -6.146987114137384E-4   -5.077447422688001E-4   -5.762725035565294E-4   -5.661848962782529E-4   -2.094754267367319E-1    4.315520689178894E-1
 1.010284609890000E+10  -3.832982452204084E-1    3.010071828923793E-1   -6.327580689064624E-4   -5.354641401599597E-4   -5.502254028767326E-4   -5.538808610820150E-4   -2.089240281764647E-1    4.318986650494345E-1
 1.010285786375000E+10  -3.830317038987678E-1    3.018049340282672E-1   -6.191849069219950E-4   -5.185828301575589E-4   -5.796618600747177E-4   -5.553025227999286E-4   -2.080569396225590E-1    4.321766339758932E-1
 1.010286962860000E+10  -3.825258837145151E-1    3.023458971335352E-1   -5.872738096652939E-4   -5.147807454489477E-4   -5.206622635529416E-4   -5.467091614316206E-4   -2.075292328802220E-1    4.325025549060734E-1
 1.010288139345000E+10  -3.820531081262428E-1    3.027720987071278E-1   -5.975035150680227E-4   -5.131375866190298E-4   -5.473916974635865E-4   -5.270569013398925E-4   -2.068572451869253E-1    4.330812138075262E-1
 1.010289315830000E+10  -3.817210432956133E-1    3.034603563345061E-1   -6.083612447048454E-4   -5.057065175230112E-4   -5.423924387308112E-4   -5.271227852655858E-4   -2.060911680374356E-1    4.332510273502280E-1
 1.010290492315000E+10  -3.809635045341496E-1    3.040412346892775E-1   -6.116116240871887E-4   -5.094856007617209E-4   -5.228262868268708E-4   -5.292548697482751E-4   -2.054164985830894E-1    4.336506229087245E-1
 1.010291668800000E+10  -3.805596048129812E-1    3.046198871705994E-1   -5.953191406188553E-4   -5.039622689390475E-4   -5.392083703699046E-4   -5.296954645668802E-4   -2.047944722252293E-1    4.339685993836563E-1
 1.010292845285000E+10  -3.805357717066148E-1    3.053720906404771E-1   -5.993985744328748E-4   -4.967375366957395E-4   -5.319666750134835E-4   -5.275378797511069E-4   -2.040492064502501E-1    4.344848672867924E-1
 1.010294021770000E+10  -3.798041372811499E-1    3.056679699995287E-1   -5.879981083417573E-4   -5.079558995733428E-4   -5.380523306214458E-4   -5.132375614735981E-4   -2.032922630060863E-1    4.348019113567292E-1
 1.010295198255000E+10  -3.795910865565570E-1    3.064178506569082E-1   -6.040435645424312E-4   -4.941663809054042E-4   -4.994428123251306E-4   -5.069579279190891E-4   -2.025800637854367E-1    4.352137776828535E-1
 1.010296374740000E+10  -3.790202578066502E-1    3.069998347290244E-1   -6.054750648513327E-4   -4.996338261462188E-4   -5.203734242662574E-4   -4.982742744053339E-4   -2.017971114929799E-1    4.354209938138624E-1
 1.010297551225000E+10  -3.786651176383760E-1    3.074616522156340E-1   -6.060288509651112E-4   -4.918576088299092E-4   -5.651552872480004E-4   -5.098433715369042E-4   -2.012043845680081E-1    4.358435991540055E-1
 1.010298727710000E+10  -3.783449075196954E-1    3.082412112024235E-1   -6.129880102195040E-4   -4.501076770425801E-4   -5.321657473880115E-4   -5.018731264127590E-4   -2.006679446916751E-1    4.360797440634476E-1
 1.010299904195000E+10  -3.778369391001859E-1    3.087483164151907E-1   -5.922865956836668E-4   -5.211178522310030E-4   -5.186217383809238E-4   -5.161102149801430E-4   -1.999027143214885E-1    4.364717486680790E-1
 1.010301080680000E+10  -3.774205112026909E-1    3.093071891674247E-1   -5.815445241191287E-4   -4.798020627054584E-4   -5.231247074034482E-4   -4.963612483314623E-4   -1.990585691129498E-1    4.368359177469761E-1
 1.010302257165000E+10  -3.770089674810334E-1    3.097991901708091E-1   -5.879713768886640E-4   -4.687530110387847E-4   -5.310414512947181E-4   -5.172767268280018E-4   -1.983616943817653E-1    4.373593548840146E-1
 1.010303433650000E+10  -3.764756063038874E-1    3.104512874409228E-1   -6.016110296355311E-4   -4.832677753791653E-4   -5.239344354804307E-4   -4.983330284279756E-4   -1.976100082326554E-1    4.376242412008969E-1
 1.010304610135000E+10  -3.761983178715525E-1    3.109283071340732E-1   -5.791526960925262E-4   -4.722935417225181E-4   -5.266677552132494E-4   -5.117051507571758E-4   -1.970303211436211E-1    4.378792998025917E-1
 1.010305786620000E+10  -3.757628585589085E-1    3.116968518352677E-1   -6.128049271394605E-4   -4.661799799488483E-4   -5.376034151699632E-4   -4.864601773993448E-4   -1.961969360452333E-1    4.383043113094608E-1
 1.010306963105000E+10  -3.752258697932725E-1    3.122360215879652E-1   -5.879362753338973E-4   -4.954474562531429E-4   -5.291873915551070E-4   -4.953931489663101E-4   -1.956857977371985E-1    4.386049624564058E-1
 1.010308139590000E+10  -3.748930741291661E-1    3.127602794230916E-1   -5.678613731017918E-4   -4.435568665258690E-4   -5.205430543172916E-4   -4.872856521007358E-4   -1.949006913206989E-1    4.390687942522974E-1
 1.010309316075000E+10  -3.744065899220966E-1    3.131500941419328E-1   -6.012264295899142E-4   -4.583651200457053E-4   -5.528372433476385E-4   -5.138203714375383E-4   -1.942979610175934E-1    4.393128886500038E-1
 1.010310492560000E+10  -3.741259104880696E-1    3.137464210645083E-1   -5.688846000577780E-4   -4.623007555617273E-4   -5.005968684670979E-4   -4.882433718152825E-4   -1.936738134738623E-1    4.397079409058534E-1
 1.010311669045000E+10  -3.736625769890536E-1    3.143820466622738E-1   -5.941514252610651E-4   -4.436396520883626E-4   -5.082035092104966E-4   -4.962433286193836E-4   -1.928814853741933E-1    4.400230865853861E-1
 1.010312845530000E+10  -3.730778212884717E-1    3.150050703467979E-1   -5.848311435309123E-4   -4.427946838127390E-4   -5.137059535508054E-4   -4.868753918888885E-4   -1.921798720920531E-1    4.404243160495731E-1
 1.010314022015000E+10  -3.726093817536191E-1    3.154530705926742E-1   -5.712732746164234E-4   -4.423346501602274E-4   -4.909630790763187E-4   -4.857604970363129E-4   -1.913108492115493E-1    4.406544737595283E-1
 1.010315198500000E+10  -3.722326915401499E-1    3.161101946710655E-1   -5.741294181206437E-4   -4.445146442959219E-4   -5.286899798246504E-4   -4.923656880792369E-4   -1.908466183848195E-1    4.410505157201241E-1
 1.010316374985000E+10  -3.717996333334681E-1    3.165408588643394E-1   -5.739330254835052E-4   -4.647540124392129E-4   -5.059473582744123E-4   -4.910569119110867E-4   -1.899490270754839E-1    4.413599274695113E-1
 1.010317551470000E+10  -3.714096901645298E-1    3.171814569434879E-1   -5.529756475784415E-4   -4.608535004888958E-4   -4.931794591786351E-4   -4.867521231768618E-4   -1.893475614446194E-1    4.417481441972234E-1
 1.010318727955000E+10  -3.708513764236028E-1    3.177827706201450E-1   -5.915509607594201E-4   -4.634133915840551E-4   -5.199451198619499E-4   -4.656986745790518E-4   -1.885805129096772E-1    4.419704525139569E-1
 1.010319904440000E+10  -3.704624413167582E-1    3.184463533171642E-1   -5.426311543112043E-4   -4.446905537353939E-4   -5.107832761346705E-4   -4.682935581878349E-4   -1.877770310178400E-1    4.423398531292199E-1
 1.010321080925000E+10  -3.701041783380322E-1    3.189771778177440E-1   -5.353587269755856E-4   -4.453871188862243E-4   -5.104610520274500E-4   -4.721383153052055E-4   -1.871625592227413E-1    4.427279827085788E-1
 1.010322257410000E+10  -3.695678305867621E-1    3.195611112876169E-1   -5.693637928877483E-4   -4.466275614074653E-4   -4.990172848570154E-4   -4.997070757812117E-4   -1.863757853592844E-1    4.430833170737386E-1
 1.010323433895000E+10  -3.691461216791577E-1    3.199268616983771E-1   -5.861111909542976E-4   -4.515914283977605E-4   -5.035081085478044E-4   -4.516706714914265E-4   -1.856911054343874E-1    4.434791587435110E-1
 1.010324610380000E+10  -3.685216431469183E-1    3.205839743872096E-1   -5.542484148395587E-4   -4.288263358029292E-4   -5.037591053984568E-4   -4.689333840201090E-4   -1.850434247691661E-1    4.436541850680503E-1
 1.010325786865000E+10  -3.682558934958159E-1    3.211578104026915E-1   -5.579609350821199E-4   -4.448234286859823E-4   -4.697068421428545E-4   -4.556889860279463E-4   -1.842239551419052E-1    4.440042331833740E-1
 1.010326963350000E+10  -3.678575266327224E-1    3.217677410664131E-1   -5.185539823808971E-4   -4.481697781742328E-4   -4.849233399561866E-4   -4.810446709839267E-4   -1.836480133463483E-1    4.442444287412189E-1
 1.010328139835000E+10  -3.673034401455610E-1    3.222754106733003E-1   -5.620316742658780E-4   -4.348858779854367E-4   -4.776616212160740E-4   -4.400230187142498E-4   -1.828564613016801E-1    4.447364908730381E-1
 1.010329316320000E+10  -3.669166665249053E-1    3.229369611202443E-1   -5.507089541206886E-4   -4.194828054536013E-4   -4.777233415904261E-4   -4.658717254996051E-4   -1.820486590000412E-1    4.450487706138528E-1
 1.010330492805000E+10  -3.664503683921371E-1    3.234275772906676E-1   -5.202219487557905E-4   -4.458770479495354E-4   -4.737841686708420E-4   -4.559107295395303E-4   -1.814021866339623E-1    4.452669078372076E-1
 1.010331669290000E+10  -3.660439999263345E-1    3.239965132276388E-1   -5.192892064523383E-4   -4.091405556169302E-4   -4.551447786021979E-4   -4.462969485665042E-4   -1.806925266016525E-1    4.456857405794913E-1
 1.010332845775000E+10  -3.655903432761282E-1    3.245200804001115E-1   -5.125640809562095E-4   -4.054173731390896E-4   -4.750497446858126E-4   -4.461431390491310E-4   -1.799750955362679E-1    4.461208882938221E-1
 1.010334022260000E+10  -3.650693112439951E-1    3.250287959014724E-1   -5.319906310864153E-4   -4.444913522527638E-4   -4.635490184114198E-4   -4.433479052286647E-4   -1.791935286450016E-1    4.462244760692771E-1
 1.010335198745000E+10  -3.646819974083708E-1    3.255830488239552E-1   -5.286785452381450E-4   -3.964328981202936E-4   -4.676047122923204E-4   -4.632616226439673E-4   -1.785067506826676E-1    4.464415454174147E-1
 1.010336375230000E+10  -3.641503832910425E-1    3.262224531100264E-1   -5.305319619296145E-4   -4.262417833355647E-4   -4.744637797947075E-4   -4.661003718688097E-4   -1.777360974207419E-1    4.469915349280298E-1
 1.010337551715000E+10  -3.638452074757352E-1    3.268759970902907E-1   -5.047451818552432E-4   -4.042113622848593E-4   -4.299467925964210E-4   -4.382483412312080E-4   -1.770622613718668E-1    4.472843012481653E-1
 1.010338728200000E+10  -3.633412813802121E-1    3.273717702978174E-1   -5.193049981830556E-4   -3.953698101543282E-4   -4.456936798058374E-4   -4.057295516764550E-4   -1.761534347597791E-1    4.475183057682640E-1
 1.010339904685000E+10  -3.628873515924459E-1    3.279610781873479E-1   -4.780998682619159E-4   -4.115927991627358E-4   -4.550475436232594E-4   -4.566484241261175E-4   -1.754714051083368E-1    4.477891981500621E-1
 1.010341081170000E+10  -3.623437879581140E-1    3.284155547460444E-1   -4.864319149115684E-4   -3.878653723228758E-4   -4.532335382473816E-4   -4.088048925158105E-4   -1.749360944283598E-1    4.482811973797072E-1
 1.010342257655000E+10  -3.620080010518508E-1    3.289291838290850E-1   -4.944793556425066E-4   -4.251686448562744E-4   -4.879461445113692E-4   -4.271148038417643E-4   -1.740799432308771E-1    4.486318779643330E-1
 1.010343434140000E+10  -3.615238348392689E-1    3.295781648770562E-1   -4.974420116377006E-4   -4.105310122862903E-4   -4.435144342138166E-4   -4.290487595036435E-4   -1.733804876287097E-1    4.487701358990436E-1
 1.010344610625000E+10  -3.610920374337511E-1    3.301303974048994E-1   -5.190691520431555E-4   -3.954201395567031E-4   -4.373025224872534E-4   -4.135184742865806E-4   -1.726429689881777E-1    4.491474385163551E-1
 1.010345787110000E+10  -3.606206316575249E-1    3.306322256290340E-1   -5.046662013124996E-4   -4.055125606339912E-4   -4.344947653367814E-4   -4.155664974849991E-4   -1.718912833121821E-1    4.495089807643237E-1
 1.010346963595000E+10  -3.601149187826319E-1    3.311698286837432E-1   -5.017583860600418E-4   -4.082232080356927E-4   -4.456700003900050E-4   -4.070946197902483E-4   -1.711974255357940E-1    4.498238789086587E-1
 1.010348140080000E+10  -3.597553342315943E-1    3.317905926214406E-1   -4.922948664205046E-4   -3.927651943959492E-4   -4.344375701780270E-4   -4.288016856756374E-4   -1.704507416278971E-1    4.501109712461163E-1
 1.010349316565000E+10  -3.592502475761259E-1    3.322506219930941E-1   -4.860905465515806E-4   -3.864804928318376E-4   -4.246864483442785E-4   -4.152218073090866E-4   -1.696287118185481E-1    4.503647062044400E-1
 1.010350493050000E+10  -3.586634846377137E-1    3.328221509714661E-1   -4.850311645649682E-4   -3.984476955782458E-4   -4.298402198057320E-4   -4.206318698472063E-4   -1.687766854336253E-1    4.507745381021617E-1
 1.010351669535000E+10  -3.584039468476781E-1    3.334122971453763E-1   -4.743784261060035E-4   -3.827438589222004E-4   -3.888002620344372E-4   -4.363306524308413E-4   -1.681190179285774E-1    4.509354486639648E-1
 1.010352846020000E+10  -3.578486957989253E-1    3.338884402326381E-1   -4.586941030684682E-4   -3.846331618585260E-4   -4.076091921055005E-4   -4.391582566130127E-4   -1.674854236251045E-1    4.513197144844467E-1
 1.010354022505000E+10  -3.574519885978628E-1    3.345667225920957E-1   -4.518688120231956E-4   -3.731202015296700E-4   -4.003145034864973E-4   -4.005283821077472E-4   -1.667274325134866E-1    4.514882611501503E-1
 1.010355198990000E+10  -3.569638668482525E-1    3.349088622525973E-1   -4.478759934787986E-4   -3.295539600082777E-4   -3.981320345188360E-4   -3.951013369649511E-4   -1.658408850503486E-1    4.518175666560762E-1
 1.010356375475000E+10  -3.564708744348420E-1    3.353805314548374E-1   -4.777976214054767E-4   -3.643029189533239E-4   -4.173685242933972E-4   -3.875609179440181E-4   -1.652452470798790E-1    4.521717565463840E-1
 1.010357551960000E+10  -3.559342851823933E-1    3.360405211424131E-1   -4.737853353466985E-4   -3.671295348373589E-4   -4.289266232398715E-4   -3.851213129813344E-4   -1.643524543721225E-1    4.526029384694295E-1
 1.010358728445000E+10  -3.555056777710421E-1    3.366847072831644E-1   -4.264765698386425E-4   -3.871369228652204E-4   -4.007747371191343E-4   -4.071206279481743E-4   -1.637113990613482E-1    4.528682875907771E-1
 1.010359904930000E+10  -3.549803491426969E-1    3.369945867460151E-1   -4.340925076976984E-4   -3.819621823409217E-4   -3.966939811078680E-4   -4.020034285564296E-4   -1.628192682019673E-1    4.529951006473309E-1
 1.010361081415000E+10  -3.544794324995663E-1    3.377304095439786E-1   -4.275608975987933E-4   -3.373983575245152E-4   -3.929800445010859E-4   -3.848687005027012E-4   -1.621274209233558E-1    4.533675741030407E-1
 1.010362257900000E+10  -3.540959506351611E-1    3.381094306180848E-1   -4.303858018079235E-4   -3.528922478894493E-4   -3.843958617172058E-4   -3.784800635348309E-4   -1.614190361549213E-1    4.535864318855779E-1
 1.010363434385000E+10  -3.536178412328164E-1    3.388137079509311E-1   -4.182751288927324E-4   -3.497119828580647E-4   -3.829283020211324E-4   -3.641116346425909E-4   -1.605805449230839E-1    4.539547044412613E-1
 1.010364610870000E+10  -3.531263082753571E-1    3.391765349266945E-1   -3.964478913547578E-4   -3.338382797998903E-4   -3.535036781653417E-4   -3.866772088513175E-4   -1.597951740700194E-1    4.542226569103694E-1
 1.010365787355000E+10  -3.527072732910418E-1    3.399303649107783E-1   -4.074161252033822E-4   -3.530710923745555E-4   -3.788164503168661E-4   -3.578385687659694E-4   -1.591026233073139E-1    4.545744837694942E-1
 1.010366963840000E+10  -3.522096623349388E-1    3.404242570404348E-1   -4.056687036032692E-4   -3.330724468715915E-4   -3.620794524333400E-4   -3.606374288634762E-4   -1.583466800176162E-1    4.547398788764614E-1
 1.010368140325000E+10  -3.517524243740316E-1    3.409775191867928E-1   -4.072122788621663E-4   -3.482434382360106E-4   -3.142985202217508E-4   -3.639494254867291E-4   -1.574746761747274E-1    4.551697881429025E-1
 1.010369316810000E+10  -3.512561965136847E-1    3.414185698332830E-1   -3.819671133327294E-4   -3.571153396319055E-4   -3.461860201512008E-4   -3.800651132553150E-4   -1.567464196231780E-1    4.552970109493765E-1
 1.010370493295000E+10  -3.508611554504673E-1    3.420154203163820E-1   -3.835000079937727E-4   -3.473756058998425E-4   -3.588302657206880E-4   -3.418887562620361E-4   -1.558931274112441E-1    4.557560177016257E-1
 1.010371669780000E+10  -3.502705668171234E-1    3.425486572146237E-1   -3.684601887288240E-4   -3.248497178580478E-4   -3.365599806511011E-4   -3.505909227698043E-4   -1.551169097158745E-1    4.558845361663037E-1
 1.010372846265000E+10  -3.498759692255439E-1    3.429608979189507E-1   -3.878315615355520E-4   -3.426040883699517E-4   -3.207487545554465E-4   -3.465399623320216E-4   -1.544937118115525E-1    4.561206513211133E-1
 1.010374022750000E+10  -3.494888185007720E-1    3.436946651336585E-1   -3.710282953287911E-4   -3.382900481592406E-4   -3.429479449716324E-4   -3.563835795570164E-4   -1.536928038063531E-1    4.564626983166963E-1
