#  HZ   S   RI   R     50.00 
! Rohde & Schwarz Vector Network Analyzer 
! Rohde-Schwarz,ZNB20-2Port,1311601062101988,3.16
! Created: UTC 3/20/2024, 4:55:05 PM
! freq[Hz]                re:S11                  im:S11                  re:S21                  im:S21                  re:S12                  im:S12                  re:S22                  im:S22
 1.010215209900000E+10  -4.060965229759665E-1    2.663900792997442E-1   -6.320580390933725E-4   -6.203899926212309E-4   -5.432809756635652E-4   -6.539392461216957E-4   -2.465963503854590E-1    4.097731393422923E-1
 1.010216595687500E+10  -4.056597739337888E-1    2.672219762136360E-1   -6.420756703751374E-4   -6.226816247051816E-4   -5.345161656098879E-4   -6.598354172662955E-4   -2.457838064917410E-1    4.102399909232222E-1
 1.010217981475000E+10  -4.053054287170780E-1    2.677998166022675E-1   -6.267344386074304E-4   -6.223028463246621E-4   -5.298619975839351E-4   -6.492369362260848E-4   -2.450823990299421E-1    4.106318006714902E-1
 1.010219367262500E+10  -4.047101101113207E-1    2.687184678300850E-1   -6.264815711420740E-4   -6.224438811011438E-4   -5.604299512826875E-4   -6.179081048548433E-4   -2.442425700979380E-1    4.111540981774642E-1
 1.010220753050000E+10  -4.045405895168045E-1    2.692464716415030E-1   -6.113489024221594E-4   -6.106714337549477E-4   -5.759305646301367E-4   -6.181672371287565E-4   -2.434962404120316E-1    4.116388351321374E-1
 1.010222138837500E+10  -4.038544596718018E-1    2.700510359208145E-1   -6.140841932420059E-4   -5.926660489118874E-4   -5.608000850761552E-4   -6.204827438066228E-4   -2.427334729530844E-1    4.122292239137854E-1
 1.010223524625000E+10  -4.034354155375982E-1    2.709418737880687E-1   -6.144734097593714E-4   -5.953900759015384E-4   -5.545967087697641E-4   -6.214510563029348E-4   -2.420704782712163E-1    4.128241106525408E-1
 1.010224910412500E+10  -4.029864069565635E-1    2.714812217434300E-1   -6.534722348351449E-4   -6.006352072748276E-4   -5.523815241636451E-4   -6.281459657754193E-4   -2.412168096190434E-1    4.131643899655435E-1
 1.010226296200000E+10  -4.025812080811111E-1    2.722778459269642E-1   -6.269009734473887E-4   -5.916628813551721E-4   -5.819353250265064E-4   -6.451946088769848E-4   -2.404620811343478E-1    4.136361510862073E-1
 1.010227681987500E+10  -4.022081722528743E-1    2.729886469502884E-1   -6.069464910408162E-4   -5.829359382103679E-4   -5.464953891122465E-4   -6.427862354266165E-4   -2.398151318111125E-1    4.141083658625785E-1
 1.010229067775000E+10  -4.017413168887916E-1    2.736286151042776E-1   -6.321351440477181E-4   -5.933539403886134E-4   -5.513781469147646E-4   -6.216350135753262E-4   -2.389342978909197E-1    4.146673023762488E-1
 1.010230453562500E+10  -4.014345501012657E-1    2.743495951502684E-1   -6.346519077274158E-4   -5.843234600344644E-4   -5.429485058546342E-4   -6.104347928775896E-4   -2.381757754805411E-1    4.151131279397985E-1
 1.010231839350000E+10  -4.007265252354084E-1    2.751111754334464E-1   -6.231843728943141E-4   -5.941208715844061E-4   -5.513829188386493E-4   -6.297985998101851E-4   -2.372878198494968E-1    4.154436612995608E-1
 1.010233225137500E+10  -4.005011580889084E-1    2.760015117873579E-1   -6.333951512802341E-4   -5.682172105334679E-4   -5.409905826984291E-4   -6.073460441802755E-4   -2.366047678811420E-1    4.161484774280270E-1
 1.010234610925000E+10  -4.000709020609848E-1    2.765170809825906E-1   -6.323750937133679E-4   -5.805268446490546E-4   -5.467606280330896E-4   -6.220897214965068E-4   -2.358579716812942E-1    4.165335275436801E-1
 1.010235996712500E+10  -3.995627406437521E-1    2.773424582664006E-1   -6.127768340982483E-4   -5.521570703666444E-4   -5.442863125361604E-4   -6.022899592200305E-4   -2.350842618909992E-1    4.171917133085432E-1
 1.010237382500000E+10  -3.989869207067458E-1    2.781556789607628E-1   -6.299347387966754E-4   -5.985949529387697E-4   -5.507562526697086E-4   -6.130494988079895E-4   -2.342047160443785E-1    4.174996994637283E-1
 1.010238768287500E+10  -3.986268849374429E-1    2.788064471668243E-1   -6.396023154375364E-4   -5.971545149828328E-4   -5.721009320141688E-4   -6.028950785809296E-4   -2.335989297294085E-1    4.179891071874530E-1
 1.010240154075000E+10  -3.982415149046879E-1    2.795074648718507E-1   -6.328905488263505E-4   -5.875979481950235E-4   -5.481607057443096E-4   -6.041764487150857E-4   -2.326775835689653E-1    4.182853102245135E-1
 1.010241539862500E+10  -3.977363879576570E-1    2.801750855901926E-1   -6.305141520422423E-4   -5.846267119506302E-4   -5.505773888283708E-4   -6.103048823927127E-4   -2.320125161738838E-1    4.188536725759606E-1
 1.010242925650000E+10  -3.973656769637720E-1    2.809365631874512E-1   -6.019311986415461E-4   -5.694741862880835E-4   -5.713224803479357E-4   -6.003848394796178E-4   -2.311894742828483E-1    4.193794023267187E-1
 1.010244311437500E+10  -3.967327493374075E-1    2.815312465164814E-1   -6.094919604853408E-4   -5.745405195848693E-4   -5.483135298457385E-4   -5.914055468765378E-4   -2.304636173771723E-1    4.199172900989593E-1
 1.010245697225000E+10  -3.964082333167225E-1    2.823506730594858E-1   -6.347227392765463E-4   -5.671839775340040E-4   -5.404042399169696E-4   -6.221695457950023E-4   -2.296397655347600E-1    4.204202058586081E-1
 1.010247083012500E+10  -3.958230468572847E-1    2.829609811076989E-1   -6.264782372295153E-4   -5.892859394473374E-4   -5.573809477449845E-4   -6.065574695001006E-4   -2.289555209103747E-1    4.209393485726359E-1
 1.010248468800000E+10  -3.954345888284947E-1    2.836431597376847E-1   -6.083104876983501E-4   -5.630657045831297E-4   -5.418524176577943E-4   -6.115296703977420E-4   -2.280738139945986E-1    4.212829451231792E-1
 1.010249854587500E+10  -3.949931337259592E-1    2.845505156549161E-1   -6.239654541755820E-4   -5.860329480302521E-4   -5.534096796143282E-4   -6.042063360557115E-4   -2.272867598814971E-1    4.218155173090261E-1
 1.010251240375000E+10  -3.945375322025725E-1    2.852236493599092E-1   -6.001169884127519E-4   -5.536304786414853E-4   -5.526292639274533E-4   -6.068168973824020E-4   -2.265061321775489E-1    4.223224704766121E-1
 1.010252626162500E+10  -3.940790461113278E-1    2.859123839761032E-1   -6.172665677663832E-4   -5.791025902902353E-4   -5.511992327007742E-4   -5.741728041495258E-4   -2.256855184708324E-1    4.227105205599365E-1
 1.010254011950000E+10  -3.936815728127368E-1    2.866983715493698E-1   -6.060043602219406E-4   -5.716340948159361E-4   -5.636760310232335E-4   -5.987865152383316E-4   -2.248008656890964E-1    4.232096445130086E-1
 1.010255397737500E+10  -3.932123278306161E-1    2.873449374789265E-1   -6.176512276893644E-4   -5.568687212145131E-4   -5.196280862958087E-4   -5.751649982346128E-4   -2.241674341108965E-1    4.236898464835340E-1
 1.010256783525000E+10  -3.926774779758014E-1    2.880980931865595E-1   -6.216698954635572E-4   -5.504502349481121E-4   -5.307853137165536E-4   -6.004804212910510E-4   -2.234018626495789E-1    4.241558494200530E-1
 1.010258169312500E+10  -3.922479434630106E-1    2.886896620765216E-1   -6.004384846966483E-4   -5.510342410841459E-4   -5.484506365332781E-4   -5.841624327676856E-4   -2.225728651689275E-1    4.244389799434583E-1
 1.010259555100000E+10  -3.917385778270339E-1    2.894779324166984E-1   -6.258129231107543E-4   -5.508833800345245E-4   -5.541752954783508E-4   -5.460254989873243E-4   -2.218256102515374E-1    4.250238231029976E-1
 1.010260940887500E+10  -3.912841757772650E-1    2.899638186234327E-1   -5.977250135405539E-4   -5.389677432402499E-4   -5.412336058909739E-4   -5.902520633216722E-4   -2.209534445260091E-1    4.254868759276222E-1
 1.010262326675000E+10  -3.908124132416607E-1    2.909302162521343E-1   -5.888835100917647E-4   -5.352407563208412E-4   -5.403036048399934E-4   -5.776032448999312E-4   -2.202391489968380E-1    4.258485754478363E-1
 1.010263712462500E+10  -3.903796849307803E-1    2.916153301460234E-1   -5.989618556070616E-4   -5.537967216564940E-4   -5.489156505769350E-4   -5.762235009005066E-4   -2.193854325356691E-1    4.262518481934756E-1
 1.010265098250000E+10  -3.898045682367013E-1    2.921976231958559E-1   -5.978827348786043E-4   -5.502860447872073E-4   -5.060377874603773E-4   -5.364889873207587E-4   -2.185679401389894E-1    4.268361490506116E-1
 1.010266484037500E+10  -3.893513955341674E-1    2.928685866134781E-1   -5.992798010914758E-4   -5.499699902127038E-4   -5.482880796572295E-4   -5.450375102670656E-4   -2.178707850818507E-1    4.273353848170069E-1
 1.010267869825000E+10  -3.888500175483987E-1    2.935231249633464E-1   -5.968527102146055E-4   -5.280578455318495E-4   -5.049970638025364E-4   -5.859281456946906E-4   -2.171479099979477E-1    4.278435142679031E-1
 1.010269255612500E+10  -3.884552117859929E-1    2.943274110016174E-1   -6.083777562862212E-4   -5.310348386581300E-4   -5.176434490890089E-4   -5.507111333962738E-4   -2.162771395243713E-1    4.282637366931616E-1
 1.010270641400000E+10  -3.879833082784093E-1    2.949448888606123E-1   -5.671251760843069E-4   -5.267097958377644E-4   -5.321862801194379E-4   -5.657687845238864E-4   -2.154810253592529E-1    4.287226665640960E-1
 1.010272027187500E+10  -3.873440477259126E-1    2.957078365723348E-1   -5.984108146289808E-4   -5.088717692457712E-4   -4.935555062279193E-4   -5.672728956912430E-4   -2.146272035510732E-1    4.290873427170048E-1
 1.010273412975000E+10  -3.870861649961800E-1    2.964200739625018E-1   -5.944303507297317E-4   -5.305366711754122E-4   -5.376699305963481E-4   -5.380670039374366E-4   -2.137537106513467E-1    4.295025166208289E-1
 1.010274798762500E+10  -3.864788771235861E-1    2.970779185153136E-1   -6.050272685599634E-4   -5.116346902344796E-4   -5.254042269794610E-4   -5.672197789119767E-4   -2.130955681480584E-1    4.299788581232172E-1
 1.010276184550000E+10  -3.859496474925833E-1    2.978422816962860E-1   -5.960451114374166E-4   -5.161401608189836E-4   -5.188626864814480E-4   -5.725177058059146E-4   -2.122199998088404E-1    4.304418869349283E-1
 1.010277570337500E+10  -3.855930340826527E-1    2.985580222175023E-1   -6.301437248386646E-4   -5.330480855532131E-4   -5.073784678780464E-4   -5.447576080554325E-4   -2.113467157419098E-1    4.307879699079620E-1
 1.010278956125000E+10  -3.851308975756428E-1    2.991697647352346E-1   -5.886911875819308E-4   -5.245871700835140E-4   -5.084339548033887E-4   -5.327427489399107E-4   -2.105900137976733E-1    4.311588267973946E-1
 1.010280341912500E+10  -3.845556479811668E-1    2.998295851509177E-1   -6.012252825250759E-4   -5.006858077657445E-4   -5.343027019415988E-4   -5.568785847030399E-4   -2.097440172262885E-1    4.316663335972172E-1
 1.010281727700000E+10  -3.840576449231448E-1    3.006029741683652E-1   -5.899937418122188E-4   -5.275167774919943E-4   -5.206559930252450E-4   -5.314753485171443E-4   -2.089785218442719E-1    4.321603028852632E-1
 1.010283113487500E+10  -3.836011055774211E-1    3.013276841498542E-1   -5.681887573801512E-4   -5.255241248634665E-4   -5.218896109067210E-4   -5.125350368688110E-4   -2.080225658643805E-1    4.326187011853128E-1
 1.010284499275000E+10  -3.831623411993574E-1    3.019044349743105E-1   -5.943484690882731E-4   -5.219228700760988E-4   -5.118232358905825E-4   -5.275014432353126E-4   -2.074080710909469E-1    4.330780915705617E-1
 1.010285885062500E+10  -3.826481530244579E-1    3.025821563805406E-1   -5.587789615899701E-4   -5.053760727708886E-4   -5.061611960190671E-4   -5.243426057196577E-4   -2.065898304150496E-1    4.334057511264102E-1
 1.010287270850000E+10  -3.821825356451101E-1    3.033346115752761E-1   -5.586777260312767E-4   -5.194832194251145E-4   -5.049723855845504E-4   -5.338459797606807E-4   -2.058111167683855E-1    4.339058964324883E-1
 1.010288656637500E+10  -3.815720364550856E-1    3.039862110921795E-1   -5.613808876662110E-4   -5.079093406556870E-4   -5.086581425022173E-4   -5.313403520008255E-4   -2.048361964297408E-1    4.343054714484438E-1
 1.010290042425000E+10  -3.811556695513549E-1    3.046561231266577E-1   -5.648306625405246E-4   -4.889874363042658E-4   -5.262704625888597E-4   -5.019930616656744E-4   -2.041052484193131E-1    4.347419529144415E-1
 1.010291428212500E+10  -3.806079304628533E-1    3.053333240449956E-1   -5.524729158184293E-4   -4.827507577432562E-4   -5.027993975197003E-4   -5.244534595022063E-4   -2.031545591599692E-1    4.350102885076473E-1
 1.010292814000000E+10  -3.801949751153312E-1    3.060388919984353E-1   -5.620169376957122E-4   -4.807435891579076E-4   -5.087365635131497E-4   -5.142589085918354E-4   -2.025284540993088E-1    4.356416032183787E-1
 1.010294199787500E+10  -3.796879227876597E-1    3.066352563147318E-1   -5.638147648949920E-4   -4.937800088779476E-4   -5.143492762930117E-4   -5.161481768247957E-4   -2.016708805061372E-1    4.359438848910135E-1
 1.010295585575000E+10  -3.791217181001447E-1    3.072719468638869E-1   -5.601709356723255E-4   -4.688274246610633E-4   -4.994063718121501E-4   -5.072184128130406E-4   -2.008505195751525E-1    4.364773135075051E-1
 1.010296971362500E+10  -3.787644706474506E-1    3.079726196988977E-1   -5.913298219715337E-4   -4.843572225268883E-4   -4.882734234157472E-4   -5.177867298178488E-4   -1.999667563232554E-1    4.367356530162046E-1
 1.010298357150000E+10  -3.781881952840158E-1    3.087226417937201E-1   -5.527769419776690E-4   -4.847805612566698E-4   -5.128669143782799E-4   -5.084613357473592E-4   -1.991680915938471E-1    4.371982735300719E-1
 1.010299742937500E+10  -3.776481979393499E-1    3.095020673288685E-1   -5.572516798025541E-4   -4.583065004167093E-4   -5.115356203180112E-4   -5.129565227719549E-4   -1.982745906162225E-1    4.376490511383885E-1
 1.010301128725000E+10  -3.772143334517612E-1    3.100184053226892E-1   -5.399221136781924E-4   -4.966445572829327E-4   -4.880019040657720E-4   -5.224531649457581E-4   -1.974119517162144E-1    4.381166314503678E-1
 1.010302514512500E+10  -3.767581770300444E-1    3.106911680855006E-1   -5.527334118844278E-4   -4.382975463179659E-4   -4.800165975909369E-4   -4.757983056467133E-4   -1.966320049487437E-1    4.386041969376743E-1
 1.010303900300000E+10  -3.761729826935413E-1    3.114789975163125E-1   -5.529501331981801E-4   -4.711446777485981E-4   -4.932064427273482E-4   -5.183495759150615E-4   -1.959331029786268E-1    4.388911978225650E-1
 1.010305286087500E+10  -3.755639476118833E-1    3.121012761485570E-1   -5.437082654896520E-4   -4.483071432888244E-4   -4.680385414806776E-4   -4.816301613318551E-4   -1.949652727688753E-1    4.392652939608439E-1
 1.010306671875000E+10  -3.751244519798915E-1    3.127338076595796E-1   -5.551079145196964E-4   -4.545928780080566E-4   -5.015717444038872E-4   -4.889796523885207E-4   -1.941537919343453E-1    4.397540091185655E-1
 1.010308057662500E+10  -3.746862609485001E-1    3.134177731841840E-1   -5.407446885290277E-4   -4.688572491267287E-4   -4.926980151902542E-4   -5.042258118681278E-4   -1.933559495395703E-1    4.400780190344624E-1
 1.010309443450000E+10  -3.740861514657620E-1    3.140700392189925E-1   -5.418933883050444E-4   -4.438230639152245E-4   -4.876025683759239E-4   -5.129721135947853E-4   -1.924994378935638E-1    4.404606309485086E-1
 1.010310829237500E+10  -3.736929234999529E-1    3.148934142464800E-1   -5.330004682661758E-4   -4.553271760045975E-4   -4.659214795297836E-4   -4.908314817343996E-4   -1.915490071289189E-1    4.408576862956374E-1
 1.010312215025000E+10  -3.731289127302870E-1    3.155263277376726E-1   -5.272001765278172E-4   -4.788923257105907E-4   -4.862328102267780E-4   -4.753499444297573E-4   -1.907880754101347E-1    4.411835172581848E-1
 1.010313600812500E+10  -3.727361602596446E-1    3.162604169933120E-1   -5.396674272933735E-4   -4.421522216825445E-4   -4.728728702967381E-4   -4.537662841100361E-4   -1.899463178267450E-1    4.417236721419674E-1
 1.010314986600000E+10  -3.721377073851417E-1    3.167698187158244E-1   -5.311482215285437E-4   -4.335033180826709E-4   -4.617436127620402E-4   -4.677553452678671E-4   -1.891047175057364E-1    4.420976443534132E-1
 1.010316372387500E+10  -3.716367634318597E-1    3.173926942229601E-1   -4.942504576549559E-4   -4.541968920859766E-4   -4.490056412970728E-4   -4.609351497000133E-4   -1.882153516663655E-1    4.424436411191913E-1
 1.010317758175000E+10  -3.711004042893711E-1    3.182487309423420E-1   -5.200827948942173E-4   -4.220474854895114E-4   -4.619150608036767E-4   -4.676510103094776E-4   -1.873893007052348E-1    4.427745231279270E-1
 1.010319143962500E+10  -3.705952350137704E-1    3.189744053342304E-1   -5.423429434832249E-4   -4.368630686941673E-4   -4.679488826365207E-4   -4.809154312116315E-4   -1.865527253174082E-1    4.431640480218840E-1
 1.010320529750000E+10  -3.701523219500438E-1    3.194326371934395E-1   -4.955245797159606E-4   -4.480869723179238E-4   -4.496666207347487E-4   -4.521671448732155E-4   -1.857094331394699E-1    4.436004394177986E-1
 1.010321915537500E+10  -3.694931132828095E-1    3.202865804891740E-1   -5.077379420757412E-4   -4.194291187498238E-4   -4.567504815632933E-4   -4.616436176248215E-4   -1.847536234884336E-1    4.440093748881548E-1
 1.010323301325000E+10  -3.690312807696128E-1    3.208898721227181E-1   -5.162176180093425E-4   -4.416573901448827E-4   -4.556265268877587E-4   -4.639101004259410E-4   -1.840534932623523E-1    4.444452612743645E-1
 1.010324687112500E+10  -3.684409893109521E-1    3.215336585940431E-1   -5.067003598945631E-4   -4.339137143578180E-4   -4.358681456667854E-4   -4.359690318178081E-4   -1.830886551822504E-1    4.447884470737800E-1
 1.010326072900000E+10  -3.680818636988585E-1    3.221229553297074E-1   -5.017927831025760E-4   -4.651910014859250E-4   -4.679313891639507E-4   -4.391878319232481E-4   -1.823230329960870E-1    4.452532344948016E-1
 1.010327458687500E+10  -3.675108063150707E-1    3.228232131670082E-1   -5.111311785531132E-4   -4.047255979744928E-4   -4.603091265917196E-4   -4.374774380065627E-4   -1.814530709205786E-1    4.455580808170204E-1
 1.010328844475000E+10  -3.668705448750033E-1    3.234632100731662E-1   -4.858710820931590E-4   -4.032130080715284E-4   -4.199616549455877E-4   -4.692137929368492E-4   -1.805032672470811E-1    4.458698511046317E-1
 1.010330230262500E+10  -3.663747976928464E-1    3.241385516305021E-1   -4.913329078977703E-4   -4.320350770115705E-4   -4.197205141605208E-4   -4.440613008171602E-4   -1.798225018546626E-1    4.462369758705143E-1
 1.010331616050000E+10  -3.657500539573194E-1    3.247592650376711E-1   -4.499694138244274E-4   -4.094200321745338E-4   -4.336281370164563E-4   -4.355030392914017E-4   -1.788407090144934E-1    4.466822151803370E-1
 1.010333001837500E+10  -3.652889626563926E-1    3.254595346002462E-1   -4.414314189532019E-4   -3.832393830781358E-4   -3.904069492927662E-4   -4.300278063588455E-4   -1.779431120577037E-1    4.471188066330440E-1
 1.010334387625000E+10  -3.647472681329637E-1    3.260779200928944E-1   -4.459854844256800E-4   -3.968238662423247E-4   -3.886266516636748E-4   -4.324847659854494E-4   -1.770711845258044E-1    4.474727872386557E-1
 1.010335773412500E+10  -3.642110567817550E-1    3.267008569170891E-1   -4.294216349909705E-4   -4.257577938089970E-4   -3.960036821794616E-4   -4.433991702906483E-4   -1.762220583739895E-1    4.477548855583531E-1
 1.010337159200000E+10  -3.638495755757998E-1    3.274372971680301E-1   -4.548874658746776E-4   -4.123689437385777E-4   -4.375780861558275E-4   -4.221368012170444E-4   -1.752952696973220E-1    4.480795488696305E-1
 1.010338544987500E+10  -3.632545455586474E-1    3.280774982259728E-1   -4.622143748096346E-4   -4.194080353215283E-4   -4.001336857135797E-4   -4.154702709973426E-4   -1.745261620704579E-1    4.485728790147925E-1
 1.010339930775000E+10  -3.627655405069443E-1    3.286389770200110E-1   -4.406549890194402E-4   -4.352884043635363E-4   -4.043530471889629E-4   -4.089286937077555E-4   -1.736243665982055E-1    4.488596920703452E-1
