#  HZ   S   RI   R     50.00 
! Rohde & Schwarz Vector Network Analyzer 
! Rohde-Schwarz,ZNB20-2Port,1311601062101988,3.16
! Created: UTC 3/20/2024, 5:10:59 PM
! freq[Hz]                re:S11                  im:S11                  re:S21                  im:S21                  re:S12                  im:S12                  re:S22                  im:S22
 1.010301704200000E+10  -3.773366194339406E-1    3.094596925344109E-1   -6.511955633380281E-4   -4.922095307029533E-4   -5.321564276519779E-4   -5.123413012804093E-4   -1.989308999671188E-1    4.369911060158456E-1
 1.010302728490000E+10  -3.769434487584289E-1    3.100408733888859E-1   -6.183121060015980E-4   -4.683746824282599E-4   -5.317383557306645E-4   -5.068325564102830E-4   -1.981399207093028E-1    4.374744963170915E-1
 1.010303752780000E+10  -3.765026784590967E-1    3.104680854261415E-1   -5.745008343747706E-4   -4.781794581286368E-4   -5.286143309473274E-4   -5.178270649592965E-4   -1.978163563630834E-1    4.377250996646295E-1
 1.010304777070000E+10  -3.761968995316898E-1    3.109586076145735E-1   -6.107071484462026E-4   -4.661114750686691E-4   -5.383318909833979E-4   -5.064603587420556E-4   -1.969361090557791E-1    4.380443978323574E-1
 1.010305801360000E+10  -3.758092083193731E-1    3.114566974643792E-1   -5.948805777302867E-4   -4.968859048929717E-4   -5.393246644355502E-4   -5.120029622042857E-4   -1.963506596596959E-1    4.383082073664969E-1
 1.010306825650000E+10  -3.753037979587284E-1    3.120521405487792E-1   -6.037258575075086E-4   -4.672708083662560E-4   -5.243222151341537E-4   -5.096207227027179E-4   -1.957826395116860E-1    4.386427089641061E-1
 1.010307849940000E+10  -3.750269486888703E-1    3.125023368745512E-1   -6.038759855749657E-4   -4.628762672574606E-4   -5.264512460792487E-4   -5.062171529735072E-4   -1.952294907966018E-1    4.390876295490959E-1
 1.010308874230000E+10  -3.747260009982382E-1    3.129944846671064E-1   -5.875476037609034E-4   -4.753807889906877E-4   -5.356075935785150E-4   -4.838441154273142E-4   -1.946292737781867E-1    4.394408695849007E-1
 1.010309898520000E+10  -3.742848048966330E-1    3.134040096635638E-1   -6.008168678754130E-4   -4.672371854899209E-4   -5.038846306067140E-4   -4.882350305859566E-4   -1.940909424842124E-1    4.394485118170967E-1
 1.010310922810000E+10  -3.739938530222129E-1    3.140110307782938E-1   -5.769713817660153E-4   -5.012613329086434E-4   -5.157483861524332E-4   -5.078969624267939E-4   -1.934797107244008E-1    4.397604723515231E-1
 1.010311947100000E+10  -3.734722460721356E-1    3.144092828797182E-1   -5.789986200971478E-4   -4.382656032111912E-4   -5.411407119573537E-4   -4.687741448598616E-4   -1.927140022769295E-1    4.401580683709563E-1
 1.010312971390000E+10  -3.731577485389352E-1    3.149135047072111E-1   -5.746189971217282E-4   -4.574373315800403E-4   -5.015507333707929E-4   -4.852144988265448E-4   -1.922033553167274E-1    4.403777017869556E-1
 1.010313995680000E+10  -3.726735319418039E-1    3.154278559071231E-1   -5.891166315919411E-4   -4.414424721942629E-4   -5.151795710954462E-4   -4.907025937249529E-4   -1.914095264990671E-1    4.408796529027584E-1
 1.010315019970000E+10  -3.723405045989268E-1    3.158965215010674E-1   -5.677163673061051E-4   -4.554986226299975E-4   -5.221023485868834E-4   -4.842698819569416E-4   -1.909366097097672E-1    4.411317201850502E-1
 1.010316044260000E+10  -3.720473751298778E-1    3.164607136848560E-1   -5.716232933179379E-4   -4.610058496400094E-4   -5.181010605200265E-4   -4.784582531791277E-4   -1.903456376355941E-1    4.412799979873256E-1
 1.010317068550000E+10  -3.717332251638027E-1    3.169258671025841E-1   -5.677743788762739E-4   -4.646934892765337E-4   -5.322013792539225E-4   -4.818286849499105E-4   -1.896521638883002E-1    4.416646555838930E-1
 1.010318092840000E+10  -3.712831648694442E-1    3.173717248061401E-1   -5.658111124561668E-4   -4.605817494302373E-4   -5.049233970639077E-4   -4.863811569440605E-4   -1.890476335105539E-1    4.419005944453535E-1
 1.010319117130000E+10  -3.708370594262227E-1    3.179231332492711E-1   -5.690805085790369E-4   -4.608363178800251E-4   -5.029147642584724E-4   -4.733861321121374E-4   -1.884538901736534E-1    4.421087783614823E-1
 1.010320141420000E+10  -3.703799722128385E-1    3.183644126724633E-1   -5.546737871983226E-4   -4.403233721300034E-4   -5.151047310373750E-4   -4.968772885545939E-4   -1.877558847851798E-1    4.423728030772373E-1
 1.010321165710000E+10  -3.699884480874117E-1    3.187889282433203E-1   -6.051203160771753E-4   -4.486880912984413E-4   -5.021110229090512E-4   -4.665756320221905E-4   -1.872528680904058E-1    4.427280327022717E-1
 1.010322190000000E+10  -3.696842825822373E-1    3.193005215710408E-1   -5.561024174648983E-4   -4.828364857424010E-4   -5.092533993345902E-4   -4.390074457962988E-4   -1.866783170547517E-1    4.430857723922598E-1
 1.010323214290000E+10  -3.693602856230087E-1    3.198154699359871E-1   -5.834951925512532E-4   -4.381449964233160E-4   -5.249302701460321E-4   -4.509581770091188E-4   -1.858979822842228E-1    4.434257645317205E-1
 1.010324238580000E+10  -3.689543077421101E-1    3.205133319031139E-1   -5.671817909033219E-4   -4.494050478363304E-4   -4.971361926380081E-4   -4.475121830727853E-4   -1.853009688340315E-1    4.436160102092300E-1
 1.010325262870000E+10  -3.685294936733347E-1    3.208248035668312E-1   -5.661328316659722E-4   -4.269446167418341E-4   -4.862750422709923E-4   -4.589526156829096E-4   -1.847217828437990E-1    4.439343835284088E-1
 1.010326287160000E+10  -3.681475906432590E-1    3.214002178803741E-1   -5.834908057741679E-4   -4.139867275707035E-4   -4.811384616806027E-4   -4.858924549561818E-4   -1.841264427722026E-1    4.441889597053971E-1
 1.010327311450000E+10  -3.678155220952916E-1    3.217908973548989E-1   -5.915553732263068E-4   -4.433736004486212E-4   -5.080218223022034E-4   -4.776088532951458E-4   -1.835503139639665E-1    4.444515126902144E-1
 1.010328335740000E+10  -3.673405713326228E-1    3.223679824977499E-1   -5.611734235680284E-4   -4.234538894362074E-4   -4.837915237389059E-4   -4.448152227459008E-4   -1.827702865582808E-1    4.447758211468654E-1
 1.010329360030000E+10  -3.671626705067367E-1    3.228203420984694E-1   -5.511652743805785E-4   -4.332408229118563E-4   -5.242999164268550E-4   -4.387413504456604E-4   -1.821590166170603E-1    4.450897311358587E-1
 1.010330384320000E+10  -3.666593309951368E-1    3.233655559286287E-1   -5.648103523100054E-4   -4.404071087001783E-4   -4.937006563377129E-4   -4.561429354028262E-4   -1.816714604919634E-1    4.455055992408041E-1
 1.010331408610000E+10  -3.662151635289486E-1    3.237289776874339E-1   -5.683975515205065E-4   -4.276702720871678E-4   -4.938043968366203E-4   -4.631414484658685E-4   -1.809837033217324E-1    4.456569706015324E-1
 1.010332432900000E+10  -3.656984457539574E-1    3.243903359290765E-1   -5.566774407397445E-4   -4.230781991860073E-4   -4.965208404398822E-4   -4.291331891363388E-4   -1.802480494137607E-1    4.457943919863445E-1
 1.010333457190000E+10  -3.655026914087268E-1    3.246887570068078E-1   -5.213481434209231E-4   -4.110087550888129E-4   -5.096639360428611E-4   -4.440455445991954E-4   -1.797263348008995E-1    4.461970063830069E-1
 1.010334481480000E+10  -3.650697703168294E-1    3.252379872542812E-1   -5.267267128231261E-4   -3.988985030313342E-4   -4.996128611430050E-4   -4.654485819155191E-4   -1.791391131365479E-1    4.465377804522143E-1
 1.010335505770000E+10  -3.646775060385130E-1    3.257002993828637E-1   -5.525632518926301E-4   -3.986724497927588E-4   -4.660601238451998E-4   -4.356979294395991E-4   -1.784608883111575E-1    4.467830009967513E-1
 1.010336530060000E+10  -3.642315018809841E-1    3.261187754604603E-1   -5.349618428475008E-4   -4.322165966831991E-4   -4.704933125447228E-4   -4.459431695665586E-4   -1.778865258304959E-1    4.470284284440827E-1
 1.010337554350000E+10  -3.638267363845601E-1    3.266421235655101E-1   -5.161834806080731E-4   -4.128067391340848E-4   -4.756178547018042E-4   -4.302102837538975E-4   -1.773907200911689E-1    4.472482516768868E-1
 1.010338578640000E+10  -3.634617891698393E-1    3.271673043418476E-1   -5.176036338407781E-4   -3.892977723038296E-4   -4.882999991865565E-4   -4.401183313238750E-4   -1.765650186330757E-1    4.476342154956819E-1
 1.010339602930000E+10  -3.631585363962986E-1    3.276898260264253E-1   -5.189260475117663E-4   -4.131780960609446E-4   -4.874736354009802E-4   -4.299281767133160E-4   -1.759187778622845E-1    4.478141145935153E-1
 1.010340627220000E+10  -3.626567389584168E-1    3.281056926430828E-1   -5.223601740218064E-4   -4.255282290530641E-4   -4.707985049900850E-4   -4.222191655770659E-4   -1.752793663648902E-1    4.481409870705609E-1
 1.010341651510000E+10  -3.621662406422143E-1    3.287907071639828E-1   -5.347465111908788E-4   -4.101042857323240E-4   -4.746489709380666E-4   -4.268819705509414E-4   -1.746902578720063E-1    4.484386197965322E-1
 1.010342675800000E+10  -3.618440248479540E-1    3.289844878130192E-1   -5.218289084974538E-4   -4.071910889002062E-4   -4.613311694526561E-4   -4.301252574034061E-4   -1.739247564486054E-1    4.486561117279738E-1
 1.010343700090000E+10  -3.615265163542253E-1    3.296845993062473E-1   -5.103695064064218E-4   -3.958947220074372E-4   -4.676969458169245E-4   -4.310592006291143E-4   -1.734691992643992E-1    4.489500186075893E-1
 1.010344724380000E+10  -3.610508479550882E-1    3.301481007013890E-1   -5.526169510746750E-4   -4.219649407722828E-4   -4.706784615611675E-4   -4.153746892390219E-4   -1.727013519363161E-1    4.492275081530714E-1
 1.010345748670000E+10  -3.607156616939389E-1    3.305168593981785E-1   -5.327829365414473E-4   -3.841580449897287E-4   -4.606638827308886E-4   -4.607823638238657E-4   -1.720242869721319E-1    4.494322992134064E-1
 1.010346772960000E+10  -3.604272495510742E-1    3.309590371226264E-1   -5.036035015595014E-4   -3.782065268543610E-4   -4.519842547097552E-4   -4.238117961338104E-4   -1.715377152333012E-1    4.495999837170890E-1
 1.010347797250000E+10  -3.598759506550723E-1    3.314674405984568E-1   -5.279470542474320E-4   -4.070369707597826E-4   -4.303667083382571E-4   -4.109121425004891E-4   -1.708735898786659E-1    4.501397092662044E-1
 1.010348821540000E+10  -3.595670418476501E-1    3.319510561587361E-1   -5.126395695523610E-4   -3.913226426992728E-4   -4.352469270094915E-4   -4.498055455213699E-4   -1.701768077752052E-1    4.504190857953649E-1
 1.010349845830000E+10  -3.591123060606355E-1    3.324366965198460E-1   -5.197181563057973E-4   -3.980508370789317E-4   -4.608336900715923E-4   -3.953123485999089E-4   -1.695853888763531E-1    4.504655944799609E-1
 1.010350870120000E+10  -3.586977764547274E-1    3.330389581601318E-1   -5.111387461586225E-4   -3.568300274734747E-4   -4.487203885985571E-4   -4.215041097821599E-4   -1.688696305367856E-1    4.507604238072631E-1
 1.010351894410000E+10  -3.581899732286103E-1    3.333487677178432E-1   -4.776731784015330E-4   -4.025755279235344E-4   -4.461589740645208E-4   -4.071107852401551E-4   -1.681278380657965E-1    4.511399641936091E-1
 1.010352918700000E+10  -3.579136534080659E-1    3.337933193805385E-1   -4.765164220493129E-4   -3.809183847412034E-4   -4.307948452482334E-4   -4.155276734058873E-4   -1.675784564097854E-1    4.514243266053613E-1
 1.010353942990000E+10  -3.574919979132833E-1    3.343720466369854E-1   -4.652625592117681E-4   -3.681689842090141E-4   -4.419314546412747E-4   -3.947885453979731E-4   -1.669561321841412E-1    4.515939441728932E-1
 1.010354967280000E+10  -3.570799914393938E-1    3.348193982251685E-1   -4.911754079231584E-4   -3.671779336571959E-4   -4.475094555897580E-4   -4.100181598941313E-4   -1.662166613598380E-1    4.519539861412090E-1
 1.010355991570000E+10  -3.567055914992228E-1    3.352924656705882E-1   -4.659913421929858E-4   -3.730095887540792E-4   -4.670256260542028E-4   -3.907704763611497E-4   -1.656662488188435E-1    4.521888190444797E-1
 1.010357015860000E+10  -3.562650059026589E-1    3.358220282468780E-1   -4.895182941055416E-4   -3.775508028481291E-4   -4.567975448651014E-4   -3.825464679434364E-4   -1.649180323293866E-1    4.524819181358800E-1
 1.010358040150000E+10  -3.557167249323320E-1    3.362657763741500E-1   -4.678341576016546E-4   -3.554946247988790E-4   -4.083325486296487E-4   -4.028236745858860E-4   -1.643400146681313E-1    4.525959418891760E-1
 1.010359064440000E+10  -3.554202812742634E-1    3.367907092202898E-1   -4.791400692487522E-4   -3.571707305849812E-4   -4.185267357395671E-4   -3.730844273385849E-4   -1.636379044490947E-1    4.529898174183714E-1
 1.010360088730000E+10  -3.550162330279789E-1    3.373028348211585E-1   -4.797581461362541E-4   -3.642570511016753E-4   -4.262983871509576E-4   -3.720732023793847E-4   -1.630146598458825E-1    4.531335019102800E-1
 1.010361113020000E+10  -3.546661459309789E-1    3.376335597222000E-1   -4.440159243891201E-4   -3.677942956301218E-4   -4.279621895485248E-4   -3.983181605393161E-4   -1.623800611681502E-1    4.535159729221065E-1
 1.010362137310000E+10  -3.541436129309480E-1    3.382147402795374E-1   -4.607886437615731E-4   -3.636688705278171E-4   -4.116336933208624E-4   -4.025958302864176E-4   -1.616790392577715E-1    4.537992523104792E-1
 1.010363161600000E+10  -3.538290428042193E-1    3.386252839878572E-1   -4.662663942716462E-4   -3.648802315850986E-4   -4.011195371225620E-4   -3.786649034559099E-4   -1.610469248683962E-1    4.538855571426980E-1
 1.010364185890000E+10  -3.534729078856424E-1    3.391155440133791E-1   -4.360714709373863E-4   -3.682458961295996E-4   -3.986624382635328E-4   -3.785509010475675E-4   -1.603473656184314E-1    4.542452828829063E-1
 1.010365210180000E+10  -3.530199314428597E-1    3.395532657558725E-1   -4.612043717032477E-4   -3.572088977940683E-4   -4.082441118876375E-4   -3.867629300114719E-4   -1.597063481450434E-1    4.543906824835340E-1
 1.010366234470000E+10  -3.526369449562648E-1    3.400062759445223E-1   -4.378210104841946E-4   -3.704249340994098E-4   -4.062713846640828E-4   -3.696337560137512E-4   -1.590217458406732E-1    4.546459294963833E-1
 1.010367258760000E+10  -3.521707655344564E-1    3.405662855557012E-1   -4.418084385796324E-4   -3.653512746796872E-4   -4.047318734699064E-4   -3.556674610705058E-4   -1.583101378122183E-1    4.549512463794603E-1
 1.010368283050000E+10  -3.515935966064925E-1    3.410084213152041E-1   -4.381006517082663E-4   -3.401802178380896E-4   -3.763550785814021E-4   -3.522809317539460E-4   -1.576124929843071E-1    4.551263117360907E-1
 1.010369307340000E+10  -3.513490076275744E-1    3.414664331578067E-1   -4.380331568116410E-4   -3.255150975662316E-4   -3.631697323383502E-4   -3.765176316279253E-4   -1.569503691666981E-1    4.554933600810476E-1
 1.010370331630000E+10  -3.509684757111725E-1    3.418473663977054E-1   -4.232267103536027E-4   -3.363959528739887E-4   -3.682052504865923E-4   -3.590566679433608E-4   -1.564931244723130E-1    4.556382923415607E-1
 1.010371355920000E+10  -3.504800277210358E-1    3.423744920185876E-1   -4.432063407007263E-4   -3.601329866945571E-4   -3.607898558881586E-4   -3.566833727145946E-4   -1.557931822543324E-1    4.558906768359362E-1
 1.010372380210000E+10  -3.500071448300003E-1    3.428547012025679E-1   -4.107496767613834E-4   -3.514539809632417E-4   -3.686313638900284E-4   -3.309053785849031E-4   -1.551783896478271E-1    4.562111323285624E-1
 1.010373404500000E+10  -3.496808597489580E-1    3.433635403872770E-1   -4.065950848115274E-4   -3.263853909353861E-4   -3.653138285960856E-4   -3.841249737132148E-4   -1.544211426968347E-1    4.565628891636612E-1
 1.010374428790000E+10  -3.493148811996763E-1    3.438181795306547E-1   -4.084847366611563E-4   -3.090743508816967E-4   -3.710335915756654E-4   -3.603754691907030E-4   -1.537250132167494E-1    4.567347866970155E-1
 1.010375453080000E+10  -3.489347610376517E-1    3.442427354638122E-1   -3.912472562517103E-4   -3.487345203284643E-4   -3.511703107826738E-4   -3.535612506641103E-4   -1.529037136877635E-1    4.570201489518114E-1
 1.010376477370000E+10  -3.483960722415060E-1    3.447003113429724E-1   -4.059214938599100E-4   -3.120381829102922E-4   -3.576477793177988E-4   -3.274532865650023E-4   -1.523915207211791E-1    4.570860714207197E-1
 1.010377501660000E+10  -3.480818622783031E-1    3.450287456350952E-1   -3.984649421099343E-4   -3.369076289178713E-4   -3.452274007434603E-4   -3.570570401811993E-4   -1.517799440580452E-1    4.573246210783771E-1
 1.010378525950000E+10  -3.477111037433080E-1    3.455106017116820E-1   -3.983332424708589E-4   -3.473016826428851E-4   -3.489351205247684E-4   -3.513634195133374E-4   -1.509583159890105E-1    4.575513989789743E-1
 1.010379550240000E+10  -3.473174082170182E-1    3.459917878699321E-1   -3.824510719527106E-4   -3.229562767638760E-4   -3.440712243026058E-4   -3.628081150568132E-4   -1.502707493783027E-1    4.579448482716395E-1
 1.010380574530000E+10  -3.468061603359223E-1    3.466160816257114E-1   -3.520460066513323E-4   -3.011652531341157E-4   -3.269536007181602E-4   -3.165483927369306E-4   -1.496750797944991E-1    4.581751278441253E-1
 1.010381598820000E+10  -3.464580481217214E-1    3.469711601436088E-1   -3.502364473842173E-4   -3.194425739929720E-4   -3.047100771881272E-4   -3.226084119556810E-4   -1.489930986249186E-1    4.584483975070841E-1
 1.010382623110000E+10  -3.457348105546759E-1    3.474445400378136E-1   -3.607205929742641E-4   -3.269677800180569E-4   -3.278836804910713E-4   -3.208270061787828E-4   -1.481549463047342E-1    4.585351339890173E-1
 1.010383647400000E+10  -3.456407926855082E-1    3.479666261728436E-1   -3.536413516615079E-4   -3.187032606929845E-4   -3.258742643953925E-4   -3.129082432363751E-4   -1.475566469186226E-1    4.588576020759595E-1
 1.010384671690000E+10  -3.450531190442225E-1    3.484303880478149E-1   -3.450328000329590E-4   -3.017762359875070E-4   -3.066211319059256E-4   -3.193076045656742E-4   -1.468823540281100E-1    4.590560663094353E-1
 1.010385695980000E+10  -3.446435697911048E-1    3.488471537680629E-1   -3.314333457298075E-4   -2.936092133154655E-4   -3.091444152146491E-4   -3.270335823603581E-4   -1.462394853591511E-1    4.593043974562018E-1
 1.010386720270000E+10  -3.442137561596124E-1    3.492819918990941E-1   -3.284874091228293E-4   -3.244883697124300E-4   -3.027171928478489E-4   -3.105176414129267E-4   -1.455541340019945E-1    4.595614192882527E-1
 1.010387744560000E+10  -3.436905889393587E-1    3.497812960776387E-1   -3.402567834103413E-4   -3.083554030684782E-4   -2.742870755004073E-4   -3.333508028726041E-4   -1.448285170837459E-1    4.598595069624076E-1
 1.010388768850000E+10  -3.435323326849671E-1    3.500998579436842E-1   -3.194436008979623E-4   -2.986693944643952E-4   -2.710364426065390E-4   -3.177756694335618E-4   -1.440508794654865E-1    4.599197659003670E-1
 1.010389793140000E+10  -3.430166484504130E-1    3.505810242845391E-1   -2.853168167626791E-4   -3.164483307850625E-4   -2.807086453758393E-4   -3.180416830736666E-4   -1.433498490329935E-1    4.602605694720627E-1
 1.010390817430000E+10  -3.425963149430326E-1    3.509981249510916E-1   -3.054897324463988E-4   -2.966971670549338E-4   -2.702309242698490E-4   -2.927782214269630E-4   -1.427491668182949E-1    4.603891305630775E-1
 1.010391841720000E+10  -3.422453818117482E-1    3.514665602836944E-1   -2.991355003990304E-4   -2.835733658543182E-4   -2.723352331254898E-4   -3.067363232918443E-4   -1.421255869432085E-1    4.607325663192607E-1
 1.010392866010000E+10  -3.417081436906825E-1    3.520293164614334E-1   -2.817017052544845E-4   -2.897093269372174E-4   -2.755331811849847E-4   -3.040095850987782E-4   -1.413331018988612E-1    4.609875327807825E-1
 1.010393890300000E+10  -3.413528826270307E-1    3.524265922886008E-1   -2.842342574117689E-4   -2.802768403560009E-4   -2.500053896301015E-4   -2.966039255863219E-4   -1.407298366113647E-1    4.611349733563261E-1
