#  HZ   S   RI   R     50.00 
! Rohde & Schwarz Vector Network Analyzer 
! Rohde-Schwarz,ZNB20-2Port,1311601062101988,3.16
! Created: UTC 3/20/2024, 5:11:01 PM
! freq[Hz]                re:S11                  im:S11                  re:S21                  im:S21                  re:S12                  im:S12                  re:S22                  im:S22
 1.010301900400000E+10  -3.772851053119856E-1    3.095492154413310E-1   -6.037905615928847E-4   -5.141839800576579E-4   -5.506186887722806E-4   -5.096457198508255E-4   -1.987635269288398E-1    4.371484223558751E-1
 1.010302924915000E+10  -3.768608283650895E-1    3.100095571837544E-1   -5.799510862146799E-4   -4.885197637394662E-4   -5.224879891380039E-4   -5.158056653639945E-4   -1.981867435001177E-1    4.374770823038691E-1
 1.010303949430000E+10  -3.766674282470819E-1    3.105520984560020E-1   -6.079148021950568E-4   -4.801959500803090E-4   -5.281307535643583E-4   -5.164882792351743E-4   -1.976460640552865E-1    4.378200111240972E-1
 1.010304973945000E+10  -3.760419452465635E-1    3.110744918899007E-1   -5.929099414480707E-4   -4.493168550798145E-4   -5.654784703102438E-4   -5.039224297706319E-4   -1.969685690870342E-1    4.381173215964527E-1
 1.010305998460000E+10  -3.756759297029115E-1    3.115755782819387E-1   -6.038456721624156E-4   -4.891212509274395E-4   -5.349569600633554E-4   -5.013463471644721E-4   -1.964589411605291E-1    4.383757183526294E-1
 1.010307022975000E+10  -3.754117094257320E-1    3.120600767557279E-1   -6.097117161730026E-4   -4.639594420749115E-4   -5.198292209526472E-4   -5.215146711588419E-4   -1.957688093814700E-1    4.386961603357198E-1
 1.010308047490000E+10  -3.749364029962073E-1    3.125103819620554E-1   -5.766085616768040E-4   -4.847790939544028E-4   -5.326237118223294E-4   -4.952158430753678E-4   -1.951972325079034E-1    4.388288736482837E-1
 1.010309072005000E+10  -3.745595177851123E-1    3.130985304649319E-1   -5.953604386846295E-4   -4.814656180265878E-4   -5.280125757877115E-4   -4.903728285546419E-4   -1.945168331013136E-1    4.391211182375351E-1
 1.010310096520000E+10  -3.741805589145106E-1    3.134903902695073E-1   -6.028921981144710E-4   -4.833769281943565E-4   -5.264485010395017E-4   -4.987908171378202E-4   -1.938961663465530E-1    4.394697871446485E-1
 1.010311121035000E+10  -3.739122111600856E-1    3.140943026066422E-1   -5.797402460811340E-4   -4.637525796343426E-4   -5.186417592942525E-4   -5.163438629765166E-4   -1.933395330722999E-1    4.398719293578220E-1
 1.010312145550000E+10  -3.734968303397131E-1    3.146420853354576E-1   -6.000916946072176E-4   -4.688680555640272E-4   -5.014759941795955E-4   -5.139330200245786E-4   -1.927108426253422E-1    4.402133090435610E-1
 1.010313170065000E+10  -3.730535721036871E-1    3.150351820078660E-1   -5.696086599927485E-4   -4.645437480165364E-4   -5.512254298441965E-4   -5.003244981740863E-4   -1.920978024715135E-1    4.403354796609147E-1
 1.010314194580000E+10  -3.727340668536774E-1    3.155231612000848E-1   -5.914631022779748E-4   -4.466565142164731E-4   -5.194029925797038E-4   -4.870019238685912E-4   -1.913186994309820E-1    4.408981926539653E-1
 1.010315219095000E+10  -3.722197898810571E-1    3.160412502584597E-1   -5.706852504665785E-4   -4.353245775208804E-4   -5.108953166245100E-4   -4.839786683988037E-4   -1.907765674094073E-1    4.411053822317831E-1
 1.010316243610000E+10  -3.719214909542262E-1    3.165460044008810E-1   -5.804954545597482E-4   -4.500261886151441E-4   -5.210121964700106E-4   -4.926987470966009E-4   -1.902520646012600E-1    4.414416424770721E-1
 1.010317268125000E+10  -3.716534597028115E-1    3.170682165224065E-1   -5.969784924900799E-4   -4.586048909844712E-4   -5.132983890700697E-4   -4.699045162527529E-4   -1.896878208082943E-1    4.417570117017411E-1
 1.010318292640000E+10  -3.712018048520456E-1    3.174848264574304E-1   -6.022172709641741E-4   -4.352319145052523E-4   -5.356989744376823E-4   -4.684195527186455E-4   -1.890639152704640E-1    4.420039590928987E-1
 1.010319317155000E+10  -3.708663136600340E-1    3.181059253976920E-1   -5.645019464366514E-4   -4.649946837111144E-4   -5.381607794025005E-4   -4.708612525302431E-4   -1.883127871242588E-1    4.421694708985362E-1
 1.010320341670000E+10  -3.704821516468669E-1    3.185256134805520E-1   -5.698125422635046E-4   -4.872192611985276E-4   -5.245966380616919E-4   -4.818927859096276E-4   -1.877573820578138E-1    4.425536210908914E-1
 1.010321366185000E+10  -3.700421224336829E-1    3.189922902828334E-1   -5.665636876282471E-4   -4.364045142852317E-4   -5.111683542903137E-4   -4.667447248024433E-4   -1.869779705861083E-1    4.427923716748716E-1
 1.010322390700000E+10  -3.696473952065825E-1    3.194657203519711E-1   -5.696424073758920E-4   -4.325634344921774E-4   -5.173769980427736E-4   -4.806850496542240E-4   -1.865182617024336E-1    4.431513556255391E-1
 1.010323415215000E+10  -3.691981093862102E-1    3.200481760984928E-1   -5.559706553659728E-4   -4.436025694829013E-4   -5.177535091131480E-4   -4.613735975219742E-4   -1.858812180468268E-1    4.433884616657250E-1
 1.010324439730000E+10  -3.689465987322022E-1    3.204273527520573E-1   -5.695793255627736E-4   -4.408310728704506E-4   -5.091754831965063E-4   -4.500711627683912E-4   -1.852959798709265E-1    4.437345677389263E-1
 1.010325464245000E+10  -3.685745965093056E-1    3.210005232824854E-1   -5.613617965854357E-4   -4.613839992811448E-4   -5.117039277020505E-4   -4.445559756686985E-4   -1.846479567909839E-1    4.439257060806416E-1
 1.010326488760000E+10  -3.682570237601209E-1    3.214747885145507E-1   -5.721660115675619E-4   -4.327666105751605E-4   -5.076951493288715E-4   -4.622804535035008E-4   -1.840205249788282E-1    4.443327591219463E-1
 1.010327513275000E+10  -3.677479624523492E-1    3.219373787955209E-1   -5.591846777856665E-4   -4.335754526005320E-4   -5.087991168475705E-4   -4.594609233920812E-4   -1.833063074939487E-1    4.444980987457299E-1
 1.010328537790000E+10  -3.673213817273810E-1    3.223494209757879E-1   -5.698121904321651E-4   -4.533767179944802E-4   -5.046133259048195E-4   -4.719669271058796E-4   -1.828642450372384E-1    4.448628010885699E-1
 1.010329562305000E+10  -3.666710020852962E-1    3.229156656433426E-1   -5.761240537408453E-4   -4.320483579651730E-4   -5.096412919884529E-4   -4.533902888904056E-4   -1.820695069330579E-1    4.450608310548702E-1
 1.010330586820000E+10  -3.664856415230597E-1    3.234377222165701E-1   -5.681879421381066E-4   -4.457242165151884E-4   -4.923644563875131E-4   -4.611209958939611E-4   -1.815344871842962E-1    4.453555691261433E-1
 1.010331611335000E+10  -3.660803430759150E-1    3.237908578243900E-1   -5.397184684991447E-4   -4.047815406021799E-4   -4.965108011493977E-4   -4.561481591184145E-4   -1.809935379221747E-1    4.456862318271915E-1
 1.010332635850000E+10  -3.656233849636040E-1    3.244191819190873E-1   -5.467970695195799E-4   -4.148340715287188E-4   -4.851075619003262E-4   -4.545345886268661E-4   -1.803015902643000E-1    4.459405000864166E-1
 1.010333660365000E+10  -3.654849596168783E-1    3.247413369794721E-1   -5.220359994924766E-4   -4.292582722013889E-4   -4.822775555445975E-4   -4.273272258607753E-4   -1.796678208799838E-1    4.461725628658702E-1
 1.010334684880000E+10  -3.651018213058752E-1    3.252971584164733E-1   -5.542533387992345E-4   -4.326205333810345E-4   -4.827836378293376E-4   -4.429619174669780E-4   -1.790046124766058E-1    4.465126256676105E-1
 1.010335709395000E+10  -3.645316249043155E-1    3.258633676884020E-1   -5.274036797891521E-4   -4.241496951035594E-4   -5.031237650468846E-4   -4.641771407358595E-4   -1.783739453550596E-1    4.468383080441734E-1
 1.010336733910000E+10  -3.641784450192677E-1    3.263902062511418E-1   -5.641180504871585E-4   -4.235798480541117E-4   -4.910339511307236E-4   -4.266941127742360E-4   -1.778071312019694E-1    4.471397143413765E-1
 1.010337758425000E+10  -3.637564956480585E-1    3.267128385872990E-1   -5.435833170479065E-4   -4.041095130004155E-4   -4.924831490627308E-4   -4.433959350969377E-4   -1.772023689258338E-1    4.473163646725710E-1
 1.010338782940000E+10  -3.634273774095570E-1    3.273760791587799E-1   -5.295773726384570E-4   -4.328600923819288E-4   -4.691521944467849E-4   -4.165814150632411E-4   -1.764222646375515E-1    4.476242713794586E-1
 1.010339807455000E+10  -3.629533244401741E-1    3.277608036017315E-1   -5.424103685914870E-4   -4.174507683074894E-4   -4.885567625055469E-4   -4.164791341496650E-4   -1.757452573397739E-1    4.479983365376146E-1
 1.010340831970000E+10  -3.626761728226905E-1    3.281630729760140E-1   -5.257845449253470E-4   -4.039795389235175E-4   -4.593953334969710E-4   -4.483769329296747E-4   -1.752655591256320E-1    4.481596922516294E-1
 1.010341856485000E+10  -3.621964113133744E-1    3.286378943038347E-1   -5.279032140011276E-4   -3.967693896958990E-4   -4.656747222711190E-4   -4.151498524315528E-4   -1.744919060331777E-1    4.485255053432441E-1
 1.010342881000000E+10  -3.617610095955968E-1    3.291098936104501E-1   -5.057979597672518E-4   -4.006467145459927E-4   -4.674157504841866E-4   -4.171632773670808E-4   -1.739422464436373E-1    4.487684903620119E-1
 1.010343905515000E+10  -3.614680951388492E-1    3.298146893203259E-1   -5.443086137101012E-4   -3.842000573131163E-4   -4.614075466830218E-4   -4.232586922369569E-4   -1.733678549738827E-1    4.490293467354748E-1
 1.010344930030000E+10  -3.609917134128007E-1    3.301369215527640E-1   -5.237788549938872E-4   -4.024245958196644E-4   -4.747559408542880E-4   -4.180992412442822E-4   -1.725656890711643E-1    4.493187142701205E-1
 1.010345954545000E+10  -3.606823766840045E-1    3.305260385858463E-1   -5.051851129641748E-4   -4.017114960643710E-4   -4.706962652558371E-4   -4.056468220492997E-4   -1.719529846738309E-1    4.496242690582205E-1
 1.010346979060000E+10  -3.602037402944903E-1    3.310957731747281E-1   -5.111804357443283E-4   -3.789818138797918E-4   -4.799536849285467E-4   -4.337148932532987E-4   -1.713130078325157E-1    4.498531304462689E-1
 1.010348003575000E+10  -3.597667144111214E-1    3.315039294611980E-1   -5.263927596107890E-4   -3.749106300644007E-4   -4.797784177492055E-4   -4.414287804610049E-4   -1.706465477938533E-1    4.500148401242046E-1
 1.010349028090000E+10  -3.593922912992930E-1    3.321237308281673E-1   -5.084267531818697E-4   -3.895376267775588E-4   -4.686149762608690E-4   -4.115316835813417E-4   -1.700066938160538E-1    4.504312416819238E-1
 1.010350052605000E+10  -3.590227402598615E-1    3.327107256649167E-1   -5.123573392445325E-4   -3.939445488737273E-4   -4.554435944551765E-4   -4.207729179624385E-4   -1.694783597937293E-1    4.505961580958102E-1
 1.010351077120000E+10  -3.586214512521070E-1    3.329227316103400E-1   -4.930670691483511E-4   -4.017027452436745E-4   -4.703163735058441E-4   -4.174667727192534E-4   -1.686571597441393E-1    4.508526244732374E-1
 1.010352101635000E+10  -3.582568612671321E-1    3.334647856116594E-1   -4.837083013076700E-4   -3.580285374395807E-4   -4.547585990383882E-4   -4.035293159573557E-4   -1.681467520219244E-1    4.511153390035633E-1
 1.010353126150000E+10  -3.578468927513423E-1    3.340446097260664E-1   -4.975465728566730E-4   -3.931008704230760E-4   -4.508712818338062E-4   -3.993119259603258E-4   -1.675880761692863E-1    4.514506139402883E-1
 1.010354150665000E+10  -3.574425281058677E-1    3.344754723594991E-1   -4.876873917458369E-4   -3.863572322631785E-4   -4.449386142883200E-4   -4.023125343610784E-4   -1.667484543175428E-1    4.516233312436029E-1
 1.010355175180000E+10  -3.569528049246186E-1    3.348785545430987E-1   -4.889387785116969E-4   -3.736018080858369E-4   -4.353582468274442E-4   -3.901987462754211E-4   -1.662029640000689E-1    4.519971293668314E-1
 1.010356199695000E+10  -3.565278244877952E-1    3.354863886849175E-1   -4.772765874359846E-4   -3.900096044488670E-4   -4.340523454814983E-4   -3.903141172185800E-4   -1.654917886865603E-1    4.522774904781776E-1
 1.010357224210000E+10  -3.561927711878632E-1    3.358339671081951E-1   -4.927421776389066E-4   -3.943215367183794E-4   -4.433052941210592E-4   -4.143369574917257E-4   -1.648416877776288E-1    4.523594050260393E-1
 1.010358248725000E+10  -3.558514742272035E-1    3.363214679033630E-1   -4.757026463586486E-4   -3.985695040395510E-4   -4.298390296260542E-4   -4.009339379534972E-4   -1.640783446795693E-1    4.526988716958471E-1
 1.010359273240000E+10  -3.553659403208848E-1    3.367687828044171E-1   -4.743248357374525E-4   -3.628977371637329E-4   -4.335649759986839E-4   -3.961610416307464E-4   -1.636123578815049E-1    4.528000872597323E-1
 1.010360297755000E+10  -3.548121241312329E-1    3.372164503926796E-1   -4.806673703170156E-4   -3.608225019669753E-4   -4.210967399348944E-4   -3.578538678977953E-4   -1.629924786803512E-1    4.532202527201881E-1
 1.010361322270000E+10  -3.546521525358948E-1    3.378224579625471E-1   -4.434337949147230E-4   -3.775172473792908E-4   -4.282539602661724E-4   -4.028985932252996E-4   -1.620760242978557E-1    4.536332467458082E-1
 1.010362346785000E+10  -3.542549153859172E-1    3.382299268430956E-1   -4.579111746230904E-4   -3.694404070609184E-4   -4.100112091700847E-4   -3.699794055433343E-4   -1.616420077189853E-1    4.538191638097068E-1
 1.010363371300000E+10  -3.537403385664277E-1    3.385518300780548E-1   -4.595352722001622E-4   -3.646541375121965E-4   -4.012056102712329E-4   -3.712495770545882E-4   -1.610076029241975E-1    4.539710790229869E-1
 1.010364395815000E+10  -3.534105749263576E-1    3.391675636994314E-1   -4.304614662499146E-4   -3.381468105681102E-4   -4.117697178320285E-4   -3.830920473814490E-4   -1.604246653255151E-1    4.543160789256700E-1
 1.010365420330000E+10  -3.529930533063420E-1    3.396666784236896E-1   -4.444944383665166E-4   -3.247659871748644E-4   -4.072437323446422E-4   -3.657100129958116E-4   -1.596244844407913E-1    4.545378140586868E-1
 1.010366444845000E+10  -3.525578140904591E-1    3.401859062265649E-1   -4.243402143329341E-4   -3.380701146540093E-4   -3.869799520395987E-4   -3.563736937593416E-4   -1.589391502917533E-1    4.548157149188505E-1
 1.010367469360000E+10  -3.520816318838685E-1    3.405198140888219E-1   -4.140063432016903E-4   -3.435696034080754E-4   -3.963993766715715E-4   -3.674904787068298E-4   -1.582462986671830E-1    4.550387239595874E-1
 1.010368493875000E+10  -3.515895106557117E-1    3.410847934558357E-1   -4.256409449877926E-4   -3.723531996445904E-4   -3.833648136172787E-4   -3.542994080821114E-4   -1.577166850182598E-1    4.552340767094045E-1
 1.010369518390000E+10  -3.512276705404752E-1    3.415784321099312E-1   -4.242900777459475E-4   -3.516657145189366E-4   -3.671684333228615E-4   -3.380451753623305E-4   -1.569524402528718E-1    4.556801046551115E-1
 1.010370542905000E+10  -3.508841446640462E-1    3.419982777546359E-1   -4.346916034162046E-4   -3.393939708857795E-4   -3.864979106062466E-4   -3.519501870122611E-4   -1.562989644410044E-1    4.557298952375088E-1
 1.010371567420000E+10  -3.504683003190444E-1    3.423639260618874E-1   -4.291588489127148E-4   -3.286407743495501E-4   -3.757665179112820E-4   -3.642584031007883E-4   -1.556214830075388E-1    4.560954481477488E-1
 1.010372591935000E+10  -3.501079786857683E-1    3.428250016139288E-1   -4.050209822744220E-4   -3.588169443598872E-4   -3.910737374053319E-4   -3.477979414832992E-4   -1.549043565660504E-1    4.563534507798662E-1
 1.010373616450000E+10  -3.497374780393265E-1    3.433319985715579E-1   -4.042896555079052E-4   -3.427217022595789E-4   -3.460308388830040E-4   -3.617096599321310E-4   -1.542335573149921E-1    4.564905409477543E-1
 1.010374640965000E+10  -3.491902890383108E-1    3.437631005074418E-1   -4.188374933615427E-4   -3.457225592579904E-4   -3.554788019601490E-4   -3.410115292371900E-4   -1.535850699402576E-1    4.567058613013072E-1
 1.010375665480000E+10  -3.489292873636811E-1    3.442733558892276E-1   -4.190581007603884E-4   -3.155457251459866E-4   -3.458608102971668E-4   -3.704383772760517E-4   -1.529472234617370E-1    4.570946258694306E-1
 1.010376689995000E+10  -3.484164282302500E-1    3.447738580650437E-1   -3.840732508420934E-4   -3.091934626954551E-4   -3.562857937131537E-4   -3.607424831729291E-4   -1.523874644882680E-1    4.571094805578441E-1
 1.010377714510000E+10  -3.480150109114080E-1    3.453314575586771E-1   -3.771373059642145E-4   -3.216031145961798E-4   -3.690427203177692E-4   -3.255761219176165E-4   -1.516099566125386E-1    4.573999545622644E-1
 1.010378739025000E+10  -3.475883246745597E-1    3.456637616086874E-1   -3.804010388021394E-4   -3.098891136755202E-4   -3.619878770744722E-4   -3.142848727737909E-4   -1.510588790947116E-1    4.577274317349360E-1
 1.010379763540000E+10  -3.472563812051577E-1    3.461242398154109E-1   -3.766441810204597E-4   -3.414637146175620E-4   -3.468793979040012E-4   -3.303259148037436E-4   -1.502135568598241E-1    4.579872875570266E-1
 1.010380788055000E+10  -3.466329418864422E-1    3.466484854543184E-1   -3.950671864428022E-4   -2.852558634389824E-4   -3.415898052605370E-4   -3.244429092550365E-4   -1.495366494919026E-1    4.581645404134057E-1
 1.010381812570000E+10  -3.462344065391098E-1    3.470828392266248E-1   -3.685969105104621E-4   -3.225458849970733E-4   -3.179665385357118E-4   -3.423781663812475E-4   -1.488904400590207E-1    4.582747534891572E-1
 1.010382837085000E+10  -3.457248679811480E-1    3.475894878180585E-1   -3.532735917542959E-4   -3.373642762543079E-4   -3.301064775410568E-4   -3.270081659015778E-4   -1.481896705061897E-1    4.587174995978188E-1
 1.010383861600000E+10  -3.454505335719920E-1    3.480047250470590E-1   -3.550564295417868E-4   -2.988338676862635E-4   -3.038562624078260E-4   -3.086136222811166E-4   -1.474756365173394E-1    4.588835949820435E-1
 1.010384886115000E+10  -3.450330837004889E-1    3.484713879364506E-1   -3.402123574488181E-4   -2.996465561290188E-4   -3.178144283281341E-4   -3.439620788719458E-4   -1.469100015377109E-1    4.591614586024057E-1
 1.010385910630000E+10  -3.446012081854245E-1    3.488824159393324E-1   -3.267642266519169E-4   -3.179205996880013E-4   -2.965681249955280E-4   -3.297482045780610E-4   -1.461648891213370E-1    4.593826924697952E-1
 1.010386935145000E+10  -3.441893117575163E-1    3.494326477900741E-1   -3.369862610027321E-4   -2.996125615121088E-4   -2.879781008360371E-4   -3.276778806278753E-4   -1.452724756028083E-1    4.595688305299147E-1
 1.010387959660000E+10  -3.437102141458639E-1    3.498816752701504E-1   -3.648275839097686E-4   -3.186285370988266E-4   -2.970128093120333E-4   -3.259864007754324E-4   -1.446659810660219E-1    4.596777139686477E-1
 1.010388984175000E+10  -3.433624189318437E-1    3.503778815487337E-1   -3.193253688007990E-4   -2.952559014613070E-4   -2.618736822059580E-4   -3.093648297582334E-4   -1.439234122734755E-1    4.599778325903385E-1
 1.010390008690000E+10  -3.429579239468840E-1    3.506012586520647E-1   -3.222618354008990E-4   -3.137749348787119E-4   -3.166723842836894E-4   -2.891451340711134E-4   -1.432333578621451E-1    4.601751923509227E-1
 1.010391033205000E+10  -3.425608912907833E-1    3.511628036376546E-1   -2.899555963126331E-4   -3.039391215123276E-4   -2.488804539063070E-4   -3.147219427503483E-4   -1.425716046128118E-1    4.604248928460836E-1
 1.010392057720000E+10  -3.420707916004684E-1    3.515804884147012E-1   -2.892140615569820E-4   -2.896038027299667E-4   -2.768668443808657E-4   -3.158830668022585E-4   -1.418989675154953E-1    4.607039503881896E-1
 1.010393082235000E+10  -3.415858024699415E-1    3.519944508299520E-1   -2.963281782167611E-4   -2.821335231900915E-4   -2.663058445483019E-4   -2.926486188166173E-4   -1.411033808855866E-1    4.609503574024787E-1
 1.010394106750000E+10  -3.412199384890498E-1    3.525204358359127E-1   -3.078948760723995E-4   -2.997810595904568E-4   -2.606281263619391E-4   -2.767989086447332E-4   -1.405168248256577E-1    4.611635978471802E-1
