#  HZ   S   RI   R     50.00 
! Rohde & Schwarz Vector Network Analyzer 
! Rohde-Schwarz,ZNB20-2Port,1311601062101988,3.16
! Created: UTC 3/20/2024, 4:55:55 PM
! freq[Hz]                re:S11                  im:S11                  re:S21                  im:S21                  re:S12                  im:S12                  re:S22                  im:S22
 1.010178483700000E+10  -4.169235884926382E-1    2.469584519197523E-1   -5.908713731809022E-4   -6.790974887289366E-4   -5.714934603040946E-4   -6.880725561902537E-4   -2.660708734770856E-1    3.958789237669635E-1
 1.010180047542500E+10  -4.164135586131685E-1    2.477997315373564E-1   -5.942716540908358E-4   -6.686865575237397E-4   -5.663112840655144E-4   -6.791018368370971E-4   -2.653407029178172E-1    3.964784611508260E-1
 1.010181611385000E+10  -4.160753392243850E-1    2.485448050204396E-1   -6.185729614136080E-4   -6.860033176154715E-4   -5.586313010443059E-4   -7.036054173526761E-4   -2.645956608068813E-1    3.971371468478724E-1
 1.010183175227500E+10  -4.155366478498484E-1    2.494174933102781E-1   -6.162610916449274E-4   -6.744082325207362E-4   -5.479208991406149E-4   -6.753170868541722E-4   -2.637266116923813E-1    3.976717691079925E-1
 1.010184739070000E+10  -4.151210877851790E-1    2.502852840444078E-1   -6.169256033117989E-4   -6.683022210365724E-4   -5.393569838320134E-4   -7.186116201384212E-4   -2.629528401730487E-1    3.982922747900262E-1
 1.010186302912500E+10  -4.146057422917087E-1    2.510635286156708E-1   -6.368458645192159E-4   -6.592088283377806E-4   -5.591661782980218E-4   -6.832102767376914E-4   -2.618985227430204E-1    3.988299432585725E-1
 1.010187866755000E+10  -4.140960379878571E-1    2.520187962763625E-1   -6.628650122680184E-4   -6.619104187049435E-4   -5.666664591262258E-4   -7.093356215144021E-4   -2.611843869070113E-1    3.995075460143166E-1
 1.010189430597500E+10  -4.136845399677666E-1    2.528691686122447E-1   -6.104001994345482E-4   -6.440740317105789E-4   -5.629715399723595E-4   -7.054292547985868E-4   -2.604773730172991E-1    4.000950242313707E-1
 1.010190994440000E+10  -4.133048267113303E-1    2.536503583379959E-1   -6.046914584422160E-4   -6.635888470816470E-4   -5.529550942897761E-4   -6.619953922571242E-4   -2.596281343911610E-1    4.005342327973847E-1
 1.010192558282500E+10  -4.128511550548758E-1    2.544845283110904E-1   -6.018777012832745E-4   -6.604794717389359E-4   -5.490324454777705E-4   -6.485077525739210E-4   -2.587543680228344E-1    4.011595690221209E-1
 1.010194122125000E+10  -4.122713014472680E-1    2.553648187059398E-1   -6.033659655326424E-4   -6.510463898941904E-4   -5.388988070183143E-4   -6.784844402307664E-4   -2.578311963890104E-1    4.018315283954646E-1
 1.010195685967500E+10  -4.119834993331615E-1    2.561202056387384E-1   -6.005204718335126E-4   -6.723591589319698E-4   -5.395733139007861E-4   -6.844602082646803E-4   -2.570910405192994E-1    4.023936649147435E-1
 1.010197249810000E+10  -4.113325986056109E-1    2.570435768500965E-1   -6.129673121975673E-4   -6.334605617896453E-4   -5.428386101590158E-4   -6.755002185387372E-4   -2.562351651951941E-1    4.030710335903715E-1
 1.010198813652500E+10  -4.109776828957656E-1    2.578310160886779E-1   -6.304154840670307E-4   -6.211413812129954E-4   -5.593060962198020E-4   -6.660328971950501E-4   -2.555131533322550E-1    4.036595287241522E-1
 1.010200377495000E+10  -4.106524659736457E-1    2.586410258485640E-1   -6.111286312755862E-4   -6.579435038046348E-4   -5.536544408026972E-4   -6.682645857438494E-4   -2.546636733240509E-1    4.041577581082743E-1
 1.010201941337500E+10  -4.101030084661121E-1    2.594549265430360E-1   -6.178150622566373E-4   -6.470064264901529E-4   -5.668581554433215E-4   -6.519335233364912E-4   -2.538975135282439E-1    4.048296777990236E-1
 1.010203505180000E+10  -4.095189678913485E-1    2.603652758218239E-1   -6.193792672169005E-4   -6.362054106192378E-4   -5.404011769651164E-4   -6.438672775372262E-4   -2.529747847934318E-1    4.053023786916419E-1
 1.010205069022500E+10  -4.090222786291167E-1    2.612182034467908E-1   -6.340668962173457E-4   -6.304736675483729E-4   -5.450831324327327E-4   -6.765904148386872E-4   -2.519795636619717E-1    4.059065016680048E-1
 1.010206632865000E+10  -4.085576154993005E-1    2.619645369013067E-1   -6.230163100328024E-4   -6.229454585476129E-4   -5.456888687124790E-4   -6.698235262874764E-4   -2.510630761486365E-1    4.065757443618292E-1
 1.010208196707500E+10  -4.081350746666992E-1    2.627486279229154E-1   -6.260960759863991E-4   -6.535252346385822E-4   -5.526707440746150E-4   -6.578387351506238E-4   -2.504053764397533E-1    4.070253042089431E-1
 1.010209760550000E+10  -4.077051629210682E-1    2.635426531719902E-1   -6.278987374662789E-4   -6.496618929968204E-4   -5.571578193084701E-4   -6.405028808511623E-4   -2.494914607581039E-1    4.076336420160281E-1
 1.010211324392500E+10  -4.072290168216152E-1    2.644312389751430E-1   -6.465123794954263E-4   -6.355879752090954E-4   -5.626442733658339E-4   -6.575782049048172E-4   -2.487304208618749E-1    4.081511030839207E-1
 1.010212888235000E+10  -4.067209320489062E-1    2.652908009422744E-1   -6.304224900034538E-4   -6.256962259414363E-4   -5.469790837851504E-4   -6.580515298222725E-4   -2.478433761725957E-1    4.088673029347716E-1
 1.010214452077500E+10  -4.062781597308636E-1    2.662076624522729E-1   -6.339842256962448E-4   -6.012515752254789E-4   -5.296021069466936E-4   -6.407001522345070E-4   -2.469783001010831E-1    4.093029844923413E-1
 1.010216015920000E+10  -4.057118332103963E-1    2.667838900219784E-1   -6.346464041402584E-4   -6.556302460994215E-4   -5.539555529500876E-4   -6.492423783309648E-4   -2.461732991947535E-1    4.098142256365748E-1
 1.010217579762500E+10  -4.052651879232367E-1    2.677582082589114E-1   -6.179997635597967E-4   -6.286481531687073E-4   -5.442138432158757E-4   -6.641049767827676E-4   -2.452535665144082E-1    4.105188181298623E-1
 1.010219143605000E+10  -4.048067415952079E-1    2.684227141688258E-1   -6.125812847106133E-4   -5.874832059229105E-4   -5.440873347285256E-4   -6.460540541745122E-4   -2.444452056584090E-1    4.110027123808697E-1
 1.010220707447500E+10  -4.042592224910330E-1    2.693431515007995E-1   -6.147364559423228E-4   -5.973614569350763E-4   -5.631897241307181E-4   -6.462694815805845E-4   -2.434152497055411E-1    4.115044879768296E-1
 1.010222271290000E+10  -4.038166479033893E-1    2.701010214981662E-1   -6.031739043460745E-4   -5.940952124145759E-4   -5.681119366378182E-4   -6.284973659726466E-4   -2.428121902992885E-1    4.120564704426218E-1
 1.010223835132500E+10  -4.032935994121408E-1    2.710580966236830E-1   -6.202157699890232E-4   -6.085231509678253E-4   -5.404396839085927E-4   -6.325917939996922E-4   -2.420265647974253E-1    4.126829957776114E-1
 1.010225398975000E+10  -4.028122282862363E-1    2.717234423399555E-1   -6.291506332244517E-4   -5.995336621865088E-4   -5.453370675410128E-4   -6.423069378119222E-4   -2.410234380620350E-1    4.131931492272418E-1
 1.010226962817500E+10  -4.023717947663752E-1    2.726563192683965E-1   -6.388750488082987E-4   -6.015058887307054E-4   -5.235258081081331E-4   -6.339861687200559E-4   -2.401273796057092E-1    4.136738517122132E-1
 1.010228526660000E+10  -4.018755554776833E-1    2.734410670151329E-1   -5.920026817739372E-4   -6.037898507176638E-4   -5.492878989509904E-4   -6.415916894781656E-4   -2.392086225881236E-1    4.142326082615638E-1
 1.010230090502500E+10  -4.014029705308176E-1    2.744075851216013E-1   -6.362926822457250E-4   -6.089230761647191E-4   -5.552623871701244E-4   -5.962931235267264E-4   -2.385104050981200E-1    4.150036802427903E-1
 1.010231654345000E+10  -4.010775386233818E-1    2.751245265154507E-1   -5.838436599873262E-4   -5.915211542498210E-4   -5.393296248186130E-4   -6.181469434985479E-4   -2.374886800672299E-1    4.154711093129762E-1
 1.010233218187500E+10  -4.003529371543579E-1    2.758701112935044E-1   -6.348151238890362E-4   -5.727879476154709E-4   -5.535444577917907E-4   -6.071531034568405E-4   -2.365582543321539E-1    4.159170160946416E-1
 1.010234782030000E+10  -3.998586274081065E-1    2.766582717334272E-1   -6.428123130501974E-4   -6.050353674490731E-4   -5.543855919928443E-4   -6.270939399492223E-4   -2.358828322055729E-1    4.164563957977793E-1
 1.010236345872500E+10  -3.993259347444230E-1    2.774846977576143E-1   -6.275779420290205E-4   -5.858000111172279E-4   -5.339450270371696E-4   -6.327499212173179E-4   -2.349656889611970E-1    4.169862698060141E-1
 1.010237909715000E+10  -3.988747221567976E-1    2.782777345314605E-1   -6.268273733140423E-4   -5.978702993674208E-4   -5.498941119772074E-4   -6.149650890941643E-4   -2.341041271699475E-1    4.174416312304347E-1
 1.010239473557500E+10  -3.984095612208323E-1    2.791989571012994E-1   -6.261793315866693E-4   -5.888899699961595E-4   -5.552243366762896E-4   -6.111340973168575E-4   -2.332117459167658E-1    4.181654966071981E-1
 1.010241037400000E+10  -3.977984113117111E-1    2.799637626168811E-1   -5.861823553164101E-4   -5.979518454610430E-4   -5.518118417352562E-4   -5.928333332534164E-4   -2.323080722557179E-1    4.186718073434739E-1
 1.010242601242500E+10  -3.974735931166511E-1    2.808174686709112E-1   -6.010815576651758E-4   -5.585678588532423E-4   -5.355190731139245E-4   -5.982492845099230E-4   -2.315599294921302E-1    4.192241020468106E-1
 1.010244165085000E+10  -3.968511511415690E-1    2.816094721360057E-1   -5.817939426463611E-4   -5.590106915808465E-4   -5.247044465033508E-4   -6.146614435112101E-4   -2.305238394557260E-1    4.197402142780869E-1
 1.010245728927500E+10  -3.962650503247702E-1    2.824625989891459E-1   -6.074077349010643E-4   -5.723983184064518E-4   -5.275214948201904E-4   -5.904439330158616E-4   -2.296290758942453E-1    4.202629827167959E-1
 1.010247292770000E+10  -3.957379639155029E-1    2.831472155677491E-1   -5.824305269950462E-4   -5.815158684793571E-4   -5.409045830929691E-4   -5.756578521809216E-4   -2.287028190229269E-1    4.208064746832638E-1
 1.010248856612500E+10  -3.952776302186476E-1    2.838736381979149E-1   -6.185526967435607E-4   -5.794625908895172E-4   -5.025383488400837E-4   -5.929762695075754E-4   -2.278106892235465E-1    4.213142236818634E-1
 1.010250420455000E+10  -3.948382624244365E-1    2.848114016750493E-1   -6.129809639320018E-4   -5.591862903414999E-4   -5.235363155228459E-4   -5.880326867248280E-4   -2.270741904342892E-1    4.218578215327063E-1
 1.010251984297500E+10  -3.942406851358138E-1    2.856357920875056E-1   -5.947470274720781E-4   -5.820203604423040E-4   -5.309624615158975E-4   -5.990742415183429E-4   -2.260925816613327E-1    4.223427032686500E-1
 1.010253548140000E+10  -3.937294554426949E-1    2.863249343768799E-1   -6.269343715974539E-4   -5.562065564078315E-4   -5.204999510021586E-4   -5.736680530734098E-4   -2.253409797468160E-1    4.229118569216869E-1
 1.010255111982500E+10  -3.932979732396726E-1    2.872893917696814E-1   -6.014882439190004E-4   -5.331186157419237E-4   -5.190792904874773E-4   -5.904183104666022E-4   -2.243244253506668E-1    4.235786947629408E-1
 1.010256675825000E+10  -3.927102475736461E-1    2.879646019941371E-1   -5.872203369692233E-4   -5.424837298020193E-4   -5.615332553393102E-4   -5.794590810250305E-4   -2.234195979265237E-1    4.239381673859969E-1
 1.010258239667500E+10  -3.922354945790059E-1    2.888268399718752E-1   -5.980459723101071E-4   -5.367367849275215E-4   -5.410152239546976E-4   -5.548754945143860E-4   -2.226299089374809E-1    4.245130014461432E-1
 1.010259803510000E+10  -3.916655355555942E-1    2.894131405053059E-1   -6.123537203448179E-4   -5.475157251047086E-4   -5.334645383022364E-4   -5.750759691143435E-4   -2.216412631895145E-1    4.250284518050922E-1
 1.010261367352500E+10  -3.911182788643189E-1    2.904000782935700E-1   -5.663310575951092E-4   -5.617528672086865E-4   -5.432488201926658E-4   -5.598643398468785E-4   -2.207765899988486E-1    4.254327688905263E-1
 1.010262931195000E+10  -3.906342358747147E-1    2.910128501485637E-1   -5.972560341587931E-4   -5.708199080543865E-4   -5.121540159307554E-4   -5.679224296979405E-4   -2.198835303699862E-1    4.261069025320749E-1
 1.010264495037500E+10  -3.901044910866758E-1    2.919431903257009E-1   -5.805875098883588E-4   -5.346443235815494E-4   -5.398765830998141E-4   -5.979418253265120E-4   -2.190186108697479E-1    4.264539566840776E-1
 1.010266058880000E+10  -3.894837658739936E-1    2.927547735027879E-1   -5.936298013395139E-4   -5.221295314462289E-4   -5.242891545944238E-4   -5.491519082860461E-4   -2.180686609805876E-1    4.269487187575293E-1
 1.010267622722500E+10  -3.890060807266945E-1    2.935509331505921E-1   -6.187171472312735E-4   -5.398808424516806E-4   -5.018514828125848E-4   -5.457362046630519E-4   -2.171720284655533E-1    4.274360169316329E-1
 1.010269186565000E+10  -3.884679828879605E-1    2.943419770108159E-1   -6.072968450552612E-4   -5.421752648467571E-4   -5.355730907261035E-4   -5.723075027279633E-4   -2.163223229896251E-1    4.279813146846155E-1
 1.010270750407500E+10  -3.879225557016143E-1    2.950687571970797E-1   -5.725880639735152E-4   -5.045671922538667E-4   -5.039456927766090E-4   -5.619174178489838E-4   -2.154189426322546E-1    4.285255319252854E-1
 1.010272314250000E+10  -3.873731405997491E-1    2.958144091074549E-1   -5.981079575340510E-4   -5.219890971899294E-4   -5.365883217031856E-4   -5.415198404448687E-4   -2.144606336622603E-1    4.289593322363304E-1
 1.010273878092500E+10  -3.869946266154852E-1    2.967178018852825E-1   -5.795866589436883E-4   -5.255512131028349E-4   -5.362535315547281E-4   -5.365721624829299E-4   -2.136462745200735E-1    4.294572578611845E-1
 1.010275441935000E+10  -3.862936866785772E-1    2.975008129134331E-1   -5.829979145744125E-4   -4.834570449110076E-4   -5.274362154391882E-4   -5.400936069345744E-4   -2.126716752917594E-1    4.299804257070502E-1
 1.010277005777500E+10  -3.856564270386931E-1    2.983065118031490E-1   -5.757534188636984E-4   -5.175531347304695E-4   -5.041876795367278E-4   -5.472840713691350E-4   -2.118657384971582E-1    4.304117988278898E-1
 1.010278569620000E+10  -3.851093849849572E-1    2.990369836052885E-1   -5.936069046670346E-4   -5.112326586396116E-4   -5.148022798637828E-4   -5.440764852092558E-4   -2.109210668697228E-1    4.310235711635660E-1
 1.010280133462500E+10  -3.845611035210454E-1    2.997860397803851E-1   -5.938268369431736E-4   -5.153122098770946E-4   -5.196831485327811E-4   -5.295135772228327E-4   -2.098507560969338E-1    4.314005568583818E-1
 1.010281697305000E+10  -3.842059543367993E-1    3.005030586391421E-1   -5.592147982673093E-4   -4.879690577050433E-4   -5.074914602357293E-4   -5.336994262063509E-4   -2.090617034121601E-1    4.320551853652392E-1
 1.010283261147500E+10  -3.834182971758516E-1    3.012285159889985E-1   -5.710646640112548E-4   -5.292734176581325E-4   -4.858194541651189E-4   -5.147109693544162E-4   -2.081497827553516E-1    4.324083659382634E-1
 1.010284824990000E+10  -3.829858184034472E-1    3.021954143199255E-1   -5.626545042223893E-4   -5.120141221238186E-4   -5.054318149205527E-4   -5.204520687633515E-4   -2.072096412352364E-1    4.328494663176278E-1
 1.010286388832500E+10  -3.824980048835170E-1    3.028636783683680E-1   -5.758572985349675E-4   -4.924906220531751E-4   -4.702255162776356E-4   -5.390259953446547E-4   -2.063217318220278E-1    4.334470664174759E-1
 1.010287952675000E+10  -3.818938912936107E-1    3.037146001584039E-1   -5.787739135374460E-4   -5.142749999898322E-4   -5.297332120571287E-4   -5.031906001475789E-4   -2.052552724951517E-1    4.339936855962809E-1
 1.010289516517500E+10  -3.815112876707674E-1    3.045423994990372E-1   -5.636364046131664E-4   -5.001857035032344E-4   -5.060297937305660E-4   -5.371829649310945E-4   -2.043902036775459E-1    4.343551146556484E-1
 1.010291080360000E+10  -3.808371042871417E-1    3.051181056290508E-1   -5.549416824686171E-4   -5.075045546043259E-4   -5.047553942979768E-4   -4.785514393833498E-4   -2.036564044467911E-1    4.348540553663695E-1
 1.010292644202500E+10  -3.802270662220295E-1    3.058965185850134E-1   -5.781791431967708E-4   -5.017692285192920E-4   -4.812154921449696E-4   -5.472536982414567E-4   -2.024989425096912E-1    4.353666962635279E-1
 1.010294208045000E+10  -3.795582159445550E-1    3.066761764338337E-1   -5.580387559086013E-4   -4.846141481867403E-4   -4.905726496011896E-4   -5.137984756854989E-4   -2.015857039955798E-1    4.358651441034380E-1
 1.010295771887500E+10  -3.790906670567068E-1    3.074727888696139E-1   -5.244238047222304E-4   -4.811298202450248E-4   -4.966821522408317E-4   -4.950503696404528E-4   -2.006942640725589E-1    4.362778546555332E-1
 1.010297335730000E+10  -3.787343326852119E-1    3.083312682247660E-1   -5.581953971256005E-4   -4.948182353288734E-4   -4.904944238818935E-4   -4.923712418168964E-4   -1.998585105889678E-1    4.367906253976215E-1
 1.010298899572500E+10  -3.781120501059824E-1    3.090519090294594E-1   -5.526646435148674E-4   -4.774855432795343E-4   -4.928329198181520E-4   -4.981233205109510E-4   -1.988715519457345E-1    4.371781841834603E-1
 1.010300463415000E+10  -3.775386412844867E-1    3.098526070500920E-1   -5.546329271076531E-4   -4.788438200162028E-4   -5.174405832190523E-4   -5.175242731813816E-4   -1.978808610107576E-1    4.376673420819193E-1
 1.010302027257500E+10  -3.768493592422427E-1    3.104955904492701E-1   -5.355852405617641E-4   -4.726152787987415E-4   -4.938026818169654E-4   -4.795270501406428E-4   -1.968747471018428E-1    4.381975603546298E-1
 1.010303591100000E+10  -3.762733687986329E-1    3.112762956404972E-1   -5.422795967507102E-4   -4.589329285604132E-4   -4.916950579349747E-4   -4.947937274538839E-4   -1.960211249971800E-1    4.386169706510596E-1
 1.010305154942500E+10  -3.757438072150281E-1    3.121020532748573E-1   -5.382644220955966E-4   -4.499953203427448E-4   -4.784398413958405E-4   -4.791654698640424E-4   -1.952052852348783E-1    4.389995321570395E-1
 1.010306718785000E+10  -3.749896081187290E-1    3.128203603187297E-1   -5.224148246615250E-4   -4.703933625650975E-4   -4.703572378852126E-4   -4.912968942490053E-4   -1.940243548601061E-1    4.396207066823741E-1
 1.010308282627500E+10  -3.745818876307092E-1    3.136142348424640E-1   -5.268963132517171E-4   -4.624699144627066E-4   -4.609571674023023E-4   -4.841562462685790E-4   -1.932434496402959E-1    4.399723452541867E-1
 1.010309846470000E+10  -3.739479233010980E-1    3.142457327075401E-1   -4.944385508482093E-4   -4.555542413625509E-4   -4.456447334774308E-4   -4.671578755000190E-4   -1.921106315821318E-1    4.403443285069005E-1
 1.010311410312500E+10  -3.734400284006001E-1    3.152190756018783E-1   -5.295231588998204E-4   -4.601777588440136E-4   -4.550523187170685E-4   -4.797697420927648E-4   -1.913452090374052E-1    4.408327135026640E-1
 1.010312974155000E+10  -3.728992916236037E-1    3.158300644878230E-1   -5.286759149957517E-4   -4.641482349492559E-4   -4.918908637347849E-4   -4.801038242757698E-4   -1.901331044946306E-1    4.413984829236647E-1
 1.010314537997500E+10  -3.722555352514340E-1    3.165237006373133E-1   -5.241691804320130E-4   -4.455312146708455E-4   -4.613210614067158E-4   -4.729632609597712E-4   -1.894231842759269E-1    4.418388136849202E-1
 1.010316101840000E+10  -3.716862675792720E-1    3.173345935445417E-1   -4.935476693249302E-4   -4.511612291445212E-4   -4.472332231166811E-4   -4.598207977599169E-4   -1.883062584279403E-1    4.422601105908390E-1
 1.010317665682500E+10  -3.711412565807496E-1    3.181301384049074E-1   -5.014146516109771E-4   -4.203895746342185E-4   -4.490346064515160E-4   -4.660732858289622E-4   -1.874511264912177E-1    4.427807418010775E-1
 1.010319229525000E+10  -3.704307163338231E-1    3.188622112045071E-1   -5.017469029485812E-4   -4.199687575884542E-4   -4.358272962214872E-4   -4.711623162567384E-4   -1.865086295154744E-1    4.430680877618340E-1
