#  HZ   S   RI   R     50.00 
! Rohde & Schwarz Vector Network Analyzer 
! Rohde-Schwarz,ZNB20-2Port,1311601062101988,3.16
! Created: UTC 3/20/2024, 4:56:10 PM
! freq[Hz]                re:S11                  im:S11                  re:S21                  im:S21                  re:S12                  im:S12                  re:S22                  im:S22
 1.010168361900000E+10  -4.197616870312609E-1    2.414061793471109E-1   -5.904067303387174E-4   -6.895235176519993E-4   -5.602627826876161E-4   -6.989423749263399E-4   -2.715614598214673E-1    3.918430887242102E-1
 1.010169975927500E+10  -4.193656748116876E-1    2.422522634363838E-1   -6.083618860184723E-4   -6.931131471458119E-4   -5.217914572744170E-4   -7.059471534701462E-4   -2.707325506714203E-1    3.924220634202760E-1
 1.010171589955000E+10  -4.188620153393862E-1    2.431762221924796E-1   -6.218713145324998E-4   -6.783944905227182E-4   -5.252168403981892E-4   -7.318636750167372E-4   -2.697530627231082E-1    3.931323979976964E-1
 1.010173203982500E+10  -4.183508640876577E-1    2.440046971919544E-1   -6.048991074105263E-4   -6.830329310992314E-4   -5.436213043810534E-4   -7.105304817666740E-4   -2.690214901681024E-1    3.936390383941942E-1
 1.010174818010000E+10  -4.180024199400026E-1    2.448686023781248E-1   -6.133946011775494E-4   -6.802091640687965E-4   -5.315690676589184E-4   -6.872456895119842E-4   -2.681016951056223E-1    3.943704926845294E-1
 1.010176432037500E+10  -4.174360744708376E-1    2.458511323648880E-1   -6.162208795524161E-4   -6.848074216514777E-4   -5.269843917355423E-4   -7.018470857734223E-4   -2.671369472919110E-1    3.950672018880196E-1
 1.010178046065000E+10  -4.168717933825841E-1    2.467240770917587E-1   -6.098518217254212E-4   -6.701003543629915E-4   -5.300273432893276E-4   -7.121522219243566E-4   -2.664459488407260E-1    3.955225025777780E-1
 1.010179660092500E+10  -4.166043006337771E-1    2.475465715481640E-1   -6.366273668034729E-4   -6.624326810604693E-4   -5.578433530383251E-4   -7.187401309393243E-4   -2.655861541298732E-1    3.962104464906724E-1
 1.010181274120000E+10  -4.161838807712536E-1    2.484931330857776E-1   -6.349733008247912E-4   -6.607778833125766E-4   -5.603498585898021E-4   -6.892152611074164E-4   -2.646922391346406E-1    3.968071609179930E-1
 1.010182888147500E+10  -4.157018423188622E-1    2.493787157021569E-1   -6.139602261263361E-4   -6.632719700074489E-4   -5.710089858383351E-4   -6.807125490382286E-4   -2.639438045651837E-1    3.974959738244734E-1
 1.010184502175000E+10  -4.151370130586246E-1    2.502178134348644E-1   -6.192873034185454E-4   -6.489527650066685E-4   -5.536879511169813E-4   -7.100100796548044E-4   -2.629185489760479E-1    3.980212230853287E-1
 1.010186116202500E+10  -4.147939108382895E-1    2.511004137720115E-1   -6.027667350925202E-4   -6.670327590415283E-4   -5.419117977408172E-4   -6.869762133712449E-4   -2.621236679329921E-1    3.988120687515606E-1
 1.010187730230000E+10  -4.141362473105998E-1    2.518500098907905E-1   -5.966052457301430E-4   -6.527435607525579E-4   -5.497009411618148E-4   -6.973204275758200E-4   -2.612978696282869E-1    3.993387172281901E-1
 1.010189344257500E+10  -4.138622577722554E-1    2.527592773188465E-1   -6.244648831729862E-4   -6.807641825343672E-4   -5.538906652438124E-4   -6.988473698290288E-4   -2.605477355580590E-1    3.998308559512511E-1
 1.010190958285000E+10  -4.132610146744927E-1    2.536330106347866E-1   -6.158602416312478E-4   -6.780801445771770E-4   -5.460391093000682E-4   -6.760360648023476E-4   -2.597512462866112E-1    4.005632187476624E-1
 1.010192572312500E+10  -4.127246951124096E-1    2.545180633823350E-1   -5.881745607637793E-4   -6.392088730790305E-4   -5.729655253661680E-4   -6.783000673302936E-4   -2.586415046388188E-1    4.011987031970372E-1
 1.010194186340000E+10  -4.123503784162816E-1    2.553069026793392E-1   -6.559664836897006E-4   -6.427917019530861E-4   -5.297056909593226E-4   -6.871349746894760E-4   -2.579229653817888E-1    4.018000152439619E-1
 1.010195800367500E+10  -4.118246299562204E-1    2.561861749001922E-1   -6.058240506344479E-4   -6.248386356383102E-4   -5.609819494955276E-4   -6.656377724128776E-4   -2.570078925365011E-1    4.024300902079571E-1
 1.010197414395000E+10  -4.114022499589449E-1    2.569875429384647E-1   -6.304441460254444E-4   -6.422743799050043E-4   -5.328154603681302E-4   -6.621740014011372E-4   -2.562810946638365E-1    4.029928289366966E-1
 1.010199028422500E+10  -4.110419684025755E-1    2.580691218939619E-1   -6.152398167622073E-4   -6.685982246040362E-4   -5.346869135439185E-4   -6.680522316889718E-4   -2.554210309076902E-1    4.036776947339819E-1
 1.010200642450000E+10  -4.104527087328356E-1    2.587922028613696E-1   -6.255489805802678E-4   -6.466217796323165E-4   -5.560824333221829E-4   -6.570924681830817E-4   -2.545098088523909E-1    4.041878163284739E-1
 1.010202256477500E+10  -4.100650524259405E-1    2.595461257125392E-1   -6.171565184096171E-4   -6.305305630872069E-4   -5.534182182122974E-4   -6.921405904390007E-4   -2.536437300379995E-1    4.046493889365530E-1
 1.010203870505000E+10  -4.094431355134375E-1    2.604290591826078E-1   -6.074419568188543E-4   -6.304363921963414E-4   -5.308952261285202E-4   -6.422290657636240E-4   -2.528235071263478E-1    4.053733885007789E-1
 1.010205484532500E+10  -4.089292325553053E-1    2.612458034608212E-1   -6.328503512575750E-4   -6.231352174092428E-4   -5.569416927745222E-4   -6.608739037122621E-4   -2.519270980157395E-1    4.060453404597124E-1
 1.010207098560000E+10  -4.085470285451907E-1    2.621390742769139E-1   -6.147331692296658E-4   -6.229989728725814E-4   -5.536876325761361E-4   -6.439888613685825E-4   -2.510292705846516E-1    4.066668060153203E-1
 1.010208712587500E+10  -4.079424755236816E-1    2.631076879435311E-1   -6.196033920744756E-4   -6.642702383033547E-4   -5.564125121711974E-4   -6.556607352575026E-4   -2.501698353082843E-1    4.072079642219189E-1
 1.010210326615000E+10  -4.075568476150290E-1    2.639413391630098E-1   -5.988784613381544E-4   -6.456233197972325E-4   -5.404192652891269E-4   -6.290809097621943E-4   -2.493341350551287E-1    4.076889217814060E-1
 1.010211940642500E+10  -4.070837244510840E-1    2.647686113391775E-1   -5.944920302240407E-4   -6.297284325267157E-4   -5.697063528235015E-4   -6.296994320690906E-4   -2.484083932805178E-1    4.083157549825840E-1
 1.010213554670000E+10  -4.066061361389328E-1    2.656213171278666E-1   -5.879646176859467E-4   -5.924264278525967E-4   -5.252518978318528E-4   -6.597828667159064E-4   -2.475748039316977E-1    4.088694503338672E-1
 1.010215168697500E+10  -4.060048912109935E-1    2.665693457239985E-1   -6.437057463047271E-4   -6.210656389363512E-4   -5.490065276505656E-4   -6.570054223699366E-4   -2.465053928615102E-1    4.094767380170189E-1
 1.010216782725000E+10  -4.055694185855605E-1    2.673419663787671E-1   -6.270438024105576E-4   -5.993348473584219E-4   -5.564446935022825E-4   -6.288757560196597E-4   -2.457762103110364E-1    4.101279189270462E-1
 1.010218396752500E+10  -4.049141066732473E-1    2.681426490638954E-1   -6.242478726389843E-4   -6.119807707111629E-4   -5.655090083977318E-4   -6.344388286584378E-4   -2.448302735834252E-1    4.106751110480182E-1
 1.010220010780000E+10  -4.046969038415579E-1    2.689165842475791E-1   -6.186893467464734E-4   -5.997049818926057E-4   -5.343013384466956E-4   -6.542986140529082E-4   -2.440853778549482E-1    4.111707219399344E-1
 1.010221624807500E+10  -4.040558324013408E-1    2.699143310448284E-1   -5.859039214173768E-4   -5.959822485450363E-4   -5.291173478774534E-4   -6.627777823751454E-4   -2.431262906981111E-1    4.118989711211803E-1
 1.010223238835000E+10  -4.035315892317113E-1    2.706148613409702E-1   -6.016951659443367E-4   -6.187873166921172E-4   -5.256817700429737E-4   -6.450438328840876E-4   -2.422039806732108E-1    4.123651440557599E-1
 1.010224852862500E+10  -4.030099343710967E-1    2.716295357629163E-1   -6.137682840464496E-4   -6.161325496317599E-4   -5.409142176032350E-4   -6.243220659430277E-4   -2.412389379699431E-1    4.130315783740971E-1
 1.010226466890000E+10  -4.025879134892782E-1    2.724278047689011E-1   -6.234840715912777E-4   -6.069196636813660E-4   -5.533776298063349E-4   -6.385594348662597E-4   -2.404222060004201E-1    4.134509703488223E-1
 1.010228080917500E+10  -4.021702488298179E-1    2.731471902910387E-1   -5.914352946097657E-4   -6.041500466439642E-4   -5.411602768170547E-4   -6.393159672140352E-4   -2.394915018472167E-1    4.141195792575907E-1
 1.010229694945000E+10  -4.016126400838628E-1    2.739536040439720E-1   -6.104835268622103E-4   -6.059619520088528E-4   -5.513928934331727E-4   -6.402375452929876E-4   -2.386455716892627E-1    4.147360495523526E-1
 1.010231308972500E+10  -4.010382294382507E-1    2.747926552560076E-1   -6.149848768590968E-4   -6.313927795687317E-4   -5.341825357459830E-4   -6.323836563025802E-4   -2.377993042436838E-1    4.153008695685197E-1
 1.010232923000000E+10  -4.003849976348435E-1    2.757882542140724E-1   -6.314956397095768E-4   -5.929215530482488E-4   -5.560315802975125E-4   -6.205899431428373E-4   -2.368131589660256E-1    4.158215698599723E-1
 1.010234537027500E+10  -3.998917201180948E-1    2.765026808148998E-1   -6.121291510586219E-4   -5.533203679184296E-4   -5.280318402980617E-4   -6.246483861254041E-4   -2.360859592426395E-1    4.164923303631529E-1
 1.010236151055000E+10  -3.993791996173620E-1    2.774078734012768E-1   -6.401096676222588E-4   -5.849816517123177E-4   -5.537464429257484E-4   -6.015218572818446E-4   -2.350534136990771E-1    4.168878518471922E-1
 1.010237765082500E+10  -3.988589691520514E-1    2.783359255391711E-1   -5.892835910824858E-4   -5.950609191740389E-4   -5.379755815882575E-4   -6.350429983843744E-4   -2.343424826276114E-1    4.174596423283163E-1
 1.010239379110000E+10  -3.982676981670404E-1    2.790760721383144E-1   -5.957853545408210E-4   -5.548751828640452E-4   -5.566451745889435E-4   -5.921640854660446E-4   -2.332974817573875E-1    4.180978373658787E-1
 1.010240993137500E+10  -3.978219213121036E-1    2.798785391238200E-1   -5.827792785730672E-4   -5.730649381667206E-4   -5.391142133109539E-4   -5.547833037092108E-4   -2.324044990061225E-1    4.186028048485564E-1
 1.010242607165000E+10  -3.973300833571987E-1    2.807752423032288E-1   -5.883550074170166E-4   -6.035283902272909E-4   -5.265807757897609E-4   -6.225152699067869E-4   -2.314201499230331E-1    4.190992908182948E-1
 1.010244221192500E+10  -3.968686571587732E-1    2.814701510872212E-1   -5.926444125324999E-4   -5.751746329075497E-4   -5.316489841950040E-4   -5.835838758757781E-4   -2.305535956970806E-1    4.196681519033123E-1
 1.010245835220000E+10  -3.962753233373816E-1    2.823254162982366E-1   -6.032205164354920E-4   -5.560083361784159E-4   -5.293043800625995E-4   -6.328617950093011E-4   -2.294974764798244E-1    4.203859220088900E-1
 1.010247449247500E+10  -3.957920705063006E-1    2.832546441024205E-1   -6.074271234398202E-4   -5.575249970624208E-4   -5.381006361411076E-4   -5.814155211841554E-4   -2.288367248383474E-1    4.206413193593086E-1
 1.010249063275000E+10  -3.952898345542882E-1    2.840222998040515E-1   -6.095424763971457E-4   -5.531484696992496E-4   -5.200671497514330E-4   -6.096904341782643E-4   -2.278142383422544E-1    4.213671474287503E-1
 1.010250677302500E+10  -3.947293503728255E-1    2.850392596966558E-1   -6.286274534565300E-4   -5.293636706806728E-4   -5.153621172994199E-4   -6.024939906982849E-4   -2.268986444683959E-1    4.219463294300440E-1
 1.010252291330000E+10  -3.942061015099346E-1    2.855920409628214E-1   -5.912673369953971E-4   -5.650546618653785E-4   -5.210237083165253E-4   -5.702920930765697E-4   -2.260472436231058E-1    4.223409133189344E-1
 1.010253905357500E+10  -3.937421597030045E-1    2.864678563022149E-1   -5.795306321134277E-4   -5.659024458531794E-4   -5.616846214338453E-4   -5.736545832219704E-4   -2.250593051863518E-1    4.229955005301230E-1
 1.010255519385000E+10  -3.933006121617599E-1    2.873604100121577E-1   -5.821589882339393E-4   -5.503618410378149E-4   -5.404181939701384E-4   -6.049406114351178E-4   -2.241034703355999E-1    4.234856673904784E-1
 1.010257133412500E+10  -3.925202549778508E-1    2.881087584197289E-1   -6.190071739873999E-4   -5.323190169032394E-4   -5.202281393634759E-4   -5.510477496853365E-4   -2.232671766160152E-1    4.240391091848550E-1
 1.010258747440000E+10  -3.920268257174004E-1    2.890515293001715E-1   -6.062611290144023E-4   -5.542272004726203E-4   -5.248187657061306E-4   -5.972693076055300E-4   -2.223400183390548E-1    4.244818798249752E-1
 1.010260361467500E+10  -3.914310105254580E-1    2.897899762902697E-1   -5.961301118763327E-4   -5.473309008595489E-4   -5.130542496652998E-4   -5.692042100816117E-4   -2.215140557947868E-1    4.250527965678751E-1
 1.010261975495000E+10  -3.909631829022095E-1    2.906987801902224E-1   -5.925816766408408E-4   -5.237190816935582E-4   -5.635316207676590E-4   -5.963850382153977E-4   -2.204543703725631E-1    4.255204521887497E-1
 1.010263589522500E+10  -3.904187813951533E-1    2.914841619234326E-1   -5.987573330684911E-4   -5.475798182614287E-4   -5.372624882793175E-4   -5.648790736066511E-4   -2.196237010995305E-1    4.260657867869327E-1
 1.010265203550000E+10  -3.898104302307445E-1    2.921821959861201E-1   -6.169619828985754E-4   -5.390224427168405E-4   -5.290934762872330E-4   -5.695925355023113E-4   -2.187337800615157E-1    4.267288630442136E-1
 1.010266817577500E+10  -3.893351605478034E-1    2.930429246120811E-1   -5.696204549158918E-4   -5.670477326777172E-4   -5.341064168872460E-4   -5.684554408849768E-4   -2.178025769442908E-1    4.272243466620665E-1
 1.010268431605000E+10  -3.887350565283340E-1    2.939063627067819E-1   -6.094056968088727E-4   -5.162693144891738E-4   -5.123861245961362E-4   -5.528277176852295E-4   -2.168071045058222E-1    4.277687323064056E-1
 1.010270045632500E+10  -3.881611866827232E-1    2.947499646194596E-1   -6.039799444254346E-4   -5.462326326425920E-4   -5.144533561607008E-4   -5.296865806747069E-4   -2.158471769478609E-1    4.282387616290931E-1
 1.010271659660000E+10  -3.876455795035043E-1    2.954544430947786E-1   -5.943439981844234E-4   -5.346494271135813E-4   -5.331505699358007E-4   -5.403436137020754E-4   -2.149216167632140E-1    4.287681666697711E-1
 1.010273273687500E+10  -3.870751830596338E-1    2.963606584314689E-1   -5.492132533333028E-4   -5.342079958702109E-4   -5.069045833942203E-4   -5.583290915959103E-4   -2.140808592300079E-1    4.291678244314499E-1
 1.010274887715000E+10  -3.864072928517888E-1    2.971076647957154E-1   -5.897244514072323E-4   -5.534471126514252E-4   -5.120506331529542E-4   -5.538987295232297E-4   -2.130749721068499E-1    4.297500453226548E-1
 1.010276501742500E+10  -3.858772999385742E-1    2.979858759958293E-1   -5.864391275269271E-4   -5.139961187901192E-4   -4.980372199153082E-4   -5.098577717051035E-4   -2.120305597876454E-1    4.303425029112947E-1
 1.010278115770000E+10  -3.853906460516064E-1    2.988190506532800E-1   -5.845356932005473E-4   -5.190048656637515E-4   -4.955151581723543E-4   -5.327926740177150E-4   -2.111384122067620E-1    4.307423248981177E-1
 1.010279729797500E+10  -3.847679399420353E-1    2.995362734851582E-1   -5.581165579759558E-4   -5.309304114530033E-4   -5.017244594560437E-4   -5.207784780209434E-4   -2.102891688102637E-1    4.312030986692716E-1
 1.010281343825000E+10  -3.842382372464886E-1    3.003250919028635E-1   -5.880504438723552E-4   -5.113298915771216E-4   -5.088753897528645E-4   -5.381013803654684E-4   -2.092871957928578E-1    4.317873527673690E-1
 1.010282957852500E+10  -3.837484560505606E-1    3.010577524806594E-1   -5.763659704637054E-4   -5.128742419676046E-4   -5.244848637903248E-4   -5.082344056335999E-4   -2.083105671451315E-1    4.323095125067502E-1
 1.010284571880000E+10  -3.830583149786789E-1    3.020024170955016E-1   -5.806997891931294E-4   -5.094152248555091E-4   -5.144939857778217E-4   -5.569598680506850E-4   -2.075134896890912E-1    4.328918484922360E-1
 1.010286185907500E+10  -3.824740669526369E-1    3.027890473113391E-1   -5.947269444862386E-4   -5.128574677287450E-4   -5.107179249216191E-4   -5.047548346737731E-4   -2.063854837604775E-1    4.332832863491535E-1
 1.010287799935000E+10  -3.819021478015558E-1    3.035474136819745E-1   -5.825012312326157E-4   -4.945002688973107E-4   -5.004315052690138E-4   -5.130760136546962E-4   -2.055036088364385E-1    4.338186300947508E-1
 1.010289413962500E+10  -3.813747147715516E-1    3.043252051776241E-1   -5.665718262605219E-4   -4.849012119245276E-4   -4.853532296799472E-4   -5.290543493198629E-4   -2.045825502834056E-1    4.344670859215948E-1
 1.010291027990000E+10  -3.807759529038184E-1    3.052206343350474E-1   -5.570021170712979E-4   -5.024220759232407E-4   -4.968419164534044E-4   -5.058022618834730E-4   -2.035484139753640E-1    4.347633697225733E-1
 1.010292642017500E+10  -3.802554433103912E-1    3.059044383307090E-1   -5.362429520314830E-4   -5.136466569397817E-4   -5.072198290964543E-4   -5.136600628605140E-4   -2.025555443910332E-1    4.352644786646713E-1
 1.010294256045000E+10  -3.797045836648082E-1    3.066611968907438E-1   -5.432558286474099E-4   -4.853781141743174E-4   -4.887539671780067E-4   -5.225256820771985E-4   -2.016568053334384E-1    4.357321451005373E-1
 1.010295870072500E+10  -3.790882004711245E-1    3.075390550007140E-1   -5.383575997988940E-4   -4.842019904837063E-4   -5.106797950613572E-4   -5.149397105947694E-4   -2.006152116955095E-1    4.362673705331239E-1
 1.010297484100000E+10  -3.785359889701786E-1    3.083628322616077E-1   -5.526888119123493E-4   -4.692882104351130E-4   -4.837172380758957E-4   -5.005605672822130E-4   -1.995543626930284E-1    4.367977532488734E-1
 1.010299098127500E+10  -3.780472612085949E-1    3.090259647365116E-1   -5.477043110264906E-4   -4.663182451858711E-4   -4.766189244352120E-4   -5.072269636864274E-4   -1.987109502019504E-1    4.372529972999285E-1
 1.010300712155000E+10  -3.773330019791521E-1    3.099795621586385E-1   -5.397130151083286E-4   -4.715665772712836E-4   -4.854274486780954E-4   -4.940125803379686E-4   -1.977704058704560E-1    4.378047026904678E-1
 1.010302326182500E+10  -3.767896517249964E-1    3.105886123140557E-1   -4.997964449314365E-4   -4.338423520294829E-4   -4.648800245438352E-4   -5.050499263850245E-4   -1.968300443616625E-1    4.381164779537576E-1
 1.010303940210000E+10  -3.761369078600229E-1    3.115161899669483E-1   -5.289652299580073E-4   -4.718941984941523E-4   -4.906312927594202E-4   -4.854490238256762E-4   -1.957917778668975E-1    4.385415235460861E-1
 1.010305554237500E+10  -3.755733825810468E-1    3.122460562850777E-1   -5.309161147411638E-4   -4.525026352930609E-4   -4.837603578966398E-4   -4.907325494629971E-4   -1.947227919124088E-1    4.391078280307816E-1
 1.010307168265000E+10  -3.750534337658255E-1    3.129479525811518E-1   -5.146180317606403E-4   -4.440696236547070E-4   -4.826125730690105E-4   -4.861603966844545E-4   -1.939028343618632E-1    4.395595957828535E-1
 1.010308782292500E+10  -3.742699882067351E-1    3.138368437187649E-1   -5.455138587434434E-4   -4.735305498970399E-4   -4.553143314869122E-4   -4.695910863210465E-4   -1.928856318225715E-1    4.400150791922283E-1
 1.010310396320000E+10  -3.738529773412625E-1    3.146328116329676E-1   -5.253149465402411E-4   -4.388354200058581E-4   -4.527781147555292E-4   -4.893038904947097E-4   -1.917959030615629E-1    4.405911194590029E-1
 1.010312010347500E+10  -3.732288352990595E-1    3.154327053224235E-1   -4.841220200283641E-4   -4.692194451486069E-4   -4.347446755754256E-4   -4.789650339799693E-4   -1.910500927372503E-1    4.409686587338967E-1
 1.010313624375000E+10  -3.727019967998267E-1    3.161624393436720E-1   -4.949787573609842E-4   -4.565025104597996E-4   -4.774077623952284E-4   -4.903469088340289E-4   -1.897005022312637E-1    4.413508360436327E-1
