#  HZ   S   RI   R     50.00 
! Rohde & Schwarz Vector Network Analyzer 
! Rohde-Schwarz,ZNB20-2Port,1311601062101988,3.16
! Created: UTC 3/20/2024, 4:56:12 PM
! freq[Hz]                re:S11                  im:S11                  re:S21                  im:S21                  re:S12                  im:S12                  re:S22                  im:S22
 1.010170712200000E+10  -4.189270533201751E-1    2.426479302641465E-1   -6.097941265526981E-4   -6.879637256237197E-4   -5.461977308731114E-4   -7.150553816673612E-4   -2.702753617215090E-1    3.927196071515135E-1
 1.010172311852500E+10  -4.185130922501523E-1    2.434152649417201E-1   -6.326225231703101E-4   -7.121550381684773E-4   -5.340219292813708E-4   -7.325132159411089E-4   -2.693859857347849E-1    3.933140230699562E-1
 1.010173911505000E+10  -4.181284315848413E-1    2.444094507857740E-1   -5.958153700284126E-4   -6.799693917881451E-4   -5.500459172893733E-4   -6.834799588615719E-4   -2.685564601769094E-1    3.941177173146815E-1
 1.010175511157500E+10  -4.177776676860040E-1    2.452950587637151E-1   -6.326045447518876E-4   -6.694449783443855E-4   -5.327492960038089E-4   -7.079879307769583E-4   -2.678242644061134E-1    3.946284948725404E-1
 1.010177110810000E+10  -4.172400978290170E-1    2.462491986834212E-1   -6.042172191156094E-4   -6.824517239925664E-4   -5.471687853425169E-4   -6.728428155420088E-4   -2.669134784667687E-1    3.953270825993340E-1
 1.010178710462500E+10  -4.169691528548344E-1    2.470579360837931E-1   -6.287098809729441E-4   -6.942191598319193E-4   -5.292022563765784E-4   -6.783101084292180E-4   -2.661403167603374E-1    3.958681343795377E-1
 1.010180310115000E+10  -4.164524372245677E-1    2.479003311900563E-1   -6.374563655021829E-4   -6.815643627282200E-4   -5.505637198910658E-4   -6.791982538128929E-4   -2.652362241741126E-1    3.965787459079745E-1
 1.010181909767500E+10  -4.158455093391046E-1    2.486595162085490E-1   -6.271547376052412E-4   -6.355623795384755E-4   -5.353321229848925E-4   -6.900124899291564E-4   -2.643563524713022E-1    3.972037015387032E-1
 1.010183509420000E+10  -4.153731179325650E-1    2.496792818104177E-1   -6.318445442762747E-4   -6.607259121410006E-4   -5.421241443163813E-4   -6.680221374822426E-4   -2.635545088272226E-1    3.976857682871460E-1
 1.010185109072500E+10  -4.150294181588728E-1    2.505494731816389E-1   -6.248205872815046E-4   -6.647045575635988E-4   -5.484215917451665E-4   -6.748516750991183E-4   -2.626588334923595E-1    3.983089324674589E-1
 1.010186708725000E+10  -4.145283980979450E-1    2.513469001295246E-1   -6.049010212160668E-4   -6.680504211702927E-4   -5.453515804312385E-4   -6.957671882088868E-4   -2.619009055990951E-1    3.990017453134528E-1
 1.010188308377500E+10  -4.140217404920809E-1    2.522822893440942E-1   -6.045868505589692E-4   -6.490911097638042E-4   -5.550027468529486E-4   -6.778962985038251E-4   -2.610055581609688E-1    3.995072750058716E-1
 1.010189908030000E+10  -4.135696123672652E-1    2.530030852418695E-1   -6.073631616464076E-4   -6.624433804945240E-4   -5.617429119366079E-4   -6.715461932711885E-4   -2.602162225604696E-1    4.001535542829258E-1
 1.010191507682500E+10  -4.130903450111523E-1    2.539067871632130E-1   -6.191390733918751E-4   -6.741001959079782E-4   -5.524813078877334E-4   -6.735678666222794E-4   -2.594434487266198E-1    4.007440203362292E-1
 1.010193107335000E+10  -4.125946133373014E-1    2.548002786610036E-1   -6.177086408993553E-4   -6.371570587448530E-4   -5.515890937934352E-4   -6.662814744761360E-4   -2.584549095931203E-1    4.014237129468373E-1
 1.010194706987500E+10  -4.120499223617372E-1    2.555994378082271E-1   -6.322325290535615E-4   -6.508242313473731E-4   -5.507278448785588E-4   -6.618422570989909E-4   -2.577504178674977E-1    4.019545667529835E-1
 1.010196306640000E+10  -4.116917293546364E-1    2.563594061685575E-1   -6.178407400466257E-4   -6.707105671023875E-4   -5.664481229688018E-4   -6.784690372302458E-4   -2.567524149522864E-1    4.026862663177052E-1
 1.010197906292500E+10  -4.111159865411331E-1    2.572700159246992E-1   -5.994393382253334E-4   -6.400550345787545E-4   -5.504495527166940E-4   -6.846304374057560E-4   -2.559870406428061E-1    4.032689526435663E-1
 1.010199505945000E+10  -4.107260253405879E-1    2.582397156918323E-1   -5.965309252659468E-4   -6.444095309198670E-4   -5.434658203497222E-4   -6.523991256126878E-4   -2.552297946842504E-1    4.037468877868290E-1
 1.010201105597500E+10  -4.103650839895493E-1    2.591266791186165E-1   -6.081638577541416E-4   -6.553588329783169E-4   -5.361394533242596E-4   -6.611447776523643E-4   -2.542832810512450E-1    4.043140240737465E-1
 1.010202705250000E+10  -4.096971080770581E-1    2.597692160056027E-1   -6.116386238820258E-4   -6.677765207776253E-4   -5.152840775763429E-4   -6.501019090081109E-4   -2.535000311098142E-1    4.050853230844630E-1
 1.010204304902500E+10  -4.093548474059204E-1    2.607147574677394E-1   -6.444808981542582E-4   -6.361724491720574E-4   -5.364078762073099E-4   -6.530840626236106E-4   -2.525153783376796E-1    4.055962592459554E-1
 1.010205904555000E+10  -4.087375199669268E-1    2.615731064263708E-1   -6.032708087095348E-4   -6.475422806941585E-4   -5.425128620212892E-4   -6.355168494996925E-4   -2.516747743079595E-1    4.060734262495909E-1
 1.010207504207500E+10  -4.083535366819812E-1    2.623689879318233E-1   -6.060380940434767E-4   -6.231206933124109E-4   -5.506771142931621E-4   -6.536409913349043E-4   -2.508506569874945E-1    4.068123857013322E-1
 1.010209103860000E+10  -4.079849382499582E-1    2.632509737771107E-1   -6.178198783696870E-4   -6.196184624389842E-4   -5.518463322829928E-4   -6.684387130738357E-4   -2.498847255735146E-1    4.073040912771373E-1
 1.010210703512500E+10  -4.075499314283548E-1    2.641586462023758E-1   -6.224697756192044E-4   -6.189917839612088E-4   -5.556062080727054E-4   -6.464115094160060E-4   -2.490085407524820E-1    4.078803782958496E-1
 1.010212303165000E+10  -4.069039979805261E-1    2.649136154819062E-1   -6.039848541237217E-4   -6.304351721304583E-4   -5.494579103372565E-4   -6.588033553997315E-4   -2.481208116730209E-1    4.085411797061083E-1
 1.010213902817500E+10  -4.064675265593638E-1    2.657517221792310E-1   -6.385621088655438E-4   -6.276430701423813E-4   -5.461719290478719E-4   -6.238184190102004E-4   -2.473225132126807E-1    4.090930791532887E-1
 1.010215502470000E+10  -4.059475123073612E-1    2.666522886570756E-1   -6.239824563957582E-4   -6.174421524212828E-4   -5.194319527415317E-4   -6.374557749779467E-4   -2.463788961886682E-1    4.096292916990860E-1
 1.010217102122500E+10  -4.054506947226483E-1    2.673463240210499E-1   -6.240705116735900E-4   -6.275698126782021E-4   -5.506785659762360E-4   -6.386284988624835E-4   -2.456452877085633E-1    4.102495791257898E-1
 1.010218701775000E+10  -4.048031934025298E-1    2.684190296276255E-1   -6.275101616704094E-4   -6.137299926974313E-4   -5.567967169242778E-4   -6.618933637602562E-4   -2.447489756171795E-1    4.109155805899151E-1
 1.010220301427500E+10  -4.044920655542730E-1    2.691725430292666E-1   -6.040726479436932E-4   -6.017862184371541E-4   -5.497958805373200E-4   -6.087335298018194E-4   -2.438815288110574E-1    4.114340114828881E-1
 1.010221901080000E+10  -4.038330205738097E-1    2.700118925764352E-1   -6.562332233178272E-4   -6.305566211282687E-4   -5.424545605274770E-4   -6.248294561787341E-4   -2.429760520338441E-1    4.119995836497742E-1
 1.010223500732500E+10  -4.033295442077302E-1    2.708042364440751E-1   -6.506137940874555E-4   -5.872873940406453E-4   -5.668912802997682E-4   -6.397429556233279E-4   -2.421382910698056E-1    4.126052364394834E-1
 1.010225100385000E+10  -4.029573740744019E-1    2.714802857372356E-1   -6.133980245896426E-4   -6.040954221664094E-4   -5.429628313041398E-4   -6.494024208942078E-4   -2.411953374604993E-1    4.129891629523307E-1
 1.010226700037500E+10  -4.023415864865617E-1    2.724632482205230E-1   -6.067805937152859E-4   -6.005738831404565E-4   -5.514066316073157E-4   -6.424383494281475E-4   -2.404265677864702E-1    4.136318012562648E-1
 1.010228299690000E+10  -4.018741034885278E-1    2.732594428136133E-1   -6.216544760247048E-4   -6.136127362530359E-4   -5.658676771580453E-4   -6.130982760395124E-4   -2.394578892012525E-1    4.143157116889882E-1
 1.010229899342500E+10  -4.014694928431621E-1    2.741116177832107E-1   -6.234095291927635E-4   -5.878880428364644E-4   -5.274623561585803E-4   -6.441163821196378E-4   -2.385645201317376E-1    4.147026199257187E-1
 1.010231498995000E+10  -4.009389748585476E-1    2.749488257832663E-1   -5.968452747618311E-4   -6.078626150815889E-4   -5.619680800376639E-4   -6.224926450675205E-4   -2.376752555405212E-1    4.153149805740293E-1
 1.010233098647500E+10  -4.004377473511907E-1    2.757814383213641E-1   -6.306812849375868E-4   -5.967994294967886E-4   -5.447612808115622E-4   -6.083876499705943E-4   -2.367840252405982E-1    4.158992367654547E-1
 1.010234698300000E+10  -3.999467097702109E-1    2.766981429570770E-1   -6.232628704818028E-4   -5.862720613533636E-4   -5.533685531267967E-4   -6.161749644274864E-4   -2.359366535613834E-1    4.166321031589382E-1
 1.010236297952500E+10  -3.993346944647071E-1    2.775599702928614E-1   -5.799763111266555E-4   -6.116659394547401E-4   -5.445498516256908E-4   -5.970829414910539E-4   -2.350521235940970E-1    4.169191676785451E-1
 1.010237897605000E+10  -3.988338040529762E-1    2.784020136215984E-1   -6.021239592335929E-4   -5.869895413243835E-4   -5.245731852862792E-4   -6.130564889650339E-4   -2.340248654910773E-1    4.174151216113244E-1
 1.010239497257500E+10  -3.983104381304450E-1    2.791258060947887E-1   -6.079248812003221E-4   -6.187987306019464E-4   -5.369615848511980E-4   -6.134828033200263E-4   -2.332247936343531E-1    4.180709890513123E-1
 1.010241096910000E+10  -3.978856872620679E-1    2.799841663898797E-1   -6.069770063758422E-4   -5.831070120412444E-4   -5.615294584687262E-4   -5.922538501866463E-4   -2.323963688266346E-1    4.185930963599472E-1
 1.010242696562500E+10  -3.972651285997646E-1    2.808024032452361E-1   -6.144522318469280E-4   -5.516286747571868E-4   -5.684919250911639E-4   -5.819210627090344E-4   -2.315115669547143E-1    4.192077016675430E-1
 1.010244296215000E+10  -3.967588742975090E-1    2.815637662901709E-1   -6.009876185302457E-4   -5.821113413563593E-4   -5.415618864288324E-4   -6.028784064882785E-4   -2.305773755761682E-1    4.196739357818899E-1
 1.010245895867500E+10  -3.962685028672194E-1    2.824408604906513E-1   -5.959049063200880E-4   -5.465590749716791E-4   -5.307150538852937E-4   -5.875359993713761E-4   -2.296049459144279E-1    4.202493451905016E-1
 1.010247495520000E+10  -3.956955109960935E-1    2.832335859815439E-1   -6.033614967103119E-4   -5.696990274710772E-4   -5.175815081960811E-4   -6.177241723191560E-4   -2.287795484388096E-1    4.208249271815734E-1
 1.010249095172500E+10  -3.953032937357262E-1    2.841913946168162E-1   -6.208137488513322E-4   -5.735123627863895E-4   -5.223123973189111E-4   -5.907978267594696E-4   -2.277605033112854E-1    4.214881156116413E-1
 1.010250694825000E+10  -3.945614549475445E-1    2.849345392480460E-1   -5.787019128921455E-4   -5.439825300404538E-4   -5.340289292426960E-4   -5.834428587820807E-4   -2.270310325459541E-1    4.219441768405207E-1
 1.010252294477500E+10  -3.940729015656152E-1    2.856780167677076E-1   -5.908305024045628E-4   -5.559481388389528E-4   -5.283115568175651E-4   -6.003978327960380E-4   -2.260529443025523E-1    4.224512377403246E-1
 1.010253894130000E+10  -3.935283259565578E-1    2.865344209641719E-1   -5.980309779107274E-4   -5.770076631717513E-4   -5.234930057191469E-4   -5.875515112604805E-4   -2.252237701328213E-1    4.229396975225713E-1
 1.010255493782500E+10  -3.930936935596723E-1    2.873321643391192E-1   -5.824668454154593E-4   -5.831760660037445E-4   -5.203126818340393E-4   -5.734182448496405E-4   -2.241537269647632E-1    4.234992778153878E-1
 1.010257093435000E+10  -3.925780838145622E-1    2.880795382927948E-1   -5.918339402942503E-4   -5.405841816761649E-4   -5.087629268050073E-4   -5.553533761350732E-4   -2.233066709498395E-1    4.240623255107100E-1
 1.010258693087500E+10  -3.920018557944271E-1    2.890378425810545E-1   -5.784196161629627E-4   -5.584442916389615E-4   -5.163385843863340E-4   -5.569992652127945E-4   -2.224074738691913E-1    4.244512425588041E-1
 1.010260292740000E+10  -3.915459480759546E-1    2.897483757166548E-1   -5.859115000550627E-4   -5.395337774925333E-4   -5.321553536777246E-4   -5.567469490667698E-4   -2.214372171221037E-1    4.250327961483155E-1
 1.010261892392500E+10  -3.909074781393413E-1    2.906646952995227E-1   -6.026548237504398E-4   -5.038313157864249E-4   -5.376403862573662E-4   -5.862731261711212E-4   -2.205816971605468E-1    4.256129206595061E-1
 1.010263492045000E+10  -3.903525451549507E-1    2.914120050419873E-1   -6.166700604351835E-4   -5.464024334177082E-4   -5.364687717408267E-4   -5.652833562929551E-4   -2.195828388405669E-1    4.261353658532656E-1
 1.010265091697500E+10  -3.897259862474822E-1    2.922078949416207E-1   -5.950290394123507E-4   -5.448363745658471E-4   -5.266241876617511E-4   -5.833824316916304E-4   -2.187651366235911E-1    4.267567624674664E-1
 1.010266691350000E+10  -3.894179543357071E-1    2.930532077735609E-1   -5.913713951220020E-4   -5.147446077841905E-4   -5.285458909173890E-4   -5.631076604642183E-4   -2.176905616329475E-1    4.271378061415385E-1
 1.010268291002500E+10  -3.887834111669184E-1    2.937602135222102E-1   -5.929993920126681E-4   -5.213039250809479E-4   -5.311644990291138E-4   -5.684845492636706E-4   -2.168586464332414E-1    4.277617740361703E-1
 1.010269890655000E+10  -3.883051655997455E-1    2.945223136637289E-1   -5.826227537421121E-4   -5.337822800374588E-4   -5.007887869211445E-4   -5.273859226098445E-4   -2.159544293215599E-1    4.281561380420286E-1
 1.010271490307500E+10  -3.876963319672287E-1    2.954394903949769E-1   -6.006347861973467E-4   -5.302716984649068E-4   -5.225632163450653E-4   -5.686121736966799E-4   -2.151566655799951E-1    4.286081149954832E-1
 1.010273089960000E+10  -3.871198257767468E-1    2.962269250571183E-1   -5.707815386462541E-4   -5.176442682886560E-4   -5.220082154761756E-4   -5.367172834702795E-4   -2.140894711161140E-1    4.292236324580073E-1
 1.010274689612500E+10  -3.865220209475764E-1    2.969612807175492E-1   -5.606374835748205E-4   -5.312985188997791E-4   -5.343340078687299E-4   -5.298257936060015E-4   -2.130982458594074E-1    4.297991321802152E-1
 1.010276289265000E+10  -3.859009230548728E-1    2.977035024936482E-1   -5.973602799549393E-4   -5.260227915251288E-4   -5.143332230043777E-4   -5.511305147109602E-4   -2.122368969136162E-1    4.301508518262486E-1
 1.010277888917500E+10  -3.855345477566861E-1    2.985095781722364E-1   -5.630245144997645E-4   -4.882190225531927E-4   -4.960402317166934E-4   -5.505991176519752E-4   -2.113407947787357E-1    4.305605928364182E-1
 1.010279488570000E+10  -3.847923110182433E-1    2.993942914256197E-1   -5.927039152064153E-4   -5.237270031547987E-4   -4.998835719622380E-4   -5.559289414463014E-4   -2.102914650469767E-1    4.311857660794050E-1
 1.010281088222500E+10  -3.842321817293698E-1    3.003563052189713E-1   -5.776986418709596E-4   -4.931907394246339E-4   -5.260670713309556E-4   -5.431298654674177E-4   -2.092890061609326E-1    4.315624612973772E-1
 1.010282687875000E+10  -3.839125694689447E-1    3.009635614898424E-1   -5.856497081172274E-4   -5.224046621365426E-4   -5.371983483280573E-4   -5.098534579895211E-4   -2.085386087796560E-1    4.322663388700893E-1
 1.010284287527500E+10  -3.832506004909135E-1    3.017794231107551E-1   -5.555932956330958E-4   -5.153544803780796E-4   -5.051472481564235E-4   -5.203393513612460E-4   -2.075910241756832E-1    4.327030749512252E-1
 1.010285887180000E+10  -3.826268198924523E-1    3.026743733888625E-1   -5.480864042924027E-4   -4.981017161584417E-4   -4.962440796933139E-4   -5.413550554262737E-4   -2.067621135824754E-1    4.331030111713872E-1
 1.010287486832500E+10  -3.820665358594073E-1    3.033460712295600E-1   -5.626316401487834E-4   -5.166407252743107E-4   -5.148961867217383E-4   -5.390035592144387E-4   -2.057533020664371E-1    4.336702115282103E-1
 1.010289086485000E+10  -3.816144648549474E-1    3.040433923110542E-1   -5.353257593532277E-4   -5.180301869441643E-4   -5.006887714156623E-4   -5.256904285403644E-4   -2.047128140678961E-1    4.342671461361942E-1
 1.010290686137500E+10  -3.809087790031938E-1    3.048673143874688E-1   -5.728034395386466E-4   -4.866701384399913E-4   -5.167455572718425E-4   -5.165428779321325E-4   -2.038365990721495E-1    4.347343326594936E-1
 1.010292285790000E+10  -3.803376988048378E-1    3.057659414325294E-1   -5.420930432375598E-4   -4.813555843346210E-4   -5.064492918337755E-4   -4.860342203275701E-4   -2.028280831804752E-1    4.353146853260423E-1
 1.010293885442500E+10  -3.798692585669603E-1    3.064366634196949E-1   -5.641497795702022E-4   -5.007585986038604E-4   -4.912852962623284E-4   -4.934019621940775E-4   -2.018279891557382E-1    4.356450622727422E-1
 1.010295485095000E+10  -3.791739687109330E-1    3.073359647981734E-1   -5.479638789117232E-4   -4.912863393171164E-4   -4.693216078934468E-4   -4.982647584222433E-4   -2.008631781271457E-1    4.362349715979590E-1
 1.010297084747500E+10  -3.786268015503737E-1    3.081423854337364E-1   -5.426720684490536E-4   -4.913677574313593E-4   -4.705316542691939E-4   -4.857799585462961E-4   -1.999254416146576E-1    4.365876443049044E-1
 1.010298684400000E+10  -3.779316351520128E-1    3.088578692032197E-1   -5.333936164942509E-4   -5.012954555920227E-4   -4.917711304101528E-4   -5.069982165377270E-4   -1.987912984845603E-1    4.370572520848117E-1
 1.010300284052500E+10  -3.775082719832307E-1    3.096852265946886E-1   -5.375014329065842E-4   -4.633202862478986E-4   -5.045207216803961E-4   -5.086819539442618E-4   -1.979170637939180E-1    4.375212205550107E-1
 1.010301883705000E+10  -3.768858605157483E-1    3.103713011179230E-1   -5.296214097514897E-4   -4.585866775211858E-4   -5.089814640579439E-4   -4.774421306283547E-4   -1.972303345196530E-1    4.381734881590775E-1
 1.010303483357500E+10  -3.762362752988745E-1    3.111518072437613E-1   -5.738122663333954E-4   -4.708009328136899E-4   -5.023452133737866E-4   -4.891594564934210E-4   -1.960730238107615E-1    4.385747637726262E-1
 1.010305083010000E+10  -3.757296778137055E-1    3.120716483993502E-1   -5.118939481581497E-4   -4.668287177968987E-4   -4.757729756100470E-4   -4.911605649437986E-4   -1.950233114378398E-1    4.390982046838351E-1
 1.010306682662500E+10  -3.751451478315541E-1    3.127805048092670E-1   -5.385565049083629E-4   -4.865237058081751E-4   -4.737379422630210E-4   -4.797601299133499E-4   -1.941056716476033E-1    4.394033185790200E-1
 1.010308282315000E+10  -3.745476844700107E-1    3.134786174539030E-1   -5.192324544306107E-4   -4.672363432855187E-4   -4.821458531639593E-4   -4.817419662941495E-4   -1.931872882191495E-1    4.399142023028680E-1
 1.010309881967500E+10  -3.740440373694939E-1    3.142813127529260E-1   -5.359381882106317E-4   -4.440304819085987E-4   -4.867111548527688E-4   -4.705427706638133E-4   -1.921110846082399E-1    4.403811268540298E-1
 1.010311481620000E+10  -3.733583562075778E-1    3.149911817926159E-1   -5.286988669162120E-4   -4.766055319687596E-4   -4.643165230518576E-4   -4.828535688429183E-4   -1.912309159452114E-1    4.408948079939947E-1
 1.010313081272500E+10  -3.728873117167383E-1    3.158562718710148E-1   -5.465718020435521E-4   -4.701673858764110E-4   -4.468144052397587E-4   -4.840210200198184E-4   -1.903257514264024E-1    4.414093200176193E-1
 1.010314680925000E+10  -3.721372147841767E-1    3.165642478227628E-1   -5.220415282113484E-4   -4.581908866151028E-4   -4.800920959657334E-4   -4.756056684489171E-4   -1.893564757626541E-1    4.418351282179575E-1
