#  HZ   S   RI   R     50.00 
! Rohde & Schwarz Vector Network Analyzer 
! Rohde-Schwarz,ZNB20-2Port,1311601062101988,3.16
! Created: UTC 3/20/2024, 4:49:16 PM
! freq[Hz]                re:S11                  im:S11                  re:S21                  im:S21                  re:S12                  im:S12                  re:S22                  im:S22
 1.010447557400000E+10  -3.178379108335561E-1    3.762765584707854E-1    1.594485691618498E-4    2.580182460939275E-5    1.619893942587431E-4    3.270797354562375E-5   -9.971045337954171E-2    4.747229506674830E-1
 1.010447881100000E+10  -3.176331496267872E-1    3.766183276535916E-1    1.803600373665952E-4    3.995714249139130E-5    1.764346096780241E-4    2.307094247847420E-5   -9.925448199355767E-2    4.748917138065978E-1
 1.010448204800000E+10  -3.174706898897851E-1    3.767402123193519E-1    1.820173296979174E-4    2.313446841005234E-5    1.569202738922182E-4    1.113428842533004E-5   -9.909029129537876E-2    4.749021523641127E-1
 1.010448528500000E+10  -3.174753594780097E-1    3.768631886368352E-1    1.888079752806302E-4    1.730095489748652E-5    1.959405414501985E-4    2.988457774625267E-5   -9.871345796337888E-2    4.750018399928929E-1
 1.010448852200000E+10  -3.172677611534335E-1    3.768644958379455E-1    1.949527580650235E-4    3.120088404384687E-5    1.795619471027735E-4    6.459630077515667E-5   -9.847017876287829E-2    4.751602303768716E-1
 1.010449175900000E+10  -3.170402794564986E-1    3.769618755895522E-1    2.279266220360144E-4   -6.030350831499178E-6    1.993918386205781E-4    1.497925416840817E-5   -9.807993210889196E-2    4.750577813987433E-1
 1.010449499600000E+10  -3.169063894960178E-1    3.772100240655225E-1    2.256628055928790E-4    1.622882659237795E-5    2.079831203723497E-4    4.828564474474563E-5   -9.784738842882310E-2    4.750487796023769E-1
 1.010449823300000E+10  -3.167863046927208E-1    3.774413275613170E-1    2.064751679663624E-4    5.980710014394008E-5    2.159797493779411E-4    6.035068852792691E-5   -9.760263982387653E-2    4.752774635875087E-1
 1.010450147000000E+10  -3.167088625491740E-1    3.775102976993142E-1    2.360870879857080E-4    3.654488854726106E-5    2.241644970487059E-4    4.477818029979319E-5   -9.726081257940984E-2    4.752708503895446E-1
 1.010450470700000E+10  -3.164874031357585E-1    3.776994896461656E-1    2.543637953322114E-4    2.116063683454262E-5    2.480449144282783E-4    5.000436883621201E-5   -9.689994096407137E-2    4.754649212905976E-1
 1.010450794400000E+10  -3.163508873320151E-1    3.777805044948317E-1    2.540936608330040E-4    5.226473808687148E-6    2.546612796102506E-4    6.264226240797767E-5   -9.681993375279245E-2    4.753953978579077E-1
 1.010451118100000E+10  -3.162351823120969E-1    3.779989453934553E-1    2.543988465274210E-4    3.717999827779267E-5    2.185654690519207E-4    5.640121366837910E-5   -9.651120571646682E-2    4.754007839079817E-1
 1.010451441800000E+10  -3.160500827405803E-1    3.780812413475895E-1    2.718242206371154E-4    4.459738146117650E-5    2.501895301914351E-4    6.094332538057626E-5   -9.613101174220617E-2    4.755107062591139E-1
 1.010451765500000E+10  -3.159832153133221E-1    3.782558106704365E-1    2.526111920274869E-4    4.540730054015338E-5    2.447458711764553E-4    9.463009439797686E-5   -9.582414726649184E-2    4.754114331880702E-1
 1.010452089200000E+10  -3.158036961066618E-1    3.782925375537605E-1    2.765994277925305E-4    4.482694675300699E-5    2.632193421853251E-4    6.636558547632148E-5   -9.544008592429427E-2    4.755606520155780E-1
 1.010452412900000E+10  -3.155669950859548E-1    3.784269564746410E-1    2.668890880446856E-4    4.798783255324295E-5    2.891886848328969E-4    9.823155932360030E-5   -9.523336528549087E-2    4.756153768393234E-1
 1.010452736600000E+10  -3.155328907251594E-1    3.786001155533727E-1    2.898900042838851E-4    2.973252253830675E-5    2.697459834293253E-4    9.083942338149101E-5   -9.495890614715688E-2    4.755991523332008E-1
 1.010453060300000E+10  -3.153356366353346E-1    3.786331488074860E-1    3.260741691737510E-4    5.405220921071183E-5    3.249508078176949E-4    5.860847711678815E-5   -9.470153005961239E-2    4.757058917965490E-1
 1.010453384000000E+10  -3.151414365889482E-1    3.788591578016975E-1    3.095354722433168E-4    4.306358704455708E-5    2.913795327421591E-4    6.825922956756245E-5   -9.431883862747890E-2    4.759477772950454E-1
 1.010453707700000E+10  -3.149906938513776E-1    3.789693971131415E-1    3.085485120968249E-4    8.123537630631290E-5    2.962500881083805E-4    9.167277275922050E-5   -9.403646827222083E-2    4.759356436489142E-1
 1.010454031400000E+10  -3.147091072539285E-1    3.790797712826417E-1    3.393203786792836E-4    6.192612456490040E-5    2.936306513174293E-4    8.348980074796917E-5   -9.379047124596873E-2    4.758904110348298E-1
 1.010454355100000E+10  -3.146638233675654E-1    3.791407833163862E-1    3.322450028973362E-4    5.975696418583371E-5    2.990754939013755E-4    9.888812657224287E-5   -9.348582189551020E-2    4.759121833313142E-1
 1.010454678800000E+10  -3.145154732042416E-1    3.794577963641562E-1    3.796092933559243E-4    5.478052833573679E-5    3.344439231248146E-4    1.076125244029876E-4   -9.316429625473845E-2    4.760416088141167E-1
 1.010455002500000E+10  -3.144181823243602E-1    3.794536476955891E-1    3.318320402985447E-4    5.811916655615245E-5    3.367406326480106E-4    8.080238532618444E-5   -9.276600797239999E-2    4.760565864129255E-1
 1.010455326200000E+10  -3.143484696717021E-1    3.795815991263657E-1    3.639315036455304E-4    8.981604659928580E-5    3.366912483654998E-4    9.679701837703193E-5   -9.254874114736837E-2    4.762415795365212E-1
 1.010455649900000E+10  -3.140157991122474E-1    3.797214752919438E-1    3.788495592621588E-4    6.844125637419544E-5    3.584202140768839E-4    7.793250885896186E-5   -9.215355772942685E-2    4.762041767109372E-1
 1.010455973600000E+10  -3.140456171621234E-1    3.799129086961373E-1    3.699490161622069E-4    9.646587997317029E-5    3.834339773969724E-4    9.861733998912117E-5   -9.191107468889688E-2    4.762164085486884E-1
 1.010456297300000E+10  -3.137416249817229E-1    3.800925171713500E-1    4.113373543624538E-4    8.408284180333853E-5    3.506979636320839E-4    1.054636727643184E-4   -9.162219100202508E-2    4.764876692611294E-1
 1.010456621000000E+10  -3.136871721636549E-1    3.801617172156190E-1    3.864819972590119E-4    5.180491828935500E-5    3.958116666543108E-4    1.160999075871187E-4   -9.144492421117927E-2    4.764760056784898E-1
 1.010456944700000E+10  -3.134532651693124E-1    3.802114424496728E-1    4.025876117970249E-4    6.256150640611238E-5    3.917833004840682E-4    1.203905791053174E-4   -9.122205272899273E-2    4.764736046101371E-1
 1.010457268400000E+10  -3.133789966263540E-1    3.804399666299283E-1    4.308241105326542E-4    9.169153908062808E-5    4.063138863405828E-4    9.258053862015161E-5   -9.066231130243207E-2    4.765812525919585E-1
 1.010457592100000E+10  -3.131718804285428E-1    3.805323945489137E-1    4.376841890677809E-4    9.035311401793749E-5    4.142795662585477E-4    1.189128706933110E-4   -9.032754719039299E-2    4.763962988227713E-1
 1.010457915800000E+10  -3.130909960466555E-1    3.807245198598982E-1    4.394619648872683E-4    9.826832760439991E-5    4.180047448167652E-4    1.227967135263274E-4   -9.000253613417850E-2    4.766939186666554E-1
 1.010458239500000E+10  -3.128859057914101E-1    3.809695740327891E-1    4.633436198389089E-4    1.091582594769266E-4    4.009558362001548E-4    1.087271374870540E-4   -8.979678850384237E-2    4.765011146916140E-1
 1.010458563200000E+10  -3.128636731390663E-1    3.809896357902023E-1    4.695140473903235E-4    1.096252700253533E-4    4.175672514151965E-4    9.773339147175620E-5   -8.938805861612052E-2    4.768362961783950E-1
 1.010458886900000E+10  -3.126337936934161E-1    3.811792063980632E-1    4.712098095343653E-4    6.468364816683468E-5    4.323052772806546E-4    1.329196602576518E-4   -8.908509881014534E-2    4.768143634871541E-1
 1.010459210600000E+10  -3.124261955314648E-1    3.812325524747831E-1    5.050894735616072E-4    9.826006598493769E-5    4.850909688907060E-4    1.005949660382109E-4   -8.883077436912867E-2    4.768231200508484E-1
 1.010459534300000E+10  -3.121593753847265E-1    3.813270256127850E-1    4.840630123027396E-4    9.431622914581914E-5    4.474014844052265E-4    1.475387651762801E-4   -8.835718813941580E-2    4.769279056221605E-1
 1.010459858000000E+10  -3.119684224461863E-1    3.814627846306025E-1    5.325768848073865E-4    8.886311167413833E-5    4.695981168761583E-4    1.323557776058791E-4   -8.825236000535719E-2    4.769254435310020E-1
 1.010460181700000E+10  -3.120029723196706E-1    3.816569551716033E-1    4.997554612078010E-4    9.027477698208244E-5    4.791386352615194E-4    1.655623700839054E-4   -8.777363340894571E-2    4.768923839421551E-1
 1.010460505400000E+10  -3.118547176807549E-1    3.816920727225119E-1    5.225506623172324E-4    1.144092668231026E-4    4.689063703044677E-4    1.709049491330297E-4   -8.749973394860025E-2    4.769057857836805E-1
 1.010460829100000E+10  -3.117216850943875E-1    3.818783365364777E-1    5.299257304373890E-4    1.062754447068317E-4    4.863441268318295E-4    1.481858193934884E-4   -8.705615916125009E-2    4.771151522112488E-1
 1.010461152800000E+10  -3.115153153536239E-1    3.819718681792146E-1    5.590852685011690E-4    9.265404699569881E-5    4.985061461116357E-4    1.553556748814862E-4   -8.683997419046784E-2    4.771619255749377E-1
 1.010461476500000E+10  -3.113748085699105E-1    3.822743524279249E-1    5.419388273913757E-4    1.268503465039643E-4    5.169497134024509E-4    1.455455700599668E-4   -8.653792914455342E-2    4.771947130907107E-1
 1.010461800200000E+10  -3.112487035305013E-1    3.823038734019412E-1    5.687676074044375E-4    1.094123455631856E-4    5.063917164805286E-4    1.401022893371658E-4   -8.616682954023094E-2    4.773936296996131E-1
 1.010462123900000E+10  -3.111149637991729E-1    3.824105278457485E-1    5.821862111135365E-4    1.342010322027861E-4    5.319066009337552E-4    1.803430401085055E-4   -8.578737130751402E-2    4.773347764427328E-1
 1.010462447600000E+10  -3.109244499068051E-1    3.825608025616263E-1    5.746674344907311E-4    1.279666366083787E-4    5.542134093176738E-4    1.504372122837549E-4   -8.542495783015142E-2    4.774379689900410E-1
 1.010462771300000E+10  -3.107856722031793E-1    3.826656987730644E-1    6.086596846284377E-4    1.227104066522893E-4    5.917968162315446E-4    1.711831844055348E-4   -8.509424502703340E-2    4.774076736222410E-1
 1.010463095000000E+10  -3.106337710585274E-1    3.827575848406439E-1    6.174724622397118E-4    8.903594773339906E-5    5.743751351801355E-4    1.729490829226884E-4   -8.471580165855679E-2    4.774637792978854E-1
 1.010463418700000E+10  -3.104183573430540E-1    3.829501712995599E-1    6.114935049336052E-4    1.066146254948272E-4    6.000137360264541E-4    1.943470893574438E-4   -8.434420315025833E-2    4.774381929259563E-1
 1.010463742400000E+10  -3.103298162777481E-1    3.830626735106263E-1    6.677717124939004E-4    1.432560894273510E-4    5.969809115752090E-4    1.706629848665469E-4   -8.400425154700036E-2    4.774853463447450E-1
 1.010464066100000E+10  -3.101936096710087E-1    3.832786603458664E-1    6.592605424598823E-4    1.485724787296776E-4    6.130823072356318E-4    2.100354852112870E-4   -8.377491563654120E-2    4.775463461838267E-1
 1.010464389800000E+10  -3.099826012439428E-1    3.832956152987349E-1    6.433150952251583E-4    1.367089652932494E-4    6.263154614552169E-4    1.662721566694650E-4   -8.328205126085617E-2    4.776158398929490E-1
 1.010464713500000E+10  -3.100077730635998E-1    3.833920592820380E-1    6.536660459306869E-4    1.262332076442049E-4    6.241928027816441E-4    1.772271263232963E-4   -8.300335932144670E-2    4.776760895875620E-1
 1.010465037200000E+10  -3.098636715003657E-1    3.835778996732630E-1    6.800168620091701E-4    1.598458765935846E-4    6.722928380276861E-4    2.064275017580643E-4   -8.270646541861214E-2    4.777883619104286E-1
 1.010465360900000E+10  -3.096077597001290E-1    3.837157880392789E-1    6.983477382124248E-4    1.362949771982640E-4    6.687068161436391E-4    1.803161708078453E-4   -8.233926380182179E-2    4.778079503240444E-1
 1.010465684600000E+10  -3.095590851624773E-1    3.838407526054647E-1    7.225057452079777E-4    1.597082810254967E-4    6.536154712139753E-4    2.230223393387123E-4   -8.207652262792690E-2    4.778420231317627E-1
 1.010466008300000E+10  -3.093931186133591E-1    3.840843229915916E-1    7.257061853184725E-4    1.345275276930666E-4    7.103101213443094E-4    2.111269506098184E-4   -8.161490147829946E-2    4.778369450654641E-1
 1.010466332000000E+10  -3.091984348264504E-1    3.840076868527365E-1    7.627324256134575E-4    1.554823696508967E-4    7.150787806949573E-4    1.799806592909709E-4   -8.124923912299975E-2    4.779488583187945E-1
 1.010466655700000E+10  -3.089353265433648E-1    3.842062204395567E-1    7.376835945076532E-4    1.380841213147488E-4    7.049322641243605E-4    2.269129489994300E-4   -8.092370469063749E-2    4.779536565721109E-1
 1.010466979400000E+10  -3.089002400733288E-1    3.844485310038932E-1    7.836405734701667E-4    1.533257998575356E-4    7.244069105259389E-4    2.449904298304954E-4   -8.050005476474671E-2    4.778954637559062E-1
 1.010467303100000E+10  -3.087575181030032E-1    3.845056114133144E-1    8.013512953245553E-4    1.594638431411581E-4    7.505926073179411E-4    2.237740404576434E-4   -8.020306842957584E-2    4.779950628857039E-1
 1.010467626800000E+10  -3.084415147307605E-1    3.846620043163872E-1    8.039405212192148E-4    1.485084210513475E-4    7.770153050445133E-4    2.399619094760459E-4   -7.964202920156081E-2    4.781406451092898E-1
 1.010467950500000E+10  -3.084948149085090E-1    3.847337943499051E-1    8.228599159618299E-4    1.700373607799066E-4    7.881353278014328E-4    2.266199084346579E-4   -7.940867086974759E-2    4.781773874624307E-1
 1.010468274200000E+10  -3.082837586595902E-1    3.849439698260736E-1    8.428172495012864E-4    1.582752716541699E-4    7.790864609476584E-4    2.442437968498416E-4   -7.905932871183356E-2    4.780662424787855E-1
 1.010468597900000E+10  -3.081704584476595E-1    3.851153125406848E-1    8.602001394409716E-4    1.803196635178853E-4    8.131026714792731E-4    2.215297872493881E-4   -7.867046724378433E-2    4.781548500055623E-1
 1.010468921600000E+10  -3.080894363373528E-1    3.851216167713082E-1    8.637994839364699E-4    1.643929816310371E-4    8.326045581515120E-4    2.288108382771621E-4   -7.829012263240097E-2    4.783509347831047E-1
 1.010469245300000E+10  -3.079468402347207E-1    3.852931381894665E-1    8.770695427777374E-4    1.826872245387450E-4    8.189166531051620E-4    2.331290583300317E-4   -7.782250286587354E-2    4.782815824106277E-1
 1.010469569000000E+10  -3.075660955173681E-1    3.853877372047452E-1    9.020209439809142E-4    1.773404544513540E-4    8.383233440146795E-4    2.733843271565597E-4   -7.746022723493394E-2    4.783117658221167E-1
 1.010469892700000E+10  -3.075052620418653E-1    3.856097149200863E-1    9.256429643362500E-4    1.482577503456504E-4    8.324567594630659E-4    2.462955177727385E-4   -7.702616178643507E-2    4.782804072038984E-1
 1.010470216400000E+10  -3.073224326945796E-1    3.856991678925690E-1    9.397307722006163E-4    1.898216974423139E-4    8.819335872707502E-4    2.503163533090243E-4   -7.660539915009205E-2    4.784462507023680E-1
 1.010470540100000E+10  -3.071292391439530E-1    3.859364704754475E-1    9.333933270773299E-4    1.721316010994262E-4    9.086657850597834E-4    2.492766605309145E-4   -7.626013550765563E-2    4.782530966155570E-1
 1.010470863800000E+10  -3.071612212612500E-1    3.860044999705270E-1    9.801882131736939E-4    1.723618342095821E-4    9.009850243426977E-4    2.547472807139433E-4   -7.595282302892394E-2    4.785249335956082E-1
 1.010471187500000E+10  -3.071331133201241E-1    3.860074189952785E-1    9.829142053478410E-4    1.710069012640234E-4    9.151484768027000E-4    2.437499460952151E-4   -7.548893815595097E-2    4.785630961003427E-1
 1.010471511200000E+10  -3.067275743280922E-1    3.862826325762428E-1    1.005593728325686E-3    1.913284248689174E-4    9.246037095068026E-4    2.849726834516381E-4   -7.499679617855635E-2    4.784803813917635E-1
 1.010471834900000E+10  -3.066177907202339E-1    3.863089220633729E-1    1.056126027666573E-3    1.730475661153342E-4    9.751473489676065E-4    2.843942349728197E-4   -7.459095010863243E-2    4.786796409566993E-1
 1.010472158600000E+10  -3.063573552683422E-1    3.864897438391581E-1    1.040613602827365E-3    2.240305993444962E-4    9.970102382341288E-4    2.500965871985181E-4   -7.419006842241542E-2    4.785738593849552E-1
 1.010472482300000E+10  -3.061971279498011E-1    3.866275076132597E-1    1.056308020086022E-3    2.190813469038561E-4    1.002927458238021E-3    2.894853717798328E-4   -7.378363901777327E-2    4.786365926624445E-1
 1.010472806000000E+10  -3.062508717953687E-1    3.866488653615576E-1    1.067081117135687E-3    2.031348650460456E-4    1.010951004371024E-3    2.918601368169379E-4   -7.334123515086832E-2    4.785818112678215E-1
 1.010473129700000E+10  -3.060555908443340E-1    3.868209129225536E-1    1.099553935839370E-3    2.056679012808447E-4    1.017955171648951E-3    2.805839948609430E-4   -7.301843433027920E-2    4.785990391335740E-1
 1.010473453400000E+10  -3.058601816380564E-1    3.868718361126337E-1    1.124378760901880E-3    2.125753580996030E-4    1.050149602633270E-3    2.933241967462985E-4   -7.256439442906380E-2    4.786887326443510E-1
 1.010473777100000E+10  -3.057969728796581E-1    3.870711237247756E-1    1.157699349910432E-3    2.145926336421744E-4    1.069447644066509E-3    2.840241354071907E-4   -7.207971182872155E-2    4.786518020464353E-1
 1.010474100800000E+10  -3.055285824757087E-1    3.872254640267979E-1    1.150299259784275E-3    2.104550697174990E-4    1.086929048886802E-3    2.902996649091359E-4   -7.163515007540801E-2    4.788372755290295E-1
 1.010474424500000E+10  -3.054365453243151E-1    3.874050929991628E-1    1.170565791281639E-3    2.387656391427353E-4    1.102565745146580E-3    2.725242355369920E-4   -7.123374264621989E-2    4.788861805085423E-1
 1.010474748200000E+10  -3.052646781700278E-1    3.874822719472960E-1    1.220537252194719E-3    2.126149371916820E-4    1.146160115177796E-3    3.106298763827961E-4   -7.081146104452692E-2    4.788398910218732E-1
 1.010475071900000E+10  -3.051995474577276E-1    3.876195578288212E-1    1.203489304176144E-3    2.120548013073013E-4    1.127461474461458E-3    3.243488790419465E-4   -7.039018495441821E-2    4.789010825765396E-1
 1.010475395600000E+10  -3.050397181599581E-1    3.876621591957695E-1    1.234034979431743E-3    2.157250064671210E-4    1.172686342842807E-3    3.097159591024510E-4   -6.985293239681123E-2    4.788074208136584E-1
 1.010475719300000E+10  -3.048389645794275E-1    3.877802994056239E-1    1.284915569546636E-3    2.312839533150504E-4    1.199763268874854E-3    3.141186159633888E-4   -6.932199775949659E-2    4.788762472767464E-1
 1.010476043000000E+10  -3.045552502169185E-1    3.880742129808980E-1    1.263553208944331E-3    2.244209774547896E-4    1.222449546296702E-3    3.487822041708255E-4   -6.886074372471326E-2    4.788774071611764E-1
 1.010476366700000E+10  -3.046254913017907E-1    3.880214900339241E-1    1.311163683374527E-3    2.184009409952809E-4    1.235757360037728E-3    3.363708549968214E-4   -6.841795691559605E-2    4.787787584003537E-1
 1.010476690400000E+10  -3.043298536215910E-1    3.881850856899708E-1    1.341533881548838E-3    2.218660482094183E-4    1.268325949170517E-3    3.269771335521352E-4   -6.800478746048784E-2    4.788741956478339E-1
