#  HZ   S   RI   R     50.00 
! Rohde & Schwarz Vector Network Analyzer 
! Rohde-Schwarz,ZNB20-2Port,1311601062101988,3.16
! Created: UTC 3/20/2024, 5:04:25 PM
! freq[Hz]                re:S11                  im:S11                  re:S21                  im:S21                  re:S12                  im:S12                  re:S22                  im:S22
 1.010025167600000E+10  -4.516475447207445E-1    1.602322053753717E-1   -5.567191656965703E-4   -8.692555277580186E-4   -4.297627189762666E-4   -8.647990961445761E-4   -3.395439932899201E-1    3.274739749976222E-1
 1.010027502847500E+10  -4.512800925588178E-1    1.616584015115808E-1   -5.440704109289521E-4   -8.296894931245119E-4   -4.406646155953533E-4   -8.887776187540306E-4   -3.385268091396323E-1    3.286345278887364E-1
 1.010029838095000E+10  -4.508109262495988E-1    1.628761392882882E-1   -5.163352531750967E-4   -8.726460211164692E-4   -4.640697993167454E-4   -8.537370418513650E-4   -3.375644541993518E-1    3.296801015086496E-1
 1.010032173342500E+10  -4.504244810079010E-1    1.643551403098410E-1   -5.309177846772734E-4   -8.428803272704001E-4   -4.468636754740381E-4   -8.361915734086394E-4   -3.366284476431420E-1    3.308997500638883E-1
 1.010034508590000E+10  -4.500729229875913E-1    1.657500449405667E-1   -5.277142156583742E-4   -8.289310342203532E-4   -4.521363979949708E-4   -8.473435473495224E-4   -3.356403480604725E-1    3.321174838732880E-1
 1.010036843837500E+10  -4.495352819912414E-1    1.670335518624781E-1   -5.373932859946484E-4   -8.178872644457881E-4   -4.360893230425243E-4   -8.625355760740227E-4   -3.344449098873898E-1    3.331820917071951E-1
 1.010039179085000E+10  -4.491309419872593E-1    1.682831473823167E-1   -5.459430901848063E-4   -8.377939819055460E-4   -4.427049897167768E-4   -8.463656301303438E-4   -3.336447479187807E-1    3.342346923285566E-1
 1.010041514332500E+10  -4.486480742138556E-1    1.697003985017075E-1   -5.469599480779841E-4   -8.527567078821396E-4   -4.540829573538572E-4   -8.440652862573178E-4   -3.324848014868929E-1    3.353512846719516E-1
 1.010043849580000E+10  -4.482946786780407E-1    1.709649211274726E-1   -5.462987499250937E-4   -8.258451471191141E-4   -4.258369894028379E-4   -8.281524500317920E-4   -3.314812699965006E-1    3.364967221195874E-1
 1.010046184827500E+10  -4.478445872397094E-1    1.723331300651773E-1   -5.508666286605556E-4   -8.331844937795143E-4   -4.813901594407762E-4   -8.319139303618383E-4   -3.305899021317979E-1    3.376383514247648E-1
 1.010048520075000E+10  -4.474911381663819E-1    1.738552129655635E-1   -5.406595878414998E-4   -8.553818436041971E-4   -4.653816544212668E-4   -8.508215561153864E-4   -3.294729948356328E-1    3.387088793988653E-1
 1.010050855322500E+10  -4.469437126360503E-1    1.752110963504254E-1   -5.382537700346900E-4   -8.353595205322380E-4   -4.862033269354256E-4   -8.359487256462171E-4   -3.284183775855637E-1    3.397140604474023E-1
 1.010053190570000E+10  -4.464472240640476E-1    1.764883455381716E-1   -5.535563898547954E-4   -8.265906521201160E-4   -4.816480311040292E-4   -8.387921612971142E-4   -3.275455235897380E-1    3.409322011483931E-1
 1.010055525817500E+10  -4.460709110267514E-1    1.777740453337415E-1   -5.557208233185177E-4   -8.056982989976527E-4   -4.599927856949100E-4   -8.446674903110908E-4   -3.263476952685049E-1    3.418802977792267E-1
 1.010057861065000E+10  -4.456143494599364E-1    1.793065624257057E-1   -5.556059633026906E-4   -8.094326086322277E-4   -4.982981254746809E-4   -8.400467893639813E-4   -3.253551420025655E-1    3.430298836510245E-1
 1.010060196312500E+10  -4.451712857598598E-1    1.805702629458217E-1   -5.635125447307420E-4   -8.444182372066115E-4   -4.748238467565888E-4   -8.390177253452535E-4   -3.242408108140997E-1    3.441802705887231E-1
 1.010062531560000E+10  -4.446840177993489E-1    1.819540286817521E-1   -5.653982348489810E-4   -8.205507776961568E-4   -4.744786312690817E-4   -8.220826009572673E-4   -3.233222438168914E-1    3.452065548662703E-1
 1.010064866807500E+10  -4.441682356573232E-1    1.832099490609710E-1   -5.436040539332104E-4   -8.398830244284559E-4   -4.897476180597499E-4   -8.329944162150464E-4   -3.221195457762422E-1    3.462888607217641E-1
 1.010067202055000E+10  -4.436569985706064E-1    1.844905446587936E-1   -5.483341076137197E-4   -8.101692532902587E-4   -4.708166294004477E-4   -8.007241833968696E-4   -3.211198153825805E-1    3.474152862979800E-1
 1.010069537302500E+10  -4.432210096438532E-1    1.859878149834882E-1   -5.526513721562740E-4   -8.291181533546619E-4   -4.624038135855936E-4   -8.428452811489647E-4   -3.201897136489841E-1    3.485499937111903E-1
 1.010071872550000E+10  -4.427861071045345E-1    1.872790218029863E-1   -5.550786908024945E-4   -8.079112583318490E-4   -4.771284204066220E-4   -8.369722866835166E-4   -3.190060625868297E-1    3.495900114530228E-1
 1.010074207797500E+10  -4.424032038325064E-1    1.886405798500903E-1   -5.398353866205944E-4   -8.229114547564723E-4   -4.831060269980346E-4   -8.258931732348028E-4   -3.180549685722854E-1    3.505850085132756E-1
 1.010076543045000E+10  -4.416946544325704E-1    1.898768751242804E-1   -5.322517288617849E-4   -8.073104518922435E-4   -5.024987715536068E-4   -8.122249960018749E-4   -3.169425281389261E-1    3.516313996919467E-1
 1.010078878292500E+10  -4.413508448180148E-1    1.912700864881619E-1   -5.743723869336751E-4   -7.858278344958349E-4   -4.629591630141277E-4   -8.204844793761536E-4   -3.158911910179905E-1    3.527979331203833E-1
 1.010081213540000E+10  -4.408263171848056E-1    1.926495336284846E-1   -5.575009277150316E-4   -8.015097613165875E-4   -4.843230912153172E-4   -8.048770724116845E-4   -3.146756733520742E-1    3.538378029267082E-1
 1.010083548787500E+10  -4.402381714878580E-1    1.940163602429507E-1   -5.411314616678280E-4   -7.750926570196378E-4   -4.747735474793496E-4   -8.068770951776120E-4   -3.136776658466143E-1    3.549939540119957E-1
 1.010085884035000E+10  -4.397496337848610E-1    1.954516645891772E-1   -5.748612923636324E-4   -8.028600310025905E-4   -4.911485727033530E-4   -8.163213420603978E-4   -3.124938314482607E-1    3.560333181196123E-1
 1.010088219282500E+10  -4.392482069054195E-1    1.966874009371794E-1   -5.798059511748753E-4   -8.044265944420146E-4   -5.057884726433298E-4   -8.000087620431582E-4   -3.115326402701403E-1    3.570941787745273E-1
 1.010090554530000E+10  -4.387230776678049E-1    1.978933886739813E-1   -5.753911339952815E-4   -7.928257011896222E-4   -5.079661063376985E-4   -7.828480813013561E-4   -3.103446185971799E-1    3.580682272024819E-1
 1.010092889777500E+10  -4.382807787789897E-1    1.992485904484540E-1   -5.747013574432819E-4   -7.746034849369610E-4   -4.985891150657517E-4   -7.931395821759536E-4   -3.092423289699226E-1    3.590935660484235E-1
 1.010095225025000E+10  -4.376894515225205E-1    2.006944923789052E-1   -5.850232365098120E-4   -7.850514843345680E-4   -4.848694017438983E-4   -7.758336606440494E-4   -3.082459298370849E-1    3.601094613499362E-1
 1.010097560272500E+10  -4.372206971243854E-1    2.019586842098865E-1   -5.668372476527389E-4   -7.904080942942681E-4   -5.343861829042439E-4   -8.028144771474128E-4   -3.070643992514537E-1    3.611824451199319E-1
 1.010099895520000E+10  -4.366409413639776E-1    2.032890258280254E-1   -6.030883331538273E-4   -7.603604952366404E-4   -4.998019913741871E-4   -7.893565208989044E-4   -3.060312903044127E-1    3.622511569699072E-1
 1.010102230767500E+10  -4.361184111848643E-1    2.046232681439912E-1   -5.761418689651534E-4   -7.826485929738207E-4   -5.052628606350388E-4   -7.786394821639490E-4   -3.048454700875362E-1    3.632450006632253E-1
 1.010104566015000E+10  -4.356710461150930E-1    2.059012006379828E-1   -5.777025672984956E-4   -7.755708720107557E-4   -4.924783989390294E-4   -7.832652092414668E-4   -3.037695280619156E-1    3.641382525133878E-1
 1.010106901262500E+10  -4.351388718122925E-1    2.072068557591661E-1   -5.633689017935803E-4   -7.560771936638968E-4   -5.067825187838036E-4   -7.600528147313265E-4   -3.027085780426613E-1    3.652228095754612E-1
 1.010109236510000E+10  -4.346127090799239E-1    2.085981702879558E-1   -5.867466733428233E-4   -7.526419960316650E-4   -5.096909163026299E-4   -7.769597869105810E-4   -3.015428317464104E-1    3.663956353456157E-1
 1.010111571757500E+10  -4.339274937185297E-1    2.098776368199556E-1   -5.623237530789911E-4   -7.468353668339188E-4   -5.247923999966239E-4   -7.579482090613652E-4   -3.005505869068853E-1    3.671890599170241E-1
 1.010113907005000E+10  -4.334090477177283E-1    2.111015166251736E-1   -5.569647372130046E-4   -8.020971749355689E-4   -4.968693532502025E-4   -7.723422087867650E-4   -2.993179215031344E-1    3.684088627127592E-1
 1.010116242252500E+10  -4.328122965215552E-1    2.123598247793586E-1   -5.639695054088985E-4   -7.421587941007594E-4   -5.094300912528695E-4   -7.694883342417534E-4   -2.981243495179067E-1    3.693420715952970E-1
 1.010118577500000E+10  -4.323620487344904E-1    2.137296463044088E-1   -5.762438393692981E-4   -7.664015906488056E-4   -5.397746991323179E-4   -7.543037905250571E-4   -2.970623010611004E-1    3.702603994699793E-1
 1.010120912747500E+10  -4.318046121943269E-1    2.151226566001161E-1   -5.663986866789125E-4   -7.496531988583060E-4   -5.122952466523318E-4   -7.753551260523776E-4   -2.959787534724051E-1    3.713622771356110E-1
 1.010123247995000E+10  -4.312231754719498E-1    2.165951319092472E-1   -5.821089604466919E-4   -7.332990853048077E-4   -5.397175041998567E-4   -7.426364273400289E-4   -2.948614604467112E-1    3.721852675750458E-1
 1.010125583242500E+10  -4.306703232683281E-1    2.177058785467512E-1   -5.983747363665425E-4   -7.420238633609453E-4   -5.055762217740014E-4   -7.332471846782073E-4   -2.935170221041607E-1    3.732896243614878E-1
 1.010127918490000E+10  -4.300204033004752E-1    2.190771218161029E-1   -5.649446769928821E-4   -7.435821986813655E-4   -5.119294211369396E-4   -7.415788473754211E-4   -2.924597917351880E-1    3.743524411439204E-1
 1.010130253737500E+10  -4.295144365161608E-1    2.203818928951727E-1   -5.854458939956902E-4   -7.547216048653438E-4   -5.342652820501559E-4   -7.455994718808352E-4   -2.913156582395902E-1    3.753414417088495E-1
 1.010132588985000E+10  -4.288910200992887E-1    2.216488174121319E-1   -5.985415748973809E-4   -7.525864777761421E-4   -5.244280862638423E-4   -7.588393758568178E-4   -2.901745768402867E-1    3.762666828927396E-1
 1.010134924232500E+10  -4.284047162183525E-1    2.228814140136806E-1   -5.777569490854378E-4   -7.201424263989360E-4   -5.149981965740364E-4   -7.740397911623726E-4   -2.890189886180241E-1    3.772112745908317E-1
 1.010137259480000E+10  -4.277685662383978E-1    2.241943524635618E-1   -5.913039251037039E-4   -7.268492535613523E-4   -5.352968342519735E-4   -7.519991901171626E-4   -2.878880029597332E-1    3.782048608102414E-1
 1.010139594727500E+10  -4.271787438562596E-1    2.254930252319002E-1   -6.159880855934169E-4   -7.004207532463261E-4   -5.064449487037113E-4   -7.564775482211196E-4   -2.866960716034686E-1    3.792951938946984E-1
 1.010141929975000E+10  -4.264158890353661E-1    2.269069915068314E-1   -5.986836443909000E-4   -7.221123221129361E-4   -5.073040187324624E-4   -7.580358520195259E-4   -2.854667195106957E-1    3.801627696467136E-1
 1.010144265222500E+10  -4.258456919636033E-1    2.280718929566649E-1   -5.936148981259251E-4   -7.577796013265206E-4   -5.087598180097198E-4   -7.289952693191354E-4   -2.845372263657857E-1    3.811278568929240E-1
 1.010146600470000E+10  -4.253647260783320E-1    2.293819659375551E-1   -5.983851577121156E-4   -6.982737264330101E-4   -5.226404021535722E-4   -7.263607492219066E-4   -2.832320788758153E-1    3.820601901035630E-1
 1.010148935717500E+10  -4.247557304597305E-1    2.307449388176216E-1   -6.107253137568884E-4   -7.117875567716495E-4   -5.082557542873629E-4   -7.120769267543346E-4   -2.819284512749465E-1    3.830023732785033E-1
 1.010151270965000E+10  -4.240289646635191E-1    2.319355817710399E-1   -6.057034572160131E-4   -7.113884983735204E-4   -5.422704150540230E-4   -7.025283191962230E-4   -2.808195243433230E-1    3.840181341312739E-1
 1.010153606212500E+10  -4.234277595965286E-1    2.330925715788741E-1   -5.998324887887628E-4   -6.961769509474166E-4   -5.261130277145574E-4   -7.067067194703584E-4   -2.796768951344391E-1    3.848992112882436E-1
 1.010155941460000E+10  -4.228787045891051E-1    2.345058624238814E-1   -6.147354313254269E-4   -7.124304938375872E-4   -5.177190423716030E-4   -7.521113149477015E-4   -2.785150911753838E-1    3.858417578802409E-1
 1.010158276707500E+10  -4.222678464494449E-1    2.357868699171694E-1   -5.801291398993055E-4   -7.020740435879230E-4   -5.239589040839174E-4   -7.063924786546585E-4   -2.772896544417390E-1    3.868858762666383E-1
 1.010160611955000E+10  -4.215096017641833E-1    2.371161968771720E-1   -5.882655354695936E-4   -6.961602536626615E-4   -5.408143028948878E-4   -7.463492563991901E-4   -2.761709893330557E-1    3.877568047535929E-1
 1.010162947202500E+10  -4.209097040041045E-1    2.382774192143174E-1   -5.800458726854486E-4   -6.890490428162253E-4   -5.123300096972551E-4   -7.130195918423964E-4   -2.748034725882624E-1    3.886536682867642E-1
 1.010165282450000E+10  -4.203840520824721E-1    2.396110462678399E-1   -5.991304578413956E-4   -6.847515558873353E-4   -5.081171891564121E-4   -7.337627084376807E-4   -2.737120482169682E-1    3.897456216316469E-1
 1.010167617697500E+10  -4.196281333833866E-1    2.407727023197778E-1   -6.224824442134720E-4   -6.940023592883934E-4   -5.217429439494338E-4   -7.187217476907937E-4   -2.725399876137495E-1    3.906052457275619E-1
 1.010169952945000E+10  -4.190792045223582E-1    2.420671266049298E-1   -5.995212333364507E-4   -6.660374139199432E-4   -5.280817066525097E-4   -6.863656797619131E-4   -2.713048979791755E-1    3.914318654670092E-1
 1.010172288192500E+10  -4.183694521877958E-1    2.434272474290604E-1   -6.106369240038227E-4   -6.689940317869589E-4   -5.269663423266367E-4   -7.147947663857731E-4   -2.701421179093218E-1    3.924062947727897E-1
 1.010174623440000E+10  -4.176627933373807E-1    2.446354539239885E-1   -5.988986321088496E-4   -6.450197728189997E-4   -5.355138664737807E-4   -7.026031877994468E-4   -2.688143933107144E-1    3.932503891603636E-1
 1.010176958687500E+10  -4.170124943950095E-1    2.458971089637805E-1   -5.858716139420757E-4   -6.701836938101569E-4   -5.287563082777779E-4   -7.166078745181179E-4   -2.676901601865971E-1    3.942317674547367E-1
 1.010179293935000E+10  -4.164681364547500E-1    2.473493002803769E-1   -6.010433837000152E-4   -6.828638345650630E-4   -5.234120179080651E-4   -7.076830209562136E-4   -2.664686729674799E-1    3.951872758005938E-1
 1.010181629182500E+10  -4.158804915966239E-1    2.485176547660428E-1   -6.121030961382985E-4   -6.834973884005050E-4   -5.381473710358436E-4   -7.072383363104700E-4   -2.651585407006533E-1    3.960665953379329E-1
 1.010183964430000E+10  -4.152518104934841E-1    2.497168926517581E-1   -5.946589448141531E-4   -6.752832216924993E-4   -5.241056222374931E-4   -6.748326963111217E-4   -2.639975641957479E-1    3.968519415197241E-1
 1.010186299677500E+10  -4.144773036465188E-1    2.509525702529888E-1   -6.196026744639320E-4   -6.578804620704172E-4   -5.214584869215511E-4   -6.843701241271134E-4   -2.627148459612373E-1    3.976768841388418E-1
 1.010188634925000E+10  -4.137727187471857E-1    2.522259928008768E-1   -6.214056163540213E-4   -6.520011814713806E-4   -5.585676514458327E-4   -6.637416775353623E-4   -2.615121350996113E-1    3.988104951595922E-1
 1.010190970172500E+10  -4.129737718245747E-1    2.534480388013110E-1   -6.026077722554402E-4   -6.590291612289928E-4   -5.359645930348532E-4   -6.819391361553374E-4   -2.603534837249407E-1    3.995275931924994E-1
 1.010193305420000E+10  -4.124881898176417E-1    2.546577737752098E-1   -5.898379806711770E-4   -6.671441525528836E-4   -5.177974828507030E-4   -6.921787973357345E-4   -2.589262698278125E-1    4.005012861746904E-1
 1.010195640667500E+10  -4.117373155768499E-1    2.558666160252023E-1   -5.735262490886429E-4   -6.572509999313363E-4   -5.320860111860490E-4   -6.643082365009931E-4   -2.576848977994902E-1    4.013295876785404E-1
 1.010197975915000E+10  -4.110147536614204E-1    2.571191460678946E-1   -6.256700089618429E-4   -6.662377703236632E-4   -5.298163951996757E-4   -6.531135807470400E-4   -2.566693410533748E-1    4.022934332354333E-1
 1.010200311162500E+10  -4.103569273925425E-1    2.584292147443142E-1   -5.681874857184649E-4   -6.181564982851083E-4   -5.383597192982509E-4   -6.410520978236647E-4   -2.553339593384766E-1    4.031075538323453E-1
 1.010202646410000E+10  -4.097604353827733E-1    2.596212341057754E-1   -5.860567129074521E-4   -6.504022183118591E-4   -5.269946388507670E-4   -6.446283447511719E-4   -2.542310978846983E-1    4.040835828229852E-1
 1.010204981657500E+10  -4.088434609635592E-1    2.608823151072997E-1   -5.959562244902845E-4   -6.333402185110330E-4   -5.355597872096114E-4   -6.538647574492070E-4   -2.528121670770112E-1    4.048381722308450E-1
 1.010207316905000E+10  -4.083584101793989E-1    2.621126588507843E-1   -5.895841457328932E-4   -6.265263215946628E-4   -5.224843096395226E-4   -6.482329437187925E-4   -2.515467666178291E-1    4.056922566430404E-1
 1.010209652152500E+10  -4.076197040165719E-1    2.633768715519373E-1   -5.762873184532373E-4   -6.302506699418875E-4   -5.306073154892770E-4   -6.605701602992216E-4   -2.504377935441210E-1    4.064697159500347E-1
 1.010211987400000E+10  -4.068778041850838E-1    2.645235696557358E-1   -5.656974539173909E-4   -6.121434570992437E-4   -5.157470317295255E-4   -6.563061454836918E-4   -2.488972435665592E-1    4.073394832894789E-1
 1.010214322647500E+10  -4.060706370845996E-1    2.657304729182453E-1   -6.019425414872020E-4   -6.171104030685817E-4   -5.288318249982980E-4   -6.243969565930466E-4   -2.476680244415216E-1    4.082673787841853E-1
 1.010216657895000E+10  -4.053817951255425E-1    2.669962875545521E-1   -5.719438742861004E-4   -6.312598964904621E-4   -5.369386653417038E-4   -6.430599922561420E-4   -2.465403131596361E-1    4.090705811813863E-1
 1.010218993142500E+10  -4.048058681119770E-1    2.682657860776658E-1   -6.125245647706618E-4   -6.145297645597085E-4   -5.172452062389163E-4   -6.375791193373873E-4   -2.453374593795429E-1    4.099600138211172E-1
 1.010221328390000E+10  -4.039525966069438E-1    2.695125824934670E-1   -5.725547916615683E-4   -6.099062484444707E-4   -5.601681833554723E-4   -6.554156105653738E-4   -2.439175714517473E-1    4.107711715334973E-1
 1.010223663637500E+10  -4.032266453443761E-1    2.707754154654265E-1   -5.873416222540848E-4   -5.992895498763050E-4   -5.218014335132577E-4   -6.208857448829454E-4   -2.425744216352525E-1    4.115904993528473E-1
 1.010225998885000E+10  -4.024380657032955E-1    2.718707477610591E-1   -5.938367315418281E-4   -6.177756673458719E-4   -5.195098158627915E-4   -6.132883124605024E-4   -2.413339807851383E-1    4.124270919054208E-1
 1.010228334132500E+10  -4.017240465213056E-1    2.730662995839938E-1   -5.886138791297796E-4   -5.817678539851196E-4   -5.252436853216087E-4   -6.204073663583562E-4   -2.401158230639652E-1    4.132604889380824E-1
 1.010230669380000E+10  -4.010842509177078E-1    2.743555672509941E-1   -5.901283580123740E-4   -5.905804947100950E-4   -5.144359971850623E-4   -6.029803521270471E-4   -2.387995235294080E-1    4.142254789622439E-1
 1.010233004627500E+10  -4.002585039064056E-1    2.755602714735999E-1   -5.836700470465713E-4   -6.221550707531715E-4   -5.202671230059027E-4   -6.114477655926419E-4   -2.375638417737927E-1    4.148396515076428E-1
 1.010235339875000E+10  -3.994974307977620E-1    2.766485055853430E-1   -5.842515876758400E-4   -5.804041670853941E-4   -5.188167629879319E-4   -6.146054726392520E-4   -2.362523951511151E-1    4.158953408998307E-1
