#  HZ   S   RI   R     50.00 
! Rohde & Schwarz Vector Network Analyzer 
! Rohde-Schwarz,ZNB20-2Port,1311601062101988,3.16
! Created: UTC 3/20/2024, 5:11:51 PM
! freq[Hz]                re:S11                  im:S11                  re:S21                  im:S21                  re:S12                  im:S12                  re:S22                  im:S22
 1.010335414900000E+10  -3.648406923210126E-1    3.257583571614359E-1   -5.684699530521959E-4   -4.095409307313436E-4   -5.065590554839171E-4   -4.314389109697560E-4   -1.786498688723337E-1    4.468112621708689E-1
 1.010336290747500E+10  -3.645423238872863E-1    3.258863291214892E-1   -5.669116865122982E-4   -4.261626773971678E-4   -5.108529989084668E-4   -4.446309876678403E-4   -1.781115293294498E-1    4.469720170982964E-1
 1.010337166595000E+10  -3.641014518800157E-1    3.263016789146324E-1   -5.807779028883251E-4   -4.109305767088636E-4   -4.913200903964847E-4   -4.761990111708732E-4   -1.776973850181137E-1    4.473174723773991E-1
 1.010338042442500E+10  -3.637305509012845E-1    3.266744434516989E-1   -5.591093821152640E-4   -4.036251580497822E-4   -5.011722246052628E-4   -4.466222804552497E-4   -1.771827063676892E-1    4.474692916383949E-1
 1.010338918290000E+10  -3.634689261054665E-1    3.274014954888253E-1   -5.469999583544304E-4   -4.190914280928321E-4   -5.129721659075220E-4   -4.256189631493327E-4   -1.766741909251978E-1    4.475716652823075E-1
 1.010339794137500E+10  -3.630741569036017E-1    3.275596441254445E-1   -5.415827323015421E-4   -3.946836134749756E-4   -4.938710372661446E-4   -4.323160631332784E-4   -1.760478790843319E-1    4.479343149722400E-1
 1.010340669985000E+10  -3.628504195077690E-1    3.280868918952107E-1   -5.480084991667516E-4   -3.897924939348315E-4   -5.049403176685053E-4   -4.285753829377505E-4   -1.755422851932772E-1    4.481115838846420E-1
 1.010341545832500E+10  -3.623735191867408E-1    3.284775670696811E-1   -5.469996135287186E-4   -4.057017336931399E-4   -4.854004197329295E-4   -4.353037419241411E-4   -1.749352047877845E-1    4.484655132070537E-1
 1.010342421680000E+10  -3.621285067278248E-1    3.288302793622168E-1   -5.294967842627695E-4   -3.886258606266840E-4   -4.891489765514899E-4   -4.375402159997738E-4   -1.743664031095754E-1    4.486232095341308E-1
 1.010343297527500E+10  -3.617046978713165E-1    3.292808299446450E-1   -5.552242270448108E-4   -4.069056766639598E-4   -4.935524119564731E-4   -4.251159604232700E-4   -1.739110009755143E-1    4.489489837403151E-1
 1.010344173375000E+10  -3.615768009610523E-1    3.297400162921245E-1   -5.392823743422517E-4   -4.203129971397988E-4   -4.761484780603777E-4   -4.362169862910166E-4   -1.733591748422446E-1    4.491135408191868E-1
 1.010345049222500E+10  -3.610313564093359E-1    3.300613072021258E-1   -5.182497569390122E-4   -4.180120977199133E-4   -4.907083757877952E-4   -4.113273688335536E-4   -1.727673953291426E-1    4.492970611816778E-1
 1.010345925070000E+10  -3.607772647684648E-1    3.305251598013453E-1   -5.260568765242925E-4   -3.662420495145088E-4   -4.848856418668693E-4   -4.384038613614574E-4   -1.722532971335213E-1    4.496421707706133E-1
 1.010346800917500E+10  -3.605852735965189E-1    3.309324507158851E-1   -5.310093222987538E-4   -4.001408317689344E-4   -4.724409908828671E-4   -4.155859739388869E-4   -1.716339899595409E-1    4.497062783646954E-1
 1.010347676765000E+10  -3.600915004644256E-1    3.314476764767249E-1   -5.226747200835185E-4   -4.249196743780940E-4   -5.016664192409933E-4   -4.353794384596830E-4   -1.711565105185129E-1    4.501066817784998E-1
 1.010348552612500E+10  -3.596822517484810E-1    3.317507885482108E-1   -5.437809243013237E-4   -3.906232235064995E-4   -4.863803579106428E-4   -4.166875208191517E-4   -1.705011828529623E-1    4.502270333115816E-1
 1.010349428460000E+10  -3.593606724154931E-1    3.322271078706668E-1   -5.053818481850988E-4   -3.777829802047780E-4   -4.774012875447455E-4   -4.196112656713101E-4   -1.700046709276293E-1    4.503520323928586E-1
 1.010350304307500E+10  -3.590360688280921E-1    3.324913993324748E-1   -5.588857782911218E-4   -3.928076412003448E-4   -4.610023065947395E-4   -3.966294100745638E-4   -1.694484609214126E-1    4.507267654114570E-1
 1.010351180155000E+10  -3.586631432783566E-1    3.330682649973800E-1   -5.419904008408139E-4   -3.843877060343839E-4   -4.784741596390621E-4   -4.148583121888277E-4   -1.689693539844119E-1    4.508539753742529E-1
 1.010352056002500E+10  -3.582887182477019E-1    3.334765403093254E-1   -4.964559679162401E-4   -3.745901414814329E-4   -4.638346385319922E-4   -4.088141713770850E-4   -1.683161458802598E-1    4.511990766072924E-1
 1.010352931850000E+10  -3.579946763163248E-1    3.338186090595546E-1   -5.145668149058751E-4   -3.841894391932496E-4   -4.772042484897859E-4   -4.205270586404818E-4   -1.678179777981807E-1    4.514108595222612E-1
 1.010353807697500E+10  -3.577064608357409E-1    3.341805669016890E-1   -5.128983068764483E-4   -3.607895902407482E-4   -4.420927874653893E-4   -3.977428865812073E-4   -1.673241289201346E-1    4.517184516869300E-1
 1.010354683545000E+10  -3.573526426763976E-1    3.346078338966861E-1   -5.336180092666083E-4   -3.917135426045358E-4   -4.683311130722189E-4   -3.867535922343963E-4   -1.668145115771892E-1    4.518974621362921E-1
 1.010355559392500E+10  -3.569390379805375E-1    3.350263065375058E-1   -4.819872854253190E-4   -4.020425066913232E-4   -4.750099654937352E-4   -3.947959774395605E-4   -1.662079585631220E-1    4.520155051001717E-1
 1.010356435240000E+10  -3.566377862568993E-1    3.353183343183770E-1   -5.013789042387368E-4   -3.673934550765853E-4   -4.502447456671954E-4   -3.906770020325549E-4   -1.655948471755442E-1    4.522345010242013E-1
 1.010357311087500E+10  -3.562061971797956E-1    3.356523949990642E-1   -4.823927374866902E-4   -3.541261714957288E-4   -4.487005276828054E-4   -3.922639570792100E-4   -1.650478214520079E-1    4.524783714068719E-1
 1.010358186935000E+10  -3.558239931686276E-1    3.361114398097364E-1   -5.041804289206198E-4   -3.766180114916188E-4   -4.538347628601742E-4   -3.830438198873173E-4   -1.645263409170612E-1    4.528368367243549E-1
 1.010359062782500E+10  -3.556163472075829E-1    3.365785595863283E-1   -4.789614706937217E-4   -3.768620626157093E-4   -4.534821618261632E-4   -4.057258365556058E-4   -1.638889089177424E-1    4.530208073408835E-1
 1.010359938630000E+10  -3.552043957382342E-1    3.370486250700844E-1   -4.966443828935629E-4   -3.345374207047410E-4   -4.463860094327845E-4   -3.894842535565185E-4   -1.633631512514934E-1    4.532087975322278E-1
 1.010360814477500E+10  -3.549023971865113E-1    3.374454898726704E-1   -5.037871087483161E-4   -3.769524601137063E-4   -4.543408290262309E-4   -3.842468538809021E-4   -1.628874459715675E-1    4.534676282738480E-1
 1.010361690325000E+10  -3.543954419727744E-1    3.377991555794528E-1   -4.811483223196000E-4   -3.700278401125401E-4   -4.601693262479256E-4   -4.035645300644549E-4   -1.623413661103964E-1    4.536012052047285E-1
 1.010362566172500E+10  -3.543090570115502E-1    3.382032295403002E-1   -4.876075589851606E-4   -3.812072050606991E-4   -4.383972057104983E-4   -3.879892902840197E-4   -1.618104932695878E-1    4.538967587692856E-1
 1.010363442020000E+10  -3.536797741643938E-1    3.386752697597220E-1   -4.977205717171126E-4   -3.413239779242097E-4   -4.072019032670629E-4   -3.947221686351942E-4   -1.612422358643250E-1    4.540798539915517E-1
 1.010364317867500E+10  -3.535587376552693E-1    3.390429613423574E-1   -4.923164456757823E-4   -3.767711099017347E-4   -4.481520726244020E-4   -3.713533834503624E-4   -1.605390988289824E-1    4.542796895609809E-1
 1.010365193715000E+10  -3.530117920561358E-1    3.394787475391453E-1   -4.769354565481241E-4   -3.406054846205891E-4   -4.647865970332691E-4   -3.830238535889721E-4   -1.600445867921406E-1    4.545729113999257E-1
 1.010366069562500E+10  -3.526629015823583E-1    3.397406705554040E-1   -4.824147818658085E-4   -3.523009378985938E-4   -4.181526448083401E-4   -3.710852753369838E-4   -1.595196236374902E-1    4.548561060803059E-1
 1.010366945410000E+10  -3.524248689615633E-1    3.402421844766260E-1   -4.591760793264075E-4   -3.428443439112638E-4   -4.274799835071015E-4   -3.785638605771718E-4   -1.589387097991193E-1    4.549052499987494E-1
 1.010367821257500E+10  -3.521356063018619E-1    3.407239025157416E-1   -4.546447816781546E-4   -3.467111712695735E-4   -4.568949288038849E-4   -3.637138034330570E-4   -1.583444592628937E-1    4.551545187000163E-1
 1.010368697105000E+10  -3.517181706649252E-1    3.412566186266021E-1   -4.816073366377674E-4   -3.494743715115795E-4   -4.312406933595454E-4   -3.578321272358653E-4   -1.579055836520598E-1    4.554251777743059E-1
 1.010369572952500E+10  -3.512998952040371E-1    3.414360611540536E-1   -4.546519623787460E-4   -3.340463266390451E-4   -4.007416050329919E-4   -3.788124684076163E-4   -1.572457685408919E-1    4.556137721371567E-1
 1.010370448800000E+10  -3.508808038529012E-1    3.418432534688670E-1   -4.555629185617603E-4   -3.461233647384748E-4   -4.065012481152981E-4   -3.723779292023483E-4   -1.565821542440941E-1    4.557214051189456E-1
 1.010371324647500E+10  -3.506491995422569E-1    3.421980351972042E-1   -4.617016805798894E-4   -3.365874669513611E-4   -4.016804193634214E-4   -3.360265435448330E-4   -1.561630089517167E-1    4.560272679498536E-1
 1.010372200495000E+10  -3.502811912527966E-1    3.425957402177394E-1   -4.414503006172081E-4   -3.555530875259371E-4   -3.892090308208579E-4   -3.451946385668747E-4   -1.556187894565426E-1    4.562081845390352E-1
 1.010373076342500E+10  -3.499623336775351E-1    3.430368093975906E-1   -4.514509720282678E-4   -3.517937857760226E-4   -4.041036159652970E-4   -3.296112643914147E-4   -1.549673452449233E-1    4.565234604169569E-1
 1.010373952190000E+10  -3.495096761878581E-1    3.433503919037831E-1   -4.468622847719078E-4   -3.367246617159107E-4   -3.859512157394850E-4   -3.445104159186428E-4   -1.544643053346955E-1    4.566768219112906E-1
 1.010374828037500E+10  -3.493405400820132E-1    3.438668776908921E-1   -4.450412061288695E-4   -3.068101628743672E-4   -3.907810984783833E-4   -3.613251140873001E-4   -1.537768825176152E-1    4.569029167583188E-1
 1.010375703885000E+10  -3.488814877954453E-1    3.441508927038289E-1   -4.154468567386483E-4   -3.270257515073497E-4   -3.819683170475033E-4   -3.464590072238601E-4   -1.531900999995550E-1    4.571399610005298E-1
 1.010376579732500E+10  -3.485340223285835E-1    3.445050518186126E-1   -4.395231725297138E-4   -3.082828197991693E-4   -3.917641052527054E-4   -3.520811682440107E-4   -1.526191970324278E-1    4.573017081985247E-1
 1.010377455580000E+10  -3.480678395401163E-1    3.450100781277113E-1   -4.394609894536975E-4   -3.417957497400858E-4   -3.624382180898038E-4   -3.480936044202957E-4   -1.521366599050024E-1    4.576508485314811E-1
 1.010378331427500E+10  -3.477313727576380E-1    3.454622081063294E-1   -4.289484248836489E-4   -3.234435761053017E-4   -3.785102171535864E-4   -2.959519985912307E-4   -1.515063026418049E-1    4.577332547820461E-1
 1.010379207275000E+10  -3.472975131366234E-1    3.458387146640203E-1   -4.306280839124034E-4   -3.188862462575548E-4   -3.739618472885868E-4   -3.116656739700206E-4   -1.509215918226647E-1    4.578096910063524E-1
 1.010380083122500E+10  -3.469726674764502E-1    3.461115532471855E-1   -4.322330877001655E-4   -2.985765964311378E-4   -3.673137064118359E-4   -3.384349534640826E-4   -1.504749944018700E-1    4.580509149504067E-1
 1.010380958970000E+10  -3.467807974474250E-1    3.465896260277450E-1   -4.364600192980434E-4   -3.319108343045441E-4   -3.735179320179249E-4   -3.337160683960186E-4   -1.498644925404082E-1    4.583842346189270E-1
 1.010381834817500E+10  -3.463510860530388E-1    3.471169900626804E-1   -4.220537414610334E-4   -2.952042132088845E-4   -3.676573822660632E-4   -3.486450238058791E-4   -1.491443580930771E-1    4.585888521621501E-1
 1.010382710665000E+10  -3.460332015807880E-1    3.474558830050150E-1   -3.816353850376857E-4   -3.396540641499265E-4   -3.880488654975028E-4   -3.246569250542065E-4   -1.486566963385182E-1    4.587050244385158E-1
 1.010383586512500E+10  -3.457631415664264E-1    3.476814470041189E-1   -4.080631303361235E-4   -3.240193469705264E-4   -3.379350789005465E-4   -3.376940274068931E-4   -1.480386247588189E-1    4.589079011043342E-1
 1.010384462360000E+10  -3.453871448716354E-1    3.482893786005305E-1   -3.842173431242759E-4   -2.961645424068860E-4   -3.454681269737621E-4   -3.084864243850656E-4   -1.473921051239369E-1    4.592215847991022E-1
 1.010385338207500E+10  -3.449134313936254E-1    3.485426494737683E-1   -4.063153395333403E-4   -3.141659830683771E-4   -3.434544763521535E-4   -3.290103741103977E-4   -1.468689190670827E-1    4.593125998410239E-1
 1.010386214055000E+10  -3.445371987755351E-1    3.488770342088776E-1   -4.073415743445446E-4   -2.928935936917953E-4   -3.216076610038069E-4   -3.107162986358394E-4   -1.463448876953321E-1    4.594354824147026E-1
 1.010387089902500E+10  -3.441693578348156E-1    3.493280937212687E-1   -3.647971771383537E-4   -2.947762796218923E-4   -3.340906161708267E-4   -3.191132369319695E-4   -1.456167389276367E-1    4.597870539648372E-1
 1.010387965750000E+10  -3.437567866090400E-1    3.498430181301884E-1   -3.562864187999074E-4   -2.904789088933223E-4   -3.393252466585968E-4   -3.312246488399209E-4   -1.451093124493949E-1    4.600851454157890E-1
 1.010388841597500E+10  -3.434968555813975E-1    3.501837551703605E-1   -3.532509690889633E-4   -2.851049027105649E-4   -3.256694909791853E-4   -2.964474870213347E-4   -1.444235372942742E-1    4.600926234533326E-1
 1.010389717445000E+10  -3.431658564325283E-1    3.505432154524421E-1   -3.814293015891779E-4   -3.074623190376056E-4   -3.470181805254931E-4   -3.051258593935999E-4   -1.440570009004462E-1    4.603994574435102E-1
 1.010390593292500E+10  -3.427144918409909E-1    3.509897376114541E-1   -3.427141641728873E-4   -2.926277317392755E-4   -3.083562859257379E-4   -3.251172286554814E-4   -1.433571965896583E-1    4.604628847468577E-1
 1.010391469140000E+10  -3.423283687173693E-1    3.512872865162488E-1   -3.612618829565159E-4   -2.955216188140008E-4   -3.185508806896050E-4   -3.072224270151337E-4   -1.427329802625723E-1    4.608235939107372E-1
 1.010392344987500E+10  -3.420807587146282E-1    3.517619825354920E-1   -3.544874480928656E-4   -2.856438638730977E-4   -2.974259131218301E-4   -3.103792498995504E-4   -1.422066497231182E-1    4.609296891489989E-1
 1.010393220835000E+10  -3.415679258348520E-1    3.520307152742443E-1   -3.385392605160800E-4   -2.780081756994109E-4   -3.131425725326011E-4   -2.883049188730164E-4   -1.415252752207646E-1    4.609783307500639E-1
 1.010394096682500E+10  -3.410903414496460E-1    3.525329843914342E-1   -3.139136008687654E-4   -2.867090894245628E-4   -2.919768744044988E-4   -3.001606706706934E-4   -1.409906055689148E-1    4.613698647101543E-1
 1.010394972530000E+10  -3.409525384436958E-1    3.528895290444494E-1   -3.349617014571545E-4   -2.747255548595659E-4   -2.825481166269577E-4   -2.836255434014651E-4   -1.403428755200921E-1    4.615092957241050E-1
 1.010395848377500E+10  -3.405666914970265E-1    3.532156951235658E-1   -3.048544414892570E-4   -2.639987148965795E-4   -3.090741174704836E-4   -2.868187219499540E-4   -1.397510033868657E-1    4.617604643963488E-1
 1.010396724225000E+10  -3.401702369911944E-1    3.536881745701454E-1   -3.076464519284120E-4   -2.666326314991950E-4   -2.634673641330280E-4   -2.953444450249472E-4   -1.391466888879018E-1    4.620068977857567E-1
 1.010397600072500E+10  -3.398825984649360E-1    3.541154162546385E-1   -3.153574016389677E-4   -2.768909186675820E-4   -2.864350911007040E-4   -2.688933493742365E-4   -1.386578774238455E-1    4.620781815498762E-1
 1.010398475920000E+10  -3.393291160229762E-1    3.543582218069455E-1   -3.199679923114580E-4   -2.799449636939847E-4   -2.570156800082616E-4   -3.102581926343902E-4   -1.379200442895644E-1    4.622654067650775E-1
 1.010399351767500E+10  -3.390637819763913E-1    3.547539822243736E-1   -3.092238455908718E-4   -2.777465927427907E-4   -2.727087350480257E-4   -2.704937670485075E-4   -1.373686780204632E-1    4.624061631461529E-1
 1.010400227615000E+10  -3.386539973384470E-1    3.551200176908920E-1   -2.957189291129390E-4   -2.535737953773881E-4   -2.691746950682040E-4   -2.775516031875928E-4   -1.367786014067685E-1    4.626720342054762E-1
 1.010401103462500E+10  -3.383849444533389E-1    3.556545471892054E-1   -2.892241105728496E-4   -2.461878866895939E-4   -2.448015320679239E-4   -2.624575951887769E-4   -1.360740649976545E-1    4.628100287675800E-1
 1.010401979310000E+10  -3.379476064163994E-1    3.560059579512998E-1   -2.527689208129148E-4   -2.832456812097852E-4   -2.364511126008663E-4   -2.863998031852948E-4   -1.356014933552316E-1    4.630704324363757E-1
 1.010402855157500E+10  -3.376265815427516E-1    3.562782201468324E-1   -2.781883804118142E-4   -2.632953668406654E-4   -2.335695713266712E-4   -2.359727228866119E-4   -1.349587073828301E-1    4.631796822462111E-1
 1.010403731005000E+10  -3.373807564463113E-1    3.567064610434552E-1   -2.923141942457351E-4   -2.435808450260671E-4   -2.338655674376328E-4   -2.593113368312088E-4   -1.342328447528264E-1    4.634741909635707E-1
 1.010404606852500E+10  -3.368780396969671E-1    3.571173944594607E-1   -2.586235576049325E-4   -2.532454376126008E-4   -2.237876957685555E-4   -2.449578848486634E-4   -1.337160906138837E-1    4.635392881953018E-1
 1.010405482700000E+10  -3.365354704189377E-1    3.575215745446041E-1   -2.519608514433871E-4   -2.334108463899794E-4   -2.243671600641370E-4   -2.398447208814495E-4   -1.330587046095101E-1    4.635852734303145E-1
 1.010406358547500E+10  -3.360488376893155E-1    3.580200436820770E-1   -2.563016977324450E-4   -2.332421601880577E-4   -2.064149584613731E-4   -2.449443584866889E-4   -1.323950654384264E-1    4.638157985533984E-1
 1.010407234395000E+10  -3.357523460862448E-1    3.582309495316491E-1   -2.261312446986311E-4   -2.337936239533775E-4   -2.324317517001229E-4   -2.701572883738413E-4   -1.317493542667605E-1    4.642468822442717E-1
 1.010408110242500E+10  -3.353275076878731E-1    3.586012748744647E-1   -2.327967433806012E-4   -2.559026382720198E-4   -1.976761787331410E-4   -2.552633466015317E-4   -1.312454741431809E-1    4.643868232420469E-1
 1.010408986090000E+10  -3.351405050187325E-1    3.590325589763723E-1   -2.363334349639873E-4   -2.426036995049050E-4   -1.851760364530886E-4   -2.184444685141099E-4   -1.305715801948116E-1    4.644621722990401E-1
 1.010409861937500E+10  -3.346408158500211E-1    3.594223548839987E-1   -2.205515710451844E-4   -2.376175790431641E-4   -1.616561053844585E-4   -2.655794826517104E-4   -1.298280111947461E-1    4.647481397434142E-1
 1.010410737785000E+10  -3.342279786970643E-1    3.597796331954882E-1   -1.924331146052964E-4   -2.167202701143303E-4   -1.510462835857001E-4   -2.567650628606288E-4   -1.293543837490574E-1    4.648725526867201E-1
 1.010411613632500E+10  -3.337925798487142E-1    3.601294840942305E-1   -2.153718538591556E-4   -2.471133537131780E-4   -1.936677637512120E-4   -2.469246049097853E-4   -1.286554869288238E-1    4.649960428784561E-1
 1.010412489480000E+10  -3.334409841357448E-1    3.605109276699200E-1   -1.711195619218204E-4   -2.552918002311967E-4   -1.598453951236976E-4   -2.567444218142357E-4   -1.279874269440977E-1    4.652370061102397E-1
 1.010413365327500E+10  -3.331235411501066E-1    3.608810852199558E-1   -1.859566817406928E-4   -2.214975264017803E-4   -1.654150980632620E-4   -2.419486667732043E-4   -1.275214956151985E-1    4.654549005050522E-1
 1.010414241175000E+10  -3.326834757161313E-1    3.612809915177639E-1   -1.946371694706982E-4   -2.250070146859051E-4   -1.358701469405911E-4   -2.125987247152329E-4   -1.268633253300387E-1    4.655253483252427E-1
