#  HZ   S   RI   R     50.00 
! Rohde & Schwarz Vector Network Analyzer 
! Rohde-Schwarz,ZNB20-2Port,1311601062101988,3.16
! Created: UTC 3/20/2024, 4:56:48 PM
! freq[Hz]                re:S11                  im:S11                  re:S21                  im:S21                  re:S12                  im:S12                  re:S22                  im:S22
 1.010147605900000E+10  -4.252133358432229E-1    2.299224330249423E-1   -6.221776611400314E-4   -7.067728846710654E-4   -5.455835867398059E-4   -7.414565820766692E-4   -2.820928155733610E-1    3.833752970082542E-1
 1.010149318920000E+10  -4.247601374237601E-1    2.309475543866867E-1   -6.153452117341382E-4   -6.970417855279516E-4   -5.311333566394086E-4   -7.454858149131350E-4   -2.813420160373452E-1    3.840725911053897E-1
 1.010151031940000E+10  -4.244292497379332E-1    2.318751816372841E-1   -5.902542231943850E-4   -7.343339789675570E-4   -5.425338321246634E-4   -7.182615379711555E-4   -2.803545527712542E-1    3.847024517237055E-1
 1.010152744960000E+10  -4.237893285043112E-1    2.328210796350179E-1   -6.101454367128209E-4   -6.946239574086800E-4   -5.446856320203805E-4   -7.219282641409984E-4   -2.795368200826277E-1    3.855263110251171E-1
 1.010154457980000E+10  -4.233582867174105E-1    2.338074374635427E-1   -6.257786230474317E-4   -7.114393214599102E-4   -5.096441851215434E-4   -7.212230058680216E-4   -2.787066867917879E-1    3.861886837979085E-1
 1.010156171000000E+10  -4.229680199568477E-1    2.348078050939647E-1   -6.023872036937108E-4   -7.193063931735705E-4   -5.469287522494800E-4   -7.429328168645855E-4   -2.778454106796791E-1    3.867892408525160E-1
 1.010157884020000E+10  -4.224738461060278E-1    2.356369766206578E-1   -6.243601104938178E-4   -7.028468732276315E-4   -5.298050396523292E-4   -7.200977436291943E-4   -2.767458074557254E-1    3.875849720692428E-1
 1.010159597040000E+10  -4.220211000670384E-1    2.366595787562263E-1   -6.003259540748203E-4   -7.159966563234110E-4   -5.365720132952374E-4   -7.006928967903289E-4   -2.759090554170832E-1    3.882490319464202E-1
 1.010161310060000E+10  -4.216081438850683E-1    2.376239160500115E-1   -6.202208981301552E-4   -6.840505288193884E-4   -5.492098094716025E-4   -7.183547250348297E-4   -2.751782350386521E-1    3.890596797957321E-1
 1.010163023080000E+10  -4.212703582064758E-1    2.385920096601381E-1   -6.060361925661890E-4   -6.838165885449169E-4   -5.432643672126850E-4   -7.052901469522261E-4   -2.743988681187369E-1    3.896180035739708E-1
 1.010164736100000E+10  -4.205104592876290E-1    2.395742178624926E-1   -5.928748928213538E-4   -6.807343047854673E-4   -5.215330273569018E-4   -7.210697157558546E-4   -2.733636031820796E-1    3.903156013432156E-1
 1.010166449120000E+10  -4.202366035535130E-1    2.402779263161682E-1   -6.017334187901834E-4   -6.743137621243187E-4   -5.473582109268303E-4   -7.308653732873145E-4   -2.725073443115621E-1    3.909996589923998E-1
 1.010168162140000E+10  -4.196963280530768E-1    2.412776390530395E-1   -6.137383912158391E-4   -6.897343307345984E-4   -5.343883382694284E-4   -7.172604841889396E-4   -2.715516902129442E-1    3.916662049928366E-1
 1.010169875160000E+10  -4.192359549429736E-1    2.423045293603696E-1   -6.072052729696369E-4   -6.905491277755582E-4   -5.285872292085396E-4   -7.181996095381513E-4   -2.706910095372722E-1    3.924020607305253E-1
 1.010171588180000E+10  -4.188481440534710E-1    2.431253119197852E-1   -6.197693223267974E-4   -6.879681391338358E-4   -5.440686222467394E-4   -6.998912636067629E-4   -2.698118280470878E-1    3.929195477818485E-1
 1.010173301200000E+10  -4.182371722639143E-1    2.442100971221796E-1   -6.168137286885433E-4   -6.642127629645420E-4   -5.317031417089088E-4   -7.033415687010484E-4   -2.689615769625049E-1    3.936177572793714E-1
 1.010175014220000E+10  -4.178036874540431E-1    2.449948925352635E-1   -5.818978955431832E-4   -6.640679183778939E-4   -5.427657050513102E-4   -6.998789251449667E-4   -2.680040534251177E-1    3.942840043779743E-1
 1.010176727240000E+10  -4.172386327529271E-1    2.460299873981073E-1   -6.197947814630397E-4   -6.778992600808786E-4   -5.400274253873820E-4   -7.269171136942014E-4   -2.670993924017843E-1    3.949784191864303E-1
 1.010178440260000E+10  -4.168562013453130E-1    2.469803132428467E-1   -6.016060178370557E-4   -6.701728074930715E-4   -5.347915022061100E-4   -6.862629194261366E-4   -2.662274075716286E-1    3.957711544913677E-1
 1.010180153280000E+10  -4.163047889719227E-1    2.478454019729426E-1   -6.332285927858165E-4   -6.858702702462496E-4   -5.421212836033046E-4   -6.790417936341770E-4   -2.653162071668511E-1    3.964081260009356E-1
 1.010181866300000E+10  -4.159595877558358E-1    2.487589775295348E-1   -6.236311892709145E-4   -6.575353824223714E-4   -5.463799938898738E-4   -6.891832379838542E-4   -2.644349430700663E-1    3.971019588824997E-1
 1.010183579320000E+10  -4.154137725491520E-1    2.497539223806424E-1   -6.275548627226241E-4   -6.502167431723441E-4   -5.598801592400359E-4   -6.987534035426313E-4   -2.635768327330922E-1    3.976751095655246E-1
 1.010185292340000E+10  -4.148793822943783E-1    2.505396183486612E-1   -6.217746552229101E-4   -6.544602581908740E-4   -5.576869184544556E-4   -6.977744794854711E-4   -2.626334461495225E-1    3.983399655647256E-1
 1.010187005360000E+10  -4.144261224900785E-1    2.515299697424089E-1   -6.316223256239466E-4   -6.706378949544344E-4   -5.245349310304947E-4   -6.745763458196869E-4   -2.617492299057453E-1    3.990082434231067E-1
 1.010188718380000E+10  -4.138970793789837E-1    2.524566178564151E-1   -6.301072645146187E-4   -6.950954698420608E-4   -5.536491869302778E-4   -6.881533322077812E-4   -2.609317295106027E-1    3.996694227185078E-1
 1.010190431400000E+10  -4.133796266750658E-1    2.534522827597226E-1   -6.033663449142515E-4   -6.420876139164193E-4   -5.665309140850848E-4   -6.797690615145721E-4   -2.598807943217289E-1    4.002416343418577E-1
 1.010192144420000E+10  -4.128147881645205E-1    2.543134980329251E-1   -6.152283479000197E-4   -6.889892524090337E-4   -5.439562315970724E-4   -6.822197670423508E-4   -2.589516218394100E-1    4.009795781842645E-1
 1.010193857440000E+10  -4.124004624484432E-1    2.551150885129872E-1   -6.030953962643213E-4   -6.822155599190783E-4   -5.596695560572836E-4   -6.514688318977538E-4   -2.581535779826313E-1    4.014906811069924E-1
 1.010195570460000E+10  -4.119936542862591E-1    2.560143024004881E-1   -6.300585266748032E-4   -6.550859414220147E-4   -5.439916792520229E-4   -6.665506334789328E-4   -2.571411885753209E-1    4.020924431551077E-1
 1.010197283480000E+10  -4.113515783547707E-1    2.569550503945118E-1   -6.037948940215963E-4   -6.609460773044460E-4   -5.359801908616876E-4   -6.547359780344432E-4   -2.562444760637424E-1    4.028740063089404E-1
 1.010198996500000E+10  -4.108867092387204E-1    2.579374243208746E-1   -6.073734901737263E-4   -6.688444567534351E-4   -5.520400326042376E-4   -6.389018217889483E-4   -2.553883535048513E-1    4.035260057020926E-1
 1.010200709520000E+10  -4.104360008320463E-1    2.588550891397171E-1   -6.099486044941328E-4   -6.396485120134147E-4   -5.682073192369263E-4   -6.633877408933346E-4   -2.545703417953754E-1    4.041557861314709E-1
 1.010202422540000E+10  -4.098002486616384E-1    2.598115612667882E-1   -6.513954342508409E-4   -6.274710913479752E-4   -5.571883481438647E-4   -6.698292504052235E-4   -2.536121824416564E-1    4.046907367780779E-1
 1.010204135560000E+10  -4.093971942978550E-1    2.606651701893719E-1   -6.194541975731115E-4   -6.238541635332274E-4   -5.419886437308726E-4   -6.606419031932458E-4   -2.526615337296768E-1    4.053461074881283E-1
 1.010205848580000E+10  -4.088629709130417E-1    2.615500837475502E-1   -6.158500721792203E-4   -6.341740817920217E-4   -5.461008201232873E-4   -6.511328865098056E-4   -2.517365699510017E-1    4.060537290220725E-1
 1.010207561600000E+10  -4.083124552782008E-1    2.624221853200396E-1   -5.943637199848587E-4   -6.375488373522013E-4   -5.601216014137553E-4   -6.655531399895613E-4   -2.508014096607787E-1    4.065995275042238E-1
 1.010209274620000E+10  -4.077350100452884E-1    2.632941289863306E-1   -6.222558334152842E-4   -6.638131858891219E-4   -5.517067844732164E-4   -6.558198292477324E-4   -2.498633193888806E-1    4.073349001702042E-1
 1.010210987640000E+10  -4.072247051825235E-1    2.642192984929020E-1   -6.004587051457981E-4   -6.400905587974717E-4   -5.387044091680345E-4   -6.660918315416841E-4   -2.488441014742309E-1    4.079272200171511E-1
 1.010212700660000E+10  -4.067115703326600E-1    2.651164887048760E-1   -5.998120375012377E-4   -6.152201318534620E-4   -5.338679642451711E-4   -6.447429301970937E-4   -2.479752103146154E-1    4.086950747377526E-1
 1.010214413680000E+10  -4.062774023587069E-1    2.660826160815802E-1   -6.068005033605701E-4   -6.509321242190042E-4   -5.577819934804561E-4   -6.513027544227325E-4   -2.471380251750072E-1    4.092010378564084E-1
 1.010216126700000E+10  -4.056458956362173E-1    2.669980550220856E-1   -6.321507962695359E-4   -6.179270861195142E-4   -5.753360329576134E-4   -6.439841940225775E-4   -2.461183782727392E-1    4.096193462638086E-1
 1.010217839720000E+10  -4.051758431733055E-1    2.678244640562762E-1   -6.437248808114329E-4   -6.268090034207037E-4   -5.551972266257404E-4   -6.310642582933993E-4   -2.452416526795940E-1    4.105704485124863E-1
 1.010219552740000E+10  -4.047199670248220E-1    2.687098767649395E-1   -6.235653968773252E-4   -6.327642328201633E-4   -5.591048855998266E-4   -6.207189396018413E-4   -2.441972080806558E-1    4.110822882593504E-1
 1.010221265760000E+10  -4.040295509493113E-1    2.696275568227276E-1   -5.965812659256579E-4   -6.199600788068626E-4   -5.413296911090782E-4   -6.517516000783800E-4   -2.433843685362958E-1    4.116447286474432E-1
 1.010222978780000E+10  -4.035163556322278E-1    2.705568062908488E-1   -6.187047125101483E-4   -6.228690565621099E-4   -5.261255075504328E-4   -6.440208941222622E-4   -2.425039507966734E-1    4.122184409434869E-1
 1.010224691800000E+10  -4.029971607769800E-1    2.712630587448207E-1   -6.129218308731399E-4   -6.186530769237101E-4   -5.231665147394188E-4   -6.292906818124910E-4   -2.415083847414430E-1    4.129184073921930E-1
 1.010226404820000E+10  -4.023410193347376E-1    2.723985925025673E-1   -6.022333738211821E-4   -6.020089066419394E-4   -5.656932986751180E-4   -6.213936539755196E-4   -2.405085919031529E-1    4.134376364610317E-1
 1.010228117840000E+10  -4.019058063362779E-1    2.732213161949886E-1   -6.169836218677715E-4   -6.203751722085953E-4   -5.484039458811259E-4   -6.353018774713014E-4   -2.396158669378175E-1    4.141018116391901E-1
 1.010229830860000E+10  -4.012789684755474E-1    2.742105986062477E-1   -6.048642190602654E-4   -5.876341357226636E-4   -5.620637629929898E-4   -6.077584532237356E-4   -2.385471011291913E-1    4.146604258665582E-1
 1.010231543880000E+10  -4.006877879231492E-1    2.750295666665565E-1   -6.174094417657324E-4   -6.191009821679077E-4   -5.553647215488057E-4   -6.109690054719023E-4   -2.377046506147797E-1    4.152965485192777E-1
 1.010233256900000E+10  -4.001551338065570E-1    2.759440678308223E-1   -6.210649226502730E-4   -6.077565361138110E-4   -5.361283022338993E-4   -6.270566426206753E-4   -2.367234986800797E-1    4.158802184062627E-1
 1.010234969920000E+10  -3.997918218117605E-1    2.768519566220159E-1   -5.918867523647119E-4   -5.714730302442839E-4   -5.114373807383822E-4   -6.204477637410856E-4   -2.357331679312606E-1    4.164191720070498E-1
 1.010236682940000E+10  -3.991885317498531E-1    2.776586154226462E-1   -5.926099267516856E-4   -5.830810208792747E-4   -5.283995107972101E-4   -5.992342292442531E-4   -2.348654186180875E-1    4.170144200510768E-1
 1.010238395960000E+10  -3.987129628343319E-1    2.785696830926459E-1   -6.075800132520732E-4   -6.101963565265163E-4   -5.172954899907061E-4   -6.115257751163790E-4   -2.337781920193866E-1    4.175745380805015E-1
 1.010240108980000E+10  -3.980729256860314E-1    2.793264051897439E-1   -6.023101730852057E-4   -5.779438701596557E-4   -5.474755599174073E-4   -6.042906511215002E-4   -2.328274977658210E-1    4.181259623189977E-1
 1.010241822000000E+10  -3.975038123047832E-1    2.803646361382626E-1   -5.934971844657421E-4   -5.775624970152904E-4   -5.298376957562476E-4   -6.090036675956868E-4   -2.319025971454316E-1    4.187613780183039E-1
 1.010243535020000E+10  -3.969498830257752E-1    2.811236497392234E-1   -5.868770960158634E-4   -5.693872088991431E-4   -5.525999353284657E-4   -6.159456298379834E-4   -2.309913181013386E-1    4.192852991426276E-1
 1.010245248040000E+10  -3.964263636129274E-1    2.822078711953769E-1   -5.891923482575980E-4   -5.836077295742817E-4   -5.130466619941758E-4   -5.854172883921737E-4   -2.302188826856628E-1    4.198864789842434E-1
 1.010246961060000E+10  -3.958508759305607E-1    2.828993930273971E-1   -6.217821461177022E-4   -5.721334840378398E-4   -5.361547575928845E-4   -6.138636694785250E-4   -2.290501766421417E-1    4.205492145556893E-1
 1.010248674080000E+10  -3.951258964760971E-1    2.838242979773137E-1   -5.815366692582122E-4   -5.705692223845306E-4   -5.381307647531318E-4   -6.049258631474811E-4   -2.280482608570170E-1    4.212201214028209E-1
 1.010250387100000E+10  -3.946961510889746E-1    2.847174410893338E-1   -6.076089180277642E-4   -5.565863230954936E-4   -5.226865081576380E-4   -5.998839261287073E-4   -2.271360061193859E-1    4.217509993426407E-1
 1.010252100120000E+10  -3.942708146637224E-1    2.855996037184632E-1   -5.907680085387056E-4   -5.633466248587194E-4   -5.130102604520555E-4   -5.936228042591583E-4   -2.261487333743830E-1    4.224130390632986E-1
 1.010253813140000E+10  -3.936071793411233E-1    2.864282417345966E-1   -5.947911285852537E-4   -5.780859984313685E-4   -5.387035714474191E-4   -5.638543383728196E-4   -2.250767049010202E-1    4.227964258301828E-1
 1.010255526160000E+10  -3.930799337181967E-1    2.873495808731291E-1   -5.838804694608880E-4   -5.549607832808498E-4   -5.489280767480831E-4   -5.934192010963752E-4   -2.242964078528266E-1    4.234153943896112E-1
 1.010257239180000E+10  -3.924296969648558E-1    2.881615787456472E-1   -5.908821364771609E-4   -5.716527304216444E-4   -5.463542818990150E-4   -5.759064623518908E-4   -2.233170044896939E-1    4.240633150729686E-1
 1.010258952200000E+10  -3.918560514090424E-1    2.889774452838778E-1   -6.003819985013570E-4   -5.457649539228175E-4   -5.174915347461705E-4   -5.910756228399603E-4   -2.221994862064852E-1    4.245269376771088E-1
 1.010260665220000E+10  -3.912547574493633E-1    2.899782783172859E-1   -5.813526942944810E-4   -5.492207783768034E-4   -5.299298269655785E-4   -5.471540468937079E-4   -2.212952240615203E-1    4.250136878367964E-1
 1.010262378240000E+10  -3.907568043803430E-1    2.908615193627524E-1   -6.137923856764031E-4   -5.143413749709068E-4   -5.069644641545834E-4   -5.727985062727442E-4   -2.202621564168363E-1    4.257047329107190E-1
 1.010264091260000E+10  -3.901261873563820E-1    2.915852743887036E-1   -5.732621594511861E-4   -5.155228747874057E-4   -5.159950826770941E-4   -5.415063720761073E-4   -2.192832917389506E-1    4.263210469604140E-1
 1.010265804280000E+10  -3.895575593618111E-1    2.924575015457262E-1   -5.926626859112141E-4   -5.281952454429857E-4   -4.950632752920878E-4   -5.559094622783961E-4   -2.183333384071877E-1    4.268053892332695E-1
 1.010267517300000E+10  -3.890497701274136E-1    2.933814497572427E-1   -5.809386996046433E-4   -5.194731107938246E-4   -5.218417383746442E-4   -5.508834938292413E-4   -2.173714686593246E-1    4.272935636361147E-1
 1.010269230320000E+10  -3.884098366985928E-1    2.942916709545328E-1   -5.739166592094156E-4   -5.594015076983663E-4   -5.200983995599747E-4   -5.928261159807101E-4   -2.163604893219040E-1    4.279114927474386E-1
 1.010270943340000E+10  -3.878619628737592E-1    2.951535900768741E-1   -5.819454451400669E-4   -5.379537783941469E-4   -5.177751897744486E-4   -5.281586628251472E-4   -2.153256393730102E-1    4.284344038885893E-1
 1.010272656360000E+10  -3.872049078045844E-1    2.959646394071758E-1   -5.703828410563496E-4   -5.235831920087361E-4   -5.296488795787679E-4   -5.743005117411454E-4   -2.143215550953978E-1    4.289685799682466E-1
 1.010274369380000E+10  -3.867003814353881E-1    2.968451073095740E-1   -5.659770770360752E-4   -5.189758129571208E-4   -5.109060522617724E-4   -5.428027125793435E-4   -2.133637475809316E-1    4.295585275549296E-1
 1.010276082400000E+10  -3.860061067446599E-1    2.977782298510804E-1   -5.816337058169240E-4   -5.194775188121114E-4   -5.053319477929238E-4   -5.534805166463480E-4   -2.122564326628540E-1    4.300201260878652E-1
 1.010277795420000E+10  -3.854857156083112E-1    2.985463639141529E-1   -5.707505882713456E-4   -4.872656245920533E-4   -5.262500128609167E-4   -5.545529859484236E-4   -2.112362076354475E-1    4.306582539240049E-1
 1.010279508440000E+10  -3.848161336123979E-1    2.994871887926445E-1   -5.758268302632229E-4   -5.520517365298919E-4   -5.071640342528661E-4   -5.558132900090875E-4   -2.103726667664214E-1    4.312290186478829E-1
 1.010281221460000E+10  -3.842709879136972E-1    3.001791595313243E-1   -5.561611640913553E-4   -5.392412069539831E-4   -5.163978972667840E-4   -5.286468770644823E-4   -2.093720408476148E-1    4.316476469901086E-1
 1.010282934480000E+10  -3.835917085150415E-1    3.009923454593635E-1   -5.756507064550736E-4   -4.937658179372043E-4   -5.180607098080000E-4   -5.428523249758766E-4   -2.083425423693185E-1    4.323193308662324E-1
 1.010284647500000E+10  -3.831465013127717E-1    3.020334627846874E-1   -5.550701748695783E-4   -4.951428406921490E-4   -4.864561904902723E-4   -5.166419688970785E-4   -2.071911314730348E-1    4.327135954727352E-1
 1.010286360520000E+10  -3.824220928982458E-1    3.027161367429105E-1   -5.492698812429538E-4   -5.312617693041572E-4   -4.877402658827695E-4   -5.101249294262307E-4   -2.065014355057297E-1    4.332326951292877E-1
 1.010288073540000E+10  -3.818965417773879E-1    3.035756131131254E-1   -5.669803276653786E-4   -5.047200354353446E-4   -4.879717838553977E-4   -5.078354651105386E-4   -2.052875914646649E-1    4.337120808522111E-1
 1.010289786560000E+10  -3.813533212924791E-1    3.045029455299886E-1   -5.357492402662504E-4   -4.960793338524352E-4   -4.824544762166934E-4   -5.325325490819986E-4   -2.043187544687048E-1    4.343219979197347E-1
 1.010291499580000E+10  -3.806543664909365E-1    3.053683501398354E-1   -5.298392372822953E-4   -5.042959650391863E-4   -4.913147350931696E-4   -5.290840200434819E-4   -2.032459061608554E-1    4.347746351413068E-1
 1.010293212600000E+10  -3.800786543573452E-1    3.060959822483768E-1   -5.565621581917512E-4   -4.875497228789143E-4   -4.890910114164166E-4   -4.862815690973217E-4   -2.021975908897829E-1    4.352452952844673E-1
 1.010294925620000E+10  -3.793547146762144E-1    3.069800071045981E-1   -5.245439863431430E-4   -4.857602286828478E-4   -4.607553481224526E-4   -4.927799818326624E-4   -2.012013063499311E-1    4.359204409363912E-1
 1.010296638640000E+10  -3.787922328339232E-1    3.080207759082964E-1   -5.432688881242716E-4   -4.665045538573637E-4   -4.840673355390194E-4   -5.031437792364329E-4   -2.001167814302258E-1    4.362896757628125E-1
 1.010298351660000E+10  -3.781458750025903E-1    3.086843591527571E-1   -5.106423536670841E-4   -4.958991496980167E-4   -4.861948815180240E-4   -5.018593347862772E-4   -1.991515187946945E-1    4.369357282579305E-1
 1.010300064680000E+10  -3.775508689197059E-1    3.094765514385776E-1   -5.233386361115731E-4   -4.855697245581205E-4   -4.596818927451011E-4   -4.990710201724557E-4   -1.981808348914878E-1    4.373272273691646E-1
 1.010301777700000E+10  -3.769395743770503E-1    3.102787019931589E-1   -5.129280776498558E-4   -4.739951627853254E-4   -4.517970885507133E-4   -4.837553300959223E-4   -1.971261447669317E-1    4.379001962063737E-1
