#  HZ   S   RI   R     50.00 
! Rohde & Schwarz Vector Network Analyzer 
! Rohde-Schwarz,ZNB20-2Port,1311601062101988,3.16
! Created: UTC 3/20/2024, 5:11:56 PM
! freq[Hz]                re:S11                  im:S11                  re:S21                  im:S21                  re:S12                  im:S12                  re:S22                  im:S22
 1.010337895700000E+10  -3.639745641351320E-1    3.266839394715172E-1   -5.505890320852302E-4   -4.158144062023335E-4   -5.151952759754425E-4   -4.581464065825433E-4   -1.773117112618053E-1    4.474162169781311E-1
 1.010338761380000E+10  -3.635923481082862E-1    3.271772452576991E-1   -5.795249331902012E-4   -4.206894914430918E-4   -4.763674232222775E-4   -4.299282979090783E-4   -1.766867437987773E-1    4.476981302536159E-1
 1.010339627060000E+10  -3.631859382944844E-1    3.274779346713355E-1   -5.812361622772619E-4   -4.132838098131254E-4   -5.121521134197985E-4   -4.421440529523264E-4   -1.761969589871695E-1    4.478411024090350E-1
 1.010340492740000E+10  -3.630156248381879E-1    3.280289609691476E-1   -5.578405058483896E-4   -4.085668893924097E-4   -4.708613250317738E-4   -4.275721110285708E-4   -1.755195956970265E-1    4.482242934007847E-1
 1.010341358420000E+10  -3.625395527146852E-1    3.283107499913045E-1   -5.538154128908046E-4   -4.093829886730762E-4   -5.272895844740342E-4   -4.772778053653885E-4   -1.749919333434710E-1    4.483389814451437E-1
 1.010342224100000E+10  -3.622922412592713E-1    3.288191596710426E-1   -5.480982262286969E-4   -3.963984374457145E-4   -5.044091305226947E-4   -4.253202337551322E-4   -1.745898754186277E-1    4.485974615976204E-1
 1.010343089780000E+10  -3.618395306069992E-1    3.292227755473206E-1   -5.536147254489644E-4   -4.117578117641526E-4   -4.904318297675546E-4   -4.310621641577597E-4   -1.739685213881268E-1    4.488015803709879E-1
 1.010343955460000E+10  -3.614186685443928E-1    3.296252381253555E-1   -5.604750960641011E-4   -4.003234420813304E-4   -4.979435403376513E-4   -4.278600028597701E-4   -1.734101915485818E-1    4.490081602677777E-1
 1.010344821140000E+10  -3.610908010664930E-1    3.300094847865900E-1   -5.556500851521505E-4   -4.156545044375527E-4   -4.844224558802821E-4   -4.210996000402380E-4   -1.730102850073644E-1    4.493830004801529E-1
 1.010345686820000E+10  -3.608321569221833E-1    3.302806797388292E-1   -5.290256835879419E-4   -3.850412069305941E-4   -4.917121459050283E-4   -4.560691477788345E-4   -1.724154920362636E-1    4.494557791446609E-1
 1.010346552500000E+10  -3.604114397902821E-1    3.307933589345572E-1   -5.477785868650792E-4   -3.999083630847568E-4   -5.047491197797315E-4   -4.188006435406547E-4   -1.717607115887288E-1    4.498017936863644E-1
 1.010347418180000E+10  -3.601607153306839E-1    3.311281940217418E-1   -5.281902521350327E-4   -3.750815057717181E-4   -4.933579213159288E-4   -4.309352517983408E-4   -1.713048871359081E-1    4.499729943370982E-1
 1.010348283860000E+10  -3.597971430888330E-1    3.315923578174827E-1   -4.997961078970951E-4   -3.646578889650672E-4   -4.872196219277797E-4   -4.198902760447478E-4   -1.708325823667107E-1    4.502950290069442E-1
 1.010349149540000E+10  -3.596497022753346E-1    3.319334296543491E-1   -5.305782126644221E-4   -3.966349276157799E-4   -4.830950365829700E-4   -4.051389157198749E-4   -1.702681414491680E-1    4.503901588073771E-1
 1.010350015220000E+10  -3.591539639611155E-1    3.323525908933258E-1   -5.311569999322717E-4   -3.732082621814701E-4   -4.837082059194606E-4   -4.061161942168074E-4   -1.696456406038003E-1    4.506622828408787E-1
 1.010350880900000E+10  -3.587013575237736E-1    3.328329653037726E-1   -5.314102099562121E-4   -3.734471066283956E-4   -4.917588678485061E-4   -4.358994465591211E-4   -1.691336740036955E-1    4.509498628572869E-1
 1.010351746580000E+10  -3.584471287745021E-1    3.331960607411621E-1   -5.201995520257070E-4   -3.705854790088692E-4   -4.611927614196428E-4   -4.259506780846122E-4   -1.685737518407918E-1    4.509728065019575E-1
 1.010352612260000E+10  -3.581801512229948E-1    3.337588714765631E-1   -5.426482309927191E-4   -3.937842139042230E-4   -4.555495997263572E-4   -3.809744361525843E-4   -1.681513269862011E-1    4.513831164177484E-1
 1.010353477940000E+10  -3.577720595190734E-1    3.340594642624339E-1   -5.326382874926844E-4   -3.718532292683052E-4   -4.560353011300963E-4   -4.276800053217482E-4   -1.675419195728682E-1    4.515809005781173E-1
 1.010354343620000E+10  -3.574008503231210E-1    3.344590625760082E-1   -5.104999523359484E-4   -3.678163941531499E-4   -4.758369220563519E-4   -3.915759698135031E-4   -1.669453759344317E-1    4.518934673620760E-1
 1.010355209300000E+10  -3.570575320957894E-1    3.347832942111125E-1   -5.249902884025841E-4   -3.755214987663893E-4   -4.669790546930948E-4   -3.921324240050965E-4   -1.663337808729255E-1    4.520589797490651E-1
 1.010356074980000E+10  -3.568116971342308E-1    3.352062506190815E-1   -5.249218128613872E-4   -3.796978093429777E-4   -4.651375869668120E-4   -3.805523038745354E-4   -1.660427568085583E-1    4.523315304621008E-1
 1.010356940660000E+10  -3.564750960659114E-1    3.356753679855882E-1   -4.987092144957975E-4   -3.643608863893519E-4   -4.744585105165889E-4   -3.856806937725826E-4   -1.652833588589495E-1    4.524434773477348E-1
 1.010357806340000E+10  -3.561088167981487E-1    3.359704983670150E-1   -5.081257736194056E-4   -3.904195010103447E-4   -4.754562102537292E-4   -3.836966966172904E-4   -1.647180648366094E-1    4.526478588561932E-1
 1.010358672020000E+10  -3.556775078701431E-1    3.363316757032564E-1   -4.794550032156141E-4   -3.685393889405464E-4   -4.514044632014781E-4   -3.890453093113248E-4   -1.641947586043653E-1    4.528616981235266E-1
 1.010359537700000E+10  -3.554593159597633E-1    3.368822576674460E-1   -4.644509969739593E-4   -3.576325255092766E-4   -4.494319777965901E-4   -4.084506407390763E-4   -1.637666373771136E-1    4.531532096072032E-1
 1.010360403380000E+10  -3.550349189411482E-1    3.372377320559580E-1   -5.049770172723816E-4   -3.914195497598200E-4   -4.669062662522361E-4   -3.920104477730897E-4   -1.631273567025441E-1    4.533337163713019E-1
 1.010361269060000E+10  -3.545501101057921E-1    3.375354824372151E-1   -4.841005452614178E-4   -3.509213109309603E-4   -4.392606119750454E-4   -3.824051300870893E-4   -1.625368040961293E-1    4.536073743612145E-1
 1.010362134740000E+10  -3.543322560208629E-1    3.379965151773048E-1   -5.192594107234917E-4   -3.641172943660348E-4   -4.332712426091317E-4   -3.609632558126082E-4   -1.620145471781595E-1    4.537798803734525E-1
 1.010363000420000E+10  -3.538875891223299E-1    3.384030524987120E-1   -4.936361234210619E-4   -3.562592022509115E-4   -4.575185537706027E-4   -3.639332044841433E-4   -1.614977573062457E-1    4.540641166906670E-1
 1.010363866100000E+10  -3.537167889867787E-1    3.387800436380488E-1   -4.763334448967211E-4   -3.298894405835724E-4   -4.566540096256401E-4   -3.578133004051678E-4   -1.610277654360880E-1    4.541503012597357E-1
 1.010364731780000E+10  -3.532120276758809E-1    3.392435088000502E-1   -4.575124637783063E-4   -3.589930298924778E-4   -4.400353701296304E-4   -3.852065975272202E-4   -1.603938622587800E-1    4.543360410754560E-1
 1.010365597460000E+10  -3.529006570005903E-1    3.396374888795502E-1   -4.817797152851549E-4   -3.558512667481067E-4   -4.219390329755797E-4   -3.676552918970884E-4   -1.598480828747950E-1    4.546155160156878E-1
 1.010366463140000E+10  -3.525695124468842E-1    3.400901502236235E-1   -4.822782469182328E-4   -3.672237380190899E-4   -4.244035732105723E-4   -3.830395541671116E-4   -1.592518392868116E-1    4.548655716248101E-1
 1.010367328820000E+10  -3.523152390064482E-1    3.404053521745737E-1   -4.935814808869801E-4   -3.433474929634787E-4   -4.275419328686477E-4   -3.639297716544130E-4   -1.587607090568194E-1    4.550107189657739E-1
 1.010368194500000E+10  -3.519297614041714E-1    3.409671758405447E-1   -4.623648198231304E-4   -3.625370138250584E-4   -4.295419071666608E-4   -3.670001090833793E-4   -1.581660379886155E-1    4.553345630750846E-1
 1.010369060180000E+10  -3.516727198170414E-1    3.411785523727490E-1   -4.616602696724685E-4   -3.476463485407521E-4   -4.141534392583405E-4   -3.635219715490190E-4   -1.576019176802237E-1    4.555791422680248E-1
 1.010369925860000E+10  -3.512022770894765E-1    3.415827035894424E-1   -4.648116581607207E-4   -3.374641245093776E-4   -3.970454444148996E-4   -3.482726033790358E-4   -1.571182557591505E-1    4.557267378477697E-1
 1.010370791540000E+10  -3.509678352921202E-1    3.419029300225425E-1   -4.713854369651471E-4   -3.239383279555620E-4   -4.026985288668433E-4   -3.720552357186316E-4   -1.565257860732851E-1    4.559304209103799E-1
 1.010371657220000E+10  -3.505390859434981E-1    3.422535336477698E-1   -4.654088180085174E-4   -3.103243184082919E-4   -4.157349220971692E-4   -3.715828213635634E-4   -1.558652622259895E-1    4.560133982271110E-1
 1.010372522900000E+10  -3.502078919946662E-1    3.428431086958170E-1   -4.519668104024469E-4   -3.181755425261592E-4   -4.148597606708605E-4   -3.791442064841584E-4   -1.553324787613315E-1    4.563355785644985E-1
 1.010373388580000E+10  -3.498355843916487E-1    3.431423396365246E-1   -4.507969612653874E-4   -2.957975909617861E-4   -3.891529350181941E-4   -3.710101214458130E-4   -1.547548903054197E-1    4.565362145215353E-1
 1.010374254260000E+10  -3.495743597791618E-1    3.436382477736622E-1   -4.277363008786630E-4   -3.594468563012449E-4   -3.994867209235943E-4   -3.428408220209504E-4   -1.542530565163737E-1    4.567388061571926E-1
 1.010375119940000E+10  -3.490407700046758E-1    3.440717522109417E-1   -4.501431707690462E-4   -3.364773712638499E-4   -4.055065432128237E-4   -3.435402175731712E-4   -1.535261255824397E-1    4.569044620444346E-1
 1.010375985620000E+10  -3.488825736482163E-1    3.442832856350512E-1   -4.376162397953173E-4   -3.345808132697437E-4   -4.091979868106184E-4   -3.491495447252508E-4   -1.530496194044292E-1    4.572265599339646E-1
 1.010376851300000E+10  -3.484071883215409E-1    3.447049730412620E-1   -4.213983388869286E-4   -3.144845183514057E-4   -3.651453815003058E-4   -3.747816755936171E-4   -1.524692901424416E-1    4.574044505254830E-1
 1.010377716980000E+10  -3.481250900314323E-1    3.451057173792179E-1   -4.328083912337879E-4   -3.164353441811319E-4   -3.910092926390052E-4   -3.476671164144182E-4   -1.520126330130706E-1    4.575742427366059E-1
 1.010378582660000E+10  -3.475547392833448E-1    3.455133282755566E-1   -4.286612342968598E-4   -3.432381403061826E-4   -3.899765612258009E-4   -3.465422234578524E-4   -1.514414710004718E-1    4.578073626190542E-1
 1.010379448340000E+10  -3.474665324408185E-1    3.460103496431972E-1   -4.077938207257133E-4   -3.188105197778232E-4   -3.815272119123102E-4   -3.264368300606192E-4   -1.507745684902838E-1    4.579071482423312E-1
 1.010380314020000E+10  -3.470017827893051E-1    3.463477932096242E-1   -4.270314788364523E-4   -3.371076529985676E-4   -3.688800793377998E-4   -3.305481596554906E-4   -1.502530399666017E-1    4.582062378840176E-1
 1.010381179700000E+10  -3.465877176611187E-1    3.467276123446121E-1   -3.954228838727366E-4   -3.013297377439790E-4   -3.754574912286872E-4   -3.407422977416237E-4   -1.496173426982641E-1    4.583437283634622E-1
 1.010382045380000E+10  -3.462299641457368E-1    3.470505379173758E-1   -4.202950901166021E-4   -2.938236290243626E-4   -3.831160650505883E-4   -3.156344126250800E-4   -1.491667807420853E-1    4.585936049219502E-1
 1.010382911060000E+10  -3.460067830218614E-1    3.475524456061116E-1   -4.013544277783844E-4   -3.156727967984852E-4   -3.830534633547550E-4   -3.258098324746931E-4   -1.485695330981516E-1    4.588737318884213E-1
 1.010383776740000E+10  -3.455439303831134E-1    3.478388817758828E-1   -3.866287561039600E-4   -2.981735932935834E-4   -3.490548676993117E-4   -3.306713624871956E-4   -1.480346167745515E-1    4.590254871502851E-1
 1.010384642420000E+10  -3.451580540633430E-1    3.482509061823960E-1   -3.993619205597630E-4   -3.025685505956802E-4   -3.633000486265757E-4   -3.232057713896901E-4   -1.472891838609965E-1    4.591283102472594E-1
 1.010385508100000E+10  -3.448370858367834E-1    3.487192395779860E-1   -3.564465347972731E-4   -2.946602763500197E-4   -3.466533074214357E-4   -3.198627630071311E-4   -1.468688845974228E-1    4.594302600745779E-1
 1.010386373780000E+10  -3.444641560851414E-1    3.489565888536734E-1   -3.638271021086043E-4   -3.084063356667140E-4   -3.502770121620709E-4   -3.122939256771761E-4   -1.463439435999108E-1    4.595071202794532E-1
 1.010387239460000E+10  -3.440827167937656E-1    3.494507015456094E-1   -4.151955525192315E-4   -3.162905360991196E-4   -3.498514858783373E-4   -3.292997636121235E-4   -1.457038081371940E-1    4.597961430988665E-1
 1.010388105140000E+10  -3.436969934931706E-1    3.498072408522119E-1   -3.683109355466901E-4   -2.806324479183686E-4   -3.452229707619286E-4   -3.194070113984274E-4   -1.450799716972945E-1    4.599109978292624E-1
 1.010388970820000E+10  -3.434319264501890E-1    3.502277527205711E-1   -3.820988764367803E-4   -3.110931016278793E-4   -3.456489213140582E-4   -3.172083848647716E-4   -1.444840981516359E-1    4.603086720651436E-1
 1.010389836500000E+10  -3.430848669151085E-1    3.505729738588874E-1   -3.484173831881518E-4   -2.732054561409635E-4   -3.431153062484604E-4   -3.118223855137089E-4   -1.439273528717535E-1    4.604050105151272E-1
 1.010390702180000E+10  -3.427683320669148E-1    3.510003366334417E-1   -3.375193741515821E-4   -2.936426705522183E-4   -3.153063209776857E-4   -3.106485680503303E-4   -1.432973093332438E-1    4.606548981324429E-1
 1.010391567860000E+10  -3.423004843435813E-1    3.513881702183654E-1   -3.872404629309782E-4   -2.644270125681132E-4   -3.080409989013051E-4   -3.058092005139131E-4   -1.428152351366584E-1    4.608579468137365E-1
 1.010392433540000E+10  -3.420219917983243E-1    3.517828217188558E-1   -3.512423792751558E-4   -3.001457502924115E-4   -3.074761020016973E-4   -3.053521862852751E-4   -1.421187093189176E-1    4.609648109999278E-1
 1.010393299220000E+10  -3.416742922012210E-1    3.521121451306760E-1   -3.393032701437559E-4   -3.058765596491889E-4   -3.006416689904608E-4   -3.040629674981385E-4   -1.416328283379032E-1    4.611318979886250E-1
 1.010394164900000E+10  -3.412298647109261E-1    3.525694123019454E-1   -3.415207396538896E-4   -3.031374082525299E-4   -2.789023686850807E-4   -3.188657394234576E-4   -1.410251838057099E-1    4.614466767963403E-1
 1.010395030580000E+10  -3.409556461313072E-1    3.528135245416553E-1   -3.237489181910804E-4   -2.761116879172851E-4   -2.963164800408838E-4   -2.939890853443404E-4   -1.403262071056820E-1    4.615196163075462E-1
 1.010395896260000E+10  -3.405740520297402E-1    3.532334323844393E-1   -3.179792853565006E-4   -2.718083514002302E-4   -3.043775723645203E-4   -2.817816726557438E-4   -1.398014680994799E-1    4.617060771759915E-1
 1.010396761940000E+10  -3.401033844012749E-1    3.536003810949235E-1   -3.337319950837107E-4   -2.867836631268194E-4   -2.826595781114039E-4   -3.099679556664419E-4   -1.391792860848979E-1    4.619293395427225E-1
 1.010397627620000E+10  -3.399168267094049E-1    3.539824345264638E-1   -3.066057267469696E-4   -2.721118217197412E-4   -2.747585354345727E-4   -2.860797063339128E-4   -1.385761125934447E-1    4.621833294504550E-1
 1.010398493300000E+10  -3.394867583257294E-1    3.544418062056434E-1   -2.990611737955279E-4   -3.030360543304020E-4   -2.862427444795185E-4   -3.029004300748147E-4   -1.379628167669882E-1    4.622057533334571E-1
 1.010399358980000E+10  -3.390521722113412E-1    3.547836175478130E-1   -2.944807458876883E-4   -2.418573901739031E-4   -2.730400805629552E-4   -2.918113613575782E-4   -1.375116211154899E-1    4.625309718737583E-1
 1.010400224660000E+10  -3.386164714612573E-1    3.551732604881351E-1   -3.014602043636181E-4   -2.643127747142924E-4   -2.567978632350964E-4   -2.775162826707623E-4   -1.368336474698456E-1    4.627165493332231E-1
 1.010401090340000E+10  -3.383936074848323E-1    3.555155922982579E-1   -2.878905479511030E-4   -2.667613399964213E-4   -2.620930597751084E-4   -2.677913538522662E-4   -1.362077477904760E-1    4.628009768473544E-1
 1.010401956020000E+10  -3.380386748284306E-1    3.557583605193005E-1   -2.374390260140388E-4   -2.599462796406107E-4   -2.460238975963601E-4   -2.393390751720366E-4   -1.354933592340292E-1    4.630639326793736E-1
 1.010402821700000E+10  -3.377177731002677E-1    3.562281503638645E-1   -2.316791231839618E-4   -2.756090772552959E-4   -2.395844954146523E-4   -2.626309078261939E-4   -1.350788120669877E-1    4.633601691636295E-1
 1.010403687380000E+10  -3.371269331886240E-1    3.567064033898815E-1   -2.961870270970126E-4   -2.564199549580427E-4   -2.389379199818334E-4   -2.503341004948861E-4   -1.344524781368626E-1    4.633358107707006E-1
 1.010404553060000E+10  -3.368949244647159E-1    3.572039158624992E-1   -2.561831652149269E-4   -2.964852066604647E-4   -2.570110364734592E-4   -2.395043953335386E-4   -1.337184684002851E-1    4.635455804501669E-1
 1.010405418740000E+10  -3.364936173211435E-1    3.574469245850995E-1   -2.481409530541612E-4   -2.607824168620999E-4   -2.045218503099771E-4   -2.876209052463194E-4   -1.330969435446297E-1    4.637847213275860E-1
 1.010406284420000E+10  -3.361437003495078E-1    3.577792706030504E-1   -2.566275147442776E-4   -2.668684865952988E-4   -2.349338478525075E-4   -2.601361318657957E-4   -1.324654762865710E-1    4.639930592752030E-1
 1.010407150100000E+10  -3.358182928661730E-1    3.582640825833054E-1   -2.409619907554150E-4   -2.408037879912464E-4   -1.900464002290230E-4   -2.601178287868522E-4   -1.320231685288334E-1    4.641767086780473E-1
 1.010408015780000E+10  -3.354015592928272E-1    3.585511450326322E-1   -2.176425944509380E-4   -2.519086136621177E-4   -2.125039923256394E-4   -2.462308714864649E-4   -1.315338499930701E-1    4.642827435692234E-1
 1.010408881460000E+10  -3.349147019828058E-1    3.590187850888051E-1   -2.209694020103326E-4   -2.368454018940240E-4   -1.974345900942197E-4   -2.280061775309745E-4   -1.306400699325787E-1    4.644594701634658E-1
 1.010409747140000E+10  -3.346426474261264E-1    3.593335044512861E-1   -2.327967481593149E-4   -2.416417530360956E-4   -1.831691702569812E-4   -2.337875487677693E-4   -1.300794838290250E-1    4.646331696259239E-1
 1.010410612820000E+10  -3.343574103727434E-1    3.597775527046950E-1   -2.205615455422614E-4   -2.439191558202218E-4   -1.948659546846990E-4   -2.483138749558641E-4   -1.294494357989308E-1    4.648614297127129E-1
 1.010411478500000E+10  -3.338100345546388E-1    3.600141487426449E-1   -2.154842648751634E-4   -2.318293678253525E-4   -1.893535454025242E-4   -2.351110595099894E-4   -1.289147034285791E-1    4.649412961648446E-1
 1.010412344180000E+10  -3.335873341379452E-1    3.604668121320932E-1   -1.967370263871699E-4   -2.610269872530744E-4   -1.451177879744390E-4   -2.410764993205001E-4   -1.281945811398771E-1    4.651402081199857E-1
 1.010413209860000E+10  -3.331135978492625E-1    3.607688920214964E-1   -2.007919915689341E-4   -2.443063991910353E-4   -1.532713291496037E-4   -2.262561443444608E-4   -1.276331501460957E-1    4.654011898577775E-1
 1.010414075540000E+10  -3.328590052515060E-1    3.612097729291852E-1   -1.636868539402875E-4   -2.377165057545431E-4   -1.325317899994893E-4   -2.237989207741744E-4   -1.270069017190265E-1    4.654767808858915E-1
 1.010414941220000E+10  -3.323909258001588E-1    3.616299655313526E-1   -1.985598853360060E-4   -2.368100477944594E-4   -1.391917346401506E-4   -2.411939654748869E-4   -1.263875265011203E-1    4.655710354273846E-1
 1.010415806900000E+10  -3.322420667469534E-1    3.618920899701070E-1   -1.790683240520452E-4   -2.053319054098553E-4   -1.367136580355041E-4   -2.394716867250906E-4   -1.257764972625552E-1    4.657267264327250E-1
