#  HZ   S   RI   R     50.00 
! Rohde & Schwarz Vector Network Analyzer 
! Rohde-Schwarz,ZNB20-2Port,1311601062101988,3.16
! Created: UTC 3/20/2024, 4:56:55 PM
! freq[Hz]                re:S11                  im:S11                  re:S21                  im:S21                  re:S12                  im:S12                  re:S22                  im:S22
 1.010147871800000E+10  -4.252224009995147E-1    2.301954669073926E-1   -6.039469397208379E-4   -7.390880380567065E-4   -5.098074932834428E-4   -7.334879831973907E-4   -2.819158563330962E-1    3.835119507090468E-1
 1.010149581452500E+10  -4.246772561771971E-1    2.312022153860718E-1   -6.271038346740731E-4   -7.054096351182043E-4   -5.193411570884709E-4   -7.281154815690016E-4   -2.812448201897728E-1    3.841262566807827E-1
 1.010151291105000E+10  -4.243191997791801E-1    2.320369562535434E-1   -6.297207074890608E-4   -7.256217605563096E-4   -5.427215613046918E-4   -7.598015026158050E-4   -2.802890767613649E-1    3.849367060269464E-1
 1.010153000757500E+10  -4.237975119489926E-1    2.329552111907732E-1   -6.150892165837543E-4   -6.881954197499337E-4   -5.403049543731624E-4   -7.441979558505206E-4   -2.793336694743051E-1    3.855583887282776E-1
 1.010154710410000E+10  -4.233833448883286E-1    2.340256170797229E-1   -6.344340232203752E-4   -7.231460964495266E-4   -5.374531772842753E-4   -7.383255539182583E-4   -2.785909862426125E-1    3.863420436171698E-1
 1.010156420062500E+10  -4.229126643351516E-1    2.348444777732871E-1   -6.047549568941522E-4   -6.905262185803939E-4   -5.335913893375409E-4   -7.326711710257925E-4   -2.777230008315727E-1    3.869289340440959E-1
 1.010158129715000E+10  -4.225431222508064E-1    2.357318594924368E-1   -6.101054557459085E-4   -6.895784446676259E-4   -5.440205483560133E-4   -7.250412732847808E-4   -2.768349717003507E-1    3.876689097500187E-1
 1.010159839367500E+10  -4.219652833177720E-1    2.366973058229512E-1   -6.381300984751479E-4   -6.927591877487878E-4   -5.438056497448263E-4   -7.333992025192722E-4   -2.759214067413139E-1    3.883442234049036E-1
 1.010161549020000E+10  -4.215205941074158E-1    2.376355354133048E-1   -6.515202843968051E-4   -7.024620700820445E-4   -5.519599940677603E-4   -7.274228317602812E-4   -2.749990700606360E-1    3.890143613695043E-1
 1.010163258672500E+10  -4.210852877484459E-1    2.386244183644363E-1   -6.239882525289712E-4   -6.908774217090561E-4   -5.455708934470381E-4   -7.225914631175476E-4   -2.741886324890710E-1    3.896663993220196E-1
 1.010164968325000E+10  -4.204634805747159E-1    2.396205990789509E-1   -6.096744156720109E-4   -7.073540672845074E-4   -5.251063941302005E-4   -7.257413923389975E-4   -2.732794775932448E-1    3.902076244514024E-1
 1.010166677977500E+10  -4.200936995033423E-1    2.405793312910154E-1   -6.145033571227600E-4   -6.922672496072821E-4   -5.602826140057471E-4   -7.228396033800497E-4   -2.723670111861974E-1    3.909845867831239E-1
 1.010168387630000E+10  -4.196193896435634E-1    2.414263331580406E-1   -6.198488204688367E-4   -6.843314452624275E-4   -5.512834708558148E-4   -7.161213658728146E-4   -2.714453400190163E-1    3.916826846570696E-1
 1.010170097282500E+10  -4.190610389311766E-1    2.423668309536026E-1   -6.206773123136976E-4   -6.646997216992177E-4   -5.567304807576442E-4   -7.266860919505473E-4   -2.706331199945516E-1    3.923628216561900E-1
 1.010171806935000E+10  -4.186681485350888E-1    2.433395993570207E-1   -6.055218756793201E-4   -6.908529192341080E-4   -5.223801497102908E-4   -7.122895422860076E-4   -2.698356366349601E-1    3.930090693107894E-1
 1.010173516587500E+10  -4.181903336501025E-1    2.441818064043913E-1   -6.242214676110018E-4   -6.922160910833401E-4   -5.430547522485469E-4   -7.125602422100799E-4   -2.688919298087319E-1    3.937064390549461E-1
 1.010175226240000E+10  -4.177484600885094E-1    2.452024942103243E-1   -6.118225070879204E-4   -7.063236029278779E-4   -5.166512231755820E-4   -6.949699177412010E-4   -2.679161602350499E-1    3.944193797297686E-1
 1.010176935892500E+10  -4.171782772087086E-1    2.459733645390219E-1   -6.354199345176135E-4   -6.865514243268005E-4   -5.647805542931875E-4   -6.955115169399148E-4   -2.671498464933114E-1    3.949139754289523E-1
 1.010178645545000E+10  -4.167448771985865E-1    2.470474404441817E-1   -6.141283825757104E-4   -6.635107337622852E-4   -5.341430902347582E-4   -6.728510723230476E-4   -2.661218205575210E-1    3.956717201926784E-1
 1.010180355197500E+10  -4.162033818596055E-1    2.479047026482801E-1   -6.185283793540532E-4   -6.631746356210034E-4   -5.422253114626681E-4   -6.801737539712521E-4   -2.651861518640442E-1    3.963597992362985E-1
 1.010182064850000E+10  -4.158269544183396E-1    2.489080063673882E-1   -6.093964414964262E-4   -6.689027429265882E-4   -5.466464397646842E-4   -7.273658021019834E-4   -2.644273689422085E-1    3.971483460440134E-1
 1.010183774502500E+10  -4.151765903573689E-1    2.496736595665599E-1   -6.326681326002446E-4   -6.669969888587484E-4   -5.425346147735549E-4   -6.984441781804341E-4   -2.635508934474282E-1    3.977335866645287E-1
 1.010185484155000E+10  -4.149674146280688E-1    2.506968069935099E-1   -6.037526260488591E-4   -6.719412844536500E-4   -5.582832781952720E-4   -6.717037964253795E-4   -2.626111377083103E-1    3.983030131661837E-1
 1.010187193807500E+10  -4.144899402871989E-1    2.515477974950123E-1   -6.001152329052128E-4   -6.779801467915850E-4   -5.489336797115914E-4   -6.959734921931440E-4   -2.615624876287307E-1    3.990084905719055E-1
 1.010188903460000E+10  -4.138824978396031E-1    2.525154415929653E-1   -6.072012873203811E-4   -6.467320429967374E-4   -5.662362595524622E-4   -6.657113968754996E-4   -2.607262400455044E-1    3.996279751075075E-1
 1.010190613112500E+10  -4.133102844878403E-1    2.534625334654755E-1   -5.862101617318954E-4   -6.655417198486295E-4   -5.500134088604632E-4   -6.760630042472840E-4   -2.598197251178767E-1    4.003791754079858E-1
 1.010192322765000E+10  -4.128286553607017E-1    2.542786630601363E-1   -6.278916675562952E-4   -6.497425885686027E-4   -5.543412287303618E-4   -6.870403903128056E-4   -2.589724118977725E-1    4.009752530092114E-1
 1.010194032417500E+10  -4.122968547313787E-1    2.553283237237997E-1   -6.374189216114898E-4   -6.464644554182089E-4   -5.335429086940382E-4   -6.565039053696545E-4   -2.581337649983316E-1    4.016247476656230E-1
 1.010195742070000E+10  -4.118043200745076E-1    2.561606832822566E-1   -5.949633502970761E-4   -6.336985291827603E-4   -5.340356480457719E-4   -6.731017953822518E-4   -2.570637937539817E-1    4.022549613045429E-1
 1.010197451722500E+10  -4.112933307419653E-1    2.571289461429663E-1   -6.010292660727404E-4   -6.623474076186638E-4   -5.507453653613700E-4   -6.467021854211513E-4   -2.561947270602474E-1    4.028340462688831E-1
 1.010199161375000E+10  -4.107801773462739E-1    2.579366593929469E-1   -5.941430630248025E-4   -6.396232615083225E-4   -5.519653711902865E-4   -6.555223537391364E-4   -2.553654843779911E-1    4.035561963771100E-1
 1.010200871027500E+10  -4.102624400805157E-1    2.589461204191835E-1   -6.310525901126369E-4   -6.575844790144721E-4   -5.335079587636283E-4   -6.740049993715341E-4   -2.544382197743462E-1    4.040479426581681E-1
 1.010202580680000E+10  -4.097899296247384E-1    2.598748734343908E-1   -6.013600569970500E-4   -6.285569318383315E-4   -5.535663770173263E-4   -6.717937077446967E-4   -2.535775593601298E-1    4.047332241683856E-1
 1.010204290332500E+10  -4.092988049483682E-1    2.607492880162552E-1   -5.975166439925720E-4   -6.509778724563583E-4   -5.360532134156534E-4   -6.567294277890994E-4   -2.524523951886344E-1    4.054267103679532E-1
 1.010205999985000E+10  -4.087632954783681E-1    2.616053834447647E-1   -6.093130070630792E-4   -6.309476907076716E-4   -5.246820458322184E-4   -6.545017967945103E-4   -2.517813070998375E-1    4.061999925304299E-1
 1.010207709637500E+10  -4.082456139467605E-1    2.624968545923842E-1   -6.254790496692632E-4   -6.451850172938432E-4   -5.498018225811106E-4   -6.464000958363221E-4   -2.508038440228053E-1    4.066540837516978E-1
 1.010209419290000E+10  -4.077669093988204E-1    2.635513544084102E-1   -6.190441852710074E-4   -6.127922742211851E-4   -5.713877684990172E-4   -6.518743417998585E-4   -2.498773413900847E-1    4.074588853014821E-1
 1.010211128942500E+10  -4.072368453006786E-1    2.644476108531795E-1   -6.040535401721289E-4   -6.482777701474444E-4   -5.401342965531538E-4   -6.449504325686318E-4   -2.488649455582927E-1    4.078479367772798E-1
 1.010212838595000E+10  -4.067342990371366E-1    2.651617040480467E-1   -6.207695443035077E-4   -6.077408709851375E-4   -5.575989842084660E-4   -6.539274415057426E-4   -2.480034197216540E-1    4.085932129480387E-1
 1.010214548247500E+10  -4.062671662329276E-1    2.661190216807319E-1   -6.230920250849038E-4   -6.440751198889884E-4   -5.251083538378802E-4   -6.461922410678496E-4   -2.469650699922654E-1    4.092305425532267E-1
 1.010216257900000E+10  -4.055963810286545E-1    2.669869723715083E-1   -6.200912918562150E-4   -6.036320541432642E-4   -5.214815502863554E-4   -6.490201417632876E-4   -2.459664677525777E-1    4.097177235073269E-1
 1.010217967552500E+10  -4.051449165880454E-1    2.679533087426110E-1   -5.976534719411684E-4   -6.075919005595504E-4   -5.513158753430730E-4   -6.609424821919001E-4   -2.451302813811079E-1    4.103979746592899E-1
 1.010219677205000E+10  -4.046717585401453E-1    2.687679583737457E-1   -6.101265822149763E-4   -6.315915519329307E-4   -5.525562964923916E-4   -6.328211384855432E-4   -2.442703177564786E-1    4.109856054992909E-1
 1.010221386857500E+10  -4.041615318787423E-1    2.697146954596259E-1   -6.258853917790925E-4   -6.195321292848531E-4   -5.362575147716019E-4   -6.407950848604423E-4   -2.432243976368652E-1    4.116243583118287E-1
 1.010223096510000E+10  -4.035911409748604E-1    2.705830411198395E-1   -6.049047720459282E-4   -5.905995751539701E-4   -5.289421947416109E-4   -6.169488240731968E-4   -2.423354096265388E-1    4.122661120104391E-1
 1.010224806162500E+10  -4.029611467149445E-1    2.715702066426671E-1   -6.017998204842031E-4   -5.956736506847185E-4   -5.623734961860481E-4   -6.337944696684385E-4   -2.413490179223680E-1    4.128624006266499E-1
 1.010226515815000E+10  -4.024850026575267E-1    2.723893750499021E-1   -6.012646181782807E-4   -6.089577737423485E-4   -5.618361118960648E-4   -6.179198256354829E-4   -2.404275168273967E-1    4.133773444830333E-1
 1.010228225467500E+10  -4.018628191789320E-1    2.733171629784306E-1   -6.143854384672490E-4   -5.865166956448402E-4   -5.270190002035473E-4   -6.281874580419656E-4   -2.395136735629215E-1    4.140337228348457E-1
 1.010229935120000E+10  -4.013055475591092E-1    2.742956132533181E-1   -6.121680675906266E-4   -5.946721258298553E-4   -5.469788657283286E-4   -6.095054294843335E-4   -2.385572923508758E-1    4.146134239271619E-1
 1.010231644772500E+10  -4.007809756442445E-1    2.751257481540799E-1   -6.020243024845972E-4   -5.984007237868002E-4   -5.571153467775226E-4   -6.132107638251543E-4   -2.374630140069251E-1    4.151476115657654E-1
 1.010233354425000E+10  -4.001921795721231E-1    2.760474146063064E-1   -5.839130437458223E-4   -5.793430129883253E-4   -5.312562454714233E-4   -6.056400958472615E-4   -2.366429502500645E-1    4.157936615839838E-1
 1.010235064077500E+10  -3.997069910229348E-1    2.768183181301153E-1   -6.071942649909610E-4   -5.635325279182424E-4   -5.440135256064686E-4   -6.242261616076001E-4   -2.357392710967126E-1    4.164427143995542E-1
 1.010236773730000E+10  -3.992732963476431E-1    2.777940269952413E-1   -6.077587022774898E-4   -5.618494096623145E-4   -5.756517357428613E-4   -6.073701691753520E-4   -2.347768475882837E-1    4.171937344409337E-1
 1.010238483382500E+10  -3.986516878043824E-1    2.786730464990332E-1   -5.815589541012329E-4   -5.821921990761427E-4   -5.468372331874350E-4   -6.142297891763982E-4   -2.338263483108248E-1    4.176202332819599E-1
 1.010240193035000E+10  -3.980606340986692E-1    2.793249614577826E-1   -5.961137431736905E-4   -5.799688556775997E-4   -5.352729195676996E-4   -5.875263289385571E-4   -2.328573858201367E-1    4.182955265379013E-1
 1.010241902687500E+10  -3.975244567141816E-1    2.804905680420187E-1   -6.110937282975744E-4   -5.888493763320459E-4   -5.630859415832077E-4   -5.737600583755434E-4   -2.319283356761499E-1    4.186963098699756E-1
 1.010243612340000E+10  -3.969309911400789E-1    2.811884165222662E-1   -6.073101929822426E-4   -5.572178179165373E-4   -5.386460377331913E-4   -6.035480159825989E-4   -2.309062957116781E-1    4.193655360838107E-1
 1.010245321992500E+10  -3.964358819504438E-1    2.821431485898859E-1   -5.927428897231841E-4   -5.722199408290028E-4   -5.588655948522814E-4   -6.051132474139102E-4   -2.300076601805813E-1    4.200581622243483E-1
 1.010247031645000E+10  -3.957803201669198E-1    2.829618821164749E-1   -5.933481451611751E-4   -5.624021796662949E-4   -5.344563818977698E-4   -5.988418301814785E-4   -2.290041114693177E-1    4.205142532893549E-1
 1.010248741297500E+10  -3.952908666333148E-1    2.838675454794350E-1   -5.927643067759198E-4   -5.594492060130098E-4   -5.203707350867847E-4   -5.974591215753813E-4   -2.280093190904583E-1    4.211057924342881E-1
 1.010250450950000E+10  -3.947103699979786E-1    2.846760433266536E-1   -6.085738875003329E-4   -5.440873760488127E-4   -5.252083725688561E-4   -5.837178807667243E-4   -2.270830088276933E-1    4.216608483449814E-1
 1.010252160602500E+10  -3.940708769203912E-1    2.857388323836678E-1   -6.014712377303538E-4   -5.649176543796578E-4   -5.295659420969653E-4   -5.796102000330585E-4   -2.261256035551930E-1    4.222815492921268E-1
 1.010253870255000E+10  -3.936577960762153E-1    2.865711268959174E-1   -5.915874620289048E-4   -5.757306978998837E-4   -5.285281686558384E-4   -6.025267339014069E-4   -2.250179609815199E-1    4.229326535332107E-1
 1.010255579907500E+10  -3.928866749035960E-1    2.873491852484961E-1   -6.010969838085310E-4   -5.488910580521256E-4   -5.201273895489723E-4   -5.641680277675996E-4   -2.240207408623401E-1    4.234058335692235E-1
 1.010257289560000E+10  -3.923642003298543E-1    2.883153794854839E-1   -5.806135073027342E-4   -5.560191188961759E-4   -5.151747752872659E-4   -5.893474324413177E-4   -2.232022150251531E-1    4.240342794077891E-1
 1.010258999212500E+10  -3.919077146215258E-1    2.890837929499228E-1   -5.817941860790278E-4   -5.153421074000084E-4   -5.298601018315486E-4   -5.694267803926308E-4   -2.221525348229974E-1    4.245115011439339E-1
 1.010260708865000E+10  -3.913548099807221E-1    2.898884977614915E-1   -5.944873564786132E-4   -5.526483314555971E-4   -4.983973780112747E-4   -5.733196140916565E-4   -2.212360168982253E-1    4.251925683595805E-1
 1.010262418517500E+10  -3.907200438908190E-1    2.908321934778051E-1   -6.007663965017824E-4   -5.572123853631467E-4   -5.058373886609667E-4   -5.652104439250846E-4   -2.201996374419464E-1    4.257568221788661E-1
 1.010264128170000E+10  -3.902533186296143E-1    2.917380467436193E-1   -5.842997717571701E-4   -5.674483165144727E-4   -5.228262005880919E-4   -5.876078968709989E-4   -2.193741655195116E-1    4.261745896833795E-1
 1.010265837822500E+10  -3.896154264356875E-1    2.925532547473360E-1   -5.785264920691429E-4   -5.321526682863066E-4   -5.401151981181709E-4   -5.635739449818212E-4   -2.182820748951427E-1    4.267106413721290E-1
 1.010267547475000E+10  -3.889379809994452E-1    2.934185261705090E-1   -5.939676402492461E-4   -5.269436524852896E-4   -5.155293681242418E-4   -5.469736734078298E-4   -2.172990324321752E-1    4.273210885255658E-1
 1.010269257127500E+10  -3.883868932924326E-1    2.942872200919196E-1   -5.883703182184835E-4   -5.278807613886979E-4   -5.204381002943589E-4   -5.641051565984182E-4   -2.163478990526626E-1    4.278104411675908E-1
 1.010270966780000E+10  -3.878055123801628E-1    2.951828505329993E-1   -5.892776476114297E-4   -5.297469897780269E-4   -5.147234801354223E-4   -5.421794369647391E-4   -2.152962900290037E-1    4.285100287789301E-1
 1.010272676432500E+10  -3.872981360318897E-1    2.959164622870794E-1   -5.368125974772490E-4   -5.171883388736584E-4   -4.945941434825083E-4   -5.431818678208314E-4   -2.143069902335318E-1    4.289710465940423E-1
 1.010274386085000E+10  -3.866769470346033E-1    2.968807018913491E-1   -5.396291961537728E-4   -5.247750316055014E-4   -5.248867999513376E-4   -5.380044680886069E-4   -2.133736596792219E-1    4.294146003342617E-1
 1.010276095737500E+10  -3.858710105017857E-1    2.975238990446695E-1   -5.536591765627665E-4   -5.462322452408398E-4   -4.779295974997349E-4   -5.412338794107192E-4   -2.123668303733055E-1    4.299761677748232E-1
 1.010277805390000E+10  -3.854738788457742E-1    2.985193225731608E-1   -5.497349026591087E-4   -5.042658808391979E-4   -5.026258077304078E-4   -5.425898360088322E-4   -2.113394358879108E-1    4.305739403252805E-1
 1.010279515042500E+10  -3.849686351209518E-1    2.994026438505033E-1   -5.532116643073771E-4   -4.857424699028122E-4   -4.987570404321631E-4   -5.306745703424975E-4   -2.102063978170689E-1    4.311457464780854E-1
 1.010281224695000E+10  -3.843346230951516E-1    3.002449639146748E-1   -5.788869477550879E-4   -5.260023180780788E-4   -4.996834004231562E-4   -5.644348913106689E-4   -2.093940965348622E-1    4.315735167908043E-1
 1.010282934347500E+10  -3.836183050348630E-1    3.011249366772703E-1   -5.722837053618303E-4   -4.941976254438664E-4   -5.233944773779962E-4   -5.093016085719337E-4   -2.083310131739881E-1    4.322330915725736E-1
 1.010284644000000E+10  -3.829961029371898E-1    3.019098156278556E-1   -5.537069178433608E-4   -4.865139724776721E-4   -5.012905058740010E-4   -5.194737562708053E-4   -2.073192323050897E-1    4.327554314114685E-1
 1.010286353652500E+10  -3.823749927935959E-1    3.027963512901232E-1   -5.496789794132544E-4   -5.083157262035929E-4   -5.065957305521501E-4   -5.249319462133948E-4   -2.062509691480051E-1    4.331710853525946E-1
 1.010288063305000E+10  -3.818454148206477E-1    3.036945928970605E-1   -5.351920141938728E-4   -4.929866877608212E-4   -4.851287524413947E-4   -5.098877376413708E-4   -2.053527991465149E-1    4.337634806037369E-1
 1.010289772957500E+10  -3.812637448960810E-1    3.044376156968205E-1   -5.435802730609248E-4   -4.957959771482686E-4   -4.739268706570012E-4   -5.218087949362217E-4   -2.041343404652233E-1    4.343431497108437E-1
 1.010291482610000E+10  -3.806042134778428E-1    3.052714116270646E-1   -5.481223339411887E-4   -4.785418286957998E-4   -4.830955786820526E-4   -5.165497194046716E-4   -2.032490769639901E-1    4.349397095722605E-1
 1.010293192262500E+10  -3.799924516673380E-1    3.062889792269251E-1   -5.274014166482497E-4   -4.902777538284388E-4   -4.764638766328302E-4   -5.315292453977701E-4   -2.022553845180884E-1    4.353449984469286E-1
 1.010294901915000E+10  -3.793414940714024E-1    3.069601546073814E-1   -5.385195627113030E-4   -5.013163519041941E-4   -4.618285389822376E-4   -5.322023045518350E-4   -2.012965246904352E-1    4.358327970689521E-1
 1.010296611567500E+10  -3.785661346527532E-1    3.077644629886022E-1   -5.358932927966044E-4   -4.948018102487889E-4   -4.982314359157611E-4   -5.154081791768006E-4   -2.002256402265089E-1    4.362461237211890E-1
 1.010298321220000E+10  -3.780705832294571E-1    3.086123749297823E-1   -5.476315337579726E-4   -4.769666851005084E-4   -4.646790295986108E-4   -5.044681225691234E-4   -1.992033846822805E-1    4.368769141930237E-1
 1.010300030872500E+10  -3.774669365424750E-1    3.096450743266352E-1   -5.316443005195399E-4   -4.836798404812854E-4   -4.660412787868251E-4   -5.055770764878227E-4   -1.981584774892665E-1    4.374312325999820E-1
 1.010301740525000E+10  -3.768237445712621E-1    3.102979056567421E-1   -5.358874954282507E-4   -4.825314593436446E-4   -4.618752794533400E-4   -4.877449718767257E-4   -1.969961235329908E-1    4.377676664741504E-1
