#  HZ   S   RI   R     50.00 
! Rohde & Schwarz Vector Network Analyzer 
! Rohde-Schwarz,ZNB20-2Port,1311601062101988,3.16
! Created: UTC 3/20/2024, 4:57:12 PM
! freq[Hz]                re:S11                  im:S11                  re:S21                  im:S21                  re:S12                  im:S12                  re:S22                  im:S22
 1.010138545400000E+10  -4.275705192462204E-1    2.250635909180012E-1   -5.899930428997116E-4   -7.179214794127629E-4   -5.156878275320038E-4   -7.398112546080364E-4   -2.867397106221394E-1    3.796415106630530E-1
 1.010140300532500E+10  -4.271223097074665E-1    2.260337540971248E-1   -6.186151330413380E-4   -6.992093395765873E-4   -5.001904994237790E-4   -7.433392946027694E-4   -2.857472404335994E-1    3.803361708901686E-1
 1.010142055665000E+10  -4.266488423875429E-1    2.270391183071332E-1   -6.274076090039643E-4   -7.202435506439971E-4   -5.340692341117354E-4   -7.415830029623493E-4   -2.850477990709149E-1    3.811215307627996E-1
 1.010143810797500E+10  -4.261806911317014E-1    2.278912057088990E-1   -5.976124795847199E-4   -7.091439140727245E-4   -5.295698025606321E-4   -7.095024037569228E-4   -2.839820984810167E-1    3.817779970503344E-1
 1.010145565930000E+10  -4.257582484969438E-1    2.289555284009641E-1   -5.982745738661376E-4   -7.241440197345706E-4   -5.382614379620534E-4   -7.479276925773126E-4   -2.831391074467485E-1    3.826517972452260E-1
 1.010147321062500E+10  -4.252559798640185E-1    2.299784830373945E-1   -6.129006406334815E-4   -7.045720742350084E-4   -5.378781003408781E-4   -7.127981623467614E-4   -2.822213359038379E-1    3.833058213295926E-1
 1.010149076195000E+10  -4.248051784549917E-1    2.308505608636071E-1   -6.064024302222255E-4   -6.874707928316552E-4   -5.348743130147830E-4   -7.437207022880012E-4   -2.813042984386072E-1    3.839641955536143E-1
 1.010150831327500E+10  -4.243005291669493E-1    2.318610760711102E-1   -6.136117141945648E-4   -6.788970911195598E-4   -5.501491891223013E-4   -7.473302413995636E-4   -2.805596199237394E-1    3.845887159480573E-1
 1.010152586460000E+10  -4.239250969996503E-1    2.328263750375810E-1   -5.833545432118225E-4   -7.170373612526756E-4   -5.094013709303831E-4   -7.485087916405166E-4   -2.795827187300151E-1    3.853194138553369E-1
 1.010154341592500E+10  -4.233858757740315E-1    2.337668699472476E-1   -6.160385138695109E-4   -6.918501013258600E-4   -5.305552000029895E-4   -7.309124346038046E-4   -2.787929269258708E-1    3.860501900197396E-1
 1.010156096725000E+10  -4.229559110277824E-1    2.348817573855791E-1   -6.039391602227932E-4   -6.781526352418947E-4   -5.297742571823334E-4   -7.233350739016403E-4   -2.779427026561486E-1    3.867888636623132E-1
 1.010157851857500E+10  -4.224403788072976E-1    2.356667202569432E-1   -5.867972694600663E-4   -6.914990124063541E-4   -5.275276599730647E-4   -7.304933767716741E-4   -2.769760740268616E-1    3.874818370830838E-1
 1.010159606990000E+10  -4.219780823637375E-1    2.367394755321226E-1   -6.229964127302174E-4   -6.952912071595292E-4   -5.529262239065463E-4   -7.055766612561235E-4   -2.760048734625883E-1    3.882274199456759E-1
 1.010161362122500E+10  -4.215434870038199E-1    2.376229853867333E-1   -6.077695277052709E-4   -7.234780260692870E-4   -5.411847959815156E-4   -7.284403034051400E-4   -2.750781336466026E-1    3.889509346732162E-1
 1.010163117255000E+10  -4.211306909870829E-1    2.386721328435255E-1   -6.258586781298351E-4   -6.759472789443099E-4   -5.396537100331371E-4   -7.220712662270035E-4   -2.741181147087897E-1    3.895987724847517E-1
 1.010164872387500E+10  -4.205454206604265E-1    2.396107838876462E-1   -6.117165494452766E-4   -6.994959115696199E-4   -5.315041025462276E-4   -7.101920326818506E-4   -2.733384976245268E-1    3.902685511028385E-1
 1.010166627520000E+10  -4.202554507261114E-1    2.405345136237345E-1   -6.228591359870951E-4   -6.847991530310835E-4   -5.205110710558356E-4   -7.188066040198713E-4   -2.724729075654704E-1    3.910322378986869E-1
 1.010168382652500E+10  -4.195853888025471E-1    2.414282376106723E-1   -6.006559513982924E-4   -6.792295964895535E-4   -5.505374207226312E-4   -6.971839500797724E-4   -2.715277399625167E-1    3.917395204217844E-1
 1.010170137785000E+10  -4.191578511998073E-1    2.423925838817884E-1   -6.205886530295062E-4   -6.854376865849901E-4   -5.316588495154809E-4   -7.005371530688315E-4   -2.705934154057052E-1    3.923103301933349E-1
 1.010171892917500E+10  -4.187507557648040E-1    2.433579839248507E-1   -6.207212902432114E-4   -6.786649913846435E-4   -5.326121158154584E-4   -6.760863649240816E-4   -2.696764513119969E-1    3.930634085621837E-1
 1.010173648050000E+10  -4.181560044194191E-1    2.442716804631934E-1   -6.460879573978467E-4   -6.772553375750341E-4   -5.343166514603688E-4   -7.128010273446479E-4   -2.687751942148776E-1    3.937585279946396E-1
 1.010175403182500E+10  -4.175933246955149E-1    2.452601755533955E-1   -5.985526504896655E-4   -6.671847491257028E-4   -5.465533190057879E-4   -7.086585135703991E-4   -2.678532101065244E-1    3.944100645037441E-1
 1.010177158315000E+10  -4.171002405260442E-1    2.463156830474882E-1   -6.268652282055634E-4   -6.714703456513491E-4   -5.527815147965075E-4   -7.046279030563658E-4   -2.669842110036882E-1    3.952093722811811E-1
 1.010178913447500E+10  -4.166466874638652E-1    2.471566907133245E-1   -5.924507385783205E-4   -6.820544938680764E-4   -5.511636865861680E-4   -7.269145953750917E-4   -2.659593778075633E-1    3.956390125105378E-1
 1.010180668580000E+10  -4.162378275049258E-1    2.480979303123540E-1   -6.066537294883966E-4   -6.527667468444469E-4   -5.559668486215544E-4   -6.981472426770635E-4   -2.650426072040730E-1    3.965809783828719E-1
 1.010182423712500E+10  -4.156346014210112E-1    2.490260301881103E-1   -6.167391470774890E-4   -6.742656055037589E-4   -5.520866057092908E-4   -7.082753340908610E-4   -2.641995737739519E-1    3.969977042947580E-1
 1.010184178845000E+10  -4.151294112499324E-1    2.500334767984869E-1   -6.215328685719460E-4   -6.843671486541740E-4   -5.355755693125647E-4   -6.598993977485087E-4   -2.632633417284189E-1    3.978744141682015E-1
 1.010185933977500E+10  -4.145826239897020E-1    2.509430009500267E-1   -6.041742502786667E-4   -6.761195907019204E-4   -5.403412759805310E-4   -6.728118772130172E-4   -2.623766789524858E-1    3.985532429960515E-1
 1.010187689110000E+10  -4.142507987467535E-1    2.518235944180032E-1   -6.132059170365699E-4   -6.750361078321437E-4   -5.461769899670101E-4   -6.369309647883392E-4   -2.614991981944483E-1    3.991471621551610E-1
 1.010189444242500E+10  -4.135707872099880E-1    2.527975894258786E-1   -6.027232521554955E-4   -6.589574046760748E-4   -5.469467966842198E-4   -6.918257273301173E-4   -2.604138742173671E-1    3.997741273145127E-1
 1.010191199375000E+10  -4.130910948595163E-1    2.537782241940068E-1   -6.116255820965640E-4   -6.351838133934898E-4   -5.456927895635002E-4   -6.660068006564100E-4   -2.597325720158883E-1    4.005848462439138E-1
 1.010192954507500E+10  -4.127394862635124E-1    2.546795267175317E-1   -6.089973849920373E-4   -6.531315436206852E-4   -5.329079522831976E-4   -6.819176087120925E-4   -2.586110870504826E-1    4.011699293837271E-1
 1.010194709640000E+10  -4.121438446547347E-1    2.556345995611917E-1   -6.017798518790951E-4   -6.583664012215074E-4   -5.293469090143062E-4   -6.695754506472280E-4   -2.578987444878102E-1    4.019836894070329E-1
 1.010196464772500E+10  -4.116414150881581E-1    2.565439038330564E-1   -6.247204294261693E-4   -6.298386989463189E-4   -5.570457391872708E-4   -6.601833817248765E-4   -2.567840639749054E-1    4.025248109799499E-1
 1.010198219905000E+10  -4.110958002327242E-1    2.574434054389779E-1   -6.150849808403803E-4   -6.284163339270651E-4   -5.140601352013281E-4   -6.615024074635527E-4   -2.557797636277989E-1    4.031986681825155E-1
 1.010199975037500E+10  -4.106401378665007E-1    2.585102267012128E-1   -6.159643743323921E-4   -6.640391533973050E-4   -5.543646822102297E-4   -6.557704951922984E-4   -2.547981318192533E-1    4.038289777919107E-1
 1.010201730170000E+10  -4.100116965351176E-1    2.594271699139970E-1   -6.055070837242380E-4   -6.559725641579664E-4   -5.382696214445607E-4   -6.480020704379735E-4   -2.540042905167288E-1    4.043537709518706E-1
 1.010203485302500E+10  -4.095156508041271E-1    2.604270560841963E-1   -6.016735865572786E-4   -6.268707750198531E-4   -5.608205803474759E-4   -6.878017272869448E-4   -2.529932501288965E-1    4.050452757163598E-1
 1.010205240435000E+10  -4.088822441571180E-1    2.611672192387133E-1   -5.926231812788977E-4   -6.249581516229928E-4   -5.563050772337621E-4   -6.529741059176948E-4   -2.520208546583205E-1    4.057568418217979E-1
 1.010206995567500E+10  -4.085222144904315E-1    2.621632358065614E-1   -6.251320002648642E-4   -6.618022337189358E-4   -5.381655805610314E-4   -6.646097125268079E-4   -2.511799547788767E-1    4.064778525917758E-1
 1.010208750700000E+10  -4.078896391614993E-1    2.630751655842765E-1   -6.157479726839612E-4   -6.283663864935960E-4   -5.465936038887492E-4   -6.421631550621450E-4   -2.501197723666569E-1    4.070765788058650E-1
 1.010210505832500E+10  -4.073245102139993E-1    2.639551739943188E-1   -5.852314119644028E-4   -6.195383065527425E-4   -5.224885485918316E-4   -6.616313650004018E-4   -2.491002979957772E-1    4.075400923332989E-1
 1.010212260965000E+10  -4.068061212221737E-1    2.648848511619444E-1   -6.251680601867004E-4   -6.228873562817948E-4   -5.352412878160810E-4   -6.282924969209196E-4   -2.483295256876395E-1    4.082773178680090E-1
 1.010214016097500E+10  -4.062490895110902E-1    2.659059337302908E-1   -6.266135575720686E-4   -6.294444579731135E-4   -5.303157318778271E-4   -6.505392225945747E-4   -2.473333904079899E-1    4.089160737899735E-1
 1.010215771230000E+10  -4.057282052962615E-1    2.668392328913655E-1   -5.764318183936734E-4   -6.186915399433883E-4   -5.522961986934432E-4   -6.312208946488424E-4   -2.463790208944179E-1    4.096582106683211E-1
 1.010217526362500E+10  -4.053512048868973E-1    2.678198819003879E-1   -6.178631608165121E-4   -6.271352827414198E-4   -5.424255454356830E-4   -6.686223678952019E-4   -2.455228295594359E-1    4.101642398760976E-1
 1.010219281495000E+10  -4.046390493734597E-1    2.685218344118270E-1   -5.978560198560759E-4   -6.150181239529824E-4   -5.418041253786329E-4   -6.063524480919934E-4   -2.444837965082282E-1    4.108416204532152E-1
 1.010221036627500E+10  -4.041944326014009E-1    2.695568855738713E-1   -6.079817771535701E-4   -6.108272627163629E-4   -5.278177013824418E-4   -6.039834758113414E-4   -2.435697850541038E-1    4.115492921579165E-1
 1.010222791760000E+10  -4.036185064389419E-1    2.703948489843833E-1   -5.972380296122542E-4   -6.116506667854704E-4   -5.302909444909007E-4   -6.242017043916930E-4   -2.424242098207031E-1    4.119902255464754E-1
 1.010224546892500E+10  -4.030496798929631E-1    2.715869025354918E-1   -6.041845748437422E-4   -5.735738811557787E-4   -5.409354428456266E-4   -6.421356447966165E-4   -2.415893092322896E-1    4.125887734528244E-1
 1.010226302025000E+10  -4.025293177510891E-1    2.723321963358059E-1   -6.036264217353930E-4   -6.057906876008605E-4   -5.350341719712612E-4   -6.237542816093333E-4   -2.405220214390869E-1    4.133840186616474E-1
 1.010228057157500E+10  -4.019688077432806E-1    2.732312161711662E-1   -6.006896633762528E-4   -6.025059254622497E-4   -5.331820829645390E-4   -6.340909692515698E-4   -2.395257952520155E-1    4.139914125471305E-1
 1.010229812290000E+10  -4.015073352741495E-1    2.740577342651908E-1   -5.900434401771885E-4   -5.883310721995904E-4   -5.450592385345052E-4   -5.991228311477842E-4   -2.386904271611357E-1    4.145435261543214E-1
 1.010231567422500E+10  -4.007813298417670E-1    2.750448199813335E-1   -6.035094145201316E-4   -6.082434767079166E-4   -5.302139989357695E-4   -6.459636220093814E-4   -2.376814613254002E-1    4.151869028605870E-1
 1.010233322555000E+10  -4.002648257968823E-1    2.759328512810752E-1   -6.047833714474484E-4   -5.888769256070839E-4   -5.486969090934614E-4   -6.379440543446402E-4   -2.367647283312717E-1    4.157324615034108E-1
 1.010235077687500E+10  -3.997535345986052E-1    2.767888533771905E-1   -5.900895151881127E-4   -5.895906050312344E-4   -5.437299993626218E-4   -5.926532463905259E-4   -2.357195783405822E-1    4.163453016817213E-1
 1.010236832820000E+10  -3.990572130900775E-1    2.777303138929345E-1   -6.056294126155649E-4   -5.985692635434950E-4   -5.466247863722703E-4   -6.032090302446431E-4   -2.347496406757721E-1    4.171372257679564E-1
 1.010238587952500E+10  -3.985852832897489E-1    2.786903165104076E-1   -6.006094343477147E-4   -5.676336920571834E-4   -5.633965124058642E-4   -6.201632578207299E-4   -2.337831671346409E-1    4.175661859480182E-1
 1.010240343085000E+10  -3.978903412666864E-1    2.795159711841498E-1   -6.074839360863752E-4   -5.970110381189191E-4   -5.274659910625526E-4   -6.169881648247371E-4   -2.327180132082510E-1    4.182011325152042E-1
 1.010242098217500E+10  -3.974075543043855E-1    2.804923550293558E-1   -6.210138502630981E-4   -5.797590032083601E-4   -5.376602366986474E-4   -6.038668470720819E-4   -2.318734823643780E-1    4.188657699478195E-1
 1.010243853350000E+10  -3.967319867370745E-1    2.814238376349507E-1   -6.025909850728921E-4   -5.843648416004816E-4   -5.272498663956815E-4   -5.911556558147840E-4   -2.308042071649115E-1    4.194161127536666E-1
 1.010245608482500E+10  -3.963071015247739E-1    2.822701322341863E-1   -6.209328693860168E-4   -5.678876473354466E-4   -5.395668383181071E-4   -5.898139899912741E-4   -2.298886280289860E-1    4.200891233330538E-1
 1.010247363615000E+10  -3.957352414150913E-1    2.832009388548685E-1   -5.886295328277607E-4   -5.586847689492370E-4   -5.230185153299167E-4   -6.094975696247140E-4   -2.288822210952437E-1    4.205318752171857E-1
 1.010249118747500E+10  -3.951645932954485E-1    2.841011373898175E-1   -5.966990336413537E-4   -5.595331263219754E-4   -5.387031732658954E-4   -5.761788830055467E-4   -2.279523868631803E-1    4.210793226879017E-1
 1.010250873880000E+10  -3.945471637534115E-1    2.850172103366250E-1   -5.803963030129316E-4   -5.792760176675290E-4   -5.357262509473374E-4   -6.107631551303174E-4   -2.268082636805871E-1    4.218379957249983E-1
 1.010252629012500E+10  -3.940214678072029E-1    2.857843751139848E-1   -5.737724139512474E-4   -5.679656419193547E-4   -5.512061398757188E-4   -5.743781065499736E-4   -2.258697369849453E-1    4.223523203828910E-1
 1.010254384145000E+10  -3.934870647678523E-1    2.867497119944689E-1   -6.149452054621490E-4   -5.401563001147453E-4   -5.391800949492960E-4   -5.658790032918342E-4   -2.248583052225916E-1    4.228999863947948E-1
 1.010256139277500E+10  -3.928449514552779E-1    2.877116033468266E-1   -5.975658209233722E-4   -5.733400341167892E-4   -5.382758342265320E-4   -5.530629127524817E-4   -2.238268831278116E-1    4.235976071551050E-1
 1.010257894410000E+10  -3.921919531632497E-1    2.885034557194165E-1   -5.686395872760315E-4   -5.540130987352997E-4   -5.354184494970126E-4   -5.865594705656595E-4   -2.229703453874236E-1    4.240729133554933E-1
 1.010259649542500E+10  -3.915725135989161E-1    2.895420317859134E-1   -5.949024201305016E-4   -5.456534490621242E-4   -5.461160082961524E-4   -5.865210053058688E-4   -2.218385776318411E-1    4.247087462800002E-1
 1.010261404675000E+10  -3.910081292624583E-1    2.903076262378487E-1   -5.989568139284901E-4   -5.742271589313506E-4   -4.953707175166359E-4   -5.832428317065426E-4   -2.209118627683797E-1    4.252105180325406E-1
 1.010263159807500E+10  -3.904357286429146E-1    2.913942616116640E-1   -5.873799192961049E-4   -5.408975037169063E-4   -5.043042885875312E-4   -5.574120469995464E-4   -2.198111525914256E-1    4.258578926290627E-1
 1.010264914940000E+10  -3.898775105185700E-1    2.919834031740200E-1   -5.980303434475615E-4   -5.631335600266938E-4   -5.336164444165025E-4   -5.675373693520748E-4   -2.187964376006687E-1    4.264676206420424E-1
 1.010266670072500E+10  -3.892899602989229E-1    2.930958971935776E-1   -5.720050862136188E-4   -5.221229393102141E-4   -5.188011063729914E-4   -5.489754870406305E-4   -2.178801418776388E-1    4.269576846291109E-1
 1.010268425205000E+10  -3.885450528623879E-1    2.938552294519535E-1   -5.348217962090514E-4   -5.355794901521114E-4   -5.168431249944673E-4   -5.851823877930520E-4   -2.168939302013030E-1    4.275062814289858E-1
 1.010270180337500E+10  -3.880552573531029E-1    2.947405982745027E-1   -5.610598731988332E-4   -5.408642095765957E-4   -5.186689904030341E-4   -5.534741535573501E-4   -2.157268706867761E-1    4.282745550600540E-1
 1.010271935470000E+10  -3.875190112627555E-1    2.957610859447913E-1   -5.777253353392118E-4   -5.166990457016935E-4   -5.216963647581743E-4   -5.471978274833018E-4   -2.146603890235088E-1    4.285945395778897E-1
 1.010273690602500E+10  -3.867713758043494E-1    2.965547878599329E-1   -5.640580089990708E-4   -5.298446851105581E-4   -5.305382082960345E-4   -5.465401029995664E-4   -2.137671712215635E-1    4.293934596704140E-1
 1.010275445735000E+10  -3.862277821055611E-1    2.973882846751896E-1   -5.502417147510726E-4   -5.182467256202539E-4   -4.783633075908237E-4   -5.238807121550943E-4   -2.126819962528504E-1    4.297889488200598E-1
 1.010277200867500E+10  -3.855698365933709E-1    2.982770741926892E-1   -5.873178606720099E-4   -5.262548355111982E-4   -5.222739370793372E-4   -5.242139814699456E-4   -2.116125794578356E-1    4.302236527051659E-1
 1.010278956000000E+10  -3.851135142735461E-1    2.991527454718257E-1   -5.538902047757162E-4   -5.199680805281396E-4   -4.864419369007363E-4   -5.675666942458931E-4   -2.106081183697810E-1    4.308079139253725E-1
 1.010280711132500E+10  -3.844420150914472E-1    2.999962753284623E-1   -5.498825419590679E-4   -5.186777303878762E-4   -4.733258196509529E-4   -5.277645073660455E-4   -2.096660025525904E-1    4.313653613184318E-1
 1.010282466265000E+10  -3.838338611661303E-1    3.009587726328136E-1   -5.772411094162432E-4   -4.914943820712769E-4   -4.975579891352621E-4   -5.342793875632042E-4   -2.085579812637736E-1    4.320436989024199E-1
 1.010284221397500E+10  -3.832741367907721E-1    3.017342823167167E-1   -5.580648872092706E-4   -4.973282839346767E-4   -4.903839676240124E-4   -5.381081949293805E-4   -2.075738411041526E-1    4.326302658381136E-1
 1.010285976530000E+10  -3.826399654529749E-1    3.025721056574796E-1   -5.397771708739758E-4   -4.969382841061031E-4   -4.701932221317802E-4   -4.972171546818500E-4   -2.065343474354747E-1    4.331252277751125E-1
 1.010287731662500E+10  -3.819997686428955E-1    3.034551216668699E-1   -5.482016049752806E-4   -5.003481996024813E-4   -5.022417200971704E-4   -5.288453307887819E-4   -2.055613741091522E-1    4.335007992595171E-1
 1.010289486795000E+10  -3.812068488138188E-1    3.044147850001843E-1   -5.499152814832084E-4   -4.918172872187098E-4   -5.051381841453136E-4   -4.875930284567078E-4   -2.043285823777108E-1    4.342125853135131E-1
 1.010291241927500E+10  -3.807680739941321E-1    3.051673109542374E-1   -5.611067939926316E-4   -4.684881421052023E-4   -5.014974979511483E-4   -4.863831041146988E-4   -2.032846714165987E-1    4.347268000233806E-1
 1.010292997060000E+10  -3.801043287008149E-1    3.061166979445287E-1   -5.434106150178667E-4   -4.760482702076325E-4   -5.092172162896150E-4   -5.167392515830375E-4   -2.022466295307617E-1    4.352111241347030E-1
 1.010294752192500E+10  -3.794003184434068E-1    3.069283560468144E-1   -5.490308569369039E-4   -4.930320453942237E-4   -4.934299206339846E-4   -5.135006995756231E-4   -2.013283799638129E-1    4.357138635545594E-1
 1.010296507325000E+10  -3.788201133223917E-1    3.078489899054093E-1   -5.140803543467186E-4   -4.706105521949990E-4   -4.587516901860665E-4   -5.059043634630365E-4   -2.002220455903051E-1    4.360825470886921E-1
