#  HZ   S   RI   R     50.00 
! Rohde & Schwarz Vector Network Analyzer 
! Rohde-Schwarz,ZNB20-2Port,1311601062101988,3.16
! Created: UTC 3/20/2024, 4:57:15 PM
! freq[Hz]                re:S11                  im:S11                  re:S21                  im:S21                  re:S12                  im:S12                  re:S22                  im:S22
 1.010125728100000E+10  -4.308166056954170E-1    2.178035070105292E-1   -6.028038066473671E-4   -7.571390087330379E-4   -5.244827805435878E-4   -7.715216445013360E-4   -2.930798919338163E-1    3.741775972260203E-1
 1.010127549555000E+10  -4.303673949203729E-1    2.188810001225359E-1   -6.291946919816231E-4   -7.410404476832044E-4   -5.269843226145258E-4   -7.640070187728928E-4   -2.921633766687190E-1    3.748543602987160E-1
 1.010129371010000E+10  -4.298994308467505E-1    2.199661282260331E-1   -5.914208524807285E-4   -7.254061733449732E-4   -5.058312924913753E-4   -7.504664764861736E-4   -2.912405401208013E-1    3.757309661810487E-1
 1.010131192465000E+10  -4.295109811274890E-1    2.209971929542791E-1   -6.189495092199792E-4   -7.309424683294854E-4   -5.130623524955281E-4   -7.496045313981666E-4   -2.903413213275502E-1    3.765512263130658E-1
 1.010133013920000E+10  -4.288498584622945E-1    2.219934634051728E-1   -6.127914278526555E-4   -7.073626623992577E-4   -5.287982313702212E-4   -7.622038515910589E-4   -2.896032501832570E-1    3.773513249693103E-1
 1.010134835375000E+10  -4.284234444934379E-1    2.229665613638506E-1   -6.324018701322148E-4   -7.222617254345260E-4   -5.283253494701882E-4   -7.627057740532702E-4   -2.885078205825646E-1    3.781739124031769E-1
 1.010136656830000E+10  -4.280454726144289E-1    2.240892345165889E-1   -5.972907594715376E-4   -7.308436516489446E-4   -5.163038191122576E-4   -7.457854881340254E-4   -2.875031410304193E-1    3.787566084204304E-1
 1.010138478285000E+10  -4.275022025536678E-1    2.249725786068735E-1   -5.874889560311556E-4   -7.045633319822556E-4   -5.273788226842891E-4   -7.325944286478294E-4   -2.866932401593595E-1    3.796689788328455E-1
 1.010140299740000E+10  -4.271901508669968E-1    2.260407773700832E-1   -6.023851720322085E-4   -7.095525668871219E-4   -5.359229079880043E-4   -7.262639875280264E-4   -2.858186480679773E-1    3.804399004888451E-1
 1.010142121195000E+10  -4.266409867550647E-1    2.270194958285690E-1   -6.111261112697201E-4   -7.288638070950252E-4   -5.291426482578308E-4   -7.376898164823290E-4   -2.849060094923318E-1    3.810192206822420E-1
 1.010143942650000E+10  -4.261160118746548E-1    2.280501303580887E-1   -5.964726817185841E-4   -7.232022136089892E-4   -5.162385253138625E-4   -7.313184362983328E-4   -2.840474181947428E-1    3.817922107183456E-1
 1.010145764105000E+10  -4.256432199074585E-1    2.290211920440165E-1   -6.163608989643071E-4   -7.272418905390580E-4   -5.181218958069254E-4   -7.412706657293946E-4   -2.831768375362622E-1    3.825154402729504E-1
 1.010147585560000E+10  -4.251615942866597E-1    2.300188105443995E-1   -6.067977569201552E-4   -7.075730927248519E-4   -5.228222236635487E-4   -7.641517842914974E-4   -2.821354146055457E-1    3.833455016316213E-1
 1.010149407015000E+10  -4.247912718527945E-1    2.309940492461785E-1   -6.138825258073463E-4   -6.915283944288435E-4   -5.081620810061528E-4   -7.409029411712702E-4   -2.812175524048812E-1    3.840801425575442E-1
 1.010151228470000E+10  -4.242077055452018E-1    2.318579945654502E-1   -5.775879357753993E-4   -7.253348624178128E-4   -5.237979705436309E-4   -7.368619781403434E-4   -2.803201020849880E-1    3.848837718096314E-1
 1.010153049925000E+10  -4.236906140858930E-1    2.331328659444762E-1   -6.130099619400627E-4   -7.100204457007404E-4   -5.404321850601590E-4   -7.377242915887887E-4   -2.794846603304449E-1    3.854980771927433E-1
 1.010154871380000E+10  -4.232256186260187E-1    2.340950916556322E-1   -5.884203606929314E-4   -7.079288556271678E-4   -5.169470309854779E-4   -7.349400515972893E-4   -2.784571748385960E-1    3.863134089256431E-1
 1.010156692835000E+10  -4.227454987639845E-1    2.350504287091619E-1   -6.196846871245756E-4   -7.174645163896268E-4   -5.241426103082081E-4   -7.330245719570068E-4   -2.774606668293023E-1    3.870927873424740E-1
 1.010158514290000E+10  -4.223409835512548E-1    2.361179555850499E-1   -6.239272921527173E-4   -7.070685355854406E-4   -5.289341658678460E-4   -7.271319040123337E-4   -2.764769628563164E-1    3.877648907426117E-1
 1.010160335745000E+10  -4.217506084001316E-1    2.371288923456528E-1   -6.020842416811901E-4   -6.623543517576790E-4   -5.434656045218215E-4   -7.111662852850471E-4   -2.758095993889356E-1    3.885477066173456E-1
 1.010162157200000E+10  -4.213344304728765E-1    2.380037557303319E-1   -6.066513202208209E-4   -6.711198954968144E-4   -5.031578152353139E-4   -7.485215964611224E-4   -2.746702907089049E-1    3.891568106755432E-1
 1.010163978655000E+10  -4.208162385758860E-1    2.389501151959687E-1   -5.849313614738740E-4   -6.896274374584637E-4   -5.350997961353658E-4   -6.856786794035145E-4   -2.737561536276106E-1    3.900199957677357E-1
 1.010165800110000E+10  -4.204114542083337E-1    2.400196298646929E-1   -6.149794539801911E-4   -6.893053737519621E-4   -5.253975295500613E-4   -7.062911519875773E-4   -2.729377438132993E-1    3.906440836113506E-1
 1.010167621565000E+10  -4.197809953048741E-1    2.410154507807865E-1   -6.151374311998642E-4   -7.026387507188299E-4   -5.320977633099314E-4   -7.069327621858873E-4   -2.720100627133762E-1    3.913436341332163E-1
 1.010169443020000E+10  -4.192343656551800E-1    2.420040455868417E-1   -6.240333313296625E-4   -6.643586037994930E-4   -5.401384369641220E-4   -7.103243172300951E-4   -2.710304655613451E-1    3.920629050158260E-1
 1.010171264475000E+10  -4.187482863511228E-1    2.430746038614186E-1   -6.315065759894705E-4   -6.658746063364283E-4   -5.604710110896868E-4   -7.125677243996440E-4   -2.700225574548609E-1    3.927664985574924E-1
 1.010173085930000E+10  -4.182887685834504E-1    2.439203473470210E-1   -6.274431144973979E-4   -6.577259269117595E-4   -5.406124659538349E-4   -7.205611022563380E-4   -2.691849095150068E-1    3.935521044233427E-1
 1.010174907385000E+10  -4.177266567762773E-1    2.449895609383989E-1   -6.146285900513766E-4   -6.901894357066315E-4   -5.459719667211123E-4   -7.103010093446453E-4   -2.681937787800887E-1    3.941540594461222E-1
 1.010176728840000E+10  -4.172722896670640E-1    2.458726341211298E-1   -6.111487559559555E-4   -6.914365010292752E-4   -5.518523054452761E-4   -6.739573239606404E-4   -2.671290788015637E-1    3.950689060423270E-1
 1.010178550295000E+10  -4.168278584833791E-1    2.468300378286903E-1   -6.131376364602299E-4   -6.891083404932177E-4   -5.441619283166028E-4   -7.024753304396559E-4   -2.662773451810164E-1    3.957027076427582E-1
 1.010180371750000E+10  -4.161466740867832E-1    2.478842720288847E-1   -5.754208936353101E-4   -6.677603493560377E-4   -5.341064249125133E-4   -6.765287333570875E-4   -2.652213669239178E-1    3.963387359764703E-1
 1.010182193205000E+10  -4.156951195530303E-1    2.488109617927292E-1   -6.199674614560219E-4   -6.780553311018163E-4   -5.230489983682697E-4   -6.833576139159928E-4   -2.643334664013172E-1    3.970929492021288E-1
 1.010184014660000E+10  -4.151211617872615E-1    2.498449899428213E-1   -6.085038695071970E-4   -6.530297615191531E-4   -5.449687958546777E-4   -6.958871678650721E-4   -2.635332503221306E-1    3.976963382824667E-1
 1.010185836115000E+10  -4.146464250935705E-1    2.508691236485940E-1   -6.071785974288787E-4   -6.657151121782985E-4   -5.759323630185469E-4   -6.880718166587179E-4   -2.623859732469734E-1    3.984482283556994E-1
 1.010187657570000E+10  -4.141856572415714E-1    2.520048345319621E-1   -6.143109635372792E-4   -6.611681228622443E-4   -5.193983786731311E-4   -6.563191394605843E-4   -2.614289518105960E-1    3.992237705090767E-1
 1.010189479025000E+10  -4.135821493573607E-1    2.528619460177947E-1   -6.570023372834523E-4   -6.637240662797599E-4   -5.335901582078908E-4   -6.858013705591449E-4   -2.604552880200339E-1    3.998104709732151E-1
 1.010191300480000E+10  -4.130499661542670E-1    2.537815928284587E-1   -5.894481516687735E-4   -6.674105819750010E-4   -5.477648345122385E-4   -6.886565766781610E-4   -2.595075481066946E-1    4.005246736003719E-1
 1.010193121935000E+10  -4.124939640982227E-1    2.547312540131991E-1   -6.348049891803827E-4   -6.697808575816665E-4   -5.424748321673546E-4   -6.881782252544122E-4   -2.586360401523813E-1    4.012280428568015E-1
 1.010194943390000E+10  -4.120684981166619E-1    2.557049443721608E-1   -6.191634815245318E-4   -6.563793289210915E-4   -5.320764084583843E-4   -6.479792650792376E-4   -2.576184236523509E-1    4.020113945631336E-1
 1.010196764845000E+10  -4.115067687033388E-1    2.568201676988333E-1   -6.151655577873315E-4   -6.339036415409402E-4   -5.270479454927980E-4   -6.700111906666479E-4   -2.566105209554847E-1    4.026535294618656E-1
 1.010198586300000E+10  -4.109731534688282E-1    2.576501395330248E-1   -6.303768219962192E-4   -6.605229918910132E-4   -5.451832980495267E-4   -6.743128918159947E-4   -2.557620802624266E-1    4.033073028154411E-1
 1.010200407755000E+10  -4.103578351641842E-1    2.586565487078322E-1   -6.137183832006488E-4   -6.480335397113752E-4   -5.429389779187306E-4   -6.725279557886358E-4   -2.547166109154618E-1    4.039119472466371E-1
 1.010202229210000E+10  -4.097897526328234E-1    2.595685133856889E-1   -6.060166911224122E-4   -6.309308560884044E-4   -5.361764453852302E-4   -6.707431562399584E-4   -2.537570241471074E-1    4.044435887398409E-1
 1.010204050665000E+10  -4.093494743729615E-1    2.605416059819101E-1   -6.100951781470664E-4   -6.202768397173271E-4   -5.326212294382656E-4   -6.641353283894526E-4   -2.526822590363171E-1    4.053509674353807E-1
 1.010205872120000E+10  -4.089083588697178E-1    2.616435985822607E-1   -6.014489481264832E-4   -6.189210958878565E-4   -5.499965217251542E-4   -6.478344402882745E-4   -2.517992002595344E-1    4.061475192283534E-1
 1.010207693575000E+10  -4.082006035676254E-1    2.625514700928092E-1   -5.906940609123223E-4   -6.311451573297761E-4   -5.268274448210816E-4   -6.581437612302977E-4   -2.506660236878619E-1    4.067435163322955E-1
 1.010209515030000E+10  -4.077028851013922E-1    2.635851324920869E-1   -6.107723398902210E-4   -6.466509015801397E-4   -5.243326959587349E-4   -6.543517479809358E-4   -2.498180086201279E-1    4.073586551608409E-1
 1.010211336485000E+10  -4.068774780796763E-1    2.644624748936022E-1   -6.082662076614834E-4   -6.234219321222576E-4   -5.397931449101983E-4   -6.457600396484540E-4   -2.487709875260274E-1    4.078958715271820E-1
 1.010213157940000E+10  -4.065428481030643E-1    2.655048701246637E-1   -6.220959201743930E-4   -6.155877058153965E-4   -5.512236367093131E-4   -6.370188483075587E-4   -2.479218715637974E-1    4.085822851804322E-1
 1.010214979395000E+10  -4.060222595273339E-1    2.663303461026443E-1   -6.182003524277865E-4   -6.260843767831950E-4   -5.409573065938532E-4   -6.377814719929721E-4   -2.467904445903276E-1    4.093986208620289E-1
 1.010216800850000E+10  -4.054143235484254E-1    2.673810584450594E-1   -6.170570545008989E-4   -6.168317901493498E-4   -5.345857104499699E-4   -6.315130588231319E-4   -2.458417415099207E-1    4.100761823753886E-1
 1.010218622305000E+10  -4.048941337613080E-1    2.682460935554292E-1   -6.089315059572832E-4   -6.212952683227649E-4   -5.504346889116375E-4   -6.286660159271594E-4   -2.450023633058734E-1    4.105967231063097E-1
 1.010220443760000E+10  -4.041682476980841E-1    2.692575505792412E-1   -6.194459285128839E-4   -6.066819207199088E-4   -5.427278709936702E-4   -6.431990187477955E-4   -2.437941720680870E-1    4.112127353137766E-1
 1.010222265215000E+10  -4.038053963516764E-1    2.701409316202808E-1   -6.070993835762667E-4   -5.793245937983933E-4   -5.653389793981442E-4   -6.278011326057637E-4   -2.427293180185887E-1    4.118355688241033E-1
 1.010224086670000E+10  -4.032344942237773E-1    2.711042760706010E-1   -5.837674581028457E-4   -5.920492591888347E-4   -5.349058959799076E-4   -6.229955811174444E-4   -2.418205934238878E-1    4.124488405649081E-1
 1.010225908125000E+10  -4.026076442396708E-1    2.720492993964644E-1   -6.113546498134694E-4   -6.037784657769189E-4   -5.387792996961707E-4   -6.328863020608220E-4   -2.409080486471518E-1    4.131341286345964E-1
 1.010227729580000E+10  -4.020989775408023E-1    2.728616583146562E-1   -6.048119959197876E-4   -6.260079180287791E-4   -5.348084716458473E-4   -6.253797512430602E-4   -2.397252318946977E-1    4.139623205094287E-1
 1.010229551035000E+10  -4.013778977590462E-1    2.740385919374934E-1   -5.995172774605998E-4   -5.906569784307127E-4   -5.375529642063180E-4   -6.174993346527212E-4   -2.387173590021568E-1    4.144735636081703E-1
 1.010231372490000E+10  -4.007801229994635E-1    2.750379931539185E-1   -6.023561827149047E-4   -5.806620574064911E-4   -5.182418836263609E-4   -6.104735982818979E-4   -2.376876047806449E-1    4.151612085907046E-1
 1.010233193945000E+10  -4.003956239964747E-1    2.759002410528197E-1   -6.187207663166194E-4   -6.094211863929962E-4   -5.241192480390361E-4   -6.232296995667080E-4   -2.368042686095432E-1    4.157166630129107E-1
 1.010235015400000E+10  -3.996245407034032E-1    2.767295725158833E-1   -5.872930958881668E-4   -5.840726000733362E-4   -5.641027853903768E-4   -6.188070131579403E-4   -2.357334217034604E-1    4.162816400061113E-1
 1.010236836855000E+10  -3.991951328898766E-1    2.777256425776993E-1   -6.023990257011254E-4   -5.782066565688577E-4   -5.420275796335011E-4   -5.876361530630108E-4   -2.347712794156622E-1    4.170463501927081E-1
 1.010238658310000E+10  -3.985691499882879E-1    2.786485050348488E-1   -5.860377837359813E-4   -5.672485144319766E-4   -5.317825691305440E-4   -6.117690341365863E-4   -2.337557809957327E-1    4.176788120567769E-1
 1.010240479765000E+10  -3.980324621278570E-1    2.796843051608491E-1   -5.896135444384858E-4   -5.887234023602120E-4   -5.044345873461969E-4   -6.145916719352511E-4   -2.327939870498925E-1    4.182698696567289E-1
 1.010242301220000E+10  -3.973667955103731E-1    2.806948044678578E-1   -5.905628846730441E-4   -5.861306775662549E-4   -5.387668961605704E-4   -5.997802857989762E-4   -2.315872519327031E-1    4.189086199204644E-1
 1.010244122675000E+10  -3.967987826691479E-1    2.813611784280497E-1   -6.110580450989112E-4   -5.749377070193738E-4   -5.123827107167301E-4   -5.769367767173441E-4   -2.306016788523444E-1    4.195510880013981E-1
 1.010245944130000E+10  -3.961668802306252E-1    2.824888588647554E-1   -6.310971991971443E-4   -5.568950632969178E-4   -5.192367262707599E-4   -5.861472297300568E-4   -2.296818915329521E-1    4.201491754312265E-1
 1.010247765585000E+10  -3.957086947037106E-1    2.833219496466702E-1   -6.101391005882880E-4   -5.621505331620314E-4   -5.476593279757801E-4   -5.904902123720683E-4   -2.286685805106464E-1    4.207939067551688E-1
 1.010249587040000E+10  -3.948944404155538E-1    2.842192126194246E-1   -5.755621902485695E-4   -5.397154838217299E-4   -5.508750933391266E-4   -5.966291765984347E-4   -2.277109389126883E-1    4.213710588513666E-1
 1.010251408495000E+10  -3.943366301640990E-1    2.851745323766338E-1   -5.921736042097605E-4   -5.502012505350483E-4   -5.052456912901279E-4   -5.829409832288819E-4   -2.266168974182139E-1    4.219968811217228E-1
 1.010253229950000E+10  -3.936181208739443E-1    2.861600442839614E-1   -5.744232294363536E-4   -5.670030336448372E-4   -5.080480894040564E-4   -5.713817142416765E-4   -2.254189175400438E-1    4.225402790953841E-1
 1.010255051405000E+10  -3.932555856969416E-1    2.871575630855094E-1   -5.932849628464911E-4   -5.541155051779365E-4   -5.031925532295531E-4   -5.653078082658825E-4   -2.245898573975683E-1    4.232592910026831E-1
 1.010256872860000E+10  -3.925719494623430E-1    2.880929754326594E-1   -5.967999581650891E-4   -5.646531674015434E-4   -5.153796078835659E-4   -5.823715622808562E-4   -2.234613390148003E-1    4.237820943708223E-1
 1.010258694315000E+10  -3.919775657406098E-1    2.889494680523949E-1   -5.837226234442070E-4   -5.637353381880130E-4   -5.298916350000647E-4   -5.778064109499116E-4   -2.225189674325306E-1    4.244274003249702E-1
 1.010260515770000E+10  -3.914784618298395E-1    2.899106198996819E-1   -6.058603998205490E-4   -5.634901197560925E-4   -4.930826541975861E-4   -5.637831926334877E-4   -2.213289790269483E-1    4.249767761151759E-1
 1.010262337225000E+10  -3.907088962139653E-1    2.906939580531091E-1   -5.738890377197115E-4   -5.620188535300653E-4   -4.888544425136253E-4   -5.696591070920075E-4   -2.203615722410135E-1    4.256248244854088E-1
 1.010264158680000E+10  -3.900402084336652E-1    2.917750855136905E-1   -5.767994652592640E-4   -5.284660743096587E-4   -5.010710003811196E-4   -5.460502899105153E-4   -2.193167137918656E-1    4.262648183887821E-1
 1.010265980135000E+10  -3.893966114551528E-1    2.926474816449012E-1   -5.954758826275488E-4   -5.173747737824402E-4   -5.039234326909188E-4   -5.658308304448509E-4   -2.183295109946995E-1    4.267775694307798E-1
 1.010267801590000E+10  -3.887605716793250E-1    2.935170564026066E-1   -5.750196235294246E-4   -5.484737384226811E-4   -5.068220129679262E-4   -5.401660800147780E-4   -2.171766744974692E-1    4.274470123290455E-1
 1.010269623045000E+10  -3.881985146546073E-1    2.944382268332900E-1   -5.824458770632928E-4   -5.059497981732004E-4   -5.207922438339791E-4   -5.690767385005828E-4   -2.161682504948204E-1    4.279885055241840E-1
 1.010271444500000E+10  -3.876422644910655E-1    2.953851710300344E-1   -5.920080942761738E-4   -5.212272498761596E-4   -5.360521387896467E-4   -5.565073312232031E-4   -2.151361872657727E-1    4.285181794133940E-1
 1.010273265955000E+10  -3.870997918172056E-1    2.962427729571394E-1   -5.919539155651638E-4   -5.137242086184721E-4   -5.218336756668899E-4   -5.490408342411615E-4   -2.139608270829600E-1    4.290029203438340E-1
 1.010275087410000E+10  -3.862346760050653E-1    2.972732317414667E-1   -5.793929825171092E-4   -5.116645410373566E-4   -4.857021361093499E-4   -5.336596224346057E-4   -2.129047548402306E-1    4.295908601915688E-1
 1.010276908865000E+10  -3.857690735946400E-1    2.980775189341399E-1   -5.829518452337935E-4   -5.098651165746139E-4   -4.897169473456768E-4   -5.452311362270370E-4   -2.117442037359793E-1    4.302559209593650E-1
 1.010278730320000E+10  -3.850637681146248E-1    2.989505330412274E-1   -5.917048735628170E-4   -5.185485598692164E-4   -4.759077286471704E-4   -5.371365652687266E-4   -2.107894600390090E-1    4.308188963927302E-1
 1.010280551775000E+10  -3.845210990041980E-1    3.000015560542119E-1   -5.592969344598109E-4   -4.850185681741263E-4   -4.922083460035635E-4   -5.447030246942950E-4   -2.098191504026549E-1    4.312751119440912E-1
 1.010282373230000E+10  -3.838296383409958E-1    3.008067429008743E-1   -5.627567237587378E-4   -5.172234316594785E-4   -4.854306868689028E-4   -5.127478526349093E-4   -2.087244203462040E-1    4.319510781254042E-1
 1.010284194685000E+10  -3.831563017494886E-1    3.016063498668806E-1   -5.738161042778515E-4   -5.155379582780135E-4   -4.962368625032041E-4   -5.508099439041939E-4   -2.075630192565677E-1    4.325439832930812E-1
 1.010286016140000E+10  -3.826317305955006E-1    3.026367162467217E-1   -5.459319496396820E-4   -5.059038522983869E-4   -4.911799767149430E-4   -5.378138961596130E-4   -2.065673281674957E-1    4.331798002984714E-1
 1.010287837595000E+10  -3.818571336546535E-1    3.035377269913667E-1   -5.567508115878843E-4   -5.190366572723266E-4   -4.923220828798882E-4   -5.429134950638815E-4   -2.055601755560527E-1    4.335976381708815E-1
 1.010289659050000E+10  -3.811641424625458E-1    3.043768781694588E-1   -5.442854931298833E-4   -5.084718554680733E-4   -4.899426838460990E-4   -5.402243350320743E-4   -2.043212166203601E-1    4.342049697336907E-1
