#  HZ   S   RI   R     50.00 
! Rohde & Schwarz Vector Network Analyzer 
! Rohde-Schwarz,ZNB20-2Port,1311601062101988,3.16
! Created: UTC 3/20/2024, 5:12:22 PM
! freq[Hz]                re:S11                  im:S11                  re:S21                  im:S21                  re:S12                  im:S12                  re:S22                  im:S22
 1.010355630000000E+10  -3.569670549289491E-1    3.349820595325150E-1   -5.306576286097860E-4   -3.787113349161826E-4   -4.793970570591969E-4   -4.261647055917024E-4   -1.663848809709030E-1    4.519977926551692E-1
 1.010356417615000E+10  -3.566713401052335E-1    3.352861850497842E-1   -5.667150610029457E-4   -3.647884226003402E-4   -4.703580272670048E-4   -4.018683612923067E-4   -1.657594817551175E-1    4.522844812049298E-1
 1.010357205230000E+10  -3.564067277824265E-1    3.357909287387423E-1   -5.261450764355306E-4   -3.413056839461884E-4   -4.626742117778610E-4   -3.988784907647361E-4   -1.654521901388278E-1    4.525535327711865E-1
 1.010357992845000E+10  -3.560054121792725E-1    3.361110765290973E-1   -5.261042813862772E-4   -3.513046024244780E-4   -4.520772873695240E-4   -3.696786916984663E-4   -1.649157421947269E-1    4.527159088773888E-1
 1.010358780460000E+10  -3.557699575625055E-1    3.364865531390645E-1   -4.789717733226926E-4   -3.785542930327537E-4   -4.666365990572857E-4   -4.006827577429504E-4   -1.643184580906649E-1    4.529280556582009E-1
 1.010359568075000E+10  -3.554211962844194E-1    3.368359246709879E-1   -5.053060981280819E-4   -3.424159436904613E-4   -4.882709144137507E-4   -4.061170071965674E-4   -1.637441950693456E-1    4.530271848202967E-1
 1.010360355690000E+10  -3.551171052971877E-1    3.371344879478451E-1   -5.183236396483262E-4   -3.652637242687728E-4   -4.830284781514971E-4   -3.744029029999311E-4   -1.632558202783073E-1    4.534205703870353E-1
 1.010361143305000E+10  -3.546928890219372E-1    3.374977640142561E-1   -4.794479357464601E-4   -3.687394775252346E-4   -4.562569115497329E-4   -3.942664908456140E-4   -1.627329189626864E-1    4.537161819562777E-1
 1.010361930920000E+10  -3.544109669528422E-1    3.379802885296865E-1   -4.926973733008628E-4   -3.838970443580074E-4   -4.392237248824161E-4   -3.752588732163104E-4   -1.623905583898301E-1    4.536621219505995E-1
 1.010362718535000E+10  -3.541102435116965E-1    3.382240578717914E-1   -5.190360312651374E-4   -3.811823623753364E-4   -4.453975897646635E-4   -3.966233355381892E-4   -1.618489069070017E-1    4.540448135006249E-1
 1.010363506150000E+10  -3.537876785566964E-1    3.386379723546518E-1   -5.205058654548566E-4   -3.683844009340138E-4   -4.340081434322987E-4   -3.780327557110309E-4   -1.612624777721983E-1    4.541416558117777E-1
 1.010364293765000E+10  -3.536417663200666E-1    3.389967554271678E-1   -5.197306489889306E-4   -3.728228342341728E-4   -4.531183784745048E-4   -3.882838179836920E-4   -1.607955558275808E-1    4.542913497498227E-1
 1.010365081380000E+10  -3.532398462815691E-1    3.394151123154480E-1   -5.212448065639208E-4   -3.366066159556772E-4   -4.836815037233001E-4   -4.034684400660715E-4   -1.601847522664404E-1    4.546021711507102E-1
 1.010365868995000E+10  -3.529585939354088E-1    3.395363620597511E-1   -5.182632515092926E-4   -3.689595528849534E-4   -4.541381547394794E-4   -3.554764197155808E-4   -1.597229678156384E-1    4.548107037535296E-1
 1.010366656610000E+10  -3.525871433818923E-1    3.399330596129157E-1   -5.195851374996233E-4   -3.415902621019656E-4   -4.710203014472107E-4   -3.488537062386064E-4   -1.593816241927419E-1    4.548941969185220E-1
 1.010367444225000E+10  -3.521834460710287E-1    3.403693799454860E-1   -5.026119177162375E-4   -3.587738922635208E-4   -4.385843988304022E-4   -3.876627288932661E-4   -1.589874628904432E-1    4.551547714338429E-1
 1.010368231840000E+10  -3.518793832198504E-1    3.406933415148298E-1   -4.766954348124434E-4   -3.547785224896531E-4   -4.404610168726001E-4   -3.755741789059574E-4   -1.581104998773837E-1    4.554285923257392E-1
 1.010369019455000E+10  -3.516317843226047E-1    3.412023527897988E-1   -5.120010680997772E-4   -3.355620596912001E-4   -4.239171044592440E-4   -3.825204706587147E-4   -1.577080367033388E-1    4.556461968689842E-1
 1.010369807070000E+10  -3.513627581598280E-1    3.415913172378559E-1   -4.685006179283866E-4   -3.335400299204267E-4   -4.252231811596726E-4   -3.611217280881828E-4   -1.572625132789517E-1    4.558886479184311E-1
 1.010370594685000E+10  -3.509704222741449E-1    3.418891192299470E-1   -4.555119058776197E-4   -3.309963889328920E-4   -4.303871381366747E-4   -3.791885451213866E-4   -1.565756589563986E-1    4.559369769220207E-1
 1.010371382300000E+10  -3.506464507640249E-1    3.421786034821301E-1   -4.759943374211400E-4   -3.271298108906166E-4   -4.350395388097265E-4   -3.614645180794814E-4   -1.561910275788161E-1    4.561168047682860E-1
 1.010372169915000E+10  -3.503615022985058E-1    3.426219469790071E-1   -4.652012486522221E-4   -3.085764277101094E-4   -4.174626664212254E-4   -3.374838977995616E-4   -1.557706921312910E-1    4.562389707248328E-1
 1.010372957530000E+10  -3.499947053525545E-1    3.429552754844504E-1   -4.863953314954586E-4   -3.252211395120792E-4   -4.182946844101870E-4   -3.561223300710032E-4   -1.551566634728773E-1    4.565635435584307E-1
 1.010373745145000E+10  -3.495822499733117E-1    3.432172449101596E-1   -4.552951836270519E-4   -3.585171326671597E-4   -4.192823852080038E-4   -3.517993076000220E-4   -1.548041746347367E-1    4.566791484228389E-1
 1.010374532760000E+10  -3.493215037910095E-1    3.436912277476430E-1   -4.698228399482303E-4   -3.309816157347228E-4   -4.339768357015055E-4   -3.434081527596082E-4   -1.541932133616166E-1    4.567609992642470E-1
 1.010375320375000E+10  -3.490127758093927E-1    3.440414742053092E-1   -4.522769873412595E-4   -3.336196811513763E-4   -4.298741160953108E-4   -3.324871197228405E-4   -1.536494181675489E-1    4.570496208420293E-1
 1.010376107990000E+10  -3.486226284994256E-1    3.444765032843212E-1   -4.832574847993481E-4   -3.407060454915928E-4   -4.060556024337166E-4   -3.406045961255171E-4   -1.532811227585059E-1    4.572959075710139E-1
 1.010376895605000E+10  -3.484979614378792E-1    3.447154958351403E-1   -4.844640019092164E-4   -3.332163473128375E-4   -3.919800852516146E-4   -3.663146916122482E-4   -1.526147666624228E-1    4.575176874161689E-1
 1.010377683220000E+10  -3.480659138962847E-1    3.450854911383574E-1   -4.553685582998546E-4   -3.228080449272848E-4   -3.742516156288005E-4   -3.544567898531358E-4   -1.521394656599935E-1    4.575757734401910E-1
 1.010378470835000E+10  -3.477682015489417E-1    3.454259411467067E-1   -4.577968647330667E-4   -3.253660566280840E-4   -3.910275939507453E-4   -3.480424924246624E-4   -1.516530815688794E-1    4.579472576520653E-1
 1.010379258450000E+10  -3.474064661251923E-1    3.457727328683402E-1   -4.270045831584664E-4   -2.952813908696510E-4   -4.172539692570414E-4   -3.322750667243593E-4   -1.511811105512267E-1    4.580470201221569E-1
 1.010380046065000E+10  -3.470815564463002E-1    3.461227239711259E-1   -4.251119192653229E-4   -3.159752453478133E-4   -4.024720815493613E-4   -3.351770851459175E-4   -1.506561741918066E-1    4.582902635588938E-1
 1.010380833680000E+10  -3.468074574681921E-1    3.464819904072580E-1   -4.059179204502220E-4   -3.479534158378751E-4   -3.822261256894273E-4   -3.401905034164261E-4   -1.500898327303526E-1    4.584949511702368E-1
 1.010381621295000E+10  -3.465924772357706E-1    3.469145998465686E-1   -4.079740985267729E-4   -3.286239598873577E-4   -3.873653277954317E-4   -3.651541178957954E-4   -1.496290229801292E-1    4.585271701645557E-1
 1.010382408910000E+10  -3.461361080147254E-1    3.471766622297044E-1   -4.165613356412028E-4   -3.226002255833306E-4   -4.014489361540989E-4   -3.427831192013267E-4   -1.490991810226550E-1    4.587846470558675E-1
 1.010383196525000E+10  -3.457833823740424E-1    3.475724379600595E-1   -4.198736651236076E-4   -3.248052110590284E-4   -4.105375234330909E-4   -3.280655225933542E-4   -1.485811835000035E-1    4.589749849481851E-1
 1.010383984140000E+10  -3.455631990914543E-1    3.479750107938893E-1   -4.160108920277803E-4   -3.327654255223785E-4   -3.887224307998099E-4   -3.161557743497053E-4   -1.478780020227940E-1    4.591266715038556E-1
 1.010384771755000E+10  -3.451525105438374E-1    3.483739014184269E-1   -4.373956403860762E-4   -2.896746548106411E-4   -3.675159337228623E-4   -3.120013651249749E-4   -1.473838330182734E-1    4.592950072554005E-1
 1.010385559370000E+10  -3.448086164951859E-1    3.485346158375525E-1   -4.294093905145581E-4   -2.976293699618781E-4   -3.406060608231964E-4   -3.110428990826209E-4   -1.468858030273913E-1    4.595452951790773E-1
 1.010386346985000E+10  -3.444051622919093E-1    3.489865587867604E-1   -4.342483579631418E-4   -2.889772288925092E-4   -3.541647259447799E-4   -3.287620742835938E-4   -1.464297007417913E-1    4.597044228745956E-1
 1.010387134600000E+10  -3.441327783703637E-1    3.493070699923626E-1   -3.957912852831275E-4   -2.813654146480667E-4   -3.692628275239176E-4   -3.375935591064392E-4   -1.458448972623800E-1    4.598402515937163E-1
 1.010387922215000E+10  -3.438225964916839E-1    3.497839030756641E-1   -4.207404504389652E-4   -3.132587734917691E-4   -3.291776740954165E-4   -3.312445128956984E-4   -1.454258580410832E-1    4.599116076412957E-1
 1.010388709830000E+10  -3.435775197598307E-1    3.500504179190974E-1   -4.104037893864170E-4   -3.090300013477553E-4   -3.261151021723228E-4   -2.880341444737741E-4   -1.448910475431356E-1    4.601585899568124E-1
 1.010389497445000E+10  -3.432472310278586E-1    3.504512344559778E-1   -3.724450519331341E-4   -2.935571282780675E-4   -3.489198046629788E-4   -3.164087273040875E-4   -1.443852892706106E-1    4.604375136964435E-1
 1.010390285060000E+10  -3.428479058199411E-1    3.508499384267118E-1   -3.866242828075585E-4   -3.094618871761962E-4   -3.570833582654989E-4   -3.007046063051735E-4   -1.439318945657737E-1    4.606406165761894E-1
 1.010391072675000E+10  -3.425815195362059E-1    3.511696818739403E-1   -3.831686195122888E-4   -2.973564050209938E-4   -3.678047986336666E-4   -3.090493891701054E-4   -1.432765535719610E-1    4.607340897881618E-1
 1.010391860290000E+10  -3.422330807769118E-1    3.515518833690471E-1   -3.575244610570029E-4   -3.104876734459354E-4   -3.166912624278867E-4   -3.240041686293628E-4   -1.425891968165239E-1    4.608792728845746E-1
 1.010392647905000E+10  -3.418525712639674E-1    3.517629295356871E-1   -3.716955026006745E-4   -2.959182480456042E-4   -3.032979303449736E-4   -3.046448871775107E-4   -1.421625698857377E-1    4.610958182222714E-1
 1.010393435520000E+10  -3.416793656847411E-1    3.522054868654418E-1   -3.712672209420885E-4   -2.802674168180157E-4   -3.214246702059871E-4   -2.687905415026015E-4   -1.417729447476898E-1    4.613325830884392E-1
 1.010394223135000E+10  -3.414055994297444E-1    3.525197907805691E-1   -3.717104103635887E-4   -2.976535192129299E-4   -3.363978977296701E-4   -3.022935579838371E-4   -1.411877215107032E-1    4.614645438464908E-1
 1.010395010750000E+10  -3.409108951304482E-1    3.528395227090173E-1   -3.544457055813666E-4   -2.774785075378642E-4   -3.307968040614881E-4   -3.009588857786427E-4   -1.406467834671814E-1    4.617008933696378E-1
 1.010395798365000E+10  -3.405658920892127E-1    3.531576266204967E-1   -3.422965239298397E-4   -2.767338081453648E-4   -3.384787253540175E-4   -3.095395881576575E-4   -1.400433765780410E-1    4.617607328071343E-1
 1.010396585980000E+10  -3.402017802651348E-1    3.536224690267986E-1   -3.580255459912213E-4   -2.903149116965113E-4   -3.059597729201352E-4   -2.842551227230189E-4   -1.395916103999144E-1    4.619475323819179E-1
 1.010397373595000E+10  -3.398045243206546E-1    3.539140090250284E-1   -3.553315383621651E-4   -2.795927141150800E-4   -2.897452118564364E-4   -2.685512593280035E-4   -1.389995717175760E-1    4.621389544037290E-1
 1.010398161210000E+10  -3.395428432792960E-1    3.543425513503700E-1   -3.255405547410872E-4   -2.715142983111534E-4   -2.844745816887097E-4   -2.877088079993300E-4   -1.385361549142107E-1    4.622076225278994E-1
 1.010398948825000E+10  -3.391731521115920E-1    3.545480307574883E-1   -3.510073857854263E-4   -2.602337543590351E-4   -2.917409894932206E-4   -2.864182606378227E-4   -1.379940336890214E-1    4.623911688025267E-1
 1.010399736440000E+10  -3.389482180955015E-1    3.549735871381923E-1   -3.321103556313692E-4   -2.778096877112343E-4   -2.782757565822595E-4   -3.002098946746088E-4   -1.373773089584949E-1    4.628408341802783E-1
 1.010400524055000E+10  -3.385542921374697E-1    3.552045212354602E-1   -3.168155666815911E-4   -2.486645305108738E-4   -3.132930461236232E-4   -2.884040486853894E-4   -1.369194615340443E-1    4.629786602135778E-1
 1.010401311670000E+10  -3.382373842338689E-1    3.556286907558559E-1   -3.348390169619740E-4   -2.475478018811839E-4   -2.610850334298428E-4   -2.628368512475290E-4   -1.363936882393986E-1    4.630429646463570E-1
 1.010402099285000E+10  -3.379404056846790E-1    3.558917929670587E-1   -3.231336749050711E-4   -2.424215569711339E-4   -2.796140664041651E-4   -2.753151615655856E-4   -1.357329864140310E-1    4.632030205618083E-1
 1.010402886900000E+10  -3.376876986710879E-1    3.563961524274377E-1   -3.085068171990018E-4   -2.384915760525562E-4   -2.679580951870051E-4   -2.810225095597618E-4   -1.352636860167419E-1    4.632861758030581E-1
 1.010403674515000E+10  -3.372325070578119E-1    3.566003577401325E-1   -3.137722023014320E-4   -2.772819195293174E-4   -2.554712685784018E-4   -2.860343932934464E-4   -1.347194475645555E-1    4.634871678313791E-1
 1.010404462130000E+10  -3.370260863093279E-1    3.570914160946027E-1   -2.985394517018063E-4   -2.786248436338809E-4   -2.503818350738557E-4   -2.544486524416424E-4   -1.341706216050632E-1    4.636569693717553E-1
 1.010405249745000E+10  -3.365456473330830E-1    3.574238811629822E-1   -2.761084488907571E-4   -2.447953986735595E-4   -2.714200990200575E-4   -2.569135775349693E-4   -1.335434101863721E-1    4.639182370586037E-1
 1.010406037360000E+10  -3.363247961646652E-1    3.576100168817977E-1   -2.677001063627933E-4   -2.273694031645249E-4   -2.460184321636495E-4   -2.580958397473195E-4   -1.329952260738018E-1    4.640831202310592E-1
 1.010406824975000E+10  -3.359328010645755E-1    3.580185658420836E-1   -2.822991426471022E-4   -2.325032676502313E-4   -2.749237918930645E-4   -2.767764063139234E-4   -1.325099032879468E-1    4.643464585785945E-1
 1.010407612590000E+10  -3.356343085789564E-1    3.583694154941960E-1   -2.694917425978058E-4   -2.405114225301895E-4   -2.407983401753306E-4   -2.589965724760346E-4   -1.319498789127458E-1    4.644126154584786E-1
 1.010408400205000E+10  -3.353287483218015E-1    3.586854630990770E-1   -2.564454324937549E-4   -2.730171043540818E-4   -2.387105060103334E-4   -2.705661904855290E-4   -1.314153065944117E-1    4.644923022137632E-1
 1.010409187820000E+10  -3.349616412516892E-1    3.590804719833878E-1   -2.588009768966890E-4   -2.285688217843583E-4   -2.273664128678641E-4   -2.330393776350804E-4   -1.308224144307074E-1    4.646775951344939E-1
 1.010409975435000E+10  -3.345634622806398E-1    3.594286382141778E-1   -2.438917194511856E-4   -2.293668168807355E-4   -2.095866381635627E-4   -2.478050805976104E-4   -1.302553869322507E-1    4.649176503876412E-1
 1.010410763050000E+10  -3.342945935890109E-1    3.597690069904423E-1   -2.425059487012758E-4   -2.249196201110286E-4   -2.211328583373457E-4   -2.263065059434360E-4   -1.297461676262436E-1    4.650595252005671E-1
 1.010411550665000E+10  -3.339846649655804E-1    3.600006874135240E-1   -2.709429776841624E-4   -2.350637061490721E-4   -1.882160578886529E-4   -2.411121763493675E-4   -1.292263513527214E-1    4.651956749977464E-1
 1.010412338280000E+10  -3.335686132437728E-1    3.605336315173209E-1   -2.321375562984695E-4   -2.031095090941222E-4   -1.820121036768063E-4   -2.521886235561666E-4   -1.285349770635822E-1    4.652498772376356E-1
 1.010413125895000E+10  -3.331840248971936E-1    3.608161061277841E-1   -2.181794049820116E-4   -2.382392769473918E-4   -2.251833015448994E-4   -2.303559657798410E-4   -1.280693211788265E-1    4.655283860466766E-1
 1.010413913510000E+10  -3.329191540482745E-1    3.611560319320198E-1   -2.080146602241171E-4   -2.290041663842008E-4   -1.729409713089054E-4   -2.370787856106177E-4   -1.274632779387388E-1    4.656530566375623E-1
 1.010414701125000E+10  -3.325457215122085E-1    3.614331733262367E-1   -2.225708666554128E-4   -2.148831657742539E-4   -1.597439849393279E-4   -2.258418356026732E-4   -1.269540739956616E-1    4.658276910737206E-1
 1.010415488740000E+10  -3.321724787393849E-1    3.617332085563465E-1   -2.014915304159323E-4   -2.234679949092508E-4   -1.504877574712028E-4   -2.208983163275094E-4   -1.263933347439820E-1    4.660469283261263E-1
 1.010416276355000E+10  -3.318060849765973E-1    3.620385836157712E-1   -1.770090165673672E-4   -1.893369135621998E-4   -1.708106596356952E-4   -2.467027403717990E-4   -1.256587175581125E-1    4.661011473509176E-1
 1.010417063970000E+10  -3.315293729608361E-1    3.624002687825351E-1   -1.965685565770964E-4   -1.845669956483236E-4   -1.602842876591237E-4   -2.020490328555788E-4   -1.251534180406506E-1    4.662195553565680E-1
 1.010417851585000E+10  -3.311773305256755E-1    3.628533832006837E-1   -1.559923824639026E-4   -2.184317937094788E-4   -1.466994438173201E-4   -2.214636342176118E-4   -1.245719922266322E-1    4.665268738846207E-1
 1.010418639200000E+10  -3.308641436027159E-1    3.631245842334578E-1   -1.828911953115621E-4   -2.321592196087522E-4   -1.159857170351530E-4   -2.116971487648428E-4   -1.240960639830167E-1    4.665215170235446E-1
 1.010419426815000E+10  -3.304772919836291E-1    3.634445391724429E-1   -1.490971331645136E-4   -2.071655045113620E-4   -1.543053195042118E-4   -2.155448142395844E-4   -1.234221646026401E-1    4.667745588448796E-1
 1.010420214430000E+10  -3.301616293321177E-1    3.637834432045335E-1   -1.721502896424067E-4   -1.977142719223153E-4   -1.232247641683647E-4   -2.083723613616185E-4   -1.228703794833949E-1    4.669600042153918E-1
 1.010421002045000E+10  -3.298523125070744E-1    3.641255783921002E-1   -1.305235187733434E-4   -2.190140152900750E-4   -1.150135016317339E-4   -2.340230023556971E-4   -1.224383870948538E-1    4.671083388104484E-1
 1.010421789660000E+10  -3.295060477835834E-1    3.644499223151480E-1   -1.307713269293620E-4   -1.751949331894769E-4   -9.479137089819256E-5   -2.159551761578952E-4   -1.216960453002493E-1    4.672190051811135E-1
 1.010422577275000E+10  -3.291739099978664E-1    3.648448387941621E-1   -1.186990899028974E-4   -2.114511535043616E-4   -1.120567081198362E-4   -1.773685140542776E-4   -1.212198067280997E-1    4.674121278122645E-1
 1.010423364890000E+10  -3.288644318187508E-1    3.652467861081588E-1   -1.232459920088755E-4   -2.230400406071092E-4   -9.976284561322724E-5   -1.875753783946179E-4   -1.204646465498782E-1    4.674575799720468E-1
 1.010424152505000E+10  -3.284482314196547E-1    3.654556762057889E-1   -1.009276990709769E-4   -2.105187179022158E-4   -1.094964463245586E-4   -1.982113782194519E-4   -1.199453110472784E-1    4.677063408831367E-1
 1.010424940120000E+10  -3.282266114628464E-1    3.657680748894277E-1   -8.370163681717442E-5   -1.903018024086703E-4   -6.370403971191931E-5   -1.958028545293745E-4   -1.194451445934694E-1    4.677976878642143E-1
 1.010425727735000E+10  -3.277102162886117E-1    3.661606456611679E-1   -7.273269487992726E-5   -2.039698146665760E-4   -5.847676835058806E-5   -2.262173746832712E-4   -1.187912636111971E-1    4.679163738129304E-1
 1.010426515350000E+10  -3.274175132231961E-1    3.665421719659767E-1   -7.179927175589599E-5   -1.685746261845803E-4   -5.260785776804406E-5   -1.782312540573092E-4   -1.179961009647121E-1    4.680654718225141E-1
