#  HZ   S   RI   R     50.00 
! Rohde & Schwarz Vector Network Analyzer 
! Rohde-Schwarz,ZNB20-2Port,1311601062101988,3.16
! Created: UTC 3/20/2024, 4:57:20 PM
! freq[Hz]                re:S11                  im:S11                  re:S21                  im:S21                  re:S12                  im:S12                  re:S22                  im:S22
 1.010136536300000E+10  -4.280282687656800E-1    2.239479585205538E-1   -6.192687442225616E-4   -7.259843039921430E-4   -5.330798517711628E-4   -7.494531241548260E-4   -2.876945778537993E-1    3.786815553038362E-1
 1.010138298697500E+10  -4.274939780890377E-1    2.249023911401599E-1   -6.054850987665385E-4   -7.258700916647318E-4   -5.045759792958502E-4   -7.677978348494660E-4   -2.869599295282194E-1    3.795437459337399E-1
 1.010140061095000E+10  -4.272359090807457E-1    2.258100061581037E-1   -6.035976958187993E-4   -6.959631793873963E-4   -5.469967784925825E-4   -7.285293525874035E-4   -2.859789031694524E-1    3.800587868451567E-1
 1.010141823492500E+10  -4.266124560433651E-1    2.267721591157623E-1   -6.213481274598301E-4   -7.385241417008434E-4   -5.264369537696932E-4   -7.500932745529761E-4   -2.851349238520085E-1    3.810420366950550E-1
 1.010143585890000E+10  -4.262107751964755E-1    2.277750965245119E-1   -5.921689286839544E-4   -7.194241086944232E-4   -5.193904916843557E-4   -7.513307091793691E-4   -2.841825387120323E-1    3.817342593541274E-1
 1.010145348287500E+10  -4.258112770117784E-1    2.288370857417141E-1   -6.078458788641795E-4   -6.874417255199199E-4   -5.477496142600710E-4   -7.352426173083129E-4   -2.832840559749270E-1    3.822346371583225E-1
 1.010147110685000E+10  -4.253658076514898E-1    2.296928264955561E-1   -6.013795280288895E-4   -7.193871737933640E-4   -5.313541333058107E-4   -7.660393521654032E-4   -2.824572251483429E-1    3.829746231287030E-1
 1.010148873082500E+10  -4.249845366577386E-1    2.307534595819627E-1   -6.084506337853186E-4   -7.090621699978208E-4   -5.340022664222622E-4   -7.436685174095637E-4   -2.815106536211119E-1    3.837606632701613E-1
 1.010150635480000E+10  -4.244050782141756E-1    2.317835725077249E-1   -6.073557194697513E-4   -7.127822163259476E-4   -5.346393039476844E-4   -7.292563861223601E-4   -2.807328692696510E-1    3.845968387939899E-1
 1.010152397877500E+10  -4.239124910652957E-1    2.326614032553845E-1   -5.989927921099765E-4   -7.132780978355761E-4   -5.594343964032294E-4   -7.282732241633293E-4   -2.797722866352439E-1    3.852584092440660E-1
 1.010154160275000E+10  -4.235516553535072E-1    2.335196841670576E-1   -6.171902313013594E-4   -7.173269966860373E-4   -5.333972311786973E-4   -7.039034133911723E-4   -2.789345727476263E-1    3.859408661626787E-1
 1.010155922672500E+10  -4.230958980639991E-1    2.344712882711258E-1   -5.920350873885372E-4   -7.023115560056638E-4   -5.484903855236934E-4   -7.177089039295090E-4   -2.779730155898489E-1    3.866904688607902E-1
 1.010157685070000E+10  -4.226953711665596E-1    2.355854926561649E-1   -5.963472714466656E-4   -7.430576633620466E-4   -5.493295238152660E-4   -7.237517710889607E-4   -2.770797396433438E-1    3.873394734796417E-1
 1.010159447467500E+10  -4.220460445519589E-1    2.365341388889778E-1   -5.891196504081435E-4   -7.244464077917077E-4   -5.544876644973391E-4   -7.425425979690447E-4   -2.762087090399069E-1    3.881866678470764E-1
 1.010161209865000E+10  -4.215689547394651E-1    2.375885101621763E-1   -6.256272050600649E-4   -6.831430637469967E-4   -5.157484876527528E-4   -7.442801918479831E-4   -2.753511212797770E-1    3.887814807573621E-1
 1.010162972262500E+10  -4.211916958931162E-1    2.384096369701837E-1   -6.249910076854769E-4   -7.121727380935482E-4   -5.310596066675958E-4   -6.771907258879422E-4   -2.743558643044089E-1    3.894600650138357E-1
 1.010164734660000E+10  -4.205881532142579E-1    2.395077968182266E-1   -5.947794024614981E-4   -6.785648840640292E-4   -5.510903738842819E-4   -7.171126636756827E-4   -2.735234968481247E-1    3.901119037149879E-1
 1.010166497057500E+10  -4.202125073497708E-1    2.404358415512774E-1   -6.120436882917050E-4   -6.885526900189656E-4   -5.479421584979157E-4   -7.035006858329985E-4   -2.725481006572741E-1    3.909262951772614E-1
 1.010168259455000E+10  -4.195606524462943E-1    2.413289246722127E-1   -6.154401288026379E-4   -6.856342854496528E-4   -5.093547940975397E-4   -7.128330649249094E-4   -2.716653198864170E-1    3.915444769344822E-1
 1.010170021852500E+10  -4.190872050931148E-1    2.423812330030145E-1   -6.129670915596670E-4   -6.787993335034586E-4   -5.473559664767954E-4   -7.108227628011006E-4   -2.706184386384720E-1    3.923037357089769E-1
 1.010171784250000E+10  -4.187393529783187E-1    2.432001450040528E-1   -6.013418665000008E-4   -7.062694298152089E-4   -5.414720159866552E-4   -6.890583076441398E-4   -2.698017980856708E-1    3.928365452285130E-1
 1.010173546647500E+10  -4.182004200171298E-1    2.442618279267553E-1   -6.130291742438084E-4   -6.486547912335041E-4   -5.429151949983163E-4   -6.944116302060354E-4   -2.689744399097714E-1    3.936067236951938E-1
 1.010175309045000E+10  -4.177571647189057E-1    2.452040847693343E-1   -5.985690874300575E-4   -6.770587462467039E-4   -5.666600656496660E-4   -7.271582970966376E-4   -2.679438725778013E-1    3.942998687698354E-1
 1.010177071442500E+10  -4.172782092149163E-1    2.462518950864645E-1   -6.208605341626200E-4   -6.523997934260449E-4   -5.210490837298598E-4   -6.721350880115968E-4   -2.670216545419984E-1    3.950147121631853E-1
 1.010178833840000E+10  -4.166895498557153E-1    2.471787862096902E-1   -5.940013461303517E-4   -6.690985821213364E-4   -5.429725723717717E-4   -6.596193219744486E-4   -2.661464731112732E-1    3.957353008115658E-1
 1.010180596237500E+10  -4.161036079937681E-1    2.479526729461565E-1   -5.806569619235271E-4   -6.909367235412192E-4   -5.438955697575990E-4   -6.835185009107095E-4   -2.652434873119712E-1    3.964109133398381E-1
 1.010182358635000E+10  -4.155608072146526E-1    2.488795845693928E-1   -6.010642495210346E-4   -6.668720528380083E-4   -5.269394201322710E-4   -7.047022820634653E-4   -2.642348759243305E-1    3.971729927911546E-1
 1.010184121032500E+10  -4.151859981549459E-1    2.499468346882802E-1   -6.239380854799768E-4   -6.831154675271040E-4   -5.596511790416358E-4   -6.826558236207446E-4   -2.634417467223231E-1    3.976272623269916E-1
 1.010185883430000E+10  -4.146272961542132E-1    2.508461246602603E-1   -6.189478233093661E-4   -6.731360798459412E-4   -5.554271370864181E-4   -6.767379603046911E-4   -2.623450925967529E-1    3.983857030871963E-1
 1.010187645827500E+10  -4.141419955755973E-1    2.517628569696543E-1   -5.951252750060836E-4   -6.743663440459442E-4   -5.527025514099689E-4   -6.902403236578624E-4   -2.616002914362269E-1    3.991220567024459E-1
 1.010189408225000E+10  -4.136945515256298E-1    2.528313463494175E-1   -6.261100679967948E-4   -6.671051528587586E-4   -5.481579606261230E-4   -7.116971372386845E-4   -2.605785385043782E-1    3.995471139289027E-1
 1.010191170622500E+10  -4.132279212845191E-1    2.537146225678552E-1   -6.103677829737427E-4   -6.610332342714788E-4   -5.318530665242469E-4   -7.089096529650159E-4   -2.596446778874021E-1    4.003841480209374E-1
 1.010192933020000E+10  -4.126345978020576E-1    2.547148995134577E-1   -6.050977634783663E-4   -6.725795536760565E-4   -5.586615293652444E-4   -6.852028576608742E-4   -2.588022279169269E-1    4.012747088327917E-1
 1.010194695417500E+10  -4.120633023563245E-1    2.555747000699453E-1   -6.109829422606372E-4   -6.424422077480410E-4   -5.250430896160919E-4   -6.878021855471547E-4   -2.577941959031471E-1    4.018339682455062E-1
 1.010196457815000E+10  -4.116212412279301E-1    2.564677993255317E-1   -6.154884293076701E-4   -6.347755478006700E-4   -5.313666623255346E-4   -6.731905903985122E-4   -2.567639852119650E-1    4.024704350043815E-1
 1.010198220212500E+10  -4.112007301092680E-1    2.575027385735350E-1   -6.034583687767148E-4   -6.365615564319683E-4   -5.459812922871109E-4   -6.659678423923280E-4   -2.559397069193260E-1    4.030713253049885E-1
 1.010199982610000E+10  -4.106409956503332E-1    2.584741516467594E-1   -6.162515421076270E-4   -6.444414360567253E-4   -5.444785278184137E-4   -6.501331537051287E-4   -2.549286733573469E-1    4.037581874263925E-1
 1.010201745007500E+10  -4.099774493369538E-1    2.594793315341251E-1   -6.280924760798792E-4   -6.737863499492458E-4   -5.320482294632099E-4   -6.426954276369366E-4   -2.539608037232377E-1    4.042931194254514E-1
 1.010203507405000E+10  -4.095129425038296E-1    2.602706972634786E-1   -6.601150533341582E-4   -6.335299091036480E-4   -5.365339693199143E-4   -6.494895441460882E-4   -2.532242770940505E-1    4.050778109856590E-1
 1.010205269802500E+10  -4.089852228376911E-1    2.611380753527535E-1   -5.906540396229090E-4   -6.516513722714830E-4   -5.534309653120329E-4   -6.621956238617204E-4   -2.520499714503562E-1    4.056532606179106E-1
 1.010207032200000E+10  -4.084042623495860E-1    2.621243236879546E-1   -5.901420805240091E-4   -6.352152307579225E-4   -5.518309403031767E-4   -6.590568130136717E-4   -2.511294899986996E-1    4.063246872184844E-1
 1.010208794597500E+10  -4.079272283421276E-1    2.630473360894700E-1   -6.213184884969269E-4   -6.247600226861575E-4   -5.555190476006153E-4   -6.629518239086317E-4   -2.502041497382891E-1    4.070055922578752E-1
 1.010210556995000E+10  -4.073865529020044E-1    2.640628871851871E-1   -5.957993796497537E-4   -6.355035600918363E-4   -5.322882827787439E-4   -6.523277163341813E-4   -2.492465640771913E-1    4.074812024099737E-1
 1.010212319392500E+10  -4.068362614447557E-1    2.649584310582049E-1   -6.105277310607008E-4   -6.364167052779953E-4   -5.336730553019305E-4   -6.743958368747588E-4   -2.482981473295124E-1    4.082967904965059E-1
 1.010214081790000E+10  -4.062772474847711E-1    2.658936078434101E-1   -6.022377161376777E-4   -6.331182548813331E-4   -5.443530172617516E-4   -6.520588112382854E-4   -2.473680721316314E-1    4.091007663203939E-1
 1.010215844187500E+10  -4.057287447179001E-1    2.667377204622234E-1   -6.187547438902084E-4   -5.936559361082083E-4   -5.608798906332038E-4   -6.488164044849246E-4   -2.464581657251435E-1    4.095802657707327E-1
 1.010217606585000E+10  -4.052745795315872E-1    2.675193202052254E-1   -6.253758029059945E-4   -6.061810552882704E-4   -5.371376629113494E-4   -6.661665549507766E-4   -2.454822223324471E-1    4.101622590886667E-1
 1.010219368982500E+10  -4.046432182405098E-1    2.685258705934973E-1   -5.989552711044432E-4   -6.067536101929400E-4   -5.404071862855461E-4   -6.392998726631619E-4   -2.444633004044875E-1    4.108102982926412E-1
 1.010221131380000E+10  -4.041814158366984E-1    2.694884487073918E-1   -6.213457566388356E-4   -6.186185468126871E-4   -5.424082318851958E-4   -6.444314859147938E-4   -2.434427659091185E-1    4.115093099090124E-1
 1.010222893777500E+10  -4.035633001830024E-1    2.704854065391192E-1   -6.018920311643146E-4   -6.053015007014548E-4   -5.411885260263600E-4   -6.211751702690162E-4   -2.426141825148801E-1    4.121570920375315E-1
 1.010224656175000E+10  -4.029449314659925E-1    2.713977382991984E-1   -6.090566891681319E-4   -6.079438127845928E-4   -5.344997416419953E-4   -6.378212375563745E-4   -2.415675768049120E-1    4.126253679608424E-1
 1.010226418572500E+10  -4.025520435895803E-1    2.723337488071449E-1   -6.013178027061953E-4   -6.115660331148324E-4   -5.452114143856250E-4   -6.315433350539455E-4   -2.405768060175173E-1    4.133536589711217E-1
 1.010228180970000E+10  -4.019473420540754E-1    2.731714897946403E-1   -5.793818230032718E-4   -5.989148533421902E-4   -5.564929093048126E-4   -6.128394799850284E-4   -2.395143551847967E-1    4.138900343252030E-1
 1.010229943367500E+10  -4.014652088855014E-1    2.741492963797030E-1   -5.952403205002472E-4   -6.028824742546729E-4   -5.390161477231396E-4   -5.988041225003663E-4   -2.385818268534206E-1    4.146004241236707E-1
 1.010231705765000E+10  -4.008531209546223E-1    2.749325532657513E-1   -6.089198423975021E-4   -6.006899955766688E-4   -5.487591923856330E-4   -6.033624262835643E-4   -2.377110880656315E-1    4.152365114473949E-1
 1.010233468162500E+10  -4.002551884290192E-1    2.759467196826483E-1   -5.940513538920307E-4   -5.859610455412382E-4   -5.469788685291747E-4   -6.236010394074451E-4   -2.367209226527084E-1    4.158322666476697E-1
 1.010235230560000E+10  -3.997532762471512E-1    2.768294338225616E-1   -5.858431399108228E-4   -5.963683575202051E-4   -5.145020485959811E-4   -6.137681600997625E-4   -2.357127002163116E-1    4.164090545484960E-1
 1.010236992957500E+10  -3.992713011522260E-1    2.776960216783095E-1   -6.132189042076707E-4   -5.607122375492854E-4   -5.180686626821316E-4   -6.248348029635070E-4   -2.346859051179487E-1    4.170897824789638E-1
 1.010238755355000E+10  -3.983845394053038E-1    2.787784612474910E-1   -6.111669580671491E-4   -5.885342188942015E-4   -5.201163607871380E-4   -6.368459949730025E-4   -2.337235408838009E-1    4.176378581637258E-1
 1.010240517752500E+10  -3.980922355902683E-1    2.795553368407673E-1   -6.173917291173787E-4   -6.147045781731038E-4   -5.458259645770611E-4   -6.021204359272896E-4   -2.327282068241261E-1    4.182397632739321E-1
 1.010242280150000E+10  -3.973706019677660E-1    2.805168893500347E-1   -6.011621673635342E-4   -5.798995330625626E-4   -5.314076298041987E-4   -6.126427847312865E-4   -2.318237266856782E-1    4.188224557601675E-1
 1.010244042547500E+10  -3.968312757686152E-1    2.813579113566786E-1   -5.786206968379284E-4   -5.713235872845403E-4   -5.089754776377605E-4   -5.909205656070964E-4   -2.307672225342798E-1    4.194273433278948E-1
 1.010245804945000E+10  -3.964368418303696E-1    2.823342720760174E-1   -5.910520182325621E-4   -5.683829630346975E-4   -5.402003468594279E-4   -5.925612346994781E-4   -2.298946772985867E-1    4.200280661919631E-1
 1.010247567342500E+10  -3.956022965649958E-1    2.832586294429318E-1   -6.132886146858822E-4   -5.560722974423787E-4   -5.268986937686906E-4   -5.709651952699647E-4   -2.289033524833337E-1    4.206973315191368E-1
 1.010249329740000E+10  -3.949570095382264E-1    2.841597416948835E-1   -6.285197972184464E-4   -5.651634614131644E-4   -5.560318867162314E-4   -5.747229966883666E-4   -2.277637066632122E-1    4.211831582360890E-1
 1.010251092137500E+10  -3.945887967658147E-1    2.850620999185954E-1   -5.802149764863537E-4   -5.832441750803616E-4   -5.224989385063900E-4   -5.845859069578124E-4   -2.267789887809362E-1    4.217587937830183E-1
 1.010252854535000E+10  -3.938701616603218E-1    2.859684600465729E-1   -6.134269456999346E-4   -5.604196895324848E-4   -5.234105092396247E-4   -5.854235684239935E-4   -2.258050126910782E-1    4.224270435267251E-1
 1.010254616932500E+10  -3.934408103414850E-1    2.867032367267037E-1   -6.080008057597172E-4   -5.610604369259819E-4   -5.213707124173902E-4   -6.063156425547111E-4   -2.246957208875692E-1    4.230706892965710E-1
 1.010256379330000E+10  -3.928280811966818E-1    2.876245872573456E-1   -5.641170235996391E-4   -5.654132956486992E-4   -5.165977757256108E-4   -5.429472254726596E-4   -2.238120223975136E-1    4.234559898085266E-1
 1.010258141727500E+10  -3.921064049135086E-1    2.886407263195141E-1   -5.811026824726997E-4   -5.481562393779332E-4   -5.184561298933651E-4   -5.779055588008354E-4   -2.226916905783627E-1    4.242862209768460E-1
 1.010259904125000E+10  -3.915752837644235E-1    2.893958974717278E-1   -5.704763346296490E-4   -5.341474497601121E-4   -5.285241110561372E-4   -5.806054755433171E-4   -2.217235098205347E-1    4.247180302876540E-1
 1.010261666522500E+10  -3.910714120071547E-1    2.903880896623838E-1   -5.713639404712518E-4   -5.488208496693830E-4   -5.086447536074379E-4   -5.862244615329835E-4   -2.207121825152596E-1    4.252906124880896E-1
 1.010263428920000E+10  -3.904607239115892E-1    2.913057066848163E-1   -6.174800662307521E-4   -5.503202351302899E-4   -5.198511002923602E-4   -5.551274831948589E-4   -2.197904671548524E-1    4.258733992327889E-1
 1.010265191317500E+10  -3.897858545307529E-1    2.920552833193272E-1   -5.891049217697598E-4   -5.506808311114762E-4   -5.144675596994533E-4   -5.638366662511206E-4   -2.186227563359933E-1    4.264708294846309E-1
 1.010266953715000E+10  -3.891448571608407E-1    2.930952232424897E-1   -5.696958422042077E-4   -5.298039191023693E-4   -5.135074112977139E-4   -5.535326152045639E-4   -2.176971151462157E-1    4.271173735716350E-1
 1.010268716112500E+10  -3.885633876533858E-1    2.940284508535307E-1   -5.578851312359246E-4   -5.375625361233897E-4   -5.302153989100673E-4   -5.373284913349875E-4   -2.165819955308470E-1    4.275715655064099E-1
 1.010270478510000E+10  -3.880320229947396E-1    2.949618034546986E-1   -5.777425430073797E-4   -5.627425075695953E-4   -5.142109942665023E-4   -5.427218792908084E-4   -2.156176649670617E-1    4.282661193990057E-1
 1.010272240907500E+10  -3.875085958515307E-1    2.957915580680149E-1   -5.637506674639215E-4   -5.508379647372959E-4   -5.267176039681510E-4   -5.396135107169601E-4   -2.146647746131626E-1    4.287335386888479E-1
 1.010274003305000E+10  -3.868072978332405E-1    2.965940472945832E-1   -5.945957833743144E-4   -5.425330830935699E-4   -4.955624640095672E-4   -5.414304054660694E-4   -2.135471079875698E-1    4.292440813125291E-1
 1.010275765702500E+10  -3.861559377126018E-1    2.974216114289839E-1   -5.578476019892791E-4   -5.353145192165096E-4   -4.934686618600951E-4   -5.406920447222132E-4   -2.125927180760002E-1    4.298217583746939E-1
 1.010277528100000E+10  -3.855430428871707E-1    2.982743784535797E-1   -5.715442800304811E-4   -5.262350467513312E-4   -4.947109616577136E-4   -5.481565111247941E-4   -2.115668078024713E-1    4.304497815085452E-1
 1.010279290497500E+10  -3.848231693534709E-1    2.991469383661636E-1   -5.607337236143670E-4   -5.286247515845669E-4   -5.112824653072097E-4   -5.475079628733896E-4   -2.105819113777148E-1    4.309127019432487E-1
 1.010281052895000E+10  -3.842970046608658E-1    3.000590742694529E-1   -5.438690151320124E-4   -5.041534533915648E-4   -4.767371987148049E-4   -5.218535712940768E-4   -2.095544867005908E-1    4.316089451040770E-1
 1.010282815292500E+10  -3.836281736049753E-1    3.010265886776702E-1   -5.425162197105994E-4   -4.890232242289595E-4   -4.838586824161229E-4   -5.259873317688966E-4   -2.083967801187579E-1    4.320705054181370E-1
 1.010284577690000E+10  -3.830819939257321E-1    3.018913691618813E-1   -5.460369789973118E-4   -4.870046929116551E-4   -4.821000233654901E-4   -5.000215031984803E-4   -2.075458629646841E-1    4.326277306325632E-1
 1.010286340087500E+10  -3.825870710567059E-1    3.027955942163156E-1   -5.550989928851741E-4   -4.985287576264266E-4   -5.086681299209724E-4   -5.274382202312298E-4   -2.063028447838093E-1    4.332211836801344E-1
 1.010288102485000E+10  -3.818248750297032E-1    3.034802701922433E-1   -5.343052078220118E-4   -4.928728650641421E-4   -5.074670494990099E-4   -5.137515534670061E-4   -2.053242286239108E-1    4.336406154143451E-1
 1.010289864882500E+10  -3.812124968130223E-1    3.044067494227687E-1   -5.296769722258593E-4   -4.997166462987808E-4   -4.520750372777810E-4   -5.260048243584181E-4   -2.042736862063333E-1    4.342088900553474E-1
 1.010291627280000E+10  -3.805570595490164E-1    3.054522241778985E-1   -5.448224265202044E-4   -4.780102028576284E-4   -4.695468648513518E-4   -5.213641418671258E-4   -2.032128648915544E-1    4.348791039136854E-1
 1.010293389677500E+10  -3.800492640688449E-1    3.061502082522754E-1   -5.487115478151547E-4   -5.062713616348261E-4   -4.733579896179024E-4   -5.043345987723231E-4   -2.023204018952791E-1    4.353124011701248E-1
 1.010295152075000E+10  -3.793339061294494E-1    3.071098726262140E-1   -5.358495721550067E-4   -4.811308641357758E-4   -4.799059739835289E-4   -5.199776705331147E-4   -2.010791477100829E-1    4.358041206918515E-1
