#  HZ   S   RI   R     50.00 
! Rohde & Schwarz Vector Network Analyzer 
! Rohde-Schwarz,ZNB20-2Port,1311601062101988,3.16
! Created: UTC 3/20/2024, 5:04:36 PM
! freq[Hz]                re:S11                  im:S11                  re:S21                  im:S21                  re:S12                  im:S12                  re:S22                  im:S22
 1.010043951700000E+10  -4.482569265981053E-1    1.711663540244418E-1   -5.327264746292185E-4   -8.340572004134546E-4   -4.698443459128571E-4   -8.637139646221310E-4   -3.314486664094184E-1    3.365111297116825E-1
 1.010046187092500E+10  -4.478349201727512E-1    1.724952177187684E-1   -5.466208760129682E-4   -8.397950427108922E-4   -4.585152068536808E-4   -8.559200827115017E-4   -3.305347698724894E-1    3.377018066500455E-1
 1.010048422485000E+10  -4.473803028155762E-1    1.737313117379896E-1   -5.381316479126532E-4   -8.362728263870084E-4   -4.684608172137669E-4   -8.371103031420494E-4   -3.295786160283135E-1    3.385375425825802E-1
 1.010050657877500E+10  -4.469595119658635E-1    1.750408259387836E-1   -5.696617934973953E-4   -7.939232180195316E-4   -4.757829016176563E-4   -8.377517330156516E-4   -3.287019826170473E-1    3.397244905533900E-1
 1.010052893270000E+10  -4.465809204851808E-1    1.762147128624950E-1   -5.383415591946900E-4   -8.247164476556409E-4   -4.599948071280832E-4   -8.580514436580187E-4   -3.276586004150330E-1    3.407977874759324E-1
 1.010055128662500E+10  -4.461509164945793E-1    1.776364705146948E-1   -5.475344292997963E-4   -8.341126023984934E-4   -4.602801873306928E-4   -8.288187090187528E-4   -3.266075902880395E-1    3.417896418498343E-1
 1.010057364055000E+10  -4.456695378837241E-1    1.787934120405790E-1   -5.531203776139365E-4   -8.300529395715663E-4   -4.504349138132723E-4   -8.318403963633155E-4   -3.255752131900715E-1    3.426729706694333E-1
 1.010059599447500E+10  -4.452258855431235E-1    1.802655891080410E-1   -5.605264950945085E-4   -8.405153531287747E-4   -4.860463564152700E-4   -8.328177029276726E-4   -3.246356427721228E-1    3.439326186783785E-1
 1.010061834840000E+10  -4.447506300305000E-1    1.814984923358926E-1   -5.581790963807441E-4   -8.072992938678790E-4   -4.975783591597533E-4   -8.236429461520867E-4   -3.236273657403760E-1    3.449658059126071E-1
 1.010064070232500E+10  -4.443462939672688E-1    1.827592080051369E-1   -5.506335990820714E-4   -8.099629052591731E-4   -4.492809328132019E-4   -8.183420847100152E-4   -3.228167234490381E-1    3.460644043973299E-1
 1.010066305625000E+10  -4.438888205011615E-1    1.839623789471384E-1   -5.410643651207248E-4   -8.302432300758412E-4   -4.954966255810288E-4   -8.365747191346924E-4   -3.216584229230683E-1    3.469714307638405E-1
 1.010068541017500E+10  -4.433997297857489E-1    1.853340539445020E-1   -5.702856412783139E-4   -8.071726266467859E-4   -4.700117417540453E-4   -8.055626892123467E-4   -3.205772957042622E-1    3.481046527619756E-1
 1.010070776410000E+10  -4.430063266230429E-1    1.867054177847821E-1   -5.554377786289666E-4   -7.869593541286448E-4   -4.808940805581575E-4   -8.273477861103180E-4   -3.194307083057581E-1    3.491042868859364E-1
 1.010073011802500E+10  -4.426341290924373E-1    1.878702642553020E-1   -5.395371879072918E-4   -8.040121946735273E-4   -4.769417620357662E-4   -8.289208473904077E-4   -3.184750144747618E-1    3.500632987486654E-1
 1.010075247195000E+10  -4.420542730676564E-1    1.891578418019714E-1   -5.489653324016048E-4   -8.002989049660861E-4   -4.775970202807893E-4   -8.031669531308547E-4   -3.175168831084138E-1    3.510649983554682E-1
 1.010077482587500E+10  -4.415650479829312E-1    1.904726747315055E-1   -5.666382820829878E-4   -7.762094430879316E-4   -4.909937883616984E-4   -8.034570237522734E-4   -3.164907626804194E-1    3.522313247194659E-1
 1.010079717980000E+10  -4.410685286655934E-1    1.917943614269472E-1   -5.650227672140114E-4   -7.941106276712690E-4   -4.582596404338699E-4   -8.204878169849921E-4   -3.152992955933386E-1    3.532065217127738E-1
 1.010081953372500E+10  -4.406805549797089E-1    1.931397318432965E-1   -5.515627538564075E-4   -7.633772467596189E-4   -4.701875279976296E-4   -8.212650391449454E-4   -3.143629380346893E-1    3.541125444782963E-1
 1.010084188765000E+10  -4.401412692023897E-1    1.942933428315027E-1   -5.906311959097334E-4   -7.937857959803415E-4   -4.476224643459116E-4   -8.000177690627255E-4   -3.133813465981991E-1    3.550651196212767E-1
 1.010086424157500E+10  -4.396187257328832E-1    1.956449984225463E-1   -5.550250045226078E-4   -8.063122113009510E-4   -4.957751368514037E-4   -7.903720678235861E-4   -3.123632234321943E-1    3.561234267424830E-1
 1.010088659550000E+10  -4.391667442388703E-1    1.967990113023487E-1   -5.780280846126547E-4   -7.847789576733852E-4   -4.734318422622881E-4   -8.183182606267879E-4   -3.112790577654683E-1    3.572748079715135E-1
 1.010090894942500E+10  -4.387338871947505E-1    1.981230074438452E-1   -5.756258777095194E-4   -7.828211955081559E-4   -4.896535211213846E-4   -8.150961780403616E-4   -3.103542323314710E-1    3.581182542619182E-1
 1.010093130335000E+10  -4.381871902618337E-1    1.995707196711004E-1   -5.850655140505323E-4   -7.864644009724166E-4   -4.832673953863212E-4   -8.100590331498321E-4   -3.091694287918810E-1    3.590873678955021E-1
 1.010095365727500E+10  -4.377029816469747E-1    2.006581724104353E-1   -5.587791082665795E-4   -7.937695221431381E-4   -5.147146683463010E-4   -7.927846048822160E-4   -3.083001460339275E-1    3.602266093525766E-1
 1.010097601120000E+10  -4.371258237228760E-1    2.020027783008324E-1   -5.865917987634861E-4   -8.015917995580918E-4   -4.944721349761446E-4   -7.952455609981871E-4   -3.071185209979309E-1    3.610084800849437E-1
 1.010099836512500E+10  -4.366427958364699E-1    2.032322117926370E-1   -5.935367147933931E-4   -7.798087388009060E-4   -5.060468627034663E-4   -7.819082530454024E-4   -3.059888498878677E-1    3.621149176022213E-1
 1.010102071905000E+10  -4.362963232062590E-1    2.045469669480952E-1   -5.952191454503123E-4   -7.848007163554408E-4   -5.249146236577133E-4   -8.006915178664592E-4   -3.050277903997178E-1    3.631907450429260E-1
 1.010104307297500E+10  -4.356700775988300E-1    2.058104988119919E-1   -5.915220783776403E-4   -7.727218797588038E-4   -5.184390244989897E-4   -7.726584247884268E-4   -3.039185181640410E-1    3.640489712064790E-1
 1.010106542690000E+10  -4.351095265443801E-1    2.070242622271685E-1   -5.821531450849981E-4   -7.537533436754876E-4   -5.227740090705410E-4   -7.703612875559199E-4   -3.028637278066867E-1    3.650954569364221E-1
 1.010108778082500E+10  -4.346364689083195E-1    2.082894315139215E-1   -6.004273012289148E-4   -7.552385171053567E-4   -4.956364750896278E-4   -7.915502505634307E-4   -3.018515979721030E-1    3.661935739021582E-1
 1.010111013475000E+10  -4.341148887356476E-1    2.094778957960913E-1   -5.939479428294361E-4   -7.689626244712952E-4   -5.001651487235644E-4   -7.788899375844279E-4   -3.007630969497492E-1    3.670425127445399E-1
 1.010113248867500E+10  -4.336721720756884E-1    2.107328884385964E-1   -5.850397004201066E-4   -7.664505689972524E-4   -5.194398814738218E-4   -7.870235841804981E-4   -2.995732148483903E-1    3.680300939153145E-1
 1.010115484260000E+10  -4.330208860948451E-1    2.119557472742832E-1   -5.826599907735268E-4   -7.471928395188595E-4   -5.034724789929873E-4   -7.742680439045901E-4   -2.985334643889193E-1    3.689496953418507E-1
 1.010117719652500E+10  -4.325107725942978E-1    2.133297818808367E-1   -5.866612574667448E-4   -7.548348978470397E-4   -5.032942779266386E-4   -7.804199361837260E-4   -2.973909158863040E-1    3.698981888299903E-1
 1.010119955045000E+10  -4.319072880835276E-1    2.145742669885149E-1   -5.938274939159176E-4   -7.592283819683172E-4   -5.040413041347960E-4   -7.780980412481324E-4   -2.963511386655324E-1    3.709116848073487E-1
 1.010122190437500E+10  -4.315537576947416E-1    2.157491419399437E-1   -5.763400212500070E-4   -7.422863353898929E-4   -5.114657367672730E-4   -7.536640219879940E-4   -2.954115438076633E-1    3.718021867284479E-1
 1.010124425830000E+10  -4.308561943248406E-1    2.172084276459097E-1   -5.734373698827617E-4   -7.395978803886619E-4   -5.132843965463169E-4   -7.664915968851351E-4   -2.941740544458525E-1    3.728037097986564E-1
 1.010126661222500E+10  -4.303024063889310E-1    2.182018460409000E-1   -5.554841999823113E-4   -7.221261037723122E-4   -5.220127757335220E-4   -7.628586783643518E-4   -2.931097758845397E-1    3.737056348175194E-1
 1.010128896615000E+10  -4.298550472955122E-1    2.195083384830618E-1   -5.831930790728196E-4   -7.473758040507913E-4   -5.318120056674046E-4   -7.728644558129382E-4   -2.920065708578556E-1    3.746449195300016E-1
 1.010131132007500E+10  -4.291413952743095E-1    2.206961386696689E-1   -5.781998511057939E-4   -7.408864566723773E-4   -5.312921943581734E-4   -7.758369442400985E-4   -2.908549724259261E-1    3.755718417465459E-1
 1.010133367400000E+10  -4.286328369179478E-1    2.221311402837516E-1   -5.953954733938019E-4   -7.377717229014291E-4   -5.071660582803640E-4   -7.300754331088732E-4   -2.897902192888384E-1    3.766165200915569E-1
 1.010135602792500E+10  -4.282746064963635E-1    2.232790262603510E-1   -5.851301767304891E-4   -7.483727724219606E-4   -5.317616529924222E-4   -7.620655699463033E-4   -2.886596329519076E-1    3.775552664707706E-1
 1.010137838185000E+10  -4.275803332836592E-1    2.244734275802728E-1   -5.986059064249761E-4   -7.357674818821072E-4   -5.327054553516485E-4   -7.287840724609706E-4   -2.875569744716308E-1    3.784147799143377E-1
 1.010140073577500E+10  -4.270226280758451E-1    2.258689015357223E-1   -5.763792517952688E-4   -7.177411523535627E-4   -5.101612122990521E-4   -7.449363293557320E-4   -2.865186714341145E-1    3.793495927088570E-1
 1.010142308970000E+10  -4.264596396616158E-1    2.270328399693294E-1   -5.914942235538768E-4   -7.275517877093324E-4   -5.346337697734217E-4   -7.272344307610383E-4   -2.853972548398014E-1    3.803279427959393E-1
 1.010144544362500E+10  -4.259034067115529E-1    2.281819637897571E-1   -5.841930825105126E-4   -7.105868512572811E-4   -5.140281525116568E-4   -7.457355783143796E-4   -2.841787106752927E-1    3.811067759857495E-1
 1.010146779755000E+10  -4.251668467008984E-1    2.294237891811532E-1   -5.811488257079329E-4   -7.054657700437898E-4   -5.154557369544063E-4   -7.348983362076673E-4   -2.830508906572502E-1    3.820183537846326E-1
 1.010149015147500E+10  -4.247891767566356E-1    2.307721373573543E-1   -5.637260882325071E-4   -7.278805964809657E-4   -5.095021694419326E-4   -7.348380903490105E-4   -2.820363859309998E-1    3.829837623459756E-1
 1.010151250540000E+10  -4.240420889690848E-1    2.318729623152625E-1   -6.089256202800922E-4   -7.156983887925326E-4   -5.165533209542001E-4   -7.285945816941741E-4   -2.808160856754129E-1    3.839924167922425E-1
 1.010153485932500E+10  -4.235258540715399E-1    2.331819022563822E-1   -6.001312455063229E-4   -7.001696703617955E-4   -5.258017679798620E-4   -7.249371109792684E-4   -2.797887840587969E-1    3.850007652844673E-1
 1.010155721325000E+10  -4.228722183250199E-1    2.343158546440278E-1   -6.023734876613436E-4   -7.199161162073017E-4   -5.284238948122755E-4   -7.267897787427740E-4   -2.786502791844955E-1    3.857741591154404E-1
 1.010157956717500E+10  -4.224291190632895E-1    2.355286950049578E-1   -6.038106756726165E-4   -6.999213930325769E-4   -5.141758947528981E-4   -7.290967527440386E-4   -2.774572178842556E-1    3.867369535474039E-1
 1.010160192110000E+10  -4.216568315657391E-1    2.367518085036065E-1   -5.913757076893706E-4   -6.839496214222373E-4   -5.080412154853494E-4   -7.255601446100349E-4   -2.762989477261745E-1    3.876773407346832E-1
 1.010162427502500E+10  -4.210716394663569E-1    2.379991090957061E-1   -5.921168729645479E-4   -6.895873513686423E-4   -5.442816324129493E-4   -6.821854269303947E-4   -2.753143233106585E-1    3.884167362191689E-1
 1.010164662895000E+10  -4.205370587869113E-1    2.392509034679958E-1   -6.158897411139301E-4   -6.958206870557697E-4   -5.392126264682518E-4   -7.238252786836398E-4   -2.742050298974111E-1    3.893316065330272E-1
 1.010166898287500E+10  -4.198660788021358E-1    2.404890487820350E-1   -5.944478084327167E-4   -6.785731997579621E-4   -5.299460002999601E-4   -7.155925157469504E-4   -2.729218105539213E-1    3.903209315764793E-1
 1.010169133680000E+10  -4.192303751436717E-1    2.416736141385167E-1   -6.003422419635186E-4   -7.049123678511900E-4   -5.239913882951703E-4   -7.197529577395814E-4   -2.718098612500168E-1    3.912142570369044E-1
 1.010171369072500E+10  -4.186537734561725E-1    2.429297923637143E-1   -6.066933408138338E-4   -7.222740555040006E-4   -5.520441870697220E-4   -6.785077155154385E-4   -2.706515186161781E-1    3.918570045275784E-1
 1.010173604465000E+10  -4.180151381187148E-1    2.440966938611331E-1   -6.287227170127122E-4   -6.845076191231789E-4   -5.237245489644110E-4   -6.967471694243014E-4   -2.694101527635682E-1    3.928902431837045E-1
 1.010175839857500E+10  -4.174096490592726E-1    2.452725836685289E-1   -6.202831018774501E-4   -6.959444276545084E-4   -5.359995641341960E-4   -6.987078312678804E-4   -2.682414557507304E-1    3.937390773645106E-1
 1.010178075250000E+10  -4.168781894771138E-1    2.464704747105454E-1   -6.133809031224093E-4   -6.691425146622458E-4   -5.187920662910107E-4   -6.919078229104497E-4   -2.671228210350672E-1    3.946596487903288E-1
 1.010180310642500E+10  -4.160466030767742E-1    2.478667787022636E-1   -6.268991702553346E-4   -6.806908212446825E-4   -5.301744148354932E-4   -7.133180683612332E-4   -2.659072016998166E-1    3.954293162014086E-1
 1.010182546035000E+10  -4.154910239811314E-1    2.489519251839479E-1   -5.759250905225576E-4   -6.490910969543835E-4   -5.317764096967250E-4   -6.990288480141733E-4   -2.648765811434403E-1    3.963121805642243E-1
 1.010184781427500E+10  -4.148680486406647E-1    2.501334373707937E-1   -5.970225810248530E-4   -6.509862320471911E-4   -5.317518840542075E-4   -6.861867390335386E-4   -2.636538591354428E-1    3.972560425106149E-1
 1.010187016820000E+10  -4.141917858914334E-1    2.513292120908047E-1   -5.738175886210493E-4   -6.812191320618229E-4   -5.291572299690454E-4   -6.756669222234031E-4   -2.623565019835249E-1    3.981571233610259E-1
 1.010189252212500E+10  -4.137007958826909E-1    2.525885136238701E-1   -6.127251998604741E-4   -6.531405203670037E-4   -5.330135644492591E-4   -7.007147089696772E-4   -2.611609650041925E-1    3.990100977876036E-1
 1.010191487605000E+10  -4.131136120961939E-1    2.536846069636086E-1   -5.915819655680995E-4   -6.490828286740322E-4   -5.307705492393060E-4   -6.600378894682212E-4   -2.599269505832293E-1    3.997950619402552E-1
 1.010193722997500E+10  -4.123848339798841E-1    2.549452413892180E-1   -6.214063537908281E-4   -6.505914295012356E-4   -5.338882917475480E-4   -6.678933300043834E-4   -2.587280981878849E-1    4.006354694436910E-1
 1.010195958390000E+10  -4.117531703846390E-1    2.561746335078358E-1   -5.812740394519304E-4   -6.455405570848202E-4   -5.237785487010841E-4   -6.713620190297769E-4   -2.576668858062424E-1    4.015339471827406E-1
 1.010198193782500E+10  -4.109981286848600E-1    2.572089318463702E-1   -6.039770704270460E-4   -6.669494956134548E-4   -5.185948463053178E-4   -6.599847111685873E-4   -2.565371128742657E-1    4.023394769953606E-1
 1.010200429175000E+10  -4.103603988513088E-1    2.585876735638709E-1   -6.071456083527551E-4   -6.137663246230291E-4   -5.410260302340650E-4   -6.867703287704449E-4   -2.551932294605637E-1    4.030622359995614E-1
 1.010202664567500E+10  -4.097916590340436E-1    2.596564742564058E-1   -6.213343979380256E-4   -6.484589837942171E-4   -5.208959947221721E-4   -6.579178292039870E-4   -2.540823738422987E-1    4.038313506446586E-1
 1.010204899960000E+10  -4.089595203669526E-1    2.608414853412648E-1   -6.146873741214761E-4   -6.481650160627482E-4   -5.452453725206934E-4   -6.550143891953261E-4   -2.529449978506346E-1    4.047185038002587E-1
 1.010207135352500E+10  -4.083808467176419E-1    2.621058369523593E-1   -5.888470342864885E-4   -6.548895496731905E-4   -5.338293224290049E-4   -6.584350941995614E-4   -2.515875596065312E-1    4.057672595612370E-1
 1.010209370745000E+10  -4.076463793984259E-1    2.631737287983552E-1   -5.977350437044822E-4   -6.432268298115548E-4   -5.289345557868121E-4   -6.433711592972681E-4   -2.504395357042156E-1    4.064480492855396E-1
 1.010211606137500E+10  -4.071294167378401E-1    2.645129984632901E-1   -5.766309281016440E-4   -6.250597525994359E-4   -5.246042965739835E-4   -6.416325888003521E-4   -2.492132926707923E-1    4.071771900463725E-1
 1.010213841530000E+10  -4.063710950330217E-1    2.655635764098578E-1   -6.038013388076505E-4   -6.327096596798544E-4   -5.388127806039390E-4   -6.339214640452501E-4   -2.478539225793071E-1    4.080335410864029E-1
 1.010216076922500E+10  -4.056713812006880E-1    2.666570263434633E-1   -5.937049902268430E-4   -6.451014306472417E-4   -5.184392416080413E-4   -6.444354937941029E-4   -2.467546189188406E-1    4.088490860116809E-1
 1.010218312315000E+10  -4.049552696443995E-1    2.679660718177620E-1   -6.038038913081866E-4   -6.151233054197458E-4   -5.357454324967392E-4   -6.389675526946958E-4   -2.456034444649106E-1    4.097484426231994E-1
 1.010220547707500E+10  -4.042633104573592E-1    2.690361754615097E-1   -6.020834924245449E-4   -6.175216850775587E-4   -5.230318756677076E-4   -6.325207652361079E-4   -2.444342573951287E-1    4.105202581493970E-1
 1.010222783100000E+10  -4.034609801349839E-1    2.703116775122698E-1   -6.194990088780776E-4   -6.428734841128703E-4   -5.273230879865051E-4   -6.322808315331039E-4   -2.430714553620225E-1    4.112391058165008E-1
 1.010225018492500E+10  -4.029538385190675E-1    2.713939577256776E-1   -6.043688631413164E-4   -6.029775823994323E-4   -5.313057430240145E-4   -6.089470989061827E-4   -2.418882568285803E-1    4.121330322385804E-1
 1.010227253885000E+10  -4.021579915920371E-1    2.724740142716864E-1   -5.957277101861367E-4   -6.214635803328410E-4   -5.347886326670201E-4   -6.180166223694815E-4   -2.405813680534322E-1    4.128156662465124E-1
 1.010229489277500E+10  -4.014410916231582E-1    2.737171478261840E-1   -6.005321965953977E-4   -5.864927294341905E-4   -5.406265211807998E-4   -6.228780578291560E-4   -2.394143493881004E-1    4.136081421278479E-1
 1.010231724670000E+10  -4.005961757444659E-1    2.748233057425616E-1   -5.721675040610937E-4   -5.845551083823858E-4   -5.133531302691114E-4   -5.949312810039664E-4   -2.383065863298423E-1    4.144205631551299E-1
 1.010233960062500E+10  -3.999394802611659E-1    2.761008921233665E-1   -5.938438123432093E-4   -5.837485558159575E-4   -5.228349757021859E-4   -6.247491868410107E-4   -2.370483280511988E-1    4.153419308571313E-1
 1.010236195455000E+10  -3.992580404202757E-1    2.772456262795612E-1   -5.798720287901098E-4   -6.176025721202743E-4   -5.157790953669051E-4   -6.183401717218767E-4   -2.355746930532465E-1    4.159691632600812E-1
 1.010238430847500E+10  -3.984751670373999E-1    2.784497155796932E-1   -5.872351444592199E-4   -5.752379801083907E-4   -5.169466989763188E-4   -6.186169650947676E-4   -2.345113661264134E-1    4.166240696032780E-1
 1.010240666240000E+10  -3.979049747825018E-1    2.796277830849209E-1   -5.716929743308375E-4   -5.755346585588301E-4   -5.411030878578375E-4   -5.961205001335260E-4   -2.331369813582662E-1    4.176123166157348E-1
 1.010242901632500E+10  -3.971228252625048E-1    2.807892630768499E-1   -5.715418301350748E-4   -5.605635939500244E-4   -5.210008300906682E-4   -5.933991796315684E-4   -2.319661621314850E-1    4.182568545076715E-1
 1.010245137025000E+10  -3.964506924835443E-1    2.817025539059753E-1   -5.694413878424160E-4   -6.060383018166761E-4   -5.265426773906715E-4   -6.054155490837429E-4   -2.306265832762334E-1    4.190013994745739E-1
