#  HZ   S   RI   R     50.00 
! Rohde & Schwarz Vector Network Analyzer 
! Rohde-Schwarz,ZNB20-2Port,1311601062101988,3.16
! Created: UTC 3/20/2024, 4:57:43 PM
! freq[Hz]                re:S11                  im:S11                  re:S21                  im:S21                  re:S12                  im:S12                  re:S22                  im:S22
 1.010113456300000E+10  -4.337462795628745E-1    2.111175519122852E-1   -5.900862006991386E-4   -7.458271077970330E-4   -5.222005189706725E-4   -7.674427274329613E-4   -2.988901665683825E-1    3.689074815972632E-1
 1.010115334397500E+10  -4.332359760321464E-1    2.119907016702330E-1   -5.984885669940837E-4   -7.595790596274422E-4   -5.161351065711297E-4   -7.680533212575397E-4   -2.981470363089573E-1    3.696538421211766E-1
 1.010117212495000E+10  -4.327590668347613E-1    2.130608606751305E-1   -6.105307187057362E-4   -7.781550842944167E-4   -5.210995351936987E-4   -7.690165643573010E-4   -2.972832817666343E-1    3.705006562352467E-1
 1.010119090592500E+10  -4.323043311981806E-1    2.142051416242959E-1   -5.925609024984140E-4   -7.401981124154811E-4   -5.094161930941170E-4   -7.526818463710302E-4   -2.963068127635149E-1    3.712657227219605E-1
 1.010120968690000E+10  -4.318009901998587E-1    2.152467838760967E-1   -5.936512859806495E-4   -7.384796504201344E-4   -5.271313710612477E-4   -7.722778983901972E-4   -2.954414176584449E-1    3.720853678058872E-1
 1.010122846787500E+10  -4.314892376406390E-1    2.163228703830962E-1   -5.789284667231064E-4   -7.518138138844517E-4   -5.039021406813960E-4   -7.667450141396821E-4   -2.944868013585734E-1    3.728671476086788E-1
 1.010124724885000E+10  -4.310605231851926E-1    2.172468978376421E-1   -6.008633325406890E-4   -7.437968532847906E-4   -5.220727484662539E-4   -7.208045545896659E-4   -2.935319766547316E-1    3.737829101773785E-1
 1.010126602982500E+10  -4.305592915917796E-1    2.183652122156660E-1   -5.752973821839595E-4   -7.320534285167486E-4   -5.156182265577484E-4   -7.696750221718577E-4   -2.926869836695040E-1    3.746525759249683E-1
 1.010128481080000E+10  -4.300334930709945E-1    2.194985367363644E-1   -5.883206331646169E-4   -7.576342338820648E-4   -5.182455121469887E-4   -7.306599201236238E-4   -2.916751407996631E-1    3.753460454064607E-1
 1.010130359177500E+10  -4.296877209839962E-1    2.205495730235527E-1   -6.169913780422478E-4   -7.427239762012707E-4   -5.178915415293949E-4   -7.588700980224952E-4   -2.907384461778237E-1    3.760865618235693E-1
 1.010132237275000E+10  -4.290746752942798E-1    2.214729947093591E-1   -5.833955002984762E-4   -7.359120633202336E-4   -5.269552372782894E-4   -7.204458084158336E-4   -2.899104722639121E-1    3.768527963700175E-1
 1.010134115372500E+10  -4.286679590944221E-1    2.224915142450871E-1   -6.209593848846890E-4   -7.269404230117343E-4   -4.993999070182598E-4   -7.533129896945297E-4   -2.888073171419653E-1    3.777086654319616E-1
 1.010135993470000E+10  -4.281940526019802E-1    2.236267969182611E-1   -6.362805865427697E-4   -7.383534779554022E-4   -5.234249891112242E-4   -7.533159105495998E-4   -2.879977448342504E-1    3.785195825714561E-1
 1.010137871567500E+10  -4.276358861818220E-1    2.247901856669778E-1   -5.785675496885048E-4   -7.343001805688356E-4   -5.362100475741692E-4   -7.232050752730915E-4   -2.870314610385734E-1    3.791968971194306E-1
 1.010139749665000E+10  -4.271662687352402E-1    2.257243878166470E-1   -5.814998361513882E-4   -6.931856753156752E-4   -5.313554391083654E-4   -7.424856680688029E-4   -2.861097660179919E-1    3.800434885008122E-1
 1.010141627762500E+10  -4.267936264648560E-1    2.267081700914392E-1   -6.118319059227824E-4   -7.115926433594345E-4   -5.382505861132261E-4   -7.329260477213553E-4   -2.851657116913179E-1    3.807664838969134E-1
 1.010143505860000E+10  -4.261604280847626E-1    2.278001918545784E-1   -6.384611715877107E-4   -6.970221256966225E-4   -5.296058085970120E-4   -7.479907701427687E-4   -2.843000723701462E-1    3.817018693065653E-1
 1.010145383957500E+10  -4.258066220991879E-1    2.289459675535392E-1   -6.041497780258917E-4   -7.219503160683587E-4   -5.384003091683762E-4   -7.543213993433143E-4   -2.833618060462379E-1    3.822452217669143E-1
 1.010147262055000E+10  -4.252735082710291E-1    2.299464097707663E-1   -6.197277091076091E-4   -7.185073070582588E-4   -5.387707716183645E-4   -7.593241954808906E-4   -2.822903175328262E-1    3.830946231517132E-1
 1.010149140152500E+10  -4.247353656984630E-1    2.308880083994815E-1   -6.085577604908147E-4   -7.100450976363808E-4   -5.225124425255594E-4   -7.348673976337300E-4   -2.814543555597420E-1    3.837837073704438E-1
 1.010151018250000E+10  -4.242234104635791E-1    2.319968263774630E-1   -5.962035385109473E-4   -7.013943791541019E-4   -5.341003699135763E-4   -7.456312793026675E-4   -2.804206630365176E-1    3.845974968945677E-1
 1.010152896347500E+10  -4.237790884156528E-1    2.330880921873257E-1   -5.788528233427387E-4   -7.197943443593066E-4   -5.308910132583471E-4   -7.280397865921662E-4   -2.794913935049180E-1    3.853267779426836E-1
 1.010154774445000E+10  -4.232978339626305E-1    2.339752642968385E-1   -6.178740935619323E-4   -7.204820996912793E-4   -5.300186914801545E-4   -7.178574952408939E-4   -2.785366987477239E-1    3.860713317779346E-1
 1.010156652542500E+10  -4.227477433208386E-1    2.350393360352014E-1   -5.999411121387628E-4   -6.992208064358087E-4   -5.410660682677687E-4   -7.288018950913625E-4   -2.775613601073452E-1    3.870107030532691E-1
 1.010158530640000E+10  -4.223317912865086E-1    2.361072126791322E-1   -6.044834790534229E-4   -7.007365357968069E-4   -5.225624725937938E-4   -7.160248536720284E-4   -2.766949949590065E-1    3.876893418921510E-1
 1.010160408737500E+10  -4.218255942901840E-1    2.370499726536127E-1   -5.900173078334217E-4   -7.064728765168583E-4   -5.440580451973475E-4   -7.167885179153603E-4   -2.757157128984351E-1    3.883164321591822E-1
 1.010162286835000E+10  -4.213499839593422E-1    2.381266861647230E-1   -6.098092750586188E-4   -6.753803579247346E-4   -5.446210830785173E-4   -7.179743731253496E-4   -2.747680891491728E-1    3.890768661427773E-1
 1.010164164932500E+10  -4.208135656711574E-1    2.392718142419722E-1   -6.214017983015329E-4   -6.898582686872069E-4   -5.294996094306134E-4   -7.287614386947240E-4   -2.738160946144948E-1    3.898722896320577E-1
 1.010166043030000E+10  -4.203573144087190E-1    2.401317165533776E-1   -6.272584975416286E-4   -6.793316514202258E-4   -5.360836926786492E-4   -7.000977092919466E-4   -2.727474117740017E-1    3.906214856389036E-1
 1.010167921127500E+10  -4.197142570344146E-1    2.411322873649340E-1   -6.378002643601896E-4   -6.980481175882375E-4   -5.467620858265585E-4   -6.939217902721149E-4   -2.718529961085289E-1    3.914890458846897E-1
 1.010169799225000E+10  -4.191976110407863E-1    2.421566933440197E-1   -6.189512539885974E-4   -6.920131069691024E-4   -5.435261215137449E-4   -7.094477642095383E-4   -2.707748122324453E-1    3.920905849891905E-1
 1.010171677322500E+10  -4.187370909618737E-1    2.432410322528043E-1   -6.161282120514008E-4   -7.234072891858489E-4   -5.501004672059060E-4   -7.192646107222382E-4   -2.698483256643619E-1    3.927625265706729E-1
 1.010173555420000E+10  -4.182227200901427E-1    2.441996886937007E-1   -6.239946511055772E-4   -6.385709462630788E-4   -5.465578904650289E-4   -7.105793730291889E-4   -2.689226788272108E-1    3.935763116691114E-1
 1.010175433517500E+10  -4.175750483569632E-1    2.452437146045031E-1   -6.374857443810534E-4   -6.751856736824803E-4   -5.430661063726076E-4   -7.015293331967189E-4   -2.678888618208011E-1    3.943369451803435E-1
 1.010177311615000E+10  -4.169154127368925E-1    2.463094386040602E-1   -6.240664625086970E-4   -6.841866400649405E-4   -5.589036273995203E-4   -6.892187161477923E-4   -2.669063302368490E-1    3.951663600673602E-1
 1.010179189712500E+10  -4.167500250523995E-1    2.472863941335860E-1   -6.127893218065393E-4   -6.604851175921337E-4   -5.339618962621040E-4   -7.280953568659511E-4   -2.659758345874223E-1    3.958360137920088E-1
 1.010181067810000E+10  -4.160637631655349E-1    2.483035348858167E-1   -6.192619952026161E-4   -6.648220552486575E-4   -5.418498769083749E-4   -7.043637216046330E-4   -2.651413124643090E-1    3.966000871008398E-1
 1.010182945907500E+10  -4.154051125179967E-1    2.493099177214103E-1   -6.259708362892620E-4   -6.909134021727332E-4   -5.560288857065311E-4   -6.809936449424088E-4   -2.640683009558054E-1    3.973273880869666E-1
 1.010184824005000E+10  -4.148873513976197E-1    2.504439301163983E-1   -6.192393997398040E-4   -6.762073187610704E-4   -5.421717115923070E-4   -6.929193038776420E-4   -2.630580290516433E-1    3.980498730815212E-1
 1.010186702102500E+10  -4.144547393626195E-1    2.513162925087447E-1   -6.042035498181969E-4   -6.751744854475119E-4   -5.596374085015222E-4   -6.839542301357056E-4   -2.619552153001530E-1    3.986544678982865E-1
 1.010188580200000E+10  -4.138355227289172E-1    2.524825075793933E-1   -6.240718762027199E-4   -6.642592080720216E-4   -5.487905322813521E-4   -6.899419122262810E-4   -2.610706064925874E-1    3.994679750889333E-1
 1.010190458297500E+10  -4.132278084273103E-1    2.534265325403901E-1   -6.302135897810563E-4   -6.526073660691916E-4   -5.356594161759021E-4   -6.875608769372755E-4   -2.601793147052152E-1    4.003309343548009E-1
 1.010192336395000E+10  -4.127256989083837E-1    2.544533809106710E-1   -6.066790350918238E-4   -6.846527375602211E-4   -5.571132929146818E-4   -6.584301959003696E-4   -2.591357922737434E-1    4.008671489115896E-1
 1.010194214492500E+10  -4.123173453126012E-1    2.553915642176581E-1   -6.279390926420996E-4   -6.573736073046601E-4   -5.372245185438350E-4   -6.753286523992133E-4   -2.581377581509081E-1    4.015910775479213E-1
 1.010196092590000E+10  -4.117062962611686E-1    2.563047885440076E-1   -5.798518279552035E-4   -6.407802893209100E-4   -5.505198197798619E-4   -6.948028068099431E-4   -2.569450251041899E-1    4.021786995313965E-1
 1.010197970687500E+10  -4.111594617630218E-1    2.574048685630633E-1   -6.247130365091020E-4   -6.541175984598460E-4   -5.158930010988635E-4   -6.514390268605416E-4   -2.560242368987518E-1    4.030756681681339E-1
 1.010199848785000E+10  -4.106306457679016E-1    2.583838725151407E-1   -5.989998151138264E-4   -6.224535161213906E-4   -5.409277981719739E-4   -6.874628139259933E-4   -2.549449105370120E-1    4.035940148117308E-1
 1.010201726882500E+10  -4.100512562749020E-1    2.593709838694281E-1   -6.318126079286341E-4   -6.568807863171472E-4   -5.344682851809426E-4   -6.788836667420186E-4   -2.538105933243230E-1    4.043077714042614E-1
 1.010203604980000E+10  -4.094501658759385E-1    2.603147426854442E-1   -5.961033677944290E-4   -6.474296646363300E-4   -5.470465135645364E-4   -6.540235762761592E-4   -2.530676286301958E-1    4.051466723560318E-1
 1.010205483077500E+10  -4.089388948463845E-1    2.613762756535211E-1   -5.969533862191834E-4   -6.426855663592074E-4   -5.427353837949479E-4   -6.487595560729150E-4   -2.519204866658518E-1    4.058520481642487E-1
 1.010207361175000E+10  -4.083736367588992E-1    2.624342010324238E-1   -6.108842933456051E-4   -6.357228460080330E-4   -5.261341106140096E-4   -6.507605148866755E-4   -2.510754759829228E-1    4.063925268217812E-1
 1.010209239272500E+10  -4.077393218248933E-1    2.633340884236601E-1   -5.925580055658697E-4   -6.128618316159143E-4   -5.441712608366454E-4   -6.579930218148734E-4   -2.499702706886704E-1    4.070273773483804E-1
 1.010211117370000E+10  -4.071993726103585E-1    2.643199318763731E-1   -6.129624243188836E-4   -6.085552432488655E-4   -5.692391687873895E-4   -6.480731851424074E-4   -2.489806575530530E-1    4.077944217930657E-1
 1.010212995467500E+10  -4.065519877977363E-1    2.653113336844992E-1   -6.092554588773562E-4   -6.266573609046721E-4   -5.411952478112725E-4   -6.632372488936880E-4   -2.479698017747861E-1    4.084302089749612E-1
 1.010214873565000E+10  -4.059435247493971E-1    2.662364972703409E-1   -5.786952600470116E-4   -5.867476639220719E-4   -5.326685652877835E-4   -6.179346151924184E-4   -2.468368558572604E-1    4.092987316033934E-1
 1.010216751662500E+10  -4.054574571794573E-1    2.673320718238882E-1   -6.075970387864444E-4   -6.081222051949690E-4   -5.458460180723320E-4   -6.288328429024250E-4   -2.459369072975018E-1    4.098043647664258E-1
 1.010218629760000E+10  -4.048485605982049E-1    2.683032162548215E-1   -5.936522523974452E-4   -6.054157817620639E-4   -5.205726625253284E-4   -6.283890588070805E-4   -2.448614623929408E-1    4.105579501467890E-1
 1.010220507857500E+10  -4.043446682939880E-1    2.692160991830111E-1   -6.059213832581871E-4   -6.335700401336391E-4   -5.571679669868009E-4   -6.115196161847136E-4   -2.438755065025937E-1    4.112303062219090E-1
 1.010222385955000E+10  -4.037793617828818E-1    2.703184514078756E-1   -6.197636767656829E-4   -6.123654127895044E-4   -5.424530168925180E-4   -6.160528394977973E-4   -2.428348978932848E-1    4.118933200957847E-1
 1.010224264052500E+10  -4.029974303114681E-1    2.712065471592783E-1   -6.039698456781332E-4   -6.273283280453553E-4   -5.212972097046219E-4   -6.143883344610621E-4   -2.417255748380572E-1    4.126086149634076E-1
 1.010226142150000E+10  -4.024662326878650E-1    2.722340254975243E-1   -6.232628007692099E-4   -6.183923007029281E-4   -5.167351305995039E-4   -6.314334222512974E-4   -2.407174708047806E-1    4.132898622669534E-1
 1.010228020247500E+10  -4.019139288820546E-1    2.732290814278336E-1   -6.305439717668536E-4   -6.055420185458964E-4   -5.398495530200117E-4   -6.147634778744918E-4   -2.395980008020553E-1    4.140355437128415E-1
 1.010229898345000E+10  -4.013340648939985E-1    2.740511184327847E-1   -5.979495136641506E-4   -5.751686975235752E-4   -5.097897164385733E-4   -6.099045182775305E-4   -2.386219770731124E-1    4.145523025332175E-1
 1.010231776442500E+10  -4.007489385439411E-1    2.752553622742038E-1   -6.103568796212715E-4   -5.900360868415973E-4   -5.431712041466352E-4   -6.217815146017434E-4   -2.375811091082028E-1    4.150951660952087E-1
 1.010233654540000E+10  -4.001883212019935E-1    2.761022473585824E-1   -6.147062333589614E-4   -6.048795293809684E-4   -5.270642761704432E-4   -6.186652339347274E-4   -2.366035341084492E-1    4.160199568887093E-1
 1.010235532637500E+10  -3.996238661324203E-1    2.771212109851661E-1   -5.953390541023561E-4   -5.817888399121993E-4   -5.297408084211800E-4   -6.154107847548020E-4   -2.355019469335944E-1    4.165976570599886E-1
 1.010237410735000E+10  -3.989386413953180E-1    2.780285154581478E-1   -6.038027002615940E-4   -5.682482009192108E-4   -5.330195480783732E-4   -6.033388316147491E-4   -2.344833864152710E-1    4.171223788515280E-1
 1.010239288832500E+10  -3.983633643638534E-1    2.789070983764496E-1   -5.991344304988473E-4   -5.738817903482877E-4   -5.198408769443561E-4   -6.078502208762860E-4   -2.334306503949965E-1    4.178190071141559E-1
 1.010241166930000E+10  -3.977269151328452E-1    2.800057132713800E-1   -5.818775578656123E-4   -5.851329660896266E-4   -5.480801534352922E-4   -5.864366022126759E-4   -2.323396214225167E-1    4.184871829652876E-1
 1.010243045027500E+10  -3.970464262944860E-1    2.808063974996646E-1   -6.014394155841442E-4   -5.738629799361490E-4   -5.410243424247444E-4   -6.116749814733768E-4   -2.314452824937786E-1    4.189783980236494E-1
 1.010244923125000E+10  -3.964660780094829E-1    2.819271492635804E-1   -5.720702176002452E-4   -5.459704795853765E-4   -5.179679542309504E-4   -5.891966622061348E-4   -2.301032941556438E-1    4.197117714762165E-1
 1.010246801222500E+10  -3.959326593894026E-1    2.829100780258768E-1   -5.970700253420826E-4   -5.491035503514170E-4   -5.400869651857686E-4   -5.930644970643626E-4   -2.291889456642668E-1    4.203535483754813E-1
 1.010248679320000E+10  -3.951811207963274E-1    2.838131608859739E-1   -5.956162838100246E-4   -5.574821967594854E-4   -5.187955666492976E-4   -5.947336882848280E-4   -2.282715132635048E-1    4.210240476348324E-1
 1.010250557417500E+10  -3.947576103877025E-1    2.847700246729635E-1   -6.061861157840656E-4   -5.458572244409424E-4   -5.251774660911216E-4   -6.117504361229940E-4   -2.270224753568452E-1    4.217805821309611E-1
 1.010252435515000E+10  -3.940893671341357E-1    2.856280635483175E-1   -5.868473154719900E-4   -5.583011937348305E-4   -5.098066331464034E-4   -5.996114255535564E-4   -2.259555159565674E-1    4.222196161041799E-1
 1.010254313612500E+10  -3.933593485249356E-1    2.865521857116951E-1   -5.868139807508994E-4   -5.519204134719448E-4   -5.438859466541883E-4   -5.722672472057881E-4   -2.249687747531794E-1    4.229237341432127E-1
 1.010256191710000E+10  -3.929842234577823E-1    2.876688748341763E-1   -5.749788570752913E-4   -5.559906463496761E-4   -5.153596454260568E-4   -5.892993074839294E-4   -2.238395024609776E-1    4.235720381309819E-1
 1.010258069807500E+10  -3.921100037043500E-1    2.885907905342714E-1   -5.936456246946643E-4   -5.286997319094278E-4   -5.397467910717938E-4   -5.632358566478924E-4   -2.228144358220302E-1    4.241185119801581E-1
 1.010259947905000E+10  -3.915607541529823E-1    2.895269230769950E-1   -5.530519868057080E-4   -5.688739687835808E-4   -5.140150843573070E-4   -5.734278605491774E-4   -2.217550992604837E-1    4.248604663278616E-1
 1.010261826002500E+10  -3.908490258669543E-1    2.904928366376729E-1   -5.919612881536768E-4   -5.597781041932809E-4   -4.954783588787402E-4   -5.874624011302162E-4   -2.206903966511187E-1    4.253800691071322E-1
 1.010263704100000E+10  -3.901201898489096E-1    2.914433610816892E-1   -5.675408855719281E-4   -5.337021219588609E-4   -5.118784170704326E-4   -5.701098970285536E-4   -2.196509362877168E-1    4.260459278564206E-1
 1.010265582197500E+10  -3.897347495441144E-1    2.925357610724730E-1   -5.826950552391792E-4   -5.391731123847969E-4   -5.205980249493912E-4   -5.572481576563884E-4   -2.184447639504304E-1    4.265312684473038E-1
 1.010267460295000E+10  -3.889841525454470E-1    2.933302649536758E-1   -5.748521662150676E-4   -5.318429716146355E-4   -5.128649306065058E-4   -5.516435052133149E-4   -2.173509362281495E-1    4.272509991915133E-1
 1.010269338392500E+10  -3.883658929913998E-1    2.943294950633506E-1   -5.606349907120318E-4   -5.124002593209046E-4   -5.050116812087149E-4   -5.541897240227356E-4   -2.162829278419392E-1    4.277845328647099E-1
 1.010271216490000E+10  -3.875702381326512E-1    2.952563642643855E-1   -5.722698957537424E-4   -5.377134536826191E-4   -5.074878281351364E-4   -5.651408722084813E-4   -2.152032401505241E-1    4.284264622657507E-1
 1.010273094587500E+10  -3.870794559787040E-1    2.961959378810570E-1   -5.654831545692057E-4   -4.950452019354739E-4   -4.971237774072648E-4   -5.266351729828027E-4   -2.141582247172245E-1    4.289636399256714E-1
 1.010274972685000E+10  -3.863461337946175E-1    2.970834994006497E-1   -5.942274262182580E-4   -5.186397712022084E-4   -4.814360854854300E-4   -5.546442007257228E-4   -2.130447088613891E-1    4.295494882382034E-1
 1.010276850782500E+10  -3.856761912767679E-1    2.979225510769479E-1   -5.468110142235442E-4   -5.227427662474532E-4   -4.973600759972172E-4   -5.674519467591082E-4   -2.119359763142879E-1    4.303109057685491E-1
 1.010278728880000E+10  -3.850348133809840E-1    2.989811289294416E-1   -5.546987939099678E-4   -5.218179705032541E-4   -5.046381215226720E-4   -5.353825555491364E-4   -2.107932827857134E-1    4.308355755857874E-1
 1.010280606977500E+10  -3.846363431720015E-1    2.999295153279686E-1   -5.329297903047010E-4   -5.039713883448777E-4   -4.796605841138151E-4   -5.296221975896430E-4   -2.097267981289531E-1    4.313173590863440E-1
 1.010282485075000E+10  -3.839480680672842E-1    3.008062925716357E-1   -5.338605029355059E-4   -4.937674551614195E-4   -4.893286392386265E-4   -5.235892950161750E-4   -2.086898097048650E-1    4.318642469401180E-1
