#  HZ   S   RI   R     50.00 
! Rohde & Schwarz Vector Network Analyzer 
! Rohde-Schwarz,ZNB20-2Port,1311601062101988,3.16
! Created: UTC 3/20/2024, 4:57:48 PM
! freq[Hz]                re:S11                  im:S11                  re:S21                  im:S21                  re:S12                  im:S12                  re:S22                  im:S22
 1.010109737900000E+10  -4.345523217627981E-1    2.090221435438398E-1   -5.955500763382619E-4   -7.360155902590076E-4   -5.259472908375583E-4   -7.880882221573655E-4   -3.009150195424959E-1    3.673342561056089E-1
 1.010111637007500E+10  -4.340867797545462E-1    2.101129746820784E-1   -6.029196317343640E-4   -7.555029428085466E-4   -5.011095133268113E-4   -7.826434479671735E-4   -2.999667566700970E-1    3.681266839101151E-1
 1.010113536115000E+10  -4.337086736598206E-1    2.111817459130569E-1   -6.043587058304851E-4   -7.622294347865713E-4   -4.864656368828352E-4   -7.654304032796644E-4   -2.990538415327928E-1    3.689285289332131E-1
 1.010115435222500E+10  -4.331160720792347E-1    2.121633019449194E-1   -5.970074779532953E-4   -7.502650104734127E-4   -5.023602075230672E-4   -7.607888699102593E-4   -2.980405224637721E-1    3.696648823189734E-1
 1.010117334330000E+10  -4.327569219068879E-1    2.132832601187241E-1   -5.981499329000941E-4   -7.603943629063945E-4   -4.966522465430818E-4   -7.738333192528261E-4   -2.971006046351370E-1    3.705486591687488E-1
 1.010119233437500E+10  -4.322488017583472E-1    2.143754818361189E-1   -5.987095115922374E-4   -7.363002447881505E-4   -5.213142509351043E-4   -7.683772739226694E-4   -2.962827549968902E-1    3.714289157029925E-1
 1.010121132545000E+10  -4.318218186127740E-1    2.154708215289014E-1   -5.950325664113677E-4   -7.529228950840951E-4   -4.964378807735626E-4   -7.855607195668615E-4   -2.952581945520401E-1    3.720273283395538E-1
 1.010123031652500E+10  -4.313853561669199E-1    2.163317895822743E-1   -5.864174958049198E-4   -7.557242941079931E-4   -5.160382800120576E-4   -7.633997853444020E-4   -2.944868661440895E-1    3.729796032724200E-1
 1.010124930760000E+10  -4.309414676173988E-1    2.174512170107194E-1   -6.283534461142016E-4   -7.530733741038883E-4   -5.212627882980453E-4   -7.797808431362722E-4   -2.933855651362237E-1    3.738516773560721E-1
 1.010126829867500E+10  -4.304299025045610E-1    2.185382902396306E-1   -6.106468015253671E-4   -7.242977509454013E-4   -5.292008438549323E-4   -7.647267037981873E-4   -2.925942242100295E-1    3.745601088104154E-1
 1.010128728975000E+10  -4.299855561912257E-1    2.196889484122058E-1   -6.067380936554820E-4   -7.190984273476728E-4   -5.248168885440651E-4   -7.568590775687835E-4   -2.915588986852846E-1    3.754015689475945E-1
 1.010130628082500E+10  -4.294329384821925E-1    2.207059937414116E-1   -6.087014573609959E-4   -7.235473325837664E-4   -5.228315632864924E-4   -7.590457592043126E-4   -2.906159155539413E-1    3.762513740441590E-1
 1.010132527190000E+10  -4.289217878603367E-1    2.217402628236384E-1   -5.983064041082867E-4   -7.337052952746062E-4   -5.205357435329678E-4   -7.537876692477517E-4   -2.896678896810284E-1    3.769838276546040E-1
 1.010134426297500E+10  -4.286218543108207E-1    2.228231406453642E-1   -6.023153657983494E-4   -7.227965147130410E-4   -5.160018993292224E-4   -7.227718990434997E-4   -2.887953175550663E-1    3.777452698434746E-1
 1.010136325405000E+10  -4.281549589858915E-1    2.237489924526193E-1   -6.128710832681197E-4   -7.413394992197941E-4   -5.271588132891797E-4   -7.684692062162252E-4   -2.876845629581629E-1    3.786306913293209E-1
 1.010138224512500E+10  -4.275857514390665E-1    2.248720640464316E-1   -6.028471463418827E-4   -7.338546718956850E-4   -5.341814858241108E-4   -7.426292331023122E-4   -2.868925997789021E-1    3.792202187430418E-1
 1.010140123620000E+10  -4.271188430169904E-1    2.258959756422483E-1   -6.107220875513166E-4   -7.529148243768098E-4   -5.278116038147293E-4   -7.395566989604161E-4   -2.858981319070973E-1    3.802006469306947E-1
 1.010142022727500E+10  -4.265385674415106E-1    2.271877604541047E-1   -5.893552818678301E-4   -7.139491697702007E-4   -5.481607922970185E-4   -7.385401553188773E-4   -2.848982963614721E-1    3.809693561893483E-1
 1.010143921835000E+10  -4.261573755435976E-1    2.280990792654882E-1   -5.747101980360554E-4   -7.217825093171422E-4   -5.525658690249835E-4   -7.310789943727007E-4   -2.840496584552606E-1    3.817923882587417E-1
 1.010145820942500E+10  -4.257271857054064E-1    2.291230220491851E-1   -6.070201485969463E-4   -7.087730060446229E-4   -5.535074770734975E-4   -7.350037645146123E-4   -2.830735974198144E-1    3.824994525826825E-1
 1.010147720050000E+10  -4.250867423932495E-1    2.301243047361805E-1   -6.056499186276817E-4   -7.065166925288276E-4   -5.201880919835876E-4   -7.401603200221762E-4   -2.821231623828603E-1    3.833192629324464E-1
 1.010149619157500E+10  -4.246995356959229E-1    2.312089195918194E-1   -6.120245089959433E-4   -6.955181931486930E-4   -5.252678247428228E-4   -7.173586260493633E-4   -2.812284916256735E-1    3.841501951303407E-1
 1.010151518265000E+10  -4.240533631041880E-1    2.322797401102548E-1   -6.029835874792487E-4   -7.037089689708083E-4   -5.089967234567727E-4   -7.470522225058644E-4   -2.801651812541269E-1    3.848184431602584E-1
 1.010153417372500E+10  -4.237748090405241E-1    2.331416676803927E-1   -5.984635345151155E-4   -7.152555885592556E-4   -4.902408828630192E-4   -7.425636966015709E-4   -2.792600886408729E-1    3.856569179574756E-1
 1.010155316480000E+10  -4.231148928189853E-1    2.343669053322477E-1   -5.982923936952321E-4   -6.963423883656457E-4   -4.895811033416449E-4   -7.274958982138763E-4   -2.782398426370755E-1    3.864706667888065E-1
 1.010157215587500E+10  -4.225798431116603E-1    2.352730070789192E-1   -5.908374176811056E-4   -7.025874856442844E-4   -5.508901716909664E-4   -7.038747337908290E-4   -2.772799145520866E-1    3.871261067849773E-1
 1.010159114695000E+10  -4.221450184156219E-1    2.364066940390145E-1   -5.930237014941743E-4   -6.992705773250220E-4   -5.453643288749025E-4   -7.044080771202268E-4   -2.763600743075901E-1    3.879169654235760E-1
 1.010161013802500E+10  -4.216391791435538E-1    2.374432005246377E-1   -5.838930641629284E-4   -6.982521952368638E-4   -5.325570219352183E-4   -7.161593453678808E-4   -2.752557467898302E-1    3.886703032869808E-1
 1.010162912910000E+10  -4.209557872232171E-1    2.384020712771205E-1   -6.157588011979920E-4   -6.978959631156475E-4   -5.264039821543668E-4   -7.425446061137589E-4   -2.744289126863324E-1    3.894943952575365E-1
 1.010164812017500E+10  -4.206120784386201E-1    2.396349979316436E-1   -6.178491040184077E-4   -6.954126521413381E-4   -5.438073828509767E-4   -7.266922866897905E-4   -2.734025465483659E-1    3.902415852045701E-1
 1.010166711125000E+10  -4.200406348923623E-1    2.404428677198724E-1   -5.908368772332864E-4   -7.014726187966609E-4   -5.451570815964692E-4   -6.935327596395765E-4   -2.724460214307173E-1    3.909424094973457E-1
 1.010168610232500E+10  -4.194231107353610E-1    2.415378298785746E-1   -6.193145820207745E-4   -7.037548534266744E-4   -5.184470039853308E-4   -6.930239340356784E-4   -2.714794859623297E-1    3.916683963515489E-1
 1.010170509340000E+10  -4.189647750352702E-1    2.425120575906486E-1   -6.191473443142956E-4   -6.968526395659387E-4   -5.258989075308570E-4   -7.079332319078226E-4   -2.704053266573686E-1    3.925103595252112E-1
 1.010172408447500E+10  -4.185749784284902E-1    2.435769196100764E-1   -6.137590362943939E-4   -6.885792718791591E-4   -5.076432870760368E-4   -7.120659350923214E-4   -2.695182541943310E-1    3.930716256085198E-1
 1.010174307555000E+10  -4.180401506440407E-1    2.448125472552888E-1   -6.179715312161654E-4   -6.783310721205299E-4   -5.410266005753241E-4   -6.949436300700955E-4   -2.684758361489628E-1    3.938647632449054E-1
 1.010176206662500E+10  -4.174399100382346E-1    2.456157791959815E-1   -6.308439151687422E-4   -6.858719036673218E-4   -5.509472569460727E-4   -6.951645589741987E-4   -2.676233259443497E-1    3.946933147621587E-1
 1.010178105770000E+10  -4.169950426986326E-1    2.468321255024771E-1   -5.879986176853982E-4   -6.594901495004699E-4   -5.457346485281248E-4   -6.806285673787051E-4   -2.664573844569768E-1    3.952964942829701E-1
 1.010180004877500E+10  -4.163806143222623E-1    2.477103752645337E-1   -5.921338527630231E-4   -6.652526325076488E-4   -5.249127465006663E-4   -7.046204637352367E-4   -2.656023642943240E-1    3.962007892158367E-1
 1.010181903985000E+10  -4.159425516888884E-1    2.487752935140515E-1   -5.948281195725407E-4   -6.554228935554846E-4   -5.272732872897941E-4   -7.062557466345843E-4   -2.644492667562416E-1    3.968692864990417E-1
 1.010183803092500E+10  -4.152317650490156E-1    2.498971512912528E-1   -6.197321438512134E-4   -6.722907720282372E-4   -5.451428984888488E-4   -7.026692777227535E-4   -2.634658711237721E-1    3.974949170083046E-1
 1.010185702200000E+10  -4.147265657431052E-1    2.508275784794071E-1   -6.005308084236320E-4   -6.823661382299806E-4   -5.393537960456336E-4   -6.776067181593903E-4   -2.625233098725109E-1    3.983443071631641E-1
 1.010187601307500E+10  -4.143393271438979E-1    2.519073296122075E-1   -6.179815662186058E-4   -6.600263702987029E-4   -5.425219876137785E-4   -6.864487238955145E-4   -2.615490514708599E-1    3.991091090691500E-1
 1.010189500415000E+10  -4.135819677513213E-1    2.527733165711688E-1   -6.319023681580358E-4   -6.547960847868570E-4   -5.422400203125263E-4   -6.809508891253847E-4   -2.604575912262435E-1    3.998533222457706E-1
 1.010191399522500E+10  -4.132439780837776E-1    2.539135157786911E-1   -6.015133702733131E-4   -6.410383857010908E-4   -5.414252490438400E-4   -6.731705679360774E-4   -2.595229280298829E-1    4.004759454716355E-1
 1.010193298630000E+10  -4.124504128315660E-1    2.547757103858960E-1   -5.962690655220258E-4   -6.599845993921520E-4   -5.462876828368347E-4   -6.679988070586377E-4   -2.585280249884687E-1    4.012087689238922E-1
 1.010195197737500E+10  -4.118242506818464E-1    2.560456515279156E-1   -6.228476768477500E-4   -6.424190251519698E-4   -5.395948439382341E-4   -6.477056592567767E-4   -2.575060433965646E-1    4.018346976392822E-1
 1.010197096845000E+10  -4.113268902024632E-1    2.569139834099835E-1   -6.206417958527166E-4   -6.586044913719566E-4   -5.594759071325721E-4   -6.559133761610993E-4   -2.565354851818821E-1    4.027006296856175E-1
 1.010198995952500E+10  -4.107443928860871E-1    2.580365462308909E-1   -6.254968423493156E-4   -6.358257623342254E-4   -5.321029478357531E-4   -6.437045202156555E-4   -2.555434870604897E-1    4.032871878171159E-1
 1.010200895060000E+10  -4.102895572004919E-1    2.589609814346496E-1   -5.944816981578864E-4   -6.512014238333046E-4   -5.296662199675060E-4   -6.385737977797540E-4   -2.545161381065039E-1    4.040824866381488E-1
 1.010202794167500E+10  -4.096133401771362E-1    2.598246038940415E-1   -6.150796591322935E-4   -6.411904059443435E-4   -5.468765377456341E-4   -6.934010403157111E-4   -2.534652416437816E-1    4.048451660194148E-1
 1.010204693275000E+10  -4.091577994858780E-1    2.609788585610665E-1   -5.932070368756191E-4   -6.367588655549187E-4   -5.424357094845784E-4   -6.592096239051795E-4   -2.524959127310642E-1    4.055079283944817E-1
 1.010206592382500E+10  -4.085956665731794E-1    2.619333409460359E-1   -6.175644825532277E-4   -6.599700374847352E-4   -5.355792119764129E-4   -6.726319908988904E-4   -2.513421917724994E-1    4.062026417161685E-1
 1.010208491490000E+10  -4.079676583198031E-1    2.629467138793354E-1   -6.265753208171300E-4   -6.506677538124804E-4   -5.632491798786162E-4   -6.534827242895439E-4   -2.503075355999415E-1    4.067416311714697E-1
 1.010210390597500E+10  -4.073944126502946E-1    2.639392612785466E-1   -6.103037028246316E-4   -6.149041304770254E-4   -5.383391877749933E-4   -6.806004869606120E-4   -2.494735103397131E-1    4.075190987419660E-1
 1.010212289705000E+10  -4.067534184405305E-1    2.649023325894457E-1   -6.164202651799594E-4   -6.102639584756759E-4   -5.398467339880462E-4   -6.620280960930806E-4   -2.483938323125839E-1    4.081509319182650E-1
 1.010214188812500E+10  -4.062381813225469E-1    2.658911742303262E-1   -6.092630195830087E-4   -5.980648202334002E-4   -5.246781972997500E-4   -6.383827164777272E-4   -2.472511823286175E-1    4.089004016657333E-1
 1.010216087920000E+10  -4.056778813902405E-1    2.669391469196182E-1   -6.365480897701257E-4   -6.215878017643927E-4   -5.601655294636925E-4   -6.224797918491529E-4   -2.462427760808817E-1    4.097727688402471E-1
 1.010217987027500E+10  -4.049894099581008E-1    2.679445608973727E-1   -5.917256195928390E-4   -6.554129676742046E-4   -5.468110464318093E-4   -6.423119179927254E-4   -2.451775090288709E-1    4.102893734548810E-1
 1.010219886135000E+10  -4.045277555869288E-1    2.690647117635212E-1   -6.274079942657196E-4   -6.245497986524336E-4   -5.276306436789699E-4   -6.174430825949864E-4   -2.441650001849676E-1    4.109879399953856E-1
 1.010221785242500E+10  -4.038525142895126E-1    2.699677845240739E-1   -5.771375858102818E-4   -6.194589618141758E-4   -5.347428064310237E-4   -6.335359552765087E-4   -2.430218260404197E-1    4.115657575224317E-1
 1.010223684350000E+10  -4.033154306546334E-1    2.709559268926032E-1   -5.941816503765469E-4   -6.124071247311550E-4   -5.430273944167918E-4   -6.270053573271860E-4   -2.421242506497041E-1    4.122926108507755E-1
 1.010225583457500E+10  -4.027855660992281E-1    2.717959566727564E-1   -6.072712529713635E-4   -5.966140487028903E-4   -5.181979996305225E-4   -6.088142896500450E-4   -2.410910409733427E-1    4.130064244072009E-1
 1.010227482565000E+10  -4.021797624671611E-1    2.728263584698896E-1   -5.685167572672938E-4   -5.920561541088216E-4   -5.395228377844484E-4   -6.032471844839666E-4   -2.399565872213260E-1    4.138296333257279E-1
 1.010229381672500E+10  -4.015271288966995E-1    2.739634709897020E-1   -6.030077003233484E-4   -6.050412088743057E-4   -5.292492566830856E-4   -6.086869766257564E-4   -2.387988633286681E-1    4.143953974695313E-1
 1.010231280780000E+10  -4.008946408396695E-1    2.749035135292462E-1   -6.113508726499799E-4   -6.123721586341486E-4   -5.063885368133306E-4   -6.103284618924111E-4   -2.378329865283186E-1    4.149796249674624E-1
 1.010233179887500E+10  -4.004866946846256E-1    2.757533133245227E-1   -5.921969384261606E-4   -5.868980790974870E-4   -5.561395830381166E-4   -5.937121603857497E-4   -2.368509677206697E-1    4.156849045605093E-1
 1.010235078995000E+10  -3.996142461289771E-1    2.769921172197503E-1   -6.016785042178173E-4   -5.929647216962274E-4   -5.354294038789479E-4   -6.229929697385010E-4   -2.358123596181243E-1    4.163078993410016E-1
 1.010236978102500E+10  -3.990683483079362E-1    2.778893754113657E-1   -6.182282401176580E-4   -5.900112636181030E-4   -5.245981402085687E-4   -6.078315540926732E-4   -2.346126108764394E-1    4.169758896742222E-1
 1.010238877210000E+10  -3.985969084143583E-1    2.788735749868844E-1   -6.051193613136949E-4   -5.695558671247562E-4   -5.325752094006863E-4   -6.109632210899931E-4   -2.336035561046187E-1    4.177862237420713E-1
 1.010240776317500E+10  -3.980302771338144E-1    2.798115077547484E-1   -5.676344710418220E-4   -5.720196384197710E-4   -5.298053676451713E-4   -5.985466289464839E-4   -2.325323007883700E-1    4.184743125427473E-1
 1.010242675425000E+10  -3.972881729250087E-1    2.808192106861007E-1   -5.947824500705669E-4   -5.756476054268197E-4   -5.419595934779005E-4   -6.033969306795721E-4   -2.315462517675917E-1    4.189742755039472E-1
 1.010244574532500E+10  -3.966285352019278E-1    2.817705409848641E-1   -5.879128323894970E-4   -5.842800735474066E-4   -5.173734131601472E-4   -5.988447647233779E-4   -2.303944549553459E-1    4.195463303740203E-1
 1.010246473640000E+10  -3.960191885864939E-1    2.827083273383058E-1   -6.062030613943820E-4   -5.651613399462543E-4   -5.264102330556238E-4   -5.888060856390597E-4   -2.294318646724703E-1    4.203426081474287E-1
 1.010248372747500E+10  -3.955246824636106E-1    2.837568422810692E-1   -6.017841078218104E-4   -5.866581025799792E-4   -5.336719116931535E-4   -5.968159095026431E-4   -2.283037118027807E-1    4.208594013481331E-1
 1.010250271855000E+10  -3.947486213625515E-1    2.846173289192434E-1   -5.662850653316295E-4   -5.818823741617278E-4   -5.381952493073234E-4   -5.966795811212698E-4   -2.272750399142593E-1    4.215733847853782E-1
 1.010252170962500E+10  -3.940400862196320E-1    2.855956238537503E-1   -5.800793116317476E-4   -5.576364968111791E-4   -5.247327604202757E-4   -5.906049450893794E-4   -2.261799094087071E-1    4.219975860205049E-1
 1.010254070070000E+10  -3.935185401711518E-1    2.866195494902265E-1   -5.722679284430211E-4   -5.623450851511127E-4   -5.091974963803022E-4   -5.761567600931448E-4   -2.251406253660354E-1    4.227040710492335E-1
 1.010255969177500E+10  -3.928352968643373E-1    2.875795109840473E-1   -6.041819271127043E-4   -5.649134011769483E-4   -5.139582967655013E-4   -5.889768099295901E-4   -2.240217597155906E-1    4.234910839108676E-1
 1.010257868285000E+10  -3.922218464403509E-1    2.885862702177598E-1   -5.795790104335510E-4   -5.616762158364955E-4   -5.059554573715094E-4   -5.838669955191627E-4   -2.228260626092506E-1    4.239685993186381E-1
 1.010259767392500E+10  -3.914568126571142E-1    2.893319163978688E-1   -5.803976420270687E-4   -5.477437950167493E-4   -5.263269272962605E-4   -5.675920193729227E-4   -2.218038987347515E-1    4.246612392063536E-1
 1.010261666500000E+10  -3.909470341998680E-1    2.903989697646777E-1   -5.573119223905163E-4   -5.372905383182402E-4   -5.073208097450403E-4   -5.867552987780499E-4   -2.208212437563037E-1    4.251779405785779E-1
 1.010263565607500E+10  -3.902659377412104E-1    2.914409130730511E-1   -5.627668667162125E-4   -5.331922933675541E-4   -5.110981691310631E-4   -5.676251876434603E-4   -2.196515226512681E-1    4.259729230166748E-1
 1.010265464715000E+10  -3.896069469065278E-1    2.923498409022854E-1   -5.918210207438636E-4   -5.427979244678750E-4   -5.101110338424832E-4   -5.678215176079025E-4   -2.184944163030742E-1    4.266564858568463E-1
 1.010267363822500E+10  -3.891565736762701E-1    2.933179377156151E-1   -5.673287468560220E-4   -5.472692902207903E-4   -5.094743743631894E-4   -5.615140915084956E-4   -2.174245091963469E-1    4.271297038470145E-1
 1.010269262930000E+10  -3.882665829545859E-1    2.942754939118665E-1   -5.521990902711709E-4   -5.249741662087107E-4   -5.128074585696466E-4   -5.481050594313375E-4   -2.164023312195499E-1    4.277354118126692E-1
 1.010271162037500E+10  -3.877448218194272E-1    2.952183128171538E-1   -5.782988511129251E-4   -5.349365746552438E-4   -4.957197178253035E-4   -5.486887076128681E-4   -2.154377809557334E-1    4.282804791535325E-1
 1.010273061145000E+10  -3.871098460579522E-1    2.961123853764144E-1   -5.578983504096623E-4   -5.334413705542089E-4   -4.740714551128904E-4   -5.486175323558679E-4   -2.141349463018387E-1    4.289921509657519E-1
 1.010274960252500E+10  -3.865474549420709E-1    2.970705772978135E-1   -5.757315974117509E-4   -5.212184057561005E-4   -4.575631651561695E-4   -5.463507144092862E-4   -2.129982684127198E-1    4.295267722882126E-1
 1.010276859360000E+10  -3.856046345639162E-1    2.980869740145004E-1   -5.477396899647621E-4   -5.308516956917524E-4   -4.882761236030379E-4   -5.557071162887533E-4   -2.118132137875611E-1    4.300681247735535E-1
 1.010278758467500E+10  -3.851133473608945E-1    2.990429541927813E-1   -5.570588010081848E-4   -5.520130110647581E-4   -4.997101931992357E-4   -5.475665253766280E-4   -2.108716760512775E-1    4.306470749535541E-1
 1.010280657575000E+10  -3.844151198281730E-1    2.999739621153554E-1   -5.477231632912219E-4   -4.904398616198379E-4   -5.104935641101239E-4   -5.303144540443346E-4   -2.097434334742237E-1    4.313147506346346E-1
