#  HZ   S   RI   R     50.00 
! Rohde & Schwarz Vector Network Analyzer 
! Rohde-Schwarz,ZNB20-2Port,1311601062101988,3.16
! Created: UTC 3/20/2024, 4:57:53 PM
! freq[Hz]                re:S11                  im:S11                  re:S21                  im:S21                  re:S12                  im:S12                  re:S22                  im:S22
 1.010105256900000E+10  -4.356881787324289E-1    2.064799553940545E-1   -5.765057887624904E-4   -7.605747024903290E-4   -5.205427765129768E-4   -7.764897807635825E-4   -3.030017600112118E-1    3.652847978303770E-1
 1.010107178000000E+10  -4.351606447408572E-1    2.075752577855880E-1   -5.803987094760851E-4   -7.374432548010331E-4   -5.080531196017609E-4   -7.648503997357233E-4   -3.021462666528606E-1    3.662020229451650E-1
 1.010109099100000E+10  -4.348032165156015E-1    2.087026096678164E-1   -5.928851482605406E-4   -7.416985091498278E-4   -4.741379453856631E-4   -7.628535744570530E-4   -3.011804819935552E-1    3.669717048120789E-1
 1.010111020200000E+10  -4.342869088238999E-1    2.096518445093561E-1   -5.718817399437356E-4   -7.742420565957592E-4   -4.987225181202367E-4   -7.667705551302174E-4   -3.001854328681504E-1    3.677511354764200E-1
 1.010112941300000E+10  -4.338924386508773E-1    2.108221723537944E-1   -5.994292884597480E-4   -7.783887961102945E-4   -4.924403678783271E-4   -7.750372718017816E-4   -2.992202624021082E-1    3.687012640581705E-1
 1.010114862400000E+10  -4.333429836640916E-1    2.118025754822262E-1   -5.747288362678675E-4   -7.676830464434951E-4   -5.078868560151527E-4   -7.679164289695578E-4   -2.984327301898204E-1    3.695890543538184E-1
 1.010116783500000E+10  -4.330381226659243E-1    2.128453936853808E-1   -5.702669991040099E-4   -7.733240441793805E-4   -5.110808321092468E-4   -7.497647715541612E-4   -2.972900512472931E-1    3.702499723658366E-1
 1.010118704600000E+10  -4.324966578881549E-1    2.138919416012016E-1   -6.119385988082650E-4   -7.633807848738096E-4   -5.111042131864672E-4   -7.539409897940114E-4   -2.965352167415162E-1    3.711218908643427E-1
 1.010120625700000E+10  -4.318781980786441E-1    2.151438160461826E-1   -5.915385761235209E-4   -7.371242254541486E-4   -5.303448215551322E-4   -7.546143059072067E-4   -2.955592463176543E-1    3.720535534094301E-1
 1.010122546800000E+10  -4.315043855662084E-1    2.161057317243105E-1   -5.745970691806835E-4   -7.199314169327587E-4   -5.106335214447968E-4   -7.454110977297564E-4   -2.946797807285686E-1    3.727676942227465E-1
 1.010124467900000E+10  -4.311144467700257E-1    2.172186458858610E-1   -5.833906617743629E-4   -7.538690281028921E-4   -5.173350475174450E-4   -7.649862657849807E-4   -2.936336141163434E-1    3.736371662886164E-1
 1.010126389000000E+10  -4.306060709869608E-1    2.183532188039944E-1   -5.976588513003378E-4   -7.421683881998236E-4   -5.067715273447549E-4   -7.496188890693038E-4   -2.926999970036002E-1    3.743034056039303E-1
 1.010128310100000E+10  -4.301362177542825E-1    2.193295800554574E-1   -6.089824861797811E-4   -7.360949420317887E-4   -5.275855561602191E-4   -7.712513744345266E-4   -2.917580874628174E-1    3.751188923760916E-1
 1.010130231200000E+10  -4.296463768251379E-1    2.205497345110556E-1   -5.775732114539066E-4   -7.378517544849240E-4   -5.362590538177050E-4   -7.369490378340025E-4   -2.908728324160013E-1    3.760105149249721E-1
 1.010132152300000E+10  -4.291439375523188E-1    2.216139264885800E-1   -5.932081706403783E-4   -7.192880025224537E-4   -5.078072280146386E-4   -7.721361683735560E-4   -2.899042122544355E-1    3.768434402363124E-1
 1.010134073400000E+10  -4.286965641154480E-1    2.225871355220782E-1   -5.908538990432290E-4   -7.373956646864673E-4   -5.136405820604329E-4   -7.606186770513156E-4   -2.889455927170848E-1    3.775378380104488E-1
 1.010135994500000E+10  -4.282042041861011E-1    2.236939964960757E-1   -5.927552289428195E-4   -7.255129194877851E-4   -5.128942584455006E-4   -7.448480851958482E-4   -2.880349842777517E-1    3.784194372683546E-1
 1.010137915600000E+10  -4.276272838285020E-1    2.246999198691619E-1   -6.042346531700407E-4   -7.176446358901453E-4   -5.151554532279710E-4   -7.424295641815270E-4   -2.870564055471002E-1    3.792572973092893E-1
 1.010139836700000E+10  -4.272515184844398E-1    2.256949586531427E-1   -6.349264022021095E-4   -7.360814565832075E-4   -5.532186947534371E-4   -7.261087784746830E-4   -2.860179672181495E-1    3.800617486211552E-1
 1.010141757800000E+10  -4.267642479912031E-1    2.268734475580828E-1   -6.207423422593224E-4   -7.333900518625080E-4   -5.369667468292923E-4   -7.279774413009321E-4   -2.850322320022804E-1    3.806352279256249E-1
 1.010143678900000E+10  -4.262874480196044E-1    2.279597288418504E-1   -6.106841380458265E-4   -7.320942332955570E-4   -5.418895478086366E-4   -7.180153602060779E-4   -2.841391665309438E-1    3.817244865914283E-1
 1.010145600000000E+10  -4.256690489852066E-1    2.290023398835453E-1   -6.000144790707707E-4   -7.261360102268316E-4   -5.443056452338129E-4   -7.439366671687249E-4   -2.832505171077093E-1    3.824291769541051E-1
 1.010147521100000E+10  -4.252397408449626E-1    2.300846277849148E-1   -6.092224517918220E-4   -7.381649509994989E-4   -5.117507053025117E-4   -7.298377891106979E-4   -2.822721167949191E-1    3.831361751214061E-1
 1.010149442200000E+10  -4.247105853422801E-1    2.311389488379517E-1   -5.835737772622400E-4   -6.959422930314002E-4   -5.297797094584495E-4   -7.320796748112599E-4   -2.812685794207604E-1    3.838030966085430E-1
 1.010151363300000E+10  -4.241101615574948E-1    2.320810542610335E-1   -6.053889675735756E-4   -7.135799402039694E-4   -5.284008453346786E-4   -7.165353675034575E-4   -2.803346502946896E-1    3.848686419681803E-1
 1.010153284400000E+10  -4.237251860286133E-1    2.331656972926167E-1   -5.780562492504555E-4   -6.898595345538458E-4   -5.259121856086912E-4   -7.467630350641386E-4   -2.792275940920457E-1    3.856843395228983E-1
 1.010155205500000E+10  -4.231373537441706E-1    2.341888833772317E-1   -5.994159958926201E-4   -7.110512646849964E-4   -5.381952639344029E-4   -7.197111629899292E-4   -2.783177822173106E-1    3.863246724318552E-1
 1.010157126600000E+10  -4.225372496576016E-1    2.352795217086118E-1   -6.154462386867804E-4   -7.018972624729776E-4   -5.072478389988089E-4   -7.441856847587177E-4   -2.773050555726957E-1    3.870493760287197E-1
 1.010159047700000E+10  -4.221856441591151E-1    2.364409773960155E-1   -6.149131153944384E-4   -6.882174867379925E-4   -5.168960611462976E-4   -7.229658658030317E-4   -2.762648402518056E-1    3.877697855466740E-1
 1.010160968800000E+10  -4.215624618323124E-1    2.373730631156520E-1   -6.325912650311485E-4   -6.906538991166672E-4   -5.411755287131348E-4   -7.186180806842147E-4   -2.754256122337320E-1    3.886073400118822E-1
 1.010162889900000E+10  -4.210837885359660E-1    2.385183713361583E-1   -6.184228378137011E-4   -6.777417211175657E-4   -5.419701870233222E-4   -6.974234498515618E-4   -2.743615877358946E-1    3.893654950583638E-1
 1.010164811000000E+10  -4.204338339999831E-1    2.394619224937361E-1   -5.937088091756864E-4   -7.198344076823596E-4   -5.326878579842633E-4   -7.137620082061644E-4   -2.733973957027233E-1    3.902026224000300E-1
 1.010166732100000E+10  -4.200275484426864E-1    2.405695090312760E-1   -6.316625510649969E-4   -7.242532593055713E-4   -5.305956207055028E-4   -6.989304864555261E-4   -2.725297349141924E-1    3.909822514295024E-1
 1.010168653200000E+10  -4.194900288784537E-1    2.417603533282748E-1   -6.140721888325731E-4   -6.898030004973923E-4   -5.120361821416769E-4   -7.003690121080094E-4   -2.715446501991045E-1    3.916783149019649E-1
 1.010170574300000E+10  -4.190014317303778E-1    2.426398142850361E-1   -5.865398663561063E-4   -6.753358120329057E-4   -5.337199442636519E-4   -7.012074146258065E-4   -2.704185895836509E-1    3.924985688141291E-1
 1.010172495400000E+10  -4.184833939680260E-1    2.437217748242486E-1   -6.276108258414951E-4   -6.607123174853391E-4   -5.330286322237886E-4   -6.990274841237902E-4   -2.695144132432253E-1    3.931770438066868E-1
 1.010174416500000E+10  -4.178701270422924E-1    2.446973806976158E-1   -6.169116962197343E-4   -6.882218761993046E-4   -5.532368088326245E-4   -6.932453681655738E-4   -2.684404171681504E-1    3.939819604149665E-1
 1.010176337600000E+10  -4.173601861024117E-1    2.457892015477296E-1   -6.101691593592060E-4   -6.764924952464208E-4   -5.371081115913105E-4   -7.189623719153243E-4   -2.674178510147144E-1    3.945635111736760E-1
 1.010178258700000E+10  -4.169134106061296E-1    2.469139688230827E-1   -6.289331189032032E-4   -6.463687984978994E-4   -5.423442407450290E-4   -7.077278494395933E-4   -2.665500119241994E-1    3.955003646247384E-1
 1.010180179800000E+10  -4.162547111898613E-1    2.479034697952702E-1   -6.231264924686466E-4   -6.631093904131498E-4   -5.547176905991004E-4   -7.055068313850820E-4   -2.655441414906284E-1    3.962502169834843E-1
 1.010182100900000E+10  -4.157102080943587E-1    2.488705288585962E-1   -6.268454869393831E-4   -6.642279033797000E-4   -5.297799998842312E-4   -6.925520019594663E-4   -2.644581743966957E-1    3.969634283588105E-1
 1.010184022000000E+10  -4.153688427858677E-1    2.499869598244649E-1   -6.045753769125720E-4   -6.657384818974479E-4   -5.465235022569500E-4   -6.811842904823251E-4   -2.635222069804136E-1    3.975677101188221E-1
 1.010185943100000E+10  -4.145451723853946E-1    2.509489446565694E-1   -5.747746481947339E-4   -6.745716611323911E-4   -5.477555733766297E-4   -6.708259167985675E-4   -2.623296688374027E-1    3.982888013278023E-1
 1.010187864200000E+10  -4.142524921454214E-1    2.519041029394501E-1   -6.073725127638857E-4   -6.720401540270376E-4   -5.512075965221812E-4   -6.831938591644179E-4   -2.614512543940567E-1    3.990990459355176E-1
 1.010189785300000E+10  -4.135330156893683E-1    2.529672634365229E-1   -6.058391782512371E-4   -6.544089516602813E-4   -5.185062969847968E-4   -6.726152023601649E-4   -2.603677380783712E-1    3.998846080258789E-1
 1.010191706400000E+10  -4.128779800842899E-1    2.540900542728808E-1   -6.162790086955878E-4   -6.476219107675717E-4   -5.302216085708131E-4   -6.731370410885476E-4   -2.593670218356672E-1    4.005033711243145E-1
 1.010193627500000E+10  -4.124416378500105E-1    2.551254719475409E-1   -6.101734172858521E-4   -6.512619952613758E-4   -5.418561713271117E-4   -6.971073826606871E-4   -2.584200236704720E-1    4.013937982403087E-1
 1.010195548600000E+10  -4.117944852275146E-1    2.560894469294594E-1   -6.005042472967444E-4   -6.497692337930313E-4   -5.394377581575182E-4   -6.631240496929297E-4   -2.573904640321713E-1    4.021164535659696E-1
 1.010197469700000E+10  -4.113252644545022E-1    2.571368985028175E-1   -5.910491782596965E-4   -6.810549811304969E-4   -5.359663917504313E-4   -6.658016464622177E-4   -2.562010205885326E-1    4.028228318254237E-1
 1.010199390800000E+10  -4.107203529782017E-1    2.581200751802251E-1   -6.145021085635723E-4   -6.441890644704184E-4   -5.142473609519889E-4   -6.948085157621972E-4   -2.552843772682372E-1    4.035007312388350E-1
 1.010201311900000E+10  -4.100559844453207E-1    2.592111867513550E-1   -6.147326520846974E-4   -6.472981627817098E-4   -5.492916265613412E-4   -6.547245771169052E-4   -2.542929747731418E-1    4.041556955021275E-1
 1.010203233000000E+10  -4.095644677892780E-1    2.601612521624573E-1   -5.779750681416468E-4   -6.308459582236181E-4   -5.262931163001084E-4   -6.710658506490464E-4   -2.532252489956687E-1    4.048243862553434E-1
 1.010205154100000E+10  -4.090232005476164E-1    2.610212825837394E-1   -6.187914170547030E-4   -6.114837775421926E-4   -5.308848493526022E-4   -6.937606440821533E-4   -2.522288849700998E-1    4.056826521085737E-1
 1.010207075200000E+10  -4.084293742435549E-1    2.622454945912975E-1   -6.000739769685947E-4   -6.240891951037468E-4   -5.300844025642387E-4   -6.545538140438355E-4   -2.512126440105279E-1    4.063976370526228E-1
 1.010208996300000E+10  -4.077709241167957E-1    2.632331052810902E-1   -6.108583717008872E-4   -6.360335364682595E-4   -5.784108433899787E-4   -6.463913511030393E-4   -2.501579522598388E-1    4.069788403131267E-1
 1.010210917400000E+10  -4.073377816601172E-1    2.642921616499834E-1   -6.185054725804558E-4   -6.275521891458769E-4   -5.276460136297282E-4   -6.601979490081523E-4   -2.490871473092793E-1    4.077835155129131E-1
 1.010212838500000E+10  -4.068071030753392E-1    2.651630934399777E-1   -5.978865424514271E-4   -6.241888627543125E-4   -5.223027083291310E-4   -6.388078832937415E-4   -2.479571270853609E-1    4.085249907584302E-1
 1.010214759600000E+10  -4.060733125950286E-1    2.662371922022094E-1   -5.988693506760260E-4   -6.106691960751583E-4   -5.347946213093606E-4   -6.651295937861465E-4   -2.470694267382744E-1    4.091377425900953E-1
 1.010216680700000E+10  -4.056162074298685E-1    2.672463038679648E-1   -6.086534495998757E-4   -6.093112258464722E-4   -5.680089732730777E-4   -6.738130884215558E-4   -2.458530424282277E-1    4.098805641746984E-1
 1.010218601800000E+10  -4.050335341700318E-1    2.683090342287293E-1   -6.085343209888739E-4   -6.195998206115001E-4   -5.386903708324551E-4   -6.563962086265807E-4   -2.448711080954205E-1    4.105370026913406E-1
 1.010220522900000E+10  -4.042899881255707E-1    2.691468645552032E-1   -5.989669227513647E-4   -5.844209123412420E-4   -5.352116181420722E-4   -6.255384331351561E-4   -2.437691163476032E-1    4.112568271105140E-1
 1.010222444000000E+10  -4.036468027703756E-1    2.701711518444756E-1   -5.959074077345192E-4   -6.353019103050606E-4   -5.440041852643989E-4   -6.390609823625984E-4   -2.428230852319084E-1    4.118358360860785E-1
 1.010224365100000E+10  -4.030434920531948E-1    2.712180754335970E-1   -5.885863429980068E-4   -5.925408174977148E-4   -5.130855678091670E-4   -6.347001852924500E-4   -2.416429997397854E-1    4.125928318318658E-1
 1.010226286200000E+10  -4.024503919230767E-1    2.722732523272117E-1   -5.888583214121736E-4   -6.338341906141023E-4   -5.259643937127751E-4   -6.321132564470849E-4   -2.406697734538110E-1    4.132247025558165E-1
 1.010228207300000E+10  -4.018215324868026E-1    2.732035251051633E-1   -5.894704688895576E-4   -6.065241623432054E-4   -5.508713681845657E-4   -6.235193767557936E-4   -2.396583678769554E-1    4.139969656450253E-1
 1.010230128400000E+10  -4.012922529624655E-1    2.742895035973153E-1   -6.034626053671151E-4   -6.120979313273857E-4   -5.352361955640501E-4   -6.288612601145362E-4   -2.384914983562261E-1    4.146002212668508E-1
 1.010232049500000E+10  -4.006441396984746E-1    2.752767580888651E-1   -5.956933502230537E-4   -5.822875253585105E-4   -5.459382994631290E-4   -6.094955185716828E-4   -2.374609729132792E-1    4.153168846492555E-1
 1.010233970600000E+10  -3.999424400624859E-1    2.763751049429306E-1   -5.752361335050422E-4   -5.746379620066834E-4   -5.207100139303996E-4   -5.927812617070770E-4   -2.364674237571701E-1    4.158942873659849E-1
 1.010235891700000E+10  -3.995635308232744E-1    2.772504798202051E-1   -6.138880007211422E-4   -5.754988397922617E-4   -4.994929320769843E-4   -6.064217965798818E-4   -2.352886444890862E-1    4.166004459398292E-1
 1.010237812800000E+10  -3.988410217651813E-1    2.781896122088283E-1   -6.024946120331970E-4   -5.799633409304814E-4   -5.182920724256657E-4   -6.102382093868137E-4   -2.341500436089966E-1    4.172499189245768E-1
 1.010239733900000E+10  -3.981937667901392E-1    2.793287849609579E-1   -5.579339202562710E-4   -5.585850150008311E-4   -5.224161902634205E-4   -5.993995138374731E-4   -2.332095610114532E-1    4.179236513975517E-1
 1.010241655000000E+10  -3.974873652771952E-1    2.803617963595898E-1   -6.000733943381609E-4   -5.872388714361586E-4   -5.425501318827854E-4   -5.909845737882007E-4   -2.321625029590752E-1    4.187112205630119E-1
 1.010243576100000E+10  -3.970415540334288E-1    2.811489632995289E-1   -5.845660609327728E-4   -5.698604073786945E-4   -5.325944342800251E-4   -6.049360959967843E-4   -2.310564540989740E-1    4.192255894883850E-1
 1.010245497200000E+10  -3.963424578516454E-1    2.823370459351716E-1   -5.902159261707737E-4   -5.869440374344665E-4   -5.415329607397664E-4   -5.648534671341248E-4   -2.298602027641419E-1    4.199191532161516E-1
 1.010247418300000E+10  -3.957417760120535E-1    2.833233947517467E-1   -5.753270507979502E-4   -5.820796770150347E-4   -5.308217793426039E-4   -5.955393922623867E-4   -2.288198860571839E-1    4.207534174699889E-1
 1.010249339400000E+10  -3.950395905279987E-1    2.842249448881189E-1   -5.883254622376526E-4   -5.555660582396814E-4   -5.027403430142030E-4   -5.904784861139001E-4   -2.278796345630155E-1    4.212697133751753E-1
 1.010251260500000E+10  -3.943413455601446E-1    2.852394846179579E-1   -5.776308855350807E-4   -5.711309154499685E-4   -5.311891841100857E-4   -5.785054656863745E-4   -2.266965085884773E-1    4.218087220921320E-1
 1.010253181600000E+10  -3.937935436087037E-1    2.862088192167166E-1   -5.968195747146008E-4   -5.060492144102774E-4   -5.257839259879584E-4   -5.826702166211056E-4   -2.256189190828986E-1    4.223809768692767E-1
 1.010255102700000E+10  -3.931258285568552E-1    2.871569187160470E-1   -5.710626033370290E-4   -5.684714789808144E-4   -5.077427727482124E-4   -5.777513675931615E-4   -2.245059126551358E-1    4.229795226453708E-1
 1.010257023800000E+10  -3.924632792213103E-1    2.882298142546432E-1   -5.867719282775451E-4   -5.624286067229798E-4   -5.210823939261453E-4   -5.751710261985613E-4   -2.235038463863643E-1    4.237601072425392E-1
 1.010258944900000E+10  -3.917568682390745E-1    2.891148189842268E-1   -5.837029600822865E-4   -5.441836443139154E-4   -5.198480338556775E-4   -5.641440775407109E-4   -2.221595086261915E-1    4.244415959328574E-1
 1.010260866000000E+10  -3.911546152383715E-1    2.900483933056699E-1   -5.944093434159238E-4   -5.249654064602041E-4   -5.019059445642373E-4   -5.693684833385255E-4   -2.211718651109090E-1    4.250603129670959E-1
 1.010262787100000E+10  -3.906452278255262E-1    2.909384382094317E-1   -5.711157003616206E-4   -5.436996819509965E-4   -5.049211572159103E-4   -5.713551245215716E-4   -2.200068787283431E-1    4.256869413026974E-1
 1.010264708200000E+10  -3.898733609179351E-1    2.920463073999782E-1   -5.904969508847003E-4   -5.357524278134517E-4   -5.261082226665850E-4   -5.777002733982871E-4   -2.188957112930788E-1    4.263829779154763E-1
 1.010266629300000E+10  -3.891676210248011E-1    2.929409933612083E-1   -5.514119367900329E-4   -5.535905759224815E-4   -5.047675488918489E-4   -5.585151828047576E-4   -2.178502525144220E-1    4.267578432983163E-1
 1.010268550400000E+10  -3.884778780326437E-1    2.939492675533480E-1   -5.552345492322952E-4   -5.299229152131312E-4   -5.022170797963397E-4   -5.269152487651279E-4   -2.167478196681201E-1    4.275418214153386E-1
 1.010270471500000E+10  -3.879831615031004E-1    2.949295341854085E-1   -5.671692339512861E-4   -4.961401925900708E-4   -4.806967338711480E-4   -5.784000347119688E-4   -2.156701099709032E-1    4.280479541170044E-1
 1.010272392600000E+10  -3.872412113089032E-1    2.958269214153412E-1   -5.325831597777684E-4   -5.315556957905550E-4   -4.951416792305467E-4   -5.542751064865384E-4   -2.146485429649501E-1    4.286702248582380E-1
 1.010274313700000E+10  -3.866412470451674E-1    2.968785400336877E-1   -5.585821235489534E-4   -5.401656396125026E-4   -5.228622974488818E-4   -5.415012287959703E-4   -2.134524347971207E-1    4.294434405127792E-1
 1.010276234800000E+10  -3.860143919424906E-1    2.977356458467230E-1   -5.673255862603250E-4   -5.133204252924415E-4   -4.998043731990791E-4   -5.369394281297258E-4   -2.123292054341098E-1    4.300306635049602E-1
 1.010278155900000E+10  -3.854048307450825E-1    2.988165388273537E-1   -5.536488310631908E-4   -5.242213221767292E-4   -4.829853114052038E-4   -5.533209890454495E-4   -2.112176853770687E-1    4.307186121380148E-1
