#  HZ   S   RI   R     50.00 
! Rohde & Schwarz Vector Network Analyzer 
! Rohde-Schwarz,ZNB20-2Port,1311601062101988,3.16
! Created: UTC 3/20/2024, 4:49:24 PM
! freq[Hz]                re:S11                  im:S11                  re:S21                  im:S21                  re:S12                  im:S12                  re:S22                  im:S22
 1.010444974700000E+10  -3.189421381852481E-1    3.753653558977207E-1    1.594502640368886E-4    2.663486211304092E-5    1.322239081464729E-4   -8.840372986107905E-6   -1.016257482677437E-1    4.742101465131626E-1
 1.010445306865000E+10  -3.187701238299145E-1    3.754041729679688E-1    1.589714399580468E-4   -6.541705722537279E-6    1.469284809865755E-4   -3.069357521600789E-6   -1.013015888585548E-1    4.744181837446680E-1
 1.010445639030000E+10  -3.188078797980605E-1    3.756502331785475E-1    1.669738988986210E-4   -1.781548318724311E-5    1.295252412508169E-4   -1.649458919797150E-5   -1.009236260351787E-1    4.744452632586422E-1
 1.010445971195000E+10  -3.185131148944078E-1    3.757495874803208E-1    1.530816379330275E-4   -1.380599112212781E-5    1.342099348103982E-4   -8.832127046556644E-6   -1.007705872012440E-1    4.744116429378057E-1
 1.010446303360000E+10  -3.182839501632851E-1    3.759852070473024E-1    1.763956752795355E-4    2.109547874232581E-5    1.669578344815119E-4   -5.501044047036164E-6   -1.003266880245230E-1    4.744231716940294E-1
 1.010446635525000E+10  -3.181932549842421E-1    3.759991625185294E-1    1.726538385452876E-4    1.063180137160234E-6    1.594163861411709E-4    1.852139384058723E-5   -1.000954136435639E-1    4.745389315122163E-1
 1.010446967690000E+10  -3.180435397919206E-1    3.760508004210616E-1    1.723989641707761E-4    4.323636913603871E-6    1.892811313576944E-4    1.015336110125756E-5   -9.987321007656666E-2    4.746936991496147E-1
 1.010447299855000E+10  -3.177960862775077E-1    3.764060001590459E-1    2.048326853029238E-4    1.205144408327925E-5    1.703228893069975E-4    2.578004624758203E-5   -9.947054220169929E-2    4.747164325673719E-1
 1.010447632020000E+10  -3.177776490615021E-1    3.764280414558916E-1    1.852623605387899E-4    1.500162191326572E-5    1.728237688418973E-4    3.609218774379990E-5   -9.933301496068758E-2    4.747997613649743E-1
 1.010447964185000E+10  -3.176223118042966E-1    3.765545870234657E-1    2.112906242133930E-4   -1.375676751161813E-5    1.746505433055213E-4    3.492967179722243E-5   -9.899772667932340E-2    4.746293519953096E-1
 1.010448296350000E+10  -3.175194674243675E-1    3.767085537405649E-1    2.320139108846933E-4    1.877981768766584E-5    2.123542181519264E-4    3.748738852329570E-5   -9.873335438178582E-2    4.748505709580384E-1
 1.010448628515000E+10  -3.173722850776546E-1    3.768515016554120E-1    1.897335351274199E-4    1.162290223150463E-5    2.135146089913943E-4    3.666984030857171E-5   -9.842776304751724E-2    4.748352690347249E-1
 1.010448960680000E+10  -3.171131207603762E-1    3.770286934392191E-1    1.947771446386738E-4    6.380674009983915E-7    2.068852159398386E-4    2.399573879397373E-5   -9.811403497672899E-2    4.749293939983176E-1
 1.010449292845000E+10  -3.169855930452787E-1    3.771961938759116E-1    2.493446568448911E-4   -5.517753766377967E-6    1.942889733821343E-4    2.565949858289204E-5   -9.772258864020915E-2    4.750168325956247E-1
 1.010449625010000E+10  -3.169138958991679E-1    3.773047162499482E-1    2.480326789113257E-4   -3.697107945866600E-6    2.381522864870899E-4    3.012164188775877E-5   -9.747308319557445E-2    4.750529906403061E-1
 1.010449957175000E+10  -3.167197808674070E-1    3.774119342172961E-1    2.267360828046564E-4    3.487790968310844E-5    2.455589204997092E-4    4.989682855210308E-5   -9.718042304542390E-2    4.750519169933271E-1
 1.010450289340000E+10  -3.164853124532217E-1    3.775704705486416E-1    2.841567233112147E-4    2.358463874695329E-5    2.601789800230885E-4    4.110123651502353E-5   -9.682859083909727E-2    4.751908312902356E-1
 1.010450621505000E+10  -3.163856756524918E-1    3.774998034217043E-1    2.706675182416601E-4    3.010064662880672E-5    2.227802934476947E-4    4.501046427335230E-5   -9.653823478384643E-2    4.752858602131710E-1
 1.010450953670000E+10  -3.162158555737262E-1    3.778745664965650E-1    2.877688353802663E-4    4.141850277461358E-5    2.603815143547680E-4    3.783802219321158E-5   -9.634144112260200E-2    4.752123070738953E-1
 1.010451285835000E+10  -3.159836222396786E-1    3.781466961647155E-1    2.983126684943699E-4    3.394528620792894E-5    2.627501628303294E-4    5.235090148667553E-5   -9.603733232048535E-2    4.754284432732893E-1
 1.010451618000000E+10  -3.160914907002020E-1    3.781827519931001E-1    2.935957673351167E-4    3.602241696694158E-5    2.934994287219464E-4    5.058772744175447E-5   -9.568673863078718E-2    4.754287506467971E-1
 1.010451950165000E+10  -3.157783847835459E-1    3.782962813125157E-1    2.852647244406012E-4    4.872464809616060E-5    3.021883404640631E-4    7.136856221554304E-5   -9.535632353641425E-2    4.754248264965384E-1
 1.010452282330000E+10  -3.157863179580585E-1    3.784407315174428E-1    2.907627468814706E-4    3.280435836952132E-5    2.902522637350593E-4    7.228959712276367E-5   -9.505653230433356E-2    4.754542311756380E-1
 1.010452614495000E+10  -3.154961619491374E-1    3.784783134787186E-1    3.092583356560218E-4    5.531058226425648E-5    3.058471404863067E-4    6.079066150116033E-5   -9.479209540950488E-2    4.755811450733844E-1
 1.010452946660000E+10  -3.153935377590496E-1    3.786188239429507E-1    3.405030857237678E-4    6.474416855421110E-5    3.280799281251552E-4    5.903862030846598E-5   -9.441559781095162E-2    4.755796846417154E-1
 1.010453278825000E+10  -3.152410993494430E-1    3.787686441022762E-1    3.320766191700831E-4    4.288568019285735E-5    3.220076112769134E-4    8.642376096818274E-5   -9.412474212170339E-2    4.758642556146371E-1
 1.010453610990000E+10  -3.149063366167184E-1    3.789942745880108E-1    3.338855604677914E-4    4.238998604378257E-5    3.454246999973152E-4    1.139488725592053E-4   -9.382989417238952E-2    4.756738333329740E-1
 1.010453943155000E+10  -3.148870834551247E-1    3.791048204491104E-1    3.497933650991334E-4    5.415937052527371E-5    3.420182232848554E-4    9.158229509736883E-5   -9.346388106534548E-2    4.758166465588591E-1
 1.010454275320000E+10  -3.147011418354614E-1    3.792201270731985E-1    3.518886469966228E-4    6.083455932241967E-5    3.526926530544189E-4    9.026852244465832E-5   -9.316373523185446E-2    4.758854625747078E-1
 1.010454607485000E+10  -3.145786386369592E-1    3.792680602594037E-1    3.868247234741661E-4    8.125320581641310E-5    3.589859604571689E-4    8.490869996754001E-5   -9.292279236107666E-2    4.759390244362454E-1
 1.010454939650000E+10  -3.145033727421275E-1    3.794094259954946E-1    3.544571443063279E-4    8.898153876585302E-5    3.700352779243287E-4    1.029167713109129E-4   -9.255677538481333E-2    4.760398989107991E-1
 1.010455271815000E+10  -3.141902660206691E-1    3.795744629377060E-1    4.148880884828904E-4    4.725805838688500E-5    3.462911949402309E-4    7.887068076733226E-5   -9.229831745890953E-2    4.760801543018208E-1
 1.010455603980000E+10  -3.140196270344506E-1    3.797079095192644E-1    3.843067195709764E-4    5.125842836934820E-5    3.578631749892204E-4    9.738809910411669E-5   -9.188406516508130E-2    4.760659836499783E-1
 1.010455936145000E+10  -3.138545927385722E-1    3.799901532061488E-1    3.947363266294402E-4    7.197491000595201E-5    3.744476508071018E-4    8.839010365759604E-5   -9.165006709136216E-2    4.763240579848749E-1
 1.010456268310000E+10  -3.137394268896089E-1    3.801264649891374E-1    4.070844926062947E-4    6.139791999215357E-5    3.984724288879021E-4    9.065712176144976E-5   -9.130012717623839E-2    4.761639490519363E-1
 1.010456600475000E+10  -3.136109813666767E-1    3.801063040446227E-1    4.328652840695982E-4    5.892416699215346E-5    4.145922504891418E-4    9.631154609639654E-5   -9.098369875138468E-2    4.762684218934460E-1
 1.010456932640000E+10  -3.135153392481361E-1    3.802878401678094E-1    4.392126551648120E-4    4.989052140042809E-5    4.258775267488279E-4    1.224657503742484E-4   -9.065634568013856E-2    4.763535042227159E-1
 1.010457264805000E+10  -3.132662138389123E-1    3.804213109275729E-1    4.580637623028381E-4    4.457775884181633E-5    4.288387784673397E-4    1.335731791859191E-4   -9.026757451583438E-2    4.763529585011920E-1
 1.010457596970000E+10  -3.130895873144546E-1    3.804896573330749E-1    4.474932985160599E-4    9.405214897131304E-5    4.531807799171263E-4    1.082876430876012E-4   -9.003020811986359E-2    4.763768869237116E-1
 1.010457929135000E+10  -3.130042772632464E-1    3.806716614658466E-1    4.678400059705410E-4    9.887654828973747E-5    4.637170926674187E-4    1.120487661024452E-4   -8.961616259453196E-2    4.765137701269159E-1
 1.010458261300000E+10  -3.128764791724070E-1    3.808579311401884E-1    4.794195078032387E-4    8.195981776674464E-5    4.544707035184208E-4    1.158513341669449E-4   -8.938096672556384E-2    4.765445710683417E-1
 1.010458593465000E+10  -3.126872376340685E-1    3.810004350681468E-1    4.945296799603983E-4    9.331985187603894E-5    4.587721485342171E-4    1.175591334135068E-4   -8.899680355145480E-2    4.766501497090375E-1
 1.010458925630000E+10  -3.125563396087637E-1    3.811213593083807E-1    4.858789759055501E-4    9.257765173258892E-5    4.679020727461092E-4    1.336865462107341E-4   -8.872586867373738E-2    4.766238029767236E-1
 1.010459257795000E+10  -3.123924981505053E-1    3.812041426992002E-1    5.087764651567518E-4    9.711875072177145E-5    4.726699868431852E-4    1.429820356352297E-4   -8.839812197435455E-2    4.766287453061445E-1
 1.010459589960000E+10  -3.121355543576042E-1    3.813037200961590E-1    5.162856608002231E-4    7.558217218296359E-5    4.898332993213492E-4    1.443499426154301E-4   -8.807570222108009E-2    4.767978212746142E-1
 1.010459922125000E+10  -3.121485002174705E-1    3.813820322426775E-1    5.211052934668428E-4    7.397488621303956E-5    5.090393558715173E-4    1.508873267549519E-4   -8.762171119660910E-2    4.768502201413257E-1
 1.010460254290000E+10  -3.120071571057482E-1    3.816230746791713E-1    5.390936511913668E-4    9.266597273588045E-5    5.302097738293021E-4    9.773353368060601E-5   -8.742085001376379E-2    4.769336144411973E-1
 1.010460586455000E+10  -3.118549025878134E-1    3.817933120133899E-1    5.566454887357883E-4    1.034118848443074E-4    5.266364970492253E-4    1.617910084909372E-4   -8.707750745416719E-2    4.768085004383500E-1
 1.010460918620000E+10  -3.115710642939745E-1    3.819669448433632E-1    5.813727108573311E-4    1.156390815067263E-4    5.252620801448518E-4    1.439785782205507E-4   -8.672883314294896E-2    4.769456679243531E-1
 1.010461250785000E+10  -3.114889630326525E-1    3.820641852199436E-1    5.719586319689578E-4    9.272668292262835E-5    5.544455843641997E-4    1.622271399815000E-4   -8.628688640628690E-2    4.769489086834361E-1
 1.010461582950000E+10  -3.113534948904072E-1    3.821358998875184E-1    5.823218586857847E-4    1.039677960800998E-4    5.518540823260340E-4    1.715271214204957E-4   -8.612104010105942E-2    4.771054284455251E-1
 1.010461915115000E+10  -3.113288035136373E-1    3.822942339349548E-1    6.118369040352742E-4    8.404746316063441E-5    5.819194734156950E-4    1.406860149177810E-4   -8.547282022152436E-2    4.771027474892164E-1
 1.010462247280000E+10  -3.111489608094793E-1    3.824230875527812E-1    6.213097025363501E-4    1.024081712004214E-4    5.883942405770381E-4    1.613188375428349E-4   -8.532049327244941E-2    4.772151268193315E-1
 1.010462579445000E+10  -3.108315175692558E-1    3.825958539062540E-1    6.347203455367401E-4    1.227811805311427E-4    5.999113848455572E-4    1.707651688736197E-4   -8.503461557103847E-2    4.772126786386185E-1
 1.010462911610000E+10  -3.108558138197884E-1    3.828621958711504E-1    6.621806361602493E-4    1.203018612668227E-4    6.151881937532268E-4    1.677227994052610E-4   -8.458314247369501E-2    4.770934768640872E-1
 1.010463243775000E+10  -3.105723639588652E-1    3.828015952740997E-1    6.493352096369514E-4    1.373632883518223E-4    6.241175233280445E-4    1.535117436182841E-4   -8.422439677978510E-2    4.772718225651624E-1
 1.010463575940000E+10  -3.106292608871830E-1    3.829369074014660E-1    6.724287662128907E-4    1.164719186165016E-4    6.336608505813435E-4    1.688005650325867E-4   -8.373513024658404E-2    4.773271835899424E-1
 1.010463908105000E+10  -3.102371423139621E-1    3.831522192229069E-1    6.915857515213603E-4    1.357333510346353E-4    6.237983323092855E-4    1.703636912575766E-4   -8.357006342023544E-2    4.773684206512568E-1
 1.010464240270000E+10  -3.102084445032278E-1    3.834194736352067E-1    6.850789672418813E-4    1.033482733432755E-4    6.444147487186001E-4    1.834313053787416E-4   -8.309433185861935E-2    4.773463128706598E-1
 1.010464572435000E+10  -3.100012334160038E-1    3.834392750308779E-1    7.193270668490899E-4    1.386299587520925E-4    6.824053301961210E-4    1.963627895749007E-4   -8.281057134573556E-2    4.776044360280269E-1
 1.010464904600000E+10  -3.098769093255946E-1    3.835341887720970E-1    7.100308431302006E-4    1.116626119488051E-4    6.965068371793286E-4    1.768686205693578E-4   -8.244149270399101E-2    4.775315472893277E-1
 1.010465236765000E+10  -3.096926822806619E-1    3.835801011918491E-1    7.311061988345258E-4    1.285852076656768E-4    6.943668353240556E-4    1.812332995860202E-4   -8.198145479214801E-2    4.775922485534279E-1
 1.010465568930000E+10  -3.094186202826034E-1    3.837037889590241E-1    7.500604903683293E-4    1.475989324186371E-4    6.927432787479818E-4    2.054754689277842E-4   -8.173735106455420E-2    4.777258241921402E-1
 1.010465901095000E+10  -3.094316975468288E-1    3.840736621053096E-1    7.726656467925600E-4    1.411108274102989E-4    7.222004959296430E-4    1.897389788678454E-4   -8.135187345384111E-2    4.775901997232399E-1
 1.010466233260000E+10  -3.091857037419803E-1    3.840596961370432E-1    7.921138776537603E-4    1.353289854446893E-4    7.328471343201045E-4    1.927748020553736E-4   -8.081239701494922E-2    4.776921645201476E-1
 1.010466565425000E+10  -3.089883261150879E-1    3.840733518946725E-1    8.116648469674572E-4    1.410511310608658E-4    7.536405004726691E-4    1.988080396316552E-4   -8.053800263293259E-2    4.776088897098917E-1
 1.010466897590000E+10  -3.088705293923273E-1    3.841651654060940E-1    8.243709942537952E-4    1.307714954559742E-4    7.712653527524257E-4    2.202136461258584E-4   -8.014765647487103E-2    4.777978878001151E-1
 1.010467229755000E+10  -3.088174708265271E-1    3.844430743527811E-1    8.272975443808504E-4    1.451838105820769E-4    7.864242283115463E-4    2.032606913420454E-4   -7.963443296711196E-2    4.777633673259440E-1
 1.010467561920000E+10  -3.086246236099094E-1    3.845775554630902E-1    8.377479987775876E-4    1.559564356356376E-4    7.992551603231631E-4    2.411696031776685E-4   -7.927949808635365E-2    4.778548614178406E-1
 1.010467894085000E+10  -3.083442769288451E-1    3.846836827546599E-1    8.601495261331321E-4    1.855052739007077E-4    8.139275787580440E-4    2.166775595418588E-4   -7.902656670043480E-2    4.778015991039974E-1
 1.010468226250000E+10  -3.082684382423844E-1    3.848835571572004E-1    8.867905172470858E-4    1.530416928053062E-4    8.352060696083089E-4    2.161258769251029E-4   -7.857369808668500E-2    4.778231881566783E-1
 1.010468558415000E+10  -3.081744988192093E-1    3.850163706442510E-1    8.744654574033648E-4    1.538913085580074E-4    8.388830366338276E-4    2.214435227775461E-4   -7.818031192571476E-2    4.778745503797184E-1
 1.010468890580000E+10  -3.078709623495638E-1    3.851570690637927E-1    8.941585825995579E-4    1.613632694815610E-4    8.613333399010638E-4    2.272108436465866E-4   -7.782443466594785E-2    4.780606735799622E-1
 1.010469222745000E+10  -3.079025354610865E-1    3.851587285800588E-1    8.934261653753163E-4    1.480401298757390E-4    8.955063466196562E-4    2.274764253090173E-4   -7.742670436226741E-2    4.780921886553780E-1
 1.010469554910000E+10  -3.075608613810036E-1    3.854939178642116E-1    9.504341662941896E-4    1.393369281454305E-4    8.695627653879829E-4    2.400809360521074E-4   -7.686231481645184E-2    4.781539886807985E-1
 1.010469887075000E+10  -3.075144037418984E-1    3.856614669018879E-1    9.783507449754336E-4    2.035749111956901E-4    8.965560879977450E-4    2.447322871946795E-4   -7.643461828568576E-2    4.780142103113997E-1
 1.010470219240000E+10  -3.073381825393633E-1    3.857111036490528E-1    9.982670367026574E-4    1.636811694966733E-4    9.428333407381121E-4    2.707372005377666E-4   -7.615077116784427E-2    4.782162464625792E-1
 1.010470551405000E+10  -3.071194103310698E-1    3.857543887055901E-1    1.007395295352567E-3    1.485572716583924E-4    9.472165091982182E-4    2.461698288857884E-4   -7.570774986428586E-2    4.780845892506801E-1
 1.010470883570000E+10  -3.069440533658795E-1    3.860637078898487E-1    9.925477907467457E-4    1.571212919442589E-4    9.753390254267017E-4    2.531976054400807E-4   -7.527902605743213E-2    4.781199365983155E-1
 1.010471215735000E+10  -3.068848370690627E-1    3.860332294199479E-1    1.036378346318792E-3    1.822134404424272E-4    9.987669502914704E-4    2.433858379446931E-4   -7.488325618188506E-2    4.780856442559770E-1
 1.010471547900000E+10  -3.066526255888989E-1    3.861523958483637E-1    1.066778595844579E-3    1.586821217727232E-4    9.998478393218220E-4    2.324363769306405E-4   -7.435267233428633E-2    4.782592030631101E-1
 1.010471880065000E+10  -3.066547295637138E-1    3.863382523641558E-1    1.084028531519358E-3    1.672583215963978E-4    1.000237611824778E-3    2.552110114495451E-4   -7.396692319760337E-2    4.782904476025079E-1
 1.010472212230000E+10  -3.064113696918493E-1    3.864918001847726E-1    1.095165890456077E-3    2.032588493560658E-4    1.012486580983154E-3    2.742144572871669E-4   -7.350765093808231E-2    4.783698722201266E-1
 1.010472544395000E+10  -3.062507099064920E-1    3.864953607186885E-1    1.109162108033335E-3    2.266112231942873E-4    1.051251342305655E-3    2.551838944881518E-4   -7.318739715651432E-2    4.784337782160603E-1
 1.010472876560000E+10  -3.061733181686907E-1    3.865781217462157E-1    1.151331591404686E-3    2.241857420023327E-4    1.083731155310133E-3    2.686876618826759E-4   -7.278182913122014E-2    4.784072610833441E-1
 1.010473208725000E+10  -3.060651865290793E-1    3.868795668145313E-1    1.168184975329029E-3    1.927282776826281E-4    1.087488233513752E-3    2.954469669644124E-4   -7.223228879524972E-2    4.783826611196320E-1
 1.010473540890000E+10  -3.057429252449697E-1    3.869887993537803E-1    1.164725035258457E-3    1.987552872416857E-4    1.113948783710790E-3    2.553023912558686E-4   -7.171064364725514E-2    4.783619378275691E-1
 1.010473873055000E+10  -3.057036206090710E-1    3.872474609013282E-1    1.212638338118020E-3    1.783731639434191E-4    1.110101289766334E-3    2.696377426481474E-4   -7.118892571935846E-2    4.785179367566394E-1
 1.010474205220000E+10  -3.054541848188418E-1    3.871685954327210E-1    1.209741066783295E-3    1.833584125730131E-4    1.145535744535349E-3    3.029695820674085E-4   -7.086473505975979E-2    4.784580715797615E-1
 1.010474537385000E+10  -3.053633709000901E-1    3.874805601478357E-1    1.233054497094903E-3    2.042345038778249E-4    1.164902971728560E-3    3.000432368163765E-4   -7.038238319602208E-2    4.784534943883200E-1
 1.010474869550000E+10  -3.051135025786910E-1    3.874831455376749E-1    1.279967371713966E-3    1.849382358425851E-4    1.208682309546366E-3    2.961546495002923E-4   -7.002037321744364E-2    4.785571042288356E-1
