#  HZ   S   RI   R     50.00 
! Rohde & Schwarz Vector Network Analyzer 
! Rohde-Schwarz,ZNB20-2Port,1311601062101988,3.16
! Created: UTC 3/20/2024, 5:13:42 PM
! freq[Hz]                re:S11                  im:S11                  re:S21                  im:S21                  re:S12                  im:S12                  re:S22                  im:S22
 1.010413471700000E+10  -3.332912264793621E-1    3.607446511256797E-1   -3.298452092441490E-4   -2.181442193124300E-4   -2.853118574263348E-4   -2.393676642453229E-4   -1.288331094197660E-1    4.658834027399310E-1
 1.010414005960000E+10  -3.331543594891709E-1    3.610722803311854E-1   -3.214836502643184E-4   -2.472697636406658E-4   -2.928478105985074E-4   -2.336646261525464E-4   -1.284293854147416E-1    4.660336948137346E-1
 1.010414540220000E+10  -3.328050559712453E-1    3.612804971500382E-1   -3.070105026671914E-4   -2.042438411364328E-4   -2.856246186468658E-4   -2.376844439925947E-4   -1.281135269167506E-1    4.660429028377909E-1
 1.010415074480000E+10  -3.325006072137212E-1    3.613436335522062E-1   -3.131966033866310E-4   -2.277568022124840E-4   -2.751045512352322E-4   -2.307664686209312E-4   -1.277818431541161E-1    4.662673165755331E-1
 1.010415608740000E+10  -3.324469169638465E-1    3.617748507096031E-1   -2.967634818300946E-4   -2.085042945124444E-4   -2.701113100946654E-4   -2.378268839653633E-4   -1.273146290093301E-1    4.662841950874622E-1
 1.010416143000000E+10  -3.322326702231302E-1    3.620091911878467E-1   -3.029244822144042E-4   -2.097869214380952E-4   -2.759497545668580E-4   -2.425429194607829E-4   -1.269007044237856E-1    4.664006943005874E-1
 1.010416677260000E+10  -3.319662318240644E-1    3.620516872809513E-1   -3.118518933494776E-4   -2.056489564385826E-4   -2.788603978458212E-4   -2.150643262592725E-4   -1.265275999383692E-1    4.665614951197569E-1
 1.010417211520000E+10  -3.317671209603189E-1    3.624396546906802E-1   -2.825836187603969E-4   -2.082767338878768E-4   -2.411246988749784E-4   -2.114928518473898E-4   -1.261551156788293E-1    4.667113260842768E-1
 1.010417745780000E+10  -3.314983260156447E-1    3.625793463646628E-1   -2.821679894877903E-4   -2.144866192947519E-4   -2.540451213868819E-4   -2.090135423230390E-4   -1.258880665894964E-1    4.668190568173424E-1
 1.010418280040000E+10  -3.312833502954927E-1    3.627913363881341E-1   -2.744247984596628E-4   -2.054602100647458E-4   -2.657639943793735E-4   -2.043018753911669E-4   -1.254738194764003E-1    4.668260078680931E-1
 1.010418814300000E+10  -3.310601167126344E-1    3.630954358396292E-1   -2.703310996860809E-4   -1.872792589321927E-4   -2.635357791760218E-4   -1.881267328841881E-4   -1.251110550715510E-1    4.669339919530412E-1
 1.010419348560000E+10  -3.307399335916497E-1    3.632692230397146E-1   -2.798023930035925E-4   -2.050141472604600E-4   -2.758759778093822E-4   -2.210985273723900E-4   -1.246222623422055E-1    4.670798919246739E-1
 1.010419882820000E+10  -3.304183798044469E-1    3.635339650576777E-1   -2.850972774804076E-4   -2.004579436702845E-4   -2.280005555484196E-4   -2.199750358898350E-4   -1.242257604683092E-1    4.671549997463880E-1
 1.010420417080000E+10  -3.302705683699476E-1    3.638626767188955E-1   -2.541294505870425E-4   -2.128457006875358E-4   -2.624686030741163E-4   -2.015698932978906E-4   -1.239035205147695E-1    4.673177324686589E-1
 1.010420951340000E+10  -3.299689116009427E-1    3.640077674719532E-1   -2.452883104499510E-4   -2.052327622977208E-4   -2.250145323612858E-4   -2.100198554742100E-4   -1.235352018095189E-1    4.673896129759874E-1
 1.010421485600000E+10  -3.297922202889302E-1    3.642367633934622E-1   -2.565769268948378E-4   -1.613685430251464E-4   -2.306392058889950E-4   -1.999250948407756E-4   -1.230971883266145E-1    4.675808926206499E-1
 1.010422019860000E+10  -3.296700740586548E-1    3.646056138620125E-1   -2.716267187001110E-4   -1.933711128225001E-4   -2.330789329693349E-4   -2.055179685703462E-4   -1.227565512032336E-1    4.675164646035437E-1
 1.010422554120000E+10  -3.292025276572512E-1    3.645864067619994E-1   -2.544316157892701E-4   -1.709268401599130E-4   -2.212672959997425E-4   -1.962763119208303E-4   -1.223187743338932E-1    4.678065953598333E-1
 1.010423088380000E+10  -3.290981874227356E-1    3.648995638802914E-1   -2.538615691677417E-4   -1.961047634597371E-4   -1.907062062688795E-4   -2.127974035318670E-4   -1.219631396370061E-1    4.679543292301833E-1
 1.010423622640000E+10  -3.288556974889675E-1    3.652152845812873E-1   -2.519366689475019E-4   -1.641780020971709E-4   -2.267583451459491E-4   -1.837899418633715E-4   -1.216331300666524E-1    4.679510242007413E-1
 1.010424156900000E+10  -3.286167521885681E-1    3.654292070583990E-1   -2.445831672453322E-4   -1.961553305379407E-4   -2.268066784855829E-4   -2.036108100560709E-4   -1.212416407208593E-1    4.680687084166780E-1
 1.010424691160000E+10  -3.284424196896551E-1    3.656523210472231E-1   -2.226547400275891E-4   -1.702903695187228E-4   -2.093199308532174E-4   -1.899428335510848E-4   -1.208220355919599E-1    4.681043498382592E-1
 1.010425225420000E+10  -3.283266723772142E-1    3.658459060180349E-1   -2.074058064707781E-4   -1.683367400797138E-4   -2.164637516138928E-4   -1.800627437534199E-4   -1.203895127740499E-1    4.682329628741683E-1
 1.010425759680000E+10  -3.280196011583368E-1    3.659598170349255E-1   -2.365799848209094E-4   -1.777914579203073E-4   -2.104113187935975E-4   -1.878337728746485E-4   -1.200965583020372E-1    4.682583686069075E-1
 1.010426293940000E+10  -3.276443297285025E-1    3.663013096226832E-1   -1.946927988122880E-4   -1.893119827615286E-4   -1.760330108072334E-4   -2.032834857216604E-4   -1.195999013095350E-1    4.685925159857997E-1
 1.010426828200000E+10  -3.273976396339394E-1    3.666034332740901E-1   -2.208637667253331E-4   -1.602441632629776E-4   -1.733227904433745E-4   -1.905849649325955E-4   -1.193613640756327E-1    4.686826144934790E-1
 1.010427362460000E+10  -3.271863082573526E-1    3.667837691052867E-1   -2.020272478223308E-4   -1.780670583979276E-4   -1.718403571619555E-4   -1.982431258001231E-4   -1.188756066696538E-1    4.686083467660138E-1
 1.010427896720000E+10  -3.270014375816533E-1    3.670128582258522E-1   -2.008978693198028E-4   -1.724382957197934E-4   -1.963577519277424E-4   -1.976995166269778E-4   -1.184739640093766E-1    4.689040824684058E-1
 1.010428430980000E+10  -3.268298643051422E-1    3.672235449531919E-1   -1.879519784906937E-4   -1.676134186597109E-4   -1.801296364094737E-4   -1.865281651030520E-4   -1.180731456457303E-1    4.689219489666275E-1
 1.010428965240000E+10  -3.265614069284969E-1    3.673625945266544E-1   -1.757030335901578E-4   -1.773654555290320E-4   -1.719547349605433E-4   -1.966233540337047E-4   -1.177363019109633E-1    4.689807512886209E-1
 1.010429499500000E+10  -3.263814080246976E-1    3.676503210417463E-1   -1.855540672474325E-4   -1.434183031958750E-4   -1.587035689967874E-4   -1.536389954731395E-4   -1.172975094009999E-1    4.691475680811115E-1
 1.010430033760000E+10  -3.260885958356228E-1    3.678964924272516E-1   -1.706698125745007E-4   -1.378884785381747E-4   -1.353149128621145E-4   -1.802256749506819E-4   -1.169131144317080E-1    4.692592351188608E-1
 1.010430568020000E+10  -3.258457057701433E-1    3.680579987973568E-1   -1.642175367341802E-4   -1.564813383663923E-4   -1.497763140387504E-4   -1.570033215303533E-4   -1.165915636439239E-1    4.693801686927032E-1
 1.010431102280000E+10  -3.255958437682752E-1    3.682558057031062E-1   -1.716674767344703E-4   -1.491492227511303E-4   -1.569635034084486E-4   -1.661943881156901E-4   -1.162322949920383E-1    4.694960887512848E-1
 1.010431636540000E+10  -3.254087474505202E-1    3.686533591535737E-1   -1.878191297143471E-4   -1.273556274278888E-4   -1.446459710941505E-4   -1.917604830675815E-4   -1.156295548921906E-1    4.695280211600079E-1
 1.010432170800000E+10  -3.249988478049127E-1    3.687981690980701E-1   -1.538094217625547E-4   -1.345492617432725E-4   -1.306609796083402E-4   -1.549568334538866E-4   -1.152795857151981E-1    4.696213348035998E-1
 1.010432705060000E+10  -3.249859751566058E-1    3.689923745632124E-1   -1.461722722945624E-4   -1.354015690653246E-4   -1.371767566993369E-4   -1.679088915607940E-4   -1.149635317691381E-1    4.697471639656523E-1
 1.010433239320000E+10  -3.246987722538136E-1    3.693481902238547E-1   -1.352919701696025E-4   -1.701943714976543E-4   -1.317285045974056E-4   -1.290035300781626E-4   -1.145836671451166E-1    4.697886242271337E-1
 1.010433773580000E+10  -3.245606312186372E-1    3.694814109251330E-1   -1.495428463820123E-4   -1.386840471624377E-4   -1.053218015930684E-4   -1.316154890732020E-4   -1.141200761340753E-1    4.700667066919615E-1
 1.010434307840000E+10  -3.242887370426221E-1    3.696826728987950E-1   -1.505652984890545E-4   -1.627111728376954E-4   -1.080473090075974E-4   -1.539116497001712E-4   -1.137517505625823E-1    4.701045253864121E-1
 1.010434842100000E+10  -3.239273101926002E-1    3.699780668413308E-1   -1.310119232265804E-4   -1.176774743829459E-4   -1.270794227051002E-4   -1.390199624945791E-4   -1.132684808184208E-1    4.700812425762000E-1
 1.010435376360000E+10  -3.237039023083504E-1    3.700502690583231E-1   -9.490453545134087E-5   -1.307707316129294E-4   -9.796881445121726E-5   -1.461772151175478E-4   -1.129253391270605E-1    4.703071967014617E-1
 1.010435910620000E+10  -3.234459038994993E-1    3.702853339600927E-1   -1.122313067103924E-4   -1.591133668497834E-4   -9.154952367227038E-5   -1.212262019001473E-4   -1.126138987585546E-1    4.704911763671235E-1
 1.010436444880000E+10  -3.232578590524476E-1    3.705572760394958E-1   -8.080613062084770E-5   -1.008108243281956E-4   -9.891640228395764E-5   -1.355210412803727E-4   -1.122336663508387E-1    4.704873601287546E-1
 1.010436979140000E+10  -3.230347294715648E-1    3.707409686144919E-1   -1.155165921033354E-4   -1.384739611158289E-4   -8.788716936595672E-5   -1.061124067492479E-4   -1.116835373949107E-1    4.706447336297783E-1
 1.010437513400000E+10  -3.227784992040353E-1    3.710858119106456E-1   -9.302519793692786E-5   -1.291890546824886E-4   -5.580642543404051E-5   -1.580552753178222E-4   -1.112392260743689E-1    4.706512631693204E-1
 1.010438047660000E+10  -3.225708712057122E-1    3.711151043734929E-1   -7.376964859391746E-5   -1.394444195370638E-4   -6.731527010730797E-5   -1.317231786642992E-4   -1.108118684448790E-1    4.707145369251008E-1
 1.010438581920000E+10  -3.223478296924100E-1    3.714163690522387E-1   -7.147584353157737E-5   -1.353098220060567E-4   -6.695506278361648E-5   -1.556799955923770E-4   -1.105051168131916E-1    4.709510138498613E-1
 1.010439116180000E+10  -3.220916007740865E-1    3.716441646900717E-1   -4.024381634155035E-5   -1.253597431673454E-4   -8.021752082935447E-5   -1.494389429786553E-4   -1.100742008405415E-1    4.709360129050597E-1
 1.010439650440000E+10  -3.218312761288649E-1    3.718792349642437E-1   -4.819517720039994E-5   -1.227411826695320E-4   -4.088354137634308E-5   -1.296523706282880E-4   -1.096227863527346E-1    4.709689032806743E-1
 1.010440184700000E+10  -3.217273396952789E-1    3.721578229954548E-1   -5.594947754826821E-5   -1.300039360877404E-4   -2.485748597328452E-5   -1.008074769947507E-4   -1.092202198030744E-1    4.710741342685960E-1
 1.010440718960000E+10  -3.212672192835705E-1    3.723302478485427E-1   -6.991796314436373E-5   -1.172260503875004E-4   -4.248911613739234E-5   -1.484661339267117E-4   -1.087814663491435E-1    4.712008944077991E-1
 1.010441253220000E+10  -3.210442931731951E-1    3.726040947015338E-1   -4.192355082558277E-5   -9.188708805653861E-5   -3.787121382589765E-5   -1.022643674814312E-4   -1.084149014099681E-1    4.713372911441150E-1
 1.010441787480000E+10  -3.209002031313334E-1    3.726471828161646E-1   -1.326233124753253E-5   -1.257956924679985E-4   -3.898314402014709E-5   -1.231119464873010E-4   -1.079734141818510E-1    4.715353583260748E-1
 1.010442321740000E+10  -3.207148677089412E-1    3.729693307946988E-1   -2.464573630144683E-5   -1.021455162263797E-4   -1.959151505524329E-5   -8.800018908524182E-5   -1.077209094305211E-1    4.714486268445190E-1
 1.010442856000000E+10  -3.203316392889845E-1    3.733215315805616E-1   -7.600527287612571E-6   -1.464076444519054E-4   -1.228474637172702E-6   -9.979856626028443E-5   -1.071778834066838E-1    4.716633651201326E-1
 1.010443390260000E+10  -3.201194556016601E-1    3.734350997873685E-1   -2.111306143979413E-5   -9.253034487920160E-5   -2.381996965566686E-6   -9.095946764754383E-5   -1.066894792935215E-1    4.717632249827485E-1
 1.010443924520000E+10  -3.200166655872932E-1    3.736566152213226E-1    9.750235506519796E-6   -1.221030658950266E-4   -8.987065392275732E-6   -7.458131661188280E-5   -1.063637198127736E-1    4.717561116699285E-1
 1.010444458780000E+10  -3.196733735847817E-1    3.740354632771084E-1    2.323800321320708E-5   -8.555312527652419E-5   -1.568196432387722E-5   -1.229235972707865E-4   -1.058611293320852E-1    4.718546391592775E-1
 1.010444993040000E+10  -3.194851526918520E-1    3.741700712267297E-1    1.743314140644190E-5   -9.446145314487692E-5    1.452639982327749E-5   -8.911446494591285E-5   -1.054968987920930E-1    4.719478088716528E-1
 1.010445527300000E+10  -3.192826041180384E-1    3.743630099297441E-1    2.431852746326428E-5   -1.207849079767077E-4    1.705178754378588E-5   -9.273808721107117E-5   -1.049774247413563E-1    4.721884078332056E-1
 1.010446061560000E+10  -3.189846701696256E-1    3.745798382364486E-1    7.016476052828833E-6   -9.961152463955572E-5    2.693760833550853E-5   -9.388507443089668E-5   -1.044417387358940E-1    4.722248721364259E-1
 1.010446595820000E+10  -3.186755793391139E-1    3.746985276905499E-1    2.048432877933215E-5   -9.775539633499607E-5    5.866078871915375E-5   -6.880257368687997E-5   -1.043606635192896E-1    4.723422882243393E-1
 1.010447130080000E+10  -3.184961481181006E-1    3.750301219715783E-1    5.255243360942663E-5   -8.168960216595128E-5    4.323323928876320E-5   -7.608670329587541E-5   -1.036471606690131E-1    4.724689876419388E-1
 1.010447664340000E+10  -3.182814040378217E-1    3.753500872718630E-1    5.579417797033799E-5   -9.731307202235182E-5    5.173616381791773E-5   -1.365820209883728E-4   -1.032044376698654E-1    4.725663951995261E-1
 1.010448198600000E+10  -3.180696440887635E-1    3.753563933814123E-1    7.993727709020204E-5   -8.732106873874842E-5    6.210059132769667E-5   -9.329996291934311E-5   -1.029154861441213E-1    4.725686093219830E-1
 1.010448732860000E+10  -3.178292529355928E-1    3.755962467891772E-1    7.949885806016265E-5   -5.721091698716254E-5    8.909499095662071E-5   -7.113038805654148E-5   -1.022921139421556E-1    4.725470711462593E-1
 1.010449267120000E+10  -3.175262858689763E-1    3.759211286687243E-1    8.581503298075313E-5   -4.859476130918538E-5    8.005150599840141E-5   -8.177623289261437E-5   -1.018620747217104E-1    4.727160633849649E-1
 1.010449801380000E+10  -3.172387436998199E-1    3.761872849029689E-1    1.151941493763961E-4   -9.004297668127044E-5    8.426302677500686E-5   -6.151289881820848E-5   -1.015021240759780E-1    4.730098700234793E-1
 1.010450335640000E+10  -3.170378277758990E-1    3.763735467260427E-1    9.639363094041037E-5   -9.051056122708238E-5    1.295753259993127E-4   -9.798005548830904E-5   -1.011076150554797E-1    4.730945526108417E-1
 1.010450869900000E+10  -3.167581767698842E-1    3.765441740445819E-1    1.124787044551375E-4   -7.312207119364562E-5    1.125713072128112E-4   -6.655286047863283E-5   -1.006317966600699E-1    4.730486647513917E-1
 1.010451404160000E+10  -3.165010828585604E-1    3.769060665916771E-1    1.651342613233119E-4   -8.740257846050656E-5    1.296622346994259E-4   -8.624665102163015E-5   -1.001614124125577E-1    4.731367782339014E-1
 1.010451938420000E+10  -3.163557190999812E-1    3.769192269031155E-1    1.217718175650087E-4   -5.717085019043290E-5    1.355408239505180E-4   -4.662728395895969E-5   -9.975053693495491E-2    4.731813677609817E-1
 1.010452472680000E+10  -3.160662302714448E-1    3.773025432987346E-1    1.471854632248932E-4   -7.737253204375979E-5    1.157713858957577E-4   -6.122031700126359E-5   -9.940539523332455E-2    4.732730850521694E-1
 1.010453006940000E+10  -3.158514532453074E-1    3.774940312816445E-1    1.770673055129559E-4   -6.272320372231154E-5    1.704779065626261E-4   -5.332629109692041E-5   -9.895046689739477E-2    4.732692571242743E-1
 1.010453541200000E+10  -3.156759709390383E-1    3.775746887035830E-1    1.846701576663156E-4   -8.058364323184687E-5    1.604705800076570E-4   -7.032960618995987E-5   -9.846095871576464E-2    4.734661744300262E-1
 1.010454075460000E+10  -3.153456023997764E-1    3.777979070348033E-1    1.761234647767492E-4   -6.190861413410717E-5    1.992087004418687E-4   -5.557451147768747E-5   -9.792235197611637E-2    4.735511595956652E-1
 1.010454609720000E+10  -3.150848818903698E-1    3.782124349073352E-1    1.711965472180192E-4   -8.144246882241731E-5    1.861428501988491E-4   -2.722224035542046E-5   -9.745365457609098E-2    4.736315942114284E-1
 1.010455143980000E+10  -3.149431169025673E-1    3.782598053506155E-1    2.202033767510336E-4   -7.892092077901714E-5    1.972603042370084E-4   -5.627521522408043E-5   -9.702279930600613E-2    4.736678336772029E-1
 1.010455678240000E+10  -3.146566506324825E-1    3.785446048862496E-1    2.081299579780881E-4   -6.359294556440839E-5    2.357067939245276E-4   -5.766572027999679E-5   -9.656046034968722E-2    4.736960071048412E-1
 1.010456212500000E+10  -3.144334789733474E-1    3.787925705723211E-1    2.405264094567743E-4   -8.205569511563687E-5    2.012190587825120E-4   -5.586714102957837E-5   -9.608661474010782E-2    4.738878334559934E-1
 1.010456746760000E+10  -3.142615136609392E-1    3.790004812696572E-1    2.597326739478623E-4   -5.287529490191826E-5    2.590119392063527E-4   -4.156661177566822E-5   -9.564103575585244E-2    4.740452946197700E-1
 1.010457281020000E+10  -3.138223780564591E-1    3.791541168866964E-1    2.606446992807254E-4   -5.796059088423858E-5    2.384063348901800E-4   -2.839919478951938E-5   -9.508569984493384E-2    4.738785322850839E-1
 1.010457815280000E+10  -3.135634355975547E-1    3.795575433321345E-1    2.780585032706780E-4   -4.559293303803590E-5    2.411456111210342E-4   -1.499169875831122E-5   -9.458768052841231E-2    4.740795640310735E-1
 1.010458349540000E+10  -3.134842938185904E-1    3.795763193315118E-1    2.831371398729683E-4   -5.383498764721153E-5    2.710744420363476E-4   -2.901762629027720E-5   -9.404926142276296E-2    4.741679192485780E-1
 1.010458883800000E+10  -3.131978113217084E-1    3.798210409500408E-1    2.704329562073539E-4   -5.517732101078424E-5    3.086438383220967E-4   -1.413106018164659E-5   -9.367526506169299E-2    4.743183929280703E-1
 1.010459418060000E+10  -3.129260688680727E-1    3.802180009198149E-1    3.018556260303160E-4   -2.827673042245583E-5    3.108999361811410E-4   -3.601587526690377E-5   -9.322293559459628E-2    4.742566110599485E-1
 1.010459952320000E+10  -3.127773689299357E-1    3.803847054859900E-1    2.971268203128706E-4   -4.107101352914137E-5    3.005307886083135E-4   -2.321073546689353E-5   -9.256105551830161E-2    4.743061897237574E-1
 1.010460486580000E+10  -3.124351956646595E-1    3.805624226357937E-1    3.368738690529907E-4   -3.187870646237572E-5    3.311853864621738E-4   -6.572941751959673E-6   -9.212286064435982E-2    4.743453980008692E-1
 1.010461020840000E+10  -3.121876469021622E-1    3.807810216436847E-1    3.423998067724304E-4   -4.996317930973367E-5    3.538385734268456E-4   -2.421199248809287E-5   -9.179052248157135E-2    4.745150815129586E-1
 1.010461555100000E+10  -3.118844305985206E-1    3.809092667698049E-1    3.739377299892521E-4   -1.967470479132636E-5    3.476806579484140E-4   -3.661028909900916E-6   -9.129752177898830E-2    4.746314081125451E-1
