#  HZ   S   RI   R     50.00 
! Rohde & Schwarz Vector Network Analyzer 
! Rohde-Schwarz,ZNB20-2Port,1311601062101988,3.16
! Created: UTC 3/20/2024, 4:58:50 PM
! freq[Hz]                re:S11                  im:S11                  re:S21                  im:S21                  re:S12                  im:S12                  re:S22                  im:S22
 1.010071497300000E+10  -4.429661357853191E-1    1.872595076483685E-1   -5.561584972200470E-4   -8.188438396251397E-4   -4.633722244774475E-4   -8.117920328435971E-4   -3.187874535355243E-1    3.500853106580740E-1
 1.010073582590000E+10  -4.425676498316451E-1    1.884015226160284E-1   -5.846932067158213E-4   -7.681504623244721E-4   -4.885850412347175E-4   -8.072660591107544E-4   -3.177687842979582E-1    3.510061721542751E-1
 1.010075667880000E+10  -4.420171131672925E-1    1.897295141440791E-1   -5.324922384237065E-4   -7.863826713100095E-4   -4.801198307015276E-4   -8.257110878556198E-4   -3.168580344248134E-1    3.520648256032003E-1
 1.010077753170000E+10  -4.416389855838922E-1    1.908502884936808E-1   -5.646117239994349E-4   -8.276408362674712E-4   -4.876359556460973E-4   -8.059069055180852E-4   -3.159508107853040E-1    3.529680279948001E-1
 1.010079838460000E+10  -4.412258744964471E-1    1.921495709371823E-1   -5.800819522077670E-4   -7.860940289681660E-4   -4.936300150177852E-4   -7.865707792812001E-4   -3.151060608320455E-1    3.538543616430836E-1
 1.010081923750000E+10  -4.408953749844061E-1    1.931507044469268E-1   -5.779204542890237E-4   -7.811291159579912E-4   -4.937450292427021E-4   -8.202471788022863E-4   -3.139661673171567E-1    3.548458606142272E-1
 1.010084009040000E+10  -4.404230033970568E-1    1.944505860179697E-1   -5.869349654392385E-4   -7.967054463685374E-4   -5.050242327161801E-4   -7.962963504769334E-4   -3.129467911766159E-1    3.558079382077067E-1
 1.010086094330000E+10  -4.398904202951262E-1    1.955739426417119E-1   -5.622947540786880E-4   -8.023998064036168E-4   -4.994920227216006E-4   -7.938991310625839E-4   -3.120889524662400E-1    3.566753560128209E-1
 1.010088179620000E+10  -4.394300194502330E-1    1.968272768074900E-1   -5.780508126284621E-4   -7.962423820251070E-4   -4.911663626755028E-4   -7.937935011775098E-4   -3.110013404147317E-1    3.576740644741080E-1
 1.010090264910000E+10  -4.389834127095390E-1    1.979676742652347E-1   -5.779576770430553E-4   -7.424210266002729E-4   -5.126477875021483E-4   -7.934528421718545E-4   -3.101410460841246E-1    3.585402454609167E-1
 1.010092350200000E+10  -4.384720392614786E-1    1.992175951744071E-1   -5.634334109181884E-4   -7.774575058574837E-4   -4.942734659960593E-4   -7.961248138214625E-4   -3.092736604340677E-1    3.593855335874714E-1
 1.010094435490000E+10  -4.380033853755188E-1    2.003144900976470E-1   -5.499220303760534E-4   -7.875738762665719E-4   -5.116549852640859E-4   -7.765847039231892E-4   -3.081336389847894E-1    3.604049531352735E-1
 1.010096520780000E+10  -4.376113387888420E-1    2.016927544089744E-1   -5.769501263218498E-4   -7.779180961711964E-4   -5.151307310747329E-4   -7.728775778060123E-4   -3.072258437368629E-1    3.613997258515039E-1
 1.010098606070000E+10  -4.371773848795893E-1    2.028729583951601E-1   -5.784825625800517E-4   -7.411805039603060E-4   -4.999372355006919E-4   -7.792837321897795E-4   -3.062109691435574E-1    3.621922692826337E-1
 1.010100691360000E+10  -4.366837414291324E-1    2.038842843015753E-1   -5.704750143402517E-4   -7.866915515041900E-4   -5.231038601651481E-4   -8.025185809223634E-4   -3.051973266039630E-1    3.630869258785726E-1
 1.010102776650000E+10  -4.360538222447728E-1    2.051526119062628E-1   -5.781643495078458E-4   -7.720167455405818E-4   -5.277123102221057E-4   -7.948732398684735E-4   -3.041379270716517E-1    3.640777694801741E-1
 1.010104861940000E+10  -4.355899374089503E-1    2.063070294491585E-1   -5.742944657031357E-4   -7.622693029543378E-4   -5.164789422853233E-4   -7.782362216576004E-4   -3.032522996699459E-1    3.650647314993121E-1
 1.010106947230000E+10  -4.353420873388745E-1    2.074870626342570E-1   -5.774406008358708E-4   -7.542225424019145E-4   -5.220710538346972E-4   -7.767005412324150E-4   -3.021570690644532E-1    3.658719289015684E-1
 1.010109032520000E+10  -4.346441756005077E-1    2.086749549091657E-1   -5.653383734769512E-4   -7.472352915409763E-4   -5.311771213442234E-4   -7.939212825808701E-4   -3.011786460640374E-1    3.669329631404253E-1
 1.010111117810000E+10  -4.341294270604427E-1    2.097772996260668E-1   -5.717104355716736E-4   -7.820294323435484E-4   -5.252386460674861E-4   -7.511107772992102E-4   -3.001470031085396E-1    3.677303041097181E-1
 1.010113203100000E+10  -4.335834176773739E-1    2.109999747504607E-1   -5.874706704927174E-4   -7.420490867530897E-4   -5.252000853714229E-4   -7.574225234324544E-4   -2.991452286440414E-1    3.686164686355546E-1
 1.010115288390000E+10  -4.331469305067725E-1    2.121846008808058E-1   -5.811903512579757E-4   -7.611284556735076E-4   -5.023548089841861E-4   -7.933136982028756E-4   -2.982661238775459E-1    3.695219157008715E-1
 1.010117373680000E+10  -4.326605487700248E-1    2.133603575720914E-1   -5.976728798445843E-4   -7.556280303385507E-4   -5.137941289960507E-4   -7.684632249921981E-4   -2.970785054461790E-1    3.704599329120405E-1
 1.010119458970000E+10  -4.322727577584266E-1    2.145627760469878E-1   -5.801065496491441E-4   -7.503872711894775E-4   -5.130594422618859E-4   -7.364476563070121E-4   -2.961556809137754E-1    3.713055144304909E-1
 1.010121544260000E+10  -4.315855505858868E-1    2.156255416206359E-1   -5.830184179257495E-4   -7.443874351913731E-4   -5.204484240976266E-4   -7.605070051046867E-4   -2.953040356691218E-1    3.723027988941641E-1
 1.010123629550000E+10  -4.312458039334111E-1    2.168215059729883E-1   -5.643861715523068E-4   -7.298322082279527E-4   -5.183431023398493E-4   -7.539288427525253E-4   -2.941684533400149E-1    3.731571610434665E-1
 1.010125714840000E+10  -4.307806829874674E-1    2.181184056267039E-1   -5.655836293194513E-4   -7.271416823734437E-4   -5.383978643351191E-4   -7.683137199389114E-4   -2.930582222056263E-1    3.740205902574338E-1
 1.010127800130000E+10  -4.301969946171370E-1    2.192257888744731E-1   -5.913083674246927E-4   -7.422186908897774E-4   -5.280898603772060E-4   -7.434348227317471E-4   -2.920812269624842E-1    3.749776262312431E-1
 1.010129885420000E+10  -4.296656873320762E-1    2.203774892409314E-1   -6.011137111146477E-4   -7.488761739955967E-4   -5.128185478966568E-4   -7.538197505585674E-4   -2.910669702722737E-1    3.758849379908831E-1
 1.010131970710000E+10  -4.291275843834437E-1    2.214490036369710E-1   -5.830228600971455E-4   -7.297015244631098E-4   -5.066288374157362E-4   -7.501395090728461E-4   -2.899287602969708E-1    3.765018820441318E-1
 1.010134056000000E+10  -4.285148576433883E-1    2.227085122373835E-1   -5.820143390177039E-4   -7.337006732080072E-4   -5.306183515087070E-4   -7.436133109596416E-4   -2.890221185548456E-1    3.775311704192654E-1
 1.010136141290000E+10  -4.280541505422853E-1    2.237585830899998E-1   -5.993812934714153E-4   -7.338619792296738E-4   -5.070070653814951E-4   -7.382357612498801E-4   -2.878922122732603E-1    3.783631576878699E-1
 1.010138226580000E+10  -4.275369485201523E-1    2.250946474984595E-1   -5.842518597335454E-4   -7.481846816103153E-4   -5.338145828138034E-4   -7.751571246118785E-4   -2.868664725180441E-1    3.792654141978250E-1
 1.010140311870000E+10  -4.269203724400544E-1    2.260217331474278E-1   -5.739886467657263E-4   -7.249650569662352E-4   -4.996176132594134E-4   -7.266350497367749E-4   -2.859375943023145E-1    3.801117762859244E-1
 1.010142397160000E+10  -4.263383535559782E-1    2.272586704051367E-1   -6.018577636011683E-4   -7.144894471900233E-4   -5.085764047908619E-4   -7.291139057114828E-4   -2.848785855574716E-1    3.810741482291102E-1
 1.010144482450000E+10  -4.259552267451265E-1    2.284545791386432E-1   -5.988290159223073E-4   -7.011862530381535E-4   -5.196289806197888E-4   -7.406044243302710E-4   -2.838306273909604E-1    3.817563644813545E-1
 1.010146567740000E+10  -4.254222972091872E-1    2.295832959343901E-1   -6.036548838208939E-4   -7.047195409076965E-4   -5.400107180725101E-4   -7.431746010927445E-4   -2.827673651533468E-1    3.825692503716668E-1
 1.010148653030000E+10  -4.248109587761810E-1    2.306778088062265E-1   -6.017009341091434E-4   -7.288408067954389E-4   -5.362765497642038E-4   -7.510529097396193E-4   -2.815925080215735E-1    3.834457305943060E-1
 1.010150738320000E+10  -4.242753188124297E-1    2.319432942515270E-1   -6.206037775695425E-4   -7.115716439809450E-4   -5.284037951921334E-4   -7.505831572212372E-4   -2.806874063422592E-1    3.843389769652373E-1
 1.010152823610000E+10  -4.237699977351585E-1    2.330237502874307E-1   -6.107522899105879E-4   -6.827285345375497E-4   -5.455661026152369E-4   -7.178156497605939E-4   -2.796350182946724E-1    3.851917905615099E-1
 1.010154908900000E+10  -4.232650458945655E-1    2.341943960047874E-1   -5.898620041316896E-4   -6.978845326081330E-4   -5.646778722712652E-4   -7.513361468925548E-4   -2.786029989942768E-1    3.860184141489526E-1
 1.010156994190000E+10  -4.227716331564729E-1    2.352171773423786E-1   -5.864734794027563E-4   -6.892672923336885E-4   -5.205789896367491E-4   -7.183388401396771E-4   -2.774000595936227E-1    3.869984136646200E-1
 1.010159079480000E+10  -4.221339719138300E-1    2.363494847462707E-1   -6.210955678599470E-4   -6.864518778595389E-4   -5.417574320532615E-4   -7.124771199018354E-4   -2.764173759869782E-1    3.877693111693089E-1
 1.010161164770000E+10  -4.215180071760729E-1    2.375538759273953E-1   -5.864358845207389E-4   -7.254218929304239E-4   -5.232484291238023E-4   -7.144046365756461E-4   -2.754381637777457E-1    3.886458551776062E-1
 1.010163250060000E+10  -4.210365141429370E-1    2.387915146501491E-1   -6.132025631573703E-4   -6.918484956368547E-4   -5.288467349265415E-4   -7.062825396937759E-4   -2.741704950395770E-1    3.894288618271827E-1
 1.010165335350000E+10  -4.203329134008763E-1    2.398033391656680E-1   -5.949898789141371E-4   -7.136992086553681E-4   -5.253696653404326E-4   -7.065773689511641E-4   -2.732643589130697E-1    3.901789597337800E-1
 1.010167420640000E+10  -4.197766377221815E-1    2.409358008178188E-1   -5.878318964051745E-4   -6.722966028246425E-4   -5.411801469574942E-4   -7.054229045744554E-4   -2.720935842426167E-1    3.911075274163884E-1
 1.010169505930000E+10  -4.192427642320468E-1    2.421627234799273E-1   -5.980611905266385E-4   -7.077438577504555E-4   -5.460059566050053E-4   -7.105035925162171E-4   -2.710069867503686E-1    3.918625959695765E-1
 1.010171591220000E+10  -4.186637018726082E-1    2.432196501654006E-1   -6.050295662278075E-4   -6.751240943120063E-4   -5.427046525358340E-4   -7.059512060157981E-4   -2.700150727677274E-1    3.926326255903071E-1
 1.010173676510000E+10  -4.180746804556565E-1    2.444738726615966E-1   -6.273660960377138E-4   -6.662437150408862E-4   -5.433123918766387E-4   -7.066698956011906E-4   -2.689057241084612E-1    3.935636562279433E-1
 1.010175761800000E+10  -4.174956562911827E-1    2.454274042695473E-1   -6.254419832828811E-4   -6.704889212113010E-4   -5.102282298925050E-4   -7.381384972371273E-4   -2.677646957718225E-1    3.943085781320573E-1
 1.010177847090000E+10  -4.169633928640332E-1    2.466839138529731E-1   -6.079579708171424E-4   -7.159021358222783E-4   -5.370872061545743E-4   -6.646683863157225E-4   -2.667519819267033E-1    3.950636569630575E-1
 1.010179932380000E+10  -4.163305591841807E-1    2.478529041106083E-1   -6.143558743397969E-4   -6.763084053003083E-4   -5.330739814862307E-4   -6.891031375743877E-4   -2.655763518430424E-1    3.959924439203476E-1
 1.010182017670000E+10  -4.156705960702470E-1    2.488664502602912E-1   -6.039434455409499E-4   -6.919990492402204E-4   -5.605224742652284E-4   -7.162554573386808E-4   -2.645688568079164E-1    3.967612269600175E-1
 1.010184102960000E+10  -4.152021522044717E-1    2.499455194816770E-1   -5.934747148121491E-4   -6.481587773363841E-4   -5.313497768757191E-4   -6.978822613718300E-4   -2.634641827332542E-1    3.975478334496985E-1
 1.010186188250000E+10  -4.145311626385096E-1    2.511439334316983E-1   -6.399560384318910E-4   -6.551803231310396E-4   -5.297278783361620E-4   -6.755323130956092E-4   -2.623233670796450E-1    3.982071230745094E-1
 1.010188273540000E+10  -4.139121919342016E-1    2.521106524062203E-1   -6.196409754006031E-4   -6.685957786685666E-4   -5.423075218969380E-4   -6.793217733170566E-4   -2.612544642486326E-1    3.991932040815229E-1
 1.010190358830000E+10  -4.134092233035728E-1    2.532386030118562E-1   -6.064805197776566E-4   -6.609791997817476E-4   -5.337348899069443E-4   -6.879450451551149E-4   -2.601177889719289E-1    3.999504790461170E-1
 1.010192444120000E+10  -4.127741636407758E-1    2.544681363478770E-1   -5.943132852187192E-4   -6.910711117296487E-4   -5.388779943304054E-4   -6.755680861797523E-4   -2.589423743972621E-1    4.007897137529348E-1
 1.010194529410000E+10  -4.121237641049630E-1    2.556032025088383E-1   -5.982434843369586E-4   -6.457040128084658E-4   -5.443874150023904E-4   -6.639262240695917E-4   -2.579075171071319E-1    4.014283536088591E-1
 1.010196614700000E+10  -4.115325047903657E-1    2.567280841072671E-1   -6.092822242724166E-4   -6.141076885865058E-4   -5.232514288647987E-4   -6.764038931448481E-4   -2.568072736465095E-1    4.022835340544058E-1
 1.010198699990000E+10  -4.107856801263888E-1    2.578319360374835E-1   -5.909256373921523E-4   -6.267555364646082E-4   -5.422626810093310E-4   -6.684389293560795E-4   -2.557053258330713E-1    4.030659506360621E-1
 1.010200785280000E+10  -4.102332387825258E-1    2.589264862504635E-1   -6.062218821856910E-4   -6.090616942130262E-4   -5.454575033985888E-4   -6.468578151515756E-4   -2.545745550123070E-1    4.039388038737617E-1
 1.010202870570000E+10  -4.096153806513100E-1    2.599737790580006E-1   -5.851155346937233E-4   -6.411851662517383E-4   -5.161343681747131E-4   -6.581993748624344E-4   -2.533691500106387E-1    4.046585368556740E-1
 1.010204955860000E+10  -4.090980266055040E-1    2.610917147859354E-1   -5.813599222390463E-4   -6.488264018288747E-4   -5.555245272777188E-4   -6.750608676048041E-4   -2.523794269655008E-1    4.054612493643879E-1
 1.010207041150000E+10  -4.083579676668507E-1    2.622480192838808E-1   -5.913065982296952E-4   -6.372334888677532E-4   -5.158494316192173E-4   -6.881142207339288E-4   -2.512462487091854E-1    4.060853343156759E-1
 1.010209126440000E+10  -4.077718176361977E-1    2.632972482884310E-1   -6.040164142816507E-4   -6.511611153724782E-4   -5.307868708136947E-4   -6.482646097677803E-4   -2.500892297958747E-1    4.069857284783736E-1
 1.010211211730000E+10  -4.072351755256950E-1    2.643908590136009E-1   -6.060924923461014E-4   -6.310496951664479E-4   -5.073232917734630E-4   -6.504689541805500E-4   -2.489710889694325E-1    4.077090179652709E-1
 1.010213297020000E+10  -4.064037076578004E-1    2.655428051316624E-1   -6.081792891830490E-4   -6.167471995172291E-4   -5.102225809960653E-4   -6.541070054224213E-4   -2.476739007916578E-1    4.084284073239413E-1
 1.010215382310000E+10  -4.058546454292111E-1    2.665457683783996E-1   -6.071937325601578E-4   -6.302066559015410E-4   -5.267757713941165E-4   -6.211218431665288E-4   -2.466306497355087E-1    4.091268311529360E-1
 1.010217467600000E+10  -4.052313044597659E-1    2.677426234073111E-1   -5.951101276076793E-4   -5.899824064731499E-4   -5.120572860782958E-4   -6.525743275850834E-4   -2.455261843880075E-1    4.099623098708761E-1
 1.010219552890000E+10  -4.045915799707662E-1    2.687656385807361E-1   -6.009286911806520E-4   -6.006199701874049E-4   -5.428776113995344E-4   -6.415008281572222E-4   -2.444900066936881E-1    4.107531602251260E-1
 1.010221638180000E+10  -4.038405824153724E-1    2.698905061701727E-1   -6.199057405946351E-4   -6.211744190322429E-4   -5.244120431053773E-4   -6.144628717247755E-4   -2.432354999762802E-1    4.113872603116280E-1
 1.010223723470000E+10  -4.031676157510892E-1    2.709281236404482E-1   -5.912963782333361E-4   -6.153059675326276E-4   -5.148115098455335E-4   -6.142503903629788E-4   -2.420488002789461E-1    4.121694920089177E-1
 1.010225808760000E+10  -4.026251243314326E-1    2.720177416833360E-1   -6.212796947116255E-4   -6.130181192829875E-4   -5.282232516148483E-4   -5.983169018145979E-4   -2.408684485999224E-1    4.128838408090106E-1
 1.010227894050000E+10  -4.019458361246414E-1    2.730227934601299E-1   -6.019385019934973E-4   -5.896676831756197E-4   -5.287963838171541E-4   -6.299361779915901E-4   -2.397532444131244E-1    4.136554722444412E-1
 1.010229979340000E+10  -4.011655407738154E-1    2.741208460056698E-1   -5.730047913055269E-4   -6.244317743379723E-4   -5.426528072822731E-4   -6.250383609679922E-4   -2.387773236377378E-1    4.144843221675570E-1
 1.010232064630000E+10  -4.007449753450021E-1    2.752102456386983E-1   -5.873279859433902E-4   -6.038246529161958E-4   -5.273280972963364E-4   -6.234055147073262E-4   -2.374567553403838E-1    4.151107060149942E-1
 1.010234149920000E+10  -4.000034926864486E-1    2.763792681670725E-1   -6.068908346729191E-4   -5.819984617110559E-4   -5.389067561299107E-4   -6.334958018147261E-4   -2.363357127147315E-1    4.157666477743858E-1
 1.010236235210000E+10  -3.992485488999422E-1    2.774202130557015E-1   -5.800426271818387E-4   -5.849975630246778E-4   -5.033807628099133E-4   -5.821040275250764E-4   -2.352286596540211E-1    4.164522884863519E-1
 1.010238320500000E+10  -3.986702075416412E-1    2.785835826205603E-1   -5.863204410806026E-4   -5.768075272424058E-4   -5.384273763376297E-4   -6.087977552506277E-4   -2.339570155350003E-1    4.172052788880261E-1
 1.010240405790000E+10  -3.978387024771770E-1    2.796295318024195E-1   -5.710458412754199E-4   -5.725982322485925E-4   -5.272670991062192E-4   -6.148042064529254E-4   -2.327781310482217E-1    4.179177587296208E-1
 1.010242491080000E+10  -3.972646626515574E-1    2.806129791884166E-1   -5.692702147733571E-4   -5.915911823790466E-4   -5.380259046473108E-4   -6.072471436325717E-4   -2.317020711646478E-1    4.186808313174841E-1
 1.010244576370000E+10  -3.966239708072370E-1    2.817054730983375E-1   -5.822194106182242E-4   -5.667425381366806E-4   -5.104350063838983E-4   -5.995207821053933E-4   -2.304501137107612E-1    4.193722118680998E-1
 1.010246661660000E+10  -3.960059011903982E-1    2.829151610058953E-1   -5.732660976165599E-4   -5.685424396862087E-4   -4.858826432725267E-4   -5.993040933632560E-4   -2.293818597723493E-1    4.200723844259148E-1
 1.010248746950000E+10  -3.951969799288820E-1    2.839043863695199E-1   -5.638413669954797E-4   -5.626010642263622E-4   -5.083186148394230E-4   -5.794157088458722E-4   -2.282904983281202E-1    4.207099488553905E-1
 1.010250832240000E+10  -3.946592256076829E-1    2.849074044510946E-1   -5.352466285141077E-4   -5.535449542393547E-4   -5.165136520880497E-4   -5.757027773990718E-4   -2.269652885114820E-1    4.214583186390151E-1
 1.010252917530000E+10  -3.938024428441412E-1    2.859959434828758E-1   -5.736419895002852E-4   -5.787632075632757E-4   -4.938453981128265E-4   -5.847502584936917E-4   -2.256921303935960E-1    4.222611204307707E-1
 1.010255002820000E+10  -3.932756205691975E-1    2.870029547903438E-1   -6.093618298498955E-4   -5.378938382004304E-4   -5.194936011703125E-4   -5.834136778084525E-4   -2.245611703525285E-1    4.229341616467802E-1
 1.010257088110000E+10  -3.924859524574253E-1    2.880861277788754E-1   -5.640416612501292E-4   -5.645150265849600E-4   -5.169054595776067E-4   -5.464696707728679E-4   -2.233270700023821E-1    4.236295079659855E-1
 1.010259173400000E+10  -3.917528189686012E-1    2.892348553254003E-1   -5.519660313326100E-4   -5.121069073031514E-4   -5.168391643278957E-4   -5.582326297449667E-4   -2.219800539682428E-1    4.243465151881846E-1
