#  HZ   S   RI   R     50.00 
! Rohde & Schwarz Vector Network Analyzer 
! Rohde-Schwarz,ZNB20-2Port,1311601062101988,3.16
! Created: UTC 3/20/2024, 5:04:46 PM
! freq[Hz]                re:S11                  im:S11                  re:S21                  im:S21                  re:S12                  im:S12                  re:S22                  im:S22
 1.010047290900000E+10  -4.477047579056365E-1    1.730116291036725E-1   -5.348530099659100E-4   -8.168740286454660E-4   -4.826498472542440E-4   -8.591143729392951E-4   -3.299208775257726E-1    3.381528872518483E-1
 1.010049514287500E+10  -4.471875684093855E-1    1.744077319385269E-1   -5.265044036824374E-4   -8.186612964254224E-4   -4.628471839125872E-4   -8.456352452729659E-4   -3.289504766673398E-1    3.390599855499831E-1
 1.010051737675000E+10  -4.468028864591942E-1    1.756238662396572E-1   -5.363782526173515E-4   -8.471684224625897E-4   -4.472265779915110E-4   -8.441231978725197E-4   -3.281610407446173E-1    3.401605459265545E-1
 1.010053961062500E+10  -4.463488999789023E-1    1.769243776773536E-1   -5.542576729419164E-4   -8.177588265340835E-4   -4.571735611287344E-4   -8.286783249037327E-4   -3.271142589325271E-1    3.412201347342367E-1
 1.010056184450000E+10  -4.459767259693451E-1    1.782138156741210E-1   -5.789534402267442E-4   -8.282692250992873E-4   -4.867187567180644E-4   -8.438918585645988E-4   -3.262076103764659E-1    3.423057600205225E-1
 1.010058407837500E+10  -4.455670607074541E-1    1.794282439232894E-1   -5.473262857376826E-4   -8.214695093073260E-4   -4.885205028456452E-4   -8.328679074776418E-4   -3.251263203267282E-1    3.433985647001502E-1
 1.010060631225000E+10  -4.451600276360326E-1    1.809488041396719E-1   -5.413439069943765E-4   -8.226849522150544E-4   -4.607268130383331E-4   -8.333941877992980E-4   -3.240323221049201E-1    3.443069583183055E-1
 1.010062854612500E+10  -4.444831770158246E-1    1.820737700053185E-1   -5.284152065778959E-4   -8.094416461313243E-4   -4.578549046524866E-4   -8.538903406702236E-4   -3.231313406730014E-1    3.455731749262728E-1
 1.010065078000000E+10  -4.442080153030478E-1    1.833699084852811E-1   -5.079896719772858E-4   -8.295319259523831E-4   -4.695053448142764E-4   -8.301011597330190E-4   -3.221288717765960E-1    3.464980443245478E-1
 1.010067301387500E+10  -4.436478081441257E-1    1.847176784800912E-1   -5.286952481131375E-4   -7.926150880623340E-4   -4.937061689834889E-4   -8.127310295059311E-4   -3.210316932041237E-1    3.475053549394850E-1
 1.010069524775000E+10  -4.433180487714358E-1    1.860165964836543E-1   -5.704023112914001E-4   -8.157791886056864E-4   -4.962329343979836E-4   -8.292184415603833E-4   -3.201032289966074E-1    3.484846471750961E-1
 1.010071748162500E+10  -4.427868929513747E-1    1.872942449329689E-1   -5.587950776049054E-4   -8.183694363819877E-4   -5.090540495031970E-4   -8.286806660573542E-4   -3.191892425675217E-1    3.495099865700838E-1
 1.010073971550000E+10  -4.422924123723449E-1    1.886169104602269E-1   -5.692016526367418E-4   -8.115979432463940E-4   -4.710682608606723E-4   -8.189427716363161E-4   -3.181569414022830E-1    3.505646039076040E-1
 1.010076194937500E+10  -4.419586193963081E-1    1.897095531880139E-1   -5.562677282680526E-4   -8.176583605569853E-4   -4.764154659436538E-4   -8.207376583347424E-4   -3.171789587509678E-1    3.516072261325470E-1
 1.010078418325000E+10  -4.414409072806951E-1    1.911123506534755E-1   -5.888859528885875E-4   -8.011487470141035E-4   -4.799342205994854E-4   -7.927008063775914E-4   -3.160782552035996E-1    3.525493581821647E-1
 1.010080641712500E+10  -4.409897002010997E-1    1.922294239408496E-1   -5.284956392772997E-4   -7.859285366815067E-4   -5.030928259583044E-4   -8.126014627527292E-4   -3.150629838045395E-1    3.535634338041719E-1
 1.010082865100000E+10  -4.404741587915121E-1    1.935866211260422E-1   -5.648205008296624E-4   -8.009758626657905E-4   -4.789814961605276E-4   -7.967342161183419E-4   -3.140609575710375E-1    3.546403828501529E-1
 1.010085088487500E+10  -4.399361733743654E-1    1.948148030447963E-1   -5.510651597787713E-4   -7.683289843905373E-4   -4.977843644780912E-4   -7.940444090108942E-4   -3.129635582961182E-1    3.556465855517281E-1
 1.010087311875000E+10  -4.394510982995373E-1    1.960757020030759E-1   -5.668386355803819E-4   -7.889860869831757E-4   -4.980300007370007E-4   -7.791844289302435E-4   -3.118845718680491E-1    3.565531476534544E-1
 1.010089535262500E+10  -4.390841183600757E-1    1.974053309000542E-1   -5.576268189037924E-4   -7.715595769596501E-4   -4.963437369204600E-4   -8.009586390203256E-4   -3.107945774589210E-1    3.576174567131898E-1
 1.010091758650000E+10  -4.383832946723203E-1    1.987017086673769E-1   -5.409120557119224E-4   -7.714350099934525E-4   -4.913227304011448E-4   -8.025051088915800E-4   -3.098249050620495E-1    3.586492013666596E-1
 1.010093982037500E+10  -4.380213974773224E-1    1.998196723274087E-1   -5.671376637770949E-4   -7.932502792041648E-4   -4.910854269092976E-4   -8.217202936553939E-4   -3.087638347509929E-1    3.595408053722263E-1
 1.010096205425000E+10  -4.376615948904513E-1    2.012112021252992E-1   -5.661407901665305E-4   -7.622502194315664E-4   -5.134042398835544E-4   -8.063804006400568E-4   -3.078291299408480E-1    3.606336248153031E-1
 1.010098428812500E+10  -4.371096506599055E-1    2.024645571048440E-1   -5.811973542117464E-4   -7.319089646970820E-4   -4.950536265636601E-4   -8.096489020350333E-4   -3.067559726499394E-1    3.614133770311027E-1
 1.010100652200000E+10  -4.365733336098118E-1    2.036159409969759E-1   -5.595973189969752E-4   -7.769161071788041E-4   -5.085549388345900E-4   -7.895199937402343E-4   -3.057123694566267E-1    3.623976886949310E-1
 1.010102875587500E+10  -4.359894784321097E-1    2.049182101814769E-1   -5.849326718051974E-4   -7.589399210833868E-4   -4.906643627536733E-4   -7.777169109081380E-4   -3.046460096843431E-1    3.634696403216819E-1
 1.010105098975000E+10  -4.355089431753084E-1    2.062761847314707E-1   -5.954163368373789E-4   -7.371589255129932E-4   -5.124803526013480E-4   -7.419271064055264E-4   -3.036769596093247E-1    3.644159479856968E-1
 1.010107322362500E+10  -4.349091215026092E-1    2.075327741526634E-1   -5.592618675924945E-4   -7.718072475132656E-4   -5.036043925332494E-4   -7.763712838000721E-4   -3.024584222467880E-1    3.654709509694477E-1
 1.010109545750000E+10  -4.344527596754479E-1    2.088225842154740E-1   -5.938233308282728E-4   -7.736302929227073E-4   -4.944324255141135E-4   -7.787659695468093E-4   -3.014210300177939E-1    3.663848910516763E-1
 1.010111769137500E+10  -4.339422650861763E-1    2.099868109812784E-1   -5.648499669315225E-4   -7.667019416126396E-4   -5.027396132033251E-4   -7.529638298462690E-4   -3.004686098196994E-1    3.673045288336166E-1
 1.010113992525000E+10  -4.333479426915210E-1    2.111561802744026E-1   -5.849472562199532E-4   -7.429801560896908E-4   -4.877685477227555E-4   -7.644652788946665E-4   -2.993405322416125E-1    3.683400458655542E-1
 1.010116215912500E+10  -4.327477640004765E-1    2.124473347199382E-1   -5.651476128116774E-4   -7.495231609704862E-4   -4.933749390567726E-4   -7.821724670469152E-4   -2.983208411524400E-1    3.692269265544972E-1
 1.010118439300000E+10  -4.322100937296009E-1    2.135654445223055E-1   -5.776717160060804E-4   -7.624422626561121E-4   -5.378827216594932E-4   -7.619277910897047E-4   -2.970150600639761E-1    3.701672135003296E-1
 1.010120662687500E+10  -4.318401078173906E-1    2.150206899188415E-1   -5.715849693541963E-4   -7.449967364147552E-4   -5.285160153348085E-4   -7.496939673636269E-4   -2.960144024080101E-1    3.711307582166631E-1
 1.010122886075000E+10  -4.313665097746702E-1    2.161169512004959E-1   -5.826079226548196E-4   -7.401894947788026E-4   -4.754546615993419E-4   -7.799591710998281E-4   -2.948914892506520E-1    3.721551091899140E-1
 1.010125109462500E+10  -4.307534039232248E-1    2.174140390845290E-1   -5.676938714613824E-4   -7.693107142117189E-4   -4.978389464707056E-4   -7.647011420077920E-4   -2.938861564281940E-1    3.731291306949907E-1
 1.010127332850000E+10  -4.302823434646358E-1    2.186231658917056E-1   -5.596978065952285E-4   -7.273711338739040E-4   -4.925717226970546E-4   -7.575321416177763E-4   -2.928229967734489E-1    3.740408528773883E-1
 1.010129556237500E+10  -4.295541129317754E-1    2.199856022995254E-1   -5.758125994962265E-4   -7.405331898791050E-4   -5.112812220605380E-4   -7.710891178961381E-4   -2.917798504652552E-1    3.749638903398960E-1
 1.010131779625000E+10  -4.290853821973298E-1    2.212617175951300E-1   -5.840965825757767E-4   -7.210049549673034E-4   -5.304934686581636E-4   -7.698077166661645E-4   -2.904950041378305E-1    3.759717153649309E-1
 1.010134003012500E+10  -4.285456729666017E-1    2.222816661021039E-1   -5.996878928408540E-4   -7.160776542673888E-4   -5.100105556561030E-4   -7.378345523045195E-4   -2.894164613363495E-1    3.768328403129564E-1
 1.010136226400000E+10  -4.281062942721988E-1    2.236278149727071E-1   -5.822593917038754E-4   -7.291181597095874E-4   -5.370943761806447E-4   -7.449051458093416E-4   -2.885727690106512E-1    3.778606814266441E-1
 1.010138449787500E+10  -4.275114048802690E-1    2.249176569395677E-1   -5.829273631884177E-4   -7.309510395239516E-4   -4.898611117270983E-4   -7.843297364074098E-4   -2.874156063144955E-1    3.786908610140422E-1
 1.010140673175000E+10  -4.268680373791622E-1    2.261020790774501E-1   -6.259847805816143E-4   -6.974307755313585E-4   -5.228339354211794E-4   -7.656998173116444E-4   -2.862121966683078E-1    3.795959222303568E-1
 1.010142896562500E+10  -4.263412624711601E-1    2.273893112132597E-1   -5.863705659773119E-4   -6.964674662557691E-4   -5.239146531153579E-4   -7.442239785351554E-4   -2.851400234751597E-1    3.804432193382639E-1
 1.010145119950000E+10  -4.256761241561192E-1    2.285035227808241E-1   -6.164498997476834E-4   -7.281220640187081E-4   -5.015560121544679E-4   -7.489562569668693E-4   -2.840591696498413E-1    3.814363004896746E-1
 1.010147343337500E+10  -4.251488017955233E-1    2.297120746554891E-1   -5.798167782627753E-4   -7.302508028966621E-4   -5.367478785092190E-4   -7.255477637682897E-4   -2.827555196190755E-1    3.824706403706972E-1
 1.010149566725000E+10  -4.244550958874057E-1    2.310701146882315E-1   -5.785180496347619E-4   -7.049188283162084E-4   -5.165010564398650E-4   -7.447163441517660E-4   -2.816601619959110E-1    3.832411233463195E-1
 1.010151790112500E+10  -4.238992916446261E-1    2.322842741617540E-1   -6.117118588880482E-4   -6.965771426400749E-4   -5.384782907811320E-4   -7.213289163032942E-4   -2.806276368742448E-1    3.842358090615534E-1
 1.010154013500000E+10  -4.233299033680329E-1    2.333703125335657E-1   -6.072173556283192E-4   -6.793997812195482E-4   -5.345906786795303E-4   -7.154150144254455E-4   -2.794218489715971E-1    3.850020830387144E-1
 1.010156236887500E+10  -4.227944581574107E-1    2.345130836524628E-1   -6.135807431895663E-4   -6.907537849631661E-4   -5.219386308316064E-4   -7.038436552289772E-4   -2.783070142090195E-1    3.860395623437617E-1
 1.010158460275000E+10  -4.220441461299693E-1    2.357809722353264E-1   -5.774840366072517E-4   -7.145240531155246E-4   -5.348568283536719E-4   -7.209279118861052E-4   -2.771205533410959E-1    3.868026601780544E-1
 1.010160683662500E+10  -4.217137604854115E-1    2.370722807160197E-1   -6.012544112044671E-4   -7.035414555271372E-4   -5.480655835811361E-4   -7.100562893782769E-4   -2.763135026240990E-1    3.877171818767906E-1
 1.010162907050000E+10  -4.209863679670018E-1    2.381433609221543E-1   -5.930223757154576E-4   -7.141116779960320E-4   -5.397761590120183E-4   -7.103801782305403E-4   -2.748964105737445E-1    3.885856216244278E-1
 1.010165130437500E+10  -4.204827432701992E-1    2.394803794430365E-1   -6.313421655323766E-4   -6.958681975672449E-4   -5.272886291463984E-4   -7.132873826378160E-4   -2.737737619154815E-1    3.895846182392064E-1
 1.010167353825000E+10  -4.196553943155354E-1    2.406471495591705E-1   -5.991886279910766E-4   -6.875478920763197E-4   -5.454359064943071E-4   -7.163894938023127E-4   -2.726287123106659E-1    3.903856954701806E-1
 1.010169577212500E+10  -4.191917029929273E-1    2.418418370986297E-1   -5.870314437018206E-4   -6.863198968412245E-4   -5.288409269920559E-4   -6.966931783227495E-4   -2.715639280285347E-1    3.913014935676254E-1
 1.010171800600000E+10  -4.185334994923098E-1    2.430310991602289E-1   -6.054665461178327E-4   -6.985785297300639E-4   -5.231536348716520E-4   -6.903043857080300E-4   -2.703366447343453E-1    3.922185674915673E-1
 1.010174023987500E+10  -4.179767376829100E-1    2.442683699883369E-1   -6.093631681686442E-4   -6.857096042323662E-4   -5.466104522123809E-4   -6.866726120273145E-4   -2.692607057026321E-1    3.930727477481613E-1
 1.010176247375000E+10  -4.173012550856516E-1    2.455610225171891E-1   -6.085866335245492E-4   -6.928497415940808E-4   -5.457203632020115E-4   -7.024286243062273E-4   -2.680418338426891E-1    3.939523247091033E-1
 1.010178470762500E+10  -4.166831128402946E-1    2.466359563709470E-1   -6.069459851404807E-4   -6.757805547920714E-4   -5.183985145941949E-4   -6.810379025420717E-4   -2.669309457206440E-1    3.948037921402677E-1
 1.010180694150000E+10  -4.160950252829150E-1    2.479310196819439E-1   -5.997993754707458E-4   -6.677774107714310E-4   -5.288686145957906E-4   -7.063288442312776E-4   -2.657342917674902E-1    3.955463799085457E-1
 1.010182917537500E+10  -4.153335912335984E-1    2.491450162498072E-1   -5.692395400969251E-4   -6.852936471677517E-4   -5.508927107166381E-4   -6.893528943794932E-4   -2.645360160536094E-1    3.966474211609739E-1
 1.010185140925000E+10  -4.148590851303064E-1    2.503645364332772E-1   -6.371290515459823E-4   -6.929021210523914E-4   -5.393881454467755E-4   -6.769021110886386E-4   -2.633605709901671E-1    3.973015200603571E-1
 1.010187364312500E+10  -4.141628487180911E-1    2.514595669760450E-1   -5.905098756220835E-4   -6.428092455025609E-4   -5.442109554998113E-4   -6.842667824419260E-4   -2.622606311871296E-1    3.982426596723083E-1
 1.010189587700000E+10  -4.137023853703576E-1    2.528124314197013E-1   -5.973260148102953E-4   -6.634223555216489E-4   -5.369750324541506E-4   -6.707297665049961E-4   -2.609863317991296E-1    3.990389644435214E-1
 1.010191811087500E+10  -4.127689105022787E-1    2.539431665110741E-1   -6.219785949271191E-4   -6.338833211859282E-4   -5.297414701600016E-4   -6.581801078440340E-4   -2.598245010694921E-1    4.000702438998664E-1
 1.010194034475000E+10  -4.123384078126495E-1    2.551272850498191E-1   -5.762802931049348E-4   -6.561620467878680E-4   -5.445499911449519E-4   -6.761116536754866E-4   -2.587343017773387E-1    4.008637294277489E-1
 1.010196257862500E+10  -4.114906534201810E-1    2.561978485002301E-1   -5.837355926690758E-4   -6.602228402074419E-4   -5.422455345210592E-4   -6.711406528080969E-4   -2.575093093577522E-1    4.016186379889251E-1
 1.010198481250000E+10  -4.107757508897080E-1    2.574958557324898E-1   -5.967330143959301E-4   -6.365701829369127E-4   -5.505021097885990E-4   -6.320002720196484E-4   -2.563106159541981E-1    4.022227755708845E-1
 1.010200704637500E+10  -4.102144049226722E-1    2.586316573328902E-1   -6.003825680205933E-4   -6.363751928761956E-4   -5.468529403912096E-4   -6.431216679886918E-4   -2.550665482624667E-1    4.033266017833685E-1
 1.010202928025000E+10  -4.096963423122920E-1    2.598180016254735E-1   -6.042794936857336E-4   -6.447831734458832E-4   -5.292655271256031E-4   -6.650234466714366E-4   -2.538859892879994E-1    4.041481869227518E-1
 1.010205151412500E+10  -4.089603091986219E-1    2.609403134703162E-1   -6.008935600952767E-4   -6.456487144254374E-4   -5.580144543545204E-4   -6.603505854212714E-4   -2.528553065091459E-1    4.049978442713514E-1
 1.010207374800000E+10  -4.082836991250109E-1    2.622139405525223E-1   -6.218497140733918E-4   -6.494341430029571E-4   -5.124745538301259E-4   -6.566740739119184E-4   -2.515423055932443E-1    4.056986365745080E-1
 1.010209598187500E+10  -4.075272810127294E-1    2.633369655267909E-1   -5.908071658246970E-4   -6.343158790592428E-4   -5.576273494121497E-4   -6.500208578787277E-4   -2.502838566713387E-1    4.064583392624129E-1
 1.010211821575000E+10  -4.069669346426838E-1    2.644283562517102E-1   -5.902812369808462E-4   -6.334356204288494E-4   -5.388716673068932E-4   -6.370890515472131E-4   -2.491427874544920E-1    4.073778583966531E-1
 1.010214044962500E+10  -4.063075477949928E-1    2.656953557225541E-1   -5.852781703194429E-4   -6.218031945435848E-4   -5.562738892093078E-4   -6.462034877682317E-4   -2.479533312197052E-1    4.080648325674598E-1
 1.010216268350000E+10  -4.055210161405762E-1    2.667858550162820E-1   -5.994557806199495E-4   -6.012700185181753E-4   -5.149300297805264E-4   -6.540062372412952E-4   -2.467780071045172E-1    4.089896814904900E-1
 1.010218491737500E+10  -4.047758348105932E-1    2.679935677412758E-1   -5.948986374180335E-4   -6.441547334082465E-4   -5.080450461597838E-4   -6.596140404217453E-4   -2.455144503333552E-1    4.097282847189183E-1
 1.010220715125000E+10  -4.041495372250096E-1    2.692033409116288E-1   -5.846716971121692E-4   -6.024236822775055E-4   -5.171599204451561E-4   -6.380652064972842E-4   -2.443127618054290E-1    4.105910820539955E-1
 1.010222938512500E+10  -4.034733909114444E-1    2.703323118332714E-1   -5.989044570889373E-4   -6.223867389758946E-4   -5.380411578899670E-4   -6.475571103346775E-4   -2.431078784664571E-1    4.113060611591288E-1
 1.010225161900000E+10  -4.028460266751096E-1    2.715012215835791E-1   -5.883901171945829E-4   -6.263417176861667E-4   -5.322922392926616E-4   -6.257571096188630E-4   -2.417510406656982E-1    4.121760580327611E-1
 1.010227385287500E+10  -4.022494354796216E-1    2.725331064669623E-1   -5.841947319022963E-4   -6.076989511726147E-4   -5.109573058506342E-4   -6.122895790260739E-4   -2.405370600970927E-1    4.130212047204136E-1
 1.010229608675000E+10  -4.013996300209046E-1    2.738280779620050E-1   -5.586393529628602E-4   -5.952065271438699E-4   -5.199610291830012E-4   -6.190704693367787E-4   -2.393685529722537E-1    4.137946336110084E-1
 1.010231832062500E+10  -4.006608710273236E-1    2.749380117992195E-1   -5.812375470415384E-4   -6.209854612663142E-4   -5.381118402405863E-4   -6.074499930619225E-4   -2.381645123285084E-1    4.144102529944728E-1
 1.010234055450000E+10  -3.998341545204498E-1    2.760760661795807E-1   -5.811894584018464E-4   -5.996932283686212E-4   -5.299007513250754E-4   -6.135563002245526E-4   -2.369799672120982E-1    4.151848838671824E-1
 1.010236278837500E+10  -3.992177462741313E-1    2.772825524515195E-1   -5.887477762864667E-4   -6.073125279965495E-4   -5.223023490279603E-4   -6.107433486307650E-4   -2.357831129654670E-1    4.160578818286496E-1
 1.010238502225000E+10  -3.985474844537020E-1    2.783220879552540E-1   -5.675361458880742E-4   -5.821558314572722E-4   -5.376054482069807E-4   -6.262103327067663E-4   -2.344308678814368E-1    4.168142626307259E-1
 1.010240725612500E+10  -3.977450729087020E-1    2.795779981656241E-1   -5.767808868183270E-4   -5.794496701400096E-4   -5.267076920774075E-4   -6.103527500106334E-4   -2.332047948646931E-1    4.175963761649817E-1
 1.010242949000000E+10  -3.970664914606952E-1    2.806708235563918E-1   -5.908759927790376E-4   -5.732234320136847E-4   -5.264408775358401E-4   -6.279797250723243E-4   -2.320665933097934E-1    4.184356438387639E-1
 1.010245172387500E+10  -3.962680149215655E-1    2.818007283141057E-1   -5.768544436062453E-4   -5.584398428212116E-4   -5.278923350809677E-4   -5.916212658906471E-4   -2.306446805262956E-1    4.191173118625389E-1
 1.010247395775000E+10  -3.956632533247693E-1    2.828089732608368E-1   -6.069459021244271E-4   -5.547611476471527E-4   -5.229028524196290E-4   -5.881113600740237E-4   -2.293950387503899E-1    4.197813936267063E-1
