#  HZ   S   RI   R     50.00 
! Rohde & Schwarz Vector Network Analyzer 
! Rohde-Schwarz,ZNB20-2Port,1311601062101988,3.16
! Created: UTC 3/20/2024, 5:14:34 PM
! freq[Hz]                re:S11                  im:S11                  re:S21                  im:S21                  re:S12                  im:S12                  re:S22                  im:S22
 1.010446905100000E+10  -3.187718604807349E-1    3.748213315158934E-1   -6.530022286806485E-5   -1.091582737272084E-4   -6.909214286700145E-5   -7.998030271253511E-5   -1.052411516181138E-1    4.727697982253539E-1
 1.010447299360000E+10  -3.185136934691808E-1    3.749224311930371E-1   -7.053108251574756E-5   -7.418293003437853E-5   -5.663292965182965E-5   -8.377875357627885E-5   -1.050034039685789E-1    4.728190175627368E-1
 1.010447693620000E+10  -3.183860239393747E-1    3.751332293225794E-1   -8.390252625998220E-5   -8.507411198718900E-5   -1.745472043363369E-5   -9.203766733465197E-5   -1.047808101451396E-1    4.728706243587952E-1
 1.010448087880000E+10  -3.181506102843692E-1    3.753059334123887E-1   -6.814343610767737E-5   -7.487220811295223E-5   -5.850777241204297E-5   -4.960444118919394E-5   -1.043733251156608E-1    4.728700682280769E-1
 1.010448482140000E+10  -3.180571762720928E-1    3.753983760622102E-1   -3.984620782227286E-5   -1.000252360225221E-4   -5.317880579589125E-5   -5.702747703965017E-5   -1.039576510789001E-1    4.729642881360713E-1
 1.010448876400000E+10  -3.178580115797489E-1    3.755282930523274E-1   -3.217378353383862E-5   -1.061962018837659E-4   -3.536001159853809E-5   -5.738540604360653E-5   -1.037467297916145E-1    4.731593420373724E-1
 1.010449270660000E+10  -3.178442584760928E-1    3.757250144270142E-1   -5.792658476666390E-5   -7.433619962460812E-5   -1.431025040282095E-5   -7.802780368201282E-5   -1.034878198243809E-1    4.731326383649347E-1
 1.010449664920000E+10  -3.175817445362208E-1    3.759611668871967E-1   -4.171214680326386E-5   -7.228116533548473E-5   -6.100106269744290E-6   -5.386575713824837E-5   -1.031147698908701E-1    4.733966411572275E-1
 1.010450059180000E+10  -3.173966652670229E-1    3.760786628861638E-1   -3.877433475511490E-5   -8.319383304770321E-5   -9.725065983435566E-6   -5.374770912767533E-5   -1.027183243191803E-1    4.732566717520665E-1
 1.010450453440000E+10  -3.171377990189221E-1    3.762165987958282E-1   -2.498670435407903E-5   -5.977212138021785E-5   -1.019180112037705E-5   -6.969298588809242E-5   -1.025853577054744E-1    4.733696392854835E-1
 1.010450847700000E+10  -3.170635314544036E-1    3.764769257276818E-1   -3.993222527291944E-6   -7.439812042644513E-5   -2.437914027942724E-5   -4.996552357934491E-5   -1.022140268153102E-1    4.733840764557665E-1
 1.010451241960000E+10  -3.168604535780991E-1    3.766343171574730E-1   -1.513862015490399E-5   -7.824317151732767E-5   -1.596260416851465E-5   -4.995348453019533E-5   -1.019504009554715E-1    4.736290425536417E-1
 1.010451636220000E+10  -3.165081487120175E-1    3.767480212571374E-1   -1.508162464415032E-5   -7.131331658732701E-5   -3.769873235926249E-5   -5.074629018049048E-5   -1.015702144825332E-1    4.735940937878663E-1
 1.010452030480000E+10  -3.164706553350294E-1    3.769506111456997E-1    4.205189284479352E-6   -7.113472993896165E-5    9.000431780533240E-6   -7.510984504240633E-5   -1.012234826031425E-1    4.736177215603533E-1
 1.010452424740000E+10  -3.162660836671612E-1    3.770439657298358E-1    5.992923647658788E-6   -5.341532715654169E-5   -1.017134467075060E-5   -5.175429048610799E-5   -1.009214021521500E-1    4.737876811200525E-1
 1.010452819000000E+10  -3.161908175459086E-1    3.771977688443308E-1    2.841215424232772E-5   -5.106142597229057E-5    1.634471108125277E-5   -5.321448566810881E-5   -1.008076868387555E-1    4.739700823104033E-1
 1.010453213260000E+10  -3.158694935135390E-1    3.774507663558839E-1   -1.108546484759876E-5   -4.894073021882099E-5    6.099909194468311E-6   -4.594159517951505E-5   -1.003146531896472E-1    4.738585635036853E-1
 1.010453607520000E+10  -3.157859552397527E-1    3.775102271843099E-1    3.431633419914398E-5   -4.324098770072802E-5    4.971474016374479E-5   -2.984173079918665E-5   -9.988930265069573E-2    4.740367734662311E-1
 1.010454001780000E+10  -3.154713750833915E-1    3.776371001588210E-1    2.834933158026886E-5   -4.728740323973363E-5    3.094837861228389E-5   -4.115950422555214E-5   -9.977536908558868E-2    4.740664551202879E-1
 1.010454396040000E+10  -3.152948148502693E-1    3.779314154270231E-1    6.831901434573077E-5   -7.470216576363709E-5    5.797828091615756E-5   -5.375219996514439E-5   -9.938137898976268E-2    4.741489606133736E-1
 1.010454790300000E+10  -3.152357306792770E-1    3.780509348274708E-1    7.014977601750875E-5   -4.527685610730714E-5    2.275878589667800E-5   -5.479681316926196E-5   -9.905073579187221E-2    4.741503385073308E-1
 1.010455184560000E+10  -3.150087368060320E-1    3.782297855360727E-1    4.274362257931969E-5   -2.669331783753426E-5    5.817407541472955E-5   -4.512007113288530E-5   -9.868916350370820E-2    4.743126690888043E-1
 1.010455578820000E+10  -3.148544542588601E-1    3.784520263657993E-1    1.043478507819142E-4   -4.489108437753229E-5    5.190597917041337E-5   -3.437997510783826E-5   -9.838009063702247E-2    4.742724468871450E-1
 1.010455973080000E+10  -3.146216102473174E-1    3.787178725802639E-1    8.896242018864677E-5   -4.017358182538081E-5    7.368622583162652E-5   -3.170996821863069E-5   -9.809902131610283E-2    4.742719388138020E-1
 1.010456367340000E+10  -3.145038563112530E-1    3.786510049876391E-1    8.037120651020277E-5   -2.319137750642385E-5    8.537283338669045E-5   -3.771307037725519E-5   -9.769532014797580E-2    4.744452148781924E-1
 1.010456761600000E+10  -3.142840891161339E-1    3.789076251803436E-1    7.909457952960334E-5   -2.691730635882107E-6    6.472493659697778E-5   -6.569213496130886E-5   -9.729290260328867E-2    4.745116065289035E-1
 1.010457155860000E+10  -3.142046688801428E-1    3.790127777808898E-1    9.472760128569558E-5   -7.313669734992528E-5    5.986931437278448E-5   -9.657010846732621E-6   -9.700804428273740E-2    4.746850084039995E-1
 1.010457550120000E+10  -3.140195901036166E-1    3.792604520425850E-1    9.307382533191718E-5   -3.057117379265847E-5    9.419186843798822E-5   -1.186531602138340E-5   -9.676093896095078E-2    4.745951450966959E-1
 1.010457944380000E+10  -3.136969033042998E-1    3.794324829323338E-1    1.009258391150631E-4    1.256591910624201E-5    1.020357192809268E-4   -3.781148899780196E-7   -9.643446466339481E-2    4.747020024275308E-1
 1.010458338640000E+10  -3.135111297389621E-1    3.795373904323808E-1    1.335870975608485E-4   -4.270909872518660E-5    1.051944914792770E-4   -1.249613758270201E-5   -9.606739638924285E-2    4.747881980336728E-1
 1.010458732900000E+10  -3.133196598421789E-1    3.795995635321964E-1    1.065053655917208E-4   -4.717456828375563E-5    1.137310188260673E-4   -1.980449086639458E-5   -9.573223838742814E-2    4.749599959962899E-1
 1.010459127160000E+10  -3.131721112470620E-1    3.798403966461015E-1    1.223338096113923E-4   -3.151419969723277E-5    1.266150410351331E-4    5.992606269451031E-6   -9.537473302117667E-2    4.749067829581726E-1
 1.010459521420000E+10  -3.129642776849008E-1    3.799862515255572E-1    1.438608874020522E-4   -6.615671906822744E-6    1.114692881721267E-4   -1.160011959775205E-5   -9.507563204681679E-2    4.750238926322833E-1
 1.010459915680000E+10  -3.128382776036299E-1    3.802307649433260E-1    1.484515650019738E-4   -3.172193538736398E-5    1.460479393666705E-4   -4.132604930224853E-6   -9.468600895099599E-2    4.751054348724021E-1
 1.010460309940000E+10  -3.126316343570880E-1    3.801897281901007E-1    1.533292166751389E-4   -3.364860739249544E-5    1.287505859695725E-4   -2.390976133716768E-6   -9.436609160279176E-2    4.750280883940548E-1
 1.010460704200000E+10  -3.125075545053303E-1    3.804789741074547E-1    1.962744671388224E-4    1.012779184297977E-6    1.224894926758681E-4    7.665930083953062E-6   -9.408342813150966E-2    4.752151107743814E-1
 1.010461098460000E+10  -3.123626592555844E-1    3.806625198232439E-1    1.826626683432079E-4   -1.498118431430288E-5    1.367287653311824E-4   -2.254028302965911E-6   -9.362007200112918E-2    4.754012358839869E-1
 1.010461492720000E+10  -3.121920045429091E-1    3.808992006811382E-1    1.817351023731638E-4    6.897059956235205E-6    1.953825680267817E-4    4.975747308221651E-6   -9.333705193002947E-2    4.753127895279080E-1
 1.010461886980000E+10  -3.119724786188289E-1    3.809336473344798E-1    1.699705335504119E-4   -2.084688280637426E-5    1.562320793859688E-4    8.443313945440463E-7   -9.311697310822897E-2    4.752975803942954E-1
 1.010462281240000E+10  -3.116883221272891E-1    3.811619137719364E-1    1.617853735300537E-4   -5.336505329205521E-6    1.778973130369559E-4    5.839272332721667E-6   -9.267720995819267E-2    4.755253536694350E-1
 1.010462675500000E+10  -3.115881025257997E-1    3.813692206278319E-1    1.847258164956989E-4   -1.711923985554872E-5    1.807481704736656E-4    2.352038166038927E-5   -9.237064178643943E-2    4.755801385113644E-1
 1.010463069760000E+10  -3.114448155634402E-1    3.816181112698431E-1    2.006494703668754E-4    1.789480534593673E-5    2.115359661639235E-4    3.181470089994945E-5   -9.206876847671686E-2    4.755068546796880E-1
 1.010463464020000E+10  -3.112829644318542E-1    3.815782982517225E-1    1.931781438882201E-4    1.241901445924296E-6    1.890083024992476E-4    2.811896215856926E-5   -9.168099634227926E-2    4.757681419734675E-1
 1.010463858280000E+10  -3.110007547294765E-1    3.818129239396044E-1    2.144308049092824E-4   -1.965563929581999E-5    2.045309435887676E-4    1.506850560688170E-5   -9.135902874631899E-2    4.758201191553558E-1
 1.010464252540000E+10  -3.107418648733722E-1    3.821613746673315E-1    2.248213451078834E-4   -2.139831363795666E-5    2.280738539580717E-4    3.375730073978783E-5   -9.098360310674113E-2    4.758552314664868E-1
 1.010464646800000E+10  -3.106562057968387E-1    3.821476824743232E-1    2.022010524247605E-4    1.350702257731139E-5    2.448969666746993E-4    3.985383371925159E-5   -9.052255196299538E-2    4.758372261177549E-1
 1.010465041060000E+10  -3.105224003599799E-1    3.822311541132988E-1    2.437495201447925E-4    3.704556336759606E-5    2.338332140669498E-4    2.358228836937416E-5   -9.022967867792049E-2    4.760136408172133E-1
 1.010465435320000E+10  -3.102741936369229E-1    3.824820042466247E-1    2.624643538780848E-4    1.631480442772999E-5    2.541262441320018E-4    1.552803491808407E-5   -8.981855531295425E-2    4.759946668524214E-1
 1.010465829580000E+10  -3.100940365288197E-1    3.825903729446488E-1    2.540413421921814E-4    1.961503531399064E-5    2.591196446142527E-4    3.429091030461668E-5   -8.955986273185206E-2    4.760191993608722E-1
 1.010466223840000E+10  -3.099475166896092E-1    3.827680535153496E-1    2.943669066026047E-4   -3.401842055084942E-7    2.641548667019869E-4    5.095076620978844E-5   -8.925531575032099E-2    4.760873617709637E-1
 1.010466618100000E+10  -3.098675834474822E-1    3.830056532717889E-1    2.786490647729961E-4    3.182875444577109E-5    2.839183317062518E-4    3.407655188923731E-5   -8.870476854211251E-2    4.762455539497557E-1
 1.010467012360000E+10  -3.096085253533022E-1    3.831262898532584E-1    2.775001238378072E-4    2.930298087459503E-5    2.664341104224325E-4    6.086951453525762E-5   -8.857673895194686E-2    4.763242859927110E-1
 1.010467406620000E+10  -3.094464294506225E-1    3.831507016978657E-1    2.877383955096801E-4    1.339259211639016E-5    2.940622149743062E-4    6.384234594396604E-5   -8.806651810486378E-2    4.764142036811765E-1
 1.010467800880000E+10  -3.092657590909706E-1    3.833955889914380E-1    3.128473874639717E-4    1.043135357123255E-5    2.956186390702789E-4    5.749445571623888E-5   -8.773403857564238E-2    4.763956403679827E-1
 1.010468195140000E+10  -3.090665870368255E-1    3.833534021428066E-1    3.490499182047804E-4    3.645710474328763E-5    3.115821934491938E-4    5.294798340162404E-5   -8.741997231175198E-2    4.765244575594549E-1
 1.010468589400000E+10  -3.088121905950249E-1    3.835816354567890E-1    3.565833833931192E-4    2.445414389755196E-5    3.180853976781908E-4    7.607073364324569E-5   -8.699003333230895E-2    4.764104152194959E-1
 1.010468983660000E+10  -3.086206644389793E-1    3.838798461486004E-1    3.500815900330450E-4    4.442304684385460E-5    3.003965055585050E-4    7.125009659078768E-5   -8.658316983507384E-2    4.766031011742152E-1
 1.010469377920000E+10  -3.085483626341233E-1    3.839826032942395E-1    3.483159640339513E-4    5.364622675059560E-5    3.325321304269677E-4    5.185325641007309E-5   -8.626587202498569E-2    4.766737842931619E-1
 1.010469772180000E+10  -3.082539688107827E-1    3.841406389360639E-1    3.678111105611756E-4    5.160514583290731E-5    3.327820511562755E-4    5.040783181917015E-5   -8.592941983790386E-2    4.766949388665160E-1
 1.010470166440000E+10  -3.081556431624656E-1    3.842204446422507E-1    3.607297473522333E-4    5.493049368130103E-5    3.600221182407157E-4    6.887709563942882E-5   -8.551338383093925E-2    4.768081902405737E-1
 1.010470560700000E+10  -3.078983377015264E-1    3.845940923926234E-1    3.849424846542657E-4    3.338332471005918E-5    3.745822868189963E-4    7.890145860865505E-5   -8.506538712788554E-2    4.768697361097032E-1
 1.010470954960000E+10  -3.078326263287535E-1    3.846398015744436E-1    3.979407832118040E-4    6.617656118287632E-5    3.746445058005105E-4    8.152053854901580E-5   -8.475050226220900E-2    4.768487722327885E-1
 1.010471349220000E+10  -3.076233841734631E-1    3.848975248485995E-1    4.070557040329617E-4    5.259179771712577E-5    3.882392597300812E-4    8.314723698371987E-5   -8.436873622406615E-2    4.769842601018328E-1
 1.010471743480000E+10  -3.073918403820237E-1    3.849132019212564E-1    4.481101259620839E-4    7.427346632130762E-5    3.942128930633271E-4    9.339516359086497E-5   -8.401954162620180E-2    4.769823246080333E-1
 1.010472137740000E+10  -3.072699488680473E-1    3.850903288447273E-1    4.180370007669382E-4    2.261858685299066E-5    4.090949188734823E-4    8.455455581216381E-5   -8.350242967053788E-2    4.770579364700481E-1
 1.010472532000000E+10  -3.070701110614620E-1    3.852372538020669E-1    4.473200793593696E-4    5.093053506871417E-5    4.268475863636438E-4    8.639214973353869E-5   -8.325329387239144E-2    4.772415749330196E-1
 1.010472926260000E+10  -3.068580835886713E-1    3.854558194903945E-1    4.841281541627105E-4    7.664237069701653E-5    4.485851176478194E-4    9.325386405800213E-5   -8.291776313395587E-2    4.770526945984187E-1
 1.010473320520000E+10  -3.067672005802765E-1    3.856144364713809E-1    4.884806015208560E-4    6.531713839044727E-5    4.505064150922247E-4    1.057567742155121E-4   -8.249377276988712E-2    4.772311920388126E-1
 1.010473714780000E+10  -3.063206465962642E-1    3.858707468659099E-1    4.802801640685440E-4    3.272189392524284E-5    4.567837091580958E-4    7.834139984654917E-5   -8.218110248039837E-2    4.773516041367531E-1
 1.010474109040000E+10  -3.063731113048643E-1    3.859908152185017E-1    4.927828389853873E-4    7.036011241415060E-5    4.632535922633998E-4    1.029719050838216E-4   -8.174141866805573E-2    4.772902841321133E-1
 1.010474503300000E+10  -3.060823114620853E-1    3.860707704936501E-1    5.115099776546361E-4    8.417364962663728E-5    4.693269579020937E-4    1.115385856222687E-4   -8.129712087536270E-2    4.772764471067006E-1
 1.010474897560000E+10  -3.058412547522562E-1    3.861834983279507E-1    5.238071286219578E-4    7.099398502951788E-5    5.006662327180338E-4    1.104319869046392E-4   -8.090290045017094E-2    4.773714492075133E-1
 1.010475291820000E+10  -3.058076524683670E-1    3.863531200774190E-1    5.453437484069368E-4    5.065924877482712E-5    4.949149613501080E-4    9.807862679493935E-5   -8.058902408231670E-2    4.774856049562889E-1
 1.010475686080000E+10  -3.056002355476315E-1    3.865556983138357E-1    5.675259118468244E-4    7.168960954166375E-5    5.385083995365253E-4    1.072312074146874E-4   -8.007915018950318E-2    4.775603969946518E-1
 1.010476080340000E+10  -3.054470998299190E-1    3.867910922367476E-1    5.590921558912085E-4    7.850882329001980E-5    5.205867499230875E-4    1.185446217425830E-4   -7.976278428898363E-2    4.775703643378757E-1
 1.010476474600000E+10  -3.051671431971046E-1    3.868890495722034E-1    5.799034843211263E-4    7.448804436776282E-5    5.476164291373165E-4    1.205570516048955E-4   -7.931749138266828E-2    4.776107332400017E-1
 1.010476868860000E+10  -3.049772730919865E-1    3.869717276961063E-1    6.023065728501738E-4    9.933616935605659E-5    5.716410874781302E-4    1.366936573697319E-4   -7.885224628706149E-2    4.778985174632140E-1
 1.010477263120000E+10  -3.047934064721495E-1    3.872172902346230E-1    5.989281220108427E-4    9.923287636711861E-5    5.684785420100938E-4    1.405689951858291E-4   -7.848612900348881E-2    4.778606251937238E-1
 1.010477657380000E+10  -3.047631689767816E-1    3.873845745230857E-1    6.332067250669275E-4    1.053381963586483E-4    5.705993629024531E-4    1.285425419390567E-4   -7.811064318796189E-2    4.777930931607956E-1
 1.010478051640000E+10  -3.043893440013791E-1    3.873339388546688E-1    6.439231465917745E-4    6.767269653677530E-5    6.049496768885614E-4    1.413444916201793E-4   -7.758904169460823E-2    4.777951800640430E-1
 1.010478445900000E+10  -3.043181794861756E-1    3.877466543441625E-1    6.565857895788991E-4    9.240041929492103E-5    6.139180114496074E-4    1.324800276770701E-4   -7.713577271384932E-2    4.777689982307955E-1
 1.010478840160000E+10  -3.041738507142850E-1    3.878031015248334E-1    6.554462638495612E-4    1.086030829775542E-4    6.125548119298089E-4    1.618797262411024E-4   -7.671048071258453E-2    4.779022230225345E-1
 1.010479234420000E+10  -3.040744511368514E-1    3.879259156256970E-1    6.860945341893217E-4    9.535422511326868E-5    6.693528310798240E-4    1.360687758090977E-4   -7.639006363449931E-2    4.780444903555250E-1
 1.010479628680000E+10  -3.037526248430504E-1    3.880802607181087E-1    6.994396904296744E-4    6.665511845433138E-5    6.890768271422067E-4    1.510671952214568E-4   -7.581847035699214E-2    4.779742973691117E-1
 1.010480022940000E+10  -3.036366518120290E-1    3.881994944299328E-1    7.227343494765170E-4    7.633270088588835E-5    6.720201863956991E-4    1.303381971187410E-4   -7.554021912484406E-2    4.781332874281036E-1
 1.010480417200000E+10  -3.033881074900856E-1    3.884638897930816E-1    7.076922608380383E-4    1.257917441102192E-4    6.970709407343863E-4    1.630642372658549E-4   -7.502476584037754E-2    4.780728179337436E-1
 1.010480811460000E+10  -3.030998504152827E-1    3.886758321937281E-1    7.858732806637125E-4    1.105728336938190E-4    7.030920867127511E-4    1.484161343830690E-4   -7.455255562428653E-2    4.780944726331957E-1
 1.010481205720000E+10  -3.030019293107175E-1    3.887454798817815E-1    7.742635122344708E-4    7.794656431912244E-5    7.514302811610919E-4    1.739839007818950E-4   -7.414966991693644E-2    4.783277793780171E-1
 1.010481599980000E+10  -3.027308959112623E-1    3.889026252747740E-1    7.910221997526213E-4    1.220002378959333E-4    7.447175239706783E-4    1.736011851782920E-4   -7.365396187427331E-2    4.782301807214093E-1
 1.010481994240000E+10  -3.026474137132236E-1    3.890216033185613E-1    7.887846000864761E-4    8.767497750714888E-5    7.633853387486108E-4    1.682048566853526E-4   -7.313386702225858E-2    4.781809306199099E-1
 1.010482388500000E+10  -3.025177458109470E-1    3.892719103768679E-1    8.372773600390021E-4    1.499338030662005E-4    7.918953799316062E-4    1.880163890442452E-4   -7.264629106258791E-2    4.783450947507769E-1
