#  HZ   S   RI   R     50.00 
! Rohde & Schwarz Vector Network Analyzer 
! Rohde-Schwarz,ZNB20-2Port,1311601062101988,3.16
! Created: UTC 3/20/2024, 5:14:44 PM
! freq[Hz]                re:S11                  im:S11                  re:S21                  im:S21                  re:S12                  im:S12                  re:S22                  im:S22
 1.010458364000000E+10  -3.136583191946180E-1    3.795170149284092E-1    8.877062673203356E-5   -5.752099001321917E-5    7.791930213305922E-5   -1.076301995194918E-5   -9.624998347965269E-2    4.748501193583518E-1
 1.010458709780000E+10  -3.135539525705903E-1    3.795854690924427E-1    1.053312217601512E-4   -9.611907384773667E-6    1.019994264778953E-4   -4.067426261375623E-5   -9.605735579755455E-2    4.749629497645391E-1
 1.010459055560000E+10  -3.133469939023401E-1    3.797221565927851E-1    8.933245253492284E-5   -2.039923264963174E-5    4.504299134507528E-5   -6.525859300939964E-6   -9.567019313365387E-2    4.750400892086400E-1
 1.010459401340000E+10  -3.131949172789405E-1    3.799023384345698E-1    1.145970672426816E-4   -5.052992574426157E-6    7.979067170028682E-5   -1.514526438567576E-5   -9.545266056709195E-2    4.751842274862191E-1
 1.010459747120000E+10  -3.129090016085082E-1    3.800497052682479E-1    1.065918577916964E-4   -4.236169413844182E-5    1.375968611503309E-4    9.486758035684979E-7   -9.509984988057543E-2    4.751013970261451E-1
 1.010460092900000E+10  -3.127660200767935E-1    3.801727113370481E-1    1.131139592536662E-4   -4.120999885797597E-5    9.325479735886161E-5    4.702144087292882E-7   -9.497264039150866E-2    4.751730751901223E-1
 1.010460438680000E+10  -3.126186531112878E-1    3.803804766106988E-1    1.030053931294759E-4    2.008494794918760E-5    1.146714437754294E-4   -1.073862606398707E-6   -9.451968526342330E-2    4.751714757197866E-1
 1.010460784460000E+10  -3.126317351005051E-1    3.805527372568661E-1    1.437094222363249E-4   -7.263084808214862E-6    1.407871644371832E-4    2.785007465118350E-6   -9.440743770608992E-2    4.753724822503060E-1
 1.010461130240000E+10  -3.124621912731687E-1    3.806408505700142E-1    1.285750230542990E-4    1.394417845851660E-5    1.378591112214290E-4    2.162270888865910E-5   -9.395823150028719E-2    4.752971001885655E-1
 1.010461476020000E+10  -3.121158072461730E-1    3.806671111993639E-1    1.081675668613087E-4   -8.114175607807254E-6    1.340224844905065E-4   -3.401871023270895E-6   -9.374343085680326E-2    4.755103391197202E-1
 1.010461821800000E+10  -3.120285781696319E-1    3.808701984233180E-1    1.296786841921171E-4   -5.229023553317492E-7    1.616085256448474E-4    3.117549170079291E-6   -9.340883055595516E-2    4.753976249060718E-1
 1.010462167580000E+10  -3.119091482320694E-1    3.810769960180379E-1    1.539206175068379E-4    1.423851999801422E-5    1.561347291224886E-4    1.133716348396553E-5   -9.310029005724839E-2    4.755736781254039E-1
 1.010462513360000E+10  -3.117688498520553E-1    3.811393182348956E-1    1.729647747397100E-4   -3.914600312070842E-6    1.666360751497335E-4    2.881547587493800E-5   -9.284824024390875E-2    4.756823719215996E-1
 1.010462859140000E+10  -3.115353554679737E-1    3.813057621269848E-1    1.637840318372690E-4   -1.041341651933123E-5    1.782993158171458E-4    6.782388072379690E-6   -9.246731259623475E-2    4.757649825832984E-1
 1.010463204920000E+10  -3.114033285111852E-1    3.814687893230132E-1    1.861782871062860E-4    1.059541671923346E-5    1.603872457673616E-4    1.418235394747544E-5   -9.221487566354941E-2    4.756947503256007E-1
 1.010463550700000E+10  -3.113231178219654E-1    3.816772304187118E-1    1.974863518993400E-4    2.090485618076528E-5    1.630237195782292E-4    3.287609777046599E-5   -9.187255084099145E-2    4.758099634984485E-1
 1.010463896480000E+10  -3.111584782323819E-1    3.817564371838544E-1    2.097498061921685E-4    9.441895911759917E-6    1.832379069711215E-4    2.869796286972215E-5   -9.167203773395384E-2    4.757583321564439E-1
 1.010464242260000E+10  -3.109475137900528E-1    3.817937866347564E-1    1.855122826811741E-4    2.478285023525612E-5    2.117052670981669E-4    1.852808939747434E-5   -9.129130550907816E-2    4.759142703118832E-1
 1.010464588040000E+10  -3.107824731461677E-1    3.819817297477057E-1    2.471790253940915E-4    2.614180992762062E-5    2.038594105394771E-4    2.428258425376860E-5   -9.103874145952906E-2    4.758553646986828E-1
 1.010464933820000E+10  -3.105712813677340E-1    3.820459788983487E-1    2.119650517886677E-4    4.247009900346553E-5    2.061037241893421E-4    2.023032374706148E-5   -9.061313745401679E-2    4.760379406483999E-1
 1.010465279600000E+10  -3.104242840276104E-1    3.823041390210045E-1    2.364268948730095E-4    2.308445225665942E-6    2.249966234163008E-4    2.708645666415872E-5   -9.045675427814073E-2    4.760182690371518E-1
 1.010465625380000E+10  -3.103490986276335E-1    3.824130040120582E-1    2.501203128852771E-4    2.722878821134496E-5    2.292285323044179E-4    3.387777726078265E-5   -9.009329007740050E-2    4.762571106519530E-1
 1.010465971160000E+10  -3.101109240819611E-1    3.826484815127221E-1    2.216367941251003E-4    1.396479206870135E-5    2.263616671999127E-4    5.698080994796499E-5   -8.978328184109688E-2    4.763001582515173E-1
 1.010466316940000E+10  -3.099305891460127E-1    3.827100980576711E-1    2.648758674766448E-4    3.022223277875730E-5    2.575666319395136E-4    5.813504889193068E-5   -8.942337837483035E-2    4.762582665352906E-1
 1.010466662720000E+10  -3.097010922101754E-1    3.828876369755639E-1    2.250681284009810E-4    1.850138221773293E-5    2.367345367091111E-4    2.048753576582044E-5   -8.912734954194912E-2    4.763367487493417E-1
 1.010467008500000E+10  -3.096144242838934E-1    3.830864506674468E-1    2.322905104147579E-4    3.510136773134974E-5    2.607305455694124E-4    2.061519925756449E-5   -8.880545795245884E-2    4.762697420580369E-1
 1.010467354280000E+10  -3.095193606846957E-1    3.831919983081981E-1    3.034384547283420E-4    2.294014644339644E-5    2.648844646254459E-4    5.924300032026802E-5   -8.858665811606531E-2    4.764192891657572E-1
 1.010467700060000E+10  -3.093074572983161E-1    3.831899882750647E-1    2.626256931506995E-4    3.111216087381118E-5    2.786333301080417E-4    5.439548990273117E-5   -8.819404042835222E-2    4.765309116233634E-1
 1.010468045840000E+10  -3.092293713670217E-1    3.834106341587805E-1    2.858776564306573E-4    2.586564285128629E-5    2.628381638917621E-4    4.143319008999166E-5   -8.792037144236471E-2    4.764665413975478E-1
 1.010468391620000E+10  -3.089704472422978E-1    3.834696778755727E-1    3.222957964907914E-4    2.325911202534029E-5    2.713489098730079E-4    3.807232151173502E-5   -8.769325501696151E-2    4.767030593951729E-1
 1.010468737400000E+10  -3.089175665598102E-1    3.837418698050208E-1    3.097204293974236E-4    4.853230954560337E-5    3.046573608020844E-4    6.221797828628502E-5   -8.721581670758116E-2    4.766413355146343E-1
 1.010469083180000E+10  -3.086490133390569E-1    3.837955796350161E-1    3.181578863379574E-4    5.426443942327482E-5    2.835547540575760E-4    4.106803145857586E-5   -8.689275573116660E-2    4.765344241636849E-1
 1.010469428960000E+10  -3.085487318542807E-1    3.840257047502481E-1    3.209992970017949E-4    3.591406922399120E-5    2.890156579239008E-4    9.313269321097253E-5   -8.665591138608215E-2    4.766874322321192E-1
 1.010469774740000E+10  -3.083783647543994E-1    3.841201855471001E-1    3.197842714341490E-4    4.682906547169691E-5    3.028932619678665E-4    3.873459445652873E-5   -8.626142912624155E-2    4.767599441214092E-1
 1.010470120520000E+10  -3.081417950003690E-1    3.842972891446350E-1    3.540673416904931E-4    6.026043363390982E-5    3.375610669282844E-4    6.368682102387782E-5   -8.593583470263561E-2    4.769305300844856E-1
 1.010470466300000E+10  -3.079664190445474E-1    3.843941937949522E-1    3.889609585206783E-4    3.582597633318931E-5    3.233421148937240E-4    8.155960898435639E-5   -8.562162055079128E-2    4.768725491276044E-1
 1.010470812080000E+10  -3.079874130091509E-1    3.846123016611914E-1    3.728281773414149E-4    6.343054275975157E-5    3.473256984822723E-4    5.938558298679859E-5   -8.535585388746662E-2    4.768960351739425E-1
 1.010471157860000E+10  -3.076201245786658E-1    3.846522065009728E-1    3.720759342854244E-4    4.648968751091447E-5    3.569007528970946E-4    8.404020677485015E-5   -8.510874881063117E-2    4.770071516579006E-1
 1.010471503640000E+10  -3.075821554287130E-1    3.849096892112977E-1    3.830900496372281E-4    5.985636903305611E-5    3.703840128869402E-4    7.312348741248426E-5   -8.461561491030418E-2    4.771268215267042E-1
 1.010471849420000E+10  -3.074427549418813E-1    3.849574174886660E-1    3.998971053846103E-4    6.853793819871847E-5    3.672846307481961E-4    7.917088643236653E-5   -8.445713780844934E-2    4.770509365497769E-1
 1.010472195200000E+10  -3.072665145444067E-1    3.850339778443489E-1    4.113218372165359E-4    7.170491411851785E-5    3.755854810800971E-4    8.376050854974229E-5   -8.404948584661698E-2    4.773062372606699E-1
 1.010472540980000E+10  -3.072082818458917E-1    3.851318676973580E-1    3.877978901288869E-4    7.272853931226794E-5    3.963380016549571E-4    1.094643345306722E-4   -8.365039275294596E-2    4.771753704958215E-1
 1.010472886760000E+10  -3.069874311055567E-1    3.852974583961113E-1    4.012256213840531E-4    2.525213359668276E-5    4.065834684764300E-4    9.147088402036778E-5   -8.334746677665836E-2    4.772378483444853E-1
 1.010473232540000E+10  -3.066463703611269E-1    3.854971664931588E-1    4.333088225582100E-4    7.800115494597646E-5    4.153395912202081E-4    1.103110912805948E-4   -8.299414059877301E-2    4.774125414158231E-1
 1.010473578320000E+10  -3.066122412330460E-1    3.856655146956565E-1    4.504015937797898E-4    5.454537812939106E-5    4.048177503538139E-4    1.060590902104507E-4   -8.267994691595860E-2    4.774206584732503E-1
 1.010473924100000E+10  -3.063042199804336E-1    3.858054087313881E-1    4.356749195955296E-4    6.834567006867536E-5    4.220020813219932E-4    1.239771691578938E-4   -8.227918970752124E-2    4.775121493128627E-1
 1.010474269880000E+10  -3.062650062096754E-1    3.860104408470997E-1    4.694189859295091E-4    1.028771126029221E-4    4.318042188099932E-4    9.492576664491570E-5   -8.209120881915316E-2    4.775554884647636E-1
 1.010474615660000E+10  -3.061819221185205E-1    3.860802592054327E-1    4.649728666229181E-4    9.533691790416097E-5    4.511443134306937E-4    1.201536881284211E-4   -8.165708283190018E-2    4.775850351680476E-1
 1.010474961440000E+10  -3.059260936411116E-1    3.862115352575824E-1    4.808357124762273E-4    9.104983345488108E-5    4.595725389935408E-4    1.091815807703716E-4   -8.122629906950575E-2    4.775866547333146E-1
 1.010475307220000E+10  -3.058647144812841E-1    3.863835604181358E-1    5.050298752698550E-4    7.014533100985107E-5    4.851307242432856E-4    9.838770157020345E-5   -8.094116071624166E-2    4.775388982501546E-1
 1.010475653000000E+10  -3.057489413237072E-1    3.864462446115461E-1    5.427819262218083E-4    6.269836692395806E-5    4.858908225696061E-4    1.401495228911945E-4   -8.064345408429353E-2    4.777166322991788E-1
 1.010475998780000E+10  -3.054950728918664E-1    3.866663708408936E-1    5.173652279264276E-4    7.934062244689339E-5    4.587892157701254E-4    1.480287213931937E-4   -8.028646194082396E-2    4.776784257942762E-1
 1.010476344560000E+10  -3.053371701794126E-1    3.867094019170470E-1    5.460375312020127E-4    6.166985721951127E-5    5.214867044610976E-4    1.060294285310511E-4   -7.973517532694255E-2    4.778319094368214E-1
 1.010476690340000E+10  -3.052086808078001E-1    3.869226728144202E-1    5.629678797238816E-4    9.297409631371230E-5    5.396155381052610E-4    1.112049334957446E-4   -7.958288052649493E-2    4.778558188711634E-1
 1.010477036120000E+10  -3.049768035696682E-1    3.869906800528684E-1    5.557285545403624E-4    9.507855681359613E-5    5.423582591061386E-4    1.206385250032316E-4   -7.923699226184300E-2    4.779768982247767E-1
 1.010477381900000E+10  -3.047599522528188E-1    3.871882822432651E-1    5.668884552259655E-4    7.572213429225110E-5    5.338771849067086E-4    1.348611350107575E-4   -7.885054434786719E-2    4.779218259294019E-1
 1.010477727680000E+10  -3.048252937785113E-1    3.872337273390044E-1    5.788498852128929E-4    1.305932913178726E-4    5.363128813454645E-4    1.466459705677062E-4   -7.849794488527399E-2    4.780010299557323E-1
 1.010478073460000E+10  -3.044579377373106E-1    3.875158619364236E-1    5.803357983316281E-4    1.060136331263501E-4    5.483271191211163E-4    1.529749392841999E-4   -7.812059523669684E-2    4.779838690498771E-1
 1.010478419240000E+10  -3.042839257069448E-1    3.875681200070106E-1    6.194785655811916E-4    8.026173657312026E-5    5.736278734198003E-4    1.372448421035374E-4   -7.785875209666922E-2    4.780982385591358E-1
 1.010478765020000E+10  -3.041751348685451E-1    3.877827126339875E-1    6.066616916838873E-4    1.045096645683632E-4    5.815706912562408E-4    1.549830006175341E-4   -7.738987952107476E-2    4.781717164792982E-1
 1.010479110800000E+10  -3.041029337596243E-1    3.879560346983333E-1    6.047615477753121E-4    1.109799612635740E-4    5.863658204783296E-4    1.673697234140537E-4   -7.699687654991319E-2    4.781719224224253E-1
 1.010479456580000E+10  -3.038903029383224E-1    3.880613172322480E-1    7.069082863160795E-4    1.260187529925089E-4    6.186316358031109E-4    1.609609390041501E-4   -7.660489815937752E-2    4.783135689636682E-1
 1.010479802360000E+10  -3.037246828804485E-1    3.881767836507171E-1    6.545768722105858E-4    9.955579244729918E-5    6.006553376967328E-4    1.748781491728206E-4   -7.633269466200586E-2    4.782359749031030E-1
 1.010480148140000E+10  -3.035799632828883E-1    3.882994587683647E-1    6.789030855750848E-4    1.056386249052516E-4    6.360421802547092E-4    1.756973065608412E-4   -7.574042846497596E-2    4.783719050650143E-1
 1.010480493920000E+10  -3.034205793193928E-1    3.883781066224555E-1    7.295400494697845E-4    1.475650023302421E-4    6.619387092669892E-4    1.683200135257739E-4   -7.568053182717403E-2    4.783418000312605E-1
 1.010480839700000E+10  -3.030799707990863E-1    3.886437274736343E-1    7.139700264567222E-4    1.186566935922344E-4    6.587183253959170E-4    1.559633523308603E-4   -7.527028217461618E-2    4.784496570347265E-1
 1.010481185480000E+10  -3.031403009604993E-1    3.887983904657253E-1    7.174526041785293E-4    1.158976119879127E-4    6.652548780768726E-4    1.773569354456493E-4   -7.458972696799332E-2    4.784872510945802E-1
 1.010481531260000E+10  -3.029882889378991E-1    3.888619038545327E-1    7.575931400601471E-4    1.072186506815427E-4    6.921718820125532E-4    1.713149116736472E-4   -7.437145712718815E-2    4.785060461187078E-1
 1.010481877040000E+10  -3.028071956561189E-1    3.888461976078520E-1    7.507441299414537E-4    1.206246391360361E-4    6.900967515073297E-4    1.838912244141151E-4   -7.400229752309638E-2    4.784699718991205E-1
 1.010482222820000E+10  -3.026018272032610E-1    3.891485361323294E-1    7.851516777905277E-4    1.031173092416810E-4    7.061778262432809E-4    1.482827089731395E-4   -7.360338857550230E-2    4.785355720389585E-1
 1.010482568600000E+10  -3.025025138131405E-1    3.892130046008193E-1    7.836051506214629E-4    9.781984996134845E-5    7.260964244842795E-4    1.999284685507168E-4   -7.311099162114168E-2    4.787113407762000E-1
 1.010482914380000E+10  -3.022726439568315E-1    3.893281546850096E-1    8.116411559143466E-4    1.430706748792309E-4    7.564029954282355E-4    2.025366843869411E-4   -7.292513106310908E-2    4.787215374826851E-1
 1.010483260160000E+10  -3.021058142800570E-1    3.894859501071387E-1    8.225589998487192E-4    1.355153207591790E-4    7.546463773108267E-4    1.861419379644176E-4   -7.245753024571144E-2    4.785621520931346E-1
 1.010483605940000E+10  -3.019310937936514E-1    3.896737295297412E-1    8.312540907624881E-4    1.595532062901164E-4    7.702366677358374E-4    2.126333677641397E-4   -7.206901308716590E-2    4.787269389097287E-1
 1.010483951720000E+10  -3.017787276981611E-1    3.896422286973178E-1    8.587622468408802E-4    1.336324783489632E-4    7.916136472079611E-4    2.051502165670680E-4   -7.159408927008895E-2    4.787248905076151E-1
 1.010484297500000E+10  -3.016415660659013E-1    3.899010337846184E-1    8.607220841893983E-4    1.610154842549534E-4    8.085371386685714E-4    2.280145939547038E-4   -7.119645188439475E-2    4.787250723880879E-1
 1.010484643280000E+10  -3.014214925542152E-1    3.901099843106880E-1    8.669660020347943E-4    1.400822883684813E-4    8.078204715258839E-4    2.290836960396731E-4   -7.069832641786911E-2    4.787698336314766E-1
 1.010484989060000E+10  -3.012887292965853E-1    3.901276102667821E-1    8.982921479668884E-4    1.437066088999575E-4    8.367170388195218E-4    2.223681990848619E-4   -7.045569541670242E-2    4.789467779745463E-1
 1.010485334840000E+10  -3.010739514080865E-1    3.903636243353852E-1    9.026891605216072E-4    1.332322589322772E-4    8.835738011068658E-4    2.437869378401253E-4   -7.002065182130966E-2    4.787839201812975E-1
 1.010485680620000E+10  -3.011100628691263E-1    3.904498486622597E-1    9.090177423609945E-4    1.675786781322091E-4    8.941629080234533E-4    2.188637378719707E-4   -6.942596272003786E-2    4.789250945321200E-1
 1.010486026400000E+10  -3.009106589127475E-1    3.905320966226954E-1    9.331171732429233E-4    1.808185107316369E-4    8.814152594673147E-4    2.353756836234719E-4   -6.909247916685801E-2    4.790022485816297E-1
 1.010486372180000E+10  -3.005849440821050E-1    3.907661594864352E-1    9.917790698350170E-4    1.706111031627514E-4    9.012101913571320E-4    2.410190947026648E-4   -6.869791719508263E-2    4.790120065259746E-1
 1.010486717960000E+10  -3.004176292735047E-1    3.908079920357233E-1    9.818537598020489E-4    1.324401483325597E-4    9.243203093689629E-4    2.329157516633204E-4   -6.833358503766604E-2    4.789207909600899E-1
 1.010487063740000E+10  -3.003068352219182E-1    3.909276631747853E-1    1.009706718591969E-3    1.542778497975245E-4    9.389775080899108E-4    2.311843774116881E-4   -6.773655582143477E-2    4.791366087078568E-1
 1.010487409520000E+10  -3.000456422605373E-1    3.912448163166949E-1    1.020849919536109E-3    1.534916675800568E-4    9.749945308716806E-4    2.325419425727147E-4   -6.740262130870094E-2    4.790234896421161E-1
 1.010487755300000E+10  -3.000693054769165E-1    3.912858566702786E-1    1.033209550527411E-3    1.515359287997310E-4    1.006846462352351E-3    2.509908107614436E-4   -6.683180075084713E-2    4.791327405440990E-1
 1.010488101080000E+10  -2.998666711321398E-1    3.914143772915368E-1    1.052332494591545E-3    1.446443761733386E-4    9.918094408476899E-4    2.751023326093527E-4   -6.664666797722216E-2    4.790537136018082E-1
 1.010488446860000E+10  -2.996083139335633E-1    3.916308638546235E-1    1.091491807266346E-3    1.598841069733867E-4    1.009299477315016E-3    2.337260019091232E-4   -6.607982852858414E-2    4.792627291097762E-1
 1.010488792640000E+10  -2.995528762601425E-1    3.916628990207230E-1    1.099822679450416E-3    1.557840122137184E-4    1.050419589638180E-3    2.390446987095058E-4   -6.564755513889797E-2    4.791096894883982E-1
 1.010489138420000E+10  -2.992200084792869E-1    3.917365468014893E-1    1.145936569526945E-3    1.755321171626146E-4    1.049132659349087E-3    2.703598754057757E-4   -6.516579677522315E-2    4.791485534798862E-1
 1.010489484200000E+10  -2.992535939435879E-1    3.918998358492357E-1    1.162384234392175E-3    1.643967725426493E-4    1.077021900075130E-3    2.596490675743277E-4   -6.479454414762403E-2    4.791523912855775E-1
