#  HZ   S   RI   R     50.00 
! Rohde & Schwarz Vector Network Analyzer 
! Rohde-Schwarz,ZNB20-2Port,1311601062101988,3.16
! Created: UTC 3/20/2024, 5:14:56 PM
! freq[Hz]                re:S11                  im:S11                  re:S21                  im:S21                  re:S12                  im:S12                  re:S22                  im:S22
 1.010464103000000E+10  -3.111097508708617E-1    3.818257540557392E-1    1.586974142682734E-4   -3.042639290904282E-5    1.504460102631824E-4    5.067266284064654E-5   -9.172556081166965E-2    4.759243611722332E-1
 1.010464426822500E+10  -3.109350930340335E-1    3.818529531432987E-1    1.557776396235671E-4    2.897247703631593E-5    1.489072451886519E-4    1.917878685752696E-5   -9.159006336455176E-2    4.760641960797646E-1
 1.010464750645000E+10  -3.107304806477553E-1    3.819742344045433E-1    1.667805889458744E-4    8.742270390308139E-6    1.492787947005644E-4    2.111534576947392E-5   -9.124467041601883E-2    4.760768942791192E-1
 1.010465074467500E+10  -3.105535774142005E-1    3.822292243063098E-1    1.638728925466026E-4    4.998139257858228E-5    1.920463919953704E-4    2.499747886837393E-5   -9.091773443508720E-2    4.760807927084320E-1
 1.010465398290000E+10  -3.103527204810616E-1    3.822904368721618E-1    1.883391872869229E-4    1.322923969683783E-5    1.753996400541516E-4    2.629197527589346E-5   -9.060033863905848E-2    4.761121411458759E-1
 1.010465722112500E+10  -3.103220832586330E-1    3.825112425219365E-1    2.178024121927560E-4    1.950047905387477E-5    2.166378571421892E-4    2.794212964233750E-5   -9.043416078422155E-2    4.763017500084628E-1
 1.010466045935000E+10  -3.101274306773531E-1    3.826652809592861E-1    2.009024621951826E-4    4.312731660585565E-5    2.300362749521642E-4    3.272678362075738E-5   -9.016693963127072E-2    4.762705431735429E-1
 1.010466369757500E+10  -3.099863922790445E-1    3.826487084466926E-1    2.067410631015221E-4    3.145764501100571E-5    2.040491685272155E-4    4.622726640249608E-5   -8.980849822149813E-2    4.762790817445959E-1
 1.010466693580000E+10  -3.098450276409853E-1    3.828515678640653E-1    2.492513047256135E-4    2.493337332391810E-5    1.998393013633309E-4    5.318996958620097E-5   -8.958683740801184E-2    4.762550163546886E-1
 1.010467017402500E+10  -3.096777444719597E-1    3.829867860219596E-1    2.484510135867543E-4    1.864642297645922E-5    1.927350140539708E-4    5.312703015905945E-5   -8.923669274434991E-2    4.765121127076306E-1
 1.010467341225000E+10  -3.095524990282354E-1    3.832153530737094E-1    2.201262155347654E-4    7.602736909689764E-6    1.928653804597394E-4    5.629960986492042E-5   -8.901762845128995E-2    4.764494724270832E-1
 1.010467665047500E+10  -3.092934478673607E-1    3.833348301481442E-1    2.407770973902206E-4    3.892748086587463E-5    2.341801672823897E-4    7.644584554514312E-5   -8.877030836074039E-2    4.764975050474071E-1
 1.010467988870000E+10  -3.092524915089409E-1    3.835919687426373E-1    2.768663117408903E-4    3.672222264466936E-5    2.602129271206575E-4    8.772298097640010E-5   -8.844760122831649E-2    4.766751889901782E-1
 1.010468312692500E+10  -3.091714513159761E-1    3.834130840351595E-1    2.495504206853604E-4    3.009058344017506E-5    2.541868122543791E-4    7.576992733945136E-5   -8.821618577507180E-2    4.765675953868277E-1
 1.010468636515000E+10  -3.089089599616890E-1    3.837352381011291E-1    2.527224858984171E-4    2.255137200505805E-5    2.743287978405405E-4    5.776660606935138E-5   -8.769958191179336E-2    4.767472802268615E-1
 1.010468960337500E+10  -3.088185804902586E-1    3.837609264112343E-1    2.774438775507585E-4    2.305045499177383E-5    2.613237624747925E-4    8.764654078623820E-5   -8.755250494547459E-2    4.766563158591908E-1
 1.010469284160000E+10  -3.087800816222584E-1    3.838405175053400E-1    2.803517314073010E-4    4.080145459359851E-5    2.603191236675138E-4    6.541393024674181E-5   -8.733833245746644E-2    4.767463702700484E-1
 1.010469607982500E+10  -3.084370857230427E-1    3.840521081738005E-1    3.036487417728696E-4    5.742272016505633E-5    2.648901533197720E-4    4.893311884673547E-5   -8.693077387016408E-2    4.768847216714064E-1
 1.010469931805000E+10  -3.084436494552514E-1    3.840786870940733E-1    2.955741542651717E-4    4.063608169834115E-5    2.529300578796308E-4    9.956666828089116E-5   -8.665903231148596E-2    4.768709814740867E-1
 1.010470255627500E+10  -3.080520496151403E-1    3.843621890953950E-1    2.987189164068535E-4    7.198321443992799E-5    2.932585143068588E-4    7.214560862834772E-5   -8.633713999051788E-2    4.770134125843823E-1
 1.010470579450000E+10  -3.080845503493431E-1    3.844425154682937E-1    3.065370250657746E-4    7.816547846889871E-5    3.154655394923090E-4    8.186076563507419E-5   -8.623876443999305E-2    4.770955539120801E-1
 1.010470903272500E+10  -3.078282481594926E-1    3.846287867523590E-1    3.357609950876680E-4    4.654228440315816E-5    3.115222006571709E-4    6.899828559635202E-5   -8.576723727142299E-2    4.770038942760572E-1
 1.010471227095000E+10  -3.077183757359886E-1    3.847136244411593E-1    3.424256137454773E-4    5.167824321053331E-5    3.019570560364656E-4    8.962386170184712E-5   -8.541904774317075E-2    4.771358534577557E-1
 1.010471550917500E+10  -3.075841526713729E-1    3.848360043051161E-1    3.514493062402018E-4    6.407751004960213E-5    3.098450384165214E-4    7.188075611470360E-5   -8.510780144962632E-2    4.771301208806720E-1
 1.010471874740000E+10  -3.073821662200374E-1    3.850848693136033E-1    3.426453137720712E-4    5.166915075528187E-5    3.354889108559145E-4    6.349428717287138E-5   -8.483600610670521E-2    4.773076447453970E-1
 1.010472198562500E+10  -3.072794405406093E-1    3.851138505719000E-1    3.696645361871043E-4    5.072348095800893E-5    3.541544077180253E-4    9.947170107328779E-5   -8.473013593153199E-2    4.772719648350099E-1
 1.010472522385000E+10  -3.071078381046201E-1    3.851760499643759E-1    3.506712005603244E-4    9.248819611906641E-5    3.431523539251423E-4    7.903283688697114E-5   -8.419518248254951E-2    4.773115617861542E-1
 1.010472846207500E+10  -3.068581511737856E-1    3.852432547574330E-1    4.103269346148242E-4    5.928811592611223E-5    3.614461708277495E-4    1.165544337517334E-4   -8.382432492898348E-2    4.773953719889729E-1
 1.010473170030000E+10  -3.067395481089628E-1    3.855034052301189E-1    3.940651136984310E-4    8.848084556565878E-5    3.643178410585555E-4    7.856734603655619E-5   -8.356177939932319E-2    4.774819671311242E-1
 1.010473493852500E+10  -3.066035229000650E-1    3.857517005617041E-1    4.020942836711985E-4    7.896900288001432E-5    3.699139159589757E-4    1.079460378182251E-4   -8.337383011451038E-2    4.774597708878361E-1
 1.010473817675000E+10  -3.063773385376067E-1    3.857034842315325E-1    3.864098814186598E-4    6.166587511975657E-5    3.831640145823626E-4    1.074181184179441E-4   -8.303378205626734E-2    4.776725710255394E-1
 1.010474141497500E+10  -3.065514696630606E-1    3.858773030344645E-1    4.387694229990756E-4    8.799776067489092E-5    3.806585965521634E-4    1.036915828675928E-4   -8.271494874090966E-2    4.774970139847365E-1
 1.010474465320000E+10  -3.061662048475238E-1    3.860154422302129E-1    4.171069631104933E-4    7.366339917855266E-5    4.012630686186281E-4    1.216294736045042E-4   -8.219637338873273E-2    4.775710071417116E-1
 1.010474789142500E+10  -3.060897337150115E-1    3.861461035518671E-1    4.131039537696340E-4    8.146083611436271E-5    4.130580568938319E-4    1.321601287384632E-4   -8.197108843638529E-2    4.777827934735276E-1
 1.010475112965000E+10  -3.060742111350915E-1    3.861898904578495E-1    4.541962609830157E-4    7.292613244572606E-5    4.232433286053524E-4    1.374233568643135E-4   -8.169971058104600E-2    4.777291117191934E-1
 1.010475436787500E+10  -3.056687963907930E-1    3.864704706135910E-1    4.869532077511898E-4    6.157362626671386E-5    4.377937657961633E-4    1.514858752398842E-4   -8.130288530418686E-2    4.779003189375275E-1
 1.010475760610000E+10  -3.056098631482566E-1    3.866132367429417E-1    4.526108496864477E-4    6.942508391997853E-5    4.396605723626766E-4    1.143176945374980E-4   -8.111393231895511E-2    4.778071026642867E-1
 1.010476084432500E+10  -3.055324228355489E-1    3.867147527686210E-1    4.611568654307012E-4    1.122046316367484E-4    4.536337873705759E-4    1.135563936648945E-4   -8.087808268817871E-2    4.779437306898640E-1
 1.010476408255000E+10  -3.052760897116596E-1    3.868378476091783E-1    5.037930200051808E-4    9.778604308916489E-5    4.623297634088229E-4    1.269618086017266E-4   -8.041857569790398E-2    4.780251292136245E-1
 1.010476732077500E+10  -3.050870867760324E-1    3.869260261879868E-1    5.102812777758744E-4    6.026772734647011E-5    4.611766741657295E-4    1.199199626607717E-4   -8.018139831391158E-2    4.781227093955719E-1
 1.010477055900000E+10  -3.049883841152289E-1    3.870347134046745E-1    4.907438267760633E-4    8.178041523368074E-5    4.750556761091045E-4    1.634196558651721E-4   -7.986022355244476E-2    4.781484975872377E-1
 1.010477379722500E+10  -3.048134118342868E-1    3.870622818608350E-1    5.058164894797223E-4    9.590586121970084E-5    4.992367315399884E-4    1.461929798865757E-4   -7.930139113207681E-2    4.780719716300880E-1
 1.010477703545000E+10  -3.047461742849800E-1    3.874431467559054E-1    5.370982575050957E-4    1.264299072449198E-4    4.956781786736384E-4    1.234029875668736E-4   -7.922604312823717E-2    4.781021063743869E-1
 1.010478027367500E+10  -3.045558192623875E-1    3.873523419751089E-1    5.215232565705266E-4    9.439825729089374E-5    4.926513126508417E-4    1.509238847731898E-4   -7.882203129912704E-2    4.780949347137254E-1
 1.010478351190000E+10  -3.042451799081334E-1    3.877890652141129E-1    5.496646933033930E-4    1.141381845611295E-4    5.055506098916624E-4    1.825472823600830E-4   -7.855078318964795E-2    4.782067375048937E-1
 1.010478675012500E+10  -3.041384094560046E-1    3.876786215139219E-1    5.892814599720473E-4    1.138981694961221E-4    5.207903409097878E-4    1.638714534752366E-4   -7.815656049013858E-2    4.782304846039582E-1
 1.010478998835000E+10  -3.041148899753760E-1    3.878850797610200E-1    5.562481482469823E-4    1.011555296959847E-4    5.266594538231386E-4    1.535941497076555E-4   -7.779633289387143E-2    4.782995008686381E-1
 1.010479322657500E+10  -3.039282242849510E-1    3.880394015182668E-1    5.880073477558418E-4    1.163895849447787E-4    5.123206611205379E-4    1.515088333062047E-4   -7.751838787713741E-2    4.783288855594881E-1
 1.010479646480000E+10  -3.037948400902204E-1    3.879820465609020E-1    5.766543116415697E-4    9.992689722387906E-5    5.491960678064919E-4    1.708203990260363E-4   -7.709150406949310E-2    4.784109239274211E-1
 1.010479970302500E+10  -3.036755627169688E-1    3.881757479108724E-1    5.709498468122195E-4    1.188680695341141E-4    5.836422541603016E-4    1.586024237012223E-4   -7.674558301108245E-2    4.784392448578549E-1
 1.010480294125000E+10  -3.035369736016961E-1    3.884051217020201E-1    6.190191075626158E-4    1.299215936837177E-4    5.425078652315051E-4    1.672457227965336E-4   -7.641618006228423E-2    4.785196533376601E-1
 1.010480617947500E+10  -3.033461406245767E-1    3.883963322482182E-1    6.263053554299710E-4    9.128672282100755E-5    5.928362844650380E-4    1.479233909783541E-4   -7.605141688557228E-2    4.786436163282117E-1
 1.010480941770000E+10  -3.030722853740915E-1    3.885978158550888E-1    6.286782318994823E-4    1.360291136678882E-4    6.062798328230852E-4    1.746289267818826E-4   -7.577817709858138E-2    4.786544311443300E-1
 1.010481265592500E+10  -3.029935540125582E-1    3.887239835034509E-1    6.624789338306614E-4    1.462585704902659E-4    6.349633656577426E-4    1.776266416715801E-4   -7.544441041292793E-2    4.786510296171266E-1
 1.010481589415000E+10  -3.027997066365045E-1    3.890323062352444E-1    6.817389656620166E-4    1.243276105023922E-4    6.491221327807681E-4    1.811075344329116E-4   -7.511470208469836E-2    4.786796545987690E-1
 1.010481913237500E+10  -3.028463696250491E-1    3.888994291191470E-1    6.617167569150646E-4    1.596845410092236E-4    6.132912904406078E-4    1.542369234807211E-4   -7.459608944105353E-2    4.786285753774877E-1
 1.010482237060000E+10  -3.025774399819231E-1    3.890791196156586E-1    7.042494369818350E-4    1.502069010311065E-4    6.686015881281508E-4    1.822133444236868E-4   -7.449293814167110E-2    4.788980255194673E-1
 1.010482560882500E+10  -3.024907379027602E-1    3.893022982289835E-1    6.989234834845697E-4    1.402739600156912E-4    6.538685351116357E-4    1.936499356971655E-4   -7.400095188269228E-2    4.786868914557330E-1
 1.010482884705000E+10  -3.022912539009343E-1    3.894967529494634E-1    7.303186174712736E-4    1.229990883396710E-4    6.830309002509280E-4    1.729504141629010E-4   -7.365263764123946E-2    4.787865778259229E-1
 1.010483208527500E+10  -3.021797314712995E-1    3.895839714612002E-1    7.617483847904377E-4    1.426662796024369E-4    6.712998968787463E-4    2.084428768159228E-4   -7.329411190094338E-2    4.788796642230576E-1
 1.010483532350000E+10  -3.018697995562286E-1    3.895536469069577E-1    7.674400334205195E-4    1.287320844057543E-4    6.961175193289272E-4    2.033155639429353E-4   -7.294851987944061E-2    4.789376885886513E-1
 1.010483856172500E+10  -3.018821471927574E-1    3.897720660070315E-1    7.628765742824376E-4    1.438392460317455E-4    7.302885530564366E-4    2.157633181307584E-4   -7.252929721857004E-2    4.789673983528436E-1
 1.010484179995000E+10  -3.014795893339566E-1    3.899331815419071E-1    7.817248414040694E-4    1.283015220619807E-4    7.368962196547730E-4    2.068919226811146E-4   -7.212821494463970E-2    4.790111809081631E-1
 1.010484503817500E+10  -3.015498769640210E-1    3.899603432234479E-1    8.014993024843193E-4    1.701151605397181E-4    7.499491636124313E-4    2.115906960900674E-4   -7.180502047130130E-2    4.789558541420845E-1
 1.010484827640000E+10  -3.012879919637705E-1    3.900960361638612E-1    8.154799834084751E-4    1.720938401268979E-4    7.553477599123297E-4    2.115662035517124E-4   -7.147405891732390E-2    4.790191179647662E-1
 1.010485151462500E+10  -3.012254752557424E-1    3.903228298793209E-1    8.323152032913906E-4    1.609467326917881E-4    7.848350747466758E-4    1.997930547292359E-4   -7.110253163222181E-2    4.791559735296408E-1
 1.010485475285000E+10  -3.009805412156939E-1    3.903159195146629E-1    8.502875884618798E-4    1.685018841681049E-4    7.847065063116823E-4    2.399143378260362E-4   -7.059770493340450E-2    4.792195235773013E-1
 1.010485799107500E+10  -3.009221251241012E-1    3.905568880037912E-1    8.672723452634587E-4    1.701977456265449E-4    8.201511558216134E-4    2.060848780532492E-4   -7.034019033602387E-2    4.792110891125805E-1
 1.010486122930000E+10  -3.008244773096612E-1    3.906289062692936E-1    8.937984301989196E-4    1.455052758150712E-4    8.360761135399025E-4    2.433604653095723E-4   -6.991992044478193E-2    4.792306810507952E-1
 1.010486446752500E+10  -3.005301698847220E-1    3.907239787202736E-1    8.766764743051014E-4    1.538490899868331E-4    8.392324699833306E-4    2.440007561269141E-4   -6.955267404070811E-2    4.792199371822297E-1
 1.010486770575000E+10  -3.004530510842578E-1    3.908746802235574E-1    8.995047156665962E-4    1.732208810698976E-4    8.539469715558139E-4    2.444894819073324E-4   -6.915383896211796E-2    4.791099800809244E-1
 1.010487094397500E+10  -3.004016577379190E-1    3.910549908176192E-1    9.095592812150851E-4    1.603346638845398E-4    8.596553033303887E-4    2.324325576241543E-4   -6.875597249541894E-2    4.792528466170415E-1
 1.010487418220000E+10  -3.001605218042888E-1    3.910982541709597E-1    9.413477084538771E-4    1.733331129388727E-4    8.710652454850537E-4    2.203103002016726E-4   -6.826757655055705E-2    4.794153865244245E-1
 1.010487742042500E+10  -2.999260200279292E-1    3.912847766471030E-1    9.805315919730175E-4    1.762484528019111E-4    9.028854121223891E-4    2.425322827387701E-4   -6.792613335350366E-2    4.793992327916374E-1
 1.010488065865000E+10  -2.996739014299493E-1    3.915116481752920E-1    9.735944022508144E-4    1.808479283851437E-4    9.336429992807844E-4    2.635698596711508E-4   -6.754655574351420E-2    4.794197749531485E-1
 1.010488389687500E+10  -2.997102810005610E-1    3.915709120765815E-1    1.006174764528506E-3    1.825993225078743E-4    9.342923862027538E-4    2.481077118822443E-4   -6.707602558011272E-2    4.794941799171754E-1
 1.010488713510000E+10  -2.996109359384939E-1    3.916868982246667E-1    9.943722029087407E-4    1.783132482319864E-4    9.521658530786970E-4    2.539521317992595E-4   -6.672162585571439E-2    4.794733890152300E-1
 1.010489037332500E+10  -2.992652897869986E-1    3.918072845880948E-1    1.033635881107712E-3    1.923840009206990E-4    9.678093402701734E-4    2.387465778245302E-4   -6.626973283170060E-2    4.794567767831372E-1
 1.010489361155000E+10  -2.991922920192228E-1    3.918234372782240E-1    1.022655347542460E-3    1.769356430450641E-4    9.787392102184854E-4    2.702309372057277E-4   -6.590810137599946E-2    4.794807831576724E-1
 1.010489684977500E+10  -2.989992606013556E-1    3.920149209672435E-1    1.074702766947766E-3    1.626396407258221E-4    1.002669003075857E-3    2.768814789368539E-4   -6.555134955884372E-2    4.794051481332502E-1
 1.010490008800000E+10  -2.988577083128313E-1    3.921045802191933E-1    1.070253491874238E-3    1.919773984670169E-4    1.007073488104869E-3    2.737185986365748E-4   -6.504652681374404E-2    4.795806736643667E-1
 1.010490332622500E+10  -2.987516072762446E-1    3.921912628378901E-1    1.132441782027647E-3    1.730690939936848E-4    1.043862580104373E-3    2.783044421214211E-4   -6.463814335456498E-2    4.794821425846885E-1
 1.010490656445000E+10  -2.986115973820835E-1    3.924394901502112E-1    1.108051667195781E-3    1.638385449889922E-4    1.051298918615339E-3    2.847111489126500E-4   -6.413959999987563E-2    4.795245021335101E-1
 1.010490980267500E+10  -2.984826327347654E-1    3.925309414948210E-1    1.158816272178602E-3    1.771126936136837E-4    1.089071313064458E-3    2.875160661707121E-4   -6.380705268760582E-2    4.796143856386648E-1
 1.010491304090000E+10  -2.984106648459586E-1    3.927086398251292E-1    1.140245580795788E-3    1.814307769889925E-4    1.091815133276488E-3    2.811988908047536E-4   -6.332699453199395E-2    4.796666837685106E-1
 1.010491627912500E+10  -2.980693347059141E-1    3.928501118097920E-1    1.183754498760882E-3    2.084092284641789E-4    1.130886154329785E-3    3.028543096285137E-4   -6.295122314579663E-2    4.796725011014102E-1
 1.010491951735000E+10  -2.979232216650064E-1    3.929815628021417E-1    1.200334018766635E-3    2.152417448233153E-4    1.133263648321714E-3    2.856054439941471E-4   -6.232120290391164E-2    4.798141528971712E-1
 1.010492275557500E+10  -2.978427988721345E-1    3.930617903431193E-1    1.266274264664483E-3    2.240767810966144E-4    1.168409902786527E-3    2.940763092390675E-4   -6.215149534202827E-2    4.796980867932211E-1
 1.010492599380000E+10  -2.977004811639318E-1    3.932390332962623E-1    1.269402385305672E-3    1.849986902004392E-4    1.198024033333494E-3    3.005076656038932E-4   -6.151984413501334E-2    4.796664372208572E-1
 1.010492923202500E+10  -2.975367058587258E-1    3.933201605541656E-1    1.306523124736429E-3    2.223494846045177E-4    1.201944127192293E-3    2.754493591540477E-4   -6.116365741961940E-2    4.797742532593994E-1
 1.010493247025000E+10  -2.973435544162177E-1    3.934041112273993E-1    1.278577032393138E-3    2.100558222260322E-4    1.220873883112136E-3    3.002313103745832E-4   -6.056052872080116E-2    4.797142257158545E-1
