#  HZ   S   RI   R     50.00 
! Rohde & Schwarz Vector Network Analyzer 
! Rohde-Schwarz,ZNB20-2Port,1311601062101988,3.16
! Created: UTC 3/20/2024, 4:59:49 PM
! freq[Hz]                re:S11                  im:S11                  re:S21                  im:S21                  re:S12                  im:S12                  re:S22                  im:S22
 1.010005463900000E+10  -4.548917570228768E-1    1.488406165541951E-1   -4.929633513289900E-4   -8.496032515221329E-4   -4.207847869523325E-4   -9.125575647680129E-4   -3.475915306124480E-1    3.182952940130640E-1
 1.010007890985000E+10  -4.545335940288950E-1    1.503432461206672E-1   -5.358206384279108E-4   -8.513029907258513E-4   -4.294501989503089E-4   -8.623587168376955E-4   -3.466153318127550E-1    3.197172261411172E-1
 1.010010318070000E+10  -4.540798551007784E-1    1.516872275265860E-1   -5.008541407344982E-4   -8.855621898727923E-4   -4.358415068992802E-4   -8.735605267138524E-4   -3.455165928363383E-1    3.208249747275187E-1
 1.010012745155000E+10  -4.537059678002091E-1    1.531385540858178E-1   -5.151952020899555E-4   -8.783843789805351E-4   -4.158054447978866E-4   -9.008985768285297E-4   -3.445586839025541E-1    3.219680298352489E-1
 1.010015172240000E+10  -4.532160512225747E-1    1.546477111826820E-1   -5.064104219349511E-4   -8.484030954396842E-4   -4.366171155143431E-4   -8.642129037707776E-4   -3.435335684100225E-1    3.231981613422333E-1
 1.010017599325000E+10  -4.528864332492387E-1    1.560540691942811E-1   -4.963556199583139E-4   -8.594581822781352E-4   -4.163416461982639E-4   -8.559915357287823E-4   -3.425028457683054E-1    3.243721866533596E-1
 1.010020026410000E+10  -4.526339190280214E-1    1.574436392487384E-1   -5.296856912110703E-4   -8.365514157151685E-4   -4.292350539814634E-4   -8.705271706846063E-4   -3.415965750548535E-1    3.255546683243227E-1
 1.010022453495000E+10  -4.520842987386655E-1    1.588480574053760E-1   -5.310767655803808E-4   -8.561822592819319E-4   -4.171518125347079E-4   -8.711056257022113E-4   -3.403669961268814E-1    3.268520365474343E-1
 1.010024880580000E+10  -4.516838408568873E-1    1.602920918723135E-1   -5.427447526340179E-4   -8.231258251609226E-4   -4.351723814530276E-4   -8.635329397270602E-4   -3.394210627624114E-1    3.278697281481062E-1
 1.010027307665000E+10  -4.513497416147853E-1    1.618657989572416E-1   -4.945366995756748E-4   -8.412253172423062E-4   -4.616552565404452E-4   -8.778526456105683E-4   -3.382927051419871E-1    3.291123784188101E-1
 1.010029734750000E+10  -4.508057869942509E-1    1.631782955438318E-1   -5.315264626220368E-4   -8.145450151273726E-4   -4.610701290064533E-4   -8.590492381460818E-4   -3.372185898512133E-1    3.302663599144514E-1
 1.010032161835000E+10  -4.504489196793327E-1    1.647326321191405E-1   -5.200988254685648E-4   -8.483818503667506E-4   -4.551070220523559E-4   -8.614075506364698E-4   -3.362183238460544E-1    3.314649518075021E-1
 1.010034588920000E+10  -4.499557517672909E-1    1.659269318629560E-1   -5.613891596087788E-4   -8.077278498494909E-4   -4.760265844157926E-4   -8.531805457307972E-4   -3.353034273068993E-1    3.326380712413451E-1
 1.010037016005000E+10  -4.494401469498159E-1    1.673919099599585E-1   -5.390763603393919E-4   -8.325458092540385E-4   -4.535909182169357E-4   -8.779198309065533E-4   -3.341834495807870E-1    3.338482131695169E-1
 1.010039443090000E+10  -4.491439041806010E-1    1.688516073200779E-1   -5.375091143514690E-4   -8.309488326547113E-4   -4.684715165476024E-4   -8.529708572606734E-4   -3.332027968763943E-1    3.349189345501975E-1
 1.010041870175000E+10  -4.485233800470127E-1    1.702912909543781E-1   -5.382235353249763E-4   -8.180022840501686E-4   -4.551119993188098E-4   -8.643764967305119E-4   -3.321149984592439E-1    3.361182468542945E-1
 1.010044297260000E+10  -4.481351795573359E-1    1.716970560242975E-1   -5.239172309647740E-4   -8.466882144600857E-4   -4.571976113889077E-4   -8.505716982418533E-4   -3.309720955282666E-1    3.372441501785115E-1
 1.010046724345000E+10  -4.477646425059418E-1    1.730126373936652E-1   -5.442948863969275E-4   -8.424970577165480E-4   -4.569332343478688E-4   -8.522443733445879E-4   -3.299186133513632E-1    3.383942777042823E-1
 1.010049151430000E+10  -4.472842383160995E-1    1.745983669953286E-1   -5.360073706229730E-4   -8.173059805795302E-4   -4.599204323715321E-4   -8.590096711694503E-4   -3.287348374802315E-1    3.396657299719010E-1
 1.010051578515000E+10  -4.468645337959492E-1    1.758355274360449E-1   -5.479357909193502E-4   -8.213511059795525E-4   -4.756039962899274E-4   -8.510303779566506E-4   -3.278275298782026E-1    3.407617773820882E-1
 1.010054005600000E+10  -4.463895187558709E-1    1.773623360168455E-1   -5.373112284775285E-4   -8.256863281733731E-4   -4.583803430961963E-4   -8.567268393765456E-4   -3.267966841454157E-1    3.417778056271268E-1
 1.010056432685000E+10  -4.459694666534828E-1    1.785720529583125E-1   -5.246866157858506E-4   -7.958093688212274E-4   -4.585050886076485E-4   -8.263421126878738E-4   -3.256831385538379E-1    3.428835537121278E-1
 1.010058859770000E+10  -4.454060090486572E-1    1.800432530802596E-1   -5.485972582662794E-4   -8.281321377668953E-4   -4.958497714079974E-4   -8.153268138349410E-4   -3.245774250428829E-1    3.441657004449702E-1
 1.010061286855000E+10  -4.449382398561083E-1    1.815071458774487E-1   -5.608697281932152E-4   -8.293210443704613E-4   -4.848475273255644E-4   -8.128606616339235E-4   -3.233772653200319E-1    3.453638849290099E-1
 1.010063713940000E+10  -4.445014476934301E-1    1.829187706881968E-1   -5.633924110308557E-4   -8.164017604412549E-4   -4.898880897361233E-4   -8.134232171535609E-4   -3.225317549998871E-1    3.464419216033015E-1
 1.010066141025000E+10  -4.439781421299339E-1    1.842452285657812E-1   -5.797678888259297E-4   -8.070616611929090E-4   -4.865259530783698E-4   -8.060307739448396E-4   -3.212497963126678E-1    3.474292205694287E-1
 1.010068568110000E+10  -4.434070038739191E-1    1.857119953423968E-1   -5.617300438281821E-4   -8.272942855038274E-4   -4.808928865630172E-4   -8.169339236035168E-4   -3.202461610828014E-1    3.485198918710894E-1
 1.010070995195000E+10  -4.429587622863788E-1    1.871505234236311E-1   -5.556456865736357E-4   -8.126314533887182E-4   -4.833900599016681E-4   -8.231943364087622E-4   -3.189585726011169E-1    3.497639599254665E-1
 1.010073422280000E+10  -4.423407315391523E-1    1.885592784961745E-1   -5.800961367841591E-4   -8.015096694198293E-4   -4.558639178511883E-4   -7.994054632547305E-4   -3.178640916016385E-1    3.507498064104285E-1
 1.010075849365000E+10  -4.419360644579898E-1    1.898103722835288E-1   -5.753256614886000E-4   -8.135316814412769E-4   -4.873503216964102E-4   -8.226674636232479E-4   -3.169922002709374E-1    3.517888288723821E-1
 1.010078276450000E+10  -4.414325048465775E-1    1.912476363826723E-1   -5.437488871216189E-4   -7.857151758327960E-4   -5.126605071426624E-4   -7.987415373487417E-4   -3.156723679219736E-1    3.530746826233380E-1
 1.010080703535000E+10  -4.410585127073121E-1    1.926397726117196E-1   -5.629966542847757E-4   -7.947266928528562E-4   -5.191059414288059E-4   -8.154405129617456E-4   -3.147401456381189E-1    3.542221052508183E-1
 1.010083130620000E+10  -4.404611733850838E-1    1.939305055007371E-1   -5.556163835987454E-4   -7.903748110761616E-4   -4.975637022705912E-4   -8.262394103216458E-4   -3.134941526740767E-1    3.550433834705540E-1
 1.010085557705000E+10  -4.398679938468892E-1    1.954226948507570E-1   -5.593282756381289E-4   -8.054667497969712E-4   -4.778715988794596E-4   -8.123493114807876E-4   -3.124216129471136E-1    3.562704707539481E-1
 1.010087984790000E+10  -4.394190086287703E-1    1.967447483438772E-1   -5.612723638789602E-4   -7.682242162281569E-4   -5.017612782014572E-4   -8.089101507835514E-4   -3.112343035185791E-1    3.573685776830810E-1
 1.010090411875000E+10  -4.388059943783713E-1    1.981161227441699E-1   -5.654526260373860E-4   -7.865003984849610E-4   -4.873109024308151E-4   -7.906479989715456E-4   -3.101018877491536E-1    3.585680845979242E-1
 1.010092838960000E+10  -4.383633271904431E-1    1.994122254264151E-1   -5.578968520107719E-4   -8.052270283421372E-4   -5.133225999237126E-4   -7.999105452464925E-4   -3.089678290384431E-1    3.596432028570051E-1
 1.010095266045000E+10  -4.377555781611635E-1    2.009052151129654E-1   -5.994288881828627E-4   -7.714658889705580E-4   -4.872320361422210E-4   -7.893902978992813E-4   -3.078866989616275E-1    3.607025685996681E-1
 1.010097693130000E+10  -4.372889911456564E-1    2.023082795770516E-1   -5.553310066903898E-4   -7.797443920575914E-4   -4.970429607451773E-4   -7.903792248610153E-4   -3.067176732198695E-1    3.617596073508630E-1
 1.010100120215000E+10  -4.365534311946393E-1    2.036789671463115E-1   -5.515275047715829E-4   -7.777190999026860E-4   -4.841085556255587E-4   -7.845259083165918E-4   -3.054897870978493E-1    3.627589058048553E-1
 1.010102547300000E+10  -4.362137870419191E-1    2.049892381835554E-1   -5.712226438850226E-4   -7.688302485362191E-4   -4.988412823096836E-4   -7.721292317486214E-4   -3.042848492193949E-1    3.638973885171930E-1
 1.010104974385000E+10  -4.355914120611167E-1    2.063948145391240E-1   -5.519924289975079E-4   -7.760177134598174E-4   -5.292916245474814E-4   -7.791456518646554E-4   -3.031133417686723E-1    3.649389955922884E-1
 1.010107401470000E+10  -4.350622966143450E-1    2.078658691746439E-1   -5.846600726629705E-4   -7.681246109105243E-4   -5.175699935329107E-4   -8.009089201251509E-4   -3.019891599760900E-1    3.658599747464453E-1
 1.010109828555000E+10  -4.344368143727118E-1    2.091089450633559E-1   -5.792118797646410E-4   -7.620198165363154E-4   -5.017082222254247E-4   -7.842151414945726E-4   -3.008546056175949E-1    3.671120732881174E-1
 1.010112255640000E+10  -4.339656335410859E-1    2.105379499185361E-1   -5.940764611347653E-4   -7.252732066389999E-4   -4.948301028934180E-4   -7.681136015377459E-4   -2.997553792935425E-1    3.681390919348074E-1
 1.010114682725000E+10  -4.332112560794025E-1    2.119640301672603E-1   -5.650281157138151E-4   -7.629779369623502E-4   -5.049837135797214E-4   -7.779805598960077E-4   -2.985169212604268E-1    3.691911050149290E-1
 1.010117109810000E+10  -4.327333507940727E-1    2.132485726396429E-1   -5.668484535758260E-4   -7.402981055044792E-4   -4.979890029834378E-4   -7.781699919656718E-4   -2.973225430815571E-1    3.701783777786180E-1
 1.010119536895000E+10  -4.321360643814874E-1    2.146036333530399E-1   -5.892375378655942E-4   -7.883064641633596E-4   -5.070682469739125E-4   -7.571015059276687E-4   -2.961749991665222E-1    3.711461524885947E-1
 1.010121963980000E+10  -4.316226968118307E-1    2.160504459664083E-1   -5.734644790660610E-4   -7.240316740167821E-4   -5.166442474156901E-4   -7.834707593837591E-4   -2.950700541799833E-1    3.723357032294861E-1
 1.010124391065000E+10  -4.309498200229668E-1    2.173888479902893E-1   -5.785821885541239E-4   -7.323073615078217E-4   -5.361615774596228E-4   -7.464947143696205E-4   -2.938022640715248E-1    3.734289031587373E-1
 1.010126818150000E+10  -4.303298904526614E-1    2.186456204815857E-1   -5.924613510564092E-4   -7.398146051512733E-4   -5.261972565051636E-4   -7.574639283916726E-4   -2.926584309769137E-1    3.743928430878321E-1
 1.010129245235000E+10  -4.298081118272729E-1    2.200191400014939E-1   -5.593784577101554E-4   -7.422181475056472E-4   -5.374912179322009E-4   -7.521499921809285E-4   -2.913648092249701E-1    3.754199834526623E-1
 1.010131672320000E+10  -4.290546044417110E-1    2.213061651976497E-1   -5.958996077238118E-4   -7.193874460521173E-4   -5.069443940027589E-4   -7.404877459391461E-4   -2.903116434626192E-1    3.764156790725856E-1
 1.010134099405000E+10  -4.285786747426598E-1    2.227675572423755E-1   -5.959327922053960E-4   -7.481574290461284E-4   -5.244084620078458E-4   -7.663321489496171E-4   -2.890261586182214E-1    3.773708979597857E-1
 1.010136526490000E+10  -4.278248915834548E-1    2.240212975152489E-1   -5.905997587952547E-4   -7.357946466835845E-4   -5.145811488881040E-4   -7.292493576431933E-4   -2.878208127295495E-1    3.783312124449021E-1
 1.010138953575000E+10  -4.273222740551352E-1    2.253074841517315E-1   -5.865722850370705E-4   -7.199918465177938E-4   -5.028066443629026E-4   -7.425590017993216E-4   -2.865915660459413E-1    3.794767499890865E-1
 1.010141380660000E+10  -4.266452920587219E-1    2.267209033265527E-1   -5.851745434182554E-4   -7.228338872137355E-4   -5.279361938338986E-4   -7.659238778285669E-4   -2.854041046216355E-1    3.804236917919824E-1
 1.010143807745000E+10  -4.260826779477423E-1    2.281740391800664E-1   -5.777480332136260E-4   -7.231275156416580E-4   -5.320654013099712E-4   -7.596119013538448E-4   -2.841927900723945E-1    3.814903668016683E-1
 1.010146234830000E+10  -4.254249218053903E-1    2.294799761069077E-1   -5.834205640132460E-4   -7.206276508227566E-4   -5.115006478553713E-4   -7.231344648309511E-4   -2.829100080354440E-1    3.824145025301242E-1
 1.010148661915000E+10  -4.246942520607903E-1    2.307624664279931E-1   -5.908920610942160E-4   -6.958265883241810E-4   -5.387573991532006E-4   -7.212642950927974E-4   -2.818143498853932E-1    3.833951845056603E-1
 1.010151089000000E+10  -4.242563566411671E-1    2.320975882926950E-1   -5.841572447687105E-4   -7.142479617854845E-4   -5.274008242321320E-4   -7.221834127812507E-4   -2.804967789068604E-1    3.843566418902740E-1
 1.010153516085000E+10  -4.234603980681519E-1    2.333434307924513E-1   -5.992543201735410E-4   -6.878118769841285E-4   -5.474342432137244E-4   -7.310055531020899E-4   -2.791930130083521E-1    3.852130227853308E-1
 1.010155943170000E+10  -4.229356468738538E-1    2.346938794688146E-1   -5.967447442475704E-4   -7.272688179047506E-4   -5.201844760114592E-4   -7.252113588184305E-4   -2.780477471742775E-1    3.862681068535966E-1
 1.010158370255000E+10  -4.221507930816988E-1    2.361844303833311E-1   -6.076101525294940E-4   -6.977535687779885E-4   -5.080951566007863E-4   -7.110281675979662E-4   -2.767384821158447E-1    3.873519329522340E-1
 1.010160797340000E+10  -4.215998228252389E-1    2.374129110374896E-1   -5.939474797936874E-4   -7.191996009383727E-4   -5.171917896470581E-4   -7.149071684832211E-4   -2.755508633756709E-1    3.883581964245166E-1
 1.010163224425000E+10  -4.211058842237760E-1    2.386068181924178E-1   -5.919459587988095E-4   -6.980626202612255E-4   -5.094441170750309E-4   -7.184972321825201E-4   -2.742638716413371E-1    3.893551489407355E-1
 1.010165651510000E+10  -4.201749342996642E-1    2.400943800229849E-1   -5.845343961080029E-4   -7.141597433987688E-4   -4.996595506290514E-4   -7.290096438642364E-4   -2.731119059727546E-1    3.903410910293152E-1
 1.010168078595000E+10  -4.195360531672972E-1    2.413686213296472E-1   -6.164033548190496E-4   -6.859024358619914E-4   -5.363310527997662E-4   -7.141974012569850E-4   -2.717131094468735E-1    3.912138953163287E-1
 1.010170505680000E+10  -4.188814562039040E-1    2.427506271441603E-1   -6.004291717336286E-4   -7.011021260736580E-4   -5.338020421174898E-4   -7.038622863827323E-4   -2.705198288546423E-1    3.922493432755922E-1
 1.010172932765000E+10  -4.182499754604220E-1    2.439517473076043E-1   -5.955716715075740E-4   -6.754240532907151E-4   -5.405692728189995E-4   -7.088767632204492E-4   -2.693330155477355E-1    3.930911832301592E-1
 1.010175359850000E+10  -4.176028906342605E-1    2.454050635181484E-1   -5.998676586025577E-4   -6.676315069885478E-4   -5.330056580430739E-4   -7.006983856149660E-4   -2.680545363152756E-1    3.940125821275968E-1
 1.010177786935000E+10  -4.168594234513606E-1    2.466151625024874E-1   -5.994011742058012E-4   -6.408593708206225E-4   -5.208049136298443E-4   -7.034282658037766E-4   -2.667746104703018E-1    3.950432480934252E-1
 1.010180214020000E+10  -4.161949772761732E-1    2.479358298740729E-1   -5.894362596036766E-4   -6.833148138982589E-4   -5.459516709561405E-4   -7.045446105275068E-4   -2.655528543468044E-1    3.959395956784443E-1
 1.010182641105000E+10  -4.155296394618260E-1    2.492285693481866E-1   -6.052148342188570E-4   -6.771202557098289E-4   -5.282036525600615E-4   -6.826126629151994E-4   -2.641850943675941E-1    3.967979320093867E-1
 1.010185068190000E+10  -4.149095287698236E-1    2.504761231869194E-1   -6.223063110082287E-4   -6.678283118407442E-4   -5.423681373971483E-4   -6.914096406624375E-4   -2.630257824782802E-1    3.978468127875662E-1
 1.010187495275000E+10  -4.141464137712981E-1    2.517541320625504E-1   -5.884226652983321E-4   -6.748000956176198E-4   -5.277496903180978E-4   -7.146448418699549E-4   -2.617070892538955E-1    3.987311353664459E-1
 1.010189922360000E+10  -4.134668523902327E-1    2.530262514196484E-1   -5.935546182945248E-4   -6.644610249423121E-4   -5.309102393637315E-4   -6.630515210970225E-4   -2.604012327423008E-1    3.996176031156562E-1
 1.010192349445000E+10  -4.126824205504515E-1    2.544894059874294E-1   -6.068359075357933E-4   -6.544821148170941E-4   -5.280332892931432E-4   -6.655315553200172E-4   -2.591080185612474E-1    4.004096312508290E-1
 1.010194776530000E+10  -4.120515370584646E-1    2.556520201186694E-1   -5.738246915864655E-4   -6.477920459568041E-4   -5.181181555109533E-4   -6.672486916637245E-4   -2.578622141838227E-1    4.014466433134006E-1
 1.010197203615000E+10  -4.112406988574786E-1    2.569143474065021E-1   -5.677079967418299E-4   -6.277837738007599E-4   -5.171258334808837E-4   -6.581962754996672E-4   -2.566402733236943E-1    4.023442784163765E-1
 1.010199630700000E+10  -4.105807978559015E-1    2.583405700920514E-1   -6.154952788473087E-4   -6.297678496674021E-4   -5.196836977584546E-4   -6.636285802676140E-4   -2.552448511279844E-1    4.033711452804674E-1
 1.010202057785000E+10  -4.098826119594708E-1    2.595522489395187E-1   -6.133396217432031E-4   -6.138841380812599E-4   -5.151367175615880E-4   -6.704990091420435E-4   -2.540183874943837E-1    4.041273203400423E-1
 1.010204484870000E+10  -4.091815604895729E-1    2.609893679314602E-1   -5.875456352693195E-4   -6.512849371624781E-4   -5.442054151058883E-4   -6.736894271592853E-4   -2.526518681880550E-1    4.051480828775249E-1
 1.010206911955000E+10  -4.083958908361643E-1    2.621380250549830E-1   -5.963070764137046E-4   -6.176353919782132E-4   -5.327124136426632E-4   -6.441572010374752E-4   -2.512203680492848E-1    4.060118684998631E-1
 1.010209339040000E+10  -4.076930056853114E-1    2.634384368555427E-1   -6.035395895734125E-4   -6.269018269984123E-4   -5.171287640411676E-4   -6.438189464245290E-4   -2.500021504443919E-1    4.067776756938681E-1
 1.010211766125000E+10  -4.068565401796780E-1    2.646064647422455E-1   -6.005109798158233E-4   -6.083225441727713E-4   -5.309204874795279E-4   -6.500353948961857E-4   -2.487119569678584E-1    4.077393158840876E-1
 1.010214193210000E+10  -4.062124596719476E-1    2.659538789652703E-1   -5.958207267332480E-4   -6.305620991996190E-4   -5.216115479431769E-4   -6.622517571706413E-4   -2.472505492056582E-1    4.086116534866379E-1
 1.010216620295000E+10  -4.054267397011376E-1    2.672715648084620E-1   -5.904042938590795E-4   -6.105431420535301E-4   -5.486123610806939E-4   -6.404775909420739E-4   -2.459602031183906E-1    4.096213178049956E-1
 1.010219047380000E+10  -4.046633321984082E-1    2.685654072941087E-1   -5.791806565211095E-4   -6.139798737992260E-4   -5.045780734733440E-4   -6.575828668993061E-4   -2.446269486773458E-1    4.104988757645989E-1
 1.010221474465000E+10  -4.040190716474943E-1    2.699945133821452E-1   -5.946941282754870E-4   -5.907488643233293E-4   -5.143594338637080E-4   -6.299467819329907E-4   -2.433176967724751E-1    4.113263066355496E-1
 1.010223901550000E+10  -4.031480389362613E-1    2.711144446281517E-1   -5.581689690635209E-4   -6.083288798908142E-4   -5.204872285974590E-4   -6.381406514184225E-4   -2.419499587967606E-1    4.121076955561359E-1
