#  HZ   S   RI   R     50.00 
! Rohde & Schwarz Vector Network Analyzer 
! Rohde-Schwarz,ZNB20-2Port,1311601062101988,3.16
! Created: UTC 3/20/2024, 5:14:58 PM
! freq[Hz]                re:S11                  im:S11                  re:S21                  im:S21                  re:S12                  im:S12                  re:S22                  im:S22
 1.010465833600000E+10  -3.101771465898037E-1    3.825362011545749E-1    1.961796365108977E-4    1.935107932417551E-5    1.948874585697082E-4    3.590225582429340E-5   -9.042501571463889E-2    4.761535747528406E-1
 1.010466150027500E+10  -3.100476778443340E-1    3.826023618280949E-1    2.276756804075049E-4    3.112492269594985E-5    1.799475985146784E-4    2.263562614780996E-5   -9.006739760270542E-2    4.761837075042162E-1
 1.010466466455000E+10  -3.100328349949301E-1    3.827502819160725E-1    2.138153933700272E-4   -9.965903274763125E-6    1.894642975767943E-4    1.936026297979096E-5   -8.979485073922980E-2    4.763389528313854E-1
 1.010466782882500E+10  -3.098803300452112E-1    3.828851063135124E-1    2.254780700118811E-4    9.271774939760535E-7    2.084955532400172E-4    2.604815129033332E-5   -8.959362567948680E-2    4.763772554821233E-1
 1.010467099310000E+10  -3.096782371224979E-1    3.831167025941011E-1    2.335870595358909E-4    1.327725070704479E-5    2.073765582189898E-4    5.721556313409702E-5   -8.922390772069244E-2    4.764274049633457E-1
 1.010467415737500E+10  -3.094221463390368E-1    3.830800003442657E-1    2.439086301231363E-4    3.788902570051642E-5    2.314944961351665E-4    2.044782107113945E-5   -8.901191745542841E-2    4.765277096211033E-1
 1.010467732165000E+10  -3.094065510913654E-1    3.833864481647911E-1    2.454729110866088E-4    4.011990010005069E-6    2.340517445691779E-4    5.554090978163029E-5   -8.861881954887448E-2    4.764390293031496E-1
 1.010468048592500E+10  -3.091583283527525E-1    3.834073945535733E-1    2.193124228683209E-4    4.554721741739900E-5    2.387815917690978E-4    4.192227781951488E-5   -8.839642554894619E-2    4.765464372242939E-1
 1.010468365020000E+10  -3.089972674859320E-1    3.835034904198451E-1    2.736033654667489E-4    4.315926828368958E-5    2.362423408741656E-4    4.628881964870611E-5   -8.800002904887341E-2    4.766249946828614E-1
 1.010468681447500E+10  -3.088820036660699E-1    3.837200806092493E-1    2.590585276957380E-4    6.980378789133133E-5    2.576294823113902E-4    5.797759318610748E-5   -8.784860305694306E-2    4.767601223895409E-1
 1.010468997875000E+10  -3.088834990021394E-1    3.838697823446469E-1    2.649446673985781E-4    7.054711793843913E-5    2.547261735394556E-4    6.888708526524046E-5   -8.738221395853736E-2    4.767165807404496E-1
 1.010469314302500E+10  -3.085678680413598E-1    3.839055849282850E-1    2.810907670589349E-4    3.908817888825915E-5    2.499785633478455E-4    7.370312883748622E-5   -8.726466569241682E-2    4.768311137996934E-1
 1.010469630730000E+10  -3.085216001481368E-1    3.840471511980042E-1    2.967552553625910E-4    2.896388255266372E-5    2.982424988743532E-4    6.154957504929384E-5   -8.690379284731142E-2    4.768540712998980E-1
 1.010469947157500E+10  -3.083349051188640E-1    3.841502428372390E-1    2.972790035243548E-4    2.352718150225862E-5    2.689668630143239E-4    5.169435534280649E-5   -8.667019013808677E-2    4.770357347779501E-1
 1.010470263585000E+10  -3.082161369775226E-1    3.844510945234882E-1    3.160138529738156E-4    7.166549442961441E-5    2.717392326497070E-4    5.439189943587115E-5   -8.623166718136561E-2    4.770406764560526E-1
 1.010470580012500E+10  -3.080624388251219E-1    3.844300230995548E-1    2.808354929303388E-4    2.783538420784737E-5    3.111367813066880E-4    9.213300049839421E-5   -8.611892131332897E-2    4.771007116545449E-1
 1.010470896440000E+10  -3.078772944448425E-1    3.847592321319213E-1    3.051045995890045E-4    6.143587773640469E-5    2.911631309439509E-4    7.592960755812921E-5   -8.562833133464662E-2    4.770241297291979E-1
 1.010471212867500E+10  -3.078015857971299E-1    3.848077389230112E-1    3.330508638788635E-4    4.561991326133788E-5    3.122854933258764E-4    6.427119620174551E-5   -8.539293602603763E-2    4.772014726380198E-1
 1.010471529295000E+10  -3.076147335985482E-1    3.848370939037094E-1    3.372835183783393E-4    6.728709588457880E-5    3.206221314051347E-4    9.277946123866763E-5   -8.520967227162600E-2    4.771928975958488E-1
 1.010471845722500E+10  -3.074371222090139E-1    3.847915364904328E-1    3.392956610217090E-4    4.711685872502608E-5    3.339348114508066E-4    6.025756238239227E-5   -8.493926666582532E-2    4.772273433360790E-1
 1.010472162150000E+10  -3.072277931155513E-1    3.850434542481990E-1    3.414822664974776E-4    7.563276788088249E-5    3.459892830991085E-4    7.560505042194920E-5   -8.463613153663753E-2    4.773375886750191E-1
 1.010472478577500E+10  -3.071411962565002E-1    3.851793718041088E-1    3.751332767032327E-4    1.149935384534386E-4    3.381615448986678E-4    7.470849529018836E-5   -8.426947714600166E-2    4.772851335431292E-1
 1.010472795005000E+10  -3.069911393914645E-1    3.853558933894629E-1    3.634826061798176E-4    5.598868220443269E-5    3.812189051994011E-4    8.817115666940184E-5   -8.379302696324292E-2    4.773497830866665E-1
 1.010473111432500E+10  -3.068616716678043E-1    3.855618898831406E-1    3.824907046518594E-4    6.865243894847123E-5    3.435122970078754E-4    1.062099247167193E-4   -8.365529181306375E-2    4.775269441751260E-1
 1.010473427860000E+10  -3.066968664846583E-1    3.855380769631930E-1    4.015274772261590E-4    7.577272129153653E-5    3.910254546127610E-4    1.160576081727729E-4   -8.335792146860782E-2    4.773889863661510E-1
 1.010473744287500E+10  -3.064689809057335E-1    3.856745649233760E-1    4.001822493055271E-4    7.807931353030546E-5    3.809329720952664E-4    1.097619200688650E-4   -8.314473626689656E-2    4.774098004688030E-1
 1.010474060715000E+10  -3.064099123374187E-1    3.858416656595922E-1    4.116776643130653E-4    7.785051476092473E-5    3.847652071014602E-4    1.251985830961938E-4   -8.271271750304059E-2    4.775263597724390E-1
 1.010474377142500E+10  -3.062539407882679E-1    3.859520720045670E-1    4.143875220227470E-4    7.166383549114349E-5    3.682432457236468E-4    9.367203319470890E-5   -8.235323702098896E-2    4.775427242679210E-1
 1.010474693570000E+10  -3.060797032463555E-1    3.861820325650457E-1    4.464208266330411E-4    1.045461910573338E-4    3.865099863039873E-4    1.248914301013932E-4   -8.207086038966806E-2    4.776519970406389E-1
 1.010475009997500E+10  -3.060190886231774E-1    3.862531320247750E-1    4.457330689804708E-4    8.778606889694655E-5    4.338149200913138E-4    1.057516133295437E-4   -8.189084903507800E-2    4.776991218991703E-1
 1.010475326425000E+10  -3.057024129745392E-1    3.864057044464628E-1    4.349263855513500E-4    1.030121104923361E-4    4.122470251289058E-4    1.380530374346259E-4   -8.143867260904099E-2    4.778204852899883E-1
 1.010475642852500E+10  -3.056748418034399E-1    3.864859362234906E-1    4.630966786654885E-4    1.019135679134088E-4    4.474043900851314E-4    1.096830207411266E-4   -8.117714128883964E-2    4.778496208909921E-1
 1.010475959280000E+10  -3.054812292111429E-1    3.866832336606417E-1    4.833382502954369E-4    1.065087309431732E-4    4.271090138523240E-4    1.347238591171632E-4   -8.096004667265345E-2    4.779297734251584E-1
 1.010476275707500E+10  -3.052808037242694E-1    3.867266961238861E-1    4.627269544064121E-4    7.472742376020979E-5    4.408089739637117E-4    1.076869206284845E-4   -8.056224078644468E-2    4.780190591710429E-1
 1.010476592135000E+10  -3.052735509324442E-1    3.868911537055544E-1    4.865761282982314E-4    7.425350591002050E-5    4.564463948752159E-4    1.078723169997304E-4   -8.026551730441092E-2    4.780113169447254E-1
 1.010476908562500E+10  -3.050208112771249E-1    3.869520266389139E-1    4.838696913133600E-4    1.028914540997395E-4    4.648618748730897E-4    1.295586533454409E-4   -7.990492778970178E-2    4.780240369149998E-1
 1.010477224990000E+10  -3.049944497450614E-1    3.871262476594185E-1    4.932156076584642E-4    9.646982075731103E-5    4.702777365984138E-4    1.201468874187380E-4   -7.967251339181450E-2    4.781626676053581E-1
 1.010477541417500E+10  -3.048156175193280E-1    3.872124929324907E-1    4.978079170068725E-4    7.824462879441823E-5    4.937507770429362E-4    1.242704716621168E-4   -7.929182110185254E-2    4.780173436310649E-1
 1.010477857845000E+10  -3.045819783836593E-1    3.873642008962029E-1    5.358817884658156E-4    8.500169795279672E-5    5.037007762199212E-4    1.387438175517977E-4   -7.896860649040953E-2    4.781884836994766E-1
 1.010478174272500E+10  -3.044900040250516E-1    3.874606037594587E-1    5.293796317104630E-4    1.052273280818170E-4    5.213014872552660E-4    1.388544521193231E-4   -7.864079001185643E-2    4.781711563939321E-1
 1.010478490700000E+10  -3.043792904995335E-1    3.876177668190643E-1    5.679239857287691E-4    1.171510269743379E-4    5.206540018421427E-4    1.289759578192006E-4   -7.838170747264259E-2    4.782002025659172E-1
 1.010478807127500E+10  -3.041031758111637E-1    3.877877063802784E-1    5.380750389016662E-4    9.676945801289486E-5    5.565352433033276E-4    1.518939514956508E-4   -7.812723616604822E-2    4.782613171768222E-1
 1.010479123555000E+10  -3.040277600470129E-1    3.879575190942533E-1    5.522892591194738E-4    1.094523882532693E-4    5.388533517931338E-4    1.662018045431485E-4   -7.792160328558073E-2    4.782328939541918E-1
 1.010479439982500E+10  -3.040235444571762E-1    3.879898070436651E-1    5.981071618601694E-4    1.251060241218415E-4    5.533092724270687E-4    1.624085036101814E-4   -7.744130195243970E-2    4.784767555892453E-1
 1.010479756410000E+10  -3.036642604178421E-1    3.880487854014760E-1    6.202041505633667E-4    1.294084274340864E-4    5.655356706300742E-4    1.569830291078906E-4   -7.700885266207375E-2    4.784109061348621E-1
 1.010480072837500E+10  -3.036130028521960E-1    3.880950080988177E-1    6.118567309542621E-4    1.289890932784098E-4    5.840524855651272E-4    1.889957741811946E-4   -7.665606367734758E-2    4.783640793097095E-1
 1.010480389265000E+10  -3.033754173023557E-1    3.884495490169124E-1    6.475052451233743E-4    1.294358584259962E-4    5.972921624672439E-4    1.976954982613315E-4   -7.638762940413464E-2    4.785060697834621E-1
 1.010480705692500E+10  -3.033700670599185E-1    3.886150965175583E-1    6.303012093623029E-4    1.260552469276446E-4    6.193331211856683E-4    1.602733427156115E-4   -7.609389338357095E-2    4.786734108809378E-1
 1.010481022120000E+10  -3.031774312830067E-1    3.886194318617074E-1    6.535790300296498E-4    1.009205356116362E-4    5.969480204569918E-4    1.652074824698323E-4   -7.573742412919453E-2    4.786355917333945E-1
 1.010481338547500E+10  -3.030856136119849E-1    3.886832593037933E-1    6.528639938428366E-4    1.170378943854159E-4    6.272931560308248E-4    1.824166226854521E-4   -7.532741992743346E-2    4.786119689623805E-1
 1.010481654975000E+10  -3.028538450394134E-1    3.888973206400642E-1    6.764386661951807E-4    1.120299115082537E-4    5.962317299743121E-4    2.010152852841889E-4   -7.501321520917439E-2    4.787539187947394E-1
 1.010481971402500E+10  -3.026042124593326E-1    3.890207945230355E-1    6.809392168535862E-4    1.378126686506377E-4    6.474199111774266E-4    1.706170175800188E-4   -7.471285557190850E-2    4.786289265736097E-1
 1.010482287830000E+10  -3.025654657402646E-1    3.891920409965404E-1    6.861353940345589E-4    1.235990483265154E-4    6.564809125712774E-4    1.650747700386498E-4   -7.439368908810433E-2    4.787702782917436E-1
 1.010482604257500E+10  -3.023120774139318E-1    3.892034188591084E-1    7.117640399209147E-4    1.358339245115920E-4    6.481719674946301E-4    2.260682927120479E-4   -7.391923996417937E-2    4.787990237845756E-1
 1.010482920685000E+10  -3.022300678274544E-1    3.894248408167880E-1    7.095703322104645E-4    1.729593433694226E-4    6.847170374019565E-4    1.795035795137926E-4   -7.364067094602457E-2    4.788966382139615E-1
 1.010483237112500E+10  -3.020624504472458E-1    3.894879919235701E-1    7.396461615021600E-4    1.414915348376225E-4    6.803473858936041E-4    1.815103410769166E-4   -7.311148607175925E-2    4.788982518180101E-1
 1.010483553540000E+10  -3.018481940466604E-1    3.896630363203057E-1    7.714695138600471E-4    1.588888005297076E-4    7.101863668964619E-4    1.968868856199279E-4   -7.280600669558700E-2    4.789265119956414E-1
 1.010483869967500E+10  -3.017929582528635E-1    3.898613191170938E-1    7.571539117845592E-4    1.412504639488722E-4    7.135256751715417E-4    2.098972668114556E-4   -7.250499246242031E-2    4.788604846018362E-1
 1.010484186395000E+10  -3.017412124046619E-1    3.898274878876690E-1    7.706627791467533E-4    1.472574481535460E-4    7.362070337073075E-4    2.149680225972209E-4   -7.224229890611472E-2    4.789891147448173E-1
 1.010484502822500E+10  -3.013574081799314E-1    3.899952335339995E-1    8.054061468655931E-4    1.453706060106611E-4    7.501353176074390E-4    1.981293562833639E-4   -7.172697284092822E-2    4.790745872949232E-1
 1.010484819250000E+10  -3.013721166823267E-1    3.901580853310918E-1    8.123540269631569E-4    1.511200726290322E-4    7.397990245536630E-4    2.201738999253970E-4   -7.141965941562704E-2    4.791041617825412E-1
 1.010485135677500E+10  -3.012073152433953E-1    3.903000268723858E-1    8.338935211955693E-4    1.589678427155398E-4    7.800374387140964E-4    2.341548005483169E-4   -7.109509716308203E-2    4.790764873675905E-1
 1.010485452105000E+10  -3.009981109381685E-1    3.902204208531174E-1    8.304913889826796E-4    1.180850317296719E-4    7.835861603311185E-4    2.390544536872536E-4   -7.063372769176528E-2    4.792881052717886E-1
 1.010485768532500E+10  -3.009023146435960E-1    3.904873422844038E-1    8.240175865365835E-4    1.751757447121610E-4    8.139845054040504E-4    2.529653817673207E-4   -7.042164131010709E-2    4.791861898319268E-1
 1.010486084960000E+10  -3.008036828730768E-1    3.906811904056740E-1    8.670535884296739E-4    1.507307661537386E-4    8.437158507658020E-4    2.243467645597585E-4   -6.994880313146250E-2    4.793794969677064E-1
 1.010486401387500E+10  -3.005490762899115E-1    3.905945380236380E-1    8.731625469145765E-4    1.602030824307387E-4    8.561593540367999E-4    2.389649577498433E-4   -6.967029233276990E-2    4.793848312609095E-1
 1.010486717815000E+10  -3.004357446929585E-1    3.908514858786394E-1    8.994791886392032E-4    1.478820015424735E-4    8.501631769745181E-4    2.195226030251934E-4   -6.917017629935682E-2    4.793731074104449E-1
 1.010487034242500E+10  -3.002828526485559E-1    3.909992662950439E-1    9.160890943126018E-4    1.491479909827850E-4    8.668624587786865E-4    2.602671959879863E-4   -6.900827723853052E-2    4.793808813067362E-1
 1.010487350670000E+10  -3.000829223478467E-1    3.910532754792635E-1    9.046777922318735E-4    1.659354871013255E-4    8.803098881268084E-4    2.611858337787340E-4   -6.857539379536802E-2    4.792734854219320E-1
 1.010487667097500E+10  -3.001437648006058E-1    3.912680371326934E-1    9.390818165656860E-4    1.588611241091440E-4    9.088286163404757E-4    2.457053837756529E-4   -6.805718111970907E-2    4.793718559570610E-1
 1.010487983525000E+10  -2.998973815760033E-1    3.914390548791504E-1    9.621021000941544E-4    1.900819358502813E-4    8.953090685106318E-4    2.523684905554518E-4   -6.775862698315561E-2    4.793796468270789E-1
 1.010488299952500E+10  -2.997260586453072E-1    3.914424416018300E-1    9.914377528169201E-4    1.730739928417482E-4    9.052772273948388E-4    2.670058244370557E-4   -6.731552713183997E-2    4.795405204194415E-1
 1.010488616380000E+10  -2.995047038800173E-1    3.915849531175391E-1    1.043118277451890E-3    1.683144507701900E-4    9.244938782919911E-4    2.766361515684951E-4   -6.692330911823174E-2    4.794531171253448E-1
 1.010488932807500E+10  -2.992594216709600E-1    3.917060067122500E-1    1.031870652367122E-3    1.742612194045890E-4    9.694499016458874E-4    2.803715261517344E-4   -6.649241389504559E-2    4.794599327468070E-1
 1.010489249235000E+10  -2.992469246979664E-1    3.918024477121168E-1    1.046688147225083E-3    1.755869614437813E-4    9.638317988524928E-4    2.459705725233527E-4   -6.610535912180444E-2    4.793883574311523E-1
 1.010489565662500E+10  -2.990485659036488E-1    3.919164995310067E-1    1.067729501392298E-3    1.834468644160720E-4    1.003832398631742E-3    2.681884531753555E-4   -6.570621212660126E-2    4.795127515851460E-1
 1.010489882090000E+10  -2.989245826852108E-1    3.920994619923424E-1    1.084300785916891E-3    1.936133551321296E-4    9.862610741886945E-4    2.724604920839636E-4   -6.530025728690524E-2    4.795334768946353E-1
 1.010490198517500E+10  -2.988816896161466E-1    3.923934399746718E-1    1.076874530397109E-3    1.772118859611147E-4    1.043873844443880E-3    2.687433005560756E-4   -6.475801984297190E-2    4.795202438910532E-1
 1.010490514945000E+10  -2.986070202441867E-1    3.924400252259965E-1    1.104596176034192E-3    1.798046388184228E-4    1.047918049010737E-3    2.558852024641953E-4   -6.439822927661638E-2    4.796415757966047E-1
 1.010490831372500E+10  -2.984707734519823E-1    3.924619777925116E-1    1.158029486883404E-3    1.857423117151558E-4    1.052127577576412E-3    2.571221409480549E-4   -6.411380790302841E-2    4.796418786881317E-1
 1.010491147800000E+10  -2.983132727876109E-1    3.925970391887456E-1    1.150569970028481E-3    1.764609798120452E-4    1.088580671892574E-3    2.890418170199368E-4   -6.364159811118097E-2    4.795970729498097E-1
 1.010491464227500E+10  -2.982221041317517E-1    3.927708455614999E-1    1.174553109118625E-3    1.880759955120833E-4    1.106482656080829E-3    3.101252688933081E-4   -6.311317931662717E-2    4.795361692653489E-1
 1.010491780655000E+10  -2.981115092484741E-1    3.926997985316114E-1    1.205811442235758E-3    1.970330082827960E-4    1.139777056285784E-3    3.037560950903887E-4   -6.276776060709334E-2    4.797065946784234E-1
 1.010492097082500E+10  -2.978873333126529E-1    3.929064622943867E-1    1.229827961352225E-3    2.059643333242668E-4    1.126322060564124E-3    3.284810313622376E-4   -6.220394245486682E-2    4.796820853720524E-1
 1.010492413510000E+10  -2.977412322715841E-1    3.930447577417777E-1    1.225177805999141E-3    2.021517743651357E-4    1.161585869193573E-3    2.879423099183844E-4   -6.169127079597542E-2    4.797435924786011E-1
 1.010492729937500E+10  -2.974867657967840E-1    3.932301273252994E-1    1.238864625428550E-3    2.021417050634035E-4    1.149052260868674E-3    3.026476110817042E-4   -6.133756829788265E-2    4.797669330871602E-1
 1.010493046365000E+10  -2.973699918657196E-1    3.933763274416155E-1    1.262808797312690E-3    2.204268204629426E-4    1.175861592644048E-3    3.260945732196535E-4   -6.092847337929214E-2    4.796350769560814E-1
 1.010493362792500E+10  -2.974199169486629E-1    3.933576311522299E-1    1.311011737016728E-3    1.715816509034261E-4    1.229950236479516E-3    3.230609428965417E-4   -6.052800004066692E-2    4.797599756382452E-1
 1.010493679220000E+10  -2.972263445130848E-1    3.935636379475010E-1    1.339789104003254E-3    2.174808520888395E-4    1.267254991759123E-3    3.212192334696342E-4   -6.000381445239181E-2    4.797125737533378E-1
 1.010493995647500E+10  -2.969922241911030E-1    3.936665167533389E-1    1.340236125999333E-3    1.860391597383670E-4    1.269176419539511E-3    3.451428029543473E-4   -5.955059249043600E-2    4.797727446290957E-1
 1.010494312075000E+10  -2.968844797347427E-1    3.939163854241047E-1    1.379179576379241E-3    2.129241939981075E-4    1.308693008627614E-3    3.052537175547394E-4   -5.910056860929459E-2    4.798216990190988E-1
