#  HZ   S   RI   R     50.00 
! Rohde & Schwarz Vector Network Analyzer 
! Rohde-Schwarz,ZNB20-2Port,1311601062101988,3.16
! Created: UTC 3/20/2024, 4:59:52 PM
! freq[Hz]                re:S11                  im:S11                  re:S21                  im:S21                  re:S12                  im:S12                  re:S22                  im:S22
 1.010004142100000E+10  -4.550670222147792E-1    1.480825055828248E-1   -4.850995276409125E-4   -8.458881205354371E-4   -4.080275320910635E-4   -8.977727755194144E-4   -3.480279000898660E-1    3.178280922727496E-1
 1.010006576102500E+10  -4.547731950047363E-1    1.496860290862980E-1   -4.813566317451041E-4   -8.980745853721703E-4   -4.019312394772712E-4   -8.587069352633269E-4   -3.470548282276694E-1    3.189063106687484E-1
 1.010009010105000E+10  -4.542938896763951E-1    1.509182671315623E-1   -4.917248462244117E-4   -8.573735500746334E-4   -4.223508154259318E-4   -8.563792386418272E-4   -3.459856069326150E-1    3.201208415202960E-1
 1.010011444107500E+10  -4.538343189637781E-1    1.523719974232985E-1   -5.189384260126517E-4   -8.621001237188538E-4   -4.216949960259572E-4   -8.676358919381403E-4   -3.450440890465146E-1    3.212427790710281E-1
 1.010013878110000E+10  -4.535005685020376E-1    1.539129904941323E-1   -5.142901067585494E-4   -8.588107863167150E-4   -4.092097228000293E-4   -8.674545718893050E-4   -3.439585323572985E-1    3.225050269433025E-1
 1.010016312112500E+10  -4.532570105475024E-1    1.553840105890834E-1   -5.120032531931507E-4   -8.462052479689088E-4   -4.165999148837410E-4   -8.857694338269098E-4   -3.429090593692156E-1    3.238346113332321E-1
 1.010018746115000E+10  -4.527010704385414E-1    1.567093730908860E-1   -5.200121392534703E-4   -8.826244982993430E-4   -4.393503304963035E-4   -8.611392278893448E-4   -3.419599875010067E-1    3.249208056016273E-1
 1.010021180117500E+10  -4.523150677996534E-1    1.581108021185872E-1   -5.079170391301518E-4   -8.601438926950868E-4   -4.330791086147732E-4   -8.783376700119399E-4   -3.410546499558347E-1    3.261466640951156E-1
 1.010023614120000E+10  -4.518989314873923E-1    1.594863866500332E-1   -5.191780414001936E-4   -8.326985324350781E-4   -4.326775065657417E-4   -8.739943594312129E-4   -3.398919967848591E-1    3.273315868984115E-1
 1.010026048122500E+10  -4.514983677164398E-1    1.610178509332246E-1   -4.960735176984166E-4   -8.451542505639653E-4   -4.189971317546720E-4   -8.580410878986261E-4   -3.389170940772316E-1    3.284464323982837E-1
 1.010028482125000E+10  -4.509566269265188E-1    1.625386647719775E-1   -5.328022866286132E-4   -8.662601700252585E-4   -4.535270193073215E-4   -8.508102605221968E-4   -3.376862082975696E-1    3.297687167607300E-1
 1.010030916127500E+10  -4.505032655416282E-1    1.639837971602129E-1   -5.350072283704353E-4   -8.454979089357672E-4   -4.617116819522694E-4   -8.623572821238556E-4   -3.367713199781766E-1    3.307989850979706E-1
 1.010033350130000E+10  -4.502313672455346E-1    1.652835807811915E-1   -5.331400716515207E-4   -8.172060915992349E-4   -4.531512556692214E-4   -8.518001906689564E-4   -3.357777762756747E-1    3.320320684072526E-1
 1.010035784132500E+10  -4.499153511815983E-1    1.666420740585394E-1   -5.263539888465677E-4   -8.249704041154024E-4   -4.675152685671521E-4   -8.610855335972365E-4   -3.347562265543606E-1    3.332810799427679E-1
 1.010038218135000E+10  -4.493200467696887E-1    1.680759239745725E-1   -4.996130146256188E-4   -8.283883086681591E-4   -4.736159273073322E-4   -8.516863236384734E-4   -3.336696795550832E-1    3.343866689520381E-1
 1.010040652137500E+10  -4.489305752741747E-1    1.695282361394593E-1   -5.375736920737847E-4   -8.394820345746379E-4   -4.538093458735229E-4   -8.597267975237344E-4   -3.326705129119936E-1    3.355134203410837E-1
 1.010043086140000E+10  -4.484404107308995E-1    1.708465162619162E-1   -5.453183554434361E-4   -8.476241158827386E-4   -4.651920019375560E-4   -8.452838223508036E-4   -3.313870868536510E-1    3.366387780506372E-1
 1.010045520142500E+10  -4.479986861393625E-1    1.725027178002464E-1   -5.341658583336721E-4   -8.382620659703468E-4   -4.615789118262727E-4   -8.412685706466528E-4   -3.304117494020234E-1    3.377919991481753E-1
 1.010047954145000E+10  -4.475395721447076E-1    1.738026471647064E-1   -5.314099815368259E-4   -8.302670970500034E-4   -4.671660416626496E-4   -8.331514060296889E-4   -3.293939063536633E-1    3.390457592903083E-1
 1.010050388147500E+10  -4.471354030751294E-1    1.751146152124938E-1   -5.261638733620748E-4   -8.192588976745772E-4   -4.514645629914359E-4   -8.414314886953020E-4   -3.282775259701671E-1    3.400507832215036E-1
 1.010052822150000E+10  -4.466420326449584E-1    1.766260943294837E-1   -5.458547685787936E-4   -8.136559536845502E-4   -4.422501613227507E-4   -8.609469262520366E-4   -3.272054661148297E-1    3.413428301342682E-1
 1.010055256152500E+10  -4.461775601243347E-1    1.779186772742424E-1   -5.182372432337498E-4   -8.371408380316500E-4   -4.683893450707426E-4   -8.243818756173408E-4   -3.261495146789223E-1    3.424449300688076E-1
 1.010057690155000E+10  -4.455927205833966E-1    1.793755818038659E-1   -5.536620231562242E-4   -8.347472959758423E-4   -5.110287393068759E-4   -8.395536972400624E-4   -3.251365739039396E-1    3.435975393186370E-1
 1.010060124157500E+10  -4.452236508114213E-1    1.808399199200539E-1   -5.540974755169159E-4   -8.271979965335720E-4   -4.573352001052835E-4   -8.252224203014576E-4   -3.239333163884974E-1    3.447934815583183E-1
 1.010062558160000E+10  -4.446703232491871E-1    1.822532106295226E-1   -5.734451001805533E-4   -8.157796722302397E-4   -4.746556812238430E-4   -8.389477031289772E-4   -3.229503842969537E-1    3.459445198966626E-1
 1.010064992162500E+10  -4.441102448885725E-1    1.836056386814143E-1   -5.452023086423653E-4   -8.446637299378010E-4   -4.592606672934568E-4   -8.172242741226281E-4   -3.218657764896987E-1    3.469330869034501E-1
 1.010067426165000E+10  -4.436778455803126E-1    1.849968660439023E-1   -5.404301898506271E-4   -8.332949640404730E-4   -4.852575390485008E-4   -8.364143856927840E-4   -3.208295345885455E-1    3.481626441620638E-1
 1.010069860167500E+10  -4.431732285235108E-1    1.865086504359987E-1   -5.392109191662344E-4   -8.065739440749381E-4   -4.591326774441471E-4   -8.295201204602268E-4   -3.196061691454664E-1    3.492600332245140E-1
 1.010072294170000E+10  -4.427130480908296E-1    1.879030115199046E-1   -5.571704623914413E-4   -8.085548367393097E-4   -4.639603614405080E-4   -8.060044415235495E-4   -3.184666454041424E-1    3.504068765122377E-1
 1.010074728172500E+10  -4.421644586017252E-1    1.890438501176502E-1   -5.707663008046017E-4   -7.923125874123380E-4   -5.073681818454644E-4   -7.984267072849525E-4   -3.172766121890506E-1    3.514195297678804E-1
 1.010077162175000E+10  -4.415917387551613E-1    1.905727092608452E-1   -5.604535445795911E-4   -8.055787795726033E-4   -4.751402617232531E-4   -8.102570915701026E-4   -3.161772084727646E-1    3.525867982487764E-1
 1.010079596177500E+10  -4.410696506749342E-1    1.920123497084509E-1   -5.380476485293192E-4   -8.257509048512128E-4   -4.991565014340516E-4   -8.044012976906127E-4   -3.150863564983294E-1    3.537350627103255E-1
 1.010082030180000E+10  -4.406755882686563E-1    1.933483101220714E-1   -5.546646251829427E-4   -7.747897717285117E-4   -4.664694777243832E-4   -7.834686170705729E-4   -3.140133975886297E-1    3.547701443936419E-1
 1.010084464182500E+10  -4.401347655251429E-1    1.947124093122561E-1   -5.296713000700643E-4   -7.897257947093399E-4   -4.863845643683829E-4   -8.111557477770765E-4   -3.128024851926334E-1    3.558586877771849E-1
 1.010086898185000E+10  -4.395394350746141E-1    1.960808660052475E-1   -5.515366183274494E-4   -8.152846104708744E-4   -4.990701854064092E-4   -8.068136038295506E-4   -3.115860085944883E-1    3.570196257452168E-1
 1.010089332187500E+10  -4.391035766462331E-1    1.976012096570654E-1   -5.732590836822131E-4   -7.903694201435395E-4   -4.695441752856304E-4   -7.984252127400106E-4   -3.105653426961255E-1    3.580782445888457E-1
 1.010091766190000E+10  -4.385983179898970E-1    1.989052078204349E-1   -5.816744073082937E-4   -7.734030377925132E-4   -4.973415369023934E-4   -7.990647073322878E-4   -3.095333876138474E-1    3.591088570362824E-1
 1.010094200192500E+10  -4.379407894816961E-1    2.002996917778939E-1   -6.149089408609655E-4   -7.767059241150481E-4   -5.009426684163428E-4   -8.225112795406058E-4   -3.083840682098157E-1    3.602688744393550E-1
 1.010096634195000E+10  -4.373988256209894E-1    2.018167650314116E-1   -5.504750629222851E-4   -7.833584178715108E-4   -4.840289388765830E-4   -7.988778124473912E-4   -3.071240396362253E-1    3.614025599826045E-1
 1.010099068197500E+10  -4.368649949985593E-1    2.030604326629626E-1   -5.657119306464369E-4   -7.714671260909303E-4   -4.691803893531378E-4   -7.871701632393656E-4   -3.060611396314831E-1    3.622936039849631E-1
 1.010101502200000E+10  -4.362991906945413E-1    2.043943967145189E-1   -5.661025853332209E-4   -7.537141947313721E-4   -4.985730932147507E-4   -7.888226033294389E-4   -3.047950051557402E-1    3.633245113790246E-1
 1.010103936202500E+10  -4.358972254062469E-1    2.058484697461679E-1   -5.504556835218889E-4   -7.687162219788339E-4   -5.018537141527580E-4   -7.872561090302891E-4   -3.036050609928699E-1    3.644715900206082E-1
 1.010106370205000E+10  -4.352809778285119E-1    2.072673049755363E-1   -5.811200148887152E-4   -7.579278160262421E-4   -5.012202744704848E-4   -7.761790324565317E-4   -3.025096860403938E-1    3.655444144244295E-1
 1.010108804207500E+10  -4.347236315523920E-1    2.085729177192332E-1   -5.824580816395994E-4   -7.696225701428766E-4   -5.154418623034185E-4   -7.753651189327094E-4   -3.014945449001368E-1    3.666162688608440E-1
 1.010111238210000E+10  -4.340754570475277E-1    2.100049675384779E-1   -5.622578908592457E-4   -7.719763907606978E-4   -5.164362115182127E-4   -7.727745223787936E-4   -3.003213371261532E-1    3.677271890448467E-1
 1.010113672212500E+10  -4.333886618350751E-1    2.113768819679331E-1   -6.041604441307030E-4   -7.516213750574219E-4   -4.746235401316861E-4   -7.892731254558554E-4   -2.990404891526013E-1    3.687289283820958E-1
 1.010116106215000E+10  -4.329865153253329E-1    2.127561963125941E-1   -5.823650618507519E-4   -7.352452272990537E-4   -5.334409771528367E-4   -7.871192776269109E-4   -2.978540504186629E-1    3.695410073082067E-1
 1.010118540217500E+10  -4.321978987600882E-1    2.140546787095929E-1   -5.967400504433473E-4   -7.475530288014378E-4   -5.023593017770427E-4   -7.730732366583321E-4   -2.965706592243572E-1    3.707045101106026E-1
 1.010120974220000E+10  -4.317668081601742E-1    2.153668667188892E-1   -5.787005374000453E-4   -7.347411358749515E-4   -5.047836079366200E-4   -7.712040724845435E-4   -2.953775993481537E-1    3.718423625141771E-1
 1.010123408222500E+10  -4.310565820984179E-1    2.166963661527631E-1   -5.732651139867840E-4   -7.391183420182729E-4   -5.225151354814129E-4   -7.819419518252348E-4   -2.941685522054674E-1    3.728446565090806E-1
 1.010125842225000E+10  -4.305747276729838E-1    2.180967110141235E-1   -5.690213463999833E-4   -7.640657270052720E-4   -5.110305422547683E-4   -7.534901579832895E-4   -2.931945082074685E-1    3.738783633712071E-1
 1.010128276227500E+10  -4.299792855965188E-1    2.195165162285941E-1   -5.921508430580828E-4   -7.370258424837827E-4   -5.168616021546483E-4   -7.631149158124100E-4   -2.918221647353957E-1    3.748985600119892E-1
 1.010130710230000E+10  -4.294398117862602E-1    2.209383231075993E-1   -5.481685050387019E-4   -7.142552272391239E-4   -5.136563481996331E-4   -7.463897110566836E-4   -2.907039609494063E-1    3.759721771893094E-1
 1.010133144232500E+10  -4.287488209811368E-1    2.222160179400607E-1   -6.011024393037224E-4   -7.411616838983912E-4   -5.201624802763710E-4   -7.671685749789418E-4   -2.893203776137346E-1    3.768952731556657E-1
 1.010135578235000E+10  -4.282658968479834E-1    2.234587906401297E-1   -6.098199903600844E-4   -7.226109192036113E-4   -5.178347501599728E-4   -7.345483688696614E-4   -2.882105606857533E-1    3.779728525717869E-1
 1.010138012237500E+10  -4.275317696198598E-1    2.248151378312682E-1   -5.965375651847864E-4   -7.282974085864475E-4   -5.133816955928192E-4   -7.331651159371061E-4   -2.871340691330905E-1    3.788965627497078E-1
 1.010140446240000E+10  -4.270171617652806E-1    2.261987644597258E-1   -5.630163987065561E-4   -7.556867392844405E-4   -5.066335288411014E-4   -7.656640586854653E-4   -2.859013435485873E-1    3.800949107790582E-1
 1.010142880242500E+10  -4.264334357326862E-1    2.276779000071889E-1   -5.997217311957083E-4   -7.266676377194175E-4   -5.308673981037537E-4   -7.289664320318455E-4   -2.847951929453990E-1    3.809862798273058E-1
 1.010145314245000E+10  -4.256340027463484E-1    2.288766923328276E-1   -6.055151294087471E-4   -7.421560057575993E-4   -5.259568244836676E-4   -7.311853872243822E-4   -2.833583818223712E-1    3.819842342793803E-1
 1.010147748247500E+10  -4.249045972021276E-1    2.302087603828059E-1   -5.786889743163077E-4   -6.912488850466364E-4   -5.070657797223645E-4   -7.331664921804415E-4   -2.822630468598186E-1    3.830162602279329E-1
 1.010150182250000E+10  -4.243346126786307E-1    2.315284289176954E-1   -6.055451145147975E-4   -6.966309145908202E-4   -5.184496910999163E-4   -7.319984544778241E-4   -2.808513978476998E-1    3.841375184326775E-1
 1.010152616252500E+10  -4.238315294329790E-1    2.329631095932445E-1   -5.953154899072785E-4   -7.228077679570722E-4   -5.349099806086366E-4   -7.541429326503371E-4   -2.798733615568614E-1    3.850208461887499E-1
 1.010155050255000E+10  -4.231502694241771E-1    2.342396704030056E-1   -5.929184621707997E-4   -7.206014990489255E-4   -5.328452164755605E-4   -7.263977551098823E-4   -2.784415427423142E-1    3.860063159104197E-1
 1.010157484257500E+10  -4.225051022829763E-1    2.355808242170705E-1   -5.870353841019990E-4   -6.901676002173517E-4   -5.095387595592809E-4   -7.126407699242438E-4   -2.772712096426228E-1    3.870208667062052E-1
 1.010159918260000E+10  -4.217792051205580E-1    2.370138277134777E-1   -6.099541362010624E-4   -6.881016566273457E-4   -5.171621935474997E-4   -6.993911343304062E-4   -2.758780945693541E-1    3.880751991592882E-1
 1.010162352262500E+10  -4.211887405687572E-1    2.383096731346796E-1   -6.011488133709270E-4   -6.977238960839645E-4   -5.201967447125197E-4   -7.128778751713328E-4   -2.746634319635398E-1    3.888241194438996E-1
 1.010164786265000E+10  -4.204706718550981E-1    2.395133670116582E-1   -5.984548318996012E-4   -6.996125031519952E-4   -5.240797844072129E-4   -7.245276921928972E-4   -2.735938671358068E-1    3.899131560055575E-1
 1.010167220267500E+10  -4.197715480780623E-1    2.409104600385220E-1   -5.441147544679492E-4   -6.783078274122621E-4   -5.346129548220123E-4   -7.143798275267459E-4   -2.723421127323644E-1    3.909081810967827E-1
 1.010169654270000E+10  -4.192612430924118E-1    2.421601524327151E-1   -6.118363122364050E-4   -6.869501780396106E-4   -5.511026882050830E-4   -6.884309038540741E-4   -2.709149212668419E-1    3.918646158547674E-1
 1.010172088272500E+10  -4.184869672966444E-1    2.435286955260602E-1   -6.016986695365177E-4   -6.759532316464449E-4   -5.097061405599216E-4   -6.986062558340712E-4   -2.697834347400441E-1    3.928622616011421E-1
 1.010174522275000E+10  -4.176879816007143E-1    2.448824068291396E-1   -6.005318335697077E-4   -6.743054916331887E-4   -5.438959406728424E-4   -7.128157538516986E-4   -2.684650282905918E-1    3.938372173143988E-1
 1.010176956277500E+10  -4.170557538140073E-1    2.462035482177181E-1   -5.985668214939623E-4   -6.672193943521799E-4   -5.614339040064743E-4   -6.990024166837304E-4   -2.671400248473301E-1    3.945229423743180E-1
 1.010179390280000E+10  -4.163771063023136E-1    2.474422038028042E-1   -5.891492400469412E-4   -6.870486387101263E-4   -5.419007035379837E-4   -6.719985382940864E-4   -2.659343723250330E-1    3.956196112273405E-1
 1.010181824282500E+10  -4.156645905139400E-1    2.488205220870544E-1   -6.047324183168729E-4   -6.518886104777721E-4   -5.255022318362842E-4   -6.996720521790737E-4   -2.646929698779933E-1    3.966092345091812E-1
 1.010184258285000E+10  -4.149957870378873E-1    2.502114403268718E-1   -5.991871036892431E-4   -6.748888553707155E-4   -5.141969816827918E-4   -6.949471345836199E-4   -2.633596015481515E-1    3.975411861963914E-1
 1.010186692287500E+10  -4.142520967723914E-1    2.514526492235629E-1   -5.974400648887315E-4   -6.833027370510816E-4   -5.471462376846451E-4   -6.882557522248490E-4   -2.620324345464031E-1    3.984873590065762E-1
 1.010189126290000E+10  -4.136365644356241E-1    2.527724061919582E-1   -6.081328466924029E-4   -6.722276538913419E-4   -5.235526435272541E-4   -6.921845945552233E-4   -2.608384517756425E-1    3.993554631785727E-1
 1.010191560292500E+10  -4.128512959650066E-1    2.539633772582783E-1   -6.087382183268025E-4   -6.636247522994562E-4   -5.291283762895624E-4   -6.602070622997294E-4   -2.594298067068222E-1    4.002007667042168E-1
 1.010193994295000E+10  -4.123132283497894E-1    2.553317722436980E-1   -6.044350787951317E-4   -6.403276895659515E-4   -5.316171407459594E-4   -6.776287983014626E-4   -2.581276129247487E-1    4.010867929741809E-1
 1.010196428297500E+10  -4.115332648087123E-1    2.565883992215104E-1   -5.932792939336620E-4   -6.773594383315023E-4   -5.226592847704985E-4   -6.743653478622793E-4   -2.569468355986237E-1    4.021089876031199E-1
 1.010198862300000E+10  -4.108097663728176E-1    2.579092919342499E-1   -5.932073098758553E-4   -6.237586463588460E-4   -5.163831404136856E-4   -6.656143692078762E-4   -2.555693603933223E-1    4.029705030537006E-1
 1.010201296302500E+10  -4.099953882198680E-1    2.593234212262717E-1   -5.927323493047880E-4   -6.413635646616395E-4   -5.196535614563169E-4   -6.440087287203242E-4   -2.543666588807741E-1    4.037417279387062E-1
 1.010203730305000E+10  -4.092921032923487E-1    2.603836282359789E-1   -5.889399053759057E-4   -6.476824639850693E-4   -5.410138380250752E-4   -6.435188723168002E-4   -2.530796844596525E-1    4.048964345446623E-1
 1.010206164307500E+10  -4.085954901422638E-1    2.617412355784691E-1   -6.042788972426750E-4   -6.432712510540974E-4   -5.359238147037151E-4   -6.754387293582342E-4   -2.516661516288207E-1    4.056964388761049E-1
 1.010208598310000E+10  -4.079445569685600E-1    2.631134228508219E-1   -5.933001229868067E-4   -6.243464078381104E-4   -5.193014576815138E-4   -6.306194954167109E-4   -2.502708268190073E-1    4.066664551725966E-1
 1.010211032312500E+10  -4.070133243530946E-1    2.642838534179893E-1   -6.149525589935382E-4   -6.329264253040607E-4   -5.016949966012899E-4   -6.611018633066405E-4   -2.491083765395836E-1    4.074502841384182E-1
 1.010213466315000E+10  -4.064118227877649E-1    2.655670402417211E-1   -6.227667828903243E-4   -6.181156799601514E-4   -5.019061524612645E-4   -6.408311545378930E-4   -2.477807758603634E-1    4.083977247761301E-1
 1.010215900317500E+10  -4.055982518109456E-1    2.669409474768159E-1   -5.899381146035346E-4   -6.075322458187670E-4   -5.288580449768007E-4   -6.275887499320163E-4   -2.463651815695255E-1    4.092771923101512E-1
 1.010218334320000E+10  -4.049457987229940E-1    2.681035750834583E-1   -5.900460837524168E-4   -6.124047256018697E-4   -5.216423507840754E-4   -6.355670435594785E-4   -2.451191466743667E-1    4.101041982714806E-1
 1.010220768322500E+10  -4.040555220634405E-1    2.693585481324817E-1   -5.721650250104823E-4   -6.131332654488297E-4   -5.296436319530930E-4   -6.363611902125152E-4   -2.436897113033130E-1    4.108980050142617E-1
 1.010223202325000E+10  -4.033313981761791E-1    2.707647515355402E-1   -5.579827319436356E-4   -6.084724293065383E-4   -4.992102448157100E-4   -6.116384791504940E-4   -2.423702398110803E-1    4.118378223029671E-1
