#  HZ   S   RI   R     50.00 
! Rohde & Schwarz Vector Network Analyzer 
! Rohde-Schwarz,ZNB20-2Port,1311601062101988,3.16
! Created: UTC 3/20/2024, 5:00:41 PM
! freq[Hz]                re:S11                  im:S11                  re:S21                  im:S21                  re:S12                  im:S12                  re:S22                  im:S22
 1.009975092800000E+10  -4.593363151272849E-1    1.309789337653888E-1   -4.548825555665004E-4   -9.031678439475034E-4   -3.885867153113975E-4   -8.988927731492250E-4   -3.597245907446677E-1    3.029099755008123E-1
 1.009977673660000E+10  -4.587877944354228E-1    1.325122399734812E-1   -4.657115908885415E-4   -8.731662366168847E-4   -3.798938992994531E-4   -9.005257315819873E-4   -3.587495512523021E-1    3.042085451527933E-1
 1.009980254520000E+10  -4.584845104032333E-1    1.340276674970033E-1   -4.624598896224565E-4   -9.130773467708426E-4   -4.304364023440364E-4   -9.138801284349243E-4   -3.577683371857207E-1    3.056871240762222E-1
 1.009982835380000E+10  -4.581242156916245E-1    1.355511390651786E-1   -5.066319320206350E-4   -8.906515266705449E-4   -4.120814513348996E-4   -9.079473714664503E-4   -3.567031728905770E-1    3.068604133958424E-1
 1.009985416240000E+10  -4.577981866478840E-1    1.370405593106670E-1   -4.655521867498956E-4   -8.882103823451497E-4   -3.895476282652144E-4   -9.032679507011403E-4   -3.556737122680820E-1    3.082739918078460E-1
 1.009987997100000E+10  -4.574083062838356E-1    1.385505060111009E-1   -4.869170478452909E-4   -8.771043805540770E-4   -3.936222903335051E-4   -8.964305256278495E-4   -3.546089340786028E-1    3.094855759846188E-1
 1.009990577960000E+10  -4.570970187972462E-1    1.400992634683388E-1   -4.790255076895576E-4   -8.951469199706902E-4   -4.103109443455614E-4   -8.688905124018748E-4   -3.536744908476830E-1    3.107070446770530E-1
 1.009993158820000E+10  -4.567462191999361E-1    1.416809408064305E-1   -4.896073459594500E-4   -8.679803112623015E-4   -4.101144655752922E-4   -8.935403459370288E-4   -3.526041812322580E-1    3.120336356131441E-1
 1.009995739680000E+10  -4.562976286150226E-1    1.431908201226334E-1   -4.881167755512343E-4   -8.743410919859945E-4   -4.206604824495320E-4   -8.959468626756519E-4   -3.514953003390799E-1    3.133542374578345E-1
 1.009998320540000E+10  -4.559021948437714E-1    1.447164916911855E-1   -5.040524671259167E-4   -8.815096577973843E-4   -4.453749318038373E-4   -8.806454114892365E-4   -3.504649689555352E-1    3.146846971981618E-1
 1.010000901400000E+10  -4.555823270244515E-1    1.460763178836091E-1   -4.832063061939011E-4   -8.623776153507876E-4   -4.343281663911557E-4   -8.802116996508328E-4   -3.493303847092205E-1    3.159205306373450E-1
 1.010003482260000E+10  -4.550561942344021E-1    1.478697581881392E-1   -5.104334939779237E-4   -8.790292685766512E-4   -4.347244443533405E-4   -8.922047792667988E-4   -3.483111550574834E-1    3.172606641117723E-1
 1.010006063120000E+10  -4.545945504437979E-1    1.492185752414856E-1   -5.001946808101905E-4   -8.639185968930191E-4   -4.428537920878552E-4   -9.120994394980303E-4   -3.472669926453762E-1    3.184146098676459E-1
 1.010008643980000E+10  -4.542667758165519E-1    1.509122873317758E-1   -5.053679563617084E-4   -8.574314705425131E-4   -4.339630139171227E-4   -8.557889508128539E-4   -3.461588868301940E-1    3.199245883088969E-1
 1.010011224840000E+10  -4.537936085957902E-1    1.524157241516929E-1   -5.008718793686238E-4   -8.746014884332809E-4   -4.217621998407032E-4   -8.746719904504479E-4   -3.452789605108010E-1    3.211313583990893E-1
 1.010013805700000E+10  -4.535291798293016E-1    1.540148113582171E-1   -4.902494102671793E-4   -8.598065124847934E-4   -4.063969722206516E-4   -8.684159967937908E-4   -3.441208636698585E-1    3.225955116466936E-1
 1.010016386560000E+10  -4.531295445171918E-1    1.554001498798634E-1   -5.204559290254299E-4   -8.767216693146674E-4   -4.134239649680386E-4   -8.581743197033019E-4   -3.428785144160559E-1    3.237516589321386E-1
 1.010018967420000E+10  -4.526411919305071E-1    1.569472567007533E-1   -4.989986533419725E-4   -8.764994135184088E-4   -4.353685873982476E-4   -8.705899238356951E-4   -3.419064421741245E-1    3.249199191772720E-1
 1.010021548280000E+10  -4.522075227780162E-1    1.583101340166376E-1   -4.973644247736001E-4   -8.371017120099275E-4   -4.318283992693287E-4   -8.721064974987783E-4   -3.407512708654696E-1    3.261331256071485E-1
 1.010024129140000E+10  -4.516666731901388E-1    1.598459230142229E-1   -5.212854108532450E-4   -8.405281002605903E-4   -4.178884930425251E-4   -8.631827225975340E-4   -3.398646903239901E-1    3.275516918830060E-1
 1.010026710000000E+10  -4.512808762045732E-1    1.615355826423295E-1   -5.251537147166588E-4   -8.352966933375291E-4   -4.388540490150756E-4   -8.440714550437788E-4   -3.387105125617623E-1    3.287027642598224E-1
 1.010029290860000E+10  -4.508047006865984E-1    1.629066021627447E-1   -5.322043373202726E-4   -8.567591560060986E-4   -4.456164287980513E-4   -8.405020270771921E-4   -3.375261139032138E-1    3.299665552690497E-1
 1.010031871720000E+10  -4.502195869273586E-1    1.645034925160759E-1   -5.191192040704328E-4   -8.376536109499676E-4   -4.249272608288928E-4   -8.449893003234489E-4   -3.365465774497925E-1    3.311899699962756E-1
 1.010034452580000E+10  -4.498487562466530E-1    1.660203824541107E-1   -5.016796710873058E-4   -8.330896947904362E-4   -4.279391318573015E-4   -8.559228017540638E-4   -3.353813117093645E-1    3.323161867753751E-1
 1.010037033440000E+10  -4.494483102306395E-1    1.675542692111155E-1   -5.170109387986128E-4   -8.418100836792490E-4   -4.671982823218493E-4   -8.305926904924772E-4   -3.341890652635507E-1    3.336213395617976E-1
 1.010039614300000E+10  -4.488932178311058E-1    1.688877074888500E-1   -5.439884788952974E-4   -8.133728984436343E-4   -4.968023537687251E-4   -8.362969241436155E-4   -3.330381709767736E-1    3.349787354275098E-1
 1.010042195160000E+10  -4.485459971286641E-1    1.704746961781145E-1   -5.215842856943798E-4   -8.354494106271181E-4   -4.533299202710310E-4   -8.458848561029215E-4   -3.319097362139281E-1    3.362482283707952E-1
 1.010044776020000E+10  -4.478687029304346E-1    1.719925628057391E-1   -5.331115180803931E-4   -8.346964990584743E-4   -4.404128410277747E-4   -8.496926253601423E-4   -3.308100235267087E-1    3.372146485556440E-1
 1.010047356880000E+10  -4.475180044132738E-1    1.734857349575116E-1   -5.331295113428054E-4   -8.249210386657549E-4   -4.517656337548194E-4   -8.377176425542152E-4   -3.298094791993979E-1    3.386420242436927E-1
 1.010049937740000E+10  -4.470574334418397E-1    1.750199795904936E-1   -5.367896791421203E-4   -8.236077292429307E-4   -4.509611867647422E-4   -8.490057151013784E-4   -3.286796152658819E-1    3.398953193078746E-1
 1.010052518600000E+10  -4.466371690208703E-1    1.765340563725648E-1   -5.545920433065039E-4   -8.323800186694688E-4   -4.652238537416494E-4   -8.326539522490448E-4   -3.273465331997563E-1    3.408798200015402E-1
 1.010055099460000E+10  -4.460819674861097E-1    1.780671928749521E-1   -5.119778499943447E-4   -8.051812522234902E-4   -4.947079131769164E-4   -8.332664404824557E-4   -3.261476175299989E-1    3.422537299978502E-1
 1.010057680320000E+10  -4.455390789941301E-1    1.794130854187081E-1   -5.570405033045110E-4   -8.175055007114283E-4   -4.803540308003663E-4   -8.048988248326998E-4   -3.252006891410189E-1    3.434990560147363E-1
 1.010060261180000E+10  -4.451808206744648E-1    1.809335760166302E-1   -5.698480491996284E-4   -8.250302747977690E-4   -4.856974790306505E-4   -8.505957862267267E-4   -3.238998322815574E-1    3.447742737561243E-1
 1.010062842040000E+10  -4.445257539928462E-1    1.824475744710120E-1   -5.497600281547799E-4   -8.231907287992705E-4   -4.624173780682721E-4   -8.255418532874079E-4   -3.227708437698111E-1    3.458897665100008E-1
 1.010065422900000E+10  -4.441262710399031E-1    1.838993455147444E-1   -5.691948276146817E-4   -8.019208414697352E-4   -4.489229140849255E-4   -8.322027118782010E-4   -3.216852758472090E-1    3.470415108142452E-1
 1.010068003760000E+10  -4.435400981151382E-1    1.854024620059928E-1   -5.253907493389783E-4   -8.018629446403386E-4   -4.638016415499368E-4   -8.208825470006426E-4   -3.205099470220944E-1    3.482446470967450E-1
 1.010070584620000E+10  -4.429874566772708E-1    1.869731073174709E-1   -5.434824690868513E-4   -7.887521391792125E-4   -4.684281960665975E-4   -8.183103653283306E-4   -3.193010859825676E-1    3.494769733774238E-1
 1.010073165480000E+10  -4.425065621045948E-1    1.883773793979005E-1   -5.439814373126472E-4   -8.164467213998368E-4   -4.784410113239161E-4   -8.288002281884934E-4   -3.181503932904173E-1    3.505140903162001E-1
 1.010075746340000E+10  -4.419335092474521E-1    1.898246470255083E-1   -5.433234645338672E-4   -7.797226741282069E-4   -4.639962207183148E-4   -7.891001923766899E-4   -3.168525816491585E-1    3.517243006999977E-1
 1.010078327200000E+10  -4.414989569750251E-1    1.914211203116435E-1   -5.477141611063232E-4   -7.969672455701259E-4   -4.657424844420431E-4   -8.087160850734176E-4   -3.157351984387528E-1    3.530022375152015E-1
 1.010080908060000E+10  -4.408816131963628E-1    1.926943776479252E-1   -5.755173081234676E-4   -8.040665805419462E-4   -4.703562546389577E-4   -8.186132688093139E-4   -3.144706902168269E-1    3.541100292322459E-1
 1.010083488920000E+10  -4.403491448061594E-1    1.943027915505914E-1   -6.049717382554964E-4   -8.020621863291684E-4   -5.143127241970133E-4   -8.229479923252779E-4   -3.133791094666956E-1    3.552936712004700E-1
 1.010086069780000E+10  -4.396450615783066E-1    1.957722347208882E-1   -5.607427287853978E-4   -7.907960890983523E-4   -4.869325492900683E-4   -7.894613029082410E-4   -3.121774508256311E-1    3.563539929603412E-1
 1.010088650640000E+10  -4.390889544296669E-1    1.972682868447984E-1   -5.287752893621802E-4   -7.820027033443068E-4   -5.178516098949952E-4   -8.064950653630289E-4   -3.109484119797352E-1    3.576618900265872E-1
 1.010091231500000E+10  -4.385318890974377E-1    1.987942506778716E-1   -5.759855779018274E-4   -7.637344038110764E-4   -4.913460073946378E-4   -7.900533574962177E-4   -3.098293855915620E-1    3.587289482060298E-1
 1.010093812360000E+10  -4.379152444146142E-1    2.000675606813917E-1   -5.751471311977290E-4   -7.716977652912194E-4   -4.845723164141266E-4   -8.054855864804303E-4   -3.084571521567371E-1    3.598231242458305E-1
 1.010096393220000E+10  -4.374184005367152E-1    2.016789540665722E-1   -5.676793790106190E-4   -7.884968258661675E-4   -4.983243924882625E-4   -7.915883095935801E-4   -3.072377507271473E-1    3.611254505262579E-1
 1.010098974080000E+10  -4.368045674891836E-1    2.029617251099553E-1   -5.787464913966727E-4   -7.643551345601424E-4   -4.847661537691962E-4   -7.881703858734490E-4   -3.060690444035746E-1    3.621064618598117E-1
 1.010101554940000E+10  -4.363674166293756E-1    2.044801852381245E-1   -5.850151270639811E-4   -7.756847055370021E-4   -4.913287711719428E-4   -7.770440208876267E-4   -3.048755874161419E-1    3.633261435733765E-1
 1.010104135800000E+10  -4.356487784229774E-1    2.060181282240506E-1   -5.718620145861153E-4   -7.795197394607539E-4   -5.019724358577167E-4   -7.524023950408943E-4   -3.035062255841673E-1    3.644112274465632E-1
 1.010106716660000E+10  -4.352554457855456E-1    2.074261021796392E-1   -5.882276269152862E-4   -7.402455874600900E-4   -5.091671815841856E-4   -7.967791033860808E-4   -3.023133437704665E-1    3.654456499961335E-1
 1.010109297520000E+10  -4.344603340033338E-1    2.089640623665977E-1   -5.727277617409218E-4   -7.696420098352091E-4   -5.056833581447495E-4   -7.726197952764623E-4   -3.012085916870365E-1    3.668253727784409E-1
 1.010111878380000E+10  -4.339322092829910E-1    2.103137582359817E-1   -6.034581273572828E-4   -7.549954059669602E-4   -5.190560877092835E-4   -7.882875859445029E-4   -2.998792701582350E-1    3.677793222596122E-1
 1.010114459240000E+10  -4.331756117079745E-1    2.119279469330652E-1   -5.903584473901864E-4   -7.826421996916930E-4   -5.031104088734405E-4   -7.742787666717544E-4   -2.987229431956109E-1    3.689057299217767E-1
 1.010117040100000E+10  -4.326218816852720E-1    2.133733970899910E-1   -5.622879746750212E-4   -7.427891090845121E-4   -4.985794428709918E-4   -7.918282162274757E-4   -2.975304087558851E-1    3.700607310139779E-1
 1.010119620960000E+10  -4.321600232601028E-1    2.147085707409506E-1   -5.575902417371106E-4   -7.358976258740561E-4   -5.212661617836177E-4   -7.624830356706607E-4   -2.961113216033028E-1    3.711070417101561E-1
 1.010122201820000E+10  -4.314127842152922E-1    2.160535068181544E-1   -5.916668322560943E-4   -7.543843735691565E-4   -5.051615585679433E-4   -7.666137676613629E-4   -2.949086318819247E-1    3.721739479553181E-1
 1.010124782680000E+10  -4.306682649250908E-1    2.174553539127189E-1   -5.758933715443428E-4   -7.485539647148477E-4   -5.110177694835777E-4   -7.631967503364908E-4   -2.935396063300558E-1    3.733608138723281E-1
 1.010127363540000E+10  -4.300900820978800E-1    2.189987952969871E-1   -5.840730446880563E-4   -7.320527698557978E-4   -5.346306117700025E-4   -7.795002673045374E-4   -2.924398050392623E-1    3.744415553143655E-1
 1.010129944400000E+10  -4.294725212069781E-1    2.204458619024300E-1   -5.983706097475720E-4   -7.356911842247971E-4   -4.867280759000557E-4   -7.474115311673775E-4   -2.911121561491417E-1    3.754659142234030E-1
 1.010132525260000E+10  -4.288018144833183E-1    2.218830583786612E-1   -5.940113257460195E-4   -7.258085520546057E-4   -5.076550984451285E-4   -7.379347286323237E-4   -2.898524836648814E-1    3.764656687510746E-1
 1.010135106120000E+10  -4.282886864308281E-1    2.233287821661766E-1   -5.740329385006468E-4   -7.369008603118027E-4   -5.183235533955906E-4   -7.486501564349900E-4   -2.885282351312693E-1    3.776854748664993E-1
 1.010137686980000E+10  -4.275263388519293E-1    2.247548613078978E-1   -5.984227734228358E-4   -7.174640887670367E-4   -5.129851619826204E-4   -7.468631778019535E-4   -2.873080732220255E-1    3.787409020447036E-1
 1.010140267840000E+10  -4.268990381457360E-1    2.262448863519912E-1   -5.846146410154990E-4   -7.429937032510294E-4   -5.311204984319555E-4   -7.404151428025335E-4   -2.860144199212654E-1    3.799054168396185E-1
 1.010142848700000E+10  -4.261828185485652E-1    2.275028675562412E-1   -5.763897197216758E-4   -7.191893367290459E-4   -5.253077262819935E-4   -7.585711979641743E-4   -2.847998567961393E-1    3.809737294901346E-1
 1.010145429560000E+10  -4.256350142508343E-1    2.291043806367102E-1   -5.825143700295749E-4   -7.252430146087856E-4   -5.122619507157352E-4   -7.405608824667518E-4   -2.834568597808941E-1    3.819190208322916E-1
 1.010148010420000E+10  -4.250762117264353E-1    2.304528410878441E-1   -5.863222081540678E-4   -7.273332356228094E-4   -5.196863647416363E-4   -7.113687244561995E-4   -2.821404686693397E-1    3.830887220393835E-1
 1.010150591280000E+10  -4.242594630635361E-1    2.318825881055308E-1   -6.009365766583537E-4   -6.779224195275404E-4   -5.262908729299507E-4   -7.273961465813255E-4   -2.806890134158699E-1    3.841058789102259E-1
 1.010153172140000E+10  -4.235566909631709E-1    2.331165578324481E-1   -5.945844467291581E-4   -7.138600996955399E-4   -5.253849373504406E-4   -7.138666128066716E-4   -2.794750627873732E-1    3.851095143562060E-1
 1.010155753000000E+10  -4.228381183952184E-1    2.347108461874194E-1   -5.872600391410897E-4   -6.981722539054488E-4   -5.194738557873785E-4   -7.078395150214898E-4   -2.781783035033896E-1    3.860897025482464E-1
 1.010158333860000E+10  -4.222053865174516E-1    2.360705962533578E-1   -6.114707218765560E-4   -6.955296949714635E-4   -5.221936721690679E-4   -7.374105612373352E-4   -2.768967964953891E-1    3.871948115065441E-1
 1.010160914720000E+10  -4.215494481946477E-1    2.375112804257202E-1   -6.083577280586839E-4   -6.916590834590985E-4   -5.147117719377979E-4   -6.770461110661220E-4   -2.754986289509501E-1    3.882970441759701E-1
 1.010163495580000E+10  -4.207617665562829E-1    2.388721778703898E-1   -5.820674355480707E-4   -6.929913715672803E-4   -5.335860675275918E-4   -6.941563526727150E-4   -2.741850268986487E-1    3.893181594423576E-1
 1.010166076440000E+10  -4.200578576135753E-1    2.402923822683726E-1   -5.638103362492593E-4   -6.936116639338708E-4   -5.221509704002703E-4   -7.027542231491331E-4   -2.728493929819037E-1    3.902847365374848E-1
 1.010168657300000E+10  -4.193929302569785E-1    2.416149792157298E-1   -5.945692527081116E-4   -6.967508016254099E-4   -5.231381627939739E-4   -6.980137224308659E-4   -2.715014288665420E-1    3.912408772550115E-1
 1.010171238160000E+10  -4.186236641454958E-1    2.431410332355107E-1   -5.839760021102439E-4   -6.639867413400978E-4   -5.260548399163022E-4   -7.039704827915324E-4   -2.702420117642911E-1    3.923753107319199E-1
 1.010173819020000E+10  -4.179327656360514E-1    2.445529089704626E-1   -5.543864948087382E-4   -6.823113564743724E-4   -5.120891343965844E-4   -6.894639857968357E-4   -2.687606778443867E-1    3.933575145594275E-1
 1.010176399880000E+10  -4.171504318566069E-1    2.458615413987122E-1   -5.726924471507199E-4   -6.798369370074367E-4   -5.099610715126414E-4   -6.868090110937477E-4   -2.674210257760754E-1    3.944067527316955E-1
 1.010178980740000E+10  -4.164290061016317E-1    2.471650893971686E-1   -5.887701436511386E-4   -6.774177225049780E-4   -5.106631838922225E-4   -6.613802152430461E-4   -2.662795878642904E-1    3.953153336451508E-1
 1.010181561600000E+10  -4.157699044583445E-1    2.487497463690037E-1   -5.896638899628536E-4   -6.560689212632305E-4   -5.261268411256221E-4   -6.789050661895520E-4   -2.648869148016819E-1    3.962429132595328E-1
 1.010184142460000E+10  -4.149256804872744E-1    2.500989790225950E-1   -6.028233700538025E-4   -6.562392596784392E-4   -5.292989016676257E-4   -7.075889570456656E-4   -2.634677899529639E-1    3.973188851041323E-1
 1.010186723320000E+10  -4.142536415448206E-1    2.514443670004275E-1   -5.961422686004065E-4   -7.024046968782640E-4   -5.312138614799823E-4   -6.757628220181030E-4   -2.621912030724273E-1    3.983348948131984E-1
 1.010189304180000E+10  -4.135243567310386E-1    2.529397189262489E-1   -5.923978530620833E-4   -6.436174755631022E-4   -5.219344688784713E-4   -6.741742388170400E-4   -2.607421589236410E-1    3.992822963603453E-1
 1.010191885040000E+10  -4.129228593546854E-1    2.542233364872503E-1   -6.004907798546140E-4   -6.833520835972472E-4   -5.255491131995997E-4   -6.905003668450903E-4   -2.594137657416203E-1    4.003967820844049E-1
 1.010194465900000E+10  -4.119625444840785E-1    2.555268469367609E-1   -6.088651304480023E-4   -6.565966239468969E-4   -5.383880408921971E-4   -6.632724405583580E-4   -2.580080484005600E-1    4.011891099580354E-1
 1.010197046760000E+10  -4.112058469308051E-1    2.570655080830432E-1   -5.788427006266868E-4   -6.257226645134081E-4   -4.970292167419862E-4   -6.503007659305357E-4   -2.566906005988024E-1    4.023187859252041E-1
 1.010199627620000E+10  -4.103853099185523E-1    2.582992172520310E-1   -5.671708732417793E-4   -6.358156364953398E-4   -5.171478090488813E-4   -6.712990609130618E-4   -2.552871886540747E-1    4.033023497461201E-1
 1.010202208480000E+10  -4.097699990785541E-1    2.597788096582792E-1   -5.713391016981693E-4   -6.408232835480759E-4   -5.051546911870820E-4   -6.838517251756614E-4   -2.537462858398130E-1    4.040507945197276E-1
 1.010204789340000E+10  -4.087390321726875E-1    2.610390813993498E-1   -5.979732733671946E-4   -6.384744724496263E-4   -5.152090056490917E-4   -6.472866662583492E-4   -2.523429237910473E-1    4.051706660495235E-1
 1.010207370200000E+10  -4.079968921019597E-1    2.624277423787687E-1   -5.638829191095049E-4   -6.244671416593922E-4   -5.164444461829539E-4   -6.347125283061989E-4   -2.510435910139346E-1    4.060210881651648E-1
