#  HZ   S   RI   R     50.00 
! Rohde & Schwarz Vector Network Analyzer 
! Rohde-Schwarz,ZNB20-2Port,1311601062101988,3.16
! Created: UTC 3/20/2024, 5:01:08 PM
! freq[Hz]                re:S11                  im:S11                  re:S21                  im:S21                  re:S12                  im:S12                  re:S22                  im:S22
 1.009956212300000E+10  -4.615559690213760E-1    1.197202561177522E-1   -4.576285270089540E-4   -9.040654531914997E-4   -3.724402208226267E-4   -9.508072702799048E-4   -3.670678056020812E-1    2.930354188825201E-1
 1.009958883322500E+10  -4.612907754259502E-1    1.213482032050970E-1   -4.411029538624746E-4   -9.084288353069341E-4   -3.643068377806257E-4   -9.010019345870912E-4   -3.660920068968395E-1    2.944753974524043E-1
 1.009961554345000E+10  -4.610704473410012E-1    1.229072573421757E-1   -4.587338760056186E-4   -9.124803391213276E-4   -3.966187170245415E-4   -9.128514124298305E-4   -3.648175006512450E-1    2.957374239185263E-1
 1.009964225367500E+10  -4.606393567266042E-1    1.244385976159596E-1   -4.715826704340345E-4   -9.112176914023697E-4   -3.807393748609169E-4   -9.179088124252555E-4   -3.638725279530728E-1    2.972797816201805E-1
 1.009966896390000E+10  -4.603203736456880E-1    1.261304677092390E-1   -4.789866662140264E-4   -8.888956991912139E-4   -3.623717188707757E-4   -9.075220953422158E-4   -3.628331720957334E-1    2.986928739865371E-1
 1.009969567412500E+10  -4.599381811508856E-1    1.277238017633392E-1   -4.554121051382552E-4   -8.727203043591416E-4   -3.700051165616993E-4   -9.076100864071014E-4   -3.619132478167816E-1    3.000898223513286E-1
 1.009972238435000E+10  -4.595842731498724E-1    1.293323321751263E-1   -4.731685971366844E-4   -8.924548630487205E-4   -3.778203466071239E-4   -9.042399790519151E-4   -3.608125535844154E-1    3.013994576962697E-1
 1.009974909457500E+10  -4.592750670006808E-1    1.308480434475351E-1   -4.915566419355300E-4   -8.711621652764558E-4   -4.135096002328157E-4   -9.128491544603642E-4   -3.596865725509931E-1    3.026377620734689E-1
 1.009977580480000E+10  -4.588631897235403E-1    1.324015114827607E-1   -4.964911185347774E-4   -8.650951661284635E-4   -3.968528370119776E-4   -9.065390057173057E-4   -3.588245940693348E-1    3.041972768186287E-1
 1.009980251502500E+10  -4.584623108658385E-1    1.340824395015991E-1   -4.721595399510720E-4   -8.892149154421460E-4   -3.868232682578007E-4   -9.184721622730392E-4   -3.577949034489070E-1    3.054458645624462E-1
 1.009982922525000E+10  -4.580859755646805E-1    1.356823906341530E-1   -4.404079362997988E-4   -8.950554508965600E-4   -4.051782615050937E-4   -8.852775198238978E-4   -3.566718196708225E-1    3.068879864848530E-1
 1.009985593547500E+10  -4.578143032092859E-1    1.371395225987912E-1   -4.486402324147353E-4   -9.010954698053807E-4   -4.235644539124528E-4   -9.131047141443610E-4   -3.556199308878292E-1    3.082720729577533E-1
 1.009988264570000E+10  -4.573395125395828E-1    1.388306116015117E-1   -4.804169200118033E-4   -8.762483954623997E-4   -3.882440352684779E-4   -8.895332486704547E-4   -3.545125324232223E-1    3.094366576125764E-1
 1.009990935592500E+10  -4.569487188342899E-1    1.403353043496323E-1   -4.851979178587947E-4   -8.783902869633164E-4   -4.189755041111176E-4   -9.025571158943032E-4   -3.535490521878439E-1    3.109199113181004E-1
 1.009993606615000E+10  -4.566495586360458E-1    1.420156154462801E-1   -4.791450966757779E-4   -8.833248425549083E-4   -4.195583377940258E-4   -8.962502436237062E-4   -3.522922121790398E-1    3.122854860137770E-1
 1.009996277637500E+10  -4.563251748023615E-1    1.435099786488300E-1   -4.726765318088177E-4   -8.927711604566023E-4   -4.215879182527212E-4   -9.044010793950449E-4   -3.511933804853921E-1    3.136124842576092E-1
 1.009998948660000E+10  -4.558021509820337E-1    1.452247518927878E-1   -4.650636450307702E-4   -8.764918375572001E-4   -4.256715904013593E-4   -8.763784673291841E-4   -3.502032598024999E-1    3.149815124725645E-1
 1.010001619682500E+10  -4.553210777448891E-1    1.467350728286642E-1   -5.022255601608069E-4   -8.426793593870205E-4   -4.053307780565572E-4   -8.615392754937405E-4   -3.492585112240795E-1    3.162640190877065E-1
 1.010004290705000E+10  -4.550186997837399E-1    1.483192158096271E-1   -4.548390636507630E-4   -8.618989698824909E-4   -4.131231271372594E-4   -8.845288027622707E-4   -3.479630699308372E-1    3.177084723838950E-1
 1.010006961727500E+10  -4.545008665668901E-1    1.498619513720011E-1   -4.911126851821864E-4   -8.606213693637666E-4   -4.232457046856742E-4   -8.973093447292247E-4   -3.470112465277900E-1    3.189159535567317E-1
 1.010009632750000E+10  -4.540678063479347E-1    1.514387484475208E-1   -4.943013506691343E-4   -8.678744538243015E-4   -4.253422038451726E-4   -8.642345561468000E-4   -3.459196778423970E-1    3.201188879520438E-1
 1.010012303772500E+10  -4.537683793115906E-1    1.531961939009387E-1   -4.850852872612855E-4   -8.593075253441641E-4   -4.306319919207927E-4   -8.701813889550965E-4   -3.446977765040471E-1    3.216477529569063E-1
 1.010014974795000E+10  -4.531247720840772E-1    1.545731108101073E-1   -5.129382587667827E-4   -8.545242236086740E-4   -4.410759623355821E-4   -8.661771014874583E-4   -3.435805598186225E-1    3.229011159241025E-1
 1.010017645817500E+10  -4.527887406373992E-1    1.563658501665098E-1   -4.929447946076580E-4   -8.679691192423496E-4   -4.344464603788685E-4   -8.411223324975790E-4   -3.424404620789441E-1    3.242123527120627E-1
 1.010020316840000E+10  -4.522859146464366E-1    1.577191704066923E-1   -4.809396323826090E-4   -8.608290773455209E-4   -4.500852978498784E-4   -8.602781489612937E-4   -3.414689053703152E-1    3.255864363987606E-1
 1.010022987862500E+10  -4.518917207952394E-1    1.593045202980184E-1   -5.060538638310474E-4   -8.462194191848680E-4   -4.376437183697613E-4   -8.564046894141417E-4   -3.403855504730440E-1    3.268354093953720E-1
 1.010025658885000E+10  -4.514256390435583E-1    1.608144642712026E-1   -5.147730129304091E-4   -8.395161908036755E-4   -4.383505615421053E-4   -8.569549619635749E-4   -3.390084715755395E-1    3.281139770984741E-1
 1.010028329907500E+10  -4.510265438662324E-1    1.622825479188068E-1   -5.416297470942740E-4   -8.541836423006598E-4   -4.653907244702557E-4   -8.456916875206620E-4   -3.379669804220106E-1    3.294596695353837E-1
 1.010031000930000E+10  -4.505285765530828E-1    1.641357288221723E-1   -5.523056677340122E-4   -8.438337511420298E-4   -4.534373386084512E-4   -8.566885179896248E-4   -3.367756025932629E-1    3.309257809321188E-1
 1.010033671952500E+10  -4.500804698891134E-1    1.655521525696893E-1   -5.201122346118040E-4   -8.472846341054738E-4   -4.376137797208021E-4   -8.698133475756873E-4   -3.356479616767732E-1    3.320015240794695E-1
 1.010036342975000E+10  -4.494932169615120E-1    1.670309803026443E-1   -5.088270407168409E-4   -8.313024307123271E-4   -4.584440654865896E-4   -8.331177033915089E-4   -3.346015034557061E-1    3.333463648344375E-1
 1.010039013997500E+10  -4.490410095427234E-1    1.686046531137632E-1   -5.089100363661512E-4   -8.076507948721295E-4   -4.435783040741401E-4   -8.491066377480623E-4   -3.333462283154822E-1    3.345168746860359E-1
 1.010041685020000E+10  -4.486574683971336E-1    1.702093920136059E-1   -5.192810393573313E-4   -8.188323153082198E-4   -4.562997660564668E-4   -8.635753947742477E-4   -3.322795946550040E-1    3.358129756963446E-1
 1.010044356042500E+10  -4.479015540992602E-1    1.717580616737505E-1   -5.018503908660784E-4   -8.584509515149456E-4   -4.556637775103339E-4   -8.533648305796043E-4   -3.311456233847013E-1    3.371840855345321E-1
 1.010047027065000E+10  -4.474910437068653E-1    1.731812806528810E-1   -5.396117608188004E-4   -8.399407597671205E-4   -4.713954053241775E-4   -8.566635139366809E-4   -3.299173729428891E-1    3.384783581134278E-1
 1.010049698087500E+10  -4.470985028632804E-1    1.749306174303846E-1   -5.358197232986383E-4   -8.209839875987094E-4   -4.477604828372502E-4   -8.452920862537298E-4   -3.287254594543584E-1    3.396334269325046E-1
 1.010052369110000E+10  -4.465056731641435E-1    1.763623599939831E-1   -5.330754506226167E-4   -8.158022987049365E-4   -4.501600800540009E-4   -8.496866867088503E-4   -3.274322401396024E-1    3.408164456834317E-1
 1.010055040132500E+10  -4.460547793437997E-1    1.779467697841661E-1   -5.290704580595315E-4   -8.136677851018024E-4   -4.568613033620969E-4   -8.401827090944367E-4   -3.264392855409167E-1    3.421298751838454E-1
 1.010057711155000E+10  -4.454705162978992E-1    1.795725199584853E-1   -5.575810167174535E-4   -8.284984602824646E-4   -4.749063640624626E-4   -8.108737604648154E-4   -3.251212581145252E-1    3.433877860830462E-1
 1.010060382177500E+10  -4.449896392721197E-1    1.809690680081684E-1   -5.591713248287267E-4   -7.986339870332040E-4   -4.909813682576548E-4   -8.323800761997844E-4   -3.239098466038987E-1    3.446966674051317E-1
 1.010063053200000E+10  -4.444893661093751E-1    1.825418690418347E-1   -5.314169250900436E-4   -8.335096487292527E-4   -4.679599979179099E-4   -8.273429832199495E-4   -3.226440555942377E-1    3.458804827152262E-1
 1.010065724222500E+10  -4.440879171463638E-1    1.841198626902195E-1   -5.682344636668637E-4   -7.967522512657012E-4   -4.754170833882325E-4   -8.275300755298712E-4   -3.214777175661132E-1    3.471594484375988E-1
 1.010068395245000E+10  -4.433908145031290E-1    1.857156142006306E-1   -5.556919589260382E-4   -7.783076995444690E-4   -4.560203671378224E-4   -8.269932430048105E-4   -3.203269662013973E-1    3.483267941375800E-1
 1.010071066267500E+10  -4.428732421055318E-1    1.872320069644320E-1   -5.413478588340117E-4   -8.150803432024975E-4   -4.814409280319253E-4   -7.982281768904696E-4   -3.190698223967569E-1    3.495719829665136E-1
 1.010073737290000E+10  -4.421486352923064E-1    1.887576002277397E-1   -5.220931872305433E-4   -8.203610239505519E-4   -4.667114309016329E-4   -8.052245922814950E-4   -3.179895767444065E-1    3.507264161760408E-1
 1.010076408312500E+10  -4.417333090516102E-1    1.902621622402227E-1   -5.632538324732779E-4   -8.168188946317093E-4   -4.706212743019749E-4   -8.107390961375032E-4   -3.166831807355339E-1    3.519974868229017E-1
 1.010079079335000E+10  -4.412037569514873E-1    1.917051632652423E-1   -5.456218394399330E-4   -8.068408838163847E-4   -4.639902004575768E-4   -8.136607052354078E-4   -3.154967219372386E-1    3.531831959040984E-1
 1.010081750357500E+10  -4.407333631253538E-1    1.932404302770245E-1   -5.481795915645573E-4   -7.950591544791910E-4   -4.912559917077509E-4   -8.077345980118702E-4   -3.141589203068577E-1    3.544075760658073E-1
 1.010084421380000E+10  -4.400682079780657E-1    1.948797332717056E-1   -5.544501161267640E-4   -8.158218328304343E-4   -4.923898777148300E-4   -7.988280851379597E-4   -3.129510729270794E-1    3.556992126741050E-1
 1.010087092402500E+10  -4.394465542586777E-1    1.964224263949560E-1   -5.489655554111014E-4   -7.839525162649349E-4   -4.868932386363754E-4   -7.996913642946764E-4   -3.118007627447665E-1    3.568963319541155E-1
 1.010089763425000E+10  -4.388547869570975E-1    1.979198663374219E-1   -5.721145652645398E-4   -7.832187627773300E-4   -4.546582889664512E-4   -8.002930892439172E-4   -3.104704165428384E-1    3.579717732863253E-1
 1.010092434447500E+10  -4.383089511544347E-1    1.993952402092639E-1   -5.743582433668255E-4   -7.783779553876086E-4   -4.764593569751159E-4   -7.764083869945801E-4   -3.090671225393417E-1    3.592679009802720E-1
 1.010095105470000E+10  -4.377712793840652E-1    2.009121325605745E-1   -5.661068859712799E-4   -7.515412545318991E-4   -5.002224122571227E-4   -8.195014983143389E-4   -3.079648001939013E-1    3.605491888582384E-1
 1.010097776492500E+10  -4.371513334460039E-1    2.023943271726159E-1   -5.495588830639535E-4   -7.661414672067048E-4   -4.966665965940074E-4   -8.033199217775884E-4   -3.066904902244355E-1    3.615683104831545E-1
 1.010100447515000E+10  -4.363346170369954E-1    2.039618205926364E-1   -5.586120011686742E-4   -7.958811796762546E-4   -4.927569750769209E-4   -7.986897091252543E-4   -3.055343319770875E-1    3.628343021801266E-1
 1.010103118537500E+10  -4.358375087661546E-1    2.053212230386439E-1   -5.770521977190181E-4   -7.815607395259791E-4   -4.892841112817949E-4   -7.901574898868795E-4   -3.040704611718823E-1    3.639502919045122E-1
 1.010105789560000E+10  -4.353302041659451E-1    2.070073242632778E-1   -5.679979983094360E-4   -7.616373534400111E-4   -5.001351992578099E-4   -7.612757443566161E-4   -3.028916240103330E-1    3.650892128346911E-1
 1.010108460582500E+10  -4.346349159987068E-1    2.084833363379304E-1   -5.747644460446107E-4   -7.819338573682492E-4   -5.017032223386972E-4   -7.558637766499394E-4   -3.015988661346503E-1    3.662479152477163E-1
 1.010111131605000E+10  -4.340622861028344E-1    2.100031913071566E-1   -5.769157395272839E-4   -7.615884922050365E-4   -5.199313112846111E-4   -7.846362995929029E-4   -3.003970502553438E-1    3.674671645426756E-1
 1.010113802627500E+10  -4.334613184317835E-1    2.113555990578400E-1   -5.739123639277909E-4   -7.701288880279719E-4   -5.035554472316527E-4   -7.860998177695089E-4   -2.990007754227268E-1    3.684157737058225E-1
 1.010116473650000E+10  -4.327075925796456E-1    2.129372970407921E-1   -5.531209839626524E-4   -7.811281347880080E-4   -5.097118514500507E-4   -7.613649622027666E-4   -2.976843951466604E-1    3.697553654637957E-1
 1.010119144672500E+10  -4.320948941867252E-1    2.143618833168516E-1   -5.748004793041098E-4   -7.666800798986228E-4   -4.894239633158711E-4   -7.527027093502788E-4   -2.963547792801141E-1    3.709390509303516E-1
 1.010121815695000E+10  -4.315346839563726E-1    2.158002626836797E-1   -5.596036744117584E-4   -7.375356392627492E-4   -4.615843763573638E-4   -7.541671740810756E-4   -2.952096196929595E-1    3.721428842678480E-1
 1.010124486717500E+10  -4.308307205669255E-1    2.173784579735332E-1   -5.886528180597210E-4   -7.317436764180483E-4   -5.139494398210305E-4   -7.824168394220959E-4   -2.938039696220496E-1    3.732211418727904E-1
 1.010127157740000E+10  -4.302392470216677E-1    2.189441032360119E-1   -5.834846914400837E-4   -7.328894310463860E-4   -4.985387572124213E-4   -7.671257380417020E-4   -2.925048664412707E-1    3.741535593444164E-1
 1.010129828762500E+10  -4.294497755775486E-1    2.204440493188908E-1   -5.794815187057821E-4   -6.906961059053846E-4   -5.275222260062505E-4   -7.228036924683337E-4   -2.911335944570969E-1    3.753662785451410E-1
 1.010132499785000E+10  -4.288399342931083E-1    2.219641760361790E-1   -6.182121738623032E-4   -7.401208105515257E-4   -5.341366570788581E-4   -7.405536585731756E-4   -2.898400394200486E-1    3.766358385724237E-1
 1.010135170807500E+10  -4.280885218542339E-1    2.234640488364945E-1   -6.012519056131300E-4   -7.398489054463342E-4   -5.250016251967446E-4   -7.426723799132251E-4   -2.884416257692681E-1    3.775991596959142E-1
 1.010137841830000E+10  -4.275178840299464E-1    2.249027929075586E-1   -6.155636395208710E-4   -7.180090499596908E-4   -5.138898439434568E-4   -7.663724679532694E-4   -2.872272328866786E-1    3.787700908211923E-1
 1.010140512852500E+10  -4.267615770188609E-1    2.263989959590931E-1   -5.769256624965763E-4   -7.122514724644324E-4   -5.271284050613665E-4   -7.330720919126465E-4   -2.858738456854998E-1    3.798933544976902E-1
 1.010143183875000E+10  -4.260682526433673E-1    2.278297170859566E-1   -5.641020630136503E-4   -7.069147261030408E-4   -5.317070267464019E-4   -7.461662667583003E-4   -2.846048241800536E-1    3.809386763884828E-1
 1.010145854897500E+10  -4.253988081749033E-1    2.292461237591349E-1   -5.962217371447704E-4   -7.144426833646329E-4   -5.251745366135805E-4   -7.389105695752323E-4   -2.831414710889546E-1    3.820828233787013E-1
 1.010148525920000E+10  -4.247196452577483E-1    2.307296732207489E-1   -5.745741467879334E-4   -7.204552301871832E-4   -5.115913193652022E-4   -7.261050487579134E-4   -2.818510486414816E-1    3.832478463236309E-1
 1.010151196942500E+10  -4.239953553401112E-1    2.322093262398727E-1   -5.936250610881355E-4   -7.130822866449732E-4   -5.342263619577312E-4   -7.397143437195397E-4   -2.803247161221560E-1    3.842065146709259E-1
 1.010153867965000E+10  -4.233764083762764E-1    2.336502831106040E-1   -5.595370783202081E-4   -7.045008927601839E-4   -4.925029870351192E-4   -7.194666234001812E-4   -2.792396291327893E-1    3.852454996332337E-1
 1.010156538987500E+10  -4.227021410591513E-1    2.352088681179221E-1   -5.775263516032764E-4   -6.938939474942692E-4   -4.989354729395569E-4   -7.223790037660792E-4   -2.777488284789121E-1    3.863597875195773E-1
 1.010159210010000E+10  -4.219241632702596E-1    2.365605358373225E-1   -5.846732972088700E-4   -7.095522949543816E-4   -5.312571070906839E-4   -7.170204660411249E-4   -2.763398029560903E-1    3.875183522362466E-1
 1.010161881032500E+10  -4.212673997886372E-1    2.380145878792762E-1   -6.131711525880429E-4   -6.979558633026514E-4   -5.360136353373819E-4   -7.130083830595522E-4   -2.749596861529071E-1    3.886119603566234E-1
 1.010164552055000E+10  -4.203111156237826E-1    2.394186611787540E-1   -5.802547204536138E-4   -6.879384603831505E-4   -5.069361784095310E-4   -7.145589454904676E-4   -2.736798602747107E-1    3.895017241017267E-1
 1.010167223077500E+10  -4.197661147138709E-1    2.409722498071697E-1   -5.942052831966369E-4   -6.771375688466450E-4   -5.166798025005845E-4   -7.228849525646976E-4   -2.722027929414557E-1    3.907065157137419E-1
 1.010169894100000E+10  -4.188531151768643E-1    2.423346192749299E-1   -5.769946896800865E-4   -6.492364524703574E-4   -5.302560584414484E-4   -7.069900031060606E-4   -2.709817662177298E-1    3.918152929230672E-1
 1.010172565122500E+10  -4.182976088958718E-1    2.438084939090496E-1   -5.952051217847973E-4   -6.865051227058675E-4   -5.124873723988127E-4   -6.888461598147751E-4   -2.695322983091479E-1    3.928024429470078E-1
 1.010175236145000E+10  -4.174751127793180E-1    2.452081233112486E-1   -5.853620874337157E-4   -6.822967886094216E-4   -5.306106162601577E-4   -6.942551612580766E-4   -2.681387940540272E-1    3.937038547961414E-1
 1.010177907167500E+10  -4.167390899682994E-1    2.467270615323062E-1   -5.912073865646826E-4   -6.616704123159409E-4   -5.286972417082125E-4   -6.958592209691471E-4   -2.668298684568060E-1    3.948247763816182E-1
 1.010180578190000E+10  -4.160805576111455E-1    2.482030143127085E-1   -5.912316029042300E-4   -6.673883271089490E-4   -5.395401178479389E-4   -7.104430946992615E-4   -2.654293990429714E-1    3.960859859932105E-1
 1.010183249212500E+10  -4.152217165673077E-1    2.495179767591147E-1   -5.882246953356170E-4   -6.504451169758569E-4   -5.018041716546445E-4   -7.224330774151934E-4   -2.639969884135062E-1    3.969761218266127E-1
 1.010185920235000E+10  -4.144767358472687E-1    2.509586648218175E-1   -5.876325927162115E-4   -6.513467119652664E-4   -5.243631268698607E-4   -6.959272865169973E-4   -2.624934373688023E-1    3.979901342086637E-1
 1.010188591257500E+10  -4.136814046070065E-1    2.524261421586048E-1   -5.867580913505833E-4   -6.483012136176316E-4   -5.143843224979533E-4   -6.809021667977355E-4   -2.611452814050139E-1    3.988512882471850E-1
 1.010191262280000E+10  -4.130590046207941E-1    2.538787845655711E-1   -5.929673999394030E-4   -6.576784872038821E-4   -5.072109973168611E-4   -6.794761407224624E-4   -2.596245046155187E-1    4.000126693517870E-1
 1.010193933302500E+10  -4.122710482906824E-1    2.553865378452999E-1   -5.778864367949102E-4   -6.551821319361921E-4   -5.303347486243987E-4   -6.892455789461834E-4   -2.582659350447115E-1    4.010162601511741E-1
 1.010196604325000E+10  -4.113358717703910E-1    2.567204863707173E-1   -5.927659680945529E-4   -6.276716678961728E-4   -5.271855844408083E-4   -6.585825424583906E-4   -2.567309294869640E-1    4.020872360264470E-1
