#  HZ   S   RI   R     50.00 
! Rohde & Schwarz Vector Network Analyzer 
! Rohde-Schwarz,ZNB20-2Port,1311601062101988,3.16
! Created: UTC 3/20/2024, 4:49:49 PM
! freq[Hz]                re:S11                  im:S11                  re:S21                  im:S21                  re:S12                  im:S12                  re:S22                  im:S22
 1.010420269700000E+10  -3.298749907081511E-1    3.648898909662340E-1   -1.774055278968682E-4   -1.500419288553823E-4   -1.245625053211857E-4   -1.541445796911164E-4   -1.205213907620831E-1    4.690500041263356E-1
 1.010420714455000E+10  -3.295715531056494E-1    3.651578557345416E-1   -1.830379358014875E-4   -1.422408288874439E-4   -1.547299389667215E-4   -1.303644844498992E-4   -1.203836968456235E-1    4.690526038074085E-1
 1.010421159210000E+10  -3.293870845863757E-1    3.653859876913455E-1   -1.574071581598824E-4   -1.223120981142546E-4   -1.186031277334689E-4   -1.601152173594822E-4   -1.199707374303595E-1    4.693564159226138E-1
 1.010421603965000E+10  -3.292484213579971E-1    3.655162754026605E-1   -1.877560942501438E-4   -1.373986126118564E-4   -1.256887505320703E-4   -1.371476316641584E-4   -1.195513585367316E-1    4.693014351826395E-1
 1.010422048720000E+10  -3.289276976257832E-1    3.656888265951153E-1   -1.357605785434210E-4   -1.353224220405960E-4   -1.602222112161635E-4   -1.223460615691761E-4   -1.191970709794062E-1    4.694018203194293E-1
 1.010422493475000E+10  -3.288934037647585E-1    3.658261880907649E-1   -1.540000076022883E-4   -1.271092681166468E-4   -1.229868043212956E-4   -1.361671901202431E-4   -1.188274514852852E-1    4.695871807129784E-1
 1.010422938230000E+10  -3.286951714135284E-1    3.659563133819455E-1   -1.172169122486904E-4   -1.251449549696440E-4   -1.292036349144567E-4   -1.387334746391155E-4   -1.185952739736112E-1    4.696215962512890E-1
 1.010423382985000E+10  -3.285200624771973E-1    3.663332567588603E-1   -1.398271921194002E-4   -1.302487759254197E-4   -1.156328964783524E-4   -1.560230040941531E-4   -1.182411860827773E-1    4.697301331649817E-1
 1.010423827740000E+10  -3.281792478525200E-1    3.664660596623539E-1   -1.221612140522928E-4   -1.021873804399997E-4   -1.056306190564701E-4   -1.165448055592732E-4   -1.177767011868996E-1    4.698289630804516E-1
 1.010424272495000E+10  -3.281509634287372E-1    3.666774166176375E-1   -1.255935707931394E-4   -1.327388703865945E-4   -9.792548731999663E-5   -1.080939279643495E-4   -1.175325850617993E-1    4.698263169657924E-1
 1.010424717250000E+10  -3.278561363860230E-1    3.668052487852497E-1   -1.165324837699775E-4   -1.161724516550526E-4   -1.246486760852430E-4   -1.305652542881515E-4   -1.172137758025587E-1    4.699721498375276E-1
 1.010425162005000E+10  -3.277547330377047E-1    3.670744218646537E-1   -1.357895870310583E-4   -1.511590322279517E-4   -9.238011174746970E-5   -1.515485060717148E-4   -1.169661150084436E-1    4.700429181636022E-1
 1.010425606760000E+10  -3.274280862407338E-1    3.671365726453177E-1   -9.986067806174167E-5   -1.372380200632032E-4   -9.693866591046478E-5   -1.399748597736204E-4   -1.165914390047283E-1    4.702288053331853E-1
 1.010426051515000E+10  -3.272961153847077E-1    3.674314085809660E-1   -1.166510321626055E-4   -1.383866889709523E-4   -5.055938619071542E-5   -9.776795701530912E-5   -1.162123129940918E-1    4.701739547621058E-1
 1.010426496270000E+10  -3.270955166207929E-1    3.678121237389040E-1   -1.109093707982642E-4   -1.089387079398847E-4   -8.840451027285238E-5   -1.041930245424046E-4   -1.158471105097564E-1    4.703804317776957E-1
 1.010426941025000E+10  -3.269140417316320E-1    3.678220660674780E-1   -8.996439109538745E-5   -1.007423417450757E-4   -7.661569153621781E-5   -9.645122815169093E-5   -1.155509050122514E-1    4.704460624999673E-1
 1.010427385780000E+10  -3.267809135007746E-1    3.678293536673475E-1   -5.977173569870810E-5   -1.269909527819200E-4   -5.523448804587478E-5   -1.190020820064192E-4   -1.151328969645331E-1    4.704399404052788E-1
 1.010427830535000E+10  -3.264812029964531E-1    3.681835689951850E-1   -9.840214123533586E-5   -1.131414036845211E-4   -6.296135250130535E-5   -1.197850962789668E-4   -1.149375124219731E-1    4.706100413285725E-1
 1.010428275290000E+10  -3.263001026634877E-1    3.683954611761280E-1   -8.152337627420639E-5   -1.098211765098244E-4   -5.107674855235874E-5   -1.078712819345606E-4   -1.145351407346486E-1    4.707215086396823E-1
 1.010428720045000E+10  -3.260901356671078E-1    3.685711121142308E-1   -6.966140095160559E-5   -1.244343715297553E-4   -3.248890201571842E-5   -9.767691765760120E-5   -1.141768148667757E-1    4.708226041897939E-1
 1.010429164800000E+10  -3.258695220502239E-1    3.687545280409723E-1   -6.795569467750310E-5   -1.029546509572182E-4   -7.027871543601466E-5   -1.093439365734914E-4   -1.139007245297154E-1    4.709079056249011E-1
 1.010429609555000E+10  -3.257065833747692E-1    3.690433708658502E-1   -5.251440211700254E-5   -1.460903475553968E-4   -4.774343081580968E-5   -9.923635002771197E-5   -1.134549375008707E-1    4.709037289929823E-1
 1.010430054310000E+10  -3.254936025529237E-1    3.691581415030860E-1   -3.125686677479147E-5   -8.330891878846311E-5   -2.411898015626243E-5   -8.786170111663739E-5   -1.133045820004623E-1    4.709700723004828E-1
 1.010430499065000E+10  -3.252787991359088E-1    3.692574177013075E-1   -1.836984159999994E-5   -1.015384907697473E-4   -2.218079070382069E-5   -1.002885627642300E-4   -1.128337182834110E-1    4.710847651781885E-1
 1.010430943820000E+10  -3.251595651402766E-1    3.694091691838644E-1   -4.621131700319039E-5   -1.013855657061475E-4   -1.354736738042580E-5   -9.724682594966699E-5   -1.124450046893130E-1    4.711275674508685E-1
 1.010431388575000E+10  -3.248855724431315E-1    3.697343464623656E-1   -4.141008355773881E-5   -1.033224059010772E-4   -8.645373514144489E-6   -8.269356589053121E-5   -1.121352623932093E-1    4.712843761157055E-1
 1.010431833330000E+10  -3.246855042169208E-1    3.699735224182041E-1   -4.413614900576266E-6   -1.240965465844619E-4   -2.335355459144721E-5   -9.671811598775917E-5   -1.117274426837484E-1    4.714482556021598E-1
 1.010432278085000E+10  -3.245371930836186E-1    3.701234768498149E-1   -1.754096549533850E-5   -7.019692356535521E-5   -2.129636282466077E-5   -1.100848839188570E-4   -1.113287019114450E-1    4.714714506226556E-1
 1.010432722840000E+10  -3.243545791309022E-1    3.703012047229435E-1    1.486684096382739E-6   -8.802493278863292E-5    1.411726156014950E-5   -7.937553368723800E-5   -1.109540227848900E-1    4.714208702121406E-1
 1.010433167595000E+10  -3.241735255466358E-1    3.703959578927381E-1   -2.242265639805234E-5   -1.027723486920617E-4    1.889873760609077E-5   -6.082652331964730E-5   -1.106869311068412E-1    4.716049378514143E-1
 1.010433612350000E+10  -3.238838293398605E-1    3.706168677564608E-1   -1.727683066436488E-5   -9.586495154930188E-5    2.558172293476855E-5   -8.629623607322706E-5   -1.102719871355698E-1    4.717477560197598E-1
 1.010434057105000E+10  -3.236548602147448E-1    3.709219199267292E-1    1.649930675795010E-5   -9.375133663127070E-5    1.892820835019463E-5   -8.090558341737132E-5   -1.099086881879783E-1    4.717681157499095E-1
 1.010434501860000E+10  -3.235454518348345E-1    3.711431595240377E-1    4.631202106839408E-6   -9.103085723994471E-5    4.305400733028866E-5   -7.861338012683490E-5   -1.095647489385954E-1    4.720143359568322E-1
 1.010434946615000E+10  -3.232532277938298E-1    3.711978175399455E-1    4.857983241091862E-5   -8.314468862436629E-5    3.842219369942738E-5   -8.404764358550239E-5   -1.091328277230563E-1    4.720940949282634E-1
 1.010435391370000E+10  -3.230761729432403E-1    3.713527083576847E-1    3.809334033262244E-5   -9.064611051320048E-5    5.007831139841808E-5   -7.196143962032393E-5   -1.088337458408071E-1    4.719626542994451E-1
 1.010435836125000E+10  -3.229550044967400E-1    3.714687436827150E-1    4.262330776988067E-5   -8.252932835909608E-5    3.945887318121486E-5   -9.110139965431791E-5   -1.086228137396410E-1    4.720586101085234E-1
 1.010436280880000E+10  -3.227318290810977E-1    3.717786584999435E-1    2.234921137166881E-5   -7.003046603437673E-5    3.804854456195292E-5   -9.285758251663791E-5   -1.080102750742982E-1    4.722079984389304E-1
 1.010436725635000E+10  -3.225495005483815E-1    3.719679304385364E-1    5.633038269032431E-5   -6.513932285174286E-5    5.108930644187568E-5   -5.063416110032528E-5   -1.077815470448974E-1    4.722942008433578E-1
 1.010437170390000E+10  -3.224240088829172E-1    3.721268907103094E-1    5.882088601231899E-5   -8.899184819239105E-5    6.462824944986173E-5   -5.286531825620012E-5   -1.074370985352749E-1    4.722777132491533E-1
 1.010437615145000E+10  -3.220780567051072E-1    3.723200855626619E-1    6.076822995315869E-5   -6.214996680236396E-5    8.512943727354850E-5   -4.195271609035604E-5   -1.070841532948088E-1    4.724145442938868E-1
 1.010438059900000E+10  -3.219105237052405E-1    3.725050337917696E-1    5.474247829598299E-5   -7.069401534809274E-5    9.386629149968340E-5   -5.196884746974588E-5   -1.066353295401519E-1    4.726436007570649E-1
 1.010438504655000E+10  -3.217272113705301E-1    3.725883283958098E-1    9.481588903393040E-5   -5.546995792950984E-5    9.670564469641477E-5   -5.568835205562424E-5   -1.062545880238090E-1    4.725982630222447E-1
 1.010438949410000E+10  -3.215388414363549E-1    3.728975254754656E-1    6.242691153123258E-5   -9.307303208365914E-5    7.081978637731964E-5   -5.694915271966103E-5   -1.060922992540531E-1    4.726475393394627E-1
 1.010439394165000E+10  -3.213129964538726E-1    3.730783795137386E-1    1.137476051479474E-4   -5.233686848568064E-5    7.959005639737847E-5   -7.113212976584920E-5   -1.055920634038834E-1    4.727827455757248E-1
 1.010439838920000E+10  -3.211786137052364E-1    3.733056347444723E-1    1.328560630187306E-4   -4.536571743036281E-5    1.282461108797092E-4   -4.672006307801408E-5   -1.052250137007791E-1    4.728045668759489E-1
 1.010440283675000E+10  -3.209962036420316E-1    3.734317836925134E-1    1.212357845297640E-4   -6.822584400425756E-5    1.235106956526354E-4   -4.922722185920474E-5   -1.048623374799015E-1    4.729342494333287E-1
 1.010440728430000E+10  -3.208213598052096E-1    3.736053250406635E-1    1.673663869540995E-4   -4.644827490348785E-5    1.083919789774395E-4   -3.938285582272109E-5   -1.044461239768432E-1    4.730029735124813E-1
 1.010441173185000E+10  -3.206179180884456E-1    3.737466353825200E-1    1.517109780392626E-4   -6.915058552099059E-5    1.393278632979974E-4   -7.327661362130768E-5   -1.041694305408952E-1    4.730536850653870E-1
 1.010441617940000E+10  -3.203050624135818E-1    3.740262365935085E-1    1.390510637240487E-4   -8.444961825604100E-5    1.436256617612057E-4   -1.093930874200431E-5   -1.036425908349230E-1    4.732637065328504E-1
 1.010442062695000E+10  -3.202283438882106E-1    3.742528978591604E-1    1.581471464658594E-4   -3.041403348969529E-5    1.834011833600538E-4   -4.020230277637798E-5   -1.031859932632224E-1    4.732178000644771E-1
 1.010442507450000E+10  -3.198826819387540E-1    3.742669534960815E-1    1.466920423294165E-4   -5.523381639746345E-5    1.757775029336245E-4   -7.852317973062072E-6   -1.028922910936256E-1    4.733710954590326E-1
 1.010442952205000E+10  -3.197758065095995E-1    3.744595596596832E-1    1.762397908938593E-4   -3.344718712617320E-5    1.782761734343804E-4   -1.966486426353390E-5   -1.025107203960520E-1    4.732793213378481E-1
 1.010443396960000E+10  -3.196211604509822E-1    3.748892515125293E-1    1.703504184461412E-4   -5.240455116775141E-5    1.759643318393157E-4    1.023783778815202E-5   -1.020619417222202E-1    4.735316831820024E-1
 1.010443841715000E+10  -3.192775762045753E-1    3.749179635277936E-1    2.013370552835155E-4   -5.385530099346864E-5    1.916740088449502E-4   -2.484662625414707E-5   -1.019292081683271E-1    4.735047703884100E-1
 1.010444286470000E+10  -3.191662497817817E-1    3.750876612555216E-1    1.905258333951239E-4   -4.507217317964966E-5    2.087344979449116E-4   -3.096905673691466E-5   -1.013787463613343E-1    4.736052955169832E-1
 1.010444731225000E+10  -3.189886443612157E-1    3.752574043158082E-1    2.044855956261534E-4   -3.547287579138778E-5    1.873677779378902E-4   -1.081077398871875E-5   -1.009551527105598E-1    4.737573691269332E-1
 1.010445175980000E+10  -3.188756813507793E-1    3.754465474460635E-1    1.932089297577633E-4   -4.233587863635803E-5    2.145573937717646E-4   -2.556087918364367E-5   -1.005594551981406E-1    4.736715295036217E-1
 1.010445620735000E+10  -3.186157443417470E-1    3.757321766651263E-1    2.348659786344651E-4   -3.217515859890529E-5    2.200924791583717E-4    2.799510255667600E-6   -1.002717971779805E-1    4.738227602028469E-1
 1.010446065490000E+10  -3.182741934369125E-1    3.758044964147511E-1    2.499469334923403E-4   -4.989954637171049E-5    2.481405504590404E-4    2.494949168367887E-7   -9.990134576147916E-2    4.739938800984609E-1
 1.010446510245000E+10  -3.182020282634858E-1    3.761206320633788E-1    2.487671143419593E-4   -3.469556757923234E-5    2.291887299430381E-4   -3.344947230202826E-5   -9.947215986295882E-2    4.740915509954634E-1
 1.010446955000000E+10  -3.178179990880683E-1    3.762308433213998E-1    2.810770614192621E-4   -2.936198153647895E-5    2.381449217716634E-4   -2.256376119737618E-5   -9.905022826731305E-2    4.741250238455306E-1
 1.010447399755000E+10  -3.178544874199054E-1    3.763563842480739E-1    2.750913096013926E-4   -7.078369737735079E-6    2.722440274533196E-4    3.929977888607451E-6   -9.867947423247173E-2    4.742250624816118E-1
 1.010447844510000E+10  -3.175551184859461E-1    3.765581421960763E-1    2.721963247840167E-4   -4.751511448494630E-5    2.622400677921830E-4    2.832896352591894E-6   -9.827019119175831E-2    4.742176953319939E-1
 1.010448289265000E+10  -3.173899976775180E-1    3.768254622077902E-1    2.853298078198189E-4   -1.463169620206058E-5    2.903051925107671E-4    4.088878267515915E-6   -9.782484644006285E-2    4.743565117490712E-1
 1.010448734020000E+10  -3.171962832652543E-1    3.769182094432104E-1    2.917445879812252E-4   -1.898902744507683E-5    3.070882011360130E-4    3.050345149023607E-5   -9.754950354355339E-2    4.744009387277758E-1
 1.010449178775000E+10  -3.167743993490546E-1    3.771504737068765E-1    3.133487749285223E-4   -1.442382705199673E-6    3.272943460439332E-4    3.665003636215319E-5   -9.694407297690043E-2    4.744296757172330E-1
 1.010449623530000E+10  -3.168508597723860E-1    3.772912747300420E-1    3.272023003733035E-4   -2.466508538991350E-5    3.405955100030904E-4    8.930576231475930E-6   -9.662351848858169E-2    4.744611917328407E-1
 1.010450068285000E+10  -3.164923476614755E-1    3.775635875661580E-1    3.306570365976647E-4   -2.221145107705364E-5    3.131665957370781E-4    2.464528910650702E-5   -9.619040271861927E-2    4.745099109691727E-1
 1.010450513040000E+10  -3.163408406207643E-1    3.777252437047696E-1    3.519780285916843E-4    2.006323162819555E-6    3.678771605687769E-4    2.302558782800722E-5   -9.588064819978175E-2    4.746058239122381E-1
 1.010450957795000E+10  -3.162107090684479E-1    3.778071372193628E-1    3.555144306960663E-4    2.184447099063230E-5    3.463393001682063E-4    1.722435846913802E-5   -9.550009568634402E-2    4.747976936129059E-1
 1.010451402550000E+10  -3.159150936979420E-1    3.780857809263095E-1    3.758086104234363E-4   -4.661939783579021E-6    3.553692037285572E-4    4.125369352101974E-5   -9.497028572051608E-2    4.748432272321434E-1
 1.010451847305000E+10  -3.158050897600422E-1    3.781554358943234E-1    3.785995311067592E-4    2.035889334889005E-5    3.672170228341653E-4    3.402569856764759E-5   -9.448146983076343E-2    4.747978368190433E-1
 1.010452292060000E+10  -3.154761338280477E-1    3.784214157339560E-1    4.069526946011839E-4    8.821945573679207E-6    4.001303952273501E-4    4.401638652973221E-5   -9.419925494830379E-2    4.749818011175483E-1
 1.010452736815000E+10  -3.153185061078415E-1    3.785517995027917E-1    4.297431402225239E-4    1.909405250584133E-5    3.929064631701400E-4    4.331618018212491E-5   -9.380790457638490E-2    4.749547775665665E-1
 1.010453181570000E+10  -3.150976557052068E-1    3.787319235038983E-1    4.213638944866592E-4    5.499782780414184E-6    4.033975056040112E-4    5.036637824905059E-5   -9.333502434326540E-2    4.750537425864197E-1
 1.010453626325000E+10  -3.149392825542135E-1    3.789906749128037E-1    4.232911666199059E-4    9.532134195555765E-6    4.462690704577553E-4    4.587917592809151E-5   -9.286374174629707E-2    4.751117805745506E-1
 1.010454071080000E+10  -3.147651218030853E-1    3.792417737005653E-1    4.715798212132364E-4    3.446508211301651E-6    4.442629271789855E-4    4.811692543955169E-5   -9.245332020814614E-2    4.752138901104320E-1
 1.010454515835000E+10  -3.146204526327457E-1    3.793716706635745E-1    4.536833798876276E-4    1.293115252977309E-5    4.385056664779615E-4    6.212819930563058E-5   -9.200421913433683E-2    4.752270055720560E-1
 1.010454960590000E+10  -3.142786505037630E-1    3.795443386413404E-1    4.830749283460915E-4    9.911015665954411E-6    4.362598074385901E-4    5.932925346334696E-5   -9.142089733680375E-2    4.753448728271757E-1
 1.010455405345000E+10  -3.143015893451270E-1    3.797008994679921E-1    4.592229502533417E-4    2.083413154797911E-5    4.717936558402911E-4    7.856415130042855E-5   -9.113398600112149E-2    4.751490570534023E-1
 1.010455850100000E+10  -3.139414787754503E-1    3.798813389988748E-1    4.918128465431118E-4    2.241326594775794E-5    4.693407570403563E-4    6.157496954838826E-5   -9.093620541803936E-2    4.754485647894854E-1
 1.010456294855000E+10  -3.136470499260108E-1    3.801585040162089E-1    5.166893786353949E-4    4.449724767046847E-5    4.898994290204220E-4    6.155771815002964E-5   -9.011660681348434E-2    4.755780941055855E-1
 1.010456739610000E+10  -3.134748937436277E-1    3.802503194925957E-1    5.451095240401632E-4    3.823575198553626E-5    5.265044520723864E-4    5.515846209856588E-5   -8.975961060235321E-2    4.756220083985020E-1
 1.010457184365000E+10  -3.132897134036153E-1    3.805692366320700E-1    5.625595079483375E-4    3.491110883243507E-5    5.319962527709818E-4    7.358582023022380E-5   -8.930158105905553E-2    4.755669915522189E-1
 1.010457629120000E+10  -3.131680025230560E-1    3.805357322262780E-1    5.687181399698906E-4    2.743033511660354E-5    5.317802971501314E-4    5.725648494900400E-5   -8.894338801267845E-2    4.756717156647846E-1
 1.010458073875000E+10  -3.128745130252701E-1    3.808684713568923E-1    5.952023921118365E-4    3.853394099711908E-5    5.514429225423292E-4    8.335934104527636E-5   -8.843399366697785E-2    4.756780638191372E-1
 1.010458518630000E+10  -3.125806009367729E-1    3.810003960000641E-1    6.057301161587181E-4    5.671521639555568E-5    5.625552726430588E-4    8.744488259178337E-5   -8.782751838113247E-2    4.757975291090192E-1
 1.010458963385000E+10  -3.124177066353084E-1    3.811455277322631E-1    6.214388586190655E-4    4.306636409017693E-5    5.842467156690835E-4    7.122657030576787E-5   -8.748770520281042E-2    4.757952424583389E-1
 1.010459408140000E+10  -3.123419866006778E-1    3.814265183365108E-1    6.339660349942703E-4    4.829359647835666E-5    6.018140286346221E-4    1.056897445766030E-4   -8.690069849469724E-2    4.759000157644475E-1
 1.010459852895000E+10  -3.121596696172365E-1    3.814667719361132E-1    6.639461559431018E-4    4.764501310453126E-5    6.245250065617028E-4    7.300885153826067E-5   -8.657398127691662E-2    4.759502609806637E-1
 1.010460297650000E+10  -3.120114258237101E-1    3.816594215857077E-1    6.882387795759048E-4    3.088632519912779E-5    6.445414957557029E-4    8.406845918955043E-5   -8.602663001176215E-2    4.759894848653720E-1
