#  HZ   S   RI   R     50.00 
! Rohde & Schwarz Vector Network Analyzer 
! Rohde-Schwarz,ZNB20-2Port,1311601062101988,3.16
! Created: UTC 3/20/2024, 4:50:04 PM
! freq[Hz]                re:S11                  im:S11                  re:S21                  im:S21                  re:S12                  im:S12                  re:S22                  im:S22
 1.010409699800000E+10  -3.343589732037743E-1    3.603512363042915E-1   -2.150326311511738E-4   -1.990786986992996E-4   -2.182235777665885E-4   -2.157103624842221E-4   -1.279572596249237E-1    4.668892394445103E-1
 1.010410188682500E+10  -3.341144841580729E-1    3.606684932043986E-1   -2.511849484397128E-4   -1.521177073578120E-4   -2.204365668509860E-4   -1.981738161195456E-4   -1.277002800765491E-1    4.668584276255286E-1
 1.010410677565000E+10  -3.339477418093170E-1    3.607603923943321E-1   -2.137922608820503E-4   -1.852233212124428E-4   -2.038225488589385E-4   -1.920774931714174E-4   -1.272628199140450E-1    4.669907021040116E-1
 1.010411166447500E+10  -3.336840465296451E-1    3.609585309146482E-1   -2.176524709119355E-4   -1.731336653123587E-4   -2.138827187909613E-4   -1.940798227936275E-4   -1.269936364108210E-1    4.671035625268818E-1
 1.010411655330000E+10  -3.335167245476426E-1    3.613161579739477E-1   -2.417605370528267E-4   -1.851314909562495E-4   -1.911377802822615E-4   -1.825846342898466E-4   -1.266899841028203E-1    4.672326555553826E-1
 1.010412144212500E+10  -3.332261068740544E-1    3.615147348080876E-1   -2.217891118736791E-4   -1.901291863751835E-4   -2.189064893583934E-4   -1.928308808720292E-4   -1.261446086082980E-1    4.673038002879599E-1
 1.010412633095000E+10  -3.330751224729028E-1    3.615998584472261E-1   -2.187584493272154E-4   -1.795713068397548E-4   -2.089264430460254E-4   -1.867251301379966E-4   -1.258605673813600E-1    4.674264934782972E-1
 1.010413121977500E+10  -3.327923536588125E-1    3.618674704067687E-1   -2.256775226561524E-4   -2.116750384138502E-4   -2.222733831386367E-4   -1.956806922845897E-4   -1.256081820352389E-1    4.675263777618734E-1
 1.010413610860000E+10  -3.326799048949244E-1    3.622203492068854E-1   -2.025315369661456E-4   -1.605769628187738E-4   -1.902400612837767E-4   -1.795603321881911E-4   -1.251617184065622E-1    4.675565929879216E-1
 1.010414099742500E+10  -3.324029289422639E-1    3.622527362069335E-1   -2.078000865994097E-4   -1.559485787633989E-4   -1.887882701724989E-4   -1.588691761378273E-4   -1.248381459191867E-1    4.676665853741376E-1
 1.010414588625000E+10  -3.321391543704010E-1    3.624458509095143E-1   -1.910574996781123E-4   -1.510537754844800E-4   -1.937456940837286E-4   -1.905208650100690E-4   -1.245734927132710E-1    4.678445120107214E-1
 1.010415077507500E+10  -3.319920158523139E-1    3.627737150866691E-1   -2.004342963152303E-4   -1.768508251958597E-4   -1.661969774675174E-4   -1.895670639677315E-4   -1.240693778915683E-1    4.680688667296030E-1
 1.010415566390000E+10  -3.318815290308090E-1    3.630372864042116E-1   -1.874506339924094E-4   -1.765165272015785E-4   -1.720772213743956E-4   -1.845515535875896E-4   -1.236072364766794E-1    4.679396348467734E-1
 1.010416055272500E+10  -3.315458898377827E-1    3.632220832889890E-1   -1.918570819059712E-4   -1.781464228948979E-4   -1.799724942687667E-4   -1.974614332974529E-4   -1.233663626019754E-1    4.681714575901622E-1
 1.010416544155000E+10  -3.313627511055902E-1    3.634040124503514E-1   -2.102757912568611E-4   -1.545740940763453E-4   -1.364261209237330E-4   -1.619359370465960E-4   -1.230402338084595E-1    4.681287842365678E-1
 1.010417033037500E+10  -3.311723357569794E-1    3.635229583881881E-1   -1.931585688286134E-4   -1.457924124866476E-4   -1.411552536579283E-4   -1.771319512712014E-4   -1.226165262302606E-1    4.682856092981648E-1
 1.010417521920000E+10  -3.310288861357087E-1    3.638678376554350E-1   -1.743589543667159E-4   -1.462165600146903E-4   -1.487832227528570E-4   -1.834004217638513E-4   -1.221601484022432E-1    4.685268531449017E-1
 1.010418010802500E+10  -3.306756212873669E-1    3.641331589859070E-1   -1.725011094945518E-4   -1.697685538515181E-4   -1.459730552462609E-4   -1.625829688804481E-4   -1.219844946175799E-1    4.685099766901911E-1
 1.010418499685000E+10  -3.304879400068155E-1    3.642632098588037E-1   -1.824933075886385E-4   -1.505389148100467E-4   -1.567971038008746E-4   -1.507420381600060E-4   -1.216400925789621E-1    4.687459544749218E-1
 1.010418988567500E+10  -3.303137089643133E-1    3.644923867526016E-1   -1.702917695314672E-4   -1.337155403616546E-4   -1.439190840834496E-4   -1.562461683427213E-4   -1.212421465399470E-1    4.688380795504156E-1
 1.010419477450000E+10  -3.301702270825640E-1    3.645356485857759E-1   -1.998427285311568E-4   -1.289541893062670E-4   -1.407986145447038E-4   -1.558562963072442E-4   -1.208397131556133E-1    4.687309009952603E-1
 1.010419966332500E+10  -3.298406404529896E-1    3.649069641966976E-1   -1.620939828638958E-4   -1.327190547988497E-4   -1.245990504143864E-4   -1.497158187556254E-4   -1.204455785237485E-1    4.688947525415760E-1
 1.010420455215000E+10  -3.297208009899673E-1    3.650008337673877E-1   -1.506835104236752E-4   -1.567536836140028E-4   -1.395226478531577E-4   -1.508748129840529E-4   -1.200450593746400E-1    4.690485338129661E-1
 1.010420944097500E+10  -3.295885923839996E-1    3.653382990999602E-1   -1.653289351736743E-4   -1.344916696217520E-4   -1.077977031677644E-4   -1.510861964843286E-4   -1.196735556391123E-1    4.691182733389124E-1
 1.010421432980000E+10  -3.293068863594988E-1    3.655121221999594E-1   -1.111327172124523E-4   -1.479483633037510E-4   -1.044946681536511E-4   -1.565736491777311E-4   -1.193700221610398E-1    4.691975231867695E-1
 1.010421921862500E+10  -3.290472547924263E-1    3.657369940674496E-1   -1.118885985480726E-4   -1.178284781289498E-4   -8.435258110116700E-5   -1.834368354074020E-4   -1.189767690764888E-1    4.693495129461507E-1
 1.010422410745000E+10  -3.288262453202094E-1    3.659406659590529E-1   -1.367930364279237E-4   -1.374243685498313E-4   -9.756003904220998E-5   -1.446398913345810E-4   -1.187029266916667E-1    4.693551456451595E-1
 1.010422899627500E+10  -3.286566930065498E-1    3.661032489378876E-1   -1.133202371096907E-4   -1.622122455140068E-4   -9.288430917021150E-5   -1.319190587146233E-4   -1.182736415543125E-1    4.695442246170420E-1
 1.010423388510000E+10  -3.283276667764329E-1    3.663036273783059E-1   -1.264049032340328E-4   -1.226690573305483E-4   -6.720567918512458E-5   -1.570754422342433E-4   -1.178925334617540E-1    4.696392795139126E-1
 1.010423877392500E+10  -3.281381150133830E-1    3.665987147436466E-1   -1.103347614572675E-4   -1.281346790408393E-4   -9.999011971037372E-5   -1.218646196639216E-4   -1.175101399007759E-1    4.695997645481066E-1
 1.010424366275000E+10  -3.280046652989265E-1    3.667684080665271E-1   -8.230096957458945E-5   -1.106241294768824E-4   -7.802494344131548E-5   -1.513485071417167E-4   -1.171095188262412E-1    4.697593228250601E-1
 1.010424855157500E+10  -3.276566131425264E-1    3.670963590318581E-1   -7.460052353986368E-5   -1.413252611111047E-4   -8.458407651627003E-5   -1.110336858189549E-4   -1.167923340744262E-1    4.699484108659529E-1
 1.010425344040000E+10  -3.275742505567364E-1    3.671526737396378E-1   -5.882517403319703E-5   -1.210340705521521E-4   -5.850583547714930E-5   -1.232386135354336E-4   -1.164877913666366E-1    4.700266138157535E-1
 1.010425832922500E+10  -3.272435189501723E-1    3.672664060394363E-1   -8.843190902922500E-5   -9.938506740680332E-5   -4.594063339198239E-5   -1.078510848866838E-4   -1.160621231017741E-1    4.699948229376997E-1
 1.010426321805000E+10  -3.271351965698305E-1    3.676225141790794E-1   -8.833141566297323E-5   -1.221295927883936E-4   -6.835324509069867E-5   -1.142972191811671E-4   -1.156880265179500E-1    4.702363266617965E-1
 1.010426810687500E+10  -3.269076675694065E-1    3.677403262327188E-1   -6.410474239288516E-5   -1.380835898787766E-4   -4.275679432892695E-5   -1.283689692775144E-4   -1.153301785350889E-1    4.703130778312874E-1
 1.010427299570000E+10  -3.267310711887153E-1    3.678117869546698E-1   -4.401900017085344E-5   -1.004071139758034E-4   -7.344378853749980E-5   -9.479790751165665E-5   -1.149427268375626E-1    4.703978511013109E-1
 1.010427788452500E+10  -3.264022173735643E-1    3.682283431060079E-1   -8.174777268681272E-5   -1.235654382458680E-4   -3.953447459653779E-5   -1.156825083757688E-4   -1.144179824086311E-1    4.704624845394929E-1
 1.010428277335000E+10  -3.262475289804554E-1    3.683840231798938E-1   -4.654488241015108E-5   -1.178380337702460E-4   -5.325663161580441E-5   -1.048576983934344E-4   -1.141374107014891E-1    4.705103239687844E-1
 1.010428766217500E+10  -3.260746122455828E-1    3.686927051152865E-1   -3.608563497983076E-5   -8.298772098139362E-5   -1.302626095783571E-5   -1.070462012213157E-4   -1.137842682275605E-1    4.705665880890928E-1
 1.010429255100000E+10  -3.258580581125493E-1    3.688877778589635E-1   -1.032528673792318E-5   -1.172130993047187E-4   -5.020012486496684E-5   -1.148728852423405E-4   -1.133858832090722E-1    4.707675314895932E-1
 1.010429743982500E+10  -3.256887060033664E-1    3.690944671102417E-1   -2.364028697297969E-5   -7.553981244281808E-5   -3.212186164968320E-5   -1.021573315098806E-4   -1.129827934317563E-1    4.708290441580553E-1
 1.010430232865000E+10  -3.252522229514484E-1    3.692466332509801E-1   -1.033243322938400E-5   -1.271660730774960E-4   -2.211222019325294E-5   -1.033855353026886E-4   -1.126265513647323E-1    4.709541349973092E-1
 1.010430721747500E+10  -3.250525350329286E-1    3.695730985762335E-1   -1.088464886954616E-5   -8.621734435772615E-5    1.121841354987452E-6   -9.604303401315815E-5   -1.122713469155967E-1    4.710323162756568E-1
 1.010431210630000E+10  -3.249289319023090E-1    3.696912588129165E-1    2.809035557555204E-5   -1.178529483496930E-4    3.174201518549371E-5   -1.017664735603312E-4   -1.118347483290616E-1    4.711368425404045E-1
 1.010431699512500E+10  -3.247153150020831E-1    3.698556783482112E-1    2.578146506252803E-6   -1.133838096070689E-4    2.489776431272327E-5   -8.197917331130949E-5   -1.114005534739279E-1    4.711396775034412E-1
 1.010432188395000E+10  -3.245481629339761E-1    3.700438555590179E-1    3.781043255989830E-5   -1.006657082090120E-4    1.907410978461737E-5   -1.053216226512568E-4   -1.110225171524858E-1    4.713564495835810E-1
 1.010432677277500E+10  -3.242003662699648E-1    3.703699363140237E-1    5.207115940381720E-5   -8.454884125127076E-5    3.527563504579252E-5   -1.006092725485859E-4   -1.107045793670990E-1    4.713995737924268E-1
 1.010433166160000E+10  -3.240596132853260E-1    3.705557413088866E-1    5.568439521383479E-5   -9.458668222365252E-5    2.716300727002201E-5   -9.387422402520579E-5   -1.102351781512263E-1    4.715225478921197E-1
 1.010433655042500E+10  -3.238030445067669E-1    3.706307422772627E-1    3.482128187981902E-5   -8.907594582411182E-5    4.261687424535318E-5   -5.868625885972437E-5   -1.099645554559203E-1    4.715326770581119E-1
 1.010434143925000E+10  -3.236604576856030E-1    3.708899308445642E-1    5.558577838319863E-5   -7.890432102089348E-5    5.019108659464844E-5   -8.630670457444291E-5   -1.094808999953773E-1    4.716457562499500E-1
 1.010434632807500E+10  -3.234757666172763E-1    3.711663923054387E-1    5.314845093846450E-5   -9.795089922419453E-5    8.069567510905899E-5   -9.652421399036235E-5   -1.090070850207475E-1    4.717695422023356E-1
 1.010435121690000E+10  -3.231722361603829E-1    3.713626541326470E-1    4.817134546497714E-5   -1.135119974027467E-4    9.759494226077459E-5   -8.552177161273774E-5   -1.087034592468450E-1    4.718018229679838E-1
 1.010435610572500E+10  -3.230530157158203E-1    3.715048683769585E-1    6.235491741010824E-5   -6.190451841971260E-5    7.732062278256937E-5   -4.450154886660870E-5   -1.082138404671690E-1    4.719456066455406E-1
 1.010436099455000E+10  -3.227048477840271E-1    3.718118931531275E-1    1.118302282328402E-4   -7.357288596641904E-5    8.957425025865534E-5   -7.382702552033408E-5   -1.077139676092736E-1    4.720362529783905E-1
 1.010436588337500E+10  -3.226024177274759E-1    3.718596672974041E-1    7.900621656642363E-5   -8.753600645918567E-5    7.252398106726302E-5   -8.232074337821629E-5   -1.074732558880839E-1    4.721893076842968E-1
 1.010437077220000E+10  -3.222851697573860E-1    3.721536675582158E-1    9.299793628447823E-5   -8.279211186415394E-5    8.530761684722433E-5   -5.996504598276816E-5   -1.069108342636193E-1    4.722046114342706E-1
 1.010437566102500E+10  -3.221059154252361E-1    3.722597773826491E-1    1.130236450808578E-4   -7.327367964271780E-5    1.411250890958797E-4   -6.432011218008852E-5   -1.066369369442260E-1    4.722370596533038E-1
 1.010438054985000E+10  -3.218776242231100E-1    3.725094020804505E-1    7.799082572822530E-5   -7.103604601616721E-5    1.235727511795974E-4   -6.540147926841114E-5   -1.061903153934683E-1    4.723355422925319E-1
 1.010438543867500E+10  -3.217168009445564E-1    3.727319021386591E-1    9.617162098663188E-5   -8.606024263631966E-5    1.276446176809793E-4   -6.374189196975253E-5   -1.057930081717818E-1    4.724524045987999E-1
 1.010439032750000E+10  -3.214651412535767E-1    3.730805134798389E-1    1.240507872268325E-4   -6.808330339446768E-5    1.261570940491579E-4   -5.881321840444174E-5   -1.054060905769900E-1    4.726022742072685E-1
 1.010439521632500E+10  -3.211532264323864E-1    3.731557972962760E-1    1.235044905932949E-4   -6.599145840136476E-5    1.479044174880113E-4   -4.839026752344146E-5   -1.050222809089522E-1    4.725856595700477E-1
 1.010440010515000E+10  -3.209815780484048E-1    3.733848087164434E-1    1.618584497982932E-4   -5.998571851583590E-5    1.548284763073170E-4   -5.034151686990456E-5   -1.044922594837582E-1    4.727038780980639E-1
 1.010440499397500E+10  -3.209673506750785E-1    3.735027067892702E-1    1.959351436112641E-4   -6.575060569644231E-5    1.935839412724332E-4   -4.752655770162027E-5   -1.041162228923526E-1    4.727680289429738E-1
 1.010440988280000E+10  -3.205047691459870E-1    3.736705792808617E-1    1.818100907730280E-4   -6.790818708890311E-5    1.642517696449656E-4   -2.844534295634873E-5   -1.035593231188619E-1    4.727906811350190E-1
 1.010441477162500E+10  -3.205008260224446E-1    3.738916636884853E-1    1.943978984320569E-4   -3.598677845957815E-5    1.901559687844023E-4   -2.897657200220248E-5   -1.032971957639412E-1    4.729379355975549E-1
 1.010441966045000E+10  -3.202033741515313E-1    3.741043631233020E-1    2.150355892528014E-4   -5.638681243923737E-5    2.070824103165986E-4   -2.730882962847002E-5   -1.027657034269341E-1    4.730772604925964E-1
 1.010442454927500E+10  -3.200959211498420E-1    3.742770291092119E-1    2.409784063530797E-4   -4.337322897130164E-5    2.021146919734131E-4   -2.967665189262964E-5   -1.023575491766477E-1    4.731036426066147E-1
 1.010442943810000E+10  -3.197225849103563E-1    3.746213111582595E-1    1.803528039765755E-4   -6.531115801630119E-5    1.989046373023685E-4   -3.548521484726075E-5   -1.020734192671940E-1    4.732409384258869E-1
 1.010443432692500E+10  -3.194446120984849E-1    3.747668725510758E-1    2.313856029959508E-4   -4.746048976836965E-5    2.365935039547267E-4   -3.562735148161224E-5   -1.015585426394059E-1    4.732285401277992E-1
 1.010443921575000E+10  -3.191880544228030E-1    3.750171491864726E-1    2.281363287258299E-4   -5.976842297720844E-5    2.555862486060735E-4   -2.797519431065675E-5   -1.010777658142142E-1    4.732642366131994E-1
 1.010444410457500E+10  -3.189956641549181E-1    3.751546098554211E-1    2.673506173468700E-4   -3.278447595256544E-5    2.332961781730220E-4   -3.315963284108624E-5   -1.008426151652856E-1    4.734973921331466E-1
 1.010444899340000E+10  -3.187919267074167E-1    3.753057015326637E-1    2.729548164311851E-4   -5.703606805692469E-5    2.707964801089220E-4   -1.738138786554926E-5   -1.002373591731390E-1    4.736593836649896E-1
 1.010445388222500E+10  -3.185445064606959E-1    3.756104765479877E-1    2.695174825492862E-4   -2.076253995576098E-5    2.771445361379566E-4   -6.398867920339038E-6   -9.984320883092454E-2    4.736927258902083E-1
 1.010445877105000E+10  -3.184839442336402E-1    3.758421415406556E-1    2.905802866582258E-4   -4.493461428147009E-5    2.771390902367195E-4   -3.118175833967554E-5   -9.940291445139626E-2    4.736922306751383E-1
 1.010446365987500E+10  -3.182154509136382E-1    3.759049007553849E-1    2.890824283639129E-4   -3.271973306936379E-5    2.847132840071310E-4   -2.623545227940640E-5   -9.889177643740919E-2    4.737794799976990E-1
 1.010446854870000E+10  -3.180101121531611E-1    3.762763386881045E-1    3.307809419161366E-4   -3.998578146989919E-5    3.002291374798524E-4    1.742878005474586E-5   -9.850512508760975E-2    4.738345998853505E-1
 1.010447343752500E+10  -3.177469282552765E-1    3.763884348471023E-1    3.298446044343388E-4   -1.898468670224487E-5    3.133146455605166E-4   -3.807662963796968E-6   -9.814503238311491E-2    4.739661444428868E-1
 1.010447832635000E+10  -3.175771033383537E-1    3.766618160202643E-1    3.317395807781904E-4   -2.190467141515733E-5    3.282358781663618E-4   -1.871530273659269E-5   -9.760392681356400E-2    4.739927983944775E-1
 1.010448321517500E+10  -3.172137990453597E-1    3.767932045085759E-1    3.523391223396621E-4   -1.726891950612377E-5    3.184788395397089E-4    2.376786811186318E-5   -9.717768862276055E-2    4.741414559637108E-1
 1.010448810400000E+10  -3.170620360101570E-1    3.769853813901723E-1    3.673899048926009E-4   -5.232482912423512E-6    3.397637518860924E-4    1.322247261324038E-6   -9.670195691959572E-2    4.741690217552153E-1
 1.010449299282500E+10  -3.168725225281178E-1    3.772017645924791E-1    3.690651513559806E-4   -2.271409287030592E-5    3.969916350273291E-4    2.601609497579364E-5   -9.639887881836773E-2    4.742460650191003E-1
 1.010449788165000E+10  -3.166015978916313E-1    3.772870967725693E-1    3.772931119384667E-4   -1.838277894496604E-5    3.930237378344537E-4    3.722332991216309E-5   -9.578815207913852E-2    4.742851276312672E-1
 1.010450277047500E+10  -3.165722604904525E-1    3.776123193987583E-1    3.783355056039925E-4   -2.595546307750049E-5    4.156637501903312E-4    3.454457757987363E-5   -9.535018111586033E-2    4.743379882117327E-1
 1.010450765930000E+10  -3.162861248844377E-1    3.779786816447407E-1    4.141202672672292E-4   -1.060231700985696E-5    4.150529818832700E-4    3.031117271608455E-5   -9.491077285450679E-2    4.743566400254912E-1
 1.010451254812500E+10  -3.159983066476871E-1    3.780058205463432E-1    4.162937175886924E-4    1.322360786170130E-6    3.943515899747312E-4    2.099537748266749E-5   -9.429089328619317E-2    4.745482464874871E-1
 1.010451743695000E+10  -3.156853314539578E-1    3.780391814992432E-1    4.591053217143208E-4   -2.149839199738004E-5    4.463425683453821E-4    1.564682841838399E-5   -9.404640315036028E-2    4.745888449972936E-1
 1.010452232577500E+10  -3.154182253748054E-1    3.784202697383572E-1    4.680295723947807E-4   -1.251110859693279E-5    4.509856162275326E-4    3.823450737661991E-5   -9.352278610311640E-2    4.746823866262557E-1
 1.010452721460000E+10  -3.152825148787265E-1    3.786351912027894E-1    4.909192799984410E-4   -1.000391388811452E-5    4.625408675024719E-4    4.296547157233083E-5   -9.301482525491300E-2    4.747266167646343E-1
 1.010453210342500E+10  -3.149818523303444E-1    3.788130070746890E-1    4.799454062476084E-4   -9.611235358131564E-6    4.726573604789531E-4    1.351303602610427E-5   -9.250361259777730E-2    4.748217271831954E-1
 1.010453699225000E+10  -3.148535882088846E-1    3.789907595214647E-1    5.350937668458440E-4   -9.019558515550048E-6    4.806811961488455E-4    2.794099109906036E-5   -9.202110816111127E-2    4.748255232539759E-1
