#  HZ   S   RI   R     50.00 
! Rohde & Schwarz Vector Network Analyzer 
! Rohde-Schwarz,ZNB20-2Port,1311601062101988,3.16
! Created: UTC 3/20/2024, 4:50:06 PM
! freq[Hz]                re:S11                  im:S11                  re:S21                  im:S21                  re:S12                  im:S12                  re:S22                  im:S22
 1.010408791000000E+10  -3.348487955524103E-1    3.601137462808450E-1   -2.593632946190643E-4   -2.014417618160212E-4   -2.391270564095513E-4   -2.356884380946545E-4   -1.286318955145443E-1    4.665827662189460E-1
 1.010409282922500E+10  -3.344472751445576E-1    3.601854747048148E-1   -2.510468105342061E-4   -1.870037883235427E-4   -1.909358828913170E-4   -1.839900051274428E-4   -1.282397193356735E-1    4.666906526655156E-1
 1.010409774845000E+10  -3.342785575594627E-1    3.604034283688333E-1   -2.388866981373418E-4   -1.924253028134175E-4   -2.298354310324114E-4   -1.928454933770410E-4   -1.279629825412539E-1    4.667865742917328E-1
 1.010410266767500E+10  -3.340164186874282E-1    3.606501852351142E-1   -2.565900040913312E-4   -2.044925480546600E-4   -2.242633898476949E-4   -1.824898201836891E-4   -1.275193575765990E-1    4.670429931013469E-1
 1.010410758690000E+10  -3.338730275078104E-1    3.608462968815067E-1   -2.503955082868137E-4   -1.872181485476335E-4   -2.037389180519329E-4   -2.046080073943215E-4   -1.271833747356283E-1    4.670828044165877E-1
 1.010411250612500E+10  -3.335501222071441E-1    3.611666509168930E-1   -2.351025720755062E-4   -1.704316174760525E-4   -2.236149470980169E-4   -2.124124526517908E-4   -1.269373888898726E-1    4.670777998218026E-1
 1.010411742535000E+10  -3.335203634691745E-1    3.613241517706741E-1   -2.615236222530129E-4   -1.771991547884525E-4   -1.929810850841762E-4   -1.973888741416761E-4   -1.264220936325015E-1    4.671478846031420E-1
 1.010412234457500E+10  -3.331748565641701E-1    3.615519949381130E-1   -2.207816250274791E-4   -2.006599577736162E-4   -2.024880417565532E-4   -1.827354436876857E-4   -1.262217371679914E-1    4.671771612678706E-1
 1.010412726380000E+10  -3.329884999393467E-1    3.616936183639886E-1   -2.046748663240670E-4   -1.611917986887483E-4   -1.945738435701337E-4   -1.855613044827788E-4   -1.257468587082649E-1    4.673782663351933E-1
 1.010413218302500E+10  -3.326902623583116E-1    3.619218957881750E-1   -2.189503334620739E-4   -1.818585251906407E-4   -1.924580077550556E-4   -1.412039781592924E-4   -1.254195670718849E-1    4.674255275164185E-1
 1.010413710225000E+10  -3.326980862802594E-1    3.621460285639392E-1   -2.067703595807612E-4   -1.628306611999101E-4   -1.862467158502760E-4   -1.839925758244252E-4   -1.250645358099359E-1    4.676990845473181E-1
 1.010414202147500E+10  -3.324573689968945E-1    3.623509237509395E-1   -2.186603985601536E-4   -1.530815231544180E-4   -1.724978835274596E-4   -1.756085332542702E-4   -1.247579874910169E-1    4.677974914188893E-1
 1.010414694070000E+10  -3.321511452946864E-1    3.626573084286728E-1   -2.131925753631955E-4   -1.406643676041031E-4   -1.789239495989082E-4   -1.859432631641769E-4   -1.244275411775200E-1    4.677179773437811E-1
 1.010415185992500E+10  -3.319083848010694E-1    3.628511774592084E-1   -1.933331961357936E-4   -1.635365963106548E-4   -1.674113736820167E-4   -2.134646448155113E-4   -1.239964851742788E-1    4.678985963781814E-1
 1.010415677915000E+10  -3.316825310067529E-1    3.630239713393695E-1   -1.804621390608951E-4   -1.574965201421369E-4   -1.513661209008863E-4   -1.650733730266605E-4   -1.236763519250776E-1    4.680383209262209E-1
 1.010416169837500E+10  -3.314580991896667E-1    3.632651766164389E-1   -1.664638642486044E-4   -1.209585538635500E-4   -1.667805510542804E-4   -1.932568131487422E-4   -1.232577781876441E-1    4.681817362391981E-1
 1.010416661760000E+10  -3.313447158190700E-1    3.633461993703605E-1   -1.727229897878459E-4   -1.596336663402534E-4   -1.386720091016915E-4   -1.682831572063472E-4   -1.228584325288728E-1    4.682209609231725E-1
 1.010417153682500E+10  -3.310325397959386E-1    3.635666019910334E-1   -1.945528953135911E-4   -1.750526364018209E-4   -1.617266608876685E-4   -1.681169121365255E-4   -1.225910973293720E-1    4.684347591246772E-1
 1.010417645605000E+10  -3.307857158946607E-1    3.638271420355628E-1   -1.799590298487839E-4   -1.282617575818956E-4   -1.324959798961968E-4   -1.827008688252580E-4   -1.220659382867665E-1    4.684008986168668E-1
 1.010418137527500E+10  -3.306138128707193E-1    3.641294175162103E-1   -1.619621786439048E-4   -1.682037751887198E-4   -1.256054865990264E-4   -1.325161827475219E-4   -1.217932501260117E-1    4.685499932742660E-1
 1.010418629450000E+10  -3.304298921926541E-1    3.641841345962911E-1   -1.603356595284707E-4   -1.635559285085979E-4   -1.250542914278820E-4   -1.560128010776264E-4   -1.214478621096224E-1    4.686637296701869E-1
 1.010419121372500E+10  -3.301948531371759E-1    3.645976986667276E-1   -1.188523427806336E-4   -1.300143118105439E-4   -1.246475768771626E-4   -1.629506250906876E-4   -1.210798783851736E-1    4.687328335530607E-1
 1.010419613295000E+10  -3.299885381699130E-1    3.647177457253999E-1   -1.400923108946746E-4   -1.447661424273045E-4   -1.157920023191752E-4   -1.977225443088499E-4   -1.208046765665859E-1    4.688021634773513E-1
 1.010420105217500E+10  -3.299153039306619E-1    3.650257322376419E-1   -1.692207746555156E-4   -1.600585368527157E-4   -1.340852167329528E-4   -1.568160579470613E-4   -1.202647072979780E-1    4.689521015463768E-1
 1.010420597140000E+10  -3.295721467581453E-1    3.651604641738953E-1   -1.311274487746634E-4   -9.941803790611968E-5   -1.193834514949066E-4   -1.760881925479378E-4   -1.198972360443926E-1    4.689872747803759E-1
 1.010421089062500E+10  -3.292717160468367E-1    3.653132756494174E-1   -1.221290036437559E-4   -1.308897535671381E-4   -1.355034629071348E-4   -1.786956310643934E-4   -1.195530350343794E-1    4.690289999480308E-1
 1.010421580985000E+10  -3.291068099889329E-1    3.654256798546127E-1   -1.479509268416974E-4   -1.625693669615039E-4   -1.257122541155807E-4   -1.356737862896411E-4   -1.191986580357599E-1    4.692809905558063E-1
 1.010422072907500E+10  -3.289637213706980E-1    3.658061398129001E-1   -1.350365536485143E-4   -1.335288390803694E-4   -1.119902735085738E-4   -1.385939491614480E-4   -1.189287153109272E-1    4.692283486331693E-1
 1.010422564830000E+10  -3.287348387910906E-1    3.659988892238709E-1   -1.574745752065069E-4   -1.607875816004707E-4   -1.134727374829166E-4   -1.320559278383076E-4   -1.184336399366731E-1    4.695069205467274E-1
 1.010423056752500E+10  -3.284939158274647E-1    3.662393100975583E-1   -1.065996344806451E-4   -1.258751695654246E-4   -1.139537863886931E-4   -1.200151216605788E-4   -1.181595311228643E-1    4.695706356005628E-1
 1.010423548675000E+10  -3.283358652051123E-1    3.664279462555247E-1   -1.132185369040509E-4   -1.307597428174711E-4   -9.467228245766189E-5   -1.464028996723318E-4   -1.178503788655615E-1    4.697450747332254E-1
 1.010424040597500E+10  -3.281235503734324E-1    3.665139436376409E-1   -8.259198568090096E-5   -1.194889929741974E-4   -9.860372530547381E-5   -1.321334214828248E-4   -1.173782788588263E-1    4.696757931217213E-1
 1.010424532520000E+10  -3.279000979165022E-1    3.668080822475123E-1   -8.191155063140299E-5   -1.213589963641369E-4   -8.019207622023866E-5   -1.047593081631906E-4   -1.169585867031979E-1    4.698513999891609E-1
 1.010425024442500E+10  -3.275517155101524E-1    3.670429721415454E-1   -1.032277414596406E-4   -1.075597015474943E-4   -5.720267201326556E-5   -1.170857624136695E-4   -1.165585798019633E-1    4.697430939375416E-1
 1.010425516365000E+10  -3.274545811096320E-1    3.672229006428819E-1   -8.135664026549410E-5   -1.461418245409575E-4   -6.670041352703737E-5   -1.014906373318595E-4   -1.161753155641270E-1    4.700596774521821E-1
 1.010426008287500E+10  -3.273438933758153E-1    3.674108083271298E-1   -7.325709361074931E-5   -1.138456959692763E-4   -7.237258618317568E-5   -1.228591872918724E-4   -1.157731107217707E-1    4.701336837549780E-1
 1.010426500210000E+10  -3.269652531756330E-1    3.676540933106171E-1   -3.705648531667152E-5   -1.244349742410038E-4   -4.281997746645751E-5   -1.257139087346660E-4   -1.154240967603969E-1    4.702830000671543E-1
 1.010426992132500E+10  -3.269221488389953E-1    3.677567847588651E-1   -7.405527506833544E-5   -1.452158394941657E-4   -3.797143354963123E-5   -1.217196881850999E-4   -1.151008533498115E-1    4.702804908422572E-1
 1.010427484055000E+10  -3.265640248804911E-1    3.681731609560132E-1   -3.442600541977198E-5   -1.218283761603494E-4   -2.052551119938379E-5   -1.109278957306733E-4   -1.147260359028370E-1    4.703599147775218E-1
 1.010427975977500E+10  -3.263712464431215E-1    3.682755157204362E-1   -5.099613806379266E-5   -1.088746572083851E-4   -5.163885728083855E-5   -9.842323297641971E-5   -1.142704959082396E-1    4.705342696715172E-1
 1.010428467900000E+10  -3.262500235001380E-1    3.684174260293398E-1   -6.051335500387482E-5   -1.146058296375526E-4   -2.265186673474529E-5   -1.156156033605721E-4   -1.138537453300347E-1    4.705374234051823E-1
 1.010428959822500E+10  -3.257953848147657E-1    3.686799828292308E-1   -5.596924401285898E-5   -1.152105196594708E-4   -3.036506262631027E-6   -1.269694635080455E-4   -1.135580929471812E-1    4.705409010427736E-1
 1.010429451745000E+10  -3.257092900713395E-1    3.687891468147982E-1   -1.349320868193818E-5   -9.001228718033931E-5   -2.328936475605109E-5   -1.104327940301203E-4   -1.131966045834873E-1    4.707653026047330E-1
 1.010429943667500E+10  -3.254955585787062E-1    3.692077398000240E-1   -1.523457592834403E-6   -8.929533617616243E-5    4.848252007657721E-6   -1.079150791646247E-4   -1.127178527708132E-1    4.709521897608350E-1
 1.010430435590000E+10  -3.252299683286365E-1    3.692997987768424E-1   -9.910142117266385E-6   -1.285569678243337E-4    5.368358415292933E-6   -7.280006933828660E-5   -1.124903918226705E-1    4.710215906187750E-1
 1.010430927512500E+10  -3.250249848533640E-1    3.695750397187443E-1   -1.542111263150565E-5   -8.513851350235367E-5    2.087667227012937E-5   -1.023370296286330E-4   -1.119854844921555E-1    4.711267893032509E-1
 1.010431419435000E+10  -3.248832896344840E-1    3.696618375661621E-1    1.533503238042948E-5   -9.624890324557767E-5    2.463551576788816E-5   -9.804028078129018E-5   -1.115656418971653E-1    4.711416038435574E-1
 1.010431911357500E+10  -3.245395243984858E-1    3.700264163187634E-1    1.031212421135505E-5   -7.787181933051333E-5    4.553383138943546E-5   -1.193160213635445E-4   -1.112415176203639E-1    4.712596435537909E-1
 1.010432403280000E+10  -3.243394933732151E-1    3.701315885635608E-1    1.799948363567080E-5   -7.283386334851505E-5    5.089546963313406E-5   -8.224548202023717E-5   -1.108319167325738E-1    4.713563877354529E-1
 1.010432895202500E+10  -3.242140073628545E-1    3.704305031298587E-1    4.113220563653074E-5   -9.807228357328822E-5    4.406575892946308E-5   -1.197070291098685E-4   -1.103381369224943E-1    4.713629296034916E-1
 1.010433387125000E+10  -3.240514051695396E-1    3.704537954971783E-1    6.860276714134714E-5   -1.096275260211903E-4    4.981741727134255E-5   -9.442591857071890E-5   -1.099573392727767E-1    4.714180810502336E-1
 1.010433879047500E+10  -3.238414594139062E-1    3.707536617313349E-1    5.831872971627531E-5   -8.671465381358736E-5    6.186472133035702E-5   -8.739562468919692E-5   -1.096598300667494E-1    4.716817886962589E-1
 1.010434370970000E+10  -3.235194083366522E-1    3.709559869524148E-1    8.201901705415506E-5   -9.503426081899291E-5    4.594968318010495E-5   -8.694161470642947E-5   -1.092051058309441E-1    4.716497633756953E-1
 1.010434862892500E+10  -3.234518892037030E-1    3.712996163647682E-1    7.484994762312027E-5   -1.026547898890204E-4    3.907327766386945E-5   -8.206221791889139E-5   -1.087841522322477E-1    4.717625024459767E-1
 1.010435354815000E+10  -3.231533553643676E-1    3.713782067133763E-1    5.162701103166173E-5   -1.127790526674595E-4    8.752973062858336E-5   -9.389186770057112E-5   -1.083756885979362E-1    4.718679101928234E-1
 1.010435846737500E+10  -3.228348641955290E-1    3.716710275025423E-1    8.775066735250864E-5   -8.467744526388828E-5    9.499334954526154E-5   -9.233165229838389E-5   -1.080121958632826E-1    4.720678484571112E-1
 1.010436338660000E+10  -3.227175306553619E-1    3.717644188296771E-1    9.523005480399094E-5   -8.155056116027297E-5    9.007668554668977E-5   -3.400959494190790E-5   -1.077178346718895E-1    4.720801832537781E-1
 1.010436830582500E+10  -3.224623481135286E-1    3.720405203864244E-1    9.549697132973534E-5   -7.037496164033643E-5    1.313296023936714E-4   -6.119064754644351E-5   -1.071906608436190E-1    4.721688366330201E-1
 1.010437322505000E+10  -3.222495785486940E-1    3.722560710297399E-1    1.112126987311723E-4   -4.737234242042970E-5    1.324721834456861E-4   -7.317592576508012E-5   -1.066937544932532E-1    4.722894699185595E-1
 1.010437814427500E+10  -3.219146259578455E-1    3.725240966556420E-1    1.098938588174659E-4   -5.581534248622954E-5    1.007013807674210E-4   -6.859571786887221E-5   -1.063304656464027E-1    4.722622028344665E-1
 1.010438306350000E+10  -3.217275116385122E-1    3.726190803831592E-1    1.254448427650964E-4   -7.625686488488200E-5    1.144871055498683E-4   -2.341483006904561E-5   -1.059206871893231E-1    4.725027786813291E-1
 1.010438798272500E+10  -3.216300539877860E-1    3.727716874295638E-1    1.146705868271490E-4   -1.061511512254655E-4    1.499801480558876E-4   -2.865427327892430E-5   -1.056504828444484E-1    4.724454758722390E-1
 1.010439290195000E+10  -3.214207808409464E-1    3.730127802068895E-1    1.282444184750668E-4   -8.813888663604857E-5    1.658348309379671E-4   -5.985540622451400E-5   -1.052738466660776E-1    4.725618144776457E-1
 1.010439782117500E+10  -3.210980578492637E-1    3.732851532011839E-1    1.658206495152110E-4   -4.435061861128311E-5    1.518404074533766E-4   -5.654482954125439E-5   -1.046727476745327E-1    4.726235454458628E-1
 1.010440274040000E+10  -3.209495465760818E-1    3.734828731707207E-1    1.977271919285853E-4   -6.752085479193436E-5    1.572559866362792E-4   -6.202978598849921E-6   -1.043355011358151E-1    4.727288055402257E-1
 1.010440765962500E+10  -3.206846158383437E-1    3.737652410062780E-1    1.705309298452139E-4   -4.608236744208115E-5    1.711336938961185E-4   -4.066119933588150E-5   -1.038614894011344E-1    4.727967347401310E-1
 1.010441257885000E+10  -3.203767268897688E-1    3.737929613056959E-1    1.687854233142808E-4   -3.833146710911618E-5    1.868993925204493E-4   -2.271097448952380E-5   -1.034791689227307E-1    4.730840723276645E-1
 1.010441749807500E+10  -3.202977676752854E-1    3.739983899488526E-1    1.856377681348983E-4   -5.735014655687099E-5    1.991404568307819E-4   -3.155093181336732E-5   -1.030111537062911E-1    4.729952933021600E-1
 1.010442241730000E+10  -3.201053358305538E-1    3.742512146171911E-1    1.764847117996113E-4   -4.297623275050151E-5    2.147465162929573E-4   -3.002553495087407E-5   -1.026240393056499E-1    4.731745381111496E-1
 1.010442733652500E+10  -3.197074071880949E-1    3.744437813574127E-1    2.172449970521879E-4   -2.803633421509402E-5    2.047047710129288E-4   -1.963529408213005E-5   -1.021321533610660E-1    4.731379902643603E-1
 1.010443225575000E+10  -3.195317221393037E-1    3.746127572083277E-1    2.626050438106140E-4   -5.465890320645785E-5    2.315583352119225E-4   -1.024950238834927E-5   -1.016120405693245E-1    4.731751416919242E-1
 1.010443717497500E+10  -3.192861349412345E-1    3.748837845461828E-1    2.251612932116488E-4   -3.976004476353718E-5    2.283178405095253E-4   -5.185142592877745E-5   -1.013507075434759E-1    4.734611907485186E-1
 1.010444209420000E+10  -3.191443985200213E-1    3.750801781965731E-1    2.584106838185603E-4   -4.289162782004350E-5    2.306193666294510E-4    6.255229318239005E-6   -1.008773817410858E-1    4.734909316445097E-1
 1.010444701342500E+10  -3.188993026992352E-1    3.753485078794294E-1    2.857136467605592E-4   -3.853717764391533E-5    2.562991359280946E-4   -3.003635428681359E-5   -1.004401000280270E-1    4.735514011495797E-1
 1.010445193265000E+10  -3.187172156426963E-1    3.755707679976951E-1    2.574050997107175E-4   -3.472791848835768E-5    2.604380858059083E-4   -1.073350086424072E-5   -1.000131070156375E-1    4.736114629006793E-1
 1.010445685187500E+10  -3.184233720098461E-1    3.756885469386278E-1    2.850058825204676E-4   -3.549772322099009E-5    3.049181247357653E-4   -1.594789050122264E-5   -9.963463007975204E-2    4.737365170950800E-1
 1.010446177110000E+10  -3.181850208047601E-1    3.759439383610941E-1    2.860316139199539E-4   -3.202656020724752E-5    2.965679582925660E-4   -6.119099978501166E-6   -9.907292307407481E-2    4.738209938727102E-1
 1.010446669032500E+10  -3.179934349127093E-1    3.760663296308981E-1    3.143420599524294E-4   -6.902462615532907E-6    3.012751767568378E-4   -1.525652744251369E-5   -9.868414641723255E-2    4.737497202771894E-1
 1.010447160955000E+10  -3.179521359048473E-1    3.762915890816287E-1    3.211084009124405E-4   -4.264539385719458E-5    3.322055819551677E-4    1.431453058872486E-5   -9.818870797421475E-2    4.737401379773943E-1
 1.010447652877500E+10  -3.176734610137281E-1    3.764612768227656E-1    3.477389559643004E-4   -7.471546225875053E-6    3.275710295664262E-4    1.739780210062785E-6   -9.775218627562388E-2    4.739684414683981E-1
 1.010448144800000E+10  -3.172957145693648E-1    3.767030904766412E-1    3.448701225811134E-4   -4.654706014717552E-5    3.316772443782450E-4    1.412139586392250E-5   -9.737683626392060E-2    4.741211370409229E-1
 1.010448636722500E+10  -3.170466869362690E-1    3.770238311330069E-1    3.803256556512125E-4   -3.223096240575732E-5    3.612112261838754E-4    6.153939711217913E-6   -9.676898054409458E-2    4.741294750546018E-1
 1.010449128645000E+10  -3.168646941796060E-1    3.771380016575449E-1    3.689752162195045E-4   -2.835381977608799E-5    3.749051304537524E-4   -3.519103802688810E-7   -9.643529704913174E-2    4.741071286472309E-1
 1.010449620567500E+10  -3.167275256360341E-1    3.773571908524295E-1    4.124519886573212E-4   -3.244700366955044E-5    3.741442038894052E-4    9.988940803285443E-6   -9.592176545170229E-2    4.743928423889056E-1
 1.010450112490000E+10  -3.165171852930867E-1    3.775668242933445E-1    3.917389763428043E-4   -2.589001634725180E-5    3.973513988458909E-4    4.532263950293095E-6   -9.541398166642714E-2    4.742190831531272E-1
 1.010450604412500E+10  -3.162398997215338E-1    3.776427770659529E-1    3.888251511216340E-4   -2.584995771737957E-5    3.817176155473434E-4    2.510866167015876E-5   -9.484493691355157E-2    4.744288279767316E-1
 1.010451096335000E+10  -3.159832873275199E-1    3.778788524434377E-1    4.229116404716290E-4   -1.085811643110072E-5    4.355172039393732E-4    2.921817797835413E-5   -9.443541241578819E-2    4.743902365657898E-1
 1.010451588257500E+10  -3.157332294134984E-1    3.781545319409312E-1    4.408410353172680E-4    2.054284243037657E-6    4.274748281424339E-4    4.300171880025646E-5   -9.389943898518316E-2    4.745827818567245E-1
 1.010452080180000E+10  -3.156485668148211E-1    3.782950590862706E-1    4.733086120054921E-4   -1.889533583312607E-5    4.433354719605289E-4    3.507603300184059E-6   -9.353429104170620E-2    4.745840677236326E-1
 1.010452572102500E+10  -3.152521385011164E-1    3.785585538914809E-1    4.749865048366446E-4   -1.883845302064579E-5    4.691711836324159E-4    3.219258269554339E-5   -9.298745498143229E-2    4.746130842249147E-1
 1.010453064025000E+10  -3.151520148882302E-1    3.787480937371920E-1    4.903860282257386E-4    1.770424634893394E-5    5.045084391798962E-4    4.690101804376032E-5   -9.256854843591258E-2    4.746845517200121E-1
