#  HZ   S   RI   R     50.00 
! Rohde & Schwarz Vector Network Analyzer 
! Rohde-Schwarz,ZNB20-2Port,1311601062101988,3.16
! Created: UTC 3/20/2024, 5:05:20 PM
! freq[Hz]                re:S11                  im:S11                  re:S21                  im:S21                  re:S12                  im:S12                  re:S22                  im:S22
 1.010090150800000E+10  -4.389546315594273E-1    1.975133459680110E-1   -5.880918593778577E-4   -7.847490696392663E-4   -4.869772699711567E-4   -8.179556608531650E-4   -3.107402187470161E-1    3.578227174179084E-1
 1.010092151452500E+10  -4.384021989278339E-1    1.988231453874889E-1   -5.603560810348299E-4   -7.985256795762851E-4   -4.996902513441325E-4   -8.062376954514181E-4   -3.097641978492652E-1    3.587262721112970E-1
 1.010094152105000E+10  -4.380675187765223E-1    1.997991281011576E-1   -5.954814515444026E-4   -7.701441884379150E-4   -4.958671512991456E-4   -7.987929932086132E-4   -3.087566584886608E-1    3.595252892601249E-1
 1.010096152757500E+10  -4.376123263845719E-1    2.010656663352816E-1   -6.153673191935669E-4   -7.672239723474310E-4   -5.058246798163311E-4   -7.743559222783338E-4   -3.078391251616164E-1    3.604402920918485E-1
 1.010098153410000E+10  -4.371344843892618E-1    2.021206625026155E-1   -5.609814364356034E-4   -7.654513236840198E-4   -4.854541334638670E-4   -7.822311159323860E-4   -3.069254394942093E-1    3.614556157297134E-1
 1.010100154062500E+10  -4.366772091785915E-1    2.033759189381711E-1   -5.736276201158419E-4   -7.610368442743624E-4   -4.963837220617079E-4   -7.900702628825168E-4   -3.058728087000884E-1    3.622638745469741E-1
 1.010102154715000E+10  -4.362356150730181E-1    2.043509489760121E-1   -5.718903114626262E-4   -7.525944580115564E-4   -4.958165791658133E-4   -8.031036963273409E-4   -3.050305553417600E-1    3.631471809804128E-1
 1.010104155367500E+10  -4.357694514109368E-1    2.055387261016614E-1   -5.608783500244520E-4   -7.616842959717409E-4   -5.134801100403765E-4   -7.669418773830254E-4   -3.039799562271916E-1    3.640905924680737E-1
 1.010106156020000E+10  -4.353818922664692E-1    2.066929390211500E-1   -5.877490812710971E-4   -7.485896484260693E-4   -4.744791865456872E-4   -7.606145140339277E-4   -3.030737370630070E-1    3.649886587743874E-1
 1.010108156672500E+10  -4.347888592605200E-1    2.078519179045892E-1   -5.926233905228843E-4   -7.717434865773806E-4   -4.969046403107019E-4   -7.978439806468365E-4   -3.021365795892074E-1    3.657599911486638E-1
 1.010110157325000E+10  -4.343000991453501E-1    2.090334816797424E-1   -5.993401335840001E-4   -7.364293210005541E-4   -5.047706630388439E-4   -7.926656774396771E-4   -3.011635621145073E-1    3.666171373210270E-1
 1.010112157977500E+10  -4.339419575180860E-1    2.100787864449062E-1   -6.042963058740850E-4   -7.588238093585710E-4   -5.076934747504383E-4   -7.899321539920894E-4   -3.001695707997879E-1    3.675719809818119E-1
 1.010114158630000E+10  -4.334149573637973E-1    2.111638724161720E-1   -5.889776846274760E-4   -7.531209265350982E-4   -4.948071250762887E-4   -7.305974352844832E-4   -2.992559488539392E-1    3.685320810100822E-1
 1.010116159282500E+10  -4.328512995204943E-1    2.122760719699383E-1   -5.624984305068591E-4   -7.657202965755881E-4   -4.993645128766964E-4   -7.961624050492984E-4   -2.983039119796093E-1    3.691749604981017E-1
 1.010118159935000E+10  -4.325069500793510E-1    2.135529494612366E-1   -6.073179345447660E-4   -7.679473708812508E-4   -5.206524365326112E-4   -7.994187226553305E-4   -2.974213834867281E-1    3.700515303076277E-1
 1.010120160587500E+10  -4.319647880474665E-1    2.147086493281555E-1   -5.954339477207105E-4   -7.566397446599159E-4   -5.145614406539643E-4   -7.527275397445115E-4   -2.964051376448238E-1    3.708986815035835E-1
 1.010122161240000E+10  -4.315202303148586E-1    2.157043629219192E-1   -5.973515462792413E-4   -7.635566251950343E-4   -5.277742533972560E-4   -7.650183760322636E-4   -2.954562119320581E-1    3.718058232974092E-1
 1.010124161892500E+10  -4.309812123699230E-1    2.168616811143730E-1   -5.724987009791225E-4   -7.618591599997518E-4   -5.278671691469718E-4   -7.617011714217476E-4   -2.943275709143661E-1    3.726236817111573E-1
 1.010126162545000E+10  -4.305577744106191E-1    2.180319745737874E-1   -5.816148707323605E-4   -7.718610584632179E-4   -5.003634714941240E-4   -7.357249188142326E-4   -2.933472994459418E-1    3.736343076917968E-1
 1.010128163197500E+10  -4.301142002705990E-1    2.191059005047736E-1   -6.057206757586156E-4   -7.484360719109370E-4   -5.339131251050589E-4   -7.510368546107683E-4   -2.923211383999828E-1    3.744048573662268E-1
 1.010130163850000E+10  -4.295923933173581E-1    2.201117735686581E-1   -6.197454047408893E-4   -7.418129516163185E-4   -5.312973986315882E-4   -7.497868437765795E-4   -2.913762987370738E-1    3.751467945653955E-1
 1.010132164502500E+10  -4.290469666871140E-1    2.212678999384121E-1   -6.063165830206046E-4   -7.280777792164256E-4   -5.106175323547786E-4   -7.502809438411261E-4   -2.904189390288770E-1    3.760519035758076E-1
 1.010134165155000E+10  -4.284372349688555E-1    2.224266549471825E-1   -5.876237920685952E-4   -7.314616858075146E-4   -5.464822102701077E-4   -7.602926179346263E-4   -2.894153252004825E-1    3.767808828509064E-1
 1.010136165807500E+10  -4.280021255439534E-1    2.234811779277588E-1   -6.028383662254140E-4   -7.177700180368354E-4   -5.414257487715701E-4   -7.165641213729554E-4   -2.885602453916686E-1    3.777471309730533E-1
 1.010138166460000E+10  -4.275273581617191E-1    2.245359062228386E-1   -5.869408843012421E-4   -7.386528754950914E-4   -5.041333112562251E-4   -7.622036396879296E-4   -2.875998556088740E-1    3.785032901026064E-1
 1.010140167112500E+10  -4.268927783459107E-1    2.257291628098248E-1   -6.232750025238515E-4   -7.424013715276966E-4   -5.340224950393926E-4   -7.370375149190905E-4   -2.865437732692897E-1    3.793890033110390E-1
 1.010142167765000E+10  -4.264059880893389E-1    2.269069975304049E-1   -6.013843797400089E-4   -7.324459436745869E-4   -5.429313226550508E-4   -7.575524686506130E-4   -2.856691806841129E-1    3.802376105608267E-1
 1.010144168417500E+10  -4.259560646450173E-1    2.278457539662846E-1   -6.154276799679605E-4   -7.203045002910675E-4   -5.385895218710279E-4   -7.459392484758775E-4   -2.845459563672030E-1    3.811418781141039E-1
 1.010146169070000E+10  -4.255991474813614E-1    2.289757691322235E-1   -6.014236076230595E-4   -6.997545679982470E-4   -5.379893541032679E-4   -7.294148290219114E-4   -2.835545515189313E-1    3.818387503028011E-1
 1.010148169722500E+10  -4.249294360532673E-1    2.300722446343937E-1   -5.993993472053165E-4   -7.255470943531534E-4   -5.172243843841479E-4   -7.284653027804304E-4   -2.825427278959946E-1    3.826705867538514E-1
 1.010150170375000E+10  -4.244279851250961E-1    2.312951502468999E-1   -6.163316059074033E-4   -7.260296003754971E-4   -5.024626492952292E-4   -7.449412845791657E-4   -2.815718383117789E-1    3.834009423275385E-1
 1.010152171027500E+10  -4.239147651326897E-1    2.322483008474586E-1   -6.097038933238126E-4   -7.097152437598496E-4   -5.214559520621469E-4   -7.183789404165510E-4   -2.804716348521201E-1    3.844272244428938E-1
 1.010154171680000E+10  -4.234144406103305E-1    2.335176476971070E-1   -6.243547904783881E-4   -7.230450015262554E-4   -5.340900959144688E-4   -7.278424659333647E-4   -2.796064126781125E-1    3.851119527395763E-1
 1.010156172332500E+10  -4.228027581704435E-1    2.344765921645595E-1   -5.994284354407316E-4   -7.164987800036440E-4   -5.400386641123668E-4   -7.277088947587890E-4   -2.784294853916641E-1    3.858170129461723E-1
 1.010158172985000E+10  -4.222776420302140E-1    2.355970114083805E-1   -6.265473777910046E-4   -7.163135518329094E-4   -5.044554728367602E-4   -7.241165365849524E-4   -2.775391892496364E-1    3.866685038563320E-1
 1.010160173637500E+10  -4.218310491647209E-1    2.366730266869391E-1   -6.003114155472037E-4   -6.928809875691186E-4   -5.144194670093021E-4   -6.932823566914059E-4   -2.763968507302353E-1    3.874439280273149E-1
 1.010162174290000E+10  -4.213278958346051E-1    2.377380438673374E-1   -5.780415146365218E-4   -7.242368732587030E-4   -5.548949451651705E-4   -7.185820133067298E-4   -2.753995318545009E-1    3.882642724969124E-1
 1.010164174942500E+10  -4.206191666839854E-1    2.388163635148611E-1   -5.759921965266480E-4   -7.158885785858425E-4   -5.288355015325302E-4   -7.100556369366854E-4   -2.742725621364155E-1    3.891413370117487E-1
 1.010166175595000E+10  -4.201225920297035E-1    2.400663188345412E-1   -6.038152037338169E-4   -7.010135661906634E-4   -5.421828550165360E-4   -7.131035473159813E-4   -2.733833453079414E-1    3.899766175150888E-1
 1.010168176247500E+10  -4.195165729552219E-1    2.409045315464475E-1   -6.036219679067537E-4   -6.892184032270145E-4   -5.178948238958971E-4   -7.170818397186763E-4   -2.722934183305712E-1    3.906079759157586E-1
 1.010170176900000E+10  -4.190775637870938E-1    2.421692418771647E-1   -6.220979323987462E-4   -6.668258454275153E-4   -5.272432713371888E-4   -6.999862494469758E-4   -2.712505164613600E-1    3.915361244707201E-1
 1.010172177552500E+10  -4.184876683272636E-1    2.432357655125752E-1   -6.082995365596640E-4   -6.682300712899841E-4   -5.234622532379585E-4   -6.880284472960296E-4   -2.702742904852352E-1    3.922702959120118E-1
 1.010174178205000E+10  -4.179173895414628E-1    2.442961970246781E-1   -6.017516360459670E-4   -6.972007142397522E-4   -5.247594789067563E-4   -7.089797174520073E-4   -2.690870498623585E-1    3.930082702961062E-1
 1.010176178857500E+10  -4.173104205370144E-1    2.454092885180325E-1   -5.883029919061341E-4   -6.851721723565235E-4   -5.631228962986831E-4   -6.671930277072687E-4   -2.681187646212151E-1    3.939108170636375E-1
 1.010178179510000E+10  -4.168588654791497E-1    2.465222346297370E-1   -5.849350387718006E-4   -6.788096705874175E-4   -5.506238185561350E-4   -7.195496574368733E-4   -2.670798256885640E-1    3.947507420759421E-1
 1.010180180162500E+10  -4.161836375002262E-1    2.476484114711131E-1   -6.090448452443232E-4   -6.957341345669229E-4   -5.200385822288177E-4   -7.031472323995588E-4   -2.660561734153081E-1    3.955581501355246E-1
 1.010182180815000E+10  -4.157100575237666E-1    2.485566847257329E-1   -6.204388156270104E-4   -6.431230586312714E-4   -5.715137665528173E-4   -7.015018105731951E-4   -2.650846300423716E-1    3.961729715587918E-1
 1.010184181467500E+10  -4.151359620590633E-1    2.497298853194780E-1   -5.853860597255970E-4   -6.875183633472761E-4   -5.360207126013731E-4   -6.701699915144316E-4   -2.639985397216053E-1    3.970610454199156E-1
 1.010186182120000E+10  -4.145007579468752E-1    2.508495376486975E-1   -6.082234514603256E-4   -6.489113048850826E-4   -5.470587324370869E-4   -6.889837407465902E-4   -2.629363208815490E-1    3.977817982464433E-1
 1.010188182772500E+10  -4.139262641989529E-1    2.518125610498081E-1   -6.348127469458859E-4   -6.605641722220636E-4   -5.413743831899708E-4   -7.107540796141386E-4   -2.618083298128182E-1    3.984803597756480E-1
 1.010190183425000E+10  -4.133175619167025E-1    2.528673046640238E-1   -6.051910757952091E-4   -6.540752832327596E-4   -5.527695728131261E-4   -6.880364963277903E-4   -2.606433335083947E-1    3.993045193767480E-1
 1.010192184077500E+10  -4.127361405508552E-1    2.541370226859256E-1   -5.854557004255505E-4   -6.584504891382572E-4   -5.015104518566035E-4   -6.949794732013834E-4   -2.597465959112037E-1    3.999933285228850E-1
 1.010194184730000E+10  -4.123068804588116E-1    2.550669588434443E-1   -6.041215300624451E-4   -6.620293229631696E-4   -5.145621414757117E-4   -6.791666881422375E-4   -2.586573115355341E-1    4.008326587444940E-1
 1.010196185382500E+10  -4.115786900246238E-1    2.561660318573111E-1   -6.122905830470023E-4   -6.480053861023703E-4   -5.416108956363344E-4   -6.678486007410382E-4   -2.576298628857689E-1    4.015667014436742E-1
 1.010198186035000E+10  -4.110106740703210E-1    2.571097182619640E-1   -5.854447025642985E-4   -6.282120640259212E-4   -5.103851621219858E-4   -6.473123245793489E-4   -2.565465248996857E-1    4.022143339713358E-1
 1.010200186687500E+10  -4.104124819995154E-1    2.582481171077263E-1   -5.845289560818153E-4   -6.581499564647765E-4   -5.308447666334943E-4   -6.664486741121747E-4   -2.555152657744086E-1    4.029240784412991E-1
 1.010202187340000E+10  -4.099220717232877E-1    2.593339220025728E-1   -6.013089043833718E-4   -6.238126099249578E-4   -5.405500991592686E-4   -6.661689991259211E-4   -2.543746834236558E-1    4.038021538304039E-1
 1.010204187992500E+10  -4.091577551613820E-1    2.604048655788225E-1   -6.139030100553706E-4   -6.520385422952530E-4   -5.285533637685128E-4   -6.527923239494564E-4   -2.532956519927866E-1    4.045136199173360E-1
 1.010206188645000E+10  -4.087258419178619E-1    2.614380008078485E-1   -6.217265638047368E-4   -6.526110186513030E-4   -5.326607152255075E-4   -6.509632086800494E-4   -2.522818006735724E-1    4.051390832553002E-1
 1.010208189297500E+10  -4.081559292292646E-1    2.625274097368814E-1   -6.072048860903201E-4   -6.266790094039409E-4   -5.444511962421605E-4   -6.463510292956287E-4   -2.512274447299478E-1    4.060137498442247E-1
 1.010210189950000E+10  -4.075377454469635E-1    2.635942207606933E-1   -6.018534249528298E-4   -6.159092742721764E-4   -5.431385333988488E-4   -6.512170085610617E-4   -2.501981607102361E-1    4.066259963300554E-1
 1.010212190602500E+10  -4.068744156158913E-1    2.646607827487248E-1   -6.093880038496422E-4   -6.286877613096328E-4   -5.306568695237493E-4   -6.332426764043213E-4   -2.490944041412014E-1    4.074016070819508E-1
 1.010214191255000E+10  -4.062117432063801E-1    2.656636418652267E-1   -6.051498862911915E-4   -6.238944410881412E-4   -5.462661021179542E-4   -6.357549746866289E-4   -2.480480704155773E-1    4.082311156468277E-1
 1.010216191907500E+10  -4.055945564642079E-1    2.668603095797679E-1   -6.206980985813327E-4   -6.070207262946767E-4   -5.406049246433159E-4   -6.309024550522733E-4   -2.469006696227719E-1    4.088390086831012E-1
 1.010218192560000E+10  -4.050265019210303E-1    2.676393708845713E-1   -5.927567518312916E-4   -6.428695949507177E-4   -5.478340454995820E-4   -6.384329097721227E-4   -2.457641343741577E-1    4.096530513059906E-1
 1.010220193212500E+10  -4.044044304718244E-1    2.688166465564600E-1   -6.044637216735274E-4   -6.177852809818162E-4   -5.290177289272388E-4   -6.203159989906599E-4   -2.446033382690312E-1    4.103936621744413E-1
 1.010222193865000E+10  -4.037067709196297E-1    2.698024376093252E-1   -6.111326492165991E-4   -6.068734683532910E-4   -5.342379393863114E-4   -6.351147517168203E-4   -2.435022042076018E-1    4.109984979158531E-1
 1.010224194517500E+10  -4.030403477864803E-1    2.708083581391046E-1   -6.043444902758686E-4   -5.845954233574049E-4   -5.359369112326823E-4   -6.376443449710125E-4   -2.423603905049426E-1    4.117517374900057E-1
 1.010226195170000E+10  -4.023894597213340E-1    2.718912047766884E-1   -6.050964166629940E-4   -5.996802971671352E-4   -5.293952799477749E-4   -5.890680674828605E-4   -2.414742331031981E-1    4.124382342484799E-1
 1.010228195822500E+10  -4.018072078663935E-1    2.729349374638289E-1   -5.799431133430748E-4   -5.927375044368239E-4   -5.098535281686259E-4   -6.203813076810173E-4   -2.403146407132753E-1    4.131162716066550E-1
 1.010230196475000E+10  -4.012443664727812E-1    2.739408552557202E-1   -5.951794262359909E-4   -5.900812620197846E-4   -5.244461416794772E-4   -6.402827672805794E-4   -2.390985968231313E-1    4.138932357830420E-1
 1.010232197127500E+10  -4.005510826816570E-1    2.750243910275792E-1   -6.108132768721974E-4   -6.144104834415071E-4   -5.547992324986586E-4   -6.541626291616408E-4   -2.379633898094910E-1    4.145796972417349E-1
 1.010234197780000E+10  -3.998808334326865E-1    2.760664792313690E-1   -5.713916376203072E-4   -6.140546439226532E-4   -5.196822655565397E-4   -6.121658283509746E-4   -2.369950123717245E-1    4.153226575431923E-1
 1.010236198432500E+10  -3.992615572721824E-1    2.772007305413031E-1   -5.704703358853109E-4   -5.720075306340724E-4   -5.311394782375042E-4   -6.417789729418272E-4   -2.358426019077141E-1    4.159292791024579E-1
 1.010238199085000E+10  -3.986558756956158E-1    2.781377057237556E-1   -5.913028045252875E-4   -5.763161342917704E-4   -5.533685535649842E-4   -6.049700961831581E-4   -2.347332737966569E-1    4.166730997716052E-1
 1.010240199737500E+10  -3.980061243602760E-1    2.791802687111063E-1   -6.103948485375393E-4   -6.106003840990379E-4   -5.516729137617754E-4   -6.174196095680421E-4   -2.334198747792391E-1    4.172594660278559E-1
 1.010242200390000E+10  -3.973436095232802E-1    2.801992385236319E-1   -5.787656356396409E-4   -5.853076606621945E-4   -5.114257818254305E-4   -6.201819827097143E-4   -2.324971894927627E-1    4.181209778800973E-1
 1.010244201042500E+10  -3.966019134677414E-1    2.810378504627586E-1   -5.846927790359990E-4   -5.634428005673494E-4   -5.092175415075693E-4   -5.728647444930928E-4   -2.312300599235457E-1    4.186894321044818E-1
 1.010246201695000E+10  -3.961414358804958E-1    2.823025111312051E-1   -6.119831330128562E-4   -5.769755937697379E-4   -5.432530578440222E-4   -5.984234070139801E-4   -2.301067390293014E-1    4.193374407022760E-1
 1.010248202347500E+10  -3.953686153551044E-1    2.832912315753969E-1   -6.133448027039609E-4   -5.575378796391715E-4   -5.162601568877806E-4   -6.009008527435318E-4   -2.290219219752549E-1    4.200437399429641E-1
 1.010250203000000E+10  -3.946976885168053E-1    2.843340442902788E-1   -5.687632029955005E-4   -5.480957226410624E-4   -5.218731175768534E-4   -6.077216433017929E-4   -2.279777830666718E-1    4.208474206407621E-1
 1.010252203652500E+10  -3.940347401852716E-1    2.853380846866250E-1   -6.061840393667571E-4   -5.671061087265980E-4   -5.113887459640355E-4   -5.846830647748564E-4   -2.267961732970995E-1    4.213405689616370E-1
 1.010254204305000E+10  -3.934460940970018E-1    2.864743959934028E-1   -5.736309199945146E-4   -5.643595108292722E-4   -5.239431349637110E-4   -5.758778738347213E-4   -2.257391322114861E-1    4.220311549435357E-1
 1.010256204957500E+10  -3.927010171938403E-1    2.872859612864358E-1   -5.869996496402187E-4   -5.911063090611042E-4   -5.095916984001809E-4   -5.863175467254388E-4   -2.245194286106107E-1    4.228171194391481E-1
 1.010258205610000E+10  -3.921936560927733E-1    2.882525379087853E-1   -5.951048362934142E-4   -5.543516245314731E-4   -4.969058433615114E-4   -5.878610873060071E-4   -2.234873273432365E-1    4.233525292312851E-1
 1.010260206262500E+10  -3.915403263522821E-1    2.893483377629081E-1   -5.682387175292056E-4   -5.408299293605615E-4   -5.307685809460145E-4   -5.732648203453186E-4   -2.223184773059164E-1    4.240557908946812E-1
 1.010262206915000E+10  -3.907699575195981E-1    2.904234900666524E-1   -5.748961545839179E-4   -5.230977154506429E-4   -5.099661358397094E-4   -5.919625877215742E-4   -2.211263227065698E-1    4.248064663478235E-1
 1.010264207567500E+10  -3.901373635232985E-1    2.914511682074939E-1   -5.878865774504565E-4   -5.610813611110837E-4   -4.858574562026495E-4   -5.690168386296785E-4   -2.199381483057552E-1    4.253991534124352E-1
 1.010266208220000E+10  -3.893102908619721E-1    2.924614498684013E-1   -5.778057315140838E-4   -5.380871638928778E-4   -5.222381383793772E-4   -5.493992134023551E-4   -2.187287595917976E-1    4.259936446432839E-1
 1.010268208872500E+10  -3.886937502218972E-1    2.935164593267939E-1   -5.551982066596335E-4   -5.485710165843696E-4   -5.090266263329322E-4   -5.618601012943715E-4   -2.176620155318421E-1    4.267416958658525E-1
 1.010270209525000E+10  -3.880421843020034E-1    2.944848423642691E-1   -5.629978464092430E-4   -5.202397475771133E-4   -4.796931978134788E-4   -5.545906004657738E-4   -2.164328630849984E-1    4.272824899220833E-1
