#  HZ   S   RI   R     50.00 
! Rohde & Schwarz Vector Network Analyzer 
! Rohde-Schwarz,ZNB20-2Port,1311601062101988,3.16
! Created: UTC 3/20/2024, 4:50:11 PM
! freq[Hz]                re:S11                  im:S11                  re:S21                  im:S21                  re:S12                  im:S12                  re:S22                  im:S22
 1.010405843400000E+10  -3.359968318880399E-1    3.586622849360131E-1   -2.692976812211927E-4   -2.051923472421962E-4   -2.413889701117915E-4   -2.164581342976110E-4   -1.307064180696028E-1    4.658855850527264E-1
 1.010406347867500E+10  -3.357949791895853E-1    3.590236402025768E-1   -2.668661320818616E-4   -1.763807149949352E-4   -2.236501446748619E-4   -2.075294483115735E-4   -1.303322431543225E-1    4.659526639183882E-1
 1.010406852335000E+10  -3.355450774469301E-1    3.591947664637320E-1   -2.618381558400782E-4   -2.135278313254662E-4   -2.445923431037173E-4   -2.133289531863678E-4   -1.300355549018122E-1    4.661416479699825E-1
 1.010407356802500E+10  -3.353907966732658E-1    3.594187202104218E-1   -2.730938369852835E-4   -2.155229949858048E-4   -2.491926705588222E-4   -2.229596388540910E-4   -1.295971338585741E-1    4.663115669916277E-1
 1.010407861270000E+10  -3.350383802486803E-1    3.596239968879226E-1   -2.809813531274261E-4   -1.994311056358639E-4   -2.195291581102800E-4   -1.813287642281682E-4   -1.291263381101032E-1    4.663205424617182E-1
 1.010408365737500E+10  -3.347519035302371E-1    3.598428962497240E-1   -2.765335193757491E-4   -1.992652632308735E-4   -2.244683169989891E-4   -2.180699175073903E-4   -1.288945852570208E-1    4.666055655363166E-1
 1.010408870205000E+10  -3.346793509666057E-1    3.600772952528694E-1   -2.665958507206056E-4   -1.866263598178195E-4   -2.230452665375716E-4   -1.972196910244708E-4   -1.285009961856727E-1    4.665658727558636E-1
 1.010409374672500E+10  -3.345265949665532E-1    3.601991929980105E-1   -2.611661154109199E-4   -1.809170503747576E-4   -2.233799919856297E-4   -1.856824121184375E-4   -1.280095218201984E-1    4.666044152297108E-1
 1.010409879140000E+10  -3.342593243401215E-1    3.605121067116113E-1   -2.434316733257456E-4   -1.798766806415528E-4   -2.190532649385045E-4   -2.159908919800765E-4   -1.278383076675562E-1    4.667153113092155E-1
 1.010410383607500E+10  -3.340766232982083E-1    3.606295814473521E-1   -2.418558680747418E-4   -2.163849831347436E-4   -2.085661694544815E-4   -2.152046980013646E-4   -1.273426576182852E-1    4.668974487848446E-1
 1.010410888075000E+10  -3.337900658840841E-1    3.609159911129376E-1   -2.563065351171557E-4   -1.990735111779106E-4   -1.886854539356293E-4   -1.878100390521505E-4   -1.271490797541374E-1    4.670148245591629E-1
 1.010411392542500E+10  -3.335172113298566E-1    3.610562614759175E-1   -2.210534738433525E-4   -1.677732991647065E-4   -2.075251935232250E-4   -1.977183966704140E-4   -1.267155190123416E-1    4.671002798920563E-1
 1.010411897010000E+10  -3.331855430396669E-1    3.613932971485117E-1   -2.229221232254324E-4   -1.708490448833699E-4   -1.838821728951863E-4   -1.818447191497426E-4   -1.262918919509513E-1    4.672066044123801E-1
 1.010412401477500E+10  -3.331739897609298E-1    3.615320083855565E-1   -2.243467096388953E-4   -1.704107870495535E-4   -1.881253318601818E-4   -1.766385992206208E-4   -1.259268961001265E-1    4.673652881149276E-1
 1.010412905945000E+10  -3.330168661767896E-1    3.618611352623232E-1   -1.991494236389001E-4   -1.946091546520407E-4   -1.885983131600128E-4   -1.709573814972470E-4   -1.257197823330205E-1    4.673856870224626E-1
 1.010413410412500E+10  -3.327103299595688E-1    3.620832196271804E-1   -2.126058227711119E-4   -1.489449723881470E-4   -1.740484890976723E-4   -1.835906941250102E-4   -1.252682008233403E-1    4.675786758841830E-1
 1.010413914880000E+10  -3.325653995618971E-1    3.622460570969198E-1   -1.832503297185492E-4   -1.784738797408766E-4   -1.897135356274445E-4   -1.707438413121729E-4   -1.249545257415232E-1    4.675645195111809E-1
 1.010414419347500E+10  -3.322332235770168E-1    3.623380877672839E-1   -2.031499386200245E-4   -1.749949495073632E-4   -1.623405328606616E-4   -1.677055200143364E-4   -1.244149456804152E-1    4.678689122375995E-1
 1.010414923815000E+10  -3.319469635098876E-1    3.625428888845300E-1   -2.163907246776951E-4   -1.426096012823735E-4   -1.617605020100965E-4   -1.705146232366718E-4   -1.241335338354995E-1    4.679096080364668E-1
 1.010415428282500E+10  -3.317822995818396E-1    3.629504899519073E-1   -1.782841391624564E-4   -1.938832385961268E-4   -1.692725516589180E-4   -1.818144928678686E-4   -1.237109910693457E-1    4.679787443175830E-1
 1.010415932750000E+10  -3.315882970736488E-1    3.630047440695505E-1   -1.952209326962098E-4   -1.824477918950909E-4   -1.897105357483134E-4   -1.626720610128550E-4   -1.234788706931820E-1    4.680794760975525E-1
 1.010416437217500E+10  -3.313831976482489E-1    3.633157393372898E-1   -2.041347449040280E-4   -1.739911058325991E-4   -1.355928071335335E-4   -1.648123872529779E-4   -1.228830285669998E-1    4.681275134636277E-1
 1.010416941685000E+10  -3.311583752604167E-1    3.635290761813233E-1   -1.741979392710975E-4   -1.676283607530626E-4   -1.609873580547265E-4   -1.720853541701954E-4   -1.225065643520645E-1    4.683635614816072E-1
 1.010417446152500E+10  -3.308653883071832E-1    3.636296767382002E-1   -1.735647816223121E-4   -1.718553027464501E-4   -1.384485163968519E-4   -1.736499671103611E-4   -1.223151721785590E-1    4.684099300699127E-1
 1.010417950620000E+10  -3.306172477666882E-1    3.639823663319936E-1   -1.543301791477246E-4   -1.548383844126691E-4   -1.609612749840504E-4   -1.575541252483670E-4   -1.219053899718553E-1    4.683921152061780E-1
 1.010418455087500E+10  -3.306012975316598E-1    3.642919582078183E-1   -1.770968959794517E-4   -1.766559506817976E-4   -1.108200236576600E-4   -1.557135380092262E-4   -1.214912679975257E-1    4.684524248666543E-1
 1.010418959555000E+10  -3.301683938782521E-1    3.644508795426245E-1   -1.299567166240511E-4   -1.887331594961289E-4   -1.388842222086193E-4   -1.810732958294274E-4   -1.211079544215290E-1    4.686595129786961E-1
 1.010419464022500E+10  -3.301765906931136E-1    3.645768977469139E-1   -1.308142780755724E-4   -1.311620162645961E-4   -1.127935164146528E-4   -1.511480846244786E-4   -1.207146047024497E-1    4.687725376694323E-1
 1.010419968490000E+10  -3.298887169815948E-1    3.649383937400222E-1   -1.375450354493813E-4   -1.477385223386424E-4   -9.951846776727419E-5   -1.491316719425590E-4   -1.202508699179249E-1    4.688332100102109E-1
 1.010420472957500E+10  -3.295360018931365E-1    3.649250573956232E-1   -1.605478841388244E-4   -1.306863836592522E-4   -1.306680811770771E-4   -1.662824707493871E-4   -1.199071550709123E-1    4.689625427932272E-1
 1.010420977425000E+10  -3.293923172537981E-1    3.653590102692730E-1   -1.465145904332708E-4   -1.223837669145244E-4   -1.056744481014342E-4   -1.452224908462797E-4   -1.195930538926020E-1    4.691815357704900E-1
 1.010421481892500E+10  -3.291150531410552E-1    3.654903210052268E-1   -1.178813014907183E-4   -1.441568243869252E-4   -9.363954489544267E-5   -1.147535977495127E-4   -1.192578630621295E-1    4.690720741826775E-1
 1.010421986360000E+10  -3.289460967703465E-1    3.657340580342210E-1   -1.152596874516795E-4   -1.426001855520512E-4   -7.860025276886072E-5   -1.458600436963320E-4   -1.188375557842194E-1    4.692023506611488E-1
 1.010422490827500E+10  -3.286913094948845E-1    3.659367658234925E-1   -9.701415679387774E-5   -1.534864253941403E-4   -1.238575577332135E-4   -1.089950773979395E-4   -1.184548922423244E-1    4.692810632274314E-1
 1.010422995295000E+10  -3.285877038808014E-1    3.661284455930126E-1   -8.597832417834673E-5   -1.353050506282670E-4   -8.764953026297731E-5   -1.493235300946911E-4   -1.179440649425386E-1    4.695109870080129E-1
 1.010423499762500E+10  -3.282694704349951E-1    3.663383134493927E-1   -5.900306940156661E-5   -1.213360692628801E-4   -5.571397113997680E-5   -1.164237247756566E-4   -1.177141378952268E-1    4.695134212277718E-1
 1.010424004230000E+10  -3.280848374347242E-1    3.666028516758369E-1   -9.566027584879232E-5   -1.144832834134286E-4   -4.186965485754204E-5   -1.186672947110978E-4   -1.173317755093428E-1    4.695304922044761E-1
 1.010424508697500E+10  -3.278326992446128E-1    3.668014115966268E-1   -8.276832728327617E-5   -1.422108613476910E-4   -6.163831298427741E-5   -1.469592424198192E-4   -1.170343322746697E-1    4.697528205523879E-1
 1.010425013165000E+10  -3.275980854072856E-1    3.669290915464924E-1   -6.015672122451015E-5   -1.399380947273483E-4   -7.441565955566434E-5   -1.237586822705917E-4   -1.166401784026491E-1    4.699415182983858E-1
 1.010425517632500E+10  -3.274216098232426E-1    3.672822216369203E-1   -8.932292649416551E-5   -1.077714672689470E-4   -5.505693401331992E-5   -1.491449531621930E-4   -1.161014119005663E-1    4.699367661391513E-1
 1.010426022100000E+10  -3.272873792411809E-1    3.673958322394900E-1   -7.562563463945004E-5   -1.174123234178688E-4   -3.307926045510089E-5   -1.078602636295260E-4   -1.158910853496412E-1    4.701345936207166E-1
 1.010426526567500E+10  -3.269679803241982E-1    3.675250739151532E-1   -3.578200296650098E-5   -1.155620119282238E-4   -4.193516500246233E-5   -1.265844318700331E-4   -1.154217786535577E-1    4.702201543195030E-1
 1.010427031035000E+10  -3.266432849568089E-1    3.679917063198786E-1   -7.320505595547165E-5   -1.256030616534943E-4   -2.569670232853748E-5   -1.413662583140073E-4   -1.149513896387870E-1    4.702512569857398E-1
 1.010427535502500E+10  -3.265608434353602E-1    3.680126415357013E-1   -4.681418365644921E-5   -1.113754431987080E-4   -4.505414496722687E-5   -1.140682516851529E-4   -1.145439928849973E-1    4.704024370253966E-1
 1.010428039970000E+10  -3.262647867603290E-1    3.683176664596842E-1   -3.166323107423837E-5   -1.142952760783626E-4   -3.740145085120356E-5   -1.465523822546272E-4   -1.142008614143708E-1    4.705176971331562E-1
 1.010428544437500E+10  -3.261124848694365E-1    3.685874839363930E-1    3.923694865762162E-6   -1.166360517263761E-4   -5.102736231007585E-6   -1.054954010239276E-4   -1.136567754788051E-1    4.707279278741244E-1
 1.010429048905000E+10  -3.258648969716632E-1    3.688349543477140E-1   -1.870262048679426E-5   -1.027438509890646E-4   -7.036951086238070E-6   -1.026835033091581E-4   -1.132579467183736E-1    4.706131314652953E-1
 1.010429553372500E+10  -3.255516354978309E-1    3.688738597225433E-1   -9.821776587160136E-6   -1.017460488509774E-4    5.257592828504454E-6   -1.287523888822834E-4   -1.129190173605800E-1    4.708552987816139E-1
 1.010430057840000E+10  -3.253733708094955E-1    3.690978146847777E-1    9.525717092353678E-6   -1.282462438811695E-4    7.200294171457743E-6   -1.003762069703066E-4   -1.125462196509402E-1    4.708258583982101E-1
 1.010430562307500E+10  -3.252472902352199E-1    3.694245846795854E-1   -1.291907994038952E-5   -1.226862051200521E-4   -5.142824765508571E-6   -1.031600846751826E-4   -1.121172899068175E-1    4.709842512455251E-1
 1.010431066775000E+10  -3.249376340996102E-1    3.695962463243292E-1    1.579425695378243E-5   -1.161936477558244E-4    3.814640569417826E-6   -9.063313613285794E-5   -1.117473986748716E-1    4.711330755525626E-1
 1.010431571242500E+10  -3.247032792420506E-1    3.699342711604246E-1    3.842939864166921E-5   -9.467281698383146E-5    2.283584704201702E-5   -1.092923229553744E-4   -1.114477686001055E-1    4.711979140602534E-1
 1.010432075710000E+10  -3.244567574544021E-1    3.699824479772845E-1    3.181880547431728E-5   -1.196972250940711E-4    2.228358937570523E-5   -1.108194521379080E-4   -1.110176274573394E-1    4.713233122439295E-1
 1.010432580177500E+10  -3.243003110852805E-1    3.703369765319656E-1    3.193702973590344E-5   -8.648010129616400E-5    7.727391182243615E-5   -9.537994548505654E-5   -1.105380225764277E-1    4.713608408601581E-1
 1.010433084645000E+10  -3.240122551661308E-1    3.704588712850249E-1    3.978696405515148E-5   -9.608968575908245E-5    4.083552356336187E-5   -8.733030420869429E-5   -1.100720705560480E-1    4.712526907586613E-1
 1.010433589112500E+10  -3.237232376117726E-1    3.707457766010283E-1    8.206777149113271E-5   -5.637179366990268E-5    6.269339685191464E-5   -1.028070014831357E-4   -1.097867968608490E-1    4.714556523860871E-1
 1.010434093580000E+10  -3.237219505721672E-1    3.709074812275662E-1    3.692998074153570E-5   -8.216830956503711E-5    7.083898152956421E-5   -7.670049414798366E-5   -1.093286627556859E-1    4.716188516582895E-1
 1.010434598047500E+10  -3.233989073093003E-1    3.709736127194375E-1    5.415482344374967E-5   -6.077434386928639E-5    6.072441328255124E-5   -9.137942220206257E-5   -1.089352662953796E-1    4.717175452436926E-1
 1.010435102515000E+10  -3.231463456400404E-1    3.712985847523518E-1    1.007784959529038E-4   -6.827669929637880E-5    7.299203733454352E-5   -8.447518727545591E-5   -1.085514009345906E-1    4.717429282304086E-1
 1.010435606982500E+10  -3.228601682395705E-1    3.715110102744091E-1    9.967291915741427E-5   -7.266514490777795E-5    1.003514994569517E-4   -9.774326903929848E-5   -1.080893151557650E-1    4.719449403318166E-1
 1.010436111450000E+10  -3.227378546414267E-1    3.717529574446969E-1    9.830079497345021E-5   -7.099696195967688E-5    1.087334069746495E-4   -5.424653462913523E-5   -1.076789646811055E-1    4.719455827294937E-1
 1.010436615917500E+10  -3.225137846473860E-1    3.719589990686057E-1    9.822271401125834E-5   -9.536202456994828E-5    1.274501436897216E-4   -8.296354835872647E-5   -1.072727280525921E-1    4.720211564669206E-1
 1.010437120385000E+10  -3.223720527173757E-1    3.722337719490590E-1    1.211189994739523E-4   -5.693627926646276E-5    1.056115835984613E-4   -6.037757530341378E-5   -1.068849851202226E-1    4.721743288733187E-1
 1.010437624852500E+10  -3.221493280456887E-1    3.724332080446243E-1    1.527083997368083E-4   -5.729784406125923E-5    1.406238138172865E-4   -5.540488458585037E-5   -1.062974256260185E-1    4.721175186726148E-1
 1.010438129320000E+10  -3.218997303442485E-1    3.725967178985962E-1    1.382107318907072E-4   -5.428158933361919E-5    1.287475417470695E-4   -8.415719531261911E-5   -1.060487216897308E-1    4.724057219238327E-1
 1.010438633787500E+10  -3.216292602005357E-1    3.727087002371504E-1    1.489604201364606E-4   -6.440179835452719E-5    1.283552576524310E-4   -4.152811653726865E-5   -1.054844133694127E-1    4.724359861632014E-1
 1.010439138255000E+10  -3.214143597864427E-1    3.730101276595935E-1    1.566766900198067E-4   -8.733535078108409E-5    1.599523850998330E-4   -2.801454970637089E-5   -1.050658454752757E-1    4.725903641497421E-1
 1.010439642722500E+10  -3.211076557383573E-1    3.731813818021553E-1    1.490820149894788E-4   -7.938226066423167E-5    1.686328219995821E-4   -5.010038414924097E-5   -1.047634490837833E-1    4.725361849698438E-1
 1.010440147190000E+10  -3.209711171098368E-1    3.734252262741248E-1    1.716819754688178E-4   -7.880533624923505E-5    1.765904830414060E-4   -5.530437295879691E-5   -1.042623004274496E-1    4.726731746050623E-1
 1.010440651657500E+10  -3.208736437136501E-1    3.736676786350791E-1    1.926043605695503E-4   -6.232798714874449E-5    1.671884934329892E-4   -2.580336674332234E-5   -1.038433156090734E-1    4.727082710342924E-1
 1.010441156125000E+10  -3.204955620845936E-1    3.738526021284464E-1    1.752995351014567E-4   -7.193402197551993E-5    1.916844612551157E-4   -2.578610269200949E-5   -1.033597974136312E-1    4.728908062899735E-1
 1.010441660592500E+10  -3.203432753763131E-1    3.739596086024539E-1    1.885387974783555E-4   -2.988285035115152E-5    2.125939306063836E-4   -5.391099325463289E-5   -1.028457816017752E-1    4.728797289916575E-1
 1.010442165060000E+10  -3.200993057180579E-1    3.742347872978200E-1    1.949997478134452E-4   -4.448400627462873E-5    2.315798113703999E-4   -4.996756509601788E-5   -1.026030086384128E-1    4.731132085163361E-1
 1.010442669527500E+10  -3.198171685940128E-1    3.744504697332101E-1    2.153291401804687E-4   -5.981524255338723E-5    2.165965261556298E-4   -3.888940220628544E-5   -1.020738790741184E-1    4.732036742210439E-1
 1.010443173995000E+10  -3.195627014559472E-1    3.747206550181140E-1    2.536037029311208E-4   -2.685391583030567E-5    2.243878381034586E-4   -6.101069905685708E-6   -1.016415339238536E-1    4.731184020771467E-1
 1.010443678462500E+10  -3.194406395956468E-1    3.749403794406747E-1    2.750574823656177E-4   -5.551826543647917E-5    2.404458102845445E-4   -1.684167934540819E-5   -1.013384623283748E-1    4.732582879641676E-1
 1.010444182930000E+10  -3.191513373642638E-1    3.750806032001531E-1    2.546737660015271E-4   -3.890094304077925E-5    2.783153946029772E-4   -1.865911919248826E-5   -1.008065500285057E-1    4.733141157835686E-1
 1.010444687397500E+10  -3.189342741864222E-1    3.752653113697622E-1    2.758819953308199E-4   -7.426671727425877E-5    2.601063970104639E-4   -1.076553551096175E-5   -1.003047554388044E-1    4.733468005015201E-1
 1.010445191865000E+10  -3.187887272446410E-1    3.754649403037904E-1    2.867989892257574E-4   -4.598244438297087E-5    2.639609871864409E-4   -9.596590205361215E-6   -9.984357280801308E-2    4.734953833036801E-1
 1.010445696332500E+10  -3.185392927366161E-1    3.756537691366383E-1    3.083432857096619E-4   -3.487518252080273E-5    2.982150591845424E-4   -3.192672287262450E-7   -9.942040815480055E-2    4.735085725352842E-1
 1.010446200800000E+10  -3.181723762600125E-1    3.759717364979580E-1    3.240501934758267E-4   -2.925783683627586E-5    3.025261616629708E-4   -1.924832880654260E-5   -9.890333819369716E-2    4.737484617642321E-1
 1.010446705267500E+10  -3.180692815315178E-1    3.762103133334684E-1    3.229586665976650E-4   -4.611797868446816E-5    3.286475484040262E-4   -2.426134563294347E-5   -9.841269450245917E-2    4.737207250452463E-1
 1.010447209735000E+10  -3.177792604869614E-1    3.762999979747222E-1    3.341786026271141E-4   -2.882902265749965E-5    3.202580088443158E-4   -5.626744213246186E-6   -9.789015917755865E-2    4.737273505913969E-1
 1.010447714202500E+10  -3.176361412344443E-1    3.764886046192957E-1    3.891666663205741E-4   -2.440286920764447E-5    3.477084936254699E-4   -1.724850267033435E-5   -9.752969926365097E-2    4.738393964920095E-1
 1.010448218670000E+10  -3.172574977725945E-1    3.767152541271065E-1    3.636858816822385E-4   -3.979674227337093E-5    3.404380606304455E-4    1.570697953251471E-5   -9.711853364736678E-2    4.739302292865610E-1
 1.010448723137500E+10  -3.170763984463020E-1    3.770521399119056E-1    3.818108714003123E-4   -1.923539260078644E-5    3.620219157684118E-4   -9.051722743687457E-7   -9.652294925743868E-2    4.740786818254888E-1
 1.010449227605000E+10  -3.169730916964599E-1    3.771038982084023E-1    4.220664647275176E-4   -1.392743214911965E-5    3.713553379019501E-4    1.006202186907048E-5   -9.595445843286515E-2    4.741355323030010E-1
 1.010449732072500E+10  -3.166731954686359E-1    3.774320773219650E-1    4.189004204699482E-4   -1.749799486763643E-5    4.038637258098919E-4   -6.277542411368061E-6   -9.569448267384953E-2    4.741454335742237E-1
 1.010450236540000E+10  -3.163639698743973E-1    3.777140376180408E-1    4.117325743375578E-4   -2.003474856603140E-5    3.935733377890272E-4    4.084377848829921E-6   -9.512773599581317E-2    4.742339764542335E-1
 1.010450741007500E+10  -3.162049542345771E-1    3.777861542693837E-1    4.403913183444540E-4   -2.113306069033095E-5    4.239388379593214E-4    2.555311584266459E-5   -9.473566342536666E-2    4.741446401676546E-1
 1.010451245475000E+10  -3.159753317028774E-1    3.779847678352780E-1    4.242609573968443E-4   -2.142762560564520E-5    4.582867500244899E-4    1.232088830633322E-5   -9.416022777940734E-2    4.742660201113077E-1
