#  HZ   S   RI   R     50.00 
! Rohde & Schwarz Vector Network Analyzer 
! Rohde-Schwarz,ZNB20-2Port,1311601062101988,3.16
! Created: UTC 3/20/2024, 4:50:21 PM
! freq[Hz]                re:S11                  im:S11                  re:S21                  im:S21                  re:S12                  im:S12                  re:S22                  im:S22
 1.010400012900000E+10  -3.384852958812777E-1    3.561319550258472E-1   -3.094165212013304E-4   -2.132923801896150E-4   -2.701924385981739E-4   -2.541306179633941E-4   -1.346329182255636E-1    4.645496685635415E-1
 1.010400542660000E+10  -3.382265348221760E-1    3.564123115375264E-1   -2.967372878207843E-4   -2.245296437881168E-4   -2.803397968282868E-4   -2.463479891323912E-4   -1.342843759868843E-1    4.647277200379681E-1
 1.010401072420000E+10  -3.380622866866368E-1    3.567342782941618E-1   -2.836846063874780E-4   -2.063277694125419E-4   -2.613835454975945E-4   -2.189303443361277E-4   -1.340033089304614E-1    4.649375693157310E-1
 1.010401602180000E+10  -3.377767901724628E-1    3.569625788634814E-1   -2.895710015080357E-4   -2.121295729318549E-4   -2.802238970436856E-4   -2.393943229905922E-4   -1.335592787080325E-1    4.650677606482816E-1
 1.010402131940000E+10  -3.376123184748829E-1    3.570505846560728E-1   -2.823480892451041E-4   -2.020773687919542E-4   -2.693127164615061E-4   -2.413118384829086E-4   -1.332630546119312E-1    4.650700598861338E-1
 1.010402661700000E+10  -3.372462867065032E-1    3.573223224709158E-1   -3.136285862077595E-4   -2.261375229967392E-4   -2.689199895514163E-4   -2.335981496307157E-4   -1.329216255428921E-1    4.651907534134171E-1
 1.010403191460000E+10  -3.371165300597792E-1    3.574669230806570E-1   -3.199468068906639E-4   -2.309626308621907E-4   -2.459599986069251E-4   -2.377721701653655E-4   -1.326030414374468E-1    4.652869988267179E-1
 1.010403721220000E+10  -3.369374917540232E-1    3.578175153062545E-1   -2.709704668355010E-4   -2.003020891752235E-4   -2.431522978906777E-4   -2.442571065034399E-4   -1.321718350932739E-1    4.654521089994858E-1
 1.010404250980000E+10  -3.367170506540517E-1    3.580283957305979E-1   -2.895549212083460E-4   -2.156818879118818E-4   -2.556463506143337E-4   -2.187525794341945E-4   -1.315864638029019E-1    4.655313250193716E-1
 1.010404780740000E+10  -3.364830518750320E-1    3.583648205383593E-1   -2.498328568520903E-4   -2.011171378860433E-4   -2.315474523940222E-4   -2.034168943399999E-4   -1.313555166675799E-1    4.655739128824598E-1
 1.010405310500000E+10  -3.362822850258743E-1    3.582931042475481E-1   -2.693400401831984E-4   -2.058732605746192E-4   -2.354537258443014E-4   -2.140730067827834E-4   -1.309929306478845E-1    4.657463407896921E-1
 1.010405840260000E+10  -3.359948795478795E-1    3.586766626903608E-1   -2.757032763442419E-4   -1.837482927841789E-4   -2.290056961847682E-4   -2.057329430813096E-4   -1.305164255361463E-1    4.657987265859945E-1
 1.010406370020000E+10  -3.357151465948318E-1    3.590631100196118E-1   -2.646610295714212E-4   -2.169931148997960E-4   -2.315921721322367E-4   -2.104710941249569E-4   -1.301634352004090E-1    4.660066758173625E-1
 1.010406899780000E+10  -3.354294406409372E-1    3.591899152469291E-1   -2.556929510784931E-4   -2.008911887027556E-4   -2.238865076909941E-4   -2.086251077486951E-4   -1.298454794831013E-1    4.661193844378206E-1
 1.010407429540000E+10  -3.351754733063562E-1    3.593599560120263E-1   -2.557624153776177E-4   -2.106393446503415E-4   -2.235060333806103E-4   -2.083194945276350E-4   -1.295441329471582E-1    4.661959111652989E-1
 1.010407959300000E+10  -3.350202216509051E-1    3.597117360749876E-1   -2.545422172779907E-4   -2.034055727135521E-4   -2.285728865258010E-4   -2.023990285088637E-4   -1.291038315289874E-1    4.663876656796990E-1
 1.010408489060000E+10  -3.348253312706939E-1    3.598255075911390E-1   -2.284660883306649E-4   -1.784933307241440E-4   -2.047024682792392E-4   -2.080685096749283E-4   -1.287332675873924E-1    4.664557742749820E-1
 1.010409018820000E+10  -3.344916357091773E-1    3.600629917094595E-1   -2.359304481335279E-4   -1.742229275861469E-4   -2.180309201230587E-4   -2.121334760169175E-4   -1.282009243156822E-1    4.666044376821495E-1
 1.010409548580000E+10  -3.343285261309265E-1    3.603605683941802E-1   -2.500724467856445E-4   -2.073925309607573E-4   -2.258940453556756E-4   -1.553174966735214E-4   -1.278870527040181E-1    4.666168340475416E-1
 1.010410078340000E+10  -3.340858062072345E-1    3.605361942824836E-1   -2.382761359940421E-4   -2.098650093702082E-4   -1.928118828386146E-4   -1.746987911784027E-4   -1.275728778990780E-1    4.667710074477104E-1
 1.010410608100000E+10  -3.338867123308837E-1    3.609265972236461E-1   -2.088611428087217E-4   -2.102857023090626E-4   -1.794303258566432E-4   -1.796902239148509E-4   -1.271267866486100E-1    4.668937076046150E-1
 1.010411137860000E+10  -3.336085378744180E-1    3.608995810550855E-1   -2.270776190039350E-4   -1.871130743338317E-4   -1.882387010409655E-4   -1.873018728396493E-4   -1.267717377282211E-1    4.670068587511065E-1
 1.010411667620000E+10  -3.335953199603289E-1    3.613002984102318E-1   -2.096461484073319E-4   -1.738304033197568E-4   -1.968321193254831E-4   -1.916846102712259E-4   -1.264401151589165E-1    4.670947271452320E-1
 1.010412197380000E+10  -3.330966122562042E-1    3.614538824988761E-1   -1.961594533343933E-4   -1.720473461790662E-4   -1.955979412196303E-4   -1.758142740007109E-4   -1.260329873911631E-1    4.673202606527581E-1
 1.010412727140000E+10  -3.329761427835418E-1    3.617321523963810E-1   -1.979662701330690E-4   -1.937409244965814E-4   -1.722076154593621E-4   -1.662484449318277E-4   -1.257084841928611E-1    4.673311929837105E-1
 1.010413256900000E+10  -3.327863318553611E-1    3.619082275013403E-1   -2.269028515573634E-4   -1.719875676336894E-4   -1.710898965347262E-4   -1.839890757361897E-4   -1.252335573474830E-1    4.674764229475371E-1
 1.010413786660000E+10  -3.325858445741944E-1    3.622129940767612E-1   -1.782253841947673E-4   -2.009197598149610E-4   -1.995784662459324E-4   -1.688543673512075E-4   -1.249017808975236E-1    4.674955783076843E-1
 1.010414316420000E+10  -3.322756576079711E-1    3.623763872404124E-1   -1.594211666046489E-4   -1.731154964563241E-4   -1.560530945344399E-4   -1.588649155519682E-4   -1.244243551645071E-1    4.675766150833664E-1
 1.010414846180000E+10  -3.321849176514133E-1    3.626648175902779E-1   -2.039315397055704E-4   -1.748295408151600E-4   -1.452914782014043E-4   -1.926362758796813E-4   -1.241004835144015E-1    4.677661088611043E-1
 1.010415375940000E+10  -3.317759845805499E-1    3.628846817227297E-1   -1.893114717888581E-4   -1.568063600234197E-4   -1.486297847556710E-4   -1.523963864609959E-4   -1.238331247113690E-1    4.679560580551403E-1
 1.010415905700000E+10  -3.316335729045985E-1    3.630480064949906E-1   -1.625618421796859E-4   -1.883843407802353E-4   -1.652677666022987E-4   -1.737917401812650E-4   -1.233829453527118E-1    4.679493364657473E-1
 1.010416435460000E+10  -3.313602056846843E-1    3.632223275159375E-1   -1.349939964956115E-4   -1.435112796606172E-4   -1.285929885729705E-4   -1.776854308794035E-4   -1.229036916113642E-1    4.680252930712208E-1
 1.010416965220000E+10  -3.310852378078455E-1    3.635275103955763E-1   -1.693419882140331E-4   -1.620150297552680E-4   -1.348334409619412E-4   -1.505295662790280E-4   -1.225348324928209E-1    4.680757505534268E-1
 1.010417494980000E+10  -3.308669761250169E-1    3.638290973002795E-1   -1.757870641465146E-4   -1.680098008227480E-4   -1.142043234708690E-4   -1.649130089473594E-4   -1.222545129479963E-1    4.682368375309235E-1
 1.010418024740000E+10  -3.306323318797997E-1    3.639867754045372E-1   -1.437841045442921E-4   -1.443945441092735E-4   -1.319481820549009E-4   -1.385112108122949E-4   -1.216661564994200E-1    4.684867021289815E-1
 1.010418554500000E+10  -3.305243932230410E-1    3.642370438502379E-1   -1.315705869665791E-4   -1.786946917697741E-4   -1.142908475126459E-4   -1.536506376525371E-4   -1.212557922662916E-1    4.684585919324862E-1
 1.010419084260000E+10  -3.302428630038596E-1    3.645532536882718E-1   -1.336381149664065E-4   -1.522393884725196E-4   -1.091182813383127E-4   -1.581361828154901E-4   -1.210680315735488E-1    4.686547487726392E-1
 1.010419614020000E+10  -3.300193671413179E-1    3.645837985195596E-1   -1.127259837290504E-4   -1.602314652400386E-4   -1.248866797466827E-4   -1.378512275147171E-4   -1.205191548198159E-1    4.685640947042893E-1
 1.010420143780000E+10  -3.296282631365118E-1    3.648849273786490E-1   -1.236594062285677E-4   -1.225305184333517E-4   -1.294509790339852E-4   -1.545002018812105E-4   -1.200055198916883E-1    4.688514271153249E-1
 1.010420673540000E+10  -3.295209470295771E-1    3.651288999288386E-1   -1.262364230171320E-4   -1.593827489877715E-4   -1.069760936652620E-4   -1.410511771707252E-4   -1.198620571772644E-1    4.690764099957774E-1
 1.010421203300000E+10  -3.293550804586807E-1    3.653718125748508E-1   -1.274244207570050E-4   -1.447018965995751E-4   -1.041404783491305E-4   -1.512128719327671E-4   -1.192860962585521E-1    4.691120070420385E-1
 1.010421733060000E+10  -3.290133411175111E-1    3.655440648996998E-1   -1.156061499508223E-4   -1.516800032354999E-4   -8.038615901186161E-5   -1.273412241992829E-4   -1.188134180033216E-1    4.691979617466914E-1
 1.010422262820000E+10  -3.288743516658695E-1    3.658356638227612E-1   -1.059411073892457E-4   -1.467468829316242E-4   -8.465788572716950E-5   -1.539564353313615E-4   -1.185782907621981E-1    4.692732009344944E-1
 1.010422792580000E+10  -3.286061855654480E-1    3.660442297161027E-1   -6.263009939234683E-5   -9.135474660042935E-5   -6.413901173913935E-5   -1.535830034947968E-4   -1.181069873736560E-1    4.692781633191012E-1
 1.010423322340000E+10  -3.283857519701814E-1    3.661164166459071E-1   -8.313747058184307E-5   -1.189727469639611E-4   -8.231588830439840E-5   -1.176827308746318E-4   -1.175901991859851E-1    4.695027652918630E-1
 1.010423852100000E+10  -3.279951859448816E-1    3.663920128804054E-1   -1.140945807209418E-4   -1.257431732954873E-4   -6.365605873040455E-5   -1.222841052073490E-4   -1.172253256481288E-1    4.694506603824284E-1
 1.010424381860000E+10  -3.279054879142633E-1    3.666645531333811E-1   -2.926285456279149E-5   -1.231464137587980E-4   -3.580881413865023E-5   -1.237580171746481E-4   -1.169383520311381E-1    4.697127186268642E-1
 1.010424911620000E+10  -3.277517332707025E-1    3.670864713292321E-1   -4.927529264320111E-5   -1.185433403726582E-4   -5.495839248958973E-5   -1.133281194844774E-4   -1.163379892147187E-1    4.698029382735476E-1
 1.010425441380000E+10  -3.275626896621102E-1    3.671469217708661E-1   -6.356675512334034E-5   -1.228078559688352E-4   -4.490401214766921E-5   -1.465134999856007E-4   -1.160923595633386E-1    4.699520623735060E-1
 1.010425971140000E+10  -3.271725879816975E-1    3.674571525600006E-1   -6.635841587086536E-5   -1.311441792860167E-4   -3.522877786497000E-5   -1.313729880468389E-4   -1.156659798524462E-1    4.699662843021882E-1
 1.010426500900000E+10  -3.269284545241172E-1    3.677492641576526E-1   -5.702513074560724E-5   -1.333398233589847E-4   -1.982912483731058E-5   -1.144914995855361E-4   -1.153134350884420E-1    4.700855321203593E-1
 1.010427030660000E+10  -3.267434454414095E-1    3.678855723808103E-1   -3.203067497176797E-5   -1.193825319223175E-4   -2.660332046250312E-5   -1.287042269238900E-4   -1.147391331148838E-1    4.700950321764564E-1
 1.010427560420000E+10  -3.265115156105561E-1    3.681674088058939E-1   -4.343755930474036E-5   -1.452658878216997E-4   -1.796463327860731E-6   -1.063649033786112E-4   -1.144818649865981E-1    4.702776895391592E-1
 1.010428090180000E+10  -3.262697561776636E-1    3.682566847216547E-1   -3.827124338354215E-5   -1.221076929905985E-4   -5.794302261006721E-6   -1.082358097117972E-4   -1.140263172369826E-1    4.704445053746241E-1
 1.010428619940000E+10  -3.261427915361703E-1    3.685255747926108E-1   -1.033125050673319E-5   -1.110908350824429E-4   -2.051850914801918E-6   -1.325302153796849E-4   -1.135260971202749E-1    4.705114804427030E-1
 1.010429149700000E+10  -3.258273302096331E-1    3.688601918631668E-1   -6.970837263617274E-6   -1.088038777160841E-4    9.879411545373194E-6   -8.216016366876039E-5   -1.133043766650589E-1    4.706464312688564E-1
 1.010429679460000E+10  -3.256834466376369E-1    3.689216892919360E-1   -3.698064029470301E-6   -1.204134373445912E-4    1.238281171758240E-5   -9.865520990344240E-5   -1.127900245018380E-1    4.707244288541758E-1
 1.010430209220000E+10  -3.253523487462601E-1    3.692854675666016E-1   -3.802664878146382E-6   -1.222565322879967E-4    3.817827856858987E-5   -1.151603604404526E-4   -1.122285872725650E-1    4.708009342308682E-1
 1.010430738980000E+10  -3.251174484063389E-1    3.693744314833659E-1    3.193739642971546E-5   -1.002436319447605E-4    3.602402309206061E-5   -9.679901199635781E-5   -1.118246816210387E-1    4.708398259729391E-1
 1.010431268740000E+10  -3.248703771821482E-1    3.696211921042698E-1    4.658230847092844E-5   -9.925440685492120E-5    2.718324765622933E-5   -1.073238338121792E-4   -1.115273966958424E-1    4.709538416472390E-1
 1.010431798500000E+10  -3.246287143697428E-1    3.698243942664613E-1    5.846021735938787E-5   -1.189385298169001E-4    7.537670663289325E-5   -1.076450389087605E-4   -1.109979136832531E-1    4.711819551356924E-1
 1.010432328260000E+10  -3.244304233615866E-1    3.701683163376703E-1    9.446129785647324E-5   -1.079149742263478E-4    9.440607263308523E-5   -9.447378008639830E-5   -1.106153706872548E-1    4.710915946528314E-1
 1.010432858020000E+10  -3.242488631226806E-1    3.703840573644812E-1    5.210678565382855E-5   -8.641123363192385E-5    5.679854732750510E-5   -1.049057644173060E-4   -1.100851169718785E-1    4.712199542836870E-1
 1.010433387780000E+10  -3.239214275685781E-1    3.705253813951755E-1    5.560388665809810E-5   -1.048625205289060E-4    5.360707810694821E-5   -6.934985737668116E-5   -1.095837973732804E-1    4.713499001638115E-1
 1.010433917540000E+10  -3.236715715260924E-1    3.707068557379819E-1    7.941112146406133E-5   -1.194285288973405E-4    9.540330138012498E-5   -8.553519525712101E-5   -1.092259667368898E-1    4.715380550481576E-1
 1.010434447300000E+10  -3.235433154354553E-1    3.709950414233708E-1    9.104544622007652E-5   -8.272693270777434E-5    8.905222858471644E-5   -7.722793766764300E-5   -1.088003810681037E-1    4.716528228727498E-1
 1.010434977060000E+10  -3.232005668991086E-1    3.711060381929320E-1    9.474549136647292E-5   -1.390384588485244E-4    8.835754622647690E-5   -8.997825902514210E-5   -1.084698605566201E-1    4.716752538073978E-1
 1.010435506820000E+10  -3.230335939190338E-1    3.714657957193134E-1    1.217317232019912E-4   -1.073105576614913E-4    1.133654783110043E-4   -6.299405625690983E-5   -1.078638988717573E-1    4.717656700416996E-1
 1.010436036580000E+10  -3.228942450595355E-1    3.716589331861932E-1    1.485052358915615E-4   -1.007366636417161E-4    1.118200511782068E-4   -7.722159258362212E-5   -1.076595923970509E-1    4.719073559661766E-1
 1.010436566340000E+10  -3.226637492369412E-1    3.718579244621841E-1    1.313565804432450E-4   -7.502307373764272E-5    1.325422695793059E-4   -1.023332389159334E-4   -1.070365614387347E-1    4.719766142532050E-1
 1.010437096100000E+10  -3.222418946294249E-1    3.720877812176476E-1    1.279636872492593E-4   -8.373915355114267E-5    1.383652825658864E-4   -5.627693361675080E-5   -1.064883973246280E-1    4.721038662806763E-1
 1.010437625860000E+10  -3.219764339566086E-1    3.723952438329812E-1    1.414620577693332E-4   -6.076736218278190E-5    1.291251065404350E-4   -6.107249579552643E-5   -1.062622514035284E-1    4.720545214962216E-1
 1.010438155620000E+10  -3.218101543705105E-1    3.725741507226358E-1    1.599428689258061E-4   -1.047382820086262E-4    1.484199933814214E-4   -6.317984732574939E-5   -1.058542311061705E-1    4.721463527125195E-1
 1.010438685380000E+10  -3.216528788518965E-1    3.728358742123285E-1    1.645213200841473E-4   -8.013723549047439E-5    2.019956835550767E-4   -6.210592728254823E-5   -1.052595412167476E-1    4.721509213173441E-1
 1.010439215140000E+10  -3.212762470970114E-1    3.730660720708345E-1    1.900917057803152E-4   -7.325000996442919E-5    1.856603117683436E-4   -6.260308919394364E-5   -1.048694783321296E-1    4.723588412658624E-1
 1.010439744900000E+10  -3.210650386886740E-1    3.730307623764006E-1    1.880293191706368E-4   -8.020101499628504E-5    1.998824601792203E-4   -3.433869809821769E-5   -1.042525067338281E-1    4.724286915324802E-1
 1.010440274660000E+10  -3.210206876665153E-1    3.735716449874129E-1    2.075860633613489E-4   -7.546176668974846E-5    1.960312786404049E-4   -7.113952360329475E-5   -1.038830746657091E-1    4.725790521944384E-1
 1.010440804420000E+10  -3.207023263862391E-1    3.735740641632464E-1    2.044556699828192E-4   -6.349567432131351E-5    2.098535635174763E-4   -4.009167213630889E-5   -1.035145741276286E-1    4.726269425452901E-1
 1.010441334180000E+10  -3.204624493337636E-1    3.739175963894523E-1    2.088072524521117E-4   -5.954506508879016E-5    2.132272983430607E-4   -6.412291406583579E-5   -1.029636048303752E-1    4.726505036642649E-1
 1.010441863940000E+10  -3.201210732355458E-1    3.742001421896001E-1    2.499403707436918E-4   -6.847007654538314E-5    2.478611407689273E-4   -3.297290324074044E-5   -1.025524353751053E-1    4.728274040370245E-1
 1.010442393700000E+10  -3.198832222886516E-1    3.742917211375612E-1    2.480481771655904E-4   -6.026939083786338E-5    2.479963293593465E-4   -2.822967000338650E-5   -1.019938654352171E-1    4.728452210345389E-1
 1.010442923460000E+10  -3.196656608359679E-1    3.744941806452411E-1    2.531302107204270E-4   -3.311120998271422E-5    2.573017220229286E-4   -6.836241632738135E-5   -1.015497423200113E-1    4.729288250288813E-1
 1.010443453220000E+10  -3.193780935764980E-1    3.747211607242612E-1    2.678840304284403E-4   -5.307293682950687E-5    2.600765643589323E-4   -1.697348034233407E-5   -1.010642442839077E-1    4.730245673729264E-1
 1.010443982980000E+10  -3.191482818673049E-1    3.750283269924354E-1    2.852496924688845E-4   -5.247746015523682E-5    2.923679154182129E-4   -1.337328743724386E-5   -1.006675283479994E-1    4.732231726851394E-1
 1.010444512740000E+10  -3.188713857526412E-1    3.752325791602092E-1    3.075711255338998E-4   -7.226734148941437E-5    2.790896514536283E-4   -3.197949616964353E-5   -1.002850566676468E-1    4.732776245821665E-1
 1.010445042500000E+10  -3.187834804894126E-1    3.753841065957226E-1    3.216095179719086E-4   -1.436887895176170E-5    3.136057565598487E-4    1.817992154073230E-5   -9.970033732854593E-2    4.733055942215865E-1
 1.010445572260000E+10  -3.185804035336873E-1    3.757386908191689E-1    3.239303423581801E-4   -4.037500621030161E-5    3.384320818544069E-4   -2.929646117066853E-6   -9.919185421458161E-2    4.734051889784239E-1
 1.010446102020000E+10  -3.184261410202767E-1    3.759098328627593E-1    3.105108780757133E-4   -5.341109979506943E-5    3.525296090618219E-4   -1.072754206867153E-5   -9.871311686145799E-2    4.734879100999166E-1
 1.010446631780000E+10  -3.180834563122525E-1    3.760192501206078E-1    3.511601907666776E-4   -3.368929953864358E-5    3.676572675339716E-4   -1.586554494166326E-5   -9.800193728503968E-2    4.735286054769264E-1
 1.010447161540000E+10  -3.177809590126450E-1    3.764102695085221E-1    3.639000508196312E-4   -4.651032003236415E-5    3.528549119641459E-4   -1.272763322933179E-5   -9.784873988841657E-2    4.736584034600531E-1
 1.010447691300000E+10  -3.175836758184052E-1    3.765162840827684E-1    4.006618842888385E-4   -5.981231550802401E-5    3.799611632577486E-4   -1.966863356758196E-6   -9.721867759025082E-2    4.737819726311530E-1
