#  HZ   S   RI   R     50.00 
! Rohde & Schwarz Vector Network Analyzer 
! Rohde-Schwarz,ZNB20-2Port,1311601062101988,3.16
! Created: UTC 3/20/2024, 4:50:34 PM
! freq[Hz]                re:S11                  im:S11                  re:S21                  im:S21                  re:S12                  im:S12                  re:S22                  im:S22
 1.010395257500000E+10  -3.404940762186563E-1    3.540253735949575E-1   -3.232228132603142E-4   -2.516268117797978E-4   -2.898840049656939E-4   -2.606410667335733E-4   -1.379417380070704E-1    4.633294268141224E-1
 1.010395807892500E+10  -3.401205598549711E-1    3.542796092564619E-1   -3.571200705640059E-4   -2.220505915429316E-4   -2.994749764196276E-4   -2.575744243774844E-4   -1.374532590496540E-1    4.636289133266630E-1
 1.010396358285000E+10  -3.400393378022685E-1    3.545252741581419E-1   -3.299697924657689E-4   -2.149761841795761E-4   -2.865056356942484E-4   -2.499169052832543E-4   -1.371237983802078E-1    4.636337155952310E-1
 1.010396908677500E+10  -3.398544828129043E-1    3.546995891672645E-1   -3.374082342290101E-4   -2.209743456809769E-4   -2.999366909263215E-4   -2.568889521406316E-4   -1.367536144937665E-1    4.638602083578429E-1
 1.010397459070000E+10  -3.394188281780028E-1    3.550195836023280E-1   -3.284087773351325E-4   -2.283673665850694E-4   -2.993566531445689E-4   -2.438888491858675E-4   -1.363626805605159E-1    4.641077198214046E-1
 1.010398009462500E+10  -3.393193159543889E-1    3.552921531948650E-1   -3.210134808445424E-4   -2.061004561828799E-4   -2.826710709788252E-4   -2.565513677959476E-4   -1.359882088744696E-1    4.639955835859578E-1
 1.010398559855000E+10  -3.390369836464034E-1    3.555397064244425E-1   -2.913332735067691E-4   -2.418804617981246E-4   -2.750719054258604E-4   -2.530609720585186E-4   -1.357120349618419E-1    4.642507293943551E-1
 1.010399110247500E+10  -3.388077650260914E-1    3.558385365393499E-1   -3.088195585048985E-4   -2.224363052418547E-4   -2.737560941967652E-4   -2.630334890206991E-4   -1.351743573691896E-1    4.644496702517391E-1
 1.010399660640000E+10  -3.385722774592769E-1    3.560621807652281E-1   -3.118911534708246E-4   -2.259014129712579E-4   -2.656527225495207E-4   -2.400082116240138E-4   -1.350018829205236E-1    4.644433727192633E-1
 1.010400211032500E+10  -3.384354485932518E-1    3.562008834475145E-1   -2.790750236844381E-4   -2.152221650429092E-4   -2.646651373655653E-4   -2.321928208887924E-4   -1.345243767166957E-1    4.645403409087944E-1
 1.010400761425000E+10  -3.380135227531344E-1    3.565248286543979E-1   -2.868373843670259E-4   -2.262223677065454E-4   -2.645985949596630E-4   -2.346089392594504E-4   -1.339636395947398E-1    4.647078874057915E-1
 1.010401311817500E+10  -3.378980952873106E-1    3.567179774857262E-1   -2.956310584529872E-4   -2.089467181934798E-4   -2.408569169818475E-4   -2.444038693803909E-4   -1.337547902006760E-1    4.648649009077157E-1
 1.010401862210000E+10  -3.375940628504544E-1    3.570148547141251E-1   -2.961796980374923E-4   -2.385686355126164E-4   -2.548526248443283E-4   -2.215379444474146E-4   -1.333195760071736E-1    4.649428448197352E-1
 1.010402412602500E+10  -3.375134222385534E-1    3.571080513955367E-1   -2.843719739737471E-4   -2.057446109677852E-4   -2.857561581789783E-4   -2.487430057798475E-4   -1.329699209275322E-1    4.651041014118014E-1
 1.010402962995000E+10  -3.371975953302634E-1    3.576006224535410E-1   -2.363441511241634E-4   -2.002037056995184E-4   -2.410693055135030E-4   -2.233735356371001E-4   -1.324762402391375E-1    4.651988260352612E-1
 1.010403513387500E+10  -3.369171681286269E-1    3.576677575151219E-1   -2.595776151776641E-4   -2.249104261249758E-4   -2.224282260315118E-4   -2.486280364381940E-4   -1.321935714919182E-1    4.654081577011457E-1
 1.010404063780000E+10  -3.368706803893560E-1    3.579610202415220E-1   -2.951390396605858E-4   -1.886494494251106E-4   -2.427909469143683E-4   -1.984228827637792E-4   -1.317694870949037E-1    4.653453421364167E-1
 1.010404614172500E+10  -3.364244237263704E-1    3.581102076872514E-1   -2.792057960458557E-4   -2.137967613919583E-4   -2.178742527624648E-4   -2.303134997395823E-4   -1.313494126391919E-1    4.655925427484949E-1
 1.010405164565000E+10  -3.361531773629868E-1    3.584096138604885E-1   -2.465347119431000E-4   -2.124171318710734E-4   -2.253770414678085E-4   -1.978076840024239E-4   -1.308726256172961E-1    4.656676817526972E-1
 1.010405714957500E+10  -3.360899873685613E-1    3.586995071054545E-1   -2.496572511952048E-4   -1.976657842637765E-4   -2.492323132034368E-4   -2.053213637842194E-4   -1.305116564756008E-1    4.656810137475796E-1
 1.010406265350000E+10  -3.356916763072508E-1    3.589057141648413E-1   -2.507686752620957E-4   -1.884088856041009E-4   -2.376100939500511E-4   -2.143973468492868E-4   -1.302181792004648E-1    4.659776048058687E-1
 1.010406815742500E+10  -3.355259677482075E-1    3.591403199299741E-1   -2.451910588321304E-4   -1.813929033544367E-4   -1.887577559368884E-4   -2.129083479414130E-4   -1.297122494578719E-1    4.660396978920387E-1
 1.010407366135000E+10  -3.351792506075729E-1    3.593814172227253E-1   -2.272967842820206E-4   -1.696408734318051E-4   -2.145766570724373E-4   -2.286280472760175E-4   -1.294662455254361E-1    4.660786287712952E-1
 1.010407916527500E+10  -3.350358594265851E-1    3.595011909816651E-1   -2.072924120565776E-4   -1.986206322544044E-4   -1.781264247455605E-4   -2.035957578146433E-4   -1.289308715043059E-1    4.662389963280608E-1
 1.010408466920000E+10  -3.348343624880635E-1    3.598795186006278E-1   -2.339742938752172E-4   -1.598911696148109E-4   -2.006940450046079E-4   -2.062505059016643E-4   -1.285195970883470E-1    4.663196520190945E-1
 1.010409017312500E+10  -3.345128411004435E-1    3.601604340025890E-1   -2.318801736237354E-4   -2.104238144986029E-4   -2.074686465961864E-4   -1.979587872294117E-4   -1.281603361108535E-1    4.664197948544619E-1
 1.010409567705000E+10  -3.344073637375867E-1    3.603296600257579E-1   -2.034425562700692E-4   -1.932839259425968E-4   -1.971347842859272E-4   -1.981114356119659E-4   -1.278227382920828E-1    4.666672535650493E-1
 1.010410118097500E+10  -3.339968575346799E-1    3.606418008359723E-1   -1.858258768485657E-4   -1.909866432393302E-4   -1.959202016037486E-4   -1.888735850459252E-4   -1.273734305189262E-1    4.666610447961206E-1
 1.010410668490000E+10  -3.339540498360198E-1    3.608330003882807E-1   -1.941534802981829E-4   -1.799193563547624E-4   -1.903929214355997E-4   -1.769594614182799E-4   -1.270141592121732E-1    4.667861088147937E-1
 1.010411218882500E+10  -3.336748779835617E-1    3.610598322354830E-1   -1.831830571757424E-4   -1.850771474134389E-4   -2.077451992562546E-4   -1.707691343408035E-4   -1.266431298475812E-1    4.669118194229132E-1
 1.010411769275000E+10  -3.333503056037674E-1    3.611664470890658E-1   -1.760679825218133E-4   -1.702345115573832E-4   -1.879826272347112E-4   -2.049653194617580E-4   -1.262552038549125E-1    4.669778191102683E-1
 1.010412319667500E+10  -3.330792278605121E-1    3.615186474720627E-1   -2.099987700218224E-4   -1.725812583637237E-4   -1.695128586049592E-4   -2.076292617289906E-4   -1.258103436184517E-1    4.671720362788546E-1
 1.010412870060000E+10  -3.328920811580613E-1    3.617970333814303E-1   -1.666618299022096E-4   -1.899991338596150E-4   -1.457775769334788E-4   -1.886931562803187E-4   -1.253745465299145E-1    4.675088942886467E-1
 1.010413420452500E+10  -3.327511563876913E-1    3.619687150021451E-1   -1.956040075342150E-4   -1.648840964460862E-4   -1.615660525424551E-4   -1.739803289923304E-4   -1.250691518920740E-1    4.673314205636749E-1
 1.010413970845000E+10  -3.323741830879612E-1    3.623902048145691E-1   -1.572295921360033E-4   -1.564602956369794E-4   -1.661578696454866E-4   -1.782578096276814E-4   -1.245161918696504E-1    4.674312052414731E-1
 1.010414521237500E+10  -3.322182650344938E-1    3.625269912665665E-1   -1.874406163826449E-4   -1.568866722307027E-4   -1.437383091445292E-4   -1.620073530582635E-4   -1.242504455827126E-1    4.676178971070154E-1
 1.010415071630000E+10  -3.319544106896593E-1    3.626020524668364E-1   -1.388196880101126E-4   -1.489657894263911E-4   -1.434686807285900E-4   -1.554260171589917E-4   -1.237750322454063E-1    4.678067401934525E-1
 1.010415622022500E+10  -3.316961563997858E-1    3.628388867618274E-1   -1.413537075935630E-4   -1.593236921294469E-4   -1.369734813514270E-4   -1.347715869521021E-4   -1.234649585205316E-1    4.679130250364776E-1
 1.010416172415000E+10  -3.316062682828844E-1    3.632195145383393E-1   -1.575516538956922E-4   -1.606427769643563E-4   -1.140823135675557E-4   -1.647315447279233E-4   -1.230134770213768E-1    4.679275403108436E-1
 1.010416722807500E+10  -3.311973314718112E-1    3.634938328413764E-1   -1.556137853187628E-4   -1.920241710084350E-4   -1.220824612287784E-4   -1.591427243075473E-4   -1.225628687555547E-1    4.680891386637660E-1
 1.010417273200000E+10  -3.310351813035536E-1    3.636144508129253E-1   -1.187475009055847E-4   -1.713589204140677E-4   -9.261758804436049E-5   -1.586868543874659E-4   -1.222392100684789E-1    4.681620719983038E-1
 1.010417823592500E+10  -3.306958743426647E-1    3.638474079028940E-1   -1.343560719861098E-4   -1.451082512983221E-4   -1.082852048657847E-4   -1.752632809240114E-4   -1.217619052674100E-1    4.683688408542314E-1
 1.010418373985000E+10  -3.304668568976015E-1    3.642165576746434E-1   -1.307908936823155E-4   -1.661076162928492E-4   -8.941535456954247E-5   -1.825620984463265E-4   -1.213848638213952E-1    4.684091186631644E-1
 1.010418924377500E+10  -3.303059075514521E-1    3.643679474766124E-1   -1.252037352586257E-4   -1.692072583507738E-4   -8.983226783789125E-5   -1.629276959580657E-4   -1.209523434644061E-1    4.685678449792340E-1
 1.010419474770000E+10  -3.301436452133545E-1    3.646057428162460E-1   -1.051303991179316E-4   -1.702082101117103E-4   -1.074473021909623E-4   -1.705253117129998E-4   -1.204581887940988E-1    4.685695624388341E-1
 1.010420025162500E+10  -3.298603031492545E-1    3.648683867460419E-1   -1.430019302144392E-4   -1.582381873427068E-4   -9.975815815187356E-5   -1.729573429994785E-4   -1.201371504136614E-1    4.687283388173546E-1
 1.010420575555000E+10  -3.294891306778960E-1    3.650828914368856E-1   -5.047134604957558E-5   -1.427698450510660E-4   -7.705175770045279E-5   -1.550069030616263E-4   -1.195958532004761E-1    4.688463814199850E-1
 1.010421125947500E+10  -3.291717868856330E-1    3.652888254654891E-1   -9.147910034634419E-5   -1.533014697986610E-4   -9.108084608067707E-5   -1.450703162004144E-4   -1.193073639265213E-1    4.689853772505108E-1
 1.010421676340000E+10  -3.290392743692422E-1    3.656067970079347E-1   -8.310391228668415E-5   -1.398227838825751E-4   -7.023857385437015E-5   -1.267793447879886E-4   -1.187084062118446E-1    4.690003428318853E-1
 1.010422226732500E+10  -3.288587834576175E-1    3.657805144897504E-1   -7.970472512664617E-5   -1.450727679195703E-4   -4.781780924402455E-5   -1.678006209591021E-4   -1.184184118103088E-1    4.692388803966889E-1
 1.010422777125000E+10  -3.286015306982010E-1    3.659552914749580E-1   -6.501508164748916E-5   -1.259522250528921E-4   -5.780176218945965E-5   -1.252597745350928E-4   -1.179772692582510E-1    4.692181252508820E-1
 1.010423327517500E+10  -3.282686976322665E-1    3.662004851384429E-1   -5.162236521529152E-5   -1.685316833311639E-4   -3.667753164102882E-5   -1.509633341969904E-4   -1.175887575519900E-1    4.693480894120554E-1
 1.010423877910000E+10  -3.280884159209265E-1    3.666009199811495E-1   -3.352371612608883E-5   -1.552906359904001E-4   -5.513927050811497E-5   -1.232988141414016E-4   -1.171839805089216E-1    4.694704299967786E-1
 1.010424428302500E+10  -3.280945397965320E-1    3.667880239147459E-1   -3.484527739062792E-5   -1.238301602660731E-4   -4.562639455663256E-5   -1.195799730909693E-4   -1.166402255217439E-1    4.695752514568669E-1
 1.010424978695000E+10  -3.276215833705202E-1    3.668374246794082E-1   -5.710962260633685E-5   -1.104867967735061E-4   -2.802337735613416E-5   -1.306574084942898E-4   -1.162667161303151E-1    4.697667754354629E-1
 1.010425529087500E+10  -3.274283128079886E-1    3.671838211849242E-1   -2.271096474709190E-5   -8.703505941290154E-5   -6.311307655418286E-6   -1.464359669593367E-4   -1.156658330123586E-1    4.698687390240507E-1
 1.010426079480000E+10  -3.271219937322756E-1    3.674782088813415E-1   -2.131948398517470E-6   -1.323909049081102E-4    1.116370758876944E-5   -1.287780590852431E-4   -1.154496292614760E-1    4.698095615944720E-1
 1.010426629872500E+10  -3.269314319776760E-1    3.676553462841431E-1   -1.756467998088444E-5   -1.223504763405052E-4   -1.670626484417317E-5   -1.354640644693515E-4   -1.150021664714831E-1    4.700357515019045E-1
 1.010427180265000E+10  -3.266621062132555E-1    3.679127489435833E-1   -4.933657153565714E-5   -1.545543469692886E-4   -1.988871917854883E-6   -1.202067523842606E-4   -1.144899387228542E-1    4.699681188780783E-1
 1.010427730657500E+10  -3.264496639023501E-1    3.680570515445438E-1    1.780245435611572E-5   -1.315714689391057E-4    2.753248882750726E-5   -1.290812010049308E-4   -1.141842922035850E-1    4.702403820275826E-1
 1.010428281050000E+10  -3.262882308343812E-1    3.682581312608395E-1    7.130009721951180E-6   -1.226301458863343E-4    1.286892811452569E-5   -1.125144167568378E-4   -1.137081576237322E-1    4.703978382642678E-1
 1.010428831442500E+10  -3.259764922352145E-1    3.685335696337908E-1    3.315641919012526E-5   -1.378567867489003E-4    1.370867681876471E-5   -9.226778101082996E-5   -1.130752572788447E-1    4.702447191307561E-1
 1.010429381835000E+10  -3.257834299622549E-1    3.688502669527103E-1    2.593911440971647E-5   -9.999047960376627E-5    1.481995535268881E-6   -9.314117155321180E-5   -1.127478338579636E-1    4.705697771186958E-1
 1.010429932227500E+10  -3.255231162978650E-1    3.689530279878241E-1    4.779169049243579E-5   -1.110113544704878E-4    2.538230915098325E-5   -8.659770448851426E-5   -1.123965539548510E-1    4.706070810449243E-1
 1.010430482620000E+10  -3.251910793727443E-1    3.693014323989638E-1    5.353288506081005E-5   -1.097309863421052E-4    6.741338052401945E-5   -1.063895940079919E-4   -1.117919744980490E-1    4.707162553279441E-1
 1.010431033012500E+10  -3.250095067895158E-1    3.694880472033263E-1    5.662875019433125E-5   -1.144999922427002E-4    5.741328201807430E-5   -1.037130008948979E-4   -1.114825998888275E-1    4.708676627116162E-1
 1.010431583405000E+10  -3.247664839084171E-1    3.697530298736125E-1    3.508826962049615E-5   -1.321594391074067E-4    6.253310900951668E-5   -8.833575325501292E-5   -1.110250281456397E-1    4.709046415037650E-1
 1.010432133797500E+10  -3.245250291181922E-1    3.701893879958559E-1    7.662031376144183E-5   -1.282341598049643E-4    6.828817736290763E-5   -9.604592026259044E-5   -1.105217365272849E-1    4.710040129910136E-1
 1.010432684190000E+10  -3.241914768826451E-1    3.702468769082112E-1    7.321011423267573E-5   -1.193546064414815E-4    9.874582187456403E-5   -1.097943930273670E-4   -1.100414090858744E-1    4.711857170528807E-1
 1.010433234582500E+10  -3.239964717084517E-1    3.704630368450730E-1    8.975569438142109E-5   -1.233241592304221E-4    8.899703430173458E-5   -8.755715642741617E-5   -1.096825231748608E-1    4.711568535695348E-1
 1.010433784975000E+10  -3.237264315051515E-1    3.706864015783104E-1    1.184849267703912E-4   -1.463008307628842E-4    1.266117670047998E-4   -9.284841528245979E-5   -1.092204760261132E-1    4.712820673517786E-1
 1.010434335367500E+10  -3.234116145833076E-1    3.708185873600996E-1    1.246141683513272E-4   -1.114579333912894E-4    1.492600604833930E-4   -1.076760041329406E-4   -1.088270384925409E-1    4.714242811658147E-1
 1.010434885760000E+10  -3.232162166079410E-1    3.710008550791244E-1    1.533318577069980E-4   -1.062972181670005E-4    1.379903005870920E-4   -9.013375151194280E-5   -1.083623838569167E-1    4.714034989474877E-1
 1.010435436152500E+10  -3.231195186205564E-1    3.712690220129653E-1    1.376324019930002E-4   -9.271568373454920E-5    1.085037993930260E-4   -6.321081513670946E-5   -1.076990037967033E-1    4.715961717163052E-1
 1.010435986545000E+10  -3.227807323938179E-1    3.715831592631743E-1    1.631067439813455E-4   -8.930474824582532E-5    1.591804261419022E-4   -8.913992093138085E-5   -1.073496548830293E-1    4.715485576961416E-1
 1.010436536937500E+10  -3.224902605697637E-1    3.718370881330056E-1    1.279104974277676E-4   -1.190773197528722E-4    1.701642197149794E-4   -5.674152897172812E-5   -1.069621357720316E-1    4.717211155843996E-1
 1.010437087330000E+10  -3.223510371123664E-1    3.720527949672013E-1    1.525647532947224E-4   -1.006463127587371E-4    1.515127706355122E-4   -7.148612157701487E-5   -1.064238245872612E-1    4.718696009984316E-1
 1.010437637722500E+10  -3.220530472887659E-1    3.722106439384778E-1    1.847514035662586E-4   -8.663175788446701E-5    1.450553015793617E-4   -4.644048998295937E-5   -1.060261265939368E-1    4.718908238525622E-1
 1.010438188115000E+10  -3.217902517212679E-1    3.724895610859652E-1    2.052907705995982E-4   -6.087464886038837E-5    1.802931760255308E-4   -8.824487272781087E-5   -1.055118336819059E-1    4.719929163460410E-1
 1.010438738507500E+10  -3.215647628680611E-1    3.728421132712299E-1    1.830212748043402E-4   -8.842096714312571E-5    1.801800054583770E-4   -7.533688238517404E-5   -1.048633839770818E-1    4.720866965688761E-1
 1.010439288900000E+10  -3.215206263914391E-1    3.728741338380885E-1    2.242451141577473E-4   -9.535948068912722E-5    1.778615508760805E-4   -6.915969598975192E-5   -1.044957417147307E-1    4.721961477538729E-1
 1.010439839292500E+10  -3.209888473812936E-1    3.732363111666377E-1    2.161990553248925E-4   -8.367211705150053E-5    2.140006849182417E-4   -6.572345921219712E-5   -1.041249121763213E-1    4.723269172749745E-1
 1.010440389685000E+10  -3.208365752683402E-1    3.734155050786325E-1    2.236328147451301E-4   -6.860329586552886E-5    2.684445874145250E-4   -7.152017366069914E-5   -1.035246706151559E-1    4.724354115737912E-1
 1.010440940077500E+10  -3.205879273367667E-1    3.738313538286885E-1    2.445953250858835E-4   -1.008054240314365E-4    2.537562970959278E-4   -4.413741770313308E-5   -1.030012279949580E-1    4.724241578777550E-1
 1.010441490470000E+10  -3.204064924185677E-1    3.739035821694079E-1    2.562610660869138E-4   -7.851828673686877E-5    2.698881607078090E-4   -4.797012113634335E-5   -1.025513133541444E-1    4.725141630490159E-1
 1.010442040862500E+10  -3.201856886601595E-1    3.742125049401800E-1    2.617802622800430E-4   -8.235921291454097E-5    2.530551213846772E-4   -4.027396039650452E-5   -1.020682499834166E-1    4.726236580110250E-1
 1.010442591255000E+10  -3.198715934112261E-1    3.744159981778815E-1    2.937430110894391E-4   -5.508068693389882E-5    3.043901385181778E-4   -3.115602176009262E-5   -1.016698368356939E-1    4.726393371096239E-1
 1.010443141647500E+10  -3.195843722150818E-1    3.745681862039075E-1    3.091994950169582E-4   -5.590340518530500E-5    3.025058971807326E-4   -2.633101131728798E-5   -1.010183790796391E-1    4.727809021021351E-1
 1.010443692040000E+10  -3.193697077989469E-1    3.749563118657943E-1    3.210084262450794E-4   -6.204192708312656E-5    2.876601932974163E-4   -1.437569817502450E-5   -1.006617004971070E-1    4.728707849165084E-1
 1.010444242432500E+10  -3.190775184320133E-1    3.751372277359233E-1    3.412352736053949E-4   -9.242564427878982E-5    3.326851687013900E-4   -4.026922873521562E-5   -1.000490217558243E-1    4.731012442576878E-1
 1.010444792825000E+10  -3.189248720243581E-1    3.753364348675402E-1    3.449138900394195E-4   -4.427416684372120E-5    3.348470053777065E-4   -2.824899733524418E-5   -9.958659302992130E-2    4.730399735431712E-1
