#  HZ   S   RI   R     50.00 
! Rohde & Schwarz Vector Network Analyzer 
! Rohde-Schwarz,ZNB20-2Port,1311601062101988,3.16
! Created: UTC 3/20/2024, 4:50:41 PM
! freq[Hz]                re:S11                  im:S11                  re:S21                  im:S21                  re:S12                  im:S12                  re:S22                  im:S22
 1.010386316900000E+10  -3.441396207548712E-1    3.499907551008231E-1   -3.648677682540617E-4   -2.589122760648047E-4   -3.425819054309409E-4   -2.649688503766602E-4   -1.439276274555776E-1    4.612742340668051E-1
 1.010386907757500E+10  -3.440231043620876E-1    3.502716160859498E-1   -4.125339333224623E-4   -2.926990993252302E-4   -3.263221204784670E-4   -2.811079196423922E-4   -1.435945880531891E-1    4.615856969586808E-1
 1.010387498615000E+10  -3.437353779353152E-1    3.505592228599843E-1   -3.818317729350449E-4   -2.687539473009957E-4   -3.279353440220753E-4   -3.246578017102225E-4   -1.431228141618051E-1    4.617029101081961E-1
 1.010388089472500E+10  -3.436133547242476E-1    3.510109047595898E-1   -3.777512679168163E-4   -2.499537139882964E-4   -3.406560569318395E-4   -2.630157026413980E-4   -1.427135181834308E-1    4.618190343280386E-1
 1.010388680330000E+10  -3.432082026234970E-1    3.511803347830212E-1   -3.611141919483230E-4   -2.483862228739928E-4   -3.518491583606554E-4   -2.885818192918507E-4   -1.423401025668988E-1    4.618606092208890E-1
 1.010389271187500E+10  -3.429181816477064E-1    3.513712569042177E-1   -3.656129606370501E-4   -2.650054805971404E-4   -3.292505509822471E-4   -2.672966208334508E-4   -1.420126477218065E-1    4.620791995705410E-1
 1.010389862045000E+10  -3.426257281889024E-1    3.516809768161058E-1   -3.521644426541096E-4   -2.265411523557253E-4   -3.291628227573933E-4   -2.749303252587640E-4   -1.415051103505816E-1    4.622492908274163E-1
 1.010390452902500E+10  -3.425324550460903E-1    3.519615341219268E-1   -3.722560482483736E-4   -2.481668387653985E-4   -3.193061006366933E-4   -2.795541501727493E-4   -1.410751451783051E-1    4.624192062767673E-1
 1.010391043760000E+10  -3.422933360890837E-1    3.521269265390532E-1   -3.498346924769025E-4   -2.538373982043356E-4   -3.076844888073364E-4   -2.823254154191377E-4   -1.406555847487242E-1    4.625518005722983E-1
 1.010391634617500E+10  -3.420005926906242E-1    3.524638787930829E-1   -3.716915184841054E-4   -2.285897634950526E-4   -2.920953845183266E-4   -2.974383991282301E-4   -1.404415512473153E-1    4.625350324772740E-1
 1.010392225475000E+10  -3.417555374627922E-1    3.528174116897591E-1   -3.630535121751781E-4   -2.379946773680232E-4   -2.943263024820707E-4   -2.664637894563632E-4   -1.399193652384547E-1    4.626860215506292E-1
 1.010392816332500E+10  -3.415967044584160E-1    3.530398113125652E-1   -3.469107129727355E-4   -2.167803659101456E-4   -3.249129686056517E-4   -2.714468403731493E-4   -1.395317705425468E-1    4.628505839937819E-1
 1.010393407190000E+10  -3.412615819721064E-1    3.532098682191965E-1   -3.366207516876661E-4   -2.310720923661925E-4   -3.040219500852307E-4   -2.460938752390122E-4   -1.390591149464930E-1    4.629687764590053E-1
 1.010393998047500E+10  -3.409237947324842E-1    3.535996657004032E-1   -3.323796368356738E-4   -2.722687975616900E-4   -2.868099898275941E-4   -2.625830202134884E-4   -1.386949903415255E-1    4.630625282373466E-1
 1.010394588905000E+10  -3.407171655647907E-1    3.538088731676747E-1   -3.404040285126312E-4   -2.400986256186618E-4   -2.969488316128710E-4   -2.333888534665338E-4   -1.382092373346949E-1    4.631755357437445E-1
 1.010395179762500E+10  -3.405490842703594E-1    3.540293784054241E-1   -3.203650347927837E-4   -2.379188656890721E-4   -2.797060443250495E-4   -2.445916030659856E-4   -1.379116463563152E-1    4.633830787252303E-1
 1.010395770620000E+10  -3.401892638810939E-1    3.544022465087053E-1   -3.375208418194390E-4   -2.464267142940080E-4   -2.870813649595575E-4   -2.628724885841699E-4   -1.375592064471719E-1    4.634521241471489E-1
 1.010396361477500E+10  -3.400591632277521E-1    3.545944315880561E-1   -3.292861838643811E-4   -2.315249205329261E-4   -3.125298808976273E-4   -2.493794619833606E-4   -1.371274725295147E-1    4.636879469147567E-1
 1.010396952335000E+10  -3.397581986797536E-1    3.547879263968777E-1   -3.290205989452035E-4   -2.225410554334541E-4   -2.629536447572264E-4   -2.285941365813764E-4   -1.366704571737665E-1    4.638540056933652E-1
 1.010397543192500E+10  -3.393896486737872E-1    3.550658474196828E-1   -3.230353168180211E-4   -2.316619825203592E-4   -2.331831960387343E-4   -2.515344278152774E-4   -1.363646079490942E-1    4.639279860715222E-1
 1.010398134050000E+10  -3.391813535269592E-1    3.553085653047733E-1   -3.253014148660331E-4   -2.287967469988201E-4   -2.421538606893060E-4   -2.403633855699215E-4   -1.358577199156029E-1    4.641358105239585E-1
 1.010398724907500E+10  -3.389553009904341E-1    3.556639414017952E-1   -2.973186712491769E-4   -2.399948066688496E-4   -2.623604315889287E-4   -2.291909481385911E-4   -1.354687352633722E-1    4.641934114163132E-1
 1.010399315765000E+10  -3.387226146531929E-1    3.558095636541907E-1   -2.658137135406200E-4   -2.351261231399310E-4   -2.360199311373246E-4   -2.302728316073044E-4   -1.349047075139071E-1    4.643390555926508E-1
 1.010399906622500E+10  -3.383559075763480E-1    3.561881279592543E-1   -3.014865348745666E-4   -2.506455466380546E-4   -2.616138486710504E-4   -2.275807161423142E-4   -1.345692621618456E-1    4.644840925458603E-1
 1.010400497480000E+10  -3.382130568673547E-1    3.563648736957907E-1   -3.066545968116330E-4   -2.231189629665060E-4   -2.686322353673891E-4   -2.287856547401053E-4   -1.341502531570806E-1    4.645956986517631E-1
 1.010401088337500E+10  -3.379100510714019E-1    3.567423176507952E-1   -2.641918734349327E-4   -1.923096481858089E-4   -2.324418938959427E-4   -2.478636710580562E-4   -1.337667289715652E-1    4.648120953716887E-1
 1.010401679195000E+10  -3.376996428029282E-1    3.568202633307582E-1   -3.150121093584778E-4   -2.117310000034449E-4   -2.462698628031305E-4   -2.390027467053845E-4   -1.334092299033266E-1    4.648552279966717E-1
 1.010402270052500E+10  -3.374288141651083E-1    3.569896029761103E-1   -2.597121125598002E-4   -2.216181118694313E-4   -2.510703873587092E-4   -2.294824769166609E-4   -1.329419686679582E-1    4.649017819660818E-1
 1.010402860910000E+10  -3.372623838848968E-1    3.574924514117078E-1   -2.747682735135638E-4   -2.124309300230567E-4   -2.313563707306381E-4   -2.396307117558985E-4   -1.324948341787487E-1    4.650234281789962E-1
 1.010403451767500E+10  -3.369164679828340E-1    3.576746719847554E-1   -2.555720893367712E-4   -2.164238964295820E-4   -2.282320741261006E-4   -2.282968886301605E-4   -1.320441130651905E-1    4.651533674512014E-1
 1.010404042625000E+10  -3.366563496400698E-1    3.578063031724819E-1   -2.624734992931876E-4   -2.045440654280113E-4   -2.028138040911330E-4   -2.402832254658218E-4   -1.318598868496542E-1    4.653379028983782E-1
 1.010404633482500E+10  -3.362965269802328E-1    3.581609487197930E-1   -2.783899665439234E-4   -1.788033322064380E-4   -2.273624468337322E-4   -2.267184855910888E-4   -1.313162511725528E-1    4.655016935824883E-1
 1.010405224340000E+10  -3.362090935925910E-1    3.584610331442420E-1   -3.026098913395823E-4   -2.106948849158101E-4   -2.442130136255902E-4   -2.293015694576292E-4   -1.308043731582736E-1    4.656382352507022E-1
 1.010405815197500E+10  -3.358945516295896E-1    3.586375191653539E-1   -2.336795024312967E-4   -2.033109440033945E-4   -2.131847862910965E-4   -2.163872033194844E-4   -1.304759201747827E-1    4.658091983838117E-1
 1.010406406055000E+10  -3.357466163318438E-1    3.588868306899389E-1   -2.250278736578198E-4   -1.941823360133592E-4   -2.263272689337405E-4   -2.067702786783250E-4   -1.300463887715913E-1    4.658714849143762E-1
 1.010406996912500E+10  -3.354650534061858E-1    3.592527855595521E-1   -2.182345632455527E-4   -1.903265504128014E-4   -2.004494030830263E-4   -2.327604825958827E-4   -1.296775087787153E-1    4.660480336806852E-1
 1.010407587770000E+10  -3.352179994955813E-1    3.594926122091023E-1   -2.441182167766069E-4   -1.920797677746192E-4   -1.802808483534159E-4   -2.031069726821029E-4   -1.290791800934287E-1    4.661612469584304E-1
 1.010408178627500E+10  -3.349374502897330E-1    3.597789422222787E-1   -2.093652389171801E-4   -2.253672612675993E-4   -1.985363730575071E-4   -2.195311467623442E-4   -1.288129568946047E-1    4.663321826858865E-1
 1.010408769485000E+10  -3.345906297571860E-1    3.599782663025345E-1   -2.314056982647340E-4   -2.036088189100805E-4   -1.969201078957971E-4   -1.896474634605077E-4   -1.282155401294321E-1    4.663445719386903E-1
 1.010409360342500E+10  -3.345501146147592E-1    3.602938282534793E-1   -2.287868530009839E-4   -1.874402964400829E-4   -1.909899935041829E-4   -2.204949839323349E-4   -1.279097859623131E-1    4.665507834776622E-1
 1.010409951200000E+10  -3.340569128987523E-1    3.605423881601344E-1   -1.977033746286180E-4   -1.884698418940710E-4   -1.770737922194015E-4   -1.825831024104980E-4   -1.274718466751480E-1    4.665853510774307E-1
 1.010410542057500E+10  -3.339753905509706E-1    3.606479553467195E-1   -1.908850916497624E-4   -2.297799161224070E-4   -1.710593460171843E-4   -1.724347212476660E-4   -1.269930380860755E-1    4.666519372196365E-1
 1.010411132915000E+10  -3.337364780141112E-1    3.610826986727292E-1   -1.872270297906128E-4   -2.023192350181734E-4   -1.633508187823153E-4   -1.940507514570180E-4   -1.266185780796726E-1    4.668534967499485E-1
 1.010411723772500E+10  -3.334113583356547E-1    3.613322009397806E-1   -1.762156466782042E-4   -1.999981753576097E-4   -1.343866175105216E-4   -2.112809157127759E-4   -1.261934174930983E-1    4.670187681140783E-1
 1.010412314630000E+10  -3.331990449036491E-1    3.614796193826735E-1   -1.962428050775671E-4   -1.925718690151513E-4   -1.523423927372225E-4   -2.049095277279453E-4   -1.257704195356011E-1    4.671114742258610E-1
 1.010412905487500E+10  -3.328728356804365E-1    3.617528439545572E-1   -1.771368165905098E-4   -1.970599968499660E-4   -1.118378125027319E-4   -1.972502030837446E-4   -1.252472876619194E-1    4.672782054470932E-1
 1.010413496345000E+10  -3.326281197337084E-1    3.621020341869527E-1   -1.562995912141235E-4   -1.852635057290999E-4   -1.264957744697945E-4   -1.639421162278528E-4   -1.248543794878337E-1    4.674014385100786E-1
 1.010414087202500E+10  -3.323069106754840E-1    3.622769589226009E-1   -1.399854434689381E-4   -1.626221865936366E-4   -1.199600072338093E-4   -1.877119756602236E-4   -1.243505011732835E-1    4.674732864585754E-1
 1.010414678060000E+10  -3.320914289749763E-1    3.624902064567803E-1   -1.207137249575098E-4   -1.531633818281956E-4   -1.415812943067946E-4   -1.896764371461011E-4   -1.239479718984371E-1    4.675270664599530E-1
 1.010415268917500E+10  -3.318795499717451E-1    3.628088759055755E-1   -1.311920641275113E-4   -1.718546673756804E-4   -1.069325185364760E-4   -1.691658216639264E-4   -1.235351051954743E-1    4.676569261764281E-1
 1.010415859775000E+10  -3.315504783811917E-1    3.629571020119792E-1   -1.276108240130176E-4   -1.807559074327714E-4   -1.229924354426533E-4   -1.969460523427421E-4   -1.229723089185725E-1    4.678279875032824E-1
 1.010416450632500E+10  -3.313957148254570E-1    3.632787394252094E-1   -1.225874987949222E-4   -1.768133195192003E-4   -1.332895978087908E-4   -1.800913834696622E-4   -1.226606755141353E-1    4.678578890681034E-1
 1.010417041490000E+10  -3.310782517157880E-1    3.636072438012482E-1   -1.041158527938203E-4   -1.613497574624785E-4   -1.014809041448702E-4   -1.813270368340174E-4   -1.222883794120138E-1    4.680688297894099E-1
 1.010417632347500E+10  -3.309002560484188E-1    3.638581409841516E-1   -1.210270176743064E-4   -1.508215141964329E-4   -1.193771816636917E-4   -2.036918637783745E-4   -1.217802702801429E-1    4.681288844992925E-1
 1.010418223205000E+10  -3.307933341553865E-1    3.641247668217431E-1   -1.294737970974805E-4   -1.672994111209177E-4   -9.151166316644218E-5   -1.608476403527544E-4   -1.213147318124209E-1    4.681670120730219E-1
 1.010418814062500E+10  -3.302392867505153E-1    3.643268308524129E-1   -1.121697578156166E-4   -1.809475649490039E-4   -8.294659042407014E-5   -1.687527068726546E-4   -1.208133553234406E-1    4.683830844792568E-1
 1.010419404920000E+10  -3.300619630606114E-1    3.646645334304592E-1   -9.042800453086574E-5   -1.656949556454245E-4   -6.667995371303791E-5   -1.778597244076975E-4   -1.203872026747838E-1    4.684658751841637E-1
 1.010419995777500E+10  -3.297569914463851E-1    3.648400264580829E-1   -1.231385298038814E-4   -1.491022811727098E-4   -7.114431998777848E-5   -1.540383064237449E-4   -1.199517401345158E-1    4.686174603309871E-1
 1.010420586635000E+10  -3.295296323037060E-1    3.650916830568042E-1   -9.140371467766499E-5   -1.460456285563291E-4   -4.575421510650591E-5   -1.449243347809453E-4   -1.195504784989798E-1    4.687677467285678E-1
 1.010421177492500E+10  -3.294086395260705E-1    3.653825727737237E-1   -7.874065942894363E-5   -1.712755526637237E-4   -3.591823383504574E-5   -1.524305676022325E-4   -1.191685877240698E-1    4.688588715354158E-1
 1.010421768350000E+10  -3.290468282197278E-1    3.655233371084569E-1   -8.413816047553882E-5   -1.279861077321159E-4   -4.080235972498369E-5   -1.270770830404409E-4   -1.185545285501564E-1    4.690591636739495E-1
 1.010422359207500E+10  -3.287943727643818E-1    3.658973202243011E-1   -3.809505513339024E-5   -1.148200945562436E-4    2.365022034911666E-7   -1.449017160084960E-4   -1.181160082496938E-1    4.690637603289470E-1
 1.010422950065000E+10  -3.286590060713673E-1    3.661229362074203E-1   -4.497491393299579E-5   -1.497667292771409E-4   -4.481654069919036E-5   -1.436393174938237E-4   -1.177274127995735E-1    4.692243575603551E-1
 1.010423540922500E+10  -3.282926526808548E-1    3.663042375933492E-1   -3.302584282806610E-5   -1.279845490159012E-4   -2.989908461180029E-5   -1.201699296639726E-4   -1.172119233892492E-1    4.693201700564958E-1
 1.010424131780000E+10  -3.281042790733671E-1    3.667636240470197E-1   -2.659348117070449E-5   -1.553146543006241E-4   -1.483387767018882E-5   -1.240498417070943E-4   -1.168009009536221E-1    4.693535313288763E-1
 1.010424722637500E+10  -3.277680620568078E-1    3.667721161425034E-1   -1.071775694812682E-5   -1.316177667531415E-4   -2.211086520617341E-5   -1.294423621861265E-4   -1.163310701805762E-1    4.695550375672576E-1
 1.010425313495000E+10  -3.276054713730093E-1    3.671177785284151E-1   -2.997925561451564E-5   -1.398609446472514E-4   -2.483140713419106E-5   -1.293915310977917E-4   -1.160042901505805E-1    4.696330938705538E-1
 1.010425904352500E+10  -3.272872783055973E-1    3.674191695594667E-1   -4.138509867805110E-6   -1.233278557365626E-4   -1.041543143131372E-5   -1.332119382643405E-4   -1.154008936806696E-1    4.696824633065352E-1
 1.010426495210000E+10  -3.269616096018664E-1    3.676745426014438E-1    8.463218271407503E-6   -1.105705828815640E-4    5.322087224653552E-6   -1.036129362141270E-4   -1.148177883731162E-1    4.698982623585839E-1
 1.010427086067500E+10  -3.267496520306097E-1    3.679300446920254E-1   -8.203599942154296E-6   -1.183314199609023E-4    1.828434128338651E-5   -1.219231835754409E-4   -1.144313026418848E-1    4.699723213038771E-1
 1.010427676925000E+10  -3.263805712067611E-1    3.681009793458660E-1    3.597445845384158E-6   -1.250009132919561E-4    1.938525594647086E-5   -1.085765489964130E-4   -1.140056838278929E-1    4.701855367914478E-1
 1.010428267782500E+10  -3.262596403423296E-1    3.683919221393133E-1    5.118689524967206E-5   -1.354601126396677E-4    4.145806467275077E-5   -1.154984557698214E-4   -1.136284775909135E-1    4.701715098555346E-1
 1.010428858640000E+10  -3.259234832099477E-1    3.685797167753916E-1    3.109227707686456E-5   -1.227150495585922E-4    4.490301807075904E-5   -1.049215525144554E-4   -1.132498519203797E-1    4.702599187184098E-1
 1.010429449497500E+10  -3.257378212423789E-1    3.689034924485416E-1    5.143042462194426E-5   -1.245907580124459E-4    6.646175219467581E-5   -1.213344570980645E-4   -1.125504909144736E-1    4.704770312421437E-1
 1.010430040355000E+10  -3.253600985494624E-1    3.690462862864416E-1    5.029289576248315E-5   -1.166362861950124E-4    6.149041010934303E-5   -1.087057940117823E-4   -1.121252956131917E-1    4.706301372746027E-1
 1.010430631212500E+10  -3.251530804655248E-1    3.692386081518461E-1    6.924326751346658E-5   -1.499739740790887E-4    9.990595616344199E-5   -9.569477976612561E-5   -1.115829657760960E-1    4.706235923063812E-1
 1.010431222070000E+10  -3.248271565224883E-1    3.695919568707264E-1    7.052185806607689E-5   -1.164426688239249E-4    8.913463859160896E-5   -1.156467639045722E-4   -1.111645038733541E-1    4.708304942461393E-1
 1.010431812927500E+10  -3.246715280467479E-1    3.698986193711974E-1    8.768915458223503E-5   -1.202859777204732E-4    9.521946331019804E-5   -9.526412436294154E-5   -1.107023381668825E-1    4.708373241105822E-1
 1.010432403785000E+10  -3.244266102717852E-1    3.701323293368585E-1    1.111627623330707E-4   -1.174927281997612E-4    1.038255370963759E-4   -1.192175248437324E-4   -1.101455913757784E-1    4.708815058157365E-1
 1.010432994642500E+10  -3.240971037433032E-1    3.703267016075675E-1    1.160047590645344E-4   -1.055742567660583E-4    1.166065697738084E-4   -8.031800874211369E-5   -1.096468401957188E-1    4.709865085698295E-1
 1.010433585500000E+10  -3.239606924779469E-1    3.705193545526772E-1    1.343763733369365E-4   -1.040271447332012E-4    1.078981751468345E-4   -1.249155614349776E-4   -1.091329315918229E-1    4.711403895231375E-1
 1.010434176357500E+10  -3.235501631440110E-1    3.708935380012784E-1    1.345130526661197E-4   -1.332004101130376E-4    1.301610743509225E-4   -6.705594127224118E-5   -1.087108686039087E-1    4.712101972495886E-1
 1.010434767215000E+10  -3.232871542235213E-1    3.711951885760338E-1    1.552489926550692E-4   -8.124765313132720E-5    1.437342492383906E-4   -9.248899129417566E-5   -1.081262915014586E-1    4.713759511273480E-1
 1.010435358072500E+10  -3.231558188355829E-1    3.714356782989416E-1    1.696220433285725E-4   -9.902389670957364E-5    1.497141076277857E-4   -8.311868820923630E-5   -1.076968481656078E-1    4.714973787951698E-1
 1.010435948930000E+10  -3.228069929883845E-1    3.716046761284954E-1    1.296528080984417E-4   -9.954842797824806E-5    1.709601200004861E-4   -7.407259226110198E-5   -1.072337644738579E-1    4.715095975002405E-1
 1.010436539787500E+10  -3.225357705708712E-1    3.718260543717268E-1    1.848616294889377E-4   -7.125317692422361E-5    2.020426290370837E-4   -9.707736372556020E-5   -1.066026148956652E-1    4.716103806205832E-1
 1.010437130645000E+10  -3.222427099088096E-1    3.721068052349237E-1    1.798404117902680E-4   -8.049245338474617E-5    2.016064071514415E-4   -4.815363376493728E-5   -1.061141473741219E-1    4.716939830999459E-1
 1.010437721502500E+10  -3.220172278915691E-1    3.723556676843409E-1    2.267965756218539E-4   -1.213963408062297E-4    2.067812273737349E-4   -8.372945289400519E-5   -1.056596666815654E-1    4.717949221422642E-1
 1.010438312360000E+10  -3.217833650428215E-1    3.726053168530129E-1    2.259668454226482E-4   -6.322680537989599E-5    2.413569780861465E-4   -6.778697761807742E-5   -1.052089462217494E-1    4.718770456844112E-1
 1.010438903217500E+10  -3.215092206679022E-1    3.728397690414962E-1    2.137383328207572E-4   -6.873402785683909E-5    2.232117704880795E-4   -5.639703282434148E-5   -1.046172458578807E-1    4.718708011475868E-1
 1.010439494075000E+10  -3.212891007951297E-1    3.731663388516685E-1    2.484073938445925E-4   -8.702437264777749E-5    2.252153916831098E-4   -6.514974955977945E-5   -1.042546246871926E-1    4.721146201979040E-1
