#  HZ   S   RI   R     50.00 
! Rohde & Schwarz Vector Network Analyzer 
! Rohde-Schwarz,ZNB20-2Port,1311601062101988,3.16
! Created: UTC 3/20/2024, 5:06:02 PM
! freq[Hz]                re:S11                  im:S11                  re:S21                  im:S21                  re:S12                  im:S12                  re:S22                  im:S22
 1.010107761300000E+10  -4.350343334084641E-1    2.075574302103424E-1   -5.554849243069088E-4   -7.663568479724306E-4   -4.986478124937994E-4   -7.836304406316371E-4   -3.024157034721797E-1    3.656308036868453E-1
 1.010109685587500E+10  -4.344974842300399E-1    2.086523116579376E-1   -5.718049458990151E-4   -7.538620026763301E-4   -4.839723750282561E-4   -7.648495767728448E-4   -3.014187008502587E-1    3.663920135578447E-1
 1.010111609875000E+10  -4.340056033320698E-1    2.096218777134393E-1   -5.713234487246749E-4   -7.685106805720087E-4   -5.134666184161984E-4   -7.883623680188408E-4   -3.004297810336865E-1    3.673777444671892E-1
 1.010113534162500E+10  -4.335957437420305E-1    2.108169281829655E-1   -6.006151952688267E-4   -7.682845308400134E-4   -5.204478629478226E-4   -7.774108407680023E-4   -2.996600178041623E-1    3.680932401843197E-1
 1.010115458450000E+10  -4.331255400353077E-1    2.117993704469032E-1   -5.983131762618091E-4   -7.609203327214739E-4   -5.210685819384577E-4   -7.600066250436338E-4   -2.986803619964615E-1    3.688927913083671E-1
 1.010117382737500E+10  -4.326905890280008E-1    2.127673628704417E-1   -5.920299421420660E-4   -7.382836515946852E-4   -5.038119922102786E-4   -7.547956987842533E-4   -2.976825900585037E-1    3.696887115014197E-1
 1.010119307025000E+10  -4.322260583332993E-1    2.140933942487288E-1   -5.912819465408012E-4   -7.513397105367274E-4   -5.424690127102578E-4   -7.629456058143447E-4   -2.967518020009960E-1    3.706243039372431E-1
 1.010121231312500E+10  -4.318454700950286E-1    2.151847652268344E-1   -5.861148209899750E-4   -7.626763516930356E-4   -5.124132178650412E-4   -7.647424385464905E-4   -2.958474527204325E-1    3.713513171310481E-1
 1.010123155600000E+10  -4.312353236506208E-1    2.162106326633635E-1   -5.715047057821570E-4   -7.257750665103790E-4   -5.070426630183496E-4   -7.649435397474563E-4   -2.949823637656556E-1    3.722589005053345E-1
 1.010125079887500E+10  -4.308486550956846E-1    2.172979605322936E-1   -5.910016167284398E-4   -7.338526266292629E-4   -5.022078615511555E-4   -7.581796323877482E-4   -2.939760233289040E-1    3.730645875466683E-1
 1.010127004175000E+10  -4.303348839937000E-1    2.183699491967407E-1   -5.977551002649118E-4   -7.478624503688296E-4   -5.420265782797742E-4   -7.508194605233006E-4   -2.931467928551905E-1    3.738676937690634E-1
 1.010128928462500E+10  -4.298148206067747E-1    2.194829686424944E-1   -5.988563129802992E-4   -7.583198422548403E-4   -5.468456044561853E-4   -7.698867689397507E-4   -2.920276416762450E-1    3.745270606018388E-1
 1.010130852750000E+10  -4.294064875986084E-1    2.205880086400990E-1   -5.582719161226982E-4   -7.394508796245000E-4   -5.152274899211740E-4   -7.595622434601804E-4   -2.910307132661025E-1    3.753746108456151E-1
 1.010132777037500E+10  -4.289602292320087E-1    2.215780984804261E-1   -5.975406642902091E-4   -7.234688171158817E-4   -5.125714630730301E-4   -7.561334158540906E-4   -2.902303995424780E-1    3.761460004137790E-1
 1.010134701325000E+10  -4.283822889908775E-1    2.225482290433766E-1   -6.081917906451700E-4   -7.201094493414151E-4   -5.035824570980313E-4   -7.488006140508413E-4   -2.891843816654986E-1    3.769800266043171E-1
 1.010136625612500E+10  -4.278441516717933E-1    2.237100478597744E-1   -6.051987250866778E-4   -7.127843718807694E-4   -5.166604438882791E-4   -7.556324645928429E-4   -2.882279064036210E-1    3.778761889878786E-1
 1.010138549900000E+10  -4.273717799107472E-1    2.247309401521595E-1   -5.952964163354625E-4   -7.368521922201308E-4   -5.142739506816376E-4   -7.445864161598173E-4   -2.873822054930689E-1    3.787910298496956E-1
 1.010140474187500E+10  -4.269409356453851E-1    2.256805134864089E-1   -5.844548218921309E-4   -6.976309661419317E-4   -5.168394443912878E-4   -7.366173477554400E-4   -2.864527149246819E-1    3.795557565571094E-1
 1.010142398475000E+10  -4.265549808601708E-1    2.269974665827477E-1   -6.122770981788250E-4   -7.142473330216645E-4   -5.148977865345503E-4   -7.240913152697105E-4   -2.854103816023298E-1    3.801947916834036E-1
 1.010144322762500E+10  -4.259251462609028E-1    2.280160995201908E-1   -6.044375895512387E-4   -7.380327372096548E-4   -5.015012748765612E-4   -7.271777991373481E-4   -2.844304259549664E-1    3.810314577314800E-1
 1.010146247050000E+10  -4.254944640645704E-1    2.289366167208862E-1   -5.962805063214373E-4   -7.121157848420704E-4   -5.368935687103652E-4   -7.324066218258474E-4   -2.834525276016747E-1    3.818332005049654E-1
 1.010148171337500E+10  -4.249560869749280E-1    2.300257341249747E-1   -6.002852267971178E-4   -7.088891209085776E-4   -5.355138228087012E-4   -7.396162614729313E-4   -2.825463731963277E-1    3.826640032048327E-1
 1.010150095625000E+10  -4.245162842518787E-1    2.311388291814838E-1   -6.242769004856162E-4   -7.300766593338467E-4   -5.206563787582674E-4   -7.531766712664100E-4   -2.814715728247992E-1    3.833530735280790E-1
 1.010152019912500E+10  -4.240209952094041E-1    2.321911503571240E-1   -6.280050047890273E-4   -6.877633670752987E-4   -5.427909744266454E-4   -7.411098002122680E-4   -2.806136806101162E-1    3.841887274997069E-1
 1.010153944200000E+10  -4.233565683337686E-1    2.332959051312356E-1   -6.216285013481011E-4   -7.046109906614083E-4   -5.178135298743003E-4   -7.232705885515605E-4   -2.796012130372081E-1    3.849929907789480E-1
 1.010155868487500E+10  -4.227909156849155E-1    2.342742999267556E-1   -5.922353912873584E-4   -6.745680810678510E-4   -5.390248729265752E-4   -7.198959835029598E-4   -2.787397833071745E-1    3.856546711005329E-1
 1.010157792775000E+10  -4.224624834017344E-1    2.354140763341850E-1   -5.826148191536339E-4   -7.068112272685533E-4   -5.426208041170694E-4   -7.107630425524916E-4   -2.776952690510653E-1    3.865352033776246E-1
 1.010159717062500E+10  -4.217965705172382E-1    2.364729927117819E-1   -6.036274392756169E-4   -7.172330048619654E-4   -5.380107530688828E-4   -7.105246527441223E-4   -2.765754622357477E-1    3.873858367049997E-1
 1.010161641350000E+10  -4.213215459133889E-1    2.374363794802597E-1   -6.189950130669165E-4   -6.990621367896809E-4   -5.325582849832407E-4   -7.502407431017334E-4   -2.755300625509900E-1    3.881174076837234E-1
 1.010163565637500E+10  -4.208400397027802E-1    2.384447503766346E-1   -5.965255158086268E-4   -7.064668207069764E-4   -5.448350089620889E-4   -7.314625150822428E-4   -2.746712410326884E-1    3.889994567872347E-1
 1.010165489925000E+10  -4.203077709490671E-1    2.395458945045013E-1   -6.104158045388108E-4   -7.107055376034769E-4   -5.296691996016178E-4   -7.380075972382193E-4   -2.738211989374544E-1    3.897108986777383E-1
 1.010167414212500E+10  -4.198552719820711E-1    2.406046762230460E-1   -6.348850552910321E-4   -6.897216255978410E-4   -5.491143658299515E-4   -7.064565195447330E-4   -2.727056574036295E-1    3.904024332298268E-1
 1.010169338500000E+10  -4.192506920612317E-1    2.416984084642143E-1   -5.923343690233784E-4   -7.142600505238222E-4   -5.359073141814183E-4   -6.954010484965035E-4   -2.716978613533457E-1    3.911892302284988E-1
 1.010171262787500E+10  -4.187183103141778E-1    2.425847047158534E-1   -6.092136867977897E-4   -6.652486187128389E-4   -5.326352240886432E-4   -7.054031832778648E-4   -2.707809028505433E-1    3.919846725302344E-1
 1.010173187075000E+10  -4.181363913097249E-1    2.436233877144804E-1   -6.056884164823855E-4   -7.105191073575580E-4   -5.337621026462606E-4   -7.095419308165655E-4   -2.696418272132054E-1    3.927393327399073E-1
 1.010175111362500E+10  -4.176096089841523E-1    2.448851630747673E-1   -5.993358445171728E-4   -6.969980204005799E-4   -5.107585242412792E-4   -7.164506271698615E-4   -2.686268325893627E-1    3.934323779207266E-1
 1.010177035650000E+10  -4.172219534855519E-1    2.458366276604723E-1   -6.019097511076585E-4   -6.713965361930690E-4   -5.369158439696654E-4   -7.074752041696758E-4   -2.676603226991733E-1    3.941909827495075E-1
 1.010178959937500E+10  -4.166196564926731E-1    2.467955434298958E-1   -6.004739647189917E-4   -6.868695056534643E-4   -5.458665290503712E-4   -6.894948578422401E-4   -2.667989260036536E-1    3.948853359908990E-1
 1.010180884225000E+10  -4.160669503554270E-1    2.478006647155906E-1   -6.266660880138744E-4   -6.762063489659783E-4   -5.394964080618697E-4   -6.692399858241391E-4   -2.657794216231054E-1    3.956206822765386E-1
 1.010182808512500E+10  -4.154267704858721E-1    2.489048176047882E-1   -5.878460131210369E-4   -6.454866640755604E-4   -5.470457372302302E-4   -6.716166740211781E-4   -2.647439600942831E-1    3.963452950862084E-1
 1.010184732800000E+10  -4.150249392524460E-1    2.499068159178418E-1   -6.253308145810189E-4   -6.695053792483619E-4   -5.522254117578192E-4   -6.855212081357280E-4   -2.636170194879283E-1    3.971291167893312E-1
 1.010186657087500E+10  -4.143760572215695E-1    2.509578712396641E-1   -5.846096650487115E-4   -6.616884710722771E-4   -5.294356694035684E-4   -6.985491416023963E-4   -2.627091811865298E-1    3.978990630961735E-1
 1.010188581375000E+10  -4.138793530649101E-1    2.520496528297937E-1   -6.054466999337698E-4   -6.461406966897428E-4   -5.443940413126111E-4   -6.670255701209302E-4   -2.616102028422190E-1    3.986990064858746E-1
 1.010190505662500E+10  -4.132587791834755E-1    2.529903363160212E-1   -6.361249400832525E-4   -6.342653923450402E-4   -5.356214614609075E-4   -6.816295504151881E-4   -2.605559159562431E-1    3.993365305518021E-1
 1.010192429950000E+10  -4.127779367648023E-1    2.541127206419772E-1   -5.897737552486806E-4   -6.577217675183879E-4   -5.439657018964318E-4   -6.885280045424324E-4   -2.595845823718908E-1    4.000993716148549E-1
 1.010194354237500E+10  -4.121285678034020E-1    2.550880754057177E-1   -6.171448462239473E-4   -6.656928831211788E-4   -5.496905073904496E-4   -6.858495866191313E-4   -2.587030599855284E-1    4.008030581468056E-1
 1.010196278525000E+10  -4.116122008611075E-1    2.561428386007579E-1   -6.110187352642924E-4   -6.348862209069178E-4   -5.291975661765186E-4   -6.544560581440384E-4   -2.576069932792889E-1    4.015920961953574E-1
 1.010198202812500E+10  -4.110079630581743E-1    2.572775127497745E-1   -5.910665624468548E-4   -6.434366372098287E-4   -5.565674532906919E-4   -6.701491874349205E-4   -2.566391060830956E-1    4.023367412505364E-1
 1.010200127100000E+10  -4.104648730380532E-1    2.581599569825458E-1   -6.310286559502923E-4   -6.366008773021029E-4   -5.536547630660008E-4   -6.701957466330258E-4   -2.556271411356479E-1    4.029237008641822E-1
 1.010202051387500E+10  -4.098464973817194E-1    2.591476032408087E-1   -6.251915490798760E-4   -6.634640322502207E-4   -5.393022909086370E-4   -6.648935965413145E-4   -2.545219694515936E-1    4.036643858556723E-1
 1.010203975675000E+10  -4.093970089195630E-1    2.602131323444713E-1   -6.227538808066590E-4   -6.174730441709951E-4   -5.527930330954133E-4   -6.659363263340836E-4   -2.534700053274762E-1    4.043200596391477E-1
 1.010205899962500E+10  -4.087749745001942E-1    2.612541061545297E-1   -6.015848283639703E-4   -6.332659656815474E-4   -5.274360760538124E-4   -6.459989870609144E-4   -2.523366187682445E-1    4.051669005943985E-1
 1.010207824250000E+10  -4.080795685325962E-1    2.623013615358243E-1   -6.254886241751013E-4   -6.280761549912178E-4   -5.344697257074180E-4   -6.330570956998281E-4   -2.514673796232529E-1    4.057273100785756E-1
 1.010209748537500E+10  -4.074331583443623E-1    2.632573181880305E-1   -6.291475213140885E-4   -6.219656277456991E-4   -5.288595861339807E-4   -6.623740741147043E-4   -2.503685351224406E-1    4.064597008763028E-1
 1.010211672825000E+10  -4.069849471492568E-1    2.642613615964761E-1   -6.146613716766525E-4   -6.242451286787691E-4   -5.466484580218158E-4   -6.616364340236533E-4   -2.492554090251392E-1    4.071960135444241E-1
 1.010213597112500E+10  -4.064046502226761E-1    2.653156418160816E-1   -6.258025910927044E-4   -6.397316076864968E-4   -5.405696116455544E-4   -6.460592526321839E-4   -2.482730877686908E-1    4.079894825795373E-1
 1.010215521400000E+10  -4.058486545013306E-1    2.663434439095213E-1   -5.940923761551876E-4   -6.468067204741317E-4   -5.407253977842268E-4   -6.373374899485692E-4   -2.472725243619546E-1    4.087200417861402E-1
 1.010217445687500E+10  -4.052532511111891E-1    2.674152857019763E-1   -6.196491991740112E-4   -6.184454421414380E-4   -5.550134587688247E-4   -6.606515506045850E-4   -2.461073964279436E-1    4.093159280762390E-1
 1.010219369975000E+10  -4.046068457656005E-1    2.682892869352650E-1   -6.100348324358799E-4   -6.141562088131899E-4   -5.437052597904256E-4   -6.494092729638065E-4   -2.452936051552628E-1    4.100721886753173E-1
 1.010221294262500E+10  -4.039960864101527E-1    2.693810263410290E-1   -6.383749693799008E-4   -6.259784747029386E-4   -5.167806837933706E-4   -6.316778223908762E-4   -2.441060389281081E-1    4.106616866070840E-1
 1.010223218550000E+10  -4.033569401227253E-1    2.703371665133547E-1   -6.114696849001412E-4   -6.283941930312512E-4   -5.580656918887962E-4   -6.322032648684351E-4   -2.430963517067843E-1    4.114566875575403E-1
 1.010225142837500E+10  -4.028044651786192E-1    2.712926141541985E-1   -6.126049774115541E-4   -5.902414731236890E-4   -5.287065844143460E-4   -6.366424038065788E-4   -2.419583932165281E-1    4.120265649565206E-1
 1.010227067125000E+10  -4.021267299934254E-1    2.723348497801353E-1   -6.109106662852919E-4   -5.973211130749258E-4   -5.315268105091982E-4   -6.213363130728180E-4   -2.409146439710246E-1    4.127461973343252E-1
 1.010228991412500E+10  -4.015282967539690E-1    2.733133037424989E-1   -5.882927300027500E-4   -5.963954564377554E-4   -5.571952846727963E-4   -6.145795035567785E-4   -2.397582602310662E-1    4.133542666817335E-1
 1.010230915700000E+10  -4.009998537111440E-1    2.742963773993405E-1   -5.943181756133380E-4   -5.967550371535344E-4   -5.353266841595353E-4   -6.567636253419438E-4   -2.389054318631463E-1    4.140292709777662E-1
 1.010232839987500E+10  -4.005181703487000E-1    2.753706864420215E-1   -5.914613251291554E-4   -5.935664327380241E-4   -5.443977542219147E-4   -6.133433973256425E-4   -2.376597777441667E-1    4.146845641586872E-1
 1.010234764275000E+10  -3.998384923324050E-1    2.763862363585818E-1   -5.869382770945656E-4   -5.928411936651968E-4   -5.300626482350198E-4   -6.226613508466446E-4   -2.366766244642776E-1    4.155482945187798E-1
 1.010236688562500E+10  -3.992145827370165E-1    2.774086166257352E-1   -6.089274310164118E-4   -6.111603724506734E-4   -5.289838545604691E-4   -6.265920041576225E-4   -2.356506391254183E-1    4.161778306891361E-1
 1.010238612850000E+10  -3.985732461524694E-1    2.783527873431337E-1   -6.012330421221860E-4   -5.705393637664711E-4   -5.210432174480428E-4   -6.135963805160784E-4   -2.344617320240165E-1    4.167957175161558E-1
 1.010240537137500E+10  -3.978642233339182E-1    2.794008821241026E-1   -6.205752930048672E-4   -5.819800065020170E-4   -5.344031447726138E-4   -6.100448330099889E-4   -2.333769344344029E-1    4.174671720139911E-1
 1.010242461425000E+10  -3.971918497103082E-1    2.803326559480538E-1   -5.888091574221185E-4   -5.947753012613220E-4   -5.396701079270525E-4   -6.185741067378832E-4   -2.323504145789580E-1    4.181221423278701E-1
 1.010244385712500E+10  -3.965885799943141E-1    2.812919341109130E-1   -6.071733264825819E-4   -5.997147347567707E-4   -5.533086448151496E-4   -5.873234644091196E-4   -2.312912160126767E-1    4.188285916435904E-1
 1.010246310000000E+10  -3.960373293042356E-1    2.822811662734094E-1   -6.017429904337847E-4   -5.800257269510685E-4   -5.215612136473295E-4   -5.755806922954770E-4   -2.302654831451697E-1    4.194181163900048E-1
 1.010248234287500E+10  -3.954596533953571E-1    2.832524486647823E-1   -5.947028409861736E-4   -5.806569022917167E-4   -5.381525531403723E-4   -5.742229564153911E-4   -2.292860273994436E-1    4.199683215921994E-1
 1.010250158575000E+10  -3.947216084206192E-1    2.842214664772038E-1   -6.129532103112093E-4   -5.527299756807627E-4   -5.327319753969605E-4   -5.899617446466808E-4   -2.281181832337558E-1    4.207402479525062E-1
 1.010252082862500E+10  -3.940169988384837E-1    2.852024764424841E-1   -5.878277036829987E-4   -5.542063229181617E-4   -5.070974903119403E-4   -6.025018683843232E-4   -2.270090702477389E-1    4.213083883769714E-1
 1.010254007150000E+10  -3.934276029227709E-1    2.861665757262400E-1   -5.698773501368072E-4   -5.919523789214784E-4   -5.011908791065342E-4   -5.883022461136852E-4   -2.258544993548890E-1    4.220579229782046E-1
 1.010255931437500E+10  -3.928430844655060E-1    2.872704971055328E-1   -5.667086994852879E-4   -5.644998038294555E-4   -5.246464540269593E-4   -5.816949498640895E-4   -2.248034950901492E-1    4.226644349609864E-1
 1.010257855725000E+10  -3.920936702344760E-1    2.881555661545195E-1   -5.743848499478413E-4   -5.708723833408884E-4   -5.414147732309029E-4   -5.669073404928709E-4   -2.236837399622448E-1    4.233444128503892E-1
 1.010259780012500E+10  -3.915305046866767E-1    2.892453576788767E-1   -5.805678363445934E-4   -5.160751213753489E-4   -5.172819053619609E-4   -5.835847464152438E-4   -2.226671515872737E-1    4.239966972710428E-1
 1.010261704300000E+10  -3.908395281130254E-1    2.900810679849344E-1   -6.180976551885044E-4   -5.409302483402687E-4   -5.190748910697190E-4   -5.654263141483647E-4   -2.215243997757751E-1    4.245037505953434E-1
 1.010263628587500E+10  -3.903071899930080E-1    2.910917897521750E-1   -5.903845699825473E-4   -5.402697778081214E-4   -5.343315383296537E-4   -5.726924452958441E-4   -2.204318246237208E-1    4.251965777035690E-1
 1.010265552875000E+10  -3.895717223182209E-1    2.921154121867113E-1   -5.728632420734272E-4   -5.500659223201936E-4   -5.018821717113250E-4   -5.549631051573891E-4   -2.191121514573020E-1    4.256370041063329E-1
 1.010267477162500E+10  -3.889825038059553E-1    2.930817708914368E-1   -5.754460036779631E-4   -5.175773671789040E-4   -5.243808755739796E-4   -5.742856771151598E-4   -2.180930226268041E-1    4.264561468182740E-1
 1.010269401450000E+10  -3.882450524353209E-1    2.940159507463996E-1   -5.563624406870289E-4   -5.230565578466440E-4   -5.222063673698875E-4   -5.636761704858996E-4   -2.170887206594356E-1    4.270936458099628E-1
 1.010271325737500E+10  -3.875540895075504E-1    2.950581064931659E-1   -5.765147340591693E-4   -5.206044855495612E-4   -5.120137068745144E-4   -5.795851723570498E-4   -2.158564125547400E-1    4.276567313837080E-1
 1.010273250025000E+10  -3.871052296214426E-1    2.960441557900970E-1   -5.704297946076963E-4   -5.311247174481950E-4   -5.218405434358821E-4   -5.622899390261422E-4   -2.147976250592593E-1    4.283911016381518E-1
 1.010275174312500E+10  -3.862359907552289E-1    2.969339396845213E-1   -5.595342760115519E-4   -5.261666069967016E-4   -4.888442320797563E-4   -5.474717109790317E-4   -2.137533655741760E-1    4.289768142878413E-1
 1.010277098600000E+10  -3.857471677024701E-1    2.977641243993573E-1   -5.749401102901556E-4   -5.194208930326833E-4   -4.977848863361011E-4   -5.523965168102001E-4   -2.125820112793926E-1    4.295910326826173E-1
 1.010279022887500E+10  -3.851032792715318E-1    2.988808987889554E-1   -5.611593297987636E-4   -5.068063814156944E-4   -4.962655929167592E-4   -5.420263253518385E-4   -2.114719482398313E-1    4.301676128462405E-1
 1.010280947175000E+10  -3.843053284419800E-1    2.997524585776107E-1   -5.464522831028673E-4   -5.053049896145842E-4   -4.768545229998539E-4   -5.204106084828265E-4   -2.103208761435651E-1    4.306259237344364E-1
