#  HZ   S   RI   R     50.00 
! Rohde & Schwarz Vector Network Analyzer 
! Rohde-Schwarz,ZNB20-2Port,1311601062101988,3.16
! Created: UTC 3/20/2024, 4:51:08 PM
! freq[Hz]                re:S11                  im:S11                  re:S21                  im:S21                  re:S12                  im:S12                  re:S22                  im:S22
 1.010367232600000E+10  -3.520870928528502E-1    3.414567847388212E-1   -4.342090776300001E-4   -3.223573890232752E-4   -4.146075776777261E-4   -3.436428501261118E-4   -1.564330267602060E-1    4.566809811294282E-1
 1.010367909640000E+10  -3.517014649481709E-1    3.416964593584177E-1   -4.236167090593334E-4   -3.451656256881426E-4   -3.697943347230518E-4   -3.662374432165044E-4   -1.560035642470580E-1    4.568144374006178E-1
 1.010368586680000E+10  -3.514911980345592E-1    3.420341208735693E-1   -4.572313126194545E-4   -3.343950729535687E-4   -4.102650798584309E-4   -3.345849271344197E-4   -1.555717558314704E-1    4.570436583459723E-1
 1.010369263720000E+10  -3.511753264218617E-1    3.424642349163702E-1   -4.449399106403062E-4   -3.024012572427056E-4   -4.050496128283565E-4   -3.469808829423543E-4   -1.552122578900654E-1    4.572471060180237E-1
 1.010369940760000E+10  -3.508291819904030E-1    3.426179553253461E-1   -4.420040980963874E-4   -3.223355846382334E-4   -3.862292027958010E-4   -3.526485772594403E-4   -1.546613409194597E-1    4.573444818031532E-1
 1.010370617800000E+10  -3.505662730473193E-1    3.430480585530314E-1   -4.646371293393969E-4   -3.418890165431933E-4   -3.830984551102784E-4   -3.345841046315157E-4   -1.542680558156320E-1    4.574588541154242E-1
 1.010371294840000E+10  -3.502355737033883E-1    3.432452268713972E-1   -4.507715902083607E-4   -3.159333113718161E-4   -3.992126503071990E-4   -3.579003447982211E-4   -1.537953885879343E-1    4.577041663012457E-1
 1.010371971880000E+10  -3.499927704701065E-1    3.435778852036571E-1   -4.269095019827379E-4   -3.096963558368863E-4   -3.814476779377758E-4   -3.525792334869047E-4   -1.532649711032200E-1    4.578800035518681E-1
 1.010372648920000E+10  -3.496978571706381E-1    3.439011542312094E-1   -4.379333725081539E-4   -3.192957576305850E-4   -3.902316216210841E-4   -3.385110453585337E-4   -1.528724404063605E-1    4.580818527388180E-1
 1.010373325960000E+10  -3.494134882086458E-1    3.441524076886188E-1   -4.289055631364756E-4   -2.974049765191660E-4   -3.837632876988142E-4   -3.468695700274219E-4   -1.524211810977162E-1    4.582543323191118E-1
 1.010374003000000E+10  -3.491064716564222E-1    3.444980060921309E-1   -4.387791771910278E-4   -2.982566376684894E-4   -3.729989304065834E-4   -3.406160466595708E-4   -1.519858409833093E-1    4.583937209438636E-1
 1.010374680040000E+10  -3.489862096315458E-1    3.447466971121603E-1   -4.208591517595985E-4   -3.244811097035994E-4   -3.726140432431269E-4   -3.043261461204873E-4   -1.516726199060639E-1    4.585163155660961E-1
 1.010375357080000E+10  -3.486846130522033E-1    3.451716500977252E-1   -4.198386799371192E-4   -3.089306330126328E-4   -3.871750087489243E-4   -3.442997089113535E-4   -1.510613996313949E-1    4.586226712499308E-1
 1.010376034120000E+10  -3.483621802901748E-1    3.454617667174512E-1   -4.249821370782107E-4   -2.906032344884221E-4   -3.693687860283034E-4   -3.257327669433086E-4   -1.506390304724523E-1    4.588180995443533E-1
 1.010376711160000E+10  -3.481625760786419E-1    3.458154422790082E-1   -4.352272553556433E-4   -3.095196947642442E-4   -3.621672531974072E-4   -2.990259871141092E-4   -1.501812194129906E-1    4.590248410989935E-1
 1.010377388200000E+10  -3.478694457965348E-1    3.460568670345383E-1   -4.108887129043280E-4   -3.059052617196977E-4   -3.754735720033902E-4   -3.321551383049827E-4   -1.498343717985150E-1    4.591755351375051E-1
 1.010378065240000E+10  -3.473701560848686E-1    3.463322342336013E-1   -3.829675175659227E-4   -3.145685762651368E-4   -3.767796541022685E-4   -3.311853236041469E-4   -1.492750604145497E-1    4.593653101558340E-1
 1.010378742280000E+10  -3.472792629080576E-1    3.467205093661580E-1   -3.940410155064274E-4   -3.025055075590291E-4   -3.596501058501839E-4   -3.121537040392329E-4   -1.486891663139327E-1    4.594812558908653E-1
 1.010379419320000E+10  -3.469788422212755E-1    3.471652068118895E-1   -3.840807370275456E-4   -2.986272876755757E-4   -3.411959344738992E-4   -3.093567397222762E-4   -1.484479028937634E-1    4.595909816967947E-1
 1.010380096360000E+10  -3.468675984977526E-1    3.473374701204759E-1   -3.959825172406724E-4   -2.604710287009232E-4   -3.512364831513464E-4   -3.154761632592936E-4   -1.479695945674922E-1    4.598682094170852E-1
 1.010380773400000E+10  -3.464796387301473E-1    3.476026995612722E-1   -3.648608685989510E-4   -2.882732578887008E-4   -3.378138910344604E-4   -3.108116830054647E-4   -1.475884030843235E-1    4.599624385166140E-1
 1.010381450440000E+10  -3.461484778533314E-1    3.478629700966530E-1   -4.128852146206274E-4   -2.747225999094328E-4   -3.578170197773517E-4   -3.004303434192115E-4   -1.470258349450948E-1    4.600195426471277E-1
 1.010382127480000E+10  -3.457977572996774E-1    3.481688252407719E-1   -3.739454769318725E-4   -2.809660762937490E-4   -3.266496904551842E-4   -2.963874727239374E-4   -1.466456600985018E-1    4.603143876092036E-1
 1.010382804520000E+10  -3.456366770942152E-1    3.485499597449346E-1   -3.939195919861488E-4   -2.862018161555391E-4   -3.594444465263646E-4   -2.839072260102000E-4   -1.462331996621196E-1    4.604031757792323E-1
 1.010383481560000E+10  -3.453156520333422E-1    3.487976357045398E-1   -3.604062857497800E-4   -2.762380002382411E-4   -3.422622179564906E-4   -2.843672343140705E-4   -1.457714754525175E-1    4.605770545000199E-1
 1.010384158600000E+10  -3.448971584823904E-1    3.491545868559040E-1   -3.853771869063137E-4   -2.936449799338962E-4   -3.297420976050790E-4   -3.027605320335190E-4   -1.451899805147278E-1    4.607372349257457E-1
 1.010384835640000E+10  -3.447637537118785E-1    3.492607944861980E-1   -3.772334114594164E-4   -2.848190521779195E-4   -3.184991337209320E-4   -2.959058433276329E-4   -1.447884289335205E-1    4.608955686685439E-1
 1.010385512680000E+10  -3.444450135997140E-1    3.497172495862747E-1   -3.369408687771404E-4   -2.709726201762691E-4   -3.156931050372288E-4   -3.062019989782215E-4   -1.443015680021958E-1    4.610918408653941E-1
 1.010386189720000E+10  -3.441958381441759E-1    3.499665521425112E-1   -3.846295146317691E-4   -2.790747319963409E-4   -3.304703525005069E-4   -2.934840070236944E-4   -1.438046972695588E-1    4.611849944056063E-1
 1.010386866760000E+10  -3.439131842891204E-1    3.502701074646412E-1   -3.678642037816135E-4   -2.786417007570540E-4   -3.136395306478124E-4   -2.820440640249429E-4   -1.433915601266620E-1    4.614537575118762E-1
 1.010387543800000E+10  -3.436374884623174E-1    3.505496175803589E-1   -3.515733154983072E-4   -2.687152182166808E-4   -3.192745202022734E-4   -2.969323219247195E-4   -1.429919586829357E-1    4.614849104710438E-1
 1.010388220840000E+10  -3.432941189511443E-1    3.509348540728208E-1   -3.413166179232697E-4   -2.601881899156499E-4   -3.096486748668891E-4   -2.901685368093837E-4   -1.424341491110769E-1    4.616102985148660E-1
 1.010388897880000E+10  -3.430038878615423E-1    3.513320367141661E-1   -3.369775020593052E-4   -2.459986177611196E-4   -3.032888022386257E-4   -2.867784193567445E-4   -1.420394494839473E-1    4.618152573976436E-1
 1.010389574920000E+10  -3.426884911473609E-1    3.516470207310724E-1   -3.156627424373218E-4   -2.426702085709857E-4   -3.082577825301606E-4   -2.616887639445605E-4   -1.415348138197295E-1    4.619902764106865E-1
 1.010390251960000E+10  -3.424844513882071E-1    3.518014509533208E-1   -3.359680959410979E-4   -2.835870996937460E-4   -2.923316664280391E-4   -2.826702715934151E-4   -1.411398060986413E-1    4.621749686344267E-1
 1.010390929000000E+10  -3.422392024264959E-1    3.521567450376645E-1   -3.457104229781376E-4   -2.730316401812758E-4   -2.964752524791087E-4   -2.682666690689220E-4   -1.406341572210370E-1    4.623487103642586E-1
 1.010391606040000E+10  -3.419117900852314E-1    3.523194380355339E-1   -3.221519272663637E-4   -2.559733045274777E-4   -2.906987980726405E-4   -2.579715385077446E-4   -1.401765140668284E-1    4.624865640222253E-1
 1.010392283080000E+10  -3.415711862802494E-1    3.527747587678234E-1   -3.176350070188059E-4   -2.481961649126258E-4   -2.815973554560775E-4   -2.695077180483247E-4   -1.396558523730638E-1    4.625721050430781E-1
 1.010392960120000E+10  -3.413647300370194E-1    3.530387910775152E-1   -3.016327489680373E-4   -2.452752419412128E-4   -2.909182945812301E-4   -2.784616139308201E-4   -1.390762222415497E-1    4.627699860234348E-1
 1.010393637160000E+10  -3.409331575933401E-1    3.532644739812328E-1   -3.195933104454271E-4   -2.218056763943065E-4   -2.757470835366373E-4   -2.546559006564905E-4   -1.386834949591650E-1    4.629263547424168E-1
 1.010394314200000E+10  -3.406918286198689E-1    3.536991348963854E-1   -3.073073442815758E-4   -2.433940727183732E-4   -2.696388722521354E-4   -2.772284267134942E-4   -1.382937937818494E-1    4.631637856668786E-1
 1.010394991240000E+10  -3.403846371981720E-1    3.538808861903202E-1   -3.144561572386207E-4   -2.364776283189381E-4   -2.632211991483218E-4   -2.926089500571800E-4   -1.378052517068578E-1    4.632057069653494E-1
 1.010395668280000E+10  -3.401643186196227E-1    3.543002215492345E-1   -3.127224794100688E-4   -2.300894821516726E-4   -2.699616846497235E-4   -2.633681401901702E-4   -1.372177843746343E-1    4.634176869793405E-1
 1.010396345320000E+10  -3.399161096127600E-1    3.545719176381589E-1   -2.863915469500492E-4   -2.447046649722960E-4   -2.236307180211885E-4   -2.645189733089391E-4   -1.368099802378313E-1    4.633678964702532E-1
 1.010397022360000E+10  -3.397274797245414E-1    3.548899640745383E-1   -2.616173375549829E-4   -2.466229014119907E-4   -2.282472871224197E-4   -2.644073768011239E-4   -1.365085912145130E-1    4.636185527483242E-1
 1.010397699400000E+10  -3.392088465057414E-1    3.551028559561439E-1   -2.885000621753514E-4   -2.411997752015154E-4   -2.591966731710500E-4   -2.788238768831810E-4   -1.360481688932174E-1    4.638310242610780E-1
 1.010398376440000E+10  -3.391046928868340E-1    3.554476682061591E-1   -2.821322980364701E-4   -2.512486719155136E-4   -2.255294040519142E-4   -2.654470101480468E-4   -1.354324977908822E-1    4.639746862623650E-1
 1.010399053480000E+10  -3.387946078632016E-1    3.556992207842200E-1   -2.801842461218452E-4   -2.385953152392719E-4   -2.062622864421967E-4   -2.593434226563251E-4   -1.349288571408749E-1    4.640753920784831E-1
 1.010399730520000E+10  -3.383866713800857E-1    3.560042545561754E-1   -2.451544734459009E-4   -2.379926752501899E-4   -2.252806671705078E-4   -2.423284176353663E-4   -1.346348423375606E-1    4.642505852333589E-1
 1.010400407560000E+10  -3.382833435404144E-1    3.563378996752816E-1   -2.501816426682688E-4   -2.341789598175208E-4   -2.377616829565658E-4   -2.388485901109068E-4   -1.340686827611182E-1    4.643457936021364E-1
 1.010401084600000E+10  -3.379214509489024E-1    3.565319270236489E-1   -2.211057242524182E-4   -2.434050015173208E-4   -2.074545200983401E-4   -2.613235565780649E-4   -1.334682474746237E-1    4.645382702313569E-1
 1.010401761640000E+10  -3.376004962647365E-1    3.568658256450239E-1   -2.476460022274268E-4   -2.072084169879436E-4   -2.050033245045504E-4   -2.229879365688694E-4   -1.331908197577087E-1    4.646067629337392E-1
 1.010402438680000E+10  -3.372456925251300E-1    3.572426044554236E-1   -2.596708189593667E-4   -2.025754318905407E-4   -2.129192185717430E-4   -2.063283275759336E-4   -1.324748291054544E-1    4.648101794903922E-1
 1.010403115720000E+10  -3.370104201678085E-1    3.573281163436028E-1   -2.052785960034945E-4   -2.128656393064775E-4   -1.819695991616430E-4   -2.655372448051029E-4   -1.321500968796920E-1    4.649665333694515E-1
 1.010403792760000E+10  -3.368066845918260E-1    3.576685863331918E-1   -2.483217227031026E-4   -2.283296508387883E-4   -1.850333593458160E-4   -1.993529811115169E-4   -1.315288893945101E-1    4.651143831907483E-1
 1.010404469800000E+10  -3.364720306118291E-1    3.581371196987305E-1   -2.304504271263266E-4   -2.124958771738935E-4   -1.906923622790908E-4   -1.970536369333004E-4   -1.312228131437191E-1    4.652476114928675E-1
 1.010405146840000E+10  -3.363004713956502E-1    3.584206734900386E-1   -1.908344633340146E-4   -1.895335095224565E-4   -1.839366492305056E-4   -2.279188478711033E-4   -1.306873745976084E-1    4.655336589310751E-1
 1.010405823880000E+10  -3.358079446082719E-1    3.587386107085302E-1   -2.120451477883552E-4   -1.923118805797391E-4   -1.834433721422830E-4   -2.204341375062426E-4   -1.301234424704774E-1    4.655294247629383E-1
 1.010406500920000E+10  -3.355911213488826E-1    3.589891280560161E-1   -2.038882344539611E-4   -2.110719203709671E-4   -1.768787078655686E-4   -2.196380066708650E-4   -1.296691038965695E-1    4.655972989506794E-1
 1.010407177960000E+10  -3.353132035540239E-1    3.592665069374566E-1   -1.812036649560558E-4   -2.215691111303445E-4   -1.734319706983721E-4   -2.396275879709019E-4   -1.291959165680179E-1    4.658201081133871E-1
 1.010407855000000E+10  -3.350349218938621E-1    3.595897577675782E-1   -1.936483969524835E-4   -2.084861955109083E-4   -1.713636114660529E-4   -2.193120727896424E-4   -1.287036933706240E-1    4.659488390180089E-1
 1.010408532040000E+10  -3.347932115574166E-1    3.599315053938901E-1   -1.696445276676210E-4   -1.984632235506297E-4   -1.457438533166028E-4   -2.210725279394086E-4   -1.281984751671095E-1    4.661599792999375E-1
 1.010409209080000E+10  -3.344596446988004E-1    3.601818658269162E-1   -1.735651191803659E-4   -1.947491559935227E-4   -1.255665953478723E-4   -1.964943332631509E-4   -1.277926817844540E-1    4.663258549862168E-1
 1.010409886120000E+10  -3.341215204269521E-1    3.604851615920955E-1   -1.880871539802543E-4   -2.105987752771697E-4   -1.468554796126463E-4   -2.287045205463487E-4   -1.272140737905495E-1    4.663158860517288E-1
 1.010410563160000E+10  -3.338614681130441E-1    3.607342298498856E-1   -1.538634546963880E-4   -2.167054556467954E-4   -1.389019042555009E-4   -1.917477721530682E-4   -1.266543809971629E-1    4.666039150604092E-1
 1.010411240200000E+10  -3.335979390102610E-1    3.609637686762672E-1   -1.349842038645199E-4   -1.793578719425611E-4   -1.385030031457125E-4   -1.789516447442436E-4   -1.262713700481840E-1    4.666992185363596E-1
 1.010411917240000E+10  -3.333604143663096E-1    3.613653820496320E-1   -1.468143371726479E-4   -1.888022756748272E-4   -1.101690639928567E-4   -1.951578438372147E-4   -1.256369971736921E-1    4.667478459260814E-1
 1.010412594280000E+10  -3.330433646577516E-1    3.615647179807281E-1   -1.119089660588327E-4   -1.935121063642428E-4   -1.174594241177719E-4   -2.118139366356845E-4   -1.251138051897837E-1    4.669861114485600E-1
 1.010413271320000E+10  -3.327832365513501E-1    3.618891379609210E-1   -1.333688714792501E-4   -1.851562631072854E-4   -1.102834130245855E-4   -2.077732393732023E-4   -1.247089219463491E-1    4.670478048295601E-1
 1.010413948360000E+10  -3.324318882484555E-1    3.621197830885897E-1   -1.307451154377225E-4   -1.715031554848167E-4   -9.115849045528104E-5   -1.766449192177893E-4   -1.240476202342483E-1    4.672557669820769E-1
 1.010414625400000E+10  -3.321850115133869E-1    3.625019272349395E-1   -9.640406497301774E-5   -1.657285961106394E-4   -9.589620892134079E-5   -1.823432731216669E-4   -1.237280247404921E-1    4.674466455868938E-1
 1.010415302440000E+10  -3.318385855552141E-1    3.627638475844324E-1   -1.127798884538166E-4   -1.736473592472536E-4   -1.015296198912504E-4   -1.771228607876802E-4   -1.232248050814853E-1    4.674012644692471E-1
 1.010415979480000E+10  -3.314816981034818E-1    3.631407609325270E-1   -8.489027989894619E-5   -1.835089956059889E-4   -9.721420829037314E-5   -1.809005693858521E-4   -1.226370379771322E-1    4.676198159211890E-1
 1.010416656520000E+10  -3.312769013804382E-1    3.632828196197435E-1   -6.289533526593811E-5   -1.891609536389548E-4   -7.642026249307672E-5   -1.757529310224674E-4   -1.221142659485641E-1    4.677719038404114E-1
 1.010417333560000E+10  -3.309659392454083E-1    3.636201015600540E-1   -9.770787556782400E-5   -1.929485398831114E-4   -9.271236893317832E-5   -1.662800898137235E-4   -1.216304472270563E-1    4.679455784848095E-1
 1.010418010600000E+10  -3.306017830467384E-1    3.639098625700568E-1   -6.391080828701577E-5   -1.717528280302508E-4   -4.926936946532485E-5   -1.864697800373148E-4   -1.211585111862053E-1    4.680279093218245E-1
 1.010418687640000E+10  -3.303441442100653E-1    3.642877056378009E-1   -5.126531206512591E-5   -1.544566706215428E-4   -2.162703614485350E-5   -1.313525369218707E-4   -1.204701470492051E-1    4.682420818778311E-1
 1.010419364680000E+10  -3.299704332058057E-1    3.645064740285434E-1   -3.916330447874073E-5   -1.796895102378319E-4   -2.639669336641037E-5   -1.652958101953074E-4   -1.199896947661966E-1    4.684059525984186E-1
 1.010420041720000E+10  -3.297108932753796E-1    3.649732664205536E-1   -7.340153712831704E-5   -1.682592098875441E-4   -3.812735929307305E-5   -1.625972761065820E-4   -1.194893493533649E-1    4.683638547960648E-1
 1.010420718760000E+10  -3.294815408750177E-1    3.650530756110922E-1   -2.342831173205251E-5   -1.566985088532973E-4   -4.367953810555367E-5   -1.769973113108775E-4   -1.191644009946169E-1    4.685572067318956E-1
 1.010421395800000E+10  -3.292133468774976E-1    3.653311509199013E-1   -1.195854925932874E-5   -1.831126883291178E-4    8.105799619124911E-6   -1.614451215307116E-4   -1.184541973948535E-1    4.686459275383419E-1
 1.010422072840000E+10  -3.291188847053107E-1    3.658140166989979E-1    9.735616075713235E-6   -1.336452996732638E-4    2.834306257554916E-5   -1.583452938114233E-4   -1.178955162368589E-1    4.687413246955960E-1
 1.010422749880000E+10  -3.285384118381194E-1    3.660611117177160E-1   -6.481466441488086E-6   -1.425147760043446E-4    1.617007742250745E-5   -1.655470439777031E-4   -1.173667170245507E-1    4.689479865162299E-1
 1.010423426920000E+10  -3.282275568655769E-1    3.662838925255523E-1    6.068715021568984E-6   -1.706258933871836E-4    1.305291300704497E-5   -1.458721211401083E-4   -1.169270586053900E-1    4.691029439954496E-1
 1.010424103960000E+10  -3.279503647076452E-1    3.665258162080795E-1   -5.841137437300317E-6   -1.619868828025917E-4    4.717256378056854E-5   -1.284584430850258E-4   -1.162881355865174E-1    4.691756489431235E-1
 1.010424781000000E+10  -3.278260084541046E-1    3.669039029452777E-1    1.435463988357873E-5   -1.433263554087362E-4    3.216463045425243E-5   -1.486516527712773E-4   -1.159498223623794E-1    4.692568464254707E-1
 1.010425458040000E+10  -3.274659561552433E-1    3.672530850899594E-1    3.490275426191255E-5   -1.338060256734112E-4    6.827597627266341E-5   -1.522714136126836E-4   -1.153053097034104E-1    4.693827760230722E-1
 1.010426135080000E+10  -3.271623799147437E-1    3.673088049772575E-1    6.351700733900243E-5   -1.476133541477835E-4    7.709739471699335E-5   -1.374229812916929E-4   -1.147226442457375E-1    4.695038870032152E-1
 1.010426812120000E+10  -3.268166496140245E-1    3.677609275428854E-1    3.423418572265556E-5   -1.320236547252599E-4    7.586771616854486E-5   -1.384776016824295E-4   -1.142827405988665E-1    4.694956704992207E-1
 1.010427489160000E+10  -3.266158450829317E-1    3.679350567481004E-1    7.444696678888109E-5   -1.364845319900860E-4    8.412799221106025E-5   -1.299315852687054E-4   -1.137201698734109E-1    4.697036064301129E-1
 1.010428166200000E+10  -3.261441348517130E-1    3.683317699699918E-1    1.103676810547332E-4   -1.550881425254103E-4    8.050534483861913E-5   -1.297032885199189E-4   -1.130344191471019E-1    4.697926011690633E-1
