#  HZ   S   RI   R     50.00 
! Rohde & Schwarz Vector Network Analyzer 
! Rohde-Schwarz,ZNB20-2Port,1311601062101988,3.16
! Created: UTC 3/20/2024, 4:48:50 PM
! freq[Hz]                re:S11                  im:S11                  re:S21                  im:S21                  re:S12                  im:S12                  re:S22                  im:S22
 1.010450416300000E+10  -3.164210761623895E-1    3.776014109420786E-1    2.142550209163518E-4    5.336219422708704E-5    2.496124627373132E-4    4.817937853199360E-5   -9.720154776093570E-2    4.751975101349591E-1
 1.010450725330000E+10  -3.163567977788791E-1    3.778070448386588E-1    2.160661078637123E-4    6.173647895985236E-6    2.246860694832704E-4    4.239374327705339E-5   -9.694858904691936E-2    4.754048566771657E-1
 1.010451034360000E+10  -3.162045650506967E-1    3.779858786824065E-1    2.540022456651938E-4    4.920105478931440E-5    2.314400159437462E-4    5.127566155866650E-5   -9.660349555754727E-2    4.755928750831062E-1
 1.010451343390000E+10  -3.161006206258857E-1    3.780048377313186E-1    2.350586198334993E-4    3.252654673644380E-5    2.451014571907159E-4    3.939610265136425E-5   -9.628878057038082E-2    4.756174705453819E-1
 1.010451652420000E+10  -3.158820605199532E-1    3.781455708880328E-1    2.505626727323390E-4    7.374125129663834E-5    2.354119980061662E-4    5.881176875842150E-5   -9.590960473041524E-2    4.756050653257692E-1
 1.010451961450000E+10  -3.158448215566567E-1    3.783338023786438E-1    2.526109843920272E-4    2.878523705697338E-5    2.467091670282768E-4    7.868986272682541E-5   -9.567887607945494E-2    4.757126637585627E-1
 1.010452270480000E+10  -3.156204892973162E-1    3.784064034833630E-1    2.631998542646141E-4    5.125134541741475E-5    2.450163778311146E-4    8.243099714716667E-5   -9.547210033800831E-2    4.756501177906331E-1
 1.010452579510000E+10  -3.155307298501357E-1    3.786458736986783E-1    3.026792642274481E-4    3.811416524180661E-5    2.379838535622915E-4    7.293976634936967E-5   -9.523702597921706E-2    4.759053433955155E-1
 1.010452888540000E+10  -3.154928591318135E-1    3.787824748036312E-1    3.256061974297040E-4    6.136093501426557E-5    2.656865729145609E-4    1.040567128874638E-4   -9.500976093595921E-2    4.758330704504070E-1
 1.010453197570000E+10  -3.151494772102935E-1    3.788000128218339E-1    2.955579581989522E-4    5.495347997523095E-5    2.657505793497044E-4    7.054153780285043E-5   -9.469963059849658E-2    4.758885741067990E-1
 1.010453506600000E+10  -3.150772767130945E-1    3.791208095604558E-1    3.168456912456879E-4    3.883771879039515E-5    2.759675248102156E-4    9.292915697324241E-5   -9.439191332203843E-2    4.759401309826870E-1
 1.010453815630000E+10  -3.149059804716851E-1    3.790424259068179E-1    2.897730749107172E-4    4.651504477709588E-5    3.033178359527162E-4    4.781881764558092E-5   -9.415130085939816E-2    4.759886799938728E-1
 1.010454124660000E+10  -3.148426344579773E-1    3.792117116753554E-1    3.188566654082392E-4    7.481958229057988E-5    2.953140223759452E-4    6.954858886523357E-5   -9.370775886640800E-2    4.759635645234966E-1
 1.010454433690000E+10  -3.145515419009790E-1    3.792747929666596E-1    3.703218084405466E-4    7.223221009936404E-5    3.221228006053091E-4    8.628083772554141E-5   -9.337177404910163E-2    4.760603052099829E-1
 1.010454742720000E+10  -3.144848349754481E-1    3.793573128677495E-1    3.386029776650520E-4    8.797404576115566E-5    3.177217145394140E-4    9.756043989877059E-5   -9.331765503224507E-2    4.760713342487377E-1
 1.010455051750000E+10  -3.142362453370813E-1    3.795911508864431E-1    3.713965574418261E-4    8.206981987136081E-5    3.209133104655378E-4    1.057838785982993E-4   -9.286509860683079E-2    4.762123220731991E-1
 1.010455360780000E+10  -3.141894284130858E-1    3.796028213671669E-1    3.568161948031275E-4    9.260399990197562E-5    3.339691564709843E-4    9.250563717717551E-5   -9.267533769128389E-2    4.762779225105454E-1
 1.010455669810000E+10  -3.140730558994606E-1    3.797886828368468E-1    3.774123007449650E-4    7.801941702707478E-5    3.329824093279868E-4    1.078219868804765E-4   -9.232127464420652E-2    4.764350934579041E-1
 1.010455978840000E+10  -3.139035489281840E-1    3.799640552578821E-1    3.695848796676568E-4    8.381763422471901E-5    3.229258673687876E-4    9.520286338941721E-5   -9.207555543218132E-2    4.762905856318723E-1
 1.010456287870000E+10  -3.137812054963661E-1    3.800798421306560E-1    3.619096521840115E-4    8.067194166267297E-5    3.639561663394944E-4    1.142843030102674E-4   -9.179136199451586E-2    4.763361568829383E-1
 1.010456596900000E+10  -3.136564253451715E-1    3.802581860916268E-1    3.812650855425989E-4    8.767421921549721E-5    3.585984199708026E-4    1.024380919763431E-4   -9.148224731371606E-2    4.765812867306978E-1
 1.010456905930000E+10  -3.134378692156108E-1    3.802768868749459E-1    3.855036521550163E-4    7.428940310216355E-5    3.683230366327609E-4    1.089466965504219E-4   -9.116491503964358E-2    4.765336254174058E-1
 1.010457214960000E+10  -3.132827577971621E-1    3.805569313535620E-1    4.037340352159476E-4    6.819702701212361E-5    3.658382315301330E-4    1.032698718783882E-4   -9.095277095011894E-2    4.765827929079435E-1
 1.010457523990000E+10  -3.132636916722475E-1    3.805362224966695E-1    4.440242909876679E-4    7.753286983566243E-5    4.113881981019001E-4    1.514189712299001E-4   -9.063310098819048E-2    4.765756613114169E-1
 1.010457833020000E+10  -3.130750544136937E-1    3.806407221812058E-1    4.174057728395162E-4    1.062529445730937E-4    3.801610789022952E-4    1.183834992240317E-4   -9.036396348762268E-2    4.767397353679184E-1
 1.010458142050000E+10  -3.129214545998201E-1    3.808667564714092E-1    4.282849930684954E-4    9.675261939646967E-5    3.854828690684100E-4    1.329022541491664E-4   -8.996241421701284E-2    4.768143867161367E-1
 1.010458451080000E+10  -3.129117623884819E-1    3.809538287892167E-1    4.589240322938305E-4    1.104617341640684E-4    4.131313912348144E-4    1.131561524908650E-4   -8.964014568469741E-2    4.767423865132154E-1
 1.010458760110000E+10  -3.125450474640840E-1    3.811463339666317E-1    4.576121539590527E-4    8.605335006022438E-5    4.270796073650969E-4    1.202806670529884E-4   -8.936942040892863E-2    4.767644478701018E-1
 1.010459069140000E+10  -3.126083786133290E-1    3.811707025854167E-1    4.513318662702577E-4    1.097347302673021E-4    4.347626970457388E-4    1.376007210240151E-4   -8.902848367128821E-2    4.767702675919235E-1
 1.010459378170000E+10  -3.123062472562466E-1    3.814411122278632E-1    4.548302280485459E-4    1.261880930459656E-4    4.515335566098865E-4    1.612655262483844E-4   -8.881492606879225E-2    4.770213147197554E-1
 1.010459687200000E+10  -3.121478921912531E-1    3.813662028309384E-1    4.945984348537444E-4    1.225022195724940E-4    4.258078438954204E-4    1.527327993010795E-4   -8.846086054470595E-2    4.770146565306548E-1
 1.010459996230000E+10  -3.120389902246769E-1    3.817118935896257E-1    4.901689530365808E-4    1.008168142110558E-4    4.663372645647933E-4    1.417545893611869E-4   -8.808541693540434E-2    4.771536896667777E-1
 1.010460305260000E+10  -3.119095921600225E-1    3.816878647913385E-1    5.210919485917848E-4    1.084657228200512E-4    4.700966994361981E-4    1.495760798812951E-4   -8.780560020507663E-2    4.771232499749257E-1
 1.010460614290000E+10  -3.117478728278177E-1    3.817717064395445E-1    5.108552096976635E-4    1.199218743663507E-4    4.623780988169947E-4    1.583501287877336E-4   -8.762484430449015E-2    4.772162470611953E-1
 1.010460923320000E+10  -3.117617037625682E-1    3.820258123020915E-1    5.107747449500505E-4    1.130537191651728E-4    4.891565482716945E-4    1.373875158436283E-4   -8.711612375762122E-2    4.772511431809390E-1
 1.010461232350000E+10  -3.114688900682444E-1    3.820352492966292E-1    5.288917169208874E-4    9.483684064975095E-5    5.018379470150140E-4    1.612051833122581E-4   -8.686855425999790E-2    4.773193368615972E-1
 1.010461541380000E+10  -3.112667967983397E-1    3.821487440790322E-1    5.166011475984501E-4    1.546003280022826E-4    5.128991997277443E-4    1.631833483709885E-4   -8.645906562877068E-2    4.774346756476903E-1
 1.010461850410000E+10  -3.112565544176003E-1    3.824530976933738E-1    5.478818769709716E-4    1.393343667542489E-4    5.152475922981529E-4    1.505938328450659E-4   -8.617463721653074E-2    4.773924660423613E-1
 1.010462159440000E+10  -3.110868401449428E-1    3.826469889954318E-1    5.562119160762748E-4    1.181675989940054E-4    5.410127190729125E-4    1.662066433666857E-4   -8.584982377709005E-2    4.775539028235250E-1
 1.010462468470000E+10  -3.110602597701736E-1    3.826268303851038E-1    5.990247698393373E-4    1.382822490874616E-4    5.582603814784411E-4    1.775840331942893E-4   -8.561155535340684E-2    4.775494422537468E-1
 1.010462777500000E+10  -3.107849040047934E-1    3.827632841903428E-1    5.982187646811284E-4    1.265608931753114E-4    5.594864452343373E-4    2.011380359996906E-4   -8.516814790075612E-2    4.774626384189338E-1
 1.010463086530000E+10  -3.107387976019895E-1    3.827792376915027E-1    6.071907038131842E-4    9.921703834615411E-5    5.668124729222014E-4    1.831147057029236E-4   -8.502063680602920E-2    4.775452523595259E-1
 1.010463395560000E+10  -3.104615903738897E-1    3.830845456408935E-1    5.875927831953698E-4    1.375439184939647E-4    5.530643947048452E-4    2.003453249317601E-4   -8.464608251490754E-2    4.775120846739633E-1
 1.010463704590000E+10  -3.103449638158834E-1    3.832116270158736E-1    6.245095039473037E-4    1.306692298600933E-4    5.948967330559444E-4    1.707066059223954E-4   -8.423172680555088E-2    4.775967104623947E-1
 1.010464013620000E+10  -3.101871972756295E-1    3.832390739487311E-1    6.409009407582860E-4    1.426502704313732E-4    5.903954449337146E-4    2.151680275310018E-4   -8.398898488682412E-2    4.776745200071987E-1
 1.010464322650000E+10  -3.099808332399193E-1    3.833053967405281E-1    6.360162538690722E-4    1.191459267704004E-4    6.202194285677601E-4    2.006586783232298E-4   -8.369283009242764E-2    4.777851589792385E-1
 1.010464631680000E+10  -3.098508152949768E-1    3.834647226220330E-1    6.695920488954970E-4    1.686767405693872E-4    6.172562472071200E-4    1.903563445678518E-4   -8.331985297978101E-2    4.777222905374200E-1
 1.010464940710000E+10  -3.096945583858154E-1    3.835976114724247E-1    6.700288544285841E-4    1.558335869374169E-4    6.597635311718379E-4    1.710219619307179E-4   -8.295777593406325E-2    4.779890454418335E-1
 1.010465249740000E+10  -3.095467407687210E-1    3.838110864732164E-1    6.841644196117222E-4    1.667394099430196E-4    6.532706344914731E-4    2.183850091146290E-4   -8.266236428438432E-2    4.779121491961007E-1
 1.010465558770000E+10  -3.095044329743710E-1    3.839275243403065E-1    6.878115213465663E-4    1.618114567215451E-4    6.439512666771537E-4    2.082060799729112E-4   -8.230615357116723E-2    4.781222777769646E-1
 1.010465867800000E+10  -3.093671725376738E-1    3.839420651094571E-1    7.042398817423618E-4    1.552928642960792E-4    6.809475998820805E-4    1.957025315201713E-4   -8.200432803769678E-2    4.779939330010275E-1
 1.010466176830000E+10  -3.091121901884680E-1    3.840410059399514E-1    7.288994113410095E-4    1.510767178968727E-4    6.856322109644199E-4    2.062621429454758E-4   -8.166757304724645E-2    4.780304603427152E-1
 1.010466485860000E+10  -3.090437406936838E-1    3.841499288603719E-1    7.207837574778166E-4    1.448742672092051E-4    7.135620277651766E-4    2.200357425706278E-4   -8.127781870248807E-2    4.781150026333029E-1
 1.010466794890000E+10  -3.089230099922641E-1    3.842904055315328E-1    7.556422697132420E-4    1.654416479162877E-4    7.163957285912492E-4    2.275789388970559E-4   -8.097525680691270E-2    4.782224858739054E-1
 1.010467103920000E+10  -3.088144329502122E-1    3.844711588571568E-1    7.555640258446456E-4    1.682855692343446E-4    7.193772292014729E-4    2.441068891936484E-4   -8.055580365856758E-2    4.782521818836562E-1
 1.010467412950000E+10  -3.086830785632895E-1    3.846672279967296E-1    7.874015653571508E-4    1.611236822295369E-4    7.370146366174238E-4    2.561285921423937E-4   -8.023399570297787E-2    4.782719281976419E-1
 1.010467721980000E+10  -3.085537556805447E-1    3.846422246647019E-1    7.964187469275422E-4    1.655729622105821E-4    7.381658917811707E-4    2.254855376507086E-4   -7.980411270355371E-2    4.782697756693778E-1
 1.010468031010000E+10  -3.083384000559978E-1    3.848461373459849E-1    8.063357834115152E-4    1.625854370231056E-4    7.647857434407239E-4    2.480971245027964E-4   -7.948887995051182E-2    4.782079163250055E-1
 1.010468340040000E+10  -3.081501258566275E-1    3.849354750098207E-1    8.000012392769266E-4    1.864274005995230E-4    7.590803410056876E-4    2.383868154878843E-4   -7.909461204456258E-2    4.784548626067829E-1
 1.010468649070000E+10  -3.081270161706658E-1    3.851510515515011E-1    8.242117331400048E-4    1.757480771076764E-4    7.773215285711774E-4    2.487109888092708E-4   -7.870616914621643E-2    4.783896686625371E-1
 1.010468958100000E+10  -3.079015853440282E-1    3.852633799717561E-1    8.609690036915344E-4    1.983272639799216E-4    7.980001226930961E-4    2.585755059553795E-4   -7.839711895953963E-2    4.784784699289041E-1
 1.010469267130000E+10  -3.077338781627112E-1    3.853333426544692E-1    8.627745059861628E-4    1.845820245992604E-4    8.264430257225545E-4    2.384530623579278E-4   -7.808160952934184E-2    4.784821923260788E-1
 1.010469576160000E+10  -3.077238733871007E-1    3.855355467890292E-1    8.816110369233351E-4    1.714041676235581E-4    8.410710384454626E-4    2.639710467252646E-4   -7.767137883032731E-2    4.785614242179539E-1
 1.010469885190000E+10  -3.075288500207836E-1    3.856126272666891E-1    9.168486938169219E-4    1.934301876019208E-4    8.411753659021004E-4    2.591818717011562E-4   -7.729718723919841E-2    4.784959975282806E-1
 1.010470194220000E+10  -3.071785079506555E-1    3.857230814701319E-1    9.403742126942464E-4    1.980319166354153E-4    8.433085303718638E-4    2.493169483506691E-4   -7.691026871902230E-2    4.786791911499785E-1
 1.010470503250000E+10  -3.072149881240209E-1    3.858321811686055E-1    9.359313777236115E-4    2.062588556308837E-4    8.716870287748823E-4    2.745646463325970E-4   -7.649700648701258E-2    4.785951925017077E-1
 1.010470812280000E+10  -3.070736981686493E-1    3.859937135161218E-1    9.508403711699923E-4    1.840199658009639E-4    9.095390289544453E-4    2.562925164682237E-4   -7.623374183152867E-2    4.786156332697848E-1
 1.010471121310000E+10  -3.070088298922584E-1    3.860537557796132E-1    9.601229633385335E-4    2.118283816815363E-4    8.944350466266786E-4    2.606853128868546E-4   -7.571952644808154E-2    4.788011178859840E-1
 1.010471430340000E+10  -3.068794463723297E-1    3.862067604031291E-1    9.767467941844477E-4    1.987502927421044E-4    9.305092050671316E-4    2.773030762971197E-4   -7.535583036835757E-2    4.786293253788594E-1
 1.010471739370000E+10  -3.066120154084882E-1    3.863417997277054E-1    9.946746562922121E-4    2.177707025705130E-4    9.503187061448877E-4    2.669332117391689E-4   -7.505740571699548E-2    4.787543916845808E-1
 1.010472048400000E+10  -3.065619225085839E-1    3.864661970061160E-1    9.882034278905854E-4    2.131125231715293E-4    9.406151326581299E-4    2.681275243292664E-4   -7.460402354929897E-2    4.787916381156410E-1
 1.010472357430000E+10  -3.063493748029723E-1    3.866126364610236E-1    1.031747093079309E-3    2.094301042562925E-4    9.790499786540079E-4    2.975923821839459E-4   -7.427839896185559E-2    4.788392201302984E-1
 1.010472666460000E+10  -3.060906249753489E-1    3.867956143991200E-1    1.053626183799442E-3    2.237010803509321E-4    9.772025023605843E-4    2.799934576626226E-4   -7.376178871106612E-2    4.789094774751165E-1
 1.010472975490000E+10  -3.061246659053634E-1    3.868992018965217E-1    1.081966143947515E-3    2.207907942641288E-4    9.996406594916195E-4    2.816612850788817E-4   -7.343907286117908E-2    4.789698074072011E-1
 1.010473284520000E+10  -3.059317788233599E-1    3.869477977706451E-1    1.093203213772005E-3    2.266660887454998E-4    1.029560519819757E-3    2.989686693483385E-4   -7.304827911800901E-2    4.788864802642818E-1
 1.010473593550000E+10  -3.058080139084284E-1    3.871433199071375E-1    1.115122244173566E-3    2.174500981524484E-4    1.078303892665555E-3    3.057327127974825E-4   -7.258476007869875E-2    4.790604678833225E-1
 1.010473902580000E+10  -3.057708761194412E-1    3.872058423396936E-1    1.120699031974141E-3    2.538712398398346E-4    1.037119232610936E-3    3.071699348864869E-4   -7.226083249476239E-2    4.789081945092282E-1
 1.010474211610000E+10  -3.055101779051474E-1    3.873144826452301E-1    1.132990178057780E-3    2.087473118994515E-4    1.069393107457618E-3    3.084785893403461E-4   -7.181201822990435E-2    4.790493153702390E-1
 1.010474520640000E+10  -3.054037885649048E-1    3.874327157951947E-1    1.156376913202250E-3    2.429565899631219E-4    1.072537021900519E-3    3.007189337197781E-4   -7.132498247219725E-2    4.789436255740375E-1
 1.010474829670000E+10  -3.051320101469225E-1    3.876533506785725E-1    1.212684211008794E-3    1.966917480728956E-4    1.103936611407494E-3    3.117035366188769E-4   -7.095735768385844E-2    4.791690492102924E-1
 1.010475138700000E+10  -3.050627807337991E-1    3.878477083062600E-1    1.196226855664972E-3    2.381154679286526E-4    1.141369302577155E-3    3.441796549615471E-4   -7.063939003356601E-2    4.791102877923163E-1
 1.010475447730000E+10  -3.049301215218018E-1    3.878256664508786E-1    1.235866917413290E-3    2.576558490345064E-4    1.145737392357554E-3    3.218482114238935E-4   -7.006327105570820E-2    4.790864651980710E-1
 1.010475756760000E+10  -3.047656293939656E-1    3.879476621594049E-1    1.256774101062613E-3    2.108988207004741E-4    1.161779999022321E-3    3.405392604918565E-4   -6.975452486313138E-2    4.791673053124986E-1
 1.010476065790000E+10  -3.046727077524158E-1    3.880672435729023E-1    1.256230633463790E-3    2.244017841737932E-4    1.166900271106426E-3    3.741827892332905E-4   -6.926097052996820E-2    4.791449842734491E-1
 1.010476374820000E+10  -3.044750029252177E-1    3.883377288357249E-1    1.283507742396448E-3    2.311611814886029E-4    1.202587760287539E-3    3.260451468369434E-4   -6.866432891496377E-2    4.792519520872752E-1
 1.010476683850000E+10  -3.043230910035097E-1    3.883268369482538E-1    1.281886807316319E-3    2.553947043190804E-4    1.266495021818621E-3    3.161356474354384E-4   -6.825794317483892E-2    4.792292947210261E-1
 1.010476992880000E+10  -3.041513491867787E-1    3.885236304765894E-1    1.344683094674498E-3    2.444273170097226E-4    1.253306974068357E-3    3.285576560858726E-4   -6.786930019006186E-2    4.792694771768581E-1
 1.010477301910000E+10  -3.041222524545545E-1    3.885456873017448E-1    1.363496525018575E-3    2.677355298350851E-4    1.248306611895802E-3    3.477738254458287E-4   -6.753728133390946E-2    4.793650371894529E-1
 1.010477610940000E+10  -3.038593350099351E-1    3.887167896407281E-1    1.391377788912145E-3    2.760547040457636E-4    1.279629786094610E-3    3.492628432268750E-4   -6.688121102352590E-2    4.792025708287030E-1
 1.010477919970000E+10  -3.036784270172963E-1    3.888878228374077E-1    1.392036159545155E-3    2.541429921809877E-4    1.337839111063948E-3    3.750848386404264E-4   -6.645289383657281E-2    4.792845324304489E-1
 1.010478229000000E+10  -3.036622905287151E-1    3.889632377668644E-1    1.455680611963984E-3    2.772538070793224E-4    1.360464887728789E-3    3.850262416388057E-4   -6.610239972675833E-2    4.792977941483109E-1
