#  HZ   S   RI   R     50.00 
! Rohde & Schwarz Vector Network Analyzer 
! Rohde-Schwarz,ZNB20-2Port,1311601062101988,3.16
! Created: UTC 3/20/2024, 5:07:19 PM
! freq[Hz]                re:S11                  im:S11                  re:S21                  im:S21                  re:S12                  im:S12                  re:S22                  im:S22
 1.010154979800000E+10  -4.233360974007066E-1    2.336380939149070E-1   -6.255277155676249E-4   -7.235870403423856E-4   -5.298560330630198E-4   -7.068946444343472E-4   -2.791335090461582E-1    3.853436109048920E-1
 1.010156682482500E+10  -4.227994178816160E-1    2.345911896437611E-1   -6.015724305003653E-4   -7.110569338244213E-4   -5.554163057946666E-4   -7.386411320315275E-4   -2.782594944604728E-1    3.860410783874912E-1
 1.010158385165000E+10  -4.223650841226729E-1    2.354324857213157E-1   -5.997387057234074E-4   -6.790725625958438E-4   -5.526457876432741E-4   -7.555577269454362E-4   -2.774190006085192E-1    3.866702229331870E-1
 1.010160087847500E+10  -4.218659056171653E-1    2.363877917992374E-1   -6.049021932581052E-4   -7.093733856126567E-4   -5.540856148424329E-4   -6.961521584229952E-4   -2.765758524638214E-1    3.874034509674864E-1
 1.010161790530000E+10  -4.214760013581640E-1    2.372921423741114E-1   -6.118478781782053E-4   -6.929912419260752E-4   -5.471073601714853E-4   -7.228723252436374E-4   -2.757935741487110E-1    3.881358831648687E-1
 1.010163493212500E+10  -4.208689588383753E-1    2.383320944348663E-1   -6.127758110939345E-4   -6.934614021236213E-4   -5.447156970812963E-4   -7.225211973363893E-4   -2.749489244453304E-1    3.889445171446257E-1
 1.010165195895000E+10  -4.203968993690768E-1    2.392900802408439E-1   -6.113136495272587E-4   -7.179730242421282E-4   -5.355630956988171E-4   -7.264382628367584E-4   -2.739325054334812E-1    3.894420987456721E-1
 1.010166898577500E+10  -4.200570401691781E-1    2.401132128485582E-1   -6.337751211775777E-4   -6.819365082752867E-4   -5.417725104753184E-4   -7.178394135131199E-4   -2.731443521137089E-1    3.901773215546389E-1
 1.010168601260000E+10  -4.195917046210328E-1    2.410621016068724E-1   -6.166679505132622E-4   -6.904068884503533E-4   -5.245960012461557E-4   -7.267658345755787E-4   -2.722097524219809E-1    3.908010853145096E-1
 1.010170303942500E+10  -4.190016795341233E-1    2.419620502438040E-1   -6.263007395636409E-4   -6.754303561216176E-4   -5.610445652396360E-4   -7.219817254124487E-4   -2.712779577869892E-1    3.914906786938641E-1
 1.010172006625000E+10  -4.186269503245934E-1    2.428725490748964E-1   -6.168558141148389E-4   -7.132893745033321E-4   -5.311176147830487E-4   -7.133898711312329E-4   -2.704691073203179E-1    3.921766540666713E-1
 1.010173709307500E+10  -4.180772413989052E-1    2.438822156769621E-1   -6.130698450850868E-4   -6.778728602593632E-4   -5.672141292613910E-4   -7.277958982917076E-4   -2.695408583284652E-1    3.926866240881974E-1
 1.010175411990000E+10  -4.176912129960642E-1    2.448405404399319E-1   -6.128073234543618E-4   -6.561815238577281E-4   -5.539273993849839E-4   -7.003030217209436E-4   -2.687071035749802E-1    3.935734176057174E-1
 1.010177114672500E+10  -4.172936632506318E-1    2.456954996642342E-1   -6.317443925450290E-4   -6.633297363072177E-4   -5.366661840528149E-4   -7.044171243670764E-4   -2.677266589578608E-1    3.941986064087096E-1
 1.010178817355000E+10  -4.166556548368608E-1    2.466074897692674E-1   -6.288818932687778E-4   -6.818572504974262E-4   -5.549461325368285E-4   -6.895816633351286E-4   -2.668893429492876E-1    3.946747195706301E-1
 1.010180520037500E+10  -4.162285021576542E-1    2.475402506930608E-1   -6.339198906626528E-4   -6.505995662995582E-4   -5.598520647197734E-4   -6.893760289844737E-4   -2.659441968891030E-1    3.954386186867752E-1
 1.010182222720000E+10  -4.157032900729614E-1    2.483941654327244E-1   -6.416701496849967E-4   -6.742453762819610E-4   -5.583412776099953E-4   -6.871646312668232E-4   -2.652464264186117E-1    3.961529855662148E-1
 1.010183925402500E+10  -4.153682599384640E-1    2.494008851455167E-1   -6.001955255912968E-4   -6.332112002193449E-4   -5.348485489944632E-4   -7.027251953689704E-4   -2.641286490759797E-1    3.968281678091206E-1
 1.010185628085000E+10  -4.146339676327837E-1    2.503324130813843E-1   -6.298902130733610E-4   -6.661511253499787E-4   -5.480099920407702E-4   -6.952589258945908E-4   -2.632905276051091E-1    3.975395016542204E-1
 1.010187330767500E+10  -4.142139676661021E-1    2.511902470348221E-1   -6.198546510138878E-4   -6.666218061777812E-4   -5.465439199624094E-4   -6.941305108941768E-4   -2.624710472992758E-1    3.980375747430597E-1
 1.010189033450000E+10  -4.138669743376455E-1    2.520677424285757E-1   -6.213146520784890E-4   -6.708415695904815E-4   -5.415235996329151E-4   -6.811712593873010E-4   -2.616114142816460E-1    3.987432946393468E-1
 1.010190736132500E+10  -4.133064679742254E-1    2.530602163500440E-1   -6.223703776187718E-4   -6.631926427289092E-4   -5.475492376471743E-4   -6.977503294491109E-4   -2.606390465098335E-1    3.994153716948514E-1
 1.010192438815000E+10  -4.128758295396272E-1    2.539332660142401E-1   -6.134362394456629E-4   -6.547626625226373E-4   -5.363628303175469E-4   -6.665977655395006E-4   -2.598219633717840E-1    4.001689249924692E-1
 1.010194141497500E+10  -4.123301959964583E-1    2.548441729445227E-1   -6.651912341103559E-4   -6.443368029665117E-4   -5.398127941200462E-4   -6.718698255294674E-4   -2.586933637420384E-1    4.006601615602290E-1
 1.010195844180000E+10  -4.118136035430875E-1    2.557197379985719E-1   -6.312487616161885E-4   -6.495398475653871E-4   -5.504094979763124E-4   -6.811585327776781E-4   -2.579285002495688E-1    4.013282261303189E-1
 1.010197546862500E+10  -4.113361894871502E-1    2.565729044733338E-1   -6.479667387422660E-4   -6.660909016549281E-4   -5.534545768808463E-4   -6.884636418964832E-4   -2.570329324233508E-1    4.019332265922905E-1
 1.010199249545000E+10  -4.106740379644387E-1    2.574861319153754E-1   -6.404587111461144E-4   -6.540117813142760E-4   -5.944862010422777E-4   -6.488247051721302E-4   -2.563056882397986E-1    4.027172142198504E-1
 1.010200952227500E+10  -4.102224597081741E-1    2.584390255755215E-1   -6.020304093164114E-4   -6.472826856139318E-4   -5.358903012297893E-4   -6.580449518130598E-4   -2.552038355130010E-1    4.033472527026055E-1
 1.010202654910000E+10  -4.098134121599346E-1    2.593804763874371E-1   -6.048785259404294E-4   -6.625552122323032E-4   -5.391510745537116E-4   -6.848700365043838E-4   -2.543444274931592E-1    4.040503566674302E-1
 1.010204357592500E+10  -4.092834495250968E-1    2.602337728898396E-1   -6.165750847104672E-4   -6.453961899470174E-4   -5.439508213302989E-4   -6.537024582965297E-4   -2.534056724535633E-1    4.043685323784687E-1
 1.010206060275000E+10  -4.087338038005315E-1    2.611779350157183E-1   -6.077102787456431E-4   -6.772107250845780E-4   -5.493614220650284E-4   -6.394128601299453E-4   -2.524417064545534E-1    4.050777333574055E-1
 1.010207762957500E+10  -4.081970023289766E-1    2.621250984531408E-1   -6.118427510956714E-4   -6.261563989217406E-4   -5.651013523492629E-4   -6.529628158966530E-4   -2.515340229238593E-1    4.058469212129738E-1
 1.010209465640000E+10  -4.077262431230755E-1    2.628335834077527E-1   -6.249055005913867E-4   -6.435391270907383E-4   -5.562460247088760E-4   -6.560693811642463E-4   -2.506798766331300E-1    4.064908333332315E-1
 1.010211168322500E+10  -4.071970890680648E-1    2.639072893291430E-1   -6.258290802626294E-4   -6.332993651210723E-4   -5.375755623595029E-4   -6.435134546939467E-4   -2.497427168347198E-1    4.070207922247021E-1
 1.010212871005000E+10  -4.067908036074155E-1    2.647254086048888E-1   -6.077194402160902E-4   -6.510252052484260E-4   -5.557259485749204E-4   -6.493599575402141E-4   -2.488241543316893E-1    4.076754669310780E-1
 1.010214573687500E+10  -4.060797442319201E-1    2.656201457177261E-1   -6.206827296300945E-4   -6.129607627106886E-4   -5.525654134354258E-4   -6.229854295990952E-4   -2.480191250972037E-1    4.082325401175195E-1
 1.010216276370000E+10  -4.056718642341078E-1    2.666326459982390E-1   -6.148074377391813E-4   -6.412205828923194E-4   -5.405816751805356E-4   -6.554223044371389E-4   -2.468897288980039E-1    4.089984790435277E-1
 1.010217979052500E+10  -4.050787519490812E-1    2.674807051346167E-1   -6.300187965613046E-4   -6.334707000723366E-4   -5.555401575972501E-4   -6.389737706042337E-4   -2.459662784124578E-1    4.094773609358218E-1
 1.010219681735000E+10  -4.045969487093993E-1    2.683022675271045E-1   -6.076309927272864E-4   -6.205542774978497E-4   -5.460030355617420E-4   -6.640526432164350E-4   -2.450911151475475E-1    4.101265063619530E-1
 1.010221384417500E+10  -4.041951151383255E-1    2.692734368468650E-1   -6.169740764598280E-4   -5.978346756629003E-4   -5.379408285922432E-4   -6.348263228755902E-4   -2.439928307567063E-1    4.107322709703881E-1
 1.010223087100000E+10  -4.035795580638439E-1    2.700986172447453E-1   -6.414959554504523E-4   -6.074204975773433E-4   -5.516479540547460E-4   -6.144801252921807E-4   -2.432298130485842E-1    4.112697375748006E-1
 1.010224789782500E+10  -4.030500857753175E-1    2.709451303239687E-1   -6.171537133150267E-4   -6.369317044308372E-4   -5.541456419738630E-4   -6.020620847227683E-4   -2.422812381080912E-1    4.118265623666059E-1
 1.010226492465000E+10  -4.025403304562587E-1    2.718685111216603E-1   -6.208054558027721E-4   -5.927907676058907E-4   -5.554796367459467E-4   -6.118998274849021E-4   -2.414544554749899E-1    4.125099572463883E-1
 1.010228195147500E+10  -4.018485503970863E-1    2.727468918808982E-1   -6.005209248267537E-4   -5.734235331821321E-4   -5.523357072517245E-4   -6.185406992323563E-4   -2.405147620168954E-1    4.131406283228136E-1
 1.010229897830000E+10  -4.013880797701470E-1    2.736827918132245E-1   -6.151129764760897E-4   -5.979241574730198E-4   -5.770280654910047E-4   -6.075256284523717E-4   -2.395397549048002E-1    4.138247139449991E-1
 1.010231600512500E+10  -4.008653678546958E-1    2.745969270833895E-1   -6.158508361932043E-4   -6.196175415900975E-4   -5.258355841872759E-4   -6.235966876095897E-4   -2.386401734157493E-1    4.144074234601127E-1
 1.010233303195000E+10  -4.003001063283300E-1    2.755257550281943E-1   -6.018258583934357E-4   -5.954374796980736E-4   -5.578178866526315E-4   -5.923613054870600E-4   -2.377607894143867E-1    4.150497337751045E-1
 1.010235005877500E+10  -3.997264115251546E-1    2.763392120985977E-1   -5.960375388844315E-4   -6.057089885810295E-4   -5.340362607823133E-4   -6.457834740242462E-4   -2.366522611429938E-1    4.154617966869532E-1
 1.010236708560000E+10  -3.991400361569746E-1    2.771944377418746E-1   -5.939386352618736E-4   -5.844280118112668E-4   -5.662170112292837E-4   -6.201269039507142E-4   -2.357085518788386E-1    4.161464228744122E-1
 1.010238411242500E+10  -3.987707997644820E-1    2.779975190852512E-1   -6.135569531349752E-4   -5.796612614291772E-4   -5.294372465560566E-4   -6.114454765487984E-4   -2.347971622905847E-1    4.167460353671647E-1
 1.010240113925000E+10  -3.981764403532992E-1    2.789186602578964E-1   -5.924140613678394E-4   -5.924806069816401E-4   -5.361096676085921E-4   -6.067713802201120E-4   -2.338459251562786E-1    4.172507797708828E-1
 1.010241816607500E+10  -3.975464205413229E-1    2.798744340803159E-1   -5.936659125696090E-4   -6.073352583248631E-4   -5.273847273922410E-4   -5.965338480945026E-4   -2.329773442491663E-1    4.179220050499990E-1
 1.010243519290000E+10  -3.968408313680191E-1    2.807269949569746E-1   -6.133738977196734E-4   -5.651642579697533E-4   -5.440020828534457E-4   -5.907303475185244E-4   -2.319884981152930E-1    4.185208558335382E-1
 1.010245221972500E+10  -3.963379257691197E-1    2.816091626948672E-1   -6.121609932854202E-4   -5.742149550820710E-4   -5.418000233875703E-4   -6.120397879749958E-4   -2.310385541877240E-1    4.189960666166677E-1
 1.010246924655000E+10  -3.958149085988336E-1    2.824563475304982E-1   -6.042141441121282E-4   -5.781700871500736E-4   -5.619138029673307E-4   -6.020209648925738E-4   -2.300455989462691E-1    4.196926925429178E-1
 1.010248627337500E+10  -3.953090403882426E-1    2.832749864880663E-1   -6.201750048932330E-4   -5.810005129836888E-4   -5.425871310502547E-4   -6.131474354415500E-4   -2.290030881922848E-1    4.200355771267674E-1
 1.010250330020000E+10  -3.946875089097280E-1    2.841082594900396E-1   -6.151143706406373E-4   -5.592416353761399E-4   -5.537068693489853E-4   -5.790834451259174E-4   -2.281168271699004E-1    4.207477925935817E-1
 1.010252032702500E+10  -3.942499933308090E-1    2.851344355224215E-1   -5.571250067338558E-4   -5.647576441919187E-4   -5.401690078045585E-4   -5.824754877715399E-4   -2.272382375173636E-1    4.212372362023573E-1
 1.010253735385000E+10  -3.936752210200739E-1    2.860253083199025E-1   -5.953492062460709E-4   -5.768809608269443E-4   -5.304460018396703E-4   -5.794549470093624E-4   -2.261722331273861E-1    4.219061088197461E-1
 1.010255438067500E+10  -3.931275047169828E-1    2.867790217143887E-1   -6.194600140714471E-4   -5.456637489061095E-4   -5.561994469543072E-4   -5.715429272946269E-4   -2.252471389409440E-1    4.224137652949715E-1
 1.010257140750000E+10  -3.924076932996877E-1    2.875808453204967E-1   -5.938251747975424E-4   -5.639449690195164E-4   -5.105300650018981E-4   -5.808518348921888E-4   -2.242349083065574E-1    4.230670938537407E-1
 1.010258843432500E+10  -3.919628244409615E-1    2.885019026155069E-1   -6.028380973073720E-4   -5.662472266123005E-4   -5.405432491637535E-4   -5.833028052503743E-4   -2.232392022992023E-1    4.237077350537312E-1
 1.010260546115000E+10  -3.912531046952050E-1    2.894426976184654E-1   -5.783480875593413E-4   -5.663680231609295E-4   -5.300124057080027E-4   -5.534240100166207E-4   -2.222663861075427E-1    4.241602250923805E-1
 1.010262248797500E+10  -3.906448891481837E-1    2.902286949551330E-1   -6.000722061190048E-4   -5.537483164252576E-4   -5.331768619016835E-4   -5.675627344569510E-4   -2.213645730909132E-1    4.248217349638260E-1
 1.010263951480000E+10  -3.902500091619723E-1    2.911551280317098E-1   -5.873066550950264E-4   -5.564740970042839E-4   -5.269890471510176E-4   -5.724698887700855E-4   -2.203863236205660E-1    4.254053692528776E-1
 1.010265654162500E+10  -3.897290375457309E-1    2.919730635920208E-1   -5.971298994201605E-4   -5.610453015114645E-4   -5.301893934051335E-4   -5.746500006607772E-4   -2.193993318732177E-1    4.258747663126872E-1
 1.010267356845000E+10  -3.891271744147543E-1    2.929241207212440E-1   -5.828787860916089E-4   -5.328636714288088E-4   -5.028747548103081E-4   -5.573947463353414E-4   -2.184036815984074E-1    4.263362827024286E-1
 1.010269059527500E+10  -3.884676315677725E-1    2.937433369075357E-1   -5.850827088555720E-4   -5.212255399195802E-4   -5.555574100820840E-4   -5.477418778044647E-4   -2.175259955287817E-1    4.269095992551366E-1
 1.010270762210000E+10  -3.878911567807759E-1    2.945494394667121E-1   -5.912773000178763E-4   -5.234612809080453E-4   -5.249239840714362E-4   -5.231791115057984E-4   -2.165135948037878E-1    4.274690673413173E-1
 1.010272464892500E+10  -3.872654601012941E-1    2.953992781141538E-1   -5.942088736145703E-4   -5.016753130826141E-4   -5.233077506556494E-4   -5.498921437139375E-4   -2.154340550995594E-1    4.280251731815085E-1
 1.010274167575000E+10  -3.867909783187781E-1    2.962184205026803E-1   -5.673313726610058E-4   -5.435710353442220E-4   -5.218407758773761E-4   -5.152597803750303E-4   -2.144191948847791E-1    4.285314273435804E-1
 1.010275870257500E+10  -3.861003636787452E-1    2.970863590968567E-1   -6.010638720762978E-4   -5.290431420255895E-4   -5.130037557945705E-4   -5.527120114241722E-4   -2.134278575761860E-1    4.291372226677402E-1
 1.010277572940000E+10  -3.854430637667488E-1    2.979727194671396E-1   -5.987996650786433E-4   -5.109344063520529E-4   -5.244209355347201E-4   -5.525052844373621E-4   -2.124697620692447E-1    4.296162837256397E-1
 1.010279275622500E+10  -3.850714975640026E-1    2.988163948291527E-1   -5.878031250781253E-4   -5.282849494053348E-4   -5.268387285996464E-4   -5.259498540171899E-4   -2.115668560601712E-1    4.302065087552013E-1
 1.010280978305000E+10  -3.843389490523768E-1    2.996448286316205E-1   -5.825270410293593E-4   -5.195679775519825E-4   -5.070462962546575E-4   -5.201108187744591E-4   -2.105522474271425E-1    4.307193687692604E-1
 1.010282680987500E+10  -3.838724817112275E-1    3.004351576807161E-1   -5.749164338039874E-4   -5.115697768667524E-4   -5.006723865998831E-4   -5.178265658968828E-4   -2.096389714899742E-1    4.314180492053489E-1
 1.010284383670000E+10  -3.832315892004482E-1    3.013611754027292E-1   -5.710317028528877E-4   -5.203017730483760E-4   -4.902486117633246E-4   -5.566534467922691E-4   -2.085667236883652E-1    4.317035813776886E-1
 1.010286086352500E+10  -3.826834862107624E-1    3.022025060247424E-1   -5.652975000222763E-4   -4.996953189295063E-4   -5.239810427888217E-4   -5.276273666444863E-4   -2.074833599678274E-1    4.323702479633866E-1
 1.010287789035000E+10  -3.820252172021099E-1    3.030534516380108E-1   -5.921143097593500E-4   -5.032924813235396E-4   -5.066617485672726E-4   -5.211911318848223E-4   -2.064700686467894E-1    4.327599048026178E-1
 1.010289491717500E+10  -3.811931967027444E-1    3.038579651064037E-1   -5.567594434065981E-4   -5.149339030954276E-4   -4.976477596696975E-4   -5.108142403700303E-4   -2.054987460526443E-1    4.333525410617392E-1
 1.010291194400000E+10  -3.807744383436503E-1    3.046310788290046E-1   -5.872180933579478E-4   -5.021123873642562E-4   -5.059148499953403E-4   -5.019926652912022E-4   -2.044582888020608E-1    4.338912940276980E-1
 1.010292897082500E+10  -3.801089040076758E-1    3.056603430170214E-1   -5.444132078332925E-4   -4.966236894780268E-4   -4.884807961719493E-4   -5.327192555218934E-4   -2.035845694371712E-1    4.344308325337846E-1
 1.010294599765000E+10  -3.796566000738687E-1    3.064952747141634E-1   -5.678068645194826E-4   -4.924666030461169E-4   -4.686789684591176E-4   -5.291602569227417E-4   -2.024488485124397E-1    4.348850822861628E-1
 1.010296302447500E+10  -3.790414891444426E-1    3.072246201000605E-1   -5.251163559654905E-4   -4.886092745969614E-4   -4.950345493203556E-4   -5.217079859748786E-4   -2.015083458836901E-1    4.356073591674308E-1
 1.010298005130000E+10  -3.783130038247725E-1    3.080494170152397E-1   -5.382885951904625E-4   -4.631817320615960E-4   -4.885833171781687E-4   -5.036531416996756E-4   -2.004331728673381E-1    4.358910552974657E-1
 1.010299707812500E+10  -3.778603964298931E-1    3.088898452825924E-1   -5.368584330434310E-4   -4.779571985024009E-4   -4.908335274928008E-4   -5.102283122934726E-4   -1.994069193898127E-1    4.364064607141254E-1
 1.010301410495000E+10  -3.770742717693740E-1    3.097256558639518E-1   -5.418313709532132E-4   -4.712447261816386E-4   -4.845273353250306E-4   -5.174782807110394E-4   -1.984620160739756E-1    4.369683983824316E-1
 1.010303113177500E+10  -3.764738456556604E-1    3.105350415344098E-1   -5.520262535978174E-4   -4.887275447919196E-4   -4.758953865626609E-4   -5.172484330228682E-4   -1.974753108344417E-1    4.375746537517986E-1
 1.010304815860000E+10  -3.758633978421391E-1    3.114527834741699E-1   -5.116175962312451E-4   -4.754028685018960E-4   -4.625734892596551E-4   -4.933602325100465E-4   -1.964170454054559E-1    4.379375843255375E-1
 1.010306518542500E+10  -3.753406623189378E-1    3.121972671805576E-1   -5.272648253205568E-4   -4.933489466484604E-4   -4.774343388010315E-4   -4.914865363967792E-4   -1.954235262197785E-1    4.385488836505395E-1
 1.010308221225000E+10  -3.746814057488368E-1    3.129062758349962E-1   -5.258920369854489E-4   -4.538962884021486E-4   -4.860346326715826E-4   -5.064195186835287E-4   -1.942766068058853E-1    4.390611101315778E-1
