#  HZ   S   RI   R     50.00 
! Rohde & Schwarz Vector Network Analyzer 
! Rohde-Schwarz,ZNB20-2Port,1311601062101988,3.16
! Created: UTC 3/20/2024, 4:52:42 PM
! freq[Hz]                re:S11                  im:S11                  re:S21                  im:S21                  re:S12                  im:S12                  re:S22                  im:S22
 1.010300949300000E+10  -3.774151493706430E-1    3.100696024115260E-1   -6.107388211338376E-4   -4.660752203239337E-4   -5.414463883442113E-4   -4.935446634198407E-4   -1.974155713133597E-1    4.383400652495639E-1
 1.010301931057500E+10  -3.770956028880399E-1    3.105984290434252E-1   -6.078986930984491E-4   -4.772691176476421E-4   -5.437790370497867E-4   -5.127182285302203E-4   -1.968039112391941E-1    4.387067634621485E-1
 1.010302912815000E+10  -3.766818224655145E-1    3.110028006852944E-1   -5.980854134134516E-4   -4.818231280029751E-4   -5.132971496912211E-4   -4.867736828283296E-4   -1.963991881220390E-1    4.389742472753724E-1
 1.010303894572500E+10  -3.763266383001873E-1    3.114685884089664E-1   -5.876600007846192E-4   -4.916990720179531E-4   -5.094695089611223E-4   -5.014716888306607E-4   -1.957266690239214E-1    4.393196187066366E-1
 1.010304876330000E+10  -3.759014432892026E-1    3.120165185435623E-1   -5.776019838833634E-4   -4.834092350291712E-4   -5.322915695607468E-4   -5.025084563957658E-4   -1.949934294829372E-1    4.395695271302911E-1
 1.010305858087500E+10  -3.756354421140065E-1    3.124396744597528E-1   -5.693994392296384E-4   -4.656465210564439E-4   -5.359305582357473E-4   -4.999047673656180E-4   -1.945074879309750E-1    4.398091898288916E-1
 1.010306839845000E+10  -3.751481289688534E-1    3.129330399050756E-1   -5.794173498313977E-4   -4.720047378708548E-4   -5.146198653100691E-4   -4.756706492490850E-4   -1.939823229521279E-1    4.401458913540884E-1
 1.010307821602500E+10  -3.748134467752490E-1    3.132633254520414E-1   -6.013137023777109E-4   -4.701805315501049E-4   -5.158390540365736E-4   -4.960228907273736E-4   -1.933425760397878E-1    4.402589358756172E-1
 1.010308803360000E+10  -3.744921708887938E-1    3.138905250696870E-1   -5.786810537079446E-4   -4.323099946624914E-4   -5.200710865727074E-4   -4.889185071066054E-4   -1.927666754432597E-1    4.407380039623459E-1
 1.010309785117500E+10  -3.739824581035334E-1    3.142517459588300E-1   -5.586243493414195E-4   -4.423902367040930E-4   -5.087921198571141E-4   -4.860196342350650E-4   -1.923311637798815E-1    4.410800438145029E-1
 1.010310766875000E+10  -3.737654561259264E-1    3.147717009603414E-1   -5.662795300764272E-4   -4.691307744789291E-4   -5.056406948444542E-4   -5.204632156321487E-4   -1.915785390600421E-1    4.413005640909229E-1
 1.010311748632500E+10  -3.733264634392821E-1    3.153500130984898E-1   -5.799565020975359E-4   -4.664960345440527E-4   -5.243021048885677E-4   -4.743563632399785E-4   -1.909434390313087E-1    4.415883234672094E-1
 1.010312730390000E+10  -3.730023232070147E-1    3.158091647120127E-1   -5.508788784624779E-4   -4.411129086872622E-4   -5.359614151419638E-4   -4.601810536533712E-4   -1.904061320206506E-1    4.419877353565850E-1
 1.010313712147500E+10  -3.726535931512681E-1    3.162904221458582E-1   -5.683397510094793E-4   -4.491087845827834E-4   -5.209150759595998E-4   -4.858358595069350E-4   -1.897406663992255E-1    4.421406959315903E-1
 1.010314693905000E+10  -3.721674638099173E-1    3.168450658777588E-1   -5.634074289559327E-4   -4.556090438587413E-4   -4.848897816132982E-4   -4.607511412129845E-4   -1.891898601383663E-1    4.423902049868279E-1
 1.010315675662500E+10  -3.718639468569323E-1    3.171284074142827E-1   -5.636334355671933E-4   -4.469635488155353E-4   -5.148542772225805E-4   -4.531978610131077E-4   -1.885217033322120E-1    4.426943377666054E-1
 1.010316657420000E+10  -3.715214908441898E-1    3.176159353792486E-1   -5.814816689723547E-4   -4.682934966281471E-4   -4.851740137900442E-4   -4.941132076400000E-4   -1.879275611405264E-1    4.430262957986532E-1
 1.010317639177500E+10  -3.711147714794256E-1    3.180940316838034E-1   -5.523058394028695E-4   -4.594948186239322E-4   -5.250582768268128E-4   -4.569699871352460E-4   -1.873722927635995E-1    4.432275692342080E-1
 1.010318620935000E+10  -3.707993889002856E-1    3.185479180854567E-1   -5.431421496355632E-4   -4.607890520486076E-4   -5.099472376773591E-4   -4.767799375119808E-4   -1.866386570884105E-1    4.435818780866477E-1
 1.010319602692500E+10  -3.703395073209459E-1    3.190938319915979E-1   -5.676604246922479E-4   -4.272235349189291E-4   -5.012842738331207E-4   -4.606644042958874E-4   -1.863696770510133E-1    4.437935198625485E-1
 1.010320584450000E+10  -3.700664658828538E-1    3.195618002417772E-1   -5.632075665023667E-4   -4.087255903977088E-4   -5.043339033042274E-4   -4.612489482544681E-4   -1.855661370717719E-1    4.441015554787824E-1
 1.010321566207500E+10  -3.698238347902340E-1    3.199973814206921E-1   -5.572952839511062E-4   -4.223197149867946E-4   -5.117406198510314E-4   -4.748596256724066E-4   -1.849805703080816E-1    4.443897019121814E-1
 1.010322547965000E+10  -3.693482973292240E-1    3.206205906566036E-1   -5.740667023212761E-4   -4.411228494979210E-4   -4.915969227163045E-4   -4.365408391756184E-4   -1.843953086797309E-1    4.445884918254744E-1
 1.010323529722500E+10  -3.689504561829756E-1    3.209889050868988E-1   -5.611638303880414E-4   -4.211578212968740E-4   -5.114330650932363E-4   -4.927800084632004E-4   -1.837473817839562E-1    4.449787222251742E-1
 1.010324511480000E+10  -3.685244799956456E-1    3.213073990533188E-1   -5.482198453503963E-4   -4.220931663487995E-4   -4.722361688168438E-4   -4.662046161018517E-4   -1.831864377977953E-1    4.451838368409234E-1
 1.010325493237500E+10  -3.681911806441551E-1    3.219208148900332E-1   -5.388867052768624E-4   -4.200494800701352E-4   -4.849366040490540E-4   -4.780857533651403E-4   -1.826418863429460E-1    4.454616874448966E-1
 1.010326474995000E+10  -3.677742112116463E-1    3.225931184523547E-1   -5.539999545477453E-4   -4.430567621314105E-4   -4.644668071559384E-4   -4.788946907039706E-4   -1.821237809580658E-1    4.457566810423991E-1
 1.010327456752500E+10  -3.675222236541651E-1    3.227691337476412E-1   -5.292878860575609E-4   -4.095756896718041E-4   -4.605323639220649E-4   -4.206921798888889E-4   -1.814605169491473E-1    4.460406093391547E-1
 1.010328438510000E+10  -3.671607789370726E-1    3.233129541643417E-1   -5.541849756976797E-4   -4.147079787626370E-4   -4.940676037530997E-4   -4.490735926741545E-4   -1.807720988405501E-1    4.462466604657540E-1
 1.010329420267500E+10  -3.667089457987008E-1    3.238989722750074E-1   -5.438642986610793E-4   -3.921694541919336E-4   -4.724780685442059E-4   -4.486824599726754E-4   -1.802776107597341E-1    4.464016045683035E-1
 1.010330402025000E+10  -3.662379904000278E-1    3.244228468559273E-1   -5.176459050897153E-4   -4.124699876022492E-4   -4.878154074652388E-4   -4.337929738059773E-4   -1.796952300015491E-1    4.467533903041850E-1
 1.010331383782500E+10  -3.658635401874916E-1    3.247941340670277E-1   -5.194456815529189E-4   -4.176880002436900E-4   -4.481060414187062E-4   -4.349830722994545E-4   -1.789876754791466E-1    4.471841661220970E-1
 1.010332365540000E+10  -3.655466183772183E-1    3.252362501288116E-1   -5.263042402960262E-4   -4.040469129627816E-4   -4.828434748140630E-4   -4.208142765998117E-4   -1.782952972937160E-1    4.473195147679281E-1
 1.010333347297500E+10  -3.652399188420636E-1    3.256766276779601E-1   -5.132043250930130E-4   -4.121070432464606E-4   -4.694682440849424E-4   -4.281329215702740E-4   -1.777283929581615E-1    4.476047760615311E-1
 1.010334329055000E+10  -3.647993669680077E-1    3.261130610591509E-1   -5.225308442075836E-4   -3.888639208088685E-4   -4.663967963503422E-4   -4.201789023806211E-4   -1.771294192395894E-1    4.478510859142812E-1
 1.010335310812500E+10  -3.645596802735215E-1    3.267603810769131E-1   -5.097464191177876E-4   -4.197394599562799E-4   -4.745527997273630E-4   -4.258503642854556E-4   -1.764939046726021E-1    4.482026349086941E-1
 1.010336292570000E+10  -3.640448256618057E-1    3.271100247954241E-1   -5.139076112853184E-4   -4.018915735501366E-4   -4.660943327620329E-4   -4.193273960152722E-4   -1.760304691165529E-1    4.483645779189759E-1
 1.010337274327500E+10  -3.637819136627626E-1    3.275520244393781E-1   -5.135094560750112E-4   -3.896872702105028E-4   -4.520394064315490E-4   -4.278501761996299E-4   -1.753634538007453E-1    4.485836621779279E-1
 1.010338256085000E+10  -3.633288022994053E-1    3.280358389759413E-1   -5.203223068659233E-4   -4.027867019819322E-4   -4.290529089082833E-4   -4.076236784328396E-4   -1.747708506002761E-1    4.488878843433785E-1
 1.010339237842500E+10  -3.629141841442206E-1    3.284581655368735E-1   -5.019915941062206E-4   -4.074936593858903E-4   -4.676738264917472E-4   -4.141462529619419E-4   -1.741504951695658E-1    4.491668506114527E-1
 1.010340219600000E+10  -3.625972443697617E-1    3.288134808195283E-1   -5.162394120313021E-4   -3.724375680865472E-4   -4.639308705949739E-4   -4.089684097522584E-4   -1.734478720889393E-1    4.495203227853852E-1
 1.010341201357500E+10  -3.621175542161513E-1    3.293177344936700E-1   -5.224388937947822E-4   -3.757900846216586E-4   -4.504982162461919E-4   -4.040499741035495E-4   -1.728261164319041E-1    4.497053561431112E-1
 1.010342183115000E+10  -3.616303596810210E-1    3.298516506615651E-1   -4.673463249502430E-4   -3.825109310593923E-4   -4.425313557833399E-4   -4.103931166514302E-4   -1.722258311033719E-1    4.500606469753358E-1
 1.010343164872500E+10  -3.614541358408890E-1    3.301885835267102E-1   -4.658458510138278E-4   -4.085196017325476E-4   -4.568922517610688E-4   -4.025830638803840E-4   -1.716551415073733E-1    4.503249858563547E-1
 1.010344146630000E+10  -3.609960333512717E-1    3.307243163970531E-1   -4.793141210118824E-4   -3.823243564934459E-4   -4.338089070983978E-4   -4.037360558978375E-4   -1.710984715222950E-1    4.504168667446149E-1
 1.010345128387500E+10  -3.606623029896405E-1    3.312578827691640E-1   -4.760181462669901E-4   -3.756004968241833E-4   -4.214639099469167E-4   -4.260722992150676E-4   -1.703810159030484E-1    4.507500332890224E-1
 1.010346110145000E+10  -3.602659861921619E-1    3.316695210128553E-1   -4.742548129844070E-4   -3.754111745177226E-4   -4.444888187297465E-4   -3.873131188743576E-4   -1.696902245806701E-1    4.510385872946466E-1
 1.010347091902500E+10  -3.597995911064745E-1    3.322497784714279E-1   -4.654773421845636E-4   -3.660211095489748E-4   -4.298541475894956E-4   -4.265394776477189E-4   -1.691997776008057E-1    4.512884672170093E-1
 1.010348073660000E+10  -3.595275724407511E-1    3.324350753073596E-1   -4.533207594793409E-4   -3.707877648490960E-4   -4.443970129933871E-4   -4.166754082755243E-4   -1.685481931773290E-1    4.514523949469362E-1
 1.010349055417500E+10  -3.590335791566642E-1    3.329614089101765E-1   -4.826861144631048E-4   -3.677185408946837E-4   -4.327968994447729E-4   -3.778433193713563E-4   -1.678433765415231E-1    4.517192636640751E-1
 1.010350037175000E+10  -3.586412275658219E-1    3.335665190648798E-1   -4.593387179378366E-4   -3.623113628731299E-4   -3.964640099065230E-4   -3.888876034505027E-4   -1.673009558089068E-1    4.519500789230228E-1
 1.010351018932500E+10  -3.582992843327766E-1    3.339249539637321E-1   -4.445737324810245E-4   -3.606261580346813E-4   -4.100593651671739E-4   -3.570106884040943E-4   -1.666650197711612E-1    4.522691857721622E-1
 1.010352000690000E+10  -3.579282928669195E-1    3.344245017529684E-1   -4.717916436897881E-4   -3.480495762375105E-4   -4.255441815156563E-4   -4.080081790025247E-4   -1.660545242065267E-1    4.525312763413275E-1
 1.010352982447500E+10  -3.574459213417600E-1    3.348369426354729E-1   -4.536451450520162E-4   -3.649700934543096E-4   -3.879146006650294E-4   -3.830424531416004E-4   -1.652625155660149E-1    4.527577495549905E-1
 1.010353964205000E+10  -3.570935505501408E-1    3.354198717752119E-1   -4.475237479954905E-4   -3.531246187792770E-4   -4.309045794554079E-4   -3.873936302614666E-4   -1.646917987455721E-1    4.530554658447569E-1
 1.010354945962500E+10  -3.569002545529630E-1    3.357598543615060E-1   -4.658120562199388E-4   -3.844741916712048E-4   -4.149115279629928E-4   -4.206219371006427E-4   -1.641945984309194E-1    4.533215812477046E-1
 1.010355927720000E+10  -3.563918254263821E-1    3.361810940534493E-1   -4.421287916732741E-4   -3.447948763226893E-4   -4.286346342473320E-4   -3.725054895285892E-4   -1.634685928602918E-1    4.534982352381260E-1
 1.010356909477500E+10  -3.560702504804906E-1    3.367453506179460E-1   -4.422291190688160E-4   -3.780965762810910E-4   -4.039193517335929E-4   -3.595389121808104E-4   -1.628602536739158E-1    4.538539084627080E-1
 1.010357891235000E+10  -3.555479309816465E-1    3.371002959443025E-1   -4.569482361026873E-4   -3.432231185686981E-4   -4.035976456710245E-4   -3.693158365216926E-4   -1.623041222715560E-1    4.540094965949208E-1
 1.010358872992500E+10  -3.551443311871829E-1    3.375565675979816E-1   -4.503014586789180E-4   -3.305534370907254E-4   -3.858333097292759E-4   -3.769423975902339E-4   -1.616295930148005E-1    4.543103068985838E-1
 1.010359854750000E+10  -3.548439892018437E-1    3.379919955406313E-1   -4.361774393293960E-4   -3.324910645029046E-4   -3.660742923465552E-4   -3.565369409571699E-4   -1.609618468735700E-1    4.546384000130872E-1
 1.010360836507500E+10  -3.544307163506302E-1    3.384308851274140E-1   -4.529728402834674E-4   -3.657400118897433E-4   -3.455488675136452E-4   -3.681397846214275E-4   -1.603265311049389E-1    4.547563259241428E-1
 1.010361818265000E+10  -3.540686305559683E-1    3.389813720689621E-1   -4.073253883994943E-4   -3.502737871793589E-4   -3.629497575719592E-4   -3.504264554704847E-4   -1.595420738681609E-1    4.549872081876741E-1
 1.010362800022500E+10  -3.537036655919722E-1    3.394432259635254E-1   -4.107258124094111E-4   -3.429536013572328E-4   -3.647214754976795E-4   -3.330411824377146E-4   -1.588765148321778E-1    4.552338609635478E-1
 1.010363781780000E+10  -3.532439059606728E-1    3.398996438408751E-1   -3.918455678792094E-4   -3.241179130980719E-4   -3.715620457219227E-4   -3.591709159132879E-4   -1.582911645942658E-1    4.554903994078692E-1
 1.010364763537500E+10  -3.528733294847385E-1    3.404661667908386E-1   -4.341355616098924E-4   -3.403298282994288E-4   -3.553780691308909E-4   -3.698849181770524E-4   -1.575842631708016E-1    4.556343368610448E-1
 1.010365745295000E+10  -3.525768292999829E-1    3.407741612636178E-1   -4.092577510001283E-4   -3.194892312225197E-4   -3.767131339728080E-4   -3.377510068011544E-4   -1.570626658643870E-1    4.560718509204868E-1
 1.010366727052500E+10  -3.521199209650353E-1    3.412058843485033E-1   -4.089268921771113E-4   -3.396742509519960E-4   -3.632819059690765E-4   -3.423180688990177E-4   -1.564649875701235E-1    4.561835391978553E-1
 1.010367708810000E+10  -3.517677910960367E-1    3.415836320959891E-1   -3.680046556904459E-4   -3.219863901681141E-4   -3.680338883061628E-4   -3.591416674708645E-4   -1.557478877599311E-1    4.565331013595307E-1
 1.010368690567500E+10  -3.512585011244235E-1    3.420399319554394E-1   -3.756018601530177E-4   -3.139301990743482E-4   -3.382449977563349E-4   -3.340349605637023E-4   -1.551536687902259E-1    4.567954682514291E-1
 1.010369672325000E+10  -3.510117170074956E-1    3.425626511362170E-1   -3.729511941703746E-4   -3.174752006209202E-4   -3.400064876545518E-4   -3.259969194357685E-4   -1.544364671691324E-1    4.569188722306082E-1
 1.010370654082500E+10  -3.505397675274677E-1    3.430630126068808E-1   -3.879777030768390E-4   -3.118475074214929E-4   -3.221695134795968E-4   -3.595984762009109E-4   -1.538140787464018E-1    4.570460664430328E-1
 1.010371635840000E+10  -3.500041042434179E-1    3.434051302324874E-1   -3.591038007369132E-4   -3.202447844613212E-4   -3.414943122360826E-4   -3.343740538315234E-4   -1.531219434355189E-1    4.573487339107974E-1
 1.010372617597500E+10  -3.497037306900539E-1    3.436854670755395E-1   -3.609916807830591E-4   -3.222040452080956E-4   -3.244720746828013E-4   -3.206570468759840E-4   -1.525324164813132E-1    4.576833306792886E-1
 1.010373599355000E+10  -3.492756531039346E-1    3.443010834491382E-1   -3.573784687424456E-4   -3.077013625314908E-4   -3.347779657812254E-4   -3.170685399531675E-4   -1.517749766568389E-1    4.579216934024647E-1
 1.010374581112500E+10  -3.489314873484435E-1    3.447533941513956E-1   -3.756838262398729E-4   -2.986713805484950E-4   -3.199385519940686E-4   -3.450989314351948E-4   -1.511095571940578E-1    4.582185224242443E-1
 1.010375562870000E+10  -3.485085252304466E-1    3.453434203958091E-1   -3.610095274492936E-4   -2.759923416345236E-4   -3.128693761309914E-4   -3.086748376168787E-4   -1.505178704924519E-1    4.583567669427888E-1
 1.010376544627500E+10  -3.480226132524321E-1    3.457355732396325E-1   -3.713639291807722E-4   -3.056629215135213E-4   -2.945346914178184E-4   -3.387030764375455E-4   -1.498966707693289E-1    4.586149542688703E-1
 1.010377526385000E+10  -3.477094333810392E-1    3.462206129460280E-1   -3.289764327628159E-4   -2.991920992971049E-4   -2.898698904081449E-4   -3.144815040066397E-4   -1.492674693235820E-1    4.587754439742484E-1
 1.010378508142500E+10  -3.472836028191253E-1    3.465371573123784E-1   -3.193343165240166E-4   -3.130098680673329E-4   -2.710931917190556E-4   -3.045914990431883E-4   -1.485526970590312E-1    4.589544458443586E-1
 1.010379489900000E+10  -3.468562610297358E-1    3.470335860403378E-1   -3.209555777840620E-4   -3.227943938647472E-4   -3.187458185394282E-4   -2.972698543372714E-4   -1.478790671230750E-1    4.593137758176538E-1
 1.010380471657500E+10  -3.464325069658135E-1    3.474052958487892E-1   -3.269210747776977E-4   -2.822081587009673E-4   -2.867907860522039E-4   -3.059517191016068E-4   -1.471482301910607E-1    4.595101525775320E-1
 1.010381453415000E+10  -3.460883553200718E-1    3.478249591078326E-1   -3.281654792176241E-4   -2.965704283737371E-4   -2.630974019452637E-4   -3.310467773294685E-4   -1.465246286721956E-1    4.597303132508582E-1
 1.010382435172500E+10  -3.457229452754965E-1    3.482658047076324E-1   -2.986699778919492E-4   -2.809297145973982E-4   -2.644112571919478E-4   -2.989780213513531E-4   -1.458954908941778E-1    4.598624921200660E-1
 1.010383416930000E+10  -3.453165279473652E-1    3.486824528327326E-1   -3.124229509823205E-4   -2.928932326500281E-4   -2.452336942027948E-4   -3.016928823085174E-4   -1.452739063114010E-1    4.601635034601722E-1
 1.010384398687500E+10  -3.448938527528252E-1    3.491432054036627E-1   -3.111489664495827E-4   -2.718881456895233E-4   -2.535671031355780E-4   -2.755960684503102E-4   -1.444203632456817E-1    4.603452981209305E-1
 1.010385380445000E+10  -3.446597370241646E-1    3.496431248929301E-1   -3.002780845618080E-4   -2.851440184867030E-4   -2.213363620013710E-4   -2.883708788357949E-4   -1.438485900994706E-1    4.605453491789437E-1
 1.010386362202500E+10  -3.441036285295234E-1    3.498999423736882E-1   -2.705231553422812E-4   -3.030417242968959E-4   -2.227788431422302E-4   -2.893236098132698E-4   -1.433123786294840E-1    4.607470852630701E-1
 1.010387343960000E+10  -3.435412956863327E-1    3.505816229301615E-1   -2.470724095798038E-4   -2.716870653817304E-4   -2.639894011130757E-4   -2.833701568773809E-4   -1.424475681978159E-1    4.611874581126632E-1
 1.010388325717500E+10  -3.431225772111639E-1    3.509218104552295E-1   -2.715112842187665E-4   -2.703996702719897E-4   -2.212435888840205E-4   -2.885355994446146E-4   -1.417678197044080E-1    4.613919712486070E-1
 1.010389307475000E+10  -3.427867112731534E-1    3.513809337335645E-1   -2.498817935624946E-4   -2.762856967183446E-4   -2.173816427636468E-4   -2.779736884018149E-4   -1.410364190492791E-1    4.613740329507811E-1
