#  HZ   S   RI   R     50.00 
! Rohde & Schwarz Vector Network Analyzer 
! Rohde-Schwarz,ZNB20-2Port,1311601062101988,3.16
! Created: UTC 3/20/2024, 4:52:52 PM
! freq[Hz]                re:S11                  im:S11                  re:S21                  im:S21                  re:S12                  im:S12                  re:S22                  im:S22
 1.010297573300000E+10  -3.786333350511606E-1    3.083609121679669E-1   -6.052386842360710E-4   -4.534436148773914E-4   -5.250475331153359E-4   -5.057609742041495E-4   -1.995292790558043E-1    4.373100364875762E-1
 1.010298568927500E+10  -3.782472031694106E-1    3.088096358345169E-1   -5.830981869936748E-4   -4.677224298023416E-4   -5.312874158781870E-4   -5.109741780227608E-4   -1.990078827614721E-1    4.377275020298380E-1
 1.010299564555000E+10  -3.779177898470499E-1    3.093285771960126E-1   -6.037609861052967E-4   -4.886521709454556E-4   -5.310806249910726E-4   -5.053889102651504E-4   -1.983086534910802E-1    4.378271694241859E-1
 1.010300560182500E+10  -3.774905286506663E-1    3.098362938941495E-1   -6.126775420539987E-4   -4.647191365542248E-4   -5.224249132095818E-4   -4.845749855827415E-4   -1.978646911567552E-1    4.381878265610996E-1
 1.010301555810000E+10  -3.770931224026848E-1    3.103736703032591E-1   -5.805674261960581E-4   -4.565984546231005E-4   -5.387199975459140E-4   -5.344867849146253E-4   -1.971398770289323E-1    4.385585457356875E-1
 1.010302551437500E+10  -3.767765594598585E-1    3.108414871532421E-1   -5.775446631340323E-4   -4.691058824804605E-4   -5.337771063250722E-4   -5.020263062580434E-4   -1.964872424356099E-1    4.388142678305073E-1
 1.010303547065000E+10  -3.764695370873816E-1    3.113144290182060E-1   -5.817400716977369E-4   -4.685154598079602E-4   -5.127963235005057E-4   -4.912566314871320E-4   -1.958961698220546E-1    4.390844006061572E-1
 1.010304542692500E+10  -3.760117270721801E-1    3.118333607749604E-1   -5.876202626791143E-4   -4.787213446452988E-4   -5.212740838124334E-4   -4.888107019705466E-4   -1.952698287758659E-1    4.394931821616393E-1
 1.010305538320000E+10  -3.757012868463513E-1    3.123808838988896E-1   -5.567611730989135E-4   -4.678259702689921E-4   -5.036127489791527E-4   -5.097953858373085E-4   -1.946819320149976E-1    4.398190888190652E-1
 1.010306533947500E+10  -3.753037549556078E-1    3.127935936507742E-1   -5.626983246533873E-4   -4.596651628234195E-4   -5.037961331572175E-4   -4.872834916416335E-4   -1.942732591568031E-1    4.400573406780627E-1
 1.010307529575000E+10  -3.749869678189778E-1    3.133065646092465E-1   -5.709017178255775E-4   -4.573324962164664E-4   -5.090504296473051E-4   -4.903288625802152E-4   -1.934816548992918E-1    4.404203011330477E-1
 1.010308525202500E+10  -3.745386336683977E-1    3.136679035183800E-1   -5.709316390418027E-4   -4.487782568361988E-4   -5.179466705757998E-4   -5.074218990980852E-4   -1.928973951237368E-1    4.406640794635719E-1
 1.010309520830000E+10  -3.742297238025111E-1    3.141929537724695E-1   -5.647045664538141E-4   -4.451656376232895E-4   -5.236837550553267E-4   -4.975194099835763E-4   -1.924014348439993E-1    4.408929799006493E-1
 1.010310516457500E+10  -3.738737125788951E-1    3.147048230295319E-1   -5.837625595296182E-4   -4.249612542841976E-4   -5.090133058562360E-4   -4.569663051399415E-4   -1.917213704522146E-1    4.411618960277365E-1
 1.010311512085000E+10  -3.733849154574556E-1    3.152323834934461E-1   -5.578446009680658E-4   -4.304055297243031E-4   -5.229576313481722E-4   -4.497343294259599E-4   -1.912086664000817E-1    4.414277188560067E-1
 1.010312507712500E+10  -3.731024413545677E-1    3.156277044970704E-1   -5.729492363302733E-4   -4.606491596677579E-4   -5.064667305945216E-4   -4.797802673883744E-4   -1.905073170427497E-1    4.417063068396729E-1
 1.010313503340000E+10  -3.726703873854155E-1    3.161035857907878E-1   -5.571772395703194E-4   -4.637716995508876E-4   -5.044463177728411E-4   -4.783997336321936E-4   -1.899915582445410E-1    4.419240997482999E-1
 1.010314498967500E+10  -3.723246899527839E-1    3.166456543327989E-1   -5.577754675642412E-4   -4.400205169406932E-4   -5.250445767471937E-4   -4.705425127550280E-4   -1.892778671177860E-1    4.423267619806651E-1
 1.010315494595000E+10  -3.718318752159392E-1    3.172172439668655E-1   -5.772953149624579E-4   -4.401532734144875E-4   -4.901547902762186E-4   -4.752404083779724E-4   -1.886432946629000E-1    4.427179316095969E-1
 1.010316490222500E+10  -3.717190375290582E-1    3.176105562092504E-1   -5.687830857313045E-4   -4.346281246894654E-4   -4.964815369957279E-4   -4.643058909460400E-4   -1.881876705560533E-1    4.428893679652480E-1
 1.010317485850000E+10  -3.712152674755724E-1    3.181621288738222E-1   -5.619088429110416E-4   -4.167992568636033E-4   -5.034993074662196E-4   -4.689504011961690E-4   -1.875068683947486E-1    4.433121898413926E-1
 1.010318481477500E+10  -3.709351669003732E-1    3.184927039726436E-1   -5.390624655588258E-4   -4.490276500618663E-4   -5.082300684898135E-4   -4.576301374817549E-4   -1.869425750922495E-1    4.434522070817283E-1
 1.010319477105000E+10  -3.705167774202441E-1    3.190150147579849E-1   -5.316466206860302E-4   -4.544792537042847E-4   -4.999938286115242E-4   -4.755612887250772E-4   -1.861291629509186E-1    4.437135661210349E-1
 1.010320472732500E+10  -3.699465155566508E-1    3.194811614155528E-1   -5.378521013085867E-4   -4.390032296240692E-4   -5.020134722765266E-4   -4.619256382675633E-4   -1.856910998105353E-1    4.441130656702951E-1
 1.010321468360000E+10  -3.697324266279755E-1    3.199518930622424E-1   -5.441003676054951E-4   -4.406656100024027E-4   -4.651148569302991E-4   -4.572800003720952E-4   -1.850454222376397E-1    4.442349178357122E-1
 1.010322463987500E+10  -3.692620654318808E-1    3.204162384354058E-1   -5.525982149466854E-4   -4.620926071121002E-4   -5.006485581235015E-4   -4.546210289624384E-4   -1.845816112597894E-1    4.445613139043382E-1
 1.010323459615000E+10  -3.689643433089818E-1    3.209390278407182E-1   -5.391189681284014E-4   -4.193360466833301E-4   -4.746596441704334E-4   -4.659405166596442E-4   -1.838555280473928E-1    4.450180307131154E-1
 1.010324455242500E+10  -3.685722322029893E-1    3.216196027234630E-1   -5.521072836783424E-4   -4.149942023512632E-4   -4.909897155510203E-4   -4.532854126243987E-4   -1.832781121470250E-1    4.452697844934922E-1
 1.010325450870000E+10  -3.682613365816447E-1    3.217791892622237E-1   -5.241182135941124E-4   -4.218753754126947E-4   -4.499961921876593E-4   -4.403540400471634E-4   -1.826975152780801E-1    4.453775399269637E-1
 1.010326446497500E+10  -3.679093280724119E-1    3.222460935272064E-1   -5.216054849135861E-4   -4.058470226205261E-4   -4.764295584655897E-4   -4.485899174497283E-4   -1.819784545560577E-1    4.457871099699981E-1
 1.010327442125000E+10  -3.675392301208341E-1    3.228811645708226E-1   -5.258913097652793E-4   -4.255956482030406E-4   -4.815965303755618E-4   -4.317042607557901E-4   -1.814624385282969E-1    4.460741962977916E-1
 1.010328437752500E+10  -3.670377649979665E-1    3.231604462742380E-1   -5.063357201846164E-4   -4.264863635161733E-4   -4.900771425677504E-4   -4.282001352413867E-4   -1.808292194072536E-1    4.463230100369445E-1
 1.010329433380000E+10  -3.667050580777650E-1    3.237175751980438E-1   -5.470562450860555E-4   -4.063617516889398E-4   -4.850415685275645E-4   -4.540783549427002E-4   -1.801276376240570E-1    4.466344272446442E-1
 1.010330429007500E+10  -3.664633250414353E-1    3.243485853969477E-1   -5.055396149103838E-4   -4.027556566355341E-4   -4.781965891588581E-4   -4.243752660101609E-4   -1.796856784065258E-1    4.467884997280865E-1
 1.010331424635000E+10  -3.660269197058659E-1    3.247324995561085E-1   -4.993946643816121E-4   -4.138255671427535E-4   -4.842085620034178E-4   -4.310501855370483E-4   -1.790296985794664E-1    4.469306048263621E-1
 1.010332420262500E+10  -3.655412497243617E-1    3.252732311794082E-1   -5.095044385823609E-4   -4.390145389521801E-4   -4.527343804818843E-4   -4.544427723617431E-4   -1.783566006321760E-1    4.472889804182077E-1
 1.010333415890000E+10  -3.651390255918439E-1    3.256434959896293E-1   -5.091482285866014E-4   -4.038435640355546E-4   -4.804637931842975E-4   -4.553621572730517E-4   -1.776747624973016E-1    4.475754467454532E-1
 1.010334411517500E+10  -3.647902325420773E-1    3.262272936144700E-1   -4.930566360741501E-4   -4.307340580696556E-4   -4.683242026688687E-4   -4.213723873618972E-4   -1.771373475841711E-1    4.478768417476758E-1
 1.010335407145000E+10  -3.643539181444683E-1    3.265891564460803E-1   -4.954812539129363E-4   -4.182237772839129E-4   -4.531518985372197E-4   -4.273362559982963E-4   -1.765846595831952E-1    4.481746263685834E-1
 1.010336402772500E+10  -3.639952333224096E-1    3.271505661476581E-1   -5.261983425483277E-4   -3.966641964962680E-4   -4.486298871936224E-4   -4.247271120298003E-4   -1.759446813390556E-1    4.484123290805487E-1
 1.010337398400000E+10  -3.637299028969815E-1    3.276032730317595E-1   -5.114648136372484E-4   -4.306387643937327E-4   -4.539367436790456E-4   -4.219010477419682E-4   -1.752683958767268E-1    4.486724825812558E-1
 1.010338394027500E+10  -3.632967989984402E-1    3.280506356904045E-1   -4.910111871328422E-4   -4.092551685426177E-4   -4.430584512083476E-4   -4.125300361076282E-4   -1.746095053800455E-1    4.489763655241401E-1
 1.010339389655000E+10  -3.629682341741378E-1    3.285651936092415E-1   -5.244883218986598E-4   -3.578987571691142E-4   -4.717700997591655E-4   -4.173747265140559E-4   -1.739322948394252E-1    4.491426891380738E-1
 1.010340385282500E+10  -3.626144024358882E-1    3.290186484597964E-1   -4.980774368307152E-4   -3.717725816859812E-4   -4.628944884258793E-4   -4.254329154198290E-4   -1.733573410898537E-1    4.494901045397006E-1
 1.010341380910000E+10  -3.621334701766573E-1    3.294066499552231E-1   -5.050221306063916E-4   -3.922163022331516E-4   -4.451977651095904E-4   -4.062597504581320E-4   -1.727425737902937E-1    4.498118861361127E-1
 1.010342376537500E+10  -3.617402634874511E-1    3.296804424500681E-1   -4.873155703326797E-4   -3.907735159955206E-4   -4.217817402214114E-4   -4.053904399839013E-4   -1.721823448276659E-1    4.500949468494999E-1
 1.010343372165000E+10  -3.614013039790329E-1    3.304562634839459E-1   -5.174553510016250E-4   -3.832888618887433E-4   -4.388803985122953E-4   -4.214861412731026E-4   -1.714851445158062E-1    4.502842096692271E-1
 1.010344367792500E+10  -3.609839676779060E-1    3.308266019722836E-1   -4.833924847961036E-4   -3.877845442691141E-4   -4.113363399515236E-4   -3.957134255494164E-4   -1.708341547976403E-1    4.505091300214559E-1
 1.010345363420000E+10  -3.604299479256092E-1    3.312692977089460E-1   -4.878649785716409E-4   -3.943134838073176E-4   -4.262023920504200E-4   -4.229900181044603E-4   -1.701028534479004E-1    4.507779928441878E-1
 1.010346359047500E+10  -3.602170312459683E-1    3.318418501203259E-1   -5.100516904231787E-4   -3.830735077179781E-4   -4.212755733097437E-4   -3.949845816111068E-4   -1.696074345687708E-1    4.511206894830736E-1
 1.010347354675000E+10  -3.598301846736867E-1    3.321199979758123E-1   -4.938573603346072E-4   -3.625276364671556E-4   -4.119869437762811E-4   -3.998589466068911E-4   -1.689952157116798E-1    4.513452228054045E-1
 1.010348350302500E+10  -3.593870446414938E-1    3.326769016761973E-1   -4.596773309752278E-4   -3.652300619684280E-4   -3.947168696765590E-4   -4.142235594582252E-4   -1.683333829730498E-1    4.515099666704474E-1
 1.010349345930000E+10  -3.590159128551809E-1    3.331255172182345E-1   -4.489465648731777E-4   -3.792532324286897E-4   -4.133247754005862E-4   -4.012205854554802E-4   -1.676544096057841E-1    4.518023269296210E-1
 1.010350341557500E+10  -3.585946650122168E-1    3.335786259421397E-1   -4.589910997438042E-4   -3.994087361532298E-4   -4.204682586883777E-4   -3.935681379565183E-4   -1.670828625910969E-1    4.521026287939455E-1
 1.010351337185000E+10  -3.581531301414805E-1    3.340494517154809E-1   -4.631119854027112E-4   -4.094561744718290E-4   -3.866751005206890E-4   -3.934269551376918E-4   -1.664150404802247E-1    4.524031908167929E-1
 1.010352332812500E+10  -3.578587444836572E-1    3.344979719547347E-1   -4.475638627778122E-4   -3.852329017962835E-4   -4.016098691013051E-4   -3.922699450532613E-4   -1.657265061082928E-1    4.526266206239234E-1
 1.010353328440000E+10  -3.575290052298748E-1    3.350709327986775E-1   -4.278136255296003E-4   -3.863693713227170E-4   -4.210709075016189E-4   -3.718210296693669E-4   -1.650237155909863E-1    4.528772780765357E-1
 1.010354324067500E+10  -3.570428832406486E-1    3.355203580422193E-1   -4.633230105628949E-4   -3.767044941596141E-4   -4.121874150591706E-4   -3.914959771292309E-4   -1.645860209649854E-1    4.530844528293774E-1
 1.010355319695000E+10  -3.565969887562033E-1    3.358788681137856E-1   -4.552060267988258E-4   -3.724527510109596E-4   -3.837784986315443E-4   -3.903911694125302E-4   -1.640438777123692E-1    4.533864896061524E-1
 1.010356315322500E+10  -3.561544347001458E-1    3.364485943898542E-1   -4.208260999123702E-4   -3.530740517033871E-4   -4.138325762029012E-4   -3.668148834543958E-4   -1.631933133127509E-1    4.536900338358767E-1
 1.010357310950000E+10  -3.559239622673035E-1    3.368244698202285E-1   -4.349928313374827E-4   -3.519499624403591E-4   -3.833320269757578E-4   -3.708050802065170E-4   -1.626189435779544E-1    4.540090696261886E-1
 1.010358306577500E+10  -3.553678839014688E-1    3.372220142427914E-1   -4.414298070909515E-4   -3.490156794544074E-4   -3.890058693357154E-4   -3.987585592135677E-4   -1.620448118044496E-1    4.540212475430523E-1
 1.010359302205000E+10  -3.550584367051695E-1    3.377451524121449E-1   -4.091242004790772E-4   -3.414125529443591E-4   -3.795805763974013E-4   -3.588032812315481E-4   -1.612418313557329E-1    4.543675527513241E-1
 1.010360297832500E+10  -3.545968709208028E-1    3.382660612712587E-1   -4.171395667075637E-4   -3.526533277564152E-4   -3.766620210740758E-4   -3.461179888827742E-4   -1.605367201101635E-1    4.547138627565216E-1
 1.010361293460000E+10  -3.543757061660835E-1    3.387197555512840E-1   -4.215313481543501E-4   -3.628553473806516E-4   -3.803921766661224E-4   -3.649959852218800E-4   -1.601876461633762E-1    4.548920526248565E-1
 1.010362289087500E+10  -3.538954856039094E-1    3.390678954806005E-1   -4.173710533531966E-4   -3.406696287116051E-4   -3.675392041897063E-4   -3.414838752877631E-4   -1.594762478070213E-1    4.551231449803069E-1
 1.010363284715000E+10  -3.535312124106403E-1    3.394666148324776E-1   -4.300859860534207E-4   -3.522269239832745E-4   -3.713600238989915E-4   -3.397351526497384E-4   -1.586178861457463E-1    4.553098549256250E-1
 1.010364280342500E+10  -3.529536210109080E-1    3.400380554508153E-1   -3.733248971930040E-4   -3.286212857122618E-4   -3.582528547640216E-4   -3.518516614025044E-4   -1.580438525596236E-1    4.556539620576525E-1
 1.010365275970000E+10  -3.527370920171324E-1    3.405724474834291E-1   -3.906933927178274E-4   -3.270460344828426E-4   -3.529048412494103E-4   -3.637259994925418E-4   -1.573585724361408E-1    4.558951277716094E-1
 1.010366271597500E+10  -3.522255683953662E-1    3.410815973040431E-1   -3.958303661263619E-4   -3.478470223172236E-4   -3.570466535209936E-4   -3.507563104248879E-4   -1.567625640855954E-1    4.561774462312175E-1
 1.010367267225000E+10  -3.518846480056428E-1    3.412717124416995E-1   -4.204443938439268E-4   -3.261904396751938E-4   -3.380250295341962E-4   -3.505015629201261E-4   -1.562296790580611E-1    4.562154043581452E-1
 1.010368262852500E+10  -3.514270319974718E-1    3.418999657001610E-1   -3.876024898408745E-4   -3.534146242628316E-4   -3.187120770942118E-4   -3.620928370107614E-4   -1.553251653901047E-1    4.565851370853736E-1
 1.010369258480000E+10  -3.509690482974001E-1    3.423473966553892E-1   -3.690194526817584E-4   -3.619858662256151E-4   -3.368985155892666E-4   -3.424341249941906E-4   -1.548272600837619E-1    4.567709785498211E-1
 1.010370254107500E+10  -3.506971486347932E-1    3.426454361120114E-1   -3.520437147976200E-4   -3.275623703554025E-4   -3.310276216821614E-4   -3.549426163290256E-4   -1.541100317439080E-1    4.569399387982285E-1
 1.010371249735000E+10  -3.502906169610218E-1    3.431303313564242E-1   -3.362857752330919E-4   -3.280165092408369E-4   -3.430737944445953E-4   -3.481945977780612E-4   -1.534010283580746E-1    4.572637026731890E-1
 1.010372245362500E+10  -3.497830455514028E-1    3.435690334814705E-1   -3.759819618917139E-4   -3.278024648929156E-4   -3.129792692442509E-4   -3.290035042997151E-4   -1.527725427336568E-1    4.576175630776874E-1
 1.010373240990000E+10  -3.494433102726887E-1    3.441887428584132E-1   -3.589007813360597E-4   -3.421696878606255E-4   -3.288618807595973E-4   -3.266989431878765E-4   -1.521405642327244E-1    4.576926684316857E-1
 1.010374236617500E+10  -3.491971397592032E-1    3.445591443536550E-1   -3.612621648669369E-4   -3.540316350375075E-4   -3.019321976472799E-4   -2.980170469419821E-4   -1.514806990298594E-1    4.579662050104406E-1
 1.010375232245000E+10  -3.486890668818594E-1    3.450480003776301E-1   -3.410881314659078E-4   -3.146718447970491E-4   -3.021686620874592E-4   -3.043111555795262E-4   -1.508162538011666E-1    4.583026352645974E-1
 1.010376227872500E+10  -3.483382736176544E-1    3.454911729006371E-1   -3.499118921695416E-4   -2.903042795876179E-4   -2.987969838523799E-4   -3.509168638820685E-4   -1.501068874981087E-1    4.584550182294641E-1
 1.010377223500000E+10  -3.477997855324080E-1    3.459339395411870E-1   -3.708857921570289E-4   -2.828388081515102E-4   -2.942067354671920E-4   -3.253966745229844E-4   -1.494406738174853E-1    4.586743117850019E-1
 1.010378219127500E+10  -3.474778294412745E-1    3.464414162132360E-1   -3.060350152738644E-4   -3.169978152904404E-4   -2.823847839982176E-4   -3.280305351480229E-4   -1.486439246739174E-1    4.588622423404686E-1
 1.010379214755000E+10  -3.470433730358982E-1    3.468685498916063E-1   -3.229917062363433E-4   -2.750333745003469E-4   -2.821491677421923E-4   -3.172473206093268E-4   -1.480431830820410E-1    4.591566740955991E-1
 1.010380210382500E+10  -3.465313136154165E-1    3.472450364803967E-1   -3.053497326586649E-4   -2.937054852938146E-4   -2.972189363972872E-4   -2.973967090988553E-4   -1.474271179106229E-1    4.592767685862066E-1
 1.010381206010000E+10  -3.462096378285376E-1    3.477990268430930E-1   -2.911452535623693E-4   -2.988850708715525E-4   -2.778234053474231E-4   -2.913665956944228E-4   -1.465987448080249E-1    4.596282951854586E-1
 1.010382201637500E+10  -3.459702036012240E-1    3.481698274807610E-1   -3.001591497172717E-4   -2.987869607702938E-4   -2.505078316485204E-4   -2.980204119205709E-4   -1.460908904442486E-1    4.597715418287249E-1
 1.010383197265000E+10  -3.454478600602857E-1    3.486145226640072E-1   -2.775636874773414E-4   -2.870725281308031E-4   -2.275372378445502E-4   -3.254842490271334E-4   -1.452532995932944E-1    4.600207079851849E-1
 1.010384192892500E+10  -3.449635679347523E-1    3.490893053127354E-1   -2.805985128838797E-4   -2.884770399011825E-4   -2.356109650011385E-4   -3.074277330979394E-4   -1.447400499899763E-1    4.603108105541796E-1
 1.010385188520000E+10  -3.444542253283653E-1    3.495632302565866E-1   -2.761567487370516E-4   -2.601746568511658E-4   -2.373075205025215E-4   -3.066676223422629E-4   -1.439413879703112E-1    4.605928514605288E-1
 1.010386184147500E+10  -3.441223468539220E-1    3.499192927335453E-1   -2.886473840140624E-4   -2.925883912908213E-4   -2.501041655267288E-4   -2.885380106885511E-4   -1.432202205052705E-1    4.605845944620803E-1
 1.010387179775000E+10  -3.436145230163110E-1    3.502543960384652E-1   -2.764163398206029E-4   -3.046386524297584E-4   -2.309160649844014E-4   -2.778531577563196E-4   -1.426332358182774E-1    4.609842653869799E-1
