#  HZ   S   RI   R     50.00 
! Rohde & Schwarz Vector Network Analyzer 
! Rohde-Schwarz,ZNB20-2Port,1311601062101988,3.16
! Created: UTC 12/23/2023, 3:49:17 AM
! freq[Hz]                re:S11                  im:S11                  re:S21                  im:S21                  re:S12                  im:S12                  re:S22                  im:S22
 7.836734971000000E9     5.635078825824079E-1    5.319389584923775E-2    1.078865438612998E-3    3.764486277747659E-3    1.073837838098590E-3    3.644391080731591E-3    4.759952188497260E-1   -2.540430357564783E-1
 7.836769326375000E9     5.638012038117085E-1    5.098160494420582E-2    1.070802904305976E-3    3.769197188938483E-3    1.112129015491610E-3    3.701889330070750E-3    4.746631975030369E-1   -2.560732917214751E-1
 7.836803681750000E9     5.639700911514742E-1    4.871585434026837E-2    1.092243131428271E-3    3.768391424817391E-3    1.134814116606917E-3    3.676702593902873E-3    4.737745081895644E-1   -2.581261596443884E-1
 7.836838037125000E9     5.643529471727035E-1    4.649099651088780E-2    1.132055129468257E-3    3.760488743627545E-3    1.115742211354113E-3    3.704266450985634E-3    4.724351089568486E-1   -2.604220597620143E-1
 7.836872392500000E9     5.645085934954872E-1    4.417995668742060E-2    1.139083673285229E-3    3.796141861135038E-3    1.142516729297967E-3    3.684593169626882E-3    4.714534463654668E-1   -2.624462475712328E-1
 7.836906747875000E9     5.645285709456669E-1    4.187689251914089E-2    1.145512531908991E-3    3.777585845153571E-3    1.163498780226317E-3    3.678233383626487E-3    4.701995458859343E-1   -2.645233436730768E-1
 7.836941103250000E9     5.648197288965094E-1    3.965305786722611E-2    1.181565378661513E-3    3.771417400997027E-3    1.183375081642231E-3    3.671638821178741E-3    4.690055939544815E-1   -2.664833869265695E-1
 7.836975458625000E9     5.649671227504256E-1    3.734210812798074E-2    1.186309421397652E-3    3.757040135036779E-3    1.240231933000125E-3    3.712840737191138E-3    4.677831495969405E-1   -2.687946273478968E-1
 7.837009814000000E9     5.650436710041612E-1    3.507006217736010E-2    1.213866576580956E-3    3.776706284777792E-3    1.238416733307534E-3    3.680120840472156E-3    4.666195521857084E-1   -2.709138569514170E-1
 7.837044169375000E9     5.652481779324159E-1    3.282964760391061E-2    1.243007583985795E-3    3.752084016766165E-3    1.233297258889435E-3    3.713536625810090E-3    4.653339517807281E-1   -2.730234067722157E-1
 7.837078524750000E9     5.655249840212604E-1    3.061289362512037E-2    1.254016803931097E-3    3.755700550041772E-3    1.274886085441229E-3    3.723836037603473E-3    4.641447391086173E-1   -2.750143311795714E-1
 7.837112880125000E9     5.655885101767312E-1    2.823897440774066E-2    1.285833086920925E-3    3.758549784049210E-3    1.272398506935296E-3    3.726073058235030E-3    4.629677465318507E-1   -2.772259472430083E-1
 7.837147235500000E9     5.658433348916436E-1    2.598693996415768E-2    1.301531686179910E-3    3.771117598543666E-3    1.302198278302311E-3    3.662404721445933E-3    4.617222249236256E-1   -2.790052099607879E-1
 7.837181590875000E9     5.658725287062384E-1    2.377673755176188E-2    1.309655254673988E-3    3.741382737789167E-3    1.336756560156801E-3    3.688691194562471E-3    4.605649913392247E-1   -2.811665909376685E-1
 7.837215946250000E9     5.659793258093295E-1    2.148806330362366E-2    1.330187095800666E-3    3.777371764142673E-3    1.373317439563516E-3    3.715218932499305E-3    4.592896295822209E-1   -2.833799539800481E-1
 7.837250301625000E9     5.660205578827004E-1    1.913863522814933E-2    1.359824643618349E-3    3.762116771591685E-3    1.341739986922495E-3    3.697599399678628E-3    4.579819157826093E-1   -2.853966277744603E-1
 7.837284657000000E9     5.660782406909795E-1    1.692555164706253E-2    1.390322442567956E-3    3.752963410441136E-3    1.368475817524227E-3    3.682636597624761E-3    4.567644711309559E-1   -2.872003539392755E-1
 7.837319012375000E9     5.662313467050257E-1    1.451262696750420E-2    1.387976728803072E-3    3.756564361412235E-3    1.432653666899880E-3    3.661490891888315E-3    4.554670168358361E-1   -2.893479132908570E-1
 7.837353367750000E9     5.661792433014995E-1    1.228057736839497E-2    1.391299772098100E-3    3.764045604128507E-3    1.421890524184805E-3    3.711527266295588E-3    4.542097461061576E-1   -2.914936701120510E-1
 7.837387723125000E9     5.663972190751941E-1    9.981737298740296E-3    1.417427393302383E-3    3.746763652947553E-3    1.430319111775642E-3    3.678115336685470E-3    4.528854130857487E-1   -2.933510473064361E-1
 7.837422078500000E9     5.663865035228975E-1    7.717131114405137E-3    1.451385731810939E-3    3.767104456156476E-3    1.442489876189898E-3    3.682397474198425E-3    4.515319640460961E-1   -2.954885809658586E-1
 7.837456433875000E9     5.664266293172023E-1    5.450381262405189E-3    1.452636299374736E-3    3.779838234763883E-3    1.461322256405882E-3    3.740927552400668E-3    4.502688701332015E-1   -2.975037214161118E-1
 7.837490789250000E9     5.664333686039692E-1    3.155856028887990E-3    1.489814673804531E-3    3.760280406079092E-3    1.500033646752390E-3    3.684575776894659E-3    4.490626194836314E-1   -2.994282744980609E-1
 7.837525144625000E9     5.664952094175572E-1    8.570067118692926E-4    1.516122241557862E-3    3.761142016002428E-3    1.499038295330178E-3    3.691880446184071E-3    4.477066660974643E-1   -3.014960785275506E-1
 7.837559500000000E9     5.664850519098047E-1   -1.328522926083848E-3    1.527261381887156E-3    3.755498811858609E-3    1.526058680890791E-3    3.661855607189476E-3    4.461835429469067E-1   -3.034977092980326E-1
 7.837593855375000E9     5.663831642108571E-1   -3.670067465871358E-3    1.530853307466500E-3    3.732502002898346E-3    1.587765813036967E-3    3.703504657915743E-3    4.449637635077389E-1   -3.055487998359447E-1
 7.837628210750000E9     5.665336923379968E-1   -5.995730341629321E-3    1.563184496015311E-3    3.744884078335295E-3    1.606345961039858E-3    3.656129890651745E-3    4.435324460768834E-1   -3.075889552355320E-1
 7.837662566125000E9     5.664346949109179E-1   -8.263693014556541E-3    1.592618141146464E-3    3.757782438769006E-3    1.600345877097988E-3    3.699474367300455E-3    4.422189012929777E-1   -3.096010195685008E-1
 7.837696921500000E9     5.663566518753596E-1   -1.060053735172187E-2    1.586426738824029E-3    3.751545754827424E-3    1.604426944107685E-3    3.697916440440588E-3    4.408096315292701E-1   -3.114890370340824E-1
 7.837731276875000E9     5.663501805689907E-1   -1.288170675626764E-2    1.638507875183200E-3    3.724066978775285E-3    1.644305899721040E-3    3.703355955330153E-3    4.394543974219441E-1   -3.133984839421979E-1
 7.837765632250000E9     5.662861554106484E-1   -1.509857673518342E-2    1.644442040654951E-3    3.749774825209252E-3    1.634555689517721E-3    3.679310833340511E-3    4.381228423902558E-1   -3.153330908503251E-1
 7.837799987625000E9     5.664306833643137E-1   -1.731489687856843E-2    1.682725682531771E-3    3.772214770476934E-3    1.680366026862995E-3    3.666432602759710E-3    4.367039806559047E-1   -3.173842298802128E-1
 7.837834343000000E9     5.661935893793152E-1   -1.973795672858979E-2    1.671660565347306E-3    3.722789477803881E-3    1.691479882180817E-3    3.690426894839437E-3    4.351298984623467E-1   -3.192642811138637E-1
 7.837868698375000E9     5.662068245046925E-1   -2.213443060167018E-2    1.669776160633841E-3    3.740817162255248E-3    1.727350899258075E-3    3.663019263210768E-3    4.338953182906051E-1   -3.211351936272185E-1
 7.837903053750000E9     5.661253676844354E-1   -2.419567053928042E-2    1.712814374712158E-3    3.756163336050438E-3    1.738722879624717E-3    3.684086213905858E-3    4.325629208786059E-1   -3.232562682436805E-1
 7.837937409125000E9     5.660004187441728E-1   -2.657577616582318E-2    1.762068407277497E-3    3.724538482244628E-3    1.772027011300159E-3    3.662285866444940E-3    4.308655083963970E-1   -3.251727131712321E-1
 7.837971764500000E9     5.657888951162904E-1   -2.890948900730026E-2    1.770735727515095E-3    3.731952132582608E-3    1.764515652051075E-3    3.690051182913648E-3    4.294603091584089E-1   -3.269089106410490E-1
 7.838006119875000E9     5.657695935799579E-1   -3.116998310149546E-2    1.797107622849053E-3    3.730680715790963E-3    1.795179845004457E-3    3.688062504227709E-3    4.279919355774705E-1   -3.288830320365115E-1
 7.838040475250000E9     5.657943354753441E-1   -3.349907119787671E-2    1.815236734370978E-3    3.711090006770499E-3    1.791626880792814E-3    3.656791335372636E-3    4.265523007822735E-1   -3.308598500564165E-1
 7.838074830625000E9     5.655156297673742E-1   -3.581992434098238E-2    1.848515525998602E-3    3.738917744685942E-3    1.823471609966080E-3    3.665671292067795E-3    4.251740952112763E-1   -3.327920847828387E-1
 7.838109186000000E9     5.653771615853682E-1   -3.798202033927117E-2    1.878595114985532E-3    3.723658349432037E-3    1.837461678019649E-3    3.658481295318131E-3    4.235829767364745E-1   -3.346698025739668E-1
 7.838143541375000E9     5.652962897084918E-1   -4.039475592373962E-2    1.859121405841368E-3    3.718441090567472E-3    1.878845822990613E-3    3.676583920543683E-3    4.222326492863556E-1   -3.366159501635936E-1
 7.838177896750000E9     5.650562092360163E-1   -4.266802391771710E-2    1.923263971469019E-3    3.712339059879798E-3    1.916098594977425E-3    3.695265139695270E-3    4.207357685663486E-1   -3.384217318571567E-1
 7.838212252125000E9     5.648291766560405E-1   -4.494654126935910E-2    1.937578352479847E-3    3.747700000599400E-3    1.914841540075967E-3    3.681820115222415E-3    4.192129707622437E-1   -3.404313751283954E-1
 7.838246607500000E9     5.647195851508333E-1   -4.700284486234459E-2    1.932074927142775E-3    3.708003964087709E-3    1.939776281547199E-3    3.667242713170323E-3    4.176577172455270E-1   -3.422519048905899E-1
 7.838280962875000E9     5.645541767038947E-1   -4.934901114718270E-2    1.962078061404947E-3    3.727671017199368E-3    1.951282781469144E-3    3.660272870439189E-3    4.160436449557482E-1   -3.440504948773142E-1
 7.838315318250000E9     5.643845604619554E-1   -5.177826622462925E-2    1.970146901854552E-3    3.718319043405224E-3    1.989152684122510E-3    3.663227772587815E-3    4.145679020433990E-1   -3.459022066293406E-1
 7.838349673625000E9     5.642443399955328E-1   -5.407112884347256E-2    2.015368059440401E-3    3.710202110613521E-3    1.976932012174160E-3    3.651851854148592E-3    4.132711711446094E-1   -3.476364344339818E-1
 7.838384029000000E9     5.639852568175069E-1   -5.626160306639248E-2    2.027898479573419E-3    3.705836400703183E-3    2.005738220977071E-3    3.650953339709496E-3    4.114637365284446E-1   -3.496707521430695E-1
 7.838418384375000E9     5.637259031564945E-1   -5.870711731058214E-2    2.073367980990992E-3    3.750986577986511E-3    2.008615713957566E-3    3.656538209065238E-3    4.099715698752143E-1   -3.514945170138806E-1
 7.838452739750000E9     5.634213848061722E-1   -6.088451837374937E-2    2.076191452978180E-3    3.725321632144456E-3    2.050352340934250E-3    3.665374890109863E-3    4.084515638767746E-1   -3.534201221777369E-1
 7.838487095125000E9     5.632835991860617E-1   -6.310788404819791E-2    2.084843728111498E-3    3.718277285797086E-3    2.038416962690946E-3    3.660406916710581E-3    4.068528541075899E-1   -3.552404564585024E-1
 7.838521450500000E9     5.629520097607799E-1   -6.549966688998453E-2    2.126139086633427E-3    3.705572574029941E-3    2.075964937627702E-3    3.633640586084850E-3    4.050787207518069E-1   -3.568618075090410E-1
 7.838555805875000E9     5.626877911175406E-1   -6.762430683791520E-2    2.154321601624120E-3    3.720333798408340E-3    2.115514987741081E-3    3.646194739141450E-3    4.037618916333002E-1   -3.589043314913762E-1
 7.838590161250000E9     5.626102083085963E-1   -6.996027450008452E-2    2.153411891887641E-3    3.708773244192048E-3    2.139200243453577E-3    3.638776468152851E-3    4.021911223146345E-1   -3.606904140855814E-1
 7.838624516625000E9     5.620646187029814E-1   -7.235106979846438E-2    2.176526832695931E-3    3.723033458265508E-3    2.168850396874513E-3    3.668953621329641E-3    4.005947091821374E-1   -3.624773587712981E-1
 7.838658872000000E9     5.617951793962536E-1   -7.443021737020435E-2    2.226946060982286E-3    3.701765639032937E-3    2.197548374130674E-3    3.666859111383791E-3    3.988624655074451E-1   -3.641255661142126E-1
 7.838693227375000E9     5.616171575087651E-1   -7.676682856336885E-2    2.220139257359251E-3    3.696612462963956E-3    2.215304340876007E-3    3.599580282110916E-3    3.973315485574629E-1   -3.660895574935680E-1
 7.838727582750000E9     5.612969771971149E-1   -7.914147688242613E-2    2.261838740925071E-3    3.702809821379056E-3    2.232780453650286E-3    3.663482391965487E-3    3.956328552991363E-1   -3.678494437922425E-1
 7.838761938125000E9     5.609644325648367E-1   -8.131203354001315E-2    2.286558323334905E-3    3.703823908883918E-3    2.299293967825561E-3    3.636573613538033E-3    3.939160958763870E-1   -3.695350371282745E-1
 7.838796293500000E9     5.606271346505788E-1   -8.355375310140695E-2    2.303897984560665E-3    3.670233163843352E-3    2.292702730489001E-3    3.644638557361469E-3    3.922053986339445E-1   -3.712006596165761E-1
 7.838830648875000E9     5.603629470268243E-1   -8.588976021947096E-2    2.317158783925510E-3    3.660823435169566E-3    2.296150739883830E-3    3.646598698175295E-3    3.907853400120060E-1   -3.730158762438738E-1
 7.838865004250000E9     5.598965891106792E-1   -8.826801982336106E-2    2.351048281556562E-3    3.685314413842180E-3    2.350957931786158E-3    3.627667897599279E-3    3.891170323529533E-1   -3.748645849950701E-1
 7.838899359625000E9     5.595373355160481E-1   -9.035752615204784E-2    2.374517503022699E-3    3.698834002694728E-3    2.373799301268984E-3    3.599653686103893E-3    3.873062926632353E-1   -3.766147813641096E-1
 7.838933715000000E9     5.591983263058412E-1   -9.268870422227084E-2    2.385769146309503E-3    3.670152886455940E-3    2.364600621890891E-3    3.604377906563491E-3    3.856337494207919E-1   -3.782478539919168E-1
 7.838968070375000E9     5.587911157902962E-1   -9.499438476012320E-2    2.420282771258861E-3    3.691711535012583E-3    2.391186597433344E-3    3.643024904695505E-3    3.841207135963629E-1   -3.799255227669557E-1
 7.839002425750000E9     5.584438616339988E-1   -9.734204157768561E-2    2.444912456303358E-3    3.691202802744081E-3    2.442450511551189E-3    3.613575434445902E-3    3.822454918313570E-1   -3.816497545464552E-1
 7.839036781125000E9     5.580492854719700E-1   -9.958447856451609E-2    2.460938789746537E-3    3.680641238555251E-3    2.454185346766291E-3    3.604853742233164E-3    3.806341985368003E-1   -3.833599350013833E-1
 7.839071136500000E9     5.575794699919913E-1   -1.017169905635182E-1    2.505661228634251E-3    3.667228204408103E-3    2.470471948917195E-3    3.636556886561969E-3    3.788296425877660E-1   -3.850440907943382E-1
 7.839105491875000E9     5.571862999259252E-1   -1.040592583820093E-1    2.544583949285674E-3    3.645271397814099E-3    2.493799866136703E-3    3.607417921766995E-3    3.770740116034631E-1   -3.868152798521720E-1
 7.839139847250000E9     5.567324433084085E-1   -1.062942652714894E-1    2.540626837051765E-3    3.661624620856660E-3    2.510201843314164E-3    3.636118438027626E-3    3.755043817290361E-1   -3.886216873622328E-1
 7.839174202625000E9     5.563174731351943E-1   -1.085701354185445E-1    2.582944677318351E-3    3.648620909823640E-3    2.548342159130360E-3    3.626456290999873E-3    3.737660640770726E-1   -3.900978469002228E-1
 7.839208558000000E9     5.559994697890706E-1   -1.107624534381571E-1    2.589455049811893E-3    3.665207916545074E-3    2.544629519827864E-3    3.624655334239067E-3    3.719125795561835E-1   -3.920276251019674E-1
 7.839242913375000E9     5.553465601637934E-1   -1.130767741445571E-1    2.651135930792784E-3    3.666163927584936E-3    2.605788507608309E-3    3.610351421288864E-3    3.703548487458307E-1   -3.934449056020193E-1
 7.839277268750000E9     5.550014824552139E-1   -1.154093443772577E-1    2.645208959424417E-3    3.664336803590645E-3    2.604854373826388E-3    3.659053388910514E-3    3.684341135563761E-1   -3.952057832590034E-1
 7.839311624125000E9     5.545108878255859E-1   -1.175887308127128E-1    2.663077034859841E-3    3.645487619520509E-3    2.646814771307959E-3    3.611392692550865E-3    3.667786038924829E-1   -3.969713206825181E-1
 7.839345979500000E9     5.539927783497067E-1   -1.198728116428632E-1    2.698188957142047E-3    3.653379918548517E-3    2.640950316333426E-3    3.597739356119186E-3    3.650249033099978E-1   -3.984152905346956E-1
 7.839380334875000E9     5.534584432065920E-1   -1.220949412492893E-1    2.704520260050446E-3    3.660965275413112E-3    2.709377160313238E-3    3.614033308792784E-3    3.632373440990670E-1   -4.000240310123085E-1
 7.839414690250000E9     5.530625094347911E-1   -1.244255432711198E-1    2.760893174338950E-3    3.645419548796479E-3    2.678458764869989E-3    3.641269269724000E-3    3.615633260426551E-1   -4.018388053071911E-1
 7.839449045625000E9     5.525566245176635E-1   -1.266646001872030E-1    2.788454586143575E-3    3.639420628435955E-3    2.755056563442149E-3    3.617096127277000E-3    3.596768495626996E-1   -4.034180661526205E-1
 7.839483401000000E9     5.519924882590070E-1   -1.288319705526784E-1    2.802920292412652E-3    3.634415575916454E-3    2.799683900658853E-3    3.610392339923513E-3    3.578287888167687E-1   -4.050807601539307E-1
 7.839517756375000E9     5.514931829693756E-1   -1.311680009139332E-1    2.841012905529833E-3    3.651379205814119E-3    2.851094497093414E-3    3.609235111466894E-3    3.560334402801112E-1   -4.065164887500545E-1
 7.839552111750000E9     5.509744594569810E-1   -1.334943701252273E-1    2.865110347723967E-3    3.635576808413581E-3    2.826285428460398E-3    3.551529813072430E-3    3.543130005247629E-1   -4.080238940932980E-1
 7.839586467125000E9     5.504477567798149E-1   -1.355934819882035E-1    2.899894558122455E-3    3.639989564336428E-3    2.852881844501990E-3    3.618146078613243E-3    3.524030470579415E-1   -4.095986033298881E-1
 7.839620822500000E9     5.498052476936512E-1   -1.378775366801754E-1    2.921374320167286E-3    3.626542744071902E-3    2.902462970060376E-3    3.590853320488681E-3    3.506153286620717E-1   -4.113393313855142E-1
 7.839655177875000E9     5.492194998491441E-1   -1.399765572643865E-1    2.934619763696039E-3    3.619316122568158E-3    2.910414150284490E-3    3.584667756000620E-3    3.488179080479228E-1   -4.128417343975382E-1
 7.839689533250000E9     5.485812354836911E-1   -1.423610447134715E-1    2.989755736397913E-3    3.616533575961970E-3    2.922989168900986E-3    3.597005228164169E-3    3.467757327667921E-1   -4.144817595439369E-1
 7.839723888625000E9     5.480261552573481E-1   -1.445807477130081E-1    3.000001362846021E-3    3.641542309816289E-3    2.952609402694234E-3    3.614390340683045E-3    3.451126834983491E-1   -4.160697149651521E-1
 7.839758244000000E9     5.475003415374831E-1   -1.468194216075793E-1    3.040771176929649E-3    3.608730082146993E-3    3.012983382503617E-3    3.585216053238735E-3    3.432582226594043E-1   -4.176772757717763E-1
 7.839792599375000E9     5.468706072769234E-1   -1.489207651088966E-1    3.049898508384023E-3    3.628333682161898E-3    3.032701175375617E-3    3.575844993921258E-3    3.412829688138416E-1   -4.190497154648366E-1
 7.839826954750000E9     5.461742366241829E-1   -1.512196244807948E-1    3.106466786335827E-3    3.601025030678060E-3    3.046045640520825E-3    3.593903933263620E-3    3.396145827428134E-1   -4.206023993807537E-1
