#  HZ   S   RI   R     50.00 
! Rohde & Schwarz Vector Network Analyzer 
! Rohde-Schwarz,ZNB20-2Port,1311601062101988,3.16
! Created: UTC 12/23/2023, 3:36:17 AM
! freq[Hz]                re:S11                  im:S11                  re:S21                  im:S21                  re:S12                  im:S12                  re:S22                  im:S22
 7.837777958000000E9     5.664280345460205E-1   -1.709656463438904E-2    1.617740438718452E-3    3.736099238055539E-3    1.636983648268951E-3    3.623455707318126E-3    4.376024690046488E-1   -3.164881355873922E-1
 7.837808446875000E9     5.664166654409456E-1   -1.910205799198396E-2    1.663659746150218E-3    3.716005095012836E-3    1.654849682751822E-3    3.617570271956424E-3    4.363156454210886E-1   -3.181037667689060E-1
 7.837838935750000E9     5.663792203604532E-1   -2.112761218517940E-2    1.665744134448062E-3    3.697217385637445E-3    1.649494142259722E-3    3.614264954831566E-3    4.349688542558499E-1   -3.200198968191461E-1
 7.837869424625000E9     5.664439519352350E-1   -2.319117510238886E-2    1.679947755949518E-3    3.742328875898960E-3    1.683054987501269E-3    3.630665287216883E-3    4.339112462352673E-1   -3.216260915844175E-1
 7.837899913500000E9     5.662774390082755E-1   -2.522855664342705E-2    1.705551234770385E-3    3.700550588808269E-3    1.716245396236599E-3    3.626935116230579E-3    4.324717649253837E-1   -3.233430332347020E-1
 7.837930402375000E9     5.661632160838095E-1   -2.702430488002270E-2    1.723470848425970E-3    3.712675520580507E-3    1.749918294874915E-3    3.632503759645650E-3    4.311821315038043E-1   -3.250983902940904E-1
 7.837960891250000E9     5.659788605864557E-1   -2.909296048812408E-2    1.721355595587617E-3    3.694317840825812E-3    1.735945241373373E-3    3.641307162237312E-3    4.299542116033347E-1   -3.267860823631619E-1
 7.837991380125000E9     5.658077764284829E-1   -3.124654744298265E-2    1.738513656098049E-3    3.711512259569435E-3    1.760071308938230E-3    3.656143669010265E-3    4.285294072857039E-1   -3.284588063013419E-1
 7.838021869000000E9     5.658640616243209E-1   -3.333639975423736E-2    1.785250658592326E-3    3.704625668888920E-3    1.781950320719700E-3    3.625835207456122E-3    4.274430364971679E-1   -3.301164990720886E-1
 7.838052357875000E9     5.657086905573246E-1   -3.522205656341609E-2    1.765752235837738E-3    3.695948446232973E-3    1.771711601144502E-3    3.654693322517902E-3    4.260855987250417E-1   -3.317864702772595E-1
 7.838082846750000E9     5.656585617197971E-1   -3.736218474832811E-2    1.798928440577175E-3    3.682402258364872E-3    1.784991797571770E-3    3.628591847345774E-3    4.247453862279051E-1   -3.335046964643977E-1
 7.838113335625000E9     5.653584519888483E-1   -3.927370777566914E-2    1.825809020978158E-3    3.688437871176722E-3    1.828516388780489E-3    3.641711434109477E-3    4.234235999489510E-1   -3.352545512099145E-1
 7.838143824500000E9     5.654349828669432E-1   -4.144011473306852E-2    1.845631323747184E-3    3.685822079313828E-3    1.856903802104613E-3    3.646352905311837E-3    4.221782301233100E-1   -3.368593194458157E-1
 7.838174313375000E9     5.652299645065760E-1   -4.322580723672743E-2    1.855945366408033E-3    3.690961643000714E-3    1.854440937648365E-3    3.590144629540258E-3    4.207379554841110E-1   -3.386633746501524E-1
 7.838204802250000E9     5.651219255197765E-1   -4.540138084468583E-2    1.867990139109518E-3    3.690773597706455E-3    1.882019230825256E-3    3.612475042582850E-3    4.195176732660998E-1   -3.403999297303223E-1
 7.838235291125000E9     5.648909607740366E-1   -4.736239262476896E-2    1.895127808608733E-3    3.662788095093576E-3    1.886791402797953E-3    3.601005874690145E-3    4.179102179872412E-1   -3.418499179420198E-1
 7.838265780000000E9     5.645965064241085E-1   -4.930493263978875E-2    1.902839922874147E-3    3.691299382579569E-3    1.901397415150976E-3    3.622857913524125E-3    4.167350239836657E-1   -3.435591924283038E-1
 7.838296268875000E9     5.645331459027787E-1   -5.143334487901646E-2    1.928330587863469E-3    3.677940829298094E-3    1.908052857924322E-3    3.625467063897093E-3    4.155361872263920E-1   -3.452660003151897E-1
 7.838326757750000E9     5.644075045766901E-1   -5.350954074225129E-2    1.955053104092290E-3    3.676697599821842E-3    1.928705023494811E-3    3.604092838927993E-3    4.139868418841706E-1   -3.468793369789841E-1
 7.838357246625000E9     5.642360106397155E-1   -5.548407062785532E-2    1.977993553803643E-3    3.674453406949901E-3    1.955790548843120E-3    3.611810927921869E-3    4.124786545577814E-1   -3.486141512931161E-1
 7.838387735500000E9     5.639576181960455E-1   -5.753717362544735E-2    1.987720590896985E-3    3.674723639107963E-3    1.968214207662842E-3    3.621122498763882E-3    4.113422867997854E-1   -3.501650417746731E-1
 7.838418224375000E9     5.639025095452496E-1   -5.955785560788902E-2    2.025242450535873E-3    3.669691909701266E-3    2.003602471213497E-3    3.610500705163864E-3    4.099565772782995E-1   -3.519794602144291E-1
 7.838448713250000E9     5.636789159492275E-1   -6.165837866003614E-2    2.023995740048374E-3    3.666559028673545E-3    2.016164887936898E-3    3.613380695857367E-3    4.086161380179588E-1   -3.534959793314812E-1
 7.838479202125000E9     5.633420023470126E-1   -6.360218835531499E-2    2.062453343464696E-3    3.675219602313930E-3    2.060653723214770E-3    3.584956076427402E-3    4.072269569130113E-1   -3.551196087108277E-1
 7.838509691000000E9     5.631349925417557E-1   -6.560801217938944E-2    2.033082828178954E-3    3.687703753474015E-3    2.062238021482251E-3    3.608004628849046E-3    4.058123040991197E-1   -3.566804576653287E-1
 7.838540179875000E9     5.629074984129371E-1   -6.752749807687901E-2    2.092780773732838E-3    3.636026943311513E-3    2.049549722676285E-3    3.635591098944593E-3    4.044554123993168E-1   -3.582436005834401E-1
 7.838570668750000E9     5.626255940952605E-1   -6.960505203877265E-2    2.127725624040277E-3    3.668465265509197E-3    2.111700903665332E-3    3.594181867359917E-3    4.029419468704203E-1   -3.598494826342485E-1
 7.838601157625000E9     5.624048287874115E-1   -7.170241128649936E-2    2.138070665728812E-3    3.651748465020845E-3    2.082023702689509E-3    3.597998472121336E-3    4.015297227076349E-1   -3.613762394130949E-1
 7.838631646500000E9     5.621072173687192E-1   -7.370983812088794E-2    2.148897520961866E-3    3.662801489238762E-3    2.132439845403236E-3    3.596717667672444E-3    4.000658422287008E-1   -3.631529479786489E-1
 7.838662135375000E9     5.619847720645419E-1   -7.573567126609322E-2    2.167861106601559E-3    3.673161399052326E-3    2.166270329338419E-3    3.588717725954626E-3    3.987242548518611E-1   -3.647661489414882E-1
 7.838692624250000E9     5.617053858050479E-1   -7.752853869257048E-2    2.178650868977663E-3    3.649523531347086E-3    2.158291169868667E-3    3.599833984932084E-3    3.973250961926102E-1   -3.661567818675510E-1
 7.838723113125000E9     5.614034937547219E-1   -7.997324560069900E-2    2.204302953334709E-3    3.652522169442981E-3    2.188169503864505E-3    3.607829472932872E-3    3.957354867889191E-1   -3.679241844203336E-1
 7.838753602000000E9     5.611289973343031E-1   -8.185406113378992E-2    2.222645505061645E-3    3.640485878503067E-3    2.236655014091739E-3    3.589295511920599E-3    3.944565855855176E-1   -3.693376593050402E-1
 7.838784090875000E9     5.608256284158664E-1   -8.368479727148537E-2    2.256773393293338E-3    3.643049352967226E-3    2.267361588061407E-3    3.602340613883691E-3    3.928301317730524E-1   -3.709266648621954E-1
 7.838814579750000E9     5.604712864586265E-1   -8.587946950109644E-2    2.270718561514608E-3    3.634799274347135E-3    2.232846639855165E-3    3.574996337010855E-3    3.913925508268739E-1   -3.725343540907749E-1
 7.838845068625000E9     5.602889625174228E-1   -8.783700116655827E-2    2.275864642801049E-3    3.657810240165006E-3    2.231081728983025E-3    3.597060514130796E-3    3.899580103539090E-1   -3.740925436260753E-1
 7.838875557500000E9     5.598639293810117E-1   -8.991978447562216E-2    2.319153458481495E-3    3.647340473445781E-3    2.296037820863388E-3    3.623373387267014E-3    3.884500066697176E-1   -3.756246077249754E-1
 7.838906046375000E9     5.595374052823159E-1   -9.186970378454937E-2    2.338434657968341E-3    3.635467719042313E-3    2.312403938729691E-3    3.600997297414912E-3    3.870301702669422E-1   -3.771908031352273E-1
 7.838936535250000E9     5.593371075068485E-1   -9.370934917530609E-2    2.337639009172541E-3    3.650710073319951E-3    2.294591289957597E-3    3.590195488405834E-3    3.853927308010491E-1   -3.786309689222759E-1
 7.838967024125000E9     5.589102265999640E-1   -9.584174907998992E-2    2.357291302613651E-3    3.623119118428303E-3    2.339342201016037E-3    3.596321231123969E-3    3.841024028676795E-1   -3.802083424321355E-1
 7.838997513000000E9     5.586465984929868E-1   -9.801681318720427E-2    2.374060280060023E-3    3.623837104647107E-3    2.371322123858732E-3    3.580433144322912E-3    3.825455167901594E-1   -3.816734305894447E-1
 7.839028001875000E9     5.583504167746003E-1   -9.985572342154103E-2    2.400368280705723E-3    3.636427966069320E-3    2.398034935904645E-3    3.585430152738003E-3    3.810084490757895E-1   -3.834772336075551E-1
 7.839058490750000E9     5.578435711153102E-1   -1.018528421506006E-1    2.431918874639506E-3    3.639732288263462E-3    2.404237141015253E-3    3.559965555855400E-3    3.795024004484700E-1   -3.847491654750584E-1
 7.839088979625000E9     5.575198812865566E-1   -1.038561222122167E-1    2.439246325703757E-3    3.642592716679446E-3    2.457485219161187E-3    3.590911574577600E-3    3.780299070920281E-1   -3.862619743489215E-1
 7.839119468500000E9     5.570384718641708E-1   -1.059692942484372E-1    2.458602325804284E-3    3.651609047869378E-3    2.460791662088550E-3    3.569890536564901E-3    3.764320700222520E-1   -3.877660561820603E-1
 7.839149957375000E9     5.567630242718317E-1   -1.078505832597892E-1    2.473173845014627E-3    3.629938658239107E-3    2.443484095207682E-3    3.533564951203495E-3    3.750057510513388E-1   -3.892308960436046E-1
 7.839180446250000E9     5.562109595435306E-1   -1.099676547742613E-1    2.513959614364669E-3    3.638633055554952E-3    2.461635825482712E-3    3.601821905492152E-3    3.734410984528461E-1   -3.908090265432080E-1
 7.839210935125000E9     5.559121731979002E-1   -1.119214684489217E-1    2.526371708418549E-3    3.628055085866735E-3    2.502931148803952E-3    3.560731710361633E-3    3.718412014811287E-1   -3.923274674206746E-1
 7.839241424000000E9     5.555716843440701E-1   -1.139844534125488E-1    2.545397728469066E-3    3.614780415632515E-3    2.511236798907006E-3    3.585173591043236E-3    3.703439421906604E-1   -3.937311624943040E-1
 7.839271912875000E9     5.551373317418907E-1   -1.160107023172720E-1    2.583865445587689E-3    3.615144146793414E-3    2.556879786514104E-3    3.546983073609074E-3    3.686187191784757E-1   -3.953220483562959E-1
 7.839302401750000E9     5.547534830085388E-1   -1.179739162132298E-1    2.602184062164955E-3    3.606507304195481E-3    2.578859398611162E-3    3.594241542904758E-3    3.672006141268383E-1   -3.965747774825604E-1
 7.839332890625000E9     5.542917110051279E-1   -1.198130422296558E-1    2.611412571450112E-3    3.605148974948031E-3    2.580628713964202E-3    3.540398756390787E-3    3.656934453631562E-1   -3.981913453222292E-1
 7.839363379500000E9     5.539495492859791E-1   -1.219210746921810E-1    2.636168400458499E-3    3.620636164971982E-3    2.609028819350757E-3    3.592196602109322E-3    3.639528534319077E-1   -3.996778943386990E-1
 7.839393868375000E9     5.534472934148272E-1   -1.238090350766250E-1    2.671203598458679E-3    3.603579772524259E-3    2.613679656001630E-3    3.563960268971883E-3    3.625645620834903E-1   -4.011173153162302E-1
 7.839424357250000E9     5.529757518165042E-1   -1.259965771263998E-1    2.695014929247019E-3    3.599954461382984E-3    2.635308735904707E-3    3.565386921709961E-3    3.607342424824875E-1   -4.023920674597123E-1
 7.839454846125000E9     5.525448524579032E-1   -1.278576832854082E-1    2.740536943586857E-3    3.600623700867343E-3    2.672377142312291E-3    3.547780726489176E-3    3.592955815476309E-1   -4.038647568435998E-1
 7.839485335000000E9     5.520535001005854E-1   -1.298109549187284E-1    2.721156092320921E-3    3.594091071994465E-3    2.681297882055962E-3    3.554292693211747E-3    3.577245471656672E-1   -4.053816873100877E-1
 7.839515823875000E9     5.516390195729494E-1   -1.319260064163383E-1    2.736717662291846E-3    3.581916207373819E-3    2.714089070038282E-3    3.536981035980365E-3    3.561236804340639E-1   -4.067040297553299E-1
 7.839546312750000E9     5.510347111241974E-1   -1.338478207737060E-1    2.777092340235363E-3    3.590936791448220E-3    2.749149670333197E-3    3.514135270976604E-3    3.544855635400697E-1   -4.082327368164970E-1
 7.839576801625000E9     5.506242340010027E-1   -1.358870559673759E-1    2.783351204277062E-3    3.580665572549238E-3    2.753707254178489E-3    3.551022150699918E-3    3.528758284748505E-1   -4.095569886439452E-1
 7.839607290500000E9     5.501362292983643E-1   -1.378691635325320E-1    2.832692559976916E-3    3.582139407224169E-3    2.756296286268773E-3    3.524403330800043E-3    3.512119485315575E-1   -4.110900833325543E-1
 7.839637779375000E9     5.496355454968682E-1   -1.399358317454857E-1    2.838274642460144E-3    3.607234574707803E-3    2.830643073117219E-3    3.558944035224819E-3    3.497036810813894E-1   -4.124418048511529E-1
 7.839668268250000E9     5.489982623561636E-1   -1.417731790989875E-1    2.881704688233376E-3    3.573611837715642E-3    2.837720170954963E-3    3.539151267836159E-3    3.481592696333240E-1   -4.137600514003664E-1
 7.839698757125000E9     5.485239857179496E-1   -1.438070233832847E-1    2.898972035029700E-3    3.568787789093530E-3    2.827347745935522E-3    3.547395348731215E-3    3.463785583124601E-1   -4.152550001131288E-1
 7.839729246000000E9     5.481646090291978E-1   -1.457610328981480E-1    2.895325827284073E-3    3.571926570607114E-3    2.855670079270689E-3    3.521583798775852E-3    3.447212699203478E-1   -4.164863452391905E-1
 7.839759734875000E9     5.475540964742586E-1   -1.477339598779016E-1    2.952856314360327E-3    3.566288371293388E-3    2.904768748726650E-3    3.537430926918397E-3    3.430800209856857E-1   -4.180218250189600E-1
 7.839790223750000E9     5.470855470553782E-1   -1.497148512307281E-1    2.988701819812430E-3    3.571090062045220E-3    2.907493928184190E-3    3.511898377577794E-3    3.414297056661685E-1   -4.193499999575687E-1
 7.839820712625000E9     5.464563113098073E-1   -1.517354797144110E-1    2.964861279216888E-3    3.553065412896247E-3    2.916845659921717E-3    3.545032657064019E-3    3.397161674476962E-1   -4.205874764044191E-1
 7.839851201500000E9     5.458460059777289E-1   -1.536829988180216E-1    3.013617117798828E-3    3.561335463106559E-3    2.992191888387131E-3    3.539773484677888E-3    3.381000225107212E-1   -4.220590792381448E-1
 7.839881690375000E9     5.453946928753411E-1   -1.556447556435642E-1    3.047662617679298E-3    3.559486843131455E-3    3.003612610762502E-3    3.552196906047703E-3    3.364623507334783E-1   -4.233451911743122E-1
 7.839912179250000E9     5.448068752830207E-1   -1.577361924454095E-1    3.068811224298367E-3    3.544144419812602E-3    3.002326614076285E-3    3.509834511335415E-3    3.347930073068762E-1   -4.245493894631417E-1
 7.839942668125000E9     5.441906679858483E-1   -1.596697326153668E-1    3.094694620601967E-3    3.549541535652477E-3    3.054475668760485E-3    3.527835673338110E-3    3.330813348249140E-1   -4.260986757677684E-1
 7.839973157000000E9     5.436087241939687E-1   -1.616103767621085E-1    3.095718154151040E-3    3.555454048626715E-3    3.060219335794485E-3    3.513917252751425E-3    3.315618919654511E-1   -4.273100037267086E-1
 7.840003645875000E9     5.429710561488431E-1   -1.635459130285491E-1    3.146683378297679E-3    3.534649497847971E-3    3.093752718485251E-3    3.537327559595077E-3    3.296807149002291E-1   -4.285835914871735E-1
 7.840034134750000E9     5.424229547800337E-1   -1.655310188626382E-1    3.170615961608114E-3    3.549953981426112E-3    3.128005048610463E-3    3.545677545959979E-3    3.280546712519418E-1   -4.299317401463427E-1
 7.840064623625000E9     5.417378446212904E-1   -1.675234018698182E-1    3.206180220428034E-3    3.542524304942547E-3    3.130668046662240E-3    3.509845612178309E-3    3.264000490534565E-1   -4.312470815010513E-1
 7.840095112500000E9     5.412114585835862E-1   -1.695616270535343E-1    3.237478371455391E-3    3.531540272758179E-3    3.169423210700532E-3    3.512055001725856E-3    3.246933804046142E-1   -4.325690010180896E-1
 7.840125601375000E9     5.405767365056370E-1   -1.715422693656961E-1    3.255739693608428E-3    3.543123287839893E-3    3.214933224382703E-3    3.489355793069058E-3    3.229471047988138E-1   -4.338481894038141E-1
 7.840156090250000E9     5.399285269528427E-1   -1.734190652558273E-1    3.292175825091849E-3    3.543238180046895E-3    3.221230066070959E-3    3.537574688934190E-3    3.212062211423734E-1   -4.350404554191764E-1
 7.840186579125000E9     5.393520135858781E-1   -1.752409917557368E-1    3.303521066114313E-3    3.521034360820848E-3    3.243845048858049E-3    3.501853607571579E-3    3.195688137448730E-1   -4.364248040321915E-1
 7.840217068000000E9     5.386392126502126E-1   -1.773976179510053E-1    3.320850831595173E-3    3.540942343855019E-3    3.268383027940882E-3    3.525251579612329E-3    3.178578425923462E-1   -4.376597428807404E-1
 7.840247556875000E9     5.379934845887553E-1   -1.793280067660279E-1    3.363363817585654E-3    3.551495596380579E-3    3.323983819481313E-3    3.527329281697830E-3    3.161260975407116E-1   -4.389471721481376E-1
 7.840278045750000E9     5.374109688997148E-1   -1.812753058248686E-1    3.358323105490986E-3    3.511997004122810E-3    3.371232854873900E-3    3.470419662369475E-3    3.143256731273176E-1   -4.401420633645777E-1
 7.840308534625000E9     5.366411545608009E-1   -1.832103778871265E-1    3.406087684559177E-3    3.530309005314567E-3    3.392389120035072E-3    3.513338865082492E-3    3.125287198104468E-1   -4.413925409797920E-1
 7.840339023500000E9     5.359803878231184E-1   -1.851236397552392E-1    3.450112806399730E-3    3.511757024589902E-3    3.397134975598541E-3    3.497106742023511E-3    3.109915549000130E-1   -4.425655146958234E-1
 7.840369512375000E9     5.353052809038014E-1   -1.870447405687864E-1    3.470614306237095E-3    3.510865230926537E-3    3.426481552580637E-3    3.487750447873653E-3    3.091248562117547E-1   -4.438674870130098E-1
 7.840400001250000E9     5.346243308871717E-1   -1.890570791786352E-1    3.512933480715534E-3    3.504977437789177E-3    3.439189209062620E-3    3.476032584662121E-3    3.073072614234776E-1   -4.450649810010957E-1
 7.840430490125000E9     5.338994499265158E-1   -1.908816235663189E-1    3.509821025191925E-3    3.519284956555061E-3    3.480803217976691E-3    3.509877769753849E-3    3.057171676419947E-1   -4.463699863973024E-1
 7.840460979000000E9     5.331061726552037E-1   -1.927521823670249E-1    3.568614088872055E-3    3.522191600525392E-3    3.512884966896223E-3    3.493153377239619E-3    3.038580487524768E-1   -4.476044039210842E-1
 7.840491467875000E9     5.324806624844148E-1   -1.947340602833965E-1    3.584932977841888E-3    3.520476980269969E-3    3.547080459219856E-3    3.498305890878693E-3    3.020663466908043E-1   -4.489487598792217E-1
 7.840521956750000E9     5.317416618696597E-1   -1.966723359408268E-1    3.635938107139284E-3    3.499960095898672E-3    3.580578783956991E-3    3.475530454985125E-3    3.003504302087104E-1   -4.500240823083164E-1
