#  HZ   S   RI   R     50.00 
! Rohde & Schwarz Vector Network Analyzer 
! Rohde-Schwarz,ZNB20-2Port,1311601062101988,3.16
! Created: UTC 12/23/2023, 4:02:17 AM
! freq[Hz]                re:S11                  im:S11                  re:S21                  im:S21                  re:S12                  im:S12                  re:S22                  im:S22
 7.837637659000000E9     5.663828562651604E-1   -6.400500362377610E-3    1.554314561960021E-3    3.726613019479281E-3    1.536321827436328E-3    3.656734308208577E-3    4.435017976394647E-1   -3.074113287206994E-1
 7.837668836775000E9     5.664527400810876E-1   -8.449880777576179E-3    1.543354362094369E-3    3.710044623403852E-3    1.567165933034586E-3    3.636930069535394E-3    4.425379452743343E-1   -3.093412025173353E-1
 7.837700014550000E9     5.663904790794798E-1   -1.068843235811787E-2    1.584942199803509E-3    3.711224097942359E-3    1.598221354438371E-3    3.620375708708878E-3    4.412445505531483E-1   -3.112686441114411E-1
 7.837731192325000E9     5.665653606365968E-1   -1.247932784257628E-2    1.595855690302439E-3    3.725119112514904E-3    1.599136307586819E-3    3.639668826295070E-3    4.398889875538243E-1   -3.129862785182785E-1
 7.837762370100000E9     5.663115936938020E-1   -1.464401526903960E-2    1.613886892625319E-3    3.714021949652134E-3    1.613379878761079E-3    3.649815146714121E-3    4.385912241261491E-1   -3.147967722380076E-1
 7.837793547875000E9     5.663492235567137E-1   -1.699011399642084E-2    1.620645534501822E-3    3.710260877277711E-3    1.594086670534508E-3    3.641654720133508E-3    4.373786714279899E-1   -3.166220197369121E-1
 7.837824725650000E9     5.661867667283847E-1   -1.884835506893364E-2    1.631373551723211E-3    3.717149586966672E-3    1.635254727753664E-3    3.616294078587875E-3    4.362173136320375E-1   -3.182817905162982E-1
 7.837855903425000E9     5.661690011724095E-1   -2.088217547630133E-2    1.666538810278452E-3    3.700425855703474E-3    1.692205665621936E-3    3.609714567977430E-3    4.348134919158469E-1   -3.200232006228388E-1
 7.837887081200000E9     5.661938009965687E-1   -2.300376603038647E-2    1.677791448482321E-3    3.725029847753107E-3    1.691340227039879E-3    3.673476379095225E-3    4.334913702489478E-1   -3.218049144605172E-1
 7.837918258975000E9     5.661483158477212E-1   -2.506311369844081E-2    1.705574427162282E-3    3.704059658385675E-3    1.722920987723156E-3    3.673205214614643E-3    4.322612757900998E-1   -3.235267791623930E-1
 7.837949436750000E9     5.660176920522328E-1   -2.711330755454575E-2    1.717998111199937E-3    3.671460693386253E-3    1.708248581611746E-3    3.645909932597220E-3    4.309611140909144E-1   -3.252947732754619E-1
 7.837980614525000E9     5.659682166871077E-1   -2.926494190520048E-2    1.759995319202703E-3    3.705194944949199E-3    1.712063734875366E-3    3.617779172077239E-3    4.295702094411543E-1   -3.270024464045657E-1
 7.838011792300000E9     5.659284756768158E-1   -3.123273624156537E-2    1.778928500744797E-3    3.660262468113633E-3    1.756285863716496E-3    3.616476351123029E-3    4.282139956007104E-1   -3.288702804922526E-1
 7.838042970075000E9     5.657404687905877E-1   -3.347970950249816E-2    1.750629929006987E-3    3.687870356435916E-3    1.770596468249310E-3    3.638591287799582E-3    4.270311785489094E-1   -3.305521247208941E-1
 7.838074147850000E9     5.656492066595641E-1   -3.540069778789747E-2    1.799899586645548E-3    3.686300579319220E-3    1.779524086661361E-3    3.625087993044546E-3    4.257193499109930E-1   -3.322053454185123E-1
 7.838105325625000E9     5.655976616445135E-1   -3.758554155093940E-2    1.840342966929018E-3    3.690805016459528E-3    1.834213105678713E-3    3.631019927954974E-3    4.240966893160125E-1   -3.340528203085362E-1
 7.838136503400000E9     5.653773033170048E-1   -3.958811647760926E-2    1.826844784419110E-3    3.673928058788022E-3    1.859935070789624E-3    3.622852337813692E-3    4.229515145605801E-1   -3.357678124385326E-1
 7.838167681175000E9     5.651131953161043E-1   -4.168105992403311E-2    1.856154705307954E-3    3.686769808705560E-3    1.875635076140091E-3    3.587910569410411E-3    4.215812025550031E-1   -3.375375489842263E-1
 7.838198858950000E9     5.650357854592735E-1   -4.372946847383662E-2    1.883580963995748E-3    3.715052300591953E-3    1.863451772868463E-3    3.635262661038089E-3    4.201660065057095E-1   -3.391463382531428E-1
 7.838230036725000E9     5.648932900992006E-1   -4.592004528878030E-2    1.859824748537247E-3    3.679273741600968E-3    1.860997493288898E-3    3.642600395006215E-3    4.188043475411353E-1   -3.408346605668381E-1
 7.838261214500000E9     5.647417068549367E-1   -4.788203589383405E-2    1.913691893365307E-3    3.678669078242846E-3    1.909292343038896E-3    3.616844181721141E-3    4.173858112223425E-1   -3.425467540568045E-1
 7.838292392275000E9     5.644704596992073E-1   -4.998893225418591E-2    1.933550992760293E-3    3.682490758761992E-3    1.944440325601764E-3    3.654395805689378E-3    4.160560400546531E-1   -3.445036757854135E-1
 7.838323570050000E9     5.643585298647823E-1   -5.201498661530616E-2    1.952422724856954E-3    3.681838280032374E-3    1.913841208691170E-3    3.629748836594064E-3    4.146962017276243E-1   -3.459622770561273E-1
 7.838354747825000E9     5.641180972413018E-1   -5.404738872247430E-2    1.968836555569378E-3    3.705970812369376E-3    1.951211736565074E-3    3.579777605119194E-3    4.131802548898138E-1   -3.476390845902437E-1
 7.838385925600000E9     5.640119423648859E-1   -5.610385500818450E-2    1.982596287563998E-3    3.679181049046525E-3    1.976380977291292E-3    3.623286134839904E-3    4.120422419985318E-1   -3.493766001724646E-1
 7.838417103375000E9     5.636748023710310E-1   -5.822407143457353E-2    2.022189501919746E-3    3.672463992130496E-3    1.989872275928948E-3    3.632228112418751E-3    4.104848689724290E-1   -3.511185109942858E-1
 7.838448281150000E9     5.636321446974421E-1   -6.026968479900697E-2    2.019248684100167E-3    3.656259751469220E-3    2.027315490766401E-3    3.647939177291857E-3    4.090066480238839E-1   -3.528048065540385E-1
 7.838479458925000E9     5.633526449629919E-1   -6.228817315683347E-2    2.033378919079855E-3    3.678081224050900E-3    2.021359128468976E-3    3.617544849067018E-3    4.077693078759422E-1   -3.541863382269989E-1
 7.838510636700000E9     5.632024146577490E-1   -6.453264901322761E-2    2.057269252042305E-3    3.673957323604655E-3    2.046994187629778E-3    3.588327897345251E-3    4.062266092336891E-1   -3.560035931069747E-1
 7.838541814475000E9     5.630412471429315E-1   -6.637496099944409E-2    2.096661155944812E-3    3.644604872426380E-3    2.095165482681381E-3    3.598198705738949E-3    4.047792658891556E-1   -3.576118560161986E-1
 7.838572992250000E9     5.628190087762727E-1   -6.856742064932485E-2    2.106607601512614E-3    3.659558729273444E-3    2.089282555265093E-3    3.608625182804728E-3    4.033846559190782E-1   -3.592876323157252E-1
 7.838604170025000E9     5.624056987625770E-1   -7.046201017277964E-2    2.110442509111479E-3    3.658807793209279E-3    2.130374969537294E-3    3.606632186800211E-3    4.019758278900318E-1   -3.608679465764276E-1
 7.838635347800000E9     5.622644673228221E-1   -7.260696067357138E-2    2.119857654611515E-3    3.677175223129685E-3    2.131161237165331E-3    3.636704309840183E-3    4.005163778623411E-1   -3.626052124027851E-1
 7.838666525575000E9     5.620021353378469E-1   -7.465880172239246E-2    2.162966010258314E-3    3.640919824012228E-3    2.135794712655650E-3    3.584056798234062E-3    3.990408515515683E-1   -3.642610795300238E-1
 7.838697703350000E9     5.617736596157407E-1   -7.674737612574116E-2    2.145710209031099E-3    3.655506505170039E-3    2.178585956084891E-3    3.618384453148600E-3    3.974509925072122E-1   -3.657726032420953E-1
 7.838728881125000E9     5.614406087436503E-1   -7.883784233887335E-2    2.201392340965856E-3    3.651599917752245E-3    2.165229394961215E-3    3.598905586953301E-3    3.961089768949059E-1   -3.675029935467500E-1
 7.838760058900000E9     5.610943170273147E-1   -8.095280931733817E-2    2.207323081283532E-3    3.641770972008493E-3    2.203150615756237E-3    3.611375822385049E-3    3.945226677790718E-1   -3.689467987392823E-1
 7.838791236675000E9     5.607890037845558E-1   -8.296414889286088E-2    2.245028521758660E-3    3.644364276068683E-3    2.210702817413428E-3    3.562218904556816E-3    3.929422916625369E-1   -3.705223809664501E-1
 7.838822414450000E9     5.604237606230623E-1   -8.513400005836905E-2    2.253380858790728E-3    3.630026680611841E-3    2.262770203944483E-3    3.609011757294520E-3    3.915023848569976E-1   -3.722045177963718E-1
 7.838853592225000E9     5.600598938485810E-1   -8.711050121741022E-2    2.282661457064386E-3    3.656384514304229E-3    2.253502842670143E-3    3.570874760731172E-3    3.899519686116231E-1   -3.738179897251843E-1
 7.838884770000000E9     5.599208163020469E-1   -8.903552053096619E-2    2.305076835260736E-3    3.649643428294785E-3    2.272395773882082E-3    3.585020331173906E-3    3.885895660105979E-1   -3.752987748416771E-1
 7.838915947775000E9     5.596393339538157E-1   -9.128427420028162E-2    2.331123829459685E-3    3.629335035156567E-3    2.310505281349856E-3    3.597464588577921E-3    3.869447167773338E-1   -3.770799995050047E-1
 7.838947125550000E9     5.591314905058586E-1   -9.315493178649119E-2    2.326638598298176E-3    3.647999687202727E-3    2.311666446667370E-3    3.568695539692238E-3    3.854820955847481E-1   -3.784863092794168E-1
 7.838978303325000E9     5.588941181669344E-1   -9.528520750870326E-2    2.364763241839105E-3    3.642745995980746E-3    2.386277384257758E-3    3.604227380956030E-3    3.840142903324971E-1   -3.800586202869517E-1
 7.839009481100000E9     5.584927573327007E-1   -9.741656681464303E-2    2.388081556699053E-3    3.614755841186351E-3    2.373721755952371E-3    3.580499365607692E-3    3.824917791361247E-1   -3.816260465414404E-1
 7.839040658875000E9     5.581588911580216E-1   -9.947769671602670E-2    2.428620103692225E-3    3.633261687655176E-3    2.396140830309463E-3    3.575441303625377E-3    3.808819482545140E-1   -3.833737944253525E-1
 7.839071836650000E9     5.577683069075938E-1   -1.013374685550309E-1    2.420656524612492E-3    3.632673651616765E-3    2.401259587331339E-3    3.594868788612377E-3    3.794895426942736E-1   -3.848079636619692E-1
 7.839103014425000E9     5.574189223605234E-1   -1.034923831091282E-1    2.423478327737298E-3    3.617399488758511E-3    2.407934396222613E-3    3.566130395037209E-3    3.778625318476919E-1   -3.861722201718201E-1
 7.839134192200000E9     5.570212346767036E-1   -1.056558499108498E-1    2.448508300429805E-3    3.636970520175590E-3    2.451977779545399E-3    3.594690634770280E-3    3.762763341117059E-1   -3.878676714214938E-1
 7.839165369975000E9     5.566480197038919E-1   -1.076905369709402E-1    2.479160990800454E-3    3.649524732989597E-3    2.488320144028188E-3    3.548416434872620E-3    3.746462596076640E-1   -3.891945198996902E-1
 7.839196547750000E9     5.563029502988535E-1   -1.097834457741425E-1    2.534990283457009E-3    3.632699963238825E-3    2.483730057950460E-3    3.545585786475459E-3    3.731657692880776E-1   -3.908381388018506E-1
 7.839227725525000E9     5.558384211101294E-1   -1.117941354795256E-1    2.522795308312320E-3    3.640118715216540E-3    2.526168303497087E-3    3.552479351186982E-3    3.715427069517759E-1   -3.923519122620934E-1
 7.839258903300000E9     5.554096932376067E-1   -1.137911247252176E-1    2.588472683840740E-3    3.590956046340714E-3    2.565271492748915E-3    3.577719704682519E-3    3.698216771843479E-1   -3.937956950570342E-1
 7.839290081075000E9     5.550274521565854E-1   -1.157898324186149E-1    2.592095912309973E-3    3.608006790425112E-3    2.529646501228612E-3    3.572122837998692E-3    3.685469153853705E-1   -3.953878245642389E-1
 7.839321258850000E9     5.545561970428731E-1   -1.176967484959415E-1    2.599325475877933E-3    3.605106902939763E-3    2.585254317610736E-3    3.578865188499551E-3    3.668269881170666E-1   -3.968588889034393E-1
 7.839352436625000E9     5.541564465229635E-1   -1.199711866241186E-1    2.617343203364808E-3    3.600017510261528E-3    2.587201495082591E-3    3.580298037797931E-3    3.652018161709049E-1   -3.984404861188157E-1
 7.839383614400000E9     5.536835316821312E-1   -1.219476336840279E-1    2.659316809353718E-3    3.563705256248140E-3    2.639960747744540E-3    3.562244076700573E-3    3.635717844184194E-1   -3.999076060520341E-1
 7.839414792175000E9     5.533683355852572E-1   -1.240899885694104E-1    2.684157428974813E-3    3.591550027740887E-3    2.652347376351150E-3    3.574795586704991E-3    3.621076716603412E-1   -4.014097148329374E-1
 7.839445969950000E9     5.527995862196476E-1   -1.261084232815741E-1    2.672723392581656E-3    3.609082791249655E-3    2.655109544207466E-3    3.563607094976069E-3    3.602311079712293E-1   -4.026717608001166E-1
 7.839477147725000E9     5.522519535155673E-1   -1.281828025447944E-1    2.715085665051786E-3    3.606643823728156E-3    2.666233703620563E-3    3.554698349608298E-3    3.586783167705341E-1   -4.042233823988450E-1
 7.839508325500000E9     5.517910415273285E-1   -1.301298103192436E-1    2.748259614089475E-3    3.593795512818343E-3    2.698281689826743E-3    3.558592125016030E-3    3.572120124551213E-1   -4.058723937253408E-1
 7.839539503275000E9     5.513099541550939E-1   -1.321645755386661E-1    2.769856087559901E-3    3.554623372625272E-3    2.722871424575701E-3    3.562520288829617E-3    3.555124959817271E-1   -4.072698667512452E-1
 7.839570681050000E9     5.508595852463480E-1   -1.342070012524280E-1    2.782960063241710E-3    3.567980178737683E-3    2.729803982104913E-3    3.542646611499890E-3    3.537871944500612E-1   -4.086034264277840E-1
 7.839601858825000E9     5.505153411129374E-1   -1.362060026966989E-1    2.807642588634310E-3    3.613360190952710E-3    2.784489339416544E-3    3.546966798574516E-3    3.521954288624913E-1   -4.101597946947725E-1
 7.839633036600000E9     5.498644099958606E-1   -1.382106173492051E-1    2.859939710577487E-3    3.590960070577805E-3    2.825348695466299E-3    3.550163474027555E-3    3.505150193301793E-1   -4.114456150229653E-1
 7.839664214375000E9     5.494105129367817E-1   -1.402419610746359E-1    2.843782404608229E-3    3.582194322940211E-3    2.834744843954159E-3    3.544956408835543E-3    3.489520758735005E-1   -4.129902315387147E-1
 7.839695392150000E9     5.488173786532463E-1   -1.423238253035519E-1    2.876064853070109E-3    3.580960697075270E-3    2.838026525104692E-3    3.549055698474465E-3    3.472759810207232E-1   -4.144010015414339E-1
 7.839726569925000E9     5.484261222202018E-1   -1.443843827929134E-1    2.930734416616560E-3    3.581745394329773E-3    2.892785938350480E-3    3.555652412610132E-3    3.455556633038805E-1   -4.158167732114729E-1
 7.839757747700000E9     5.477961498694052E-1   -1.464096794377416E-1    2.932666398852607E-3    3.563891169866293E-3    2.894518503516386E-3    3.516858277714579E-3    3.436215014428516E-1   -4.170766375962375E-1
 7.839788925475000E9     5.472908022682341E-1   -1.485290781135043E-1    2.970771219450855E-3    3.555819293616489E-3    2.914213748523048E-3    3.504768364774341E-3    3.420757933965960E-1   -4.187426876390192E-1
 7.839820103250000E9     5.465562652489168E-1   -1.504412538928686E-1    2.986721066072065E-3    3.567947642227834E-3    2.971037717943238E-3    3.566011002659789E-3    3.405003829913062E-1   -4.198536797718841E-1
 7.839851281025000E9     5.461788867202918E-1   -1.524767426342658E-1    2.997571243141311E-3    3.570944163849215E-3    2.992122466653703E-3    3.553729835876904E-3    3.387213174413560E-1   -4.212467943513513E-1
 7.839882458800000E9     5.455179008768323E-1   -1.544811105402175E-1    3.039118460646477E-3    3.530514818015554E-3    2.987557095345554E-3    3.541255057215064E-3    3.371318401130542E-1   -4.226565678469181E-1
 7.839913636575000E9     5.449591727199410E-1   -1.566089585709250E-1    3.035792022912185E-3    3.550587625962671E-3    3.030891841378296E-3    3.533878615783906E-3    3.353021769616653E-1   -4.240120476246343E-1
 7.839944814350000E9     5.443829089977412E-1   -1.584985597639884E-1    3.078665800691098E-3    3.530815994571061E-3    3.068562441121025E-3    3.528859870762777E-3    3.335235245114071E-1   -4.255292639705215E-1
 7.839975992125000E9     5.438328831449420E-1   -1.604314044957978E-1    3.129275645858672E-3    3.547187086634680E-3    3.060389550121840E-3    3.549275931412822E-3    3.319490215526216E-1   -4.266275595840238E-1
 7.840007169900000E9     5.431193950350254E-1   -1.625082405631029E-1    3.147405388011521E-3    3.559432480647293E-3    3.107924360843294E-3    3.501211825597814E-3    3.301725685940746E-1   -4.282819794903642E-1
 7.840038347675000E9     5.426433113578975E-1   -1.645872546210446E-1    3.139189431168460E-3    3.525874244865270E-3    3.148276725443959E-3    3.530944119332885E-3    3.283712918125547E-1   -4.295205876029234E-1
 7.840069525450000E9     5.419280786656606E-1   -1.665131651480940E-1    3.220434893132256E-3    3.546497835288693E-3    3.165975859884873E-3    3.494793148336464E-3    3.267147829863166E-1   -4.308088177835876E-1
 7.840100703225000E9     5.414041863831613E-1   -1.684236209978289E-1    3.200708312577921E-3    3.545745151363219E-3    3.173579234357465E-3    3.516690043739731E-3    3.250280727420830E-1   -4.321951401902716E-1
 7.840131881000000E9     5.406683645020793E-1   -1.705603996439327E-1    3.256317026955044E-3    3.534508197449821E-3    3.176925590352563E-3    3.498363074294636E-3    3.231824074235555E-1   -4.334546820453117E-1
 7.840163058775000E9     5.400852785315363E-1   -1.726369472424117E-1    3.267630203438162E-3    3.541334759656029E-3    3.226696192168867E-3    3.515333176839670E-3    3.214552340166356E-1   -4.347404620386027E-1
 7.840194236550000E9     5.394244452550534E-1   -1.744648819360434E-1    3.297344668145358E-3    3.493270638903395E-3    3.270557418529396E-3    3.493968515478906E-3    3.198528795619109E-1   -4.361332493289188E-1
 7.840225414325000E9     5.387975366806869E-1   -1.766186232583025E-1    3.290914195908195E-3    3.536206927971662E-3    3.286595238591988E-3    3.477402189647445E-3    3.180150728062749E-1   -4.375319748997366E-1
 7.840256592100000E9     5.380283085450069E-1   -1.785219914939551E-1    3.344949722002431E-3    3.544708568442478E-3    3.317551378667735E-3    3.487812102479282E-3    3.162334688780146E-1   -4.386271615564667E-1
 7.840287769875000E9     5.372488344141209E-1   -1.806147987357172E-1    3.361647575117011E-3    3.520291949079173E-3    3.336037542941668E-3    3.498765070700792E-3    3.146305774694119E-1   -4.399601004747900E-1
 7.840318947650000E9     5.367262150501642E-1   -1.824527695266204E-1    3.390500091896006E-3    3.522831154477000E-3    3.339832612689208E-3    3.463832825553102E-3    3.126391944571644E-1   -4.412840123243501E-1
 7.840350125425000E9     5.359173995034383E-1   -1.845856114013678E-1    3.433584679365794E-3    3.506958603575486E-3    3.397578498261629E-3    3.497886571193822E-3    3.108179014792727E-1   -4.426530380734570E-1
 7.840381303200000E9     5.352448074481515E-1   -1.866364761233350E-1    3.469832349027375E-3    3.508294439092717E-3    3.441269892334624E-3    3.490865656898273E-3    3.089698897785497E-1   -4.437015126136077E-1
 7.840412480975000E9     5.346363988878311E-1   -1.886588293906037E-1    3.519561314118225E-3    3.531864474369314E-3    3.464766216434820E-3    3.475830726119820E-3    3.072714947418003E-1   -4.450269773468405E-1
 7.840443658750000E9     5.338419037681217E-1   -1.905373357286986E-1    3.551178977503994E-3    3.524492082762273E-3    3.477585966784098E-3    3.469726418507472E-3    3.055884215498121E-1   -4.462651226433991E-1
