#  HZ   S   RI   R     50.00 
! Rohde & Schwarz Vector Network Analyzer 
! Rohde-Schwarz,ZNB20-2Port,1311601062101988,3.16
! Created: UTC 12/23/2023, 4:03:11 AM
! freq[Hz]                re:S11                  im:S11                  re:S21                  im:S21                  re:S12                  im:S12                  re:S22                  im:S22
 7.837694840000000E9     5.662954551369935E-1   -1.034605673260345E-2    1.560857659809156E-3    3.705269587852325E-3    1.577012006749576E-3    3.614198905044676E-3    4.412874273602039E-1   -3.110146817552502E-1
 7.837725846700000E9     5.664640403904077E-1   -1.236542545113387E-2    1.560229583629339E-3    3.711581839726991E-3    1.579269914762696E-3    3.634717279852777E-3    4.401717619633317E-1   -3.127567508975244E-1
 7.837756853400000E9     5.663152263429708E-1   -1.446507072469705E-2    1.606765543719837E-3    3.694361520335602E-3    1.619341059547484E-3    3.616312085397301E-3    4.388584976449418E-1   -3.143957557551057E-1
 7.837787860100000E9     5.664096777854973E-1   -1.654096806970490E-2    1.642075426811279E-3    3.670209462012417E-3    1.632179254276545E-3    3.619566933948155E-3    4.375272025810543E-1   -3.161822507110849E-1
 7.837818866800000E9     5.663880561576921E-1   -1.854613863759143E-2    1.630438954215837E-3    3.729701688090377E-3    1.657908975625653E-3    3.599092486922366E-3    4.362980705253641E-1   -3.180017832696238E-1
 7.837849873500000E9     5.662541463465304E-1   -2.053257236754253E-2    1.647032635046456E-3    3.680719234756138E-3    1.659896716326683E-3    3.621556185846184E-3    4.349089248266972E-1   -3.198275888656557E-1
 7.837880880200000E9     5.662012105344296E-1   -2.266968755463727E-2    1.680770966116143E-3    3.710403486352508E-3    1.697039153383851E-3    3.669227261874393E-3    4.337621974266196E-1   -3.215361233365995E-1
 7.837911886900000E9     5.661269934443180E-1   -2.490986075077664E-2    1.717898840629102E-3    3.685697554445793E-3    1.687502126994101E-3    3.636349025839429E-3    4.324267861454755E-1   -3.231994844335755E-1
 7.837942893600000E9     5.658992448486764E-1   -2.674152035217479E-2    1.696958825765215E-3    3.720261838844589E-3    1.720759550149654E-3    3.652369410776336E-3    4.312965678456602E-1   -3.250712836085372E-1
 7.837973900300000E9     5.658900997131310E-1   -2.880380618883468E-2    1.765871010769202E-3    3.711218425943383E-3    1.700759444099570E-3    3.620904935612090E-3    4.298505362521550E-1   -3.266380717018433E-1
 7.838004907000000E9     5.659500688130701E-1   -3.086164195667011E-2    1.709033374540924E-3    3.691744197957118E-3    1.754817697728181E-3    3.646789658752406E-3    4.285721732145073E-1   -3.285099061875864E-1
 7.838035913700000E9     5.657415758360170E-1   -3.281670200144334E-2    1.785314215891693E-3    3.685724608980200E-3    1.750205765172268E-3    3.667305755210276E-3    4.273068646693423E-1   -3.301320727090764E-1
 7.838066920400000E9     5.656229779974988E-1   -3.492409117310324E-2    1.770631497103451E-3    3.686651076681171E-3    1.795074783114815E-3    3.628169625167506E-3    4.258902556663109E-1   -3.320365667130506E-1
 7.838097927100000E9     5.654316807799619E-1   -3.704038396024172E-2    1.805047491846326E-3    3.695040054625736E-3    1.823642433891159E-3    3.591998798353550E-3    4.245506638632566E-1   -3.336124756543357E-1
 7.838128933800000E9     5.654587467596538E-1   -3.911985549592358E-2    1.829866753434895E-3    3.655551756364074E-3    1.809169465960153E-3    3.616921725279959E-3    4.231672001364341E-1   -3.352867874983565E-1
 7.838159940500000E9     5.652140127911557E-1   -4.121378917090103E-2    1.844305948254695E-3    3.707183099457606E-3    1.805285924400077E-3    3.633152760216229E-3    4.219851767077996E-1   -3.371451874029699E-1
 7.838190947200000E9     5.651162333233262E-1   -4.331439300156265E-2    1.849595153747233E-3    3.689797731585768E-3    1.863090982798407E-3    3.635116529086229E-3    4.205768022948870E-1   -3.387473347274358E-1
 7.838221953900000E9     5.649343800648231E-1   -4.526280593707310E-2    1.858421990200196E-3    3.682913412633295E-3    1.876075470436114E-3    3.632005740316629E-3    4.192066463630263E-1   -3.403586145331245E-1
 7.838252960600000E9     5.647202040928674E-1   -4.724610447277495E-2    1.911291223875000E-3    3.664657126482015E-3    1.906923064623885E-3    3.643673002163203E-3    4.178393306460895E-1   -3.421663461988151E-1
 7.838283967300000E9     5.646481974519901E-1   -4.946549841617732E-2    1.935573792096679E-3    3.671395609483723E-3    1.920288308075319E-3    3.605568139028489E-3    4.165213713127493E-1   -3.437992644859085E-1
 7.838314974000000E9     5.643941605111008E-1   -5.138483302299312E-2    1.965082440529033E-3    3.688233627996944E-3    1.928439912871779E-3    3.596445161528597E-3    4.150444861974200E-1   -3.455468364704036E-1
 7.838345980700000E9     5.642422541456668E-1   -5.348088528850255E-2    1.936832181905941E-3    3.697313552194875E-3    1.948468503168731E-3    3.627484007624244E-3    4.137007573453778E-1   -3.472197077667826E-1
 7.838376987400000E9     5.639928304192633E-1   -5.572691128254807E-2    1.988509487086311E-3    3.704362090693383E-3    1.955444790054987E-3    3.627846605918233E-3    4.123295925876881E-1   -3.488433993298318E-1
 7.838407994100000E9     5.637832154422222E-1   -5.756936626774160E-2    1.991732722657484E-3    3.677373413293466E-3    2.005092601427894E-3    3.625164144785227E-3    4.108602249814020E-1   -3.505074868752148E-1
 7.838439000800000E9     5.637271828270103E-1   -5.966749788999005E-2    2.001544113765122E-3    3.675826099600828E-3    1.989796300801744E-3    3.602520735986868E-3    4.095971597664459E-1   -3.522143208931221E-1
 7.838470007500000E9     5.634948065686151E-1   -6.174505805580627E-2    2.021098062033951E-3    3.653051513515149E-3    2.014249105210912E-3    3.617374065553700E-3    4.080299045060449E-1   -3.538057040329670E-1
 7.838501014200000E9     5.633790695914500E-1   -6.384066816078837E-2    2.053117560919232E-3    3.669704856622667E-3    2.059705483002381E-3    3.590441285850878E-3    4.066685178191357E-1   -3.554301536232597E-1
 7.838532020900000E9     5.631099328708759E-1   -6.591290451048641E-2    2.069402400341538E-3    3.665435356545139E-3    2.060447524888451E-3    3.606152312565227E-3    4.050920457729278E-1   -3.570026073987072E-1
 7.838563027600000E9     5.626394312942464E-1   -6.789985916103444E-2    2.090023439668665E-3    3.640295202862541E-3    2.112515285823330E-3    3.613646080906864E-3    4.038802806356055E-1   -3.587967596378204E-1
 7.838594034300000E9     5.624777675764548E-1   -6.993177918290745E-2    2.130884097950472E-3    3.663536364155577E-3    2.104413373130905E-3    3.631751854644707E-3    4.024717394402766E-1   -3.603842247103927E-1
 7.838625041000000E9     5.623510832409172E-1   -7.211946718990980E-2    2.128264001592187E-3    3.650032914954306E-3    2.108044102435536E-3    3.584471678802833E-3    4.009088030315968E-1   -3.620444719487615E-1
 7.838656047700000E9     5.618627621147729E-1   -7.404286416608032E-2    2.132105846422086E-3    3.656838077911108E-3    2.126108265084047E-3    3.598531385589704E-3    3.993931111071078E-1   -3.635865636684277E-1
 7.838687054400000E9     5.615443208410950E-1   -7.603940515373533E-2    2.171652602759972E-3    3.659401773820439E-3    2.165020439500320E-3    3.606461792630737E-3    3.980631169609579E-1   -3.651976813942416E-1
 7.838718061100000E9     5.614853267626023E-1   -7.820845900985141E-2    2.186507926804453E-3    3.648846705543768E-3    2.180538327781701E-3    3.601035305829888E-3    3.965606208870021E-1   -3.670069582178004E-1
 7.838749067800000E9     5.610965323767324E-1   -8.025755588494060E-2    2.191406281474976E-3    3.627945441947125E-3    2.176148569296803E-3    3.559317105152306E-3    3.950194827196647E-1   -3.683320660052831E-1
 7.838780074500000E9     5.608834744998838E-1   -8.233925521870411E-2    2.230290715720991E-3    3.647065692239414E-3    2.187518638326351E-3    3.609634042856448E-3    3.935429190138461E-1   -3.701700671611017E-1
 7.838811081200000E9     5.606278321627772E-1   -8.431451585432000E-2    2.249748987001848E-3    3.645989731985137E-3    2.225029238589615E-3    3.557469945416435E-3    3.921183831826457E-1   -3.716950627489763E-1
 7.838842087900000E9     5.603885380977754E-1   -8.637128153117611E-2    2.263030123342927E-3    3.642705714732808E-3    2.241511976678941E-3    3.575096379783604E-3    3.905186494222164E-1   -3.731711416152902E-1
 7.838873094600000E9     5.600245064859930E-1   -8.854824181215304E-2    2.282293013381175E-3    3.639757911279360E-3    2.261010808240186E-3    3.617790216509523E-3    3.891402839103386E-1   -3.747716521281227E-1
 7.838904101300000E9     5.595532762742443E-1   -9.033371755063958E-2    2.303101447080108E-3    3.632635560277739E-3    2.297518926754332E-3    3.607767688484355E-3    3.875390419353696E-1   -3.763461884946422E-1
 7.838935108000000E9     5.593418759168078E-1   -9.252431152567926E-2    2.349465681163630E-3    3.617128255847448E-3    2.329204417354733E-3    3.581137534592849E-3    3.860966359079004E-1   -3.780352015794000E-1
 7.838966114700000E9     5.589452637409926E-1   -9.455442269165810E-2    2.340551298421855E-3    3.633881048551994E-3    2.341026701283370E-3    3.600701916233345E-3    3.846512831395846E-1   -3.794617334498240E-1
 7.838997121400000E9     5.586057469904030E-1   -9.661322388481046E-2    2.383416934048484E-3    3.627199826596726E-3    2.346639603028714E-3    3.579527929259500E-3    3.830638715800030E-1   -3.811015578196879E-1
 7.839028128100000E9     5.583190177322268E-1   -9.874825618397590E-2    2.376796624628814E-3    3.647275352619183E-3    2.365757108321343E-3    3.590357702182154E-3    3.814521461963169E-1   -3.826328447700583E-1
 7.839059134800000E9     5.578421854638661E-1   -1.007318765196098E-1    2.404672226340074E-3    3.612656842237440E-3    2.415244069194284E-3    3.577373535165791E-3    3.800575691102759E-1   -3.841535678130981E-1
 7.839090141500000E9     5.576205939703611E-1   -1.028041814491967E-1    2.431045212694341E-3    3.614622427316391E-3    2.372672534680519E-3    3.593847960644504E-3    3.784376645202487E-1   -3.855539957847697E-1
 7.839121148200000E9     5.571680771540044E-1   -1.048035180564893E-1    2.473089996182660E-3    3.618568808519981E-3    2.438943935363947E-3    3.554199885086561E-3    3.769870329239079E-1   -3.872478044364591E-1
 7.839152154900000E9     5.567899055948723E-1   -1.069027446126834E-1    2.473743103740964E-3    3.607762888730149E-3    2.458146414514680E-3    3.585004621677877E-3    3.753865127875294E-1   -3.886602768132124E-1
 7.839183161600000E9     5.566097672520671E-1   -1.087736316631522E-1    2.486747850081079E-3    3.637771351594486E-3    2.484146598048304E-3    3.578759606944479E-3    3.737429766356269E-1   -3.903245317486762E-1
 7.839214168300000E9     5.559858241218890E-1   -1.107806625261703E-1    2.500587492747295E-3    3.612291508488668E-3    2.515615688706199E-3    3.576096511128086E-3    3.721942647591709E-1   -3.916329361482915E-1
 7.839245175000000E9     5.555533907252044E-1   -1.128125188612708E-1    2.561281417296849E-3    3.629141568231267E-3    2.514006676291698E-3    3.566880011627250E-3    3.705088026620404E-1   -3.932689536592683E-1
 7.839276181700000E9     5.551747290434438E-1   -1.151022247396834E-1    2.562404388368775E-3    3.635283398191814E-3    2.548194495909116E-3    3.545197762319353E-3    3.690006547447353E-1   -3.948348850368880E-1
 7.839307188400000E9     5.546864286366173E-1   -1.170346809770653E-1    2.601447247637859E-3    3.616936041891476E-3    2.532069036107383E-3    3.547842021565361E-3    3.675378215692240E-1   -3.962353128490497E-1
 7.839338195100000E9     5.544570901625484E-1   -1.190141579209045E-1    2.612383891304717E-3    3.620465665174636E-3    2.575969447230434E-3    3.532923871030911E-3    3.659387516103728E-1   -3.977180791455918E-1
 7.839369201800000E9     5.538818911494158E-1   -1.209667008744731E-1    2.665061672920810E-3    3.603437470754376E-3    2.619787278021547E-3    3.549337740828202E-3    3.643291103932550E-1   -3.991714144780297E-1
 7.839400208500000E9     5.534419475991095E-1   -1.230268161441439E-1    2.642822522511681E-3    3.585823288440872E-3    2.636744355926538E-3    3.531247562121875E-3    3.625918266673903E-1   -4.007211306112388E-1
 7.839431215200000E9     5.530911733889172E-1   -1.250350483520293E-1    2.655012126512724E-3    3.598701705813282E-3    2.617973099436869E-3    3.548429736518133E-3    3.612258740514285E-1   -4.020081637605848E-1
 7.839462221900000E9     5.526054627658628E-1   -1.272166324699781E-1    2.718533416032622E-3    3.600073248571035E-3    2.664124316259578E-3    3.552447443221777E-3    3.595012601156362E-1   -4.037048581951093E-1
 7.839493228600000E9     5.520891419936551E-1   -1.290272812298455E-1    2.714052236268673E-3    3.610704523418998E-3    2.701712105260742E-3    3.564218143393971E-3    3.579198330483355E-1   -4.050176236006789E-1
 7.839524235300000E9     5.517339915807540E-1   -1.312016686347738E-1    2.723351308926431E-3    3.598583474003764E-3    2.742306027542873E-3    3.550637030657800E-3    3.562891098114800E-1   -4.065976147219288E-1
 7.839555242000000E9     5.511482940456082E-1   -1.331476359490454E-1    2.754175913672480E-3    3.580425121860732E-3    2.682163483698650E-3    3.539723845334425E-3    3.545918080679341E-1   -4.079003999551926E-1
 7.839586248700000E9     5.505850159167942E-1   -1.352656962101311E-1    2.798925623914663E-3    3.568915782590004E-3    2.749562125775790E-3    3.576071454014975E-3    3.529512770176433E-1   -4.093595912169295E-1
 7.839617255400000E9     5.502395042371697E-1   -1.373085253692581E-1    2.813567216264697E-3    3.570070187059043E-3    2.775968531600804E-3    3.555305726054497E-3    3.513724377168670E-1   -4.108263102703695E-1
 7.839648262100000E9     5.496212867122714E-1   -1.392837065352506E-1    2.835487287788497E-3    3.571872824171556E-3    2.808531798647110E-3    3.524257097234979E-3    3.497412478617359E-1   -4.121429338073493E-1
 7.839679268800000E9     5.490974631833979E-1   -1.413747775907080E-1    2.847696540221266E-3    3.583017661220538E-3    2.856427638429499E-3    3.525136789141474E-3    3.480311448224962E-1   -4.134543360686456E-1
 7.839710275500000E9     5.485463251528320E-1   -1.433151646866020E-1    2.895092213951765E-3    3.548274681103830E-3    2.819337029274394E-3    3.528641165229390E-3    3.464568390816070E-1   -4.149618633019420E-1
 7.839741282200000E9     5.479991609929055E-1   -1.452942905712406E-1    2.919878867464594E-3    3.548187752848882E-3    2.851994060963530E-3    3.539917558633341E-3    3.446917229858626E-1   -4.164840249919140E-1
 7.839772288900000E9     5.474650119838333E-1   -1.474295178770653E-1    2.922503468384278E-3    3.566678896430232E-3    2.922183144637004E-3    3.532176621234642E-3    3.430140150650672E-1   -4.177168287286827E-1
 7.839803295600000E9     5.468760305572703E-1   -1.493247620338206E-1    2.958313381649925E-3    3.566105852019931E-3    2.928623656475591E-3    3.545503601535312E-3    3.412821049940838E-1   -4.192207098197792E-1
 7.839834302300000E9     5.464544398508006E-1   -1.512936939094500E-1    2.968874180850093E-3    3.564649053630473E-3    2.952450499445237E-3    3.550655509707812E-3    3.396811452903721E-1   -4.205380115476162E-1
 7.839865309000000E9     5.458800464804964E-1   -1.533520523469251E-1    3.029507986811454E-3    3.554626516573697E-3    2.948147163897007E-3    3.495009157046217E-3    3.378404069476281E-1   -4.219165845076243E-1
 7.839896315700000E9     5.453153144727599E-1   -1.553469234602643E-1    3.020524510014193E-3    3.555493377207576E-3    2.984069867710914E-3    3.517967420835874E-3    3.362865254233762E-1   -4.233429798847811E-1
 7.839927322400000E9     5.446949178069649E-1   -1.573172223374198E-1    3.059471831381428E-3    3.559971617794823E-3    3.033864213429758E-3    3.552456866190147E-3    3.345724855997614E-1   -4.246607305180292E-1
 7.839958329100000E9     5.441016772245000E-1   -1.594750208561302E-1    3.096739109563919E-3    3.550898664414360E-3    3.054330952644682E-3    3.561153168531551E-3    3.328651336024241E-1   -4.260536280678652E-1
 7.839989335800000E9     5.435283331045661E-1   -1.612931389898765E-1    3.098045616403633E-3    3.563686908093783E-3    3.059562483368840E-3    3.526123673621374E-3    3.311685709602218E-1   -4.273101159142412E-1
 7.840020342500000E9     5.428910586456371E-1   -1.634183731506044E-1    3.127554100299272E-3    3.525681243771883E-3    3.089088823510350E-3    3.516587581702317E-3    3.294126030881290E-1   -4.287565952857873E-1
 7.840051349200000E9     5.423661245741662E-1   -1.654624530647301E-1    3.149876520704224E-3    3.525593255060259E-3    3.098771013371997E-3    3.521131490492583E-3    3.277702916953423E-1   -4.301496907656367E-1
 7.840082355900000E9     5.416368480233509E-1   -1.672918983060616E-1    3.198385732919055E-3    3.535973767176273E-3    3.142812529044593E-3    3.504970549437356E-3    3.259319069672693E-1   -4.313668767728412E-1
 7.840113362600000E9     5.411830329310275E-1   -1.693553654095064E-1    3.223786032330549E-3    3.580156245574958E-3    3.136713605728118E-3    3.515466599832277E-3    3.241986612214200E-1   -4.327391600740474E-1
 7.840144369300000E9     5.403860250892785E-1   -1.714006468877952E-1    3.246045648021868E-3    3.530820770315140E-3    3.206251834669700E-3    3.502767964396891E-3    3.227404771035122E-1   -4.339477745452655E-1
 7.840175376000000E9     5.398536530766532E-1   -1.732603769317897E-1    3.242192108704315E-3    3.548216810878231E-3    3.253050415189172E-3    3.488328447570056E-3    3.208647853883181E-1   -4.352435469883117E-1
 7.840206382700000E9     5.389897280184039E-1   -1.753787087489948E-1    3.334036484083890E-3    3.516543456173005E-3    3.248363407094247E-3    3.510323364242160E-3    3.190758920621062E-1   -4.366647263289807E-1
 7.840237389400000E9     5.385479406848745E-1   -1.773292370593934E-1    3.319178643459192E-3    3.525450429488152E-3    3.231429885257831E-3    3.505244979416718E-3    3.173841258036833E-1   -4.378688539980903E-1
 7.840268396100000E9     5.377175609657632E-1   -1.793231289006182E-1    3.349607418185819E-3    3.512039159882683E-3    3.339940632515057E-3    3.499080935581132E-3    3.156734177024224E-1   -4.392241253571562E-1
 7.840299402800000E9     5.370936688068141E-1   -1.813656649463966E-1    3.374625740413898E-3    3.526458781219910E-3    3.347171543471885E-3    3.507886737286027E-3    3.138762036235663E-1   -4.405515112555996E-1
 7.840330409500000E9     5.363673151873911E-1   -1.833239997299812E-1    3.397739610166692E-3    3.514109767182788E-3    3.360660130713081E-3    3.485971067094494E-3    3.119697268214731E-1   -4.417788405148351E-1
 7.840361416200000E9     5.357255357972692E-1   -1.852224463936050E-1    3.430736820754848E-3    3.518545538570768E-3    3.391781420605810E-3    3.476689845983600E-3    3.102182528934425E-1   -4.430488724216413E-1
 7.840392422900000E9     5.351439558546168E-1   -1.874056634481954E-1    3.499093505955483E-3    3.515079939106629E-3    3.421845566525296E-3    3.482763562058129E-3    3.085662075082269E-1   -4.441186833928856E-1
 7.840423429600000E9     5.342410898805235E-1   -1.893447650937581E-1    3.512016415389332E-3    3.502661966156126E-3    3.435519074155524E-3    3.475542965586928E-3    3.066038704875998E-1   -4.455726064446562E-1
 7.840454436300000E9     5.336032686949234E-1   -1.911769840662910E-1    3.540114692309692E-3    3.482297376861004E-3    3.453305369557616E-3    3.472527645790970E-3    3.048935257396191E-1   -4.466885510443145E-1
 7.840485443000000E9     5.329980233224225E-1   -1.932134286811443E-1    3.568464829646037E-3    3.502713560953391E-3    3.491320748426603E-3    3.484777117164507E-3    3.033164069049704E-1   -4.480588601362474E-1
