#  HZ   S   RI   R     50.00 
! Rohde & Schwarz Vector Network Analyzer 
! Rohde-Schwarz,ZNB20-2Port,1311601062101988,3.16
! Created: UTC 12/23/2023, 4:03:34 AM
! freq[Hz]                re:S11                  im:S11                  re:S21                  im:S21                  re:S12                  im:S12                  re:S22                  im:S22
 7.837774887000000E9     5.663027863363159E-1   -1.560097518708011E-2    1.604160146799091E-3    3.714321659360012E-3    1.612676731247167E-3    3.622546356612243E-3    4.380612555871037E-1   -3.155780586805683E-1
 7.837805606875000E9     5.663419409907666E-1   -1.772646163415110E-2    1.609794150032099E-3    3.719127936061744E-3    1.598845314368292E-3    3.600021850314161E-3    4.368432618303428E-1   -3.170808840199280E-1
 7.837836326750000E9     5.662960628054491E-1   -1.962793718217396E-2    1.648240336978754E-3    3.712769069344785E-3    1.623846073678225E-3    3.627587015785121E-3    4.355662250573640E-1   -3.188803352577848E-1
 7.837867046625000E9     5.660926125202133E-1   -2.164480266508200E-2    1.677333220470876E-3    3.718597591785909E-3    1.651668577753085E-3    3.625055013592240E-3    4.343628091103190E-1   -3.206880558390156E-1
 7.837897766500000E9     5.660127962930491E-1   -2.369721630227423E-2    1.685042479907985E-3    3.693906451853958E-3    1.692506548888529E-3    3.629875468591369E-3    4.330030259258956E-1   -3.223502930622123E-1
 7.837928486375000E9     5.661117476727793E-1   -2.586385836350100E-2    1.698468607954685E-3    3.692781690911714E-3    1.684173167441256E-3    3.638464118213143E-3    4.318175550645925E-1   -3.242335556182648E-1
 7.837959206250000E9     5.660335213447073E-1   -2.773697560859907E-2    1.720246021197941E-3    3.690206359147186E-3    1.733232157298409E-3    3.641828667151565E-3    4.305757404550145E-1   -3.258643241512439E-1
 7.837989926125000E9     5.659237617816368E-1   -2.981025275666462E-2    1.733129186834157E-3    3.698615216520916E-3    1.743480630898126E-3    3.614195535212352E-3    4.290938157517515E-1   -3.275048890809635E-1
 7.838020646000000E9     5.658661414972516E-1   -3.194677873762630E-2    1.759109558624060E-3    3.684734146495025E-3    1.747617096777321E-3    3.638797858482968E-3    4.279123527124136E-1   -3.293315761988216E-1
 7.838051365875000E9     5.656517733803785E-1   -3.404280859829036E-2    1.797179058783565E-3    3.679545737526556E-3    1.790893027007492E-3    3.613882904418073E-3    4.265437543926143E-1   -3.309959679300764E-1
 7.838082085750000E9     5.656074205623008E-1   -3.587063095759081E-2    1.787105057806096E-3    3.701691342973060E-3    1.793231332778891E-3    3.624055506369645E-3    4.252965848214167E-1   -3.327367405984755E-1
 7.838112805625000E9     5.653920760099299E-1   -3.814070003455158E-2    1.807984920593756E-3    3.698053451360786E-3    1.824643388197795E-3    3.630430650545635E-3    4.238736613093729E-1   -3.344541941772743E-1
 7.838143525500000E9     5.652314795596215E-1   -4.005762356919600E-2    1.837738969024774E-3    3.690203228108821E-3    1.869463549810587E-3    3.627754142299143E-3    4.225995744935345E-1   -3.361304107283660E-1
 7.838174245375000E9     5.652418147662893E-1   -4.210869456754233E-2    1.857029610557922E-3    3.703586125756710E-3    1.831426282249787E-3    3.615307701306478E-3    4.213412991953709E-1   -3.378664138926615E-1
 7.838204965250000E9     5.649399566256489E-1   -4.418528583076415E-2    1.868845057395752E-3    3.694884480091339E-3    1.854134582548114E-3    3.650327356051921E-3    4.199053636551049E-1   -3.394065370322465E-1
 7.838235685125000E9     5.649282892428092E-1   -4.621588292776844E-2    1.889561174312095E-3    3.671682613463258E-3    1.874974812688392E-3    3.632597709362344E-3    4.184880934366398E-1   -3.412345666881271E-1
 7.838266405000000E9     5.647364982365332E-1   -4.830409370395532E-2    1.894304980635802E-3    3.674891161046144E-3    1.869597256170397E-3    3.622882305855665E-3    4.171870088144807E-1   -3.428306844108918E-1
 7.838297124875000E9     5.644455426348837E-1   -5.039650682777051E-2    1.926162166196909E-3    3.669278101758476E-3    1.923418280701567E-3    3.601866135409871E-3    4.158283963767299E-1   -3.445087453292691E-1
 7.838327844750000E9     5.644246055356409E-1   -5.221225218144288E-2    1.942895454776441E-3    3.696096359151888E-3    1.951639322332308E-3    3.620479217511017E-3    4.144121082342866E-1   -3.462366812868091E-1
 7.838358564625000E9     5.641834900075451E-1   -5.446057664625056E-2    1.938254782091136E-3    3.672498910615078E-3    1.945271189795907E-3    3.613991358193824E-3    4.130253321266495E-1   -3.478580510560395E-1
 7.838389284500000E9     5.641842591974570E-1   -5.649514384123617E-2    1.956591540514545E-3    3.637232723342904E-3    1.977798603566165E-3    3.596454653904080E-3    4.116844829949356E-1   -3.495504102015848E-1
 7.838420004375000E9     5.637960480505261E-1   -5.848927995379075E-2    1.987501950073632E-3    3.676063796584715E-3    1.962187784256044E-3    3.620917118385253E-3    4.103548771739507E-1   -3.512502021566785E-1
 7.838450724250000E9     5.634981829607711E-1   -6.050833289489744E-2    2.030113100863883E-3    3.652624327432154E-3    2.007543367521401E-3    3.616216364613221E-3    4.090404484920460E-1   -3.529150477419962E-1
 7.838481444125000E9     5.633203630500232E-1   -6.253695507177479E-2    2.059055257240979E-3    3.679619362209405E-3    2.021205622940491E-3    3.605536121486870E-3    4.075372313439330E-1   -3.544849520641183E-1
 7.838512164000000E9     5.630591189678196E-1   -6.454408895069562E-2    2.059105780647263E-3    3.685613143279291E-3    2.031371795787850E-3    3.647182181546626E-3    4.061505065912741E-1   -3.561060419720165E-1
 7.838542883875000E9     5.630232916431253E-1   -6.659480306908563E-2    2.070512027978122E-3    3.682701028819474E-3    2.064916927044406E-3    3.602356963059506E-3    4.047044217956706E-1   -3.577853676562712E-1
 7.838573603750000E9     5.627933080934432E-1   -6.863871220258773E-2    2.088612387439044E-3    3.672392343964599E-3    2.068374578489921E-3    3.571081751976122E-3    4.033144066533926E-1   -3.593403293682498E-1
 7.838604323625000E9     5.624670904755773E-1   -7.067836494666103E-2    2.113596232854695E-3    3.634199774772414E-3    2.109199176261977E-3    3.606169494717275E-3    4.019378468841955E-1   -3.609629222850160E-1
 7.838635043500000E9     5.621703680715714E-1   -7.272244089374684E-2    2.139225619452582E-3    3.643023024997066E-3    2.118134105865913E-3    3.573921429707879E-3    4.004470753510858E-1   -3.625660949835355E-1
 7.838665763375000E9     5.620705822205622E-1   -7.475038935515411E-2    2.158962020730563E-3    3.666458555324097E-3    2.120677040182794E-3    3.612704484593457E-3    3.990112274223905E-1   -3.641401107034842E-1
 7.838696483250000E9     5.616793026720267E-1   -7.665196288818621E-2    2.165408992421603E-3    3.642041942201497E-3    2.153184256045201E-3    3.597844588640513E-3    3.976558142846433E-1   -3.657444350055847E-1
 7.838727203125000E9     5.613947880824521E-1   -7.866140566784934E-2    2.192121565609140E-3    3.625250008533660E-3    2.180985746540571E-3    3.596850448518278E-3    3.960916670335971E-1   -3.672654944603183E-1
 7.838757923000000E9     5.611717697019435E-1   -8.082559049387589E-2    2.192182394114730E-3    3.626397319503876E-3    2.192112969834464E-3    3.604920705711412E-3    3.946733611493175E-1   -3.689063938189276E-1
 7.838788642875000E9     5.608133159054292E-1   -8.284892161303702E-2    2.225950831560861E-3    3.638076760909617E-3    2.178979247987388E-3    3.603327079904426E-3    3.933218516801864E-1   -3.703833426414177E-1
 7.838819362750000E9     5.605440303875562E-1   -8.493575658684890E-2    2.244020371999984E-3    3.643224879606758E-3    2.231279706998984E-3    3.617014835854525E-3    3.915548423509841E-1   -3.721574254959218E-1
 7.838850082625000E9     5.602337736116602E-1   -8.703630808961213E-2    2.265193632503652E-3    3.639062376017161E-3    2.245174057081749E-3    3.589437453193258E-3    3.902259505268209E-1   -3.736495308128377E-1
 7.838880802500000E9     5.599569295091413E-1   -8.891600980860909E-2    2.304551816081345E-3    3.633937074823972E-3    2.267060986570823E-3    3.571886135544585E-3    3.888409098463257E-1   -3.752774093338420E-1
 7.838911522375000E9     5.595702175545897E-1   -9.097317717688590E-2    2.296639754145856E-3    3.638069508125492E-3    2.264506341665440E-3    3.610194913962262E-3    3.872167222292017E-1   -3.766277220351055E-1
 7.838942242250000E9     5.593508259463278E-1   -9.300773961418468E-2    2.327280727212083E-3    3.634302258338590E-3    2.324515666692268E-3    3.589647248014789E-3    3.857001116232003E-1   -3.783024112997361E-1
 7.838972962125000E9     5.590836968769101E-1   -9.491889463549956E-2    2.341157132549715E-3    3.619462285759089E-3    2.365566104152738E-3    3.582741528813767E-3    3.842386366616409E-1   -3.798584141220931E-1
 7.839003682000000E9     5.584995383126243E-1   -9.696169895030615E-2    2.379804334748918E-3    3.631310676781167E-3    2.357491763070489E-3    3.592338925935086E-3    3.827650659991098E-1   -3.815041036564582E-1
 7.839034401875000E9     5.582434763696582E-1   -9.904855381752577E-2    2.400671402314713E-3    3.641528727738960E-3    2.354487577908889E-3    3.635634081768302E-3    3.811949962198253E-1   -3.829137024259982E-1
 7.839065121750000E9     5.580427042345943E-1   -1.010187482306420E-1    2.425649267396928E-3    3.643936586578313E-3    2.359021662732914E-3    3.584479382591112E-3    3.797295617621792E-1   -3.844673230383914E-1
 7.839095841625000E9     5.575274602622730E-1   -1.031234674036708E-1    2.463424403429572E-3    3.617370746838052E-3    2.404676558620177E-3    3.576605627027541E-3    3.781520609314296E-1   -3.859341342369154E-1
 7.839126561500000E9     5.572371963301501E-1   -1.051501215810040E-1    2.456216852732800E-3    3.619859582945105E-3    2.456049858053533E-3    3.542455672840663E-3    3.766236404181742E-1   -3.874213268966595E-1
 7.839157281375000E9     5.567456880879877E-1   -1.070853982119659E-1    2.483753787984383E-3    3.611955434052060E-3    2.469652844147309E-3    3.556166255405450E-3    3.751397410324031E-1   -3.889500627829764E-1
 7.839188001250000E9     5.563327908648824E-1   -1.091663389628065E-1    2.503455384098664E-3    3.638694625019737E-3    2.492424237669493E-3    3.555069589967019E-3    3.735219633143632E-1   -3.905051288765000E-1
 7.839218721125000E9     5.560732598015417E-1   -1.112184834100574E-1    2.523102828118295E-3    3.602757955114582E-3    2.487883288510922E-3    3.586055402715502E-3    3.718613300585143E-1   -3.919621041266938E-1
 7.839249441000000E9     5.555994360666354E-1   -1.132304909204056E-1    2.551776492638478E-3    3.627877777692596E-3    2.517246411239688E-3    3.543738390325085E-3    3.704322791476714E-1   -3.935158668891632E-1
 7.839280160875000E9     5.552255205375339E-1   -1.151147299314961E-1    2.559415785622062E-3    3.606422883650748E-3    2.551433457481510E-3    3.573740581752474E-3    3.688043778238270E-1   -3.949188845228297E-1
 7.839310880750000E9     5.547712677117752E-1   -1.172328356157877E-1    2.590691492906591E-3    3.622012615894057E-3    2.581922413835653E-3    3.531180821165966E-3    3.672311336367636E-1   -3.964718906942134E-1
 7.839341600625000E9     5.543802004240662E-1   -1.191387404513089E-1    2.624886377710337E-3    3.602929338471575E-3    2.560020233020289E-3    3.583717632892604E-3    3.658210618667745E-1   -3.979319921859803E-1
 7.839372320500000E9     5.539700201748724E-1   -1.213730922975515E-1    2.615428283122256E-3    3.592580773315964E-3    2.596937089796729E-3    3.578885261477498E-3    3.641562508525035E-1   -3.994557176108601E-1
 7.839403040375000E9     5.535717701483083E-1   -1.233935139289267E-1    2.644679410562220E-3    3.612465065218982E-3    2.641260742267509E-3    3.541405681471895E-3    3.624900376360599E-1   -4.007722101747146E-1
 7.839433760250000E9     5.529658471511433E-1   -1.252927251118447E-1    2.695179082360348E-3    3.623318772830699E-3    2.623790128754776E-3    3.570568930593085E-3    3.609115911311482E-1   -4.021937714420949E-1
 7.839464480125000E9     5.525658004864560E-1   -1.274397595272374E-1    2.727736166079134E-3    3.571711697668303E-3    2.691143557333027E-3    3.555733696519132E-3    3.594003871750136E-1   -4.037112223511777E-1
 7.839495200000000E9     5.520073348448841E-1   -1.292825706604754E-1    2.721367734956277E-3    3.582776761279151E-3    2.696749217863378E-3    3.514548469542206E-3    3.577099438657576E-1   -4.051188232567540E-1
 7.839525919875000E9     5.515673676614997E-1   -1.314077522096002E-1    2.749749733472485E-3    3.604256759976364E-3    2.712514561050215E-3    3.551994714598254E-3    3.561008029602584E-1   -4.067065114176364E-1
 7.839556639750000E9     5.511197144402765E-1   -1.333251223114057E-1    2.768157547076219E-3    3.599098506289407E-3    2.713945596954083E-3    3.547320973815453E-3    3.545071347529770E-1   -4.079421227271630E-1
 7.839587359625000E9     5.505864762480331E-1   -1.353416673146839E-1    2.769364402071330E-3    3.557465156459156E-3    2.731626842574473E-3    3.554246294309770E-3    3.530071983577110E-1   -4.094546031197168E-1
 7.839618079500000E9     5.501591626877773E-1   -1.375083000151688E-1    2.799924338363066E-3    3.608409307240627E-3    2.797663273512266E-3    3.552685764251529E-3    3.512812849550558E-1   -4.108772058218809E-1
 7.839648799375000E9     5.496003356316640E-1   -1.394086878803524E-1    2.830204465409988E-3    3.585721403312938E-3    2.798909093916660E-3    3.550556155374085E-3    3.497454359950963E-1   -4.121266505169641E-1
 7.839679519250000E9     5.490443014864593E-1   -1.412757598101569E-1    2.862369709413158E-3    3.571952602976808E-3    2.802462137204745E-3    3.549798055319754E-3    3.479102452050197E-1   -4.136377361629887E-1
 7.839710239125000E9     5.486079723968026E-1   -1.432992763549669E-1    2.886325381436439E-3    3.551303913995914E-3    2.854146363043072E-3    3.542509244423216E-3    3.463508666942484E-1   -4.149752651044030E-1
 7.839740959000000E9     5.480728599605250E-1   -1.451654143823945E-1    2.884582388918177E-3    3.567077922329787E-3    2.876544199002202E-3    3.522463625978905E-3    3.447086480877011E-1   -4.164395902282136E-1
 7.839771678875000E9     5.474785013695529E-1   -1.471980600622983E-1    2.897115710710766E-3    3.580822411562162E-3    2.874563540944403E-3    3.531719634735711E-3    3.432359274708935E-1   -4.178645581396948E-1
 7.839802398750000E9     5.469528224573542E-1   -1.494061502852890E-1    2.961356047419632E-3    3.562254661962132E-3    2.921259598083796E-3    3.543908479073573E-3    3.413106809849820E-1   -4.190962667810655E-1
 7.839833118625000E9     5.462980651315174E-1   -1.512559930261995E-1    2.994592668904377E-3    3.551590215151348E-3    2.932431664019840E-3    3.529107629501488E-3    3.397003523756305E-1   -4.204155278711769E-1
 7.839863838500000E9     5.458701871698340E-1   -1.531598374013708E-1    3.010014112456002E-3    3.568073969816473E-3    2.965582798832292E-3    3.513326694014995E-3    3.380795825669198E-1   -4.217624069858310E-1
 7.839894558375000E9     5.453302353806019E-1   -1.553960163448031E-1    3.044177209121636E-3    3.565783829610776E-3    2.958328523368454E-3    3.497874291292574E-3    3.363589760638546E-1   -4.231766025035664E-1
 7.839925278250000E9     5.446973411251024E-1   -1.572595713103772E-1    3.074426245975496E-3    3.556302880713983E-3    2.990191053014715E-3    3.507885117044289E-3    3.347444990579975E-1   -4.246071399765170E-1
 7.839955998125000E9     5.441735465846066E-1   -1.592730429588307E-1    3.086187463467580E-3    3.557556063129310E-3    3.031597088398614E-3    3.521956666957803E-3    3.329281068690244E-1   -4.258591569819761E-1
 7.839986718000000E9     5.436103024807603E-1   -1.612423295887976E-1    3.134419358522751E-3    3.561848257461140E-3    3.046361533857426E-3    3.528917074569744E-3    3.313056715866375E-1   -4.271779037420891E-1
 7.840017437875000E9     5.429985699978795E-1   -1.631002808286556E-1    3.134311919428995E-3    3.541658056855431E-3    3.085735158437971E-3    3.524139534968033E-3    3.295668995569753E-1   -4.286800919501511E-1
 7.840048157750000E9     5.423062134525158E-1   -1.652117682020813E-1    3.117018929135820E-3    3.550016001249139E-3    3.118269807393820E-3    3.519357429721743E-3    3.278333886302775E-1   -4.299896528640753E-1
 7.840078877625000E9     5.417723356665050E-1   -1.671301731256025E-1    3.202354098025543E-3    3.536365502111868E-3    3.116319708876395E-3    3.518880412429331E-3    3.261902984577886E-1   -4.312361943179129E-1
 7.840109597500000E9     5.410620668359098E-1   -1.690315784872456E-1    3.222624803427890E-3    3.536215872540488E-3    3.159732469567230E-3    3.497636022798711E-3    3.245051832550913E-1   -4.325600285255231E-1
 7.840140317375000E9     5.405286551918853E-1   -1.711036095576604E-1    3.250954623317973E-3    3.527815524315700E-3    3.189453734976180E-3    3.510688079487357E-3    3.228746514142843E-1   -4.338756319484248E-1
 7.840171037250000E9     5.399615595922861E-1   -1.731165058797557E-1    3.282984301627604E-3    3.525913064392447E-3    3.229959431138848E-3    3.511369526439786E-3    3.211413500179615E-1   -4.351614716811115E-1
 7.840201757125000E9     5.393030900761928E-1   -1.750536775102845E-1    3.313752093911633E-3    3.528440625391449E-3    3.246274433768196E-3    3.543206239152914E-3    3.192554551138896E-1   -4.364657526770105E-1
 7.840232477000000E9     5.386428176306831E-1   -1.770121556690250E-1    3.323923034674547E-3    3.520030529987877E-3    3.291644867463372E-3    3.504678311539386E-3    3.176652916289641E-1   -4.378672135649124E-1
 7.840263196875000E9     5.379602607301637E-1   -1.789786513606230E-1    3.359166945328338E-3    3.502582270996631E-3    3.311781284693870E-3    3.469634119906969E-3    3.159230508561128E-1   -4.390389857399093E-1
 7.840293916750000E9     5.372033977387560E-1   -1.809173327194271E-1    3.367714060422972E-3    3.520110827053641E-3    3.316780401460653E-3    3.494465668750142E-3    3.140747469232988E-1   -4.402939895749902E-1
 7.840324636625000E9     5.365585711857246E-1   -1.829951964801795E-1    3.389528447879599E-3    3.515309034865268E-3    3.382877345046243E-3    3.497293218173429E-3    3.123112621905591E-1   -4.416368828897080E-1
 7.840355356500000E9     5.359207560231387E-1   -1.850207736131353E-1    3.414202210991569E-3    3.506106584925249E-3    3.384296613347442E-3    3.468839328163667E-3    3.106263264251814E-1   -4.427858139005483E-1
 7.840386076375000E9     5.352324435987272E-1   -1.869203619152294E-1    3.429583066443275E-3    3.499424072851249E-3    3.403200939227751E-3    3.489192542912784E-3    3.089389527440395E-1   -4.440229131554843E-1
 7.840416796250000E9     5.344597467990267E-1   -1.887434985375427E-1    3.465502935424039E-3    3.512250570047839E-3    3.440254160134205E-3    3.491904866561111E-3    3.072167295423133E-1   -4.451535207835202E-1
 7.840447516125000E9     5.338159557568508E-1   -1.908111179894749E-1    3.499650818502396E-3    3.519284036772810E-3    3.470072901840008E-3    3.474215707159878E-3    3.053503691135487E-1   -4.466457320804504E-1
 7.840478236000000E9     5.332072667685156E-1   -1.926953776555004E-1    3.556398335745485E-3    3.486074612399161E-3    3.507222080546763E-3    3.508570176044151E-3    3.035537360871036E-1   -4.477248694261158E-1
 7.840508955875000E9     5.322585373412098E-1   -1.946703924107150E-1    3.579936538006777E-3    3.514232997438218E-3    3.560320706443612E-3    3.508769869930320E-3    3.016564387880237E-1   -4.490111239670825E-1
 7.840539675750000E9     5.316300800693896E-1   -1.965659545408361E-1    3.616446521381027E-3    3.485897861003306E-3    3.587122836518071E-3    3.446686338611221E-3    2.998053641032208E-1   -4.498991066813972E-1
