#  HZ   S   RI   R     50.00 
! Rohde & Schwarz Vector Network Analyzer 
! Rohde-Schwarz,ZNB20-2Port,1311601062101988,3.16
! Created: UTC 12/23/2023, 3:39:59 AM
! freq[Hz]                re:S11                  im:S11                  re:S21                  im:S21                  re:S12                  im:S12                  re:S22                  im:S22
 7.837355287000000E9     5.664036469530388E-1    1.137155622483604E-2    1.382489874450760E-3    3.741605852602630E-3    1.425502568008665E-3    3.652040458683034E-3    4.542229183865248E-1   -2.917381706236499E-1
 7.837387480575000E9     5.663779911013187E-1    9.276271417359124E-3    1.400292764187555E-3    3.735520699639943E-3    1.406835431600527E-3    3.652749626195756E-3    4.530521903000101E-1   -2.936497961713493E-1
 7.837419674150000E9     5.664116733172555E-1    7.087235244861967E-3    1.422750911281418E-3    3.713803901767158E-3    1.454766776210387E-3    3.682374928680881E-3    4.518030458486145E-1   -2.953611991870004E-1
 7.837451867725000E9     5.665607124454375E-1    5.016487887064383E-3    1.442892612294288E-3    3.730294810545184E-3    1.484239467265624E-3    3.669391335446586E-3    4.504797820291018E-1   -2.973784257723283E-1
 7.837484061300000E9     5.665965394660681E-1    2.855932627489329E-3    1.475820773328188E-3    3.715732870403651E-3    1.456426560911714E-3    3.651359411218336E-3    4.493771927514212E-1   -2.993606371177021E-1
 7.837516254875000E9     5.666541374702465E-1    7.791696586629909E-4    1.486180146337754E-3    3.723630543396240E-3    1.488449333103429E-3    3.656674324376809E-3    4.479257217826941E-1   -3.011391836164317E-1
 7.837548448450000E9     5.664358132051942E-1   -1.297699360905482E-3    1.477844478532867E-3    3.751391717178148E-3    1.510202501296887E-3    3.656329708761535E-3    4.467808411752817E-1   -3.029501714876972E-1
 7.837580642025000E9     5.665766770939167E-1   -3.677087690306678E-3    1.528113960552476E-3    3.724975651229890E-3    1.500730798134337E-3    3.665656619279341E-3    4.455595424429001E-1   -3.049163964720570E-1
 7.837612835600000E9     5.665485092186091E-1   -5.705459113828550E-3    1.514373564868959E-3    3.715505290817745E-3    1.534511816747939E-3    3.652385309326747E-3    4.442064794916046E-1   -3.065965468705164E-1
 7.837645029175000E9     5.665869624061400E-1   -7.756509134075949E-3    1.541290907746031E-3    3.708890583910690E-3    1.556695956241758E-3    3.648719700868288E-3    4.429797100231668E-1   -3.086123358087887E-1
 7.837677222750000E9     5.665712292572186E-1   -1.001391366847575E-2    1.599364789639260E-3    3.728616541298533E-3    1.590418576328650E-3    3.677693586470913E-3    4.417209481499874E-1   -3.104121158942653E-1
 7.837709416325000E9     5.664306783053530E-1   -1.215178077784390E-2    1.583951957352032E-3    3.730786274600477E-3    1.597120851344779E-3    3.687857416420108E-3    4.402988227164848E-1   -3.123308066624369E-1
 7.837741609900000E9     5.664100758072266E-1   -1.438656955373964E-2    1.625983238563667E-3    3.731584065609159E-3    1.639363765428070E-3    3.684901398034898E-3    4.390917916373980E-1   -3.141038182520124E-1
 7.837773803475000E9     5.664868601076546E-1   -1.636197973246668E-2    1.662451500587954E-3    3.726220844630494E-3    1.615121757523926E-3    3.643896627266219E-3    4.379203876610285E-1   -3.158537665405570E-1
 7.837805997050000E9     5.663992398769930E-1   -1.867092530551597E-2    1.636876555724533E-3    3.709688485994480E-3    1.636292939415754E-3    3.623380504142172E-3    4.365577694327735E-1   -3.179821900014771E-1
 7.837838190625000E9     5.663773402591796E-1   -2.062031306739447E-2    1.664231206410952E-3    3.692017951499415E-3    1.698189421544702E-3    3.656418508553648E-3    4.352408050318538E-1   -3.196754963391750E-1
 7.837870384200000E9     5.663138845726043E-1   -2.269855973376739E-2    1.701676103015223E-3    3.703739116823067E-3    1.694397208949823E-3    3.670033260626763E-3    4.338598378515123E-1   -3.214320083852845E-1
 7.837902577775000E9     5.662032589139447E-1   -2.490193075669654E-2    1.719521657379060E-3    3.731266447389869E-3    1.715363959171463E-3    3.654313117483625E-3    4.324351370611135E-1   -3.233543549089971E-1
 7.837934771350000E9     5.661029713002849E-1   -2.690192106124791E-2    1.707724607165495E-3    3.708404297221014E-3    1.718954048038795E-3    3.628105480384781E-3    4.311304920496379E-1   -3.250614193933818E-1
 7.837966964925000E9     5.659165214128377E-1   -2.935056156303969E-2    1.748058005047005E-3    3.717274443863638E-3    1.731013762741920E-3    3.643988055377990E-3    4.298589499663096E-1   -3.269848984919840E-1
 7.837999158500000E9     5.658131289835395E-1   -3.149409579547122E-2    1.759007659735205E-3    3.715127755893369E-3    1.779890703526542E-3    3.615251292184540E-3    4.284229722093175E-1   -3.287978628732108E-1
 7.838031352075000E9     5.657455147764581E-1   -3.356691415760004E-2    1.778980779240158E-3    3.716322088524503E-3    1.777817340167114E-3    3.624772243599115E-3    4.271344496855267E-1   -3.305595073391011E-1
 7.838063545650000E9     5.657600409383696E-1   -3.565056245879551E-2    1.779539884945236E-3    3.705525858431645E-3    1.805555643887315E-3    3.647438195082386E-3    4.257476798695714E-1   -3.323051736920107E-1
 7.838095739225000E9     5.654775267649023E-1   -3.785904572528255E-2    1.822823092468988E-3    3.687780790946878E-3    1.798376871212059E-3    3.638970572045699E-3    4.244433631320453E-1   -3.341079296841249E-1
 7.838127932800000E9     5.654264937417782E-1   -3.990354598777870E-2    1.851699328674092E-3    3.706206222656988E-3    1.843239069951376E-3    3.600820302988403E-3    4.229474743140782E-1   -3.358449091157397E-1
 7.838160126375000E9     5.652561879327814E-1   -4.215399223884961E-2    1.874806522785401E-3    3.696461326809846E-3    1.877278927726209E-3    3.629668626351108E-3    4.215751760087715E-1   -3.376217188447945E-1
 7.838192319950000E9     5.650909492146611E-1   -4.423300240717897E-2    1.872599440506523E-3    3.695649034000673E-3    1.874031777205752E-3    3.634862788578740E-3    4.200104848900061E-1   -3.393217620166993E-1
 7.838224513525000E9     5.649030558233811E-1   -4.634861178004892E-2    1.912002132407211E-3    3.692711658250496E-3    1.886594110890510E-3    3.647784358923632E-3    4.187021096724215E-1   -3.411433602858527E-1
 7.838256707100000E9     5.647428014399160E-1   -4.846540469777719E-2    1.932617314004193E-3    3.699416907826122E-3    1.908641725976290E-3    3.663839320055933E-3    4.174543978563340E-1   -3.428929449344894E-1
 7.838288900675000E9     5.646762270735167E-1   -5.067304691438809E-2    1.943676187609073E-3    3.679977692022466E-3    1.931061698821094E-3    3.617458142367189E-3    4.158573979144364E-1   -3.446793419841470E-1
 7.838321094250000E9     5.643311592809654E-1   -5.277939979973622E-2    1.982022483756546E-3    3.683409498265319E-3    1.965934735150889E-3    3.651081332016359E-3    4.143945792020494E-1   -3.464069301734208E-1
 7.838353287825000E9     5.643055190712731E-1   -5.483102316344329E-2    1.980644455058095E-3    3.706132922347831E-3    1.982935591067779E-3    3.635749277943122E-3    4.129634131713447E-1   -3.481290732915008E-1
 7.838385481400000E9     5.639613013533447E-1   -5.696352637736497E-2    2.008115328641945E-3    3.700410972567183E-3    2.011702913894887E-3    3.638694313975201E-3    4.115045554020324E-1   -3.497687838504233E-1
 7.838417674975000E9     5.638399807911676E-1   -5.906553411081742E-2    2.036859300453533E-3    3.673348844646743E-3    1.998366212068687E-3    3.654966698863182E-3    4.099902977644121E-1   -3.516033182234077E-1
 7.838449868550000E9     5.636114877409324E-1   -6.128008004160337E-2    2.033530603813643E-3    3.708320066789077E-3    2.046829196802890E-3    3.640831050394680E-3    4.086309424163510E-1   -3.534621830566283E-1
 7.838482062125000E9     5.634998476067027E-1   -6.355421209513831E-2    2.070722658601181E-3    3.675057627060526E-3    2.051173508930405E-3    3.629978754018618E-3    4.071678301053667E-1   -3.550004381958817E-1
 7.838514255700000E9     5.631123554375999E-1   -6.553402963528566E-2    2.078459500485879E-3    3.696031200698162E-3    2.060201841288539E-3    3.577821665677841E-3    4.057292683579334E-1   -3.566970005884767E-1
 7.838546449275000E9     5.628772038111114E-1   -6.756803656371412E-2    2.097247285794703E-3    3.677201739510448E-3    2.089840939055325E-3    3.611436996262956E-3    4.040949554273663E-1   -3.584107979916055E-1
 7.838578642850000E9     5.626282923204260E-1   -6.984818203859812E-2    2.132752341664457E-3    3.676528122434140E-3    2.116428875639989E-3    3.609712302301716E-3    4.027568443328167E-1   -3.600517688207794E-1
 7.838610836425000E9     5.623005544913470E-1   -7.203044928846372E-2    2.148699449728508E-3    3.681798938522101E-3    2.133051650537501E-3    3.600421599236380E-3    4.012154451617450E-1   -3.617513244985410E-1
 7.838643030000000E9     5.620357216473398E-1   -7.407108937451866E-2    2.168612654403926E-3    3.684119021794713E-3    2.145775039801186E-3    3.625969172249121E-3    3.997857885031407E-1   -3.635070622065814E-1
 7.838675223575000E9     5.617829059544434E-1   -7.624115675256658E-2    2.175110311035719E-3    3.643640462646551E-3    2.167188869765837E-3    3.643369020532736E-3    3.981760443270849E-1   -3.652635900638893E-1
 7.838707417150000E9     5.615343041960420E-1   -7.837961215242541E-2    2.196402930541079E-3    3.670331226899470E-3    2.175802487231203E-3    3.621347344453278E-3    3.967809262041144E-1   -3.668868803849416E-1
 7.838739610725000E9     5.612940161387563E-1   -8.060927673163870E-2    2.239454199378745E-3    3.653185229800087E-3    2.206386133133836E-3    3.596038599635772E-3    3.951300143235966E-1   -3.686116978621403E-1
 7.838771804300000E9     5.609324770335264E-1   -8.256701294594210E-2    2.237804997088341E-3    3.684026811390904E-3    2.258737763437227E-3    3.590966375362403E-3    3.935931330879637E-1   -3.702066480823181E-1
 7.838803997875000E9     5.607403029830220E-1   -8.463024492826329E-2    2.273369579562307E-3    3.652450174436445E-3    2.289115060800286E-3    3.601103011891990E-3    3.919799255810570E-1   -3.717906061040748E-1
 7.838836191450000E9     5.603840056530514E-1   -8.687273046864316E-2    2.284994593270766E-3    3.643796228620752E-3    2.258943691175797E-3    3.575939682169090E-3    3.904331953672405E-1   -3.734893061343171E-1
 7.838868385025000E9     5.600613637842078E-1   -8.910450255594114E-2    2.318215274345190E-3    3.658249657082259E-3    2.292309292962944E-3    3.568990234124948E-3    3.889008955016372E-1   -3.751450748112083E-1
 7.838900578600000E9     5.595887680508229E-1   -9.109096059555209E-2    2.337158045930643E-3    3.655988700550483E-3    2.291925459589620E-3    3.623483534121332E-3    3.872784730024999E-1   -3.767157570169268E-1
 7.838932772175000E9     5.592596945469607E-1   -9.328800816411893E-2    2.349965953677060E-3    3.676599631338673E-3    2.349816139749142E-3    3.615951634591520E-3    3.859124118581043E-1   -3.783506490737495E-1
 7.838964965750000E9     5.590069857641882E-1   -9.537396007064021E-2    2.386104239993782E-3    3.655785353981716E-3    2.352496566481368E-3    3.600785677094161E-3    3.841910207911169E-1   -3.800327249445030E-1
 7.838997159325000E9     5.586336108672825E-1   -9.754244476986368E-2    2.404762975147628E-3    3.655602956479535E-3    2.371867247583465E-3    3.588647329539896E-3    3.826296243255096E-1   -3.815511859704998E-1
 7.839029352900000E9     5.583285852192053E-1   -9.967072400808802E-2    2.431485559222318E-3    3.656623386780568E-3    2.372019503551167E-3    3.592490203699757E-3    3.810459907612890E-1   -3.831784972192812E-1
 7.839061546475000E9     5.579111811674078E-1   -1.018236167574743E-1    2.463464748630420E-3    3.652623239778625E-3    2.407156410108830E-3    3.597768214477256E-3    3.795048119949296E-1   -3.847623371888757E-1
 7.839093740050000E9     5.575335806818804E-1   -1.039416850723172E-1    2.451557064560674E-3    3.643647184414965E-3    2.406294379570247E-3    3.579119293766470E-3    3.778800039413260E-1   -3.864125182132072E-1
 7.839125933625000E9     5.570665514500173E-1   -1.058781383974205E-1    2.481147739313109E-3    3.640530456063478E-3    2.450490164048326E-3    3.609080015999771E-3    3.762437786310708E-1   -3.878850603431622E-1
 7.839158127200000E9     5.566582449187734E-1   -1.080948618131075E-1    2.501987618235867E-3    3.648230193930314E-3    2.469199809793311E-3    3.589960723092008E-3    3.746604031019048E-1   -3.895042868533664E-1
 7.839190320775000E9     5.561118671880765E-1   -1.103631545147400E-1    2.536720167762224E-3    3.632913218814123E-3    2.488241548523944E-3    3.589673344668597E-3    3.729918754304912E-1   -3.910678205291870E-1
 7.839222514350000E9     5.558344348815070E-1   -1.124498639100041E-1    2.547931734961891E-3    3.633954958588798E-3    2.543070499718205E-3    3.574017728137457E-3    3.712396644232375E-1   -3.926227809796192E-1
 7.839254707925000E9     5.555031651709401E-1   -1.144751403147826E-1    2.568313661557723E-3    3.635764118345098E-3    2.562467610111466E-3    3.586266969304114E-3    3.697424815826748E-1   -3.943197470129999E-1
 7.839286901500000E9     5.548681502346193E-1   -1.166195455391480E-1    2.606532045678565E-3    3.651367287512941E-3    2.599048379664420E-3    3.561488374930195E-3    3.680967534213926E-1   -3.957431994183356E-1
 7.839319095075000E9     5.545458170513113E-1   -1.188003211749040E-1    2.625158526404158E-3    3.633092791665023E-3    2.581352901328428E-3    3.581505338029542E-3    3.665697188482851E-1   -3.972869223698149E-1
 7.839351288650000E9     5.541371046593545E-1   -1.206185704383280E-1    2.618311284707465E-3    3.631122447109670E-3    2.602299110198321E-3    3.559014457809612E-3    3.649139776942235E-1   -3.988399395965671E-1
 7.839383482225000E9     5.535953097212729E-1   -1.229405654026907E-1    2.680220502771610E-3    3.614609040656612E-3    2.644064780638651E-3    3.597206495660664E-3    3.631576381221624E-1   -4.003923735445417E-1
 7.839415675800000E9     5.532322477972741E-1   -1.250021071126804E-1    2.697788739366393E-3    3.637006147111992E-3    2.674262128794723E-3    3.609034943809020E-3    3.615489405451132E-1   -4.019756651327760E-1
 7.839447869375000E9     5.526503556567757E-1   -1.270833401547765E-1    2.722255134125688E-3    3.588257494365444E-3    2.718777089711892E-3    3.571675704679175E-3    3.598428555079586E-1   -4.034109299129292E-1
 7.839480062950000E9     5.522341749364592E-1   -1.291564517519892E-1    2.729899942652424E-3    3.610943776741837E-3    2.705295245963352E-3    3.526675748599998E-3    3.581765875180045E-1   -4.048108584756012E-1
 7.839512256525000E9     5.515320932191968E-1   -1.313595224643611E-1    2.762222742020374E-3    3.603127099096641E-3    2.711586065666179E-3    3.542717190580879E-3    3.564310834703280E-1   -4.064120830671074E-1
 7.839544450100000E9     5.511770101461320E-1   -1.334600362926376E-1    2.800698642391407E-3    3.570457499159342E-3    2.745849550026238E-3    3.569137261367239E-3    3.547602672858943E-1   -4.080348347794144E-1
 7.839576643675000E9     5.505938404350378E-1   -1.354321161011786E-1    2.823444123005676E-3    3.603934625417099E-3    2.775728756303894E-3    3.535856380873240E-3    3.530606528201116E-1   -4.094768225887261E-1
 7.839608837250000E9     5.500901705729037E-1   -1.377719274066073E-1    2.873783700543147E-3    3.614813122272469E-3    2.808897142493947E-3    3.554483367919925E-3    3.514051760609079E-1   -4.108657053533019E-1
 7.839641030825000E9     5.497617014080156E-1   -1.396802126871347E-1    2.876023229449413E-3    3.593312447955980E-3    2.850131774712509E-3    3.553887168718616E-3    3.495957064655508E-1   -4.123141100279052E-1
 7.839673224400000E9     5.491684534528642E-1   -1.418557321262267E-1    2.898455833855031E-3    3.587105580574727E-3    2.877998668320855E-3    3.573367425570825E-3    3.478502959638223E-1   -4.138306026195064E-1
 7.839705417975000E9     5.485069263384591E-1   -1.440109067442696E-1    2.930422518866156E-3    3.605594486811640E-3    2.864837691702581E-3    3.565116011819771E-3    3.462068367168807E-1   -4.152357853508416E-1
 7.839737611550000E9     5.479642863764833E-1   -1.460893406240554E-1    2.939295181858960E-3    3.550974308799272E-3    2.895515841741818E-3    3.563340339883065E-3    3.444675917456789E-1   -4.167394691674791E-1
 7.839769805125000E9     5.473108122888142E-1   -1.480599788653950E-1    2.986394014451101E-3    3.623036367327293E-3    2.922037269327093E-3    3.554838568934695E-3    3.426932024569810E-1   -4.180797187399709E-1
 7.839801998700000E9     5.468380806590448E-1   -1.502450185350061E-1    3.006063378293114E-3    3.597600237470163E-3    2.943386010991895E-3    3.578927666667581E-3    3.409779612151694E-1   -4.195415415514889E-1
 7.839834192275000E9     5.462978830685505E-1   -1.521843716163161E-1    3.025512365849322E-3    3.587097671186211E-3    2.998061157318330E-3    3.528969179708486E-3    3.392573539715674E-1   -4.210410855921289E-1
 7.839866385850000E9     5.456196193762389E-1   -1.544497980456224E-1    3.049855926973310E-3    3.578487363711861E-3    3.023708895977440E-3    3.556458260666313E-3    3.375133406819238E-1   -4.225048006488202E-1
 7.839898579425000E9     5.450238790755609E-1   -1.565238782934762E-1    3.091066499702600E-3    3.574436810109266E-3    3.055792460114009E-3    3.570126796842376E-3    3.356419168778350E-1   -4.238795748826773E-1
 7.839930773000000E9     5.443661356378090E-1   -1.585668733043936E-1    3.107394983997753E-3    3.566348638819873E-3    3.074044333394164E-3    3.553411170366075E-3    3.338326879466886E-1   -4.252233112347553E-1
 7.839962966575000E9     5.437682489540790E-1   -1.606982226034251E-1    3.139400692278451E-3    3.547402616687593E-3    3.071489867914081E-3    3.545394478232911E-3    3.322058944465299E-1   -4.267305285537554E-1
 7.839995160150000E9     5.432129840035782E-1   -1.627418098292020E-1    3.165115645305265E-3    3.554877651780378E-3    3.110176805040894E-3    3.542160302540526E-3    3.304228684127217E-1   -4.279476607967316E-1
 7.840027353725000E9     5.425193591090550E-1   -1.647466818308605E-1    3.190784428585596E-3    3.567745749357379E-3    3.141007086530202E-3    3.576362842465377E-3    3.284945085654722E-1   -4.294408686115511E-1
 7.840059547300000E9     5.418210034754813E-1   -1.668369411626092E-1    3.208044475123915E-3    3.554309208487992E-3    3.177812999631261E-3    3.522297222535120E-3    3.268638677484885E-1   -4.308978009699495E-1
 7.840091740875000E9     5.412769024531854E-1   -1.689044813295932E-1    3.261388161462197E-3    3.529863381954879E-3    3.244480642275172E-3    3.544126006987528E-3    3.250248937699991E-1   -4.322582271863962E-1
 7.840123934450000E9     5.405724453198080E-1   -1.710121885760692E-1    3.244078645671873E-3    3.560936315922750E-3    3.255521829954814E-3    3.534539902811372E-3    3.231158726675342E-1   -4.335503781341560E-1
 7.840156128025000E9     5.399443250134642E-1   -1.732065464105121E-1    3.323993693849977E-3    3.542091472941985E-3    3.268655880910033E-3    3.511091804180351E-3    3.213453253503420E-1   -4.349053975627475E-1
 7.840188321600000E9     5.392690492384231E-1   -1.752593386300819E-1    3.335029902384753E-3    3.542842844652179E-3    3.309633299675220E-3    3.521818792418914E-3    3.195384330803434E-1   -4.362746209046898E-1
 7.840220515175000E9     5.384607439260973E-1   -1.772491050095139E-1    3.365918923664940E-3    3.521884841567857E-3    3.328396797323938E-3    3.503850722386712E-3    3.178349401971203E-1   -4.375558639750940E-1
 7.840252708750000E9     5.378117663491341E-1   -1.793843034350789E-1    3.398068633087236E-3    3.548744312060212E-3    3.345800770752975E-3    3.514627228095708E-3    3.159997834345957E-1   -4.389640175524397E-1
