#  HZ   S   RI   R     50.00 
! Rohde & Schwarz Vector Network Analyzer 
! Rohde-Schwarz,ZNB20-2Port,1311601062101988,3.16
! Created: UTC 12/23/2023, 3:42:45 AM
! freq[Hz]                re:S11                  im:S11                  re:S21                  im:S21                  re:S12                  im:S12                  re:S22                  im:S22
 7.837285885000000E9     5.661952775537593E-1    1.633555628514585E-2    1.325199389492495E-3    3.733657408546905E-3    1.372110589559199E-3    3.697761677623062E-3    4.568654266556759E-1   -2.872307142553068E-1
 7.837318134950000E9     5.663100138203000E-1    1.428170885877144E-2    1.370258405959009E-3    3.767609306691867E-3    1.383937478024370E-3    3.650436423762321E-3    4.556076770758162E-1   -2.892659451317561E-1
 7.837350384900000E9     5.662868025898048E-1    1.210452118143431E-2    1.390037772215942E-3    3.747357031728674E-3    1.382111584775175E-3    3.645426309996665E-3    4.543830928699473E-1   -2.912205274224389E-1
 7.837382634850000E9     5.664298881807128E-1    9.830027398858946E-3    1.395688520415547E-3    3.739420696302213E-3    1.433226624004707E-3    3.664844653784352E-3    4.530975663809012E-1   -2.931480952504371E-1
 7.837414884800000E9     5.662896331882766E-1    7.815147180062230E-3    1.411122360162773E-3    3.736244011704832E-3    1.410300271235114E-3    3.679913278579141E-3    4.519662222928115E-1   -2.949162256085726E-1
 7.837447134750000E9     5.665188443067498E-1    5.635746786962290E-3    1.457554470788217E-3    3.724452565813868E-3    1.473990287819710E-3    3.674138736887973E-3    4.506561586424270E-1   -2.970818828925882E-1
 7.837479384700000E9     5.666339506289964E-1    3.409403391702336E-3    1.467494226694393E-3    3.733589040556151E-3    1.473149475142972E-3    3.676930808885452E-3    4.494911172762308E-1   -2.987319848848757E-1
 7.837511634650000E9     5.666563448957698E-1    1.445077038394158E-3    1.465338357420988E-3    3.730681736741455E-3    1.513769747573753E-3    3.657108146717988E-3    4.483948989932676E-1   -3.008102161935661E-1
 7.837543884600000E9     5.666529036051106E-1   -8.802641388330611E-4    1.470029962838452E-3    3.745124991951305E-3    1.521222341458147E-3    3.687323776637863E-3    4.469363885081064E-1   -3.025897954536585E-1
 7.837576134550000E9     5.665160653050191E-1   -2.956941368418623E-3    1.516271893594695E-3    3.768696630209607E-3    1.533743226181685E-3    3.672130643243493E-3    4.458265873905197E-1   -3.045328719328254E-1
 7.837608384500000E9     5.666108772766714E-1   -5.085749582104218E-3    1.535486406763452E-3    3.751824192882689E-3    1.562710357987797E-3    3.658142483399624E-3    4.446224794040324E-1   -3.064551274829186E-1
 7.837640634450000E9     5.667097599261631E-1   -7.415328704907826E-3    1.566507319861691E-3    3.746252719918686E-3    1.559917263534868E-3    3.674886096889673E-3    4.431919688920281E-1   -3.081439957157934E-1
 7.837672884400000E9     5.665291262552117E-1   -9.320323354204362E-3    1.583701318800296E-3    3.714052114195595E-3    1.609699845936622E-3    3.652083073592701E-3    4.420443210393723E-1   -3.100893902374450E-1
 7.837705134350000E9     5.664238584435465E-1   -1.150551849292449E-2    1.604793390530857E-3    3.710109305342653E-3    1.629794660929476E-3    3.674868181885720E-3    4.406790178077407E-1   -3.120676423736756E-1
 7.837737384300000E9     5.665227247280814E-1   -1.359524626335501E-2    1.609056809245529E-3    3.714283383415212E-3    1.595963757471799E-3    3.645670156623560E-3    4.392442922728464E-1   -3.137651521337225E-1
 7.837769634250000E9     5.663699581489384E-1   -1.589021191914248E-2    1.623256802718375E-3    3.721252089767496E-3    1.641524176875103E-3    3.659292106759402E-3    4.381577348065621E-1   -3.154870977105254E-1
 7.837801884200000E9     5.663795989944386E-1   -1.799825077389268E-2    1.651439612927556E-3    3.730182798615563E-3    1.684838405573711E-3    3.657226280468088E-3    4.368438762206289E-1   -3.175601130374823E-1
 7.837834134150000E9     5.662238808942590E-1   -2.004500054670188E-2    1.673774325293604E-3    3.758805196828645E-3    1.686424832283506E-3    3.644783950657935E-3    4.353488746492863E-1   -3.192558302176767E-1
 7.837866384100000E9     5.662589243906069E-1   -2.222189531864628E-2    1.674949585207873E-3    3.723884837043044E-3    1.671542111946437E-3    3.669373364446226E-3    4.340133430559406E-1   -3.211423948206937E-1
 7.837898634050000E9     5.660786936692874E-1   -2.443456139881309E-2    1.689487156213482E-3    3.705651671557443E-3    1.714476015465872E-3    3.680421401267291E-3    4.328313945800513E-1   -3.228048503077025E-1
 7.837930884000000E9     5.660425457417091E-1   -2.655179824426324E-2    1.744926546673135E-3    3.705639793810886E-3    1.722679202111631E-3    3.666410987374339E-3    4.313653042562759E-1   -3.245744044483517E-1
 7.837963133950000E9     5.660200978100446E-1   -2.869536282007521E-2    1.753431960382316E-3    3.723383888151906E-3    1.742173113937574E-3    3.673861215298290E-3    4.300263564243113E-1   -3.265366523989361E-1
 7.837995383900000E9     5.659369646484517E-1   -3.072897156068521E-2    1.774290898430086E-3    3.725803648779870E-3    1.765924659795055E-3    3.651617375706915E-3    4.286837580422774E-1   -3.283482081251242E-1
 7.838027633850000E9     5.656700863351948E-1   -3.301245657971231E-2    1.776357736748215E-3    3.726007244219266E-3    1.765100706776515E-3    3.654515292856840E-3    4.273493653086908E-1   -3.300956258382631E-1
 7.838059883800000E9     5.657149954265593E-1   -3.507587886108498E-2    1.815120254298375E-3    3.729666128219753E-3    1.794362370323784E-3    3.651308264307897E-3    4.259837392938228E-1   -3.318780269804408E-1
 7.838092133750000E9     5.655630026641362E-1   -3.734156279643733E-2    1.836811442034068E-3    3.707304757182113E-3    1.855560774156028E-3    3.671628582993768E-3    4.244367468855632E-1   -3.336601678386641E-1
 7.838124383700000E9     5.655243718091081E-1   -3.939812341674202E-2    1.851965757775568E-3    3.703150452678956E-3    1.830842574371130E-3    3.650408245567339E-3    4.231387647689276E-1   -3.355775711680829E-1
 7.838156633650000E9     5.653463659969969E-1   -4.160102642461246E-2    1.866719561787318E-3    3.694244197458417E-3    1.876808208061448E-3    3.639396010165538E-3    4.217537540719337E-1   -3.371400832107982E-1
 7.838188883600000E9     5.651559972633515E-1   -4.371616917372766E-2    1.866587549997107E-3    3.726921969148044E-3    1.869982004797586E-3    3.624579122273129E-3    4.202798782514155E-1   -3.390567855179766E-1
 7.838221133550000E9     5.649161207441705E-1   -4.578809747455407E-2    1.907055543950667E-3    3.725465240661471E-3    1.872574382608480E-3    3.643831211608731E-3    4.190214477999228E-1   -3.409151700054419E-1
 7.838253383500000E9     5.646714203118919E-1   -4.793474661568787E-2    1.916788833853000E-3    3.723221929244253E-3    1.935299159242410E-3    3.629977107375607E-3    4.175731452172166E-1   -3.426184371575807E-1
 7.838285633450000E9     5.646252444770183E-1   -5.012868765840815E-2    1.962050974539122E-3    3.703771018489429E-3    1.938836522467585E-3    3.631127283868359E-3    4.160598746308309E-1   -3.444783384130862E-1
 7.838317883400000E9     5.643824024182394E-1   -5.228281990272672E-2    1.965621068129426E-3    3.719954691453398E-3    1.933634998494931E-3    3.644413314012364E-3    4.148364605330749E-1   -3.461426665671700E-1
 7.838350133350000E9     5.641835990488012E-1   -5.445618796909281E-2    1.991313229212711E-3    3.706919722494482E-3    1.964997819635305E-3    3.667398906540296E-3    4.132086355875895E-1   -3.478318627301145E-1
 7.838382383300000E9     5.639529507916774E-1   -5.642990647690849E-2    1.991369056484348E-3    3.678394642106821E-3    1.977391330632678E-3    3.634567276253228E-3    4.117310666633364E-1   -3.495813497750596E-1
 7.838414633250000E9     5.638503416525599E-1   -5.880864001388936E-2    2.029811314148912E-3    3.682614434208065E-3    2.000254117628035E-3    3.626277013745144E-3    4.102486504958000E-1   -3.513579350759923E-1
 7.838446883200000E9     5.636351302596005E-1   -6.081377017633527E-2    2.047853516462612E-3    3.703692189483904E-3    2.019554085726073E-3    3.624546410401479E-3    4.088855746175957E-1   -3.531839303962798E-1
 7.838479133150000E9     5.633552728857081E-1   -6.294130684131163E-2    2.068517039208001E-3    3.716765221493230E-3    2.040486532861446E-3    3.637507813818924E-3    4.073054454546983E-1   -3.548343185632912E-1
 7.838511383100000E9     5.630156190745942E-1   -6.505378821630509E-2    2.078483217385187E-3    3.686853126154001E-3    2.081059889386675E-3    3.654309104747592E-3    4.058904997121132E-1   -3.564574592149875E-1
 7.838543633050000E9     5.627780753583296E-1   -6.725509328720279E-2    2.103721414404046E-3    3.695297648672219E-3    2.112201562677661E-3    3.632548001864440E-3    4.044141152964237E-1   -3.581233131366500E-1
 7.838575883000000E9     5.626970209054879E-1   -6.950161429991426E-2    2.143563254505593E-3    3.670408412608547E-3    2.093482693671976E-3    3.619513536234840E-3    4.027910992430533E-1   -3.598967560278669E-1
 7.838608132950000E9     5.624125604693985E-1   -7.166462085905397E-2    2.150205573365679E-3    3.687239625076105E-3    2.143654249574441E-3    3.621925324419926E-3    4.014142284680757E-1   -3.615156883442814E-1
 7.838640382900000E9     5.621446915576815E-1   -7.362345241604622E-2    2.191902914394717E-3    3.665973032214131E-3    2.157642845369297E-3    3.632863210930385E-3    3.998615269924569E-1   -3.633237483355770E-1
 7.838672632850000E9     5.618165070656453E-1   -7.587117209889208E-2    2.203405375453279E-3    3.678917161794081E-3    2.201031164982297E-3    3.662545245080209E-3    3.983775630707067E-1   -3.649430715846139E-1
 7.838704882800000E9     5.615160536950408E-1   -7.797656633354380E-2    2.222703366139710E-3    3.660485661445384E-3    2.179115952983385E-3    3.611808251064832E-3    3.968987345228001E-1   -3.666412954671142E-1
 7.838737132750000E9     5.612459992965203E-1   -8.014443122063152E-2    2.229455071270237E-3    3.685634046160054E-3    2.235478390023479E-3    3.657638977601384E-3    3.953041903781863E-1   -3.681686832459554E-1
 7.838769382700000E9     5.609575381307271E-1   -8.216360840527837E-2    2.267806977897053E-3    3.666416355605572E-3    2.216578146181446E-3    3.622790161695081E-3    3.937235261870079E-1   -3.697062003341751E-1
 7.838801632650000E9     5.606355724562413E-1   -8.434557517855296E-2    2.297065461171240E-3    3.672462594158235E-3    2.264903511806870E-3    3.623220078147937E-3    3.922517779915336E-1   -3.714990723504761E-1
 7.838833882600000E9     5.603608466799505E-1   -8.639103402233322E-2    2.292267941657300E-3    3.659049948386634E-3    2.281267345941243E-3    3.636825009073494E-3    3.906815664385045E-1   -3.730758497607227E-1
 7.838866132550000E9     5.600393637086809E-1   -8.872546386687898E-2    2.318483226027839E-3    3.663053221159144E-3    2.318089781963624E-3    3.608267394813245E-3    3.891480836925457E-1   -3.748734451297370E-1
 7.838898382500000E9     5.596817526883517E-1   -9.075528539699718E-2    2.342391207768778E-3    3.675874411229083E-3    2.338440699382180E-3    3.624090295427568E-3    3.876453139819098E-1   -3.765798879484856E-1
 7.838930632450000E9     5.592948864919495E-1   -9.289865707728193E-2    2.363773932217705E-3    3.653788296090464E-3    2.350026372976036E-3    3.608239399303358E-3    3.859895510297299E-1   -3.781660166122855E-1
 7.838962882400000E9     5.589598259210788E-1   -9.506397328122046E-2    2.384355883587303E-3    3.666305997878347E-3    2.370380938316281E-3    3.602041376786365E-3    3.843624533434244E-1   -3.795530565840023E-1
 7.838995132350000E9     5.585938215401143E-1   -9.716565849207801E-2    2.396456263067387E-3    3.661666556407136E-3    2.380250561537802E-3    3.592680091002019E-3    3.828006947313074E-1   -3.813640428826034E-1
 7.839027382300000E9     5.583570770044629E-1   -9.930902223061126E-2    2.454527430322328E-3    3.669906081442994E-3    2.413129335642093E-3    3.625225837271207E-3    3.811502225684355E-1   -3.829976881410181E-1
 7.839059632250000E9     5.578259365181949E-1   -1.013441617875530E-1    2.465000647067965E-3    3.654932587253132E-3    2.407753222047574E-3    3.613680451541700E-3    3.795311608255925E-1   -3.846000695788183E-1
 7.839091882200000E9     5.575521220216832E-1   -1.034681712464367E-1    2.482747127729663E-3    3.656099679839285E-3    2.470615096468897E-3    3.624979362707385E-3    3.779494128536576E-1   -3.861699554723992E-1
 7.839124132150000E9     5.570490489223014E-1   -1.056528793215167E-1    2.486173890256652E-3    3.662374855879882E-3    2.451072225209125E-3    3.632161349129079E-3    3.763895001957868E-1   -3.878040288134369E-1
 7.839156382100000E9     5.565806075497328E-1   -1.077797153209876E-1    2.503315127573715E-3    3.659764623000236E-3    2.495144480980929E-3    3.622204773131908E-3    3.748285500427666E-1   -3.893858337321703E-1
 7.839188632050000E9     5.563104409318752E-1   -1.098434871805218E-1    2.535162099562424E-3    3.658134493561543E-3    2.500485941316008E-3    3.607979836555485E-3    3.731321626364442E-1   -3.907761722237178E-1
 7.839220882000000E9     5.558194317274786E-1   -1.120579893240613E-1    2.588254358700600E-3    3.634499915659901E-3    2.546747637613112E-3    3.620298034872563E-3    3.716181361852818E-1   -3.925373513435872E-1
 7.839253131950000E9     5.554881615703808E-1   -1.140419144911026E-1    2.590057475920262E-3    3.636350542215891E-3    2.578698348496161E-3    3.617167972063350E-3    3.698255056794207E-1   -3.940405993528189E-1
 7.839285381900000E9     5.548508822983496E-1   -1.162155723207102E-1    2.610656300262430E-3    3.642007804551596E-3    2.599692268791449E-3    3.578618368806120E-3    3.682586902625206E-1   -3.955912842884055E-1
 7.839317631850000E9     5.545274116402116E-1   -1.184459690938429E-1    2.639773212231558E-3    3.625116136314197E-3    2.596245688407751E-3    3.616360698851181E-3    3.665917523725078E-1   -3.971353128412168E-1
 7.839349881800000E9     5.541242002248207E-1   -1.206571482188852E-1    2.665214511958122E-3    3.623868193295047E-3    2.642189320790253E-3    3.624874941934128E-3    3.648931185247758E-1   -3.985260087172188E-1
 7.839382131750000E9     5.536166882000620E-1   -1.225940131752148E-1    2.688727408268564E-3    3.644305501813070E-3    2.627915344863894E-3    3.550268772177179E-3    3.633322100535035E-1   -4.001299053735322E-1
 7.839414381700000E9     5.531655007612338E-1   -1.247052940166856E-1    2.701824983842712E-3    3.622901987145720E-3    2.691498500837993E-3    3.599976858676648E-3    3.617049207417499E-1   -4.017932367171476E-1
 7.839446631650000E9     5.527431693730583E-1   -1.268514311487919E-1    2.729628201263758E-3    3.632950040625333E-3    2.687115020431788E-3    3.569200642892032E-3    3.599496075955938E-1   -4.032991728913454E-1
 7.839478881600000E9     5.523030118655958E-1   -1.288543886943305E-1    2.786504093046636E-3    3.620763504608950E-3    2.725552594398586E-3    3.586670827907631E-3    3.582474068737959E-1   -4.047797939595459E-1
 7.839511131550000E9     5.517024197770211E-1   -1.309002622194608E-1    2.781604692461972E-3    3.606774014627476E-3    2.762905863413797E-3    3.596111695720896E-3    3.564351214960247E-1   -4.063184984608691E-1
 7.839543381500000E9     5.511361964840144E-1   -1.330356071059910E-1    2.840302931013888E-3    3.617532791801796E-3    2.773762550607247E-3    3.565475668238738E-3    3.548424715034159E-1   -4.078058110939101E-1
 7.839575631450000E9     5.506301034828979E-1   -1.351818385806335E-1    2.814413873902260E-3    3.615025445826649E-3    2.784042853727416E-3    3.611057617232228E-3    3.532083267781644E-1   -4.092594914692075E-1
 7.839607881400000E9     5.502152532197384E-1   -1.373377646450369E-1    2.856270438444000E-3    3.609303397125317E-3    2.846307297240806E-3    3.606693968978275E-3    3.513740480239341E-1   -4.107701495289944E-1
 7.839640131350000E9     5.496428840404981E-1   -1.395376895778870E-1    2.891434401549024E-3    3.606718804477042E-3    2.822060466927795E-3    3.548737701859690E-3    3.496249704818938E-1   -4.122216604994225E-1
 7.839672381300000E9     5.490825969474454E-1   -1.415044735296246E-1    2.888893630229730E-3    3.625975782592246E-3    2.887169943534411E-3    3.564855103859759E-3    3.480039685604181E-1   -4.136636146717467E-1
 7.839704631250000E9     5.484783885052809E-1   -1.436271803117762E-1    2.946819421658013E-3    3.604487005098500E-3    2.908940566549164E-3    3.548760229329729E-3    3.461389831936666E-1   -4.153030315673891E-1
 7.839736881200000E9     5.480159398340591E-1   -1.457016540899023E-1    2.966037824047519E-3    3.600936338884602E-3    2.970953100009259E-3    3.582611251802108E-3    3.446580078049716E-1   -4.165706974324153E-1
 7.839769131150000E9     5.473411817146134E-1   -1.478822162808195E-1    2.995749556693672E-3    3.598734895977407E-3    2.955996307089635E-3    3.538613320201837E-3    3.426550785465172E-1   -4.179681653546668E-1
 7.839801381100000E9     5.467446339509409E-1   -1.499261044677492E-1    3.025685258632808E-3    3.588997756539967E-3    2.968425967702209E-3    3.522756910239623E-3    3.409693022983371E-1   -4.194874280073750E-1
 7.839833631050000E9     5.462421731272439E-1   -1.520407286240245E-1    3.043852459086377E-3    3.585310869920413E-3    3.023769220854233E-3    3.566852623091703E-3    3.392906018623722E-1   -4.209327452751774E-1
 7.839865881000000E9     5.456746613293830E-1   -1.540950674065463E-1    3.094900092010775E-3    3.576614994750402E-3    3.043238419747396E-3    3.592229497349711E-3    3.374378925405071E-1   -4.224328746614480E-1
 7.839898130950000E9     5.450424651574878E-1   -1.563513801849253E-1    3.115243675185422E-3    3.571428242174123E-3    3.055199582058325E-3    3.561716374427182E-3    3.359365935887124E-1   -4.237369587850872E-1
 7.839930380900000E9     5.443675176112762E-1   -1.582881257021709E-1    3.142124687096244E-3    3.584692545583498E-3    3.092480554724497E-3    3.560680368840307E-3    3.341026411867398E-1   -4.250854550383671E-1
 7.839962630850000E9     5.437047450746468E-1   -1.603781604690383E-1    3.165269811716846E-3    3.583494731744576E-3    3.141389088061701E-3    3.564155518253005E-3    3.322660004559354E-1   -4.265913300235574E-1
 7.839994880800000E9     5.430915288699403E-1   -1.624731418307695E-1    3.212016255569860E-3    3.588496810045664E-3    3.137834765240375E-3    3.536424684278270E-3    3.304424405841793E-1   -4.278895200722689E-1
 7.840027130750000E9     5.426055920837133E-1   -1.645468954699459E-1    3.233566121433974E-3    3.570224556126967E-3    3.178697071067466E-3    3.560008633846284E-3    3.286637342378488E-1   -4.293656375169870E-1
 7.840059380700000E9     5.419291544413745E-1   -1.666110486163819E-1    3.247711762519912E-3    3.563422183415845E-3    3.199027987399946E-3    3.565127434492539E-3    3.269375072079476E-1   -4.308139107935308E-1
 7.840091630650000E9     5.411513321886956E-1   -1.687311973471873E-1    3.302514874293915E-3    3.567584977919865E-3    3.236248545578053E-3    3.541182613904027E-3    3.251555522393753E-1   -4.320759622555739E-1
 7.840123880600000E9     5.406002298772106E-1   -1.708072636717720E-1    3.294905360281803E-3    3.575724892056673E-3    3.266290634453030E-3    3.551926261636095E-3    3.233609613524291E-1   -4.334627425715670E-1
 7.840156130550000E9     5.399544587868570E-1   -1.727673399168883E-1    3.325509549109108E-3    3.570991298507017E-3    3.306606318935233E-3    3.538097096000529E-3    3.215240943620441E-1   -4.348847073859239E-1
 7.840188380500000E9     5.392086179843729E-1   -1.749197044916618E-1    3.346629613804864E-3    3.571411923018998E-3    3.313015103600937E-3    3.561294500906745E-3    3.196109471271601E-1   -4.362298915487486E-1
