#  HZ   S   RI   R     50.00 
! Rohde & Schwarz Vector Network Analyzer 
! Rohde-Schwarz,ZNB20-2Port,1311601062101988,3.16
! Created: UTC 12/23/2023, 3:48:17 AM
! freq[Hz]                re:S11                  im:S11                  re:S21                  im:S21                  re:S12                  im:S12                  re:S22                  im:S22
 1.000943665600000E+10  -3.943100478439032E-1    3.309686041074389E-1   -1.658531723402314E-2   -1.269926492195245E-2   -1.517886158275204E-2   -1.303196471400541E-2   -2.154768277091769E-1    4.708637512640641E-1
 1.000944997860000E+10  -3.934827357615500E-1    3.318310618063467E-1   -1.654914388553875E-2   -1.264621618766533E-2   -1.538958679894479E-2   -1.307807023366898E-2   -2.145458985916192E-1    4.711824078301902E-1
 1.000946330120000E+10  -3.928125538803026E-1    3.325376505024830E-1   -1.665751619332509E-2   -1.268671031363118E-2   -1.536089402605627E-2   -1.314113815388355E-2   -2.137975865757227E-1    4.716730119644574E-1
 1.000947662380000E+10  -3.921398905793355E-1    3.334283561375853E-1   -1.667126202707557E-2   -1.275841525495852E-2   -1.546405033723203E-2   -1.310452131810910E-2   -2.130013907924956E-1    4.718745442035995E-1
 1.000948994640000E+10  -3.914484399069583E-1    3.342087902085812E-1   -1.682404739457856E-2   -1.259312240480622E-2   -1.559319342330467E-2   -1.320469690675543E-2   -2.121649816926880E-1    4.724481527191511E-1
 1.000950326900000E+10  -3.907037001637558E-1    3.350368680398342E-1   -1.685191439563291E-2   -1.269182288975729E-2   -1.566462225409222E-2   -1.316025595856990E-2   -2.113453044550655E-1    4.726150335295231E-1
 1.000951659160000E+10  -3.900055055413741E-1    3.358176836971022E-1   -1.703224370356839E-2   -1.275593425611444E-2   -1.571092845571478E-2   -1.316457865537311E-2   -2.106021800086911E-1    4.731006378205964E-1
 1.000952991420000E+10  -3.892239078009005E-1    3.369095747425238E-1   -1.725528588232863E-2   -1.270280496658303E-2   -1.586599954886366E-2   -1.322774253159710E-2   -2.097676605078287E-1    4.734119764291995E-1
 1.000954323680000E+10  -3.885919757732936E-1    3.376920781686400E-1   -1.723348748132414E-2   -1.279023181185887E-2   -1.592586959128265E-2   -1.303600454520152E-2   -2.089880277564917E-1    4.738643209271834E-1
 1.000955655940000E+10  -3.878462847090836E-1    3.385217167095899E-1   -1.730118908000167E-2   -1.283204521254869E-2   -1.605428931456489E-2   -1.321587745063369E-2   -2.081972298215115E-1    4.742595787873387E-1
 1.000956988200000E+10  -3.871048999409879E-1    3.392588547808719E-1   -1.753905523879196E-2   -1.291818537733494E-2   -1.611530836547802E-2   -1.322919171889057E-2   -2.073626741655671E-1    4.746220405506534E-1
 1.000958320460000E+10  -3.864443582086710E-1    3.401290526392258E-1   -1.741618839690954E-2   -1.281547325193114E-2   -1.627263780338155E-2   -1.316786587954015E-2   -2.066440850541509E-1    4.750326750550327E-1
 1.000959652720000E+10  -3.857701510287647E-1    3.409354310641987E-1   -1.747692289862989E-2   -1.290835842626647E-2   -1.632024946020144E-2   -1.321128462162333E-2   -2.059099024013710E-1    4.753444472395206E-1
 1.000960984980000E+10  -3.849621049147734E-1    3.417655137712136E-1   -1.767211548918524E-2   -1.290808877693667E-2   -1.639912072230934E-2   -1.316044599436865E-2   -2.046964334300751E-1    4.757177138311862E-1
 1.000962317240000E+10  -3.842702227220812E-1    3.425488834214119E-1   -1.775272569432039E-2   -1.291423567734301E-2   -1.640348295014598E-2   -1.319110800744271E-2   -2.041585179525784E-1    4.761382271826010E-1
 1.000963649500000E+10  -3.836626311896049E-1    3.434488297328908E-1   -1.782225848115635E-2   -1.295273043155277E-2   -1.658937232838861E-2   -1.323008175213033E-2   -2.033102903597576E-1    4.765259228921961E-1
 1.000964981760000E+10  -3.827413419669085E-1    3.442736044822203E-1   -1.786060858766318E-2   -1.298387640051067E-2   -1.674952517805384E-2   -1.336709485775584E-2   -2.026267629843795E-1    4.768655057102476E-1
 1.000966314020000E+10  -3.820647915156211E-1    3.450591988658381E-1   -1.813058960667552E-2   -1.297930523059079E-2   -1.675309293027082E-2   -1.328932260157333E-2   -2.017760240373484E-1    4.771618532438235E-1
 1.000967646280000E+10  -3.813595387785742E-1    3.458328621667215E-1   -1.817134773134451E-2   -1.308202760850916E-2   -1.698732116790829E-2   -1.334225457647958E-2   -2.009539397950789E-1    4.774729938003288E-1
 1.000968978540000E+10  -3.807266645453073E-1    3.467287642747721E-1   -1.832977824678045E-2   -1.305668223665500E-2   -1.705055433935836E-2   -1.335417382934463E-2   -2.001355378743938E-1    4.779030920276672E-1
 1.000970310800000E+10  -3.798834820201643E-1    3.475290119980424E-1   -1.840227580868839E-2   -1.296847571331893E-2   -1.713957045867082E-2   -1.330912621382476E-2   -1.993725477501598E-1    4.782487076209428E-1
 1.000971643060000E+10  -3.792003281716054E-1    3.484292708623114E-1   -1.849541770529753E-2   -1.310507547590559E-2   -1.722053925008250E-2   -1.334946328093366E-2   -1.984798064105607E-1    4.786336588184553E-1
 1.000972975320000E+10  -3.784298874105576E-1    3.491437333870513E-1   -1.843931838077327E-2   -1.296205822352455E-2   -1.737897488238777E-2   -1.340713597163849E-2   -1.976667054233333E-1    4.790646365295145E-1
 1.000974307580000E+10  -3.777105909358779E-1    3.499763983066047E-1   -1.878004104690266E-2   -1.302386274556241E-2   -1.749005413399051E-2   -1.363251180014640E-2   -1.969280250285778E-1    4.793655326788789E-1
 1.000975639840000E+10  -3.768258363287477E-1    3.506558954357988E-1   -1.877753288304219E-2   -1.304217154073647E-2   -1.747909619735350E-2   -1.336124875252328E-2   -1.960722158235216E-1    4.796258961817733E-1
 1.000976972100000E+10  -3.760866522489457E-1    3.516684032223092E-1   -1.909582660553856E-2   -1.310986236865841E-2   -1.763637058986350E-2   -1.358815594659245E-2   -1.952416656639428E-1    4.799698554500978E-1
 1.000978304360000E+10  -3.753421294091410E-1    3.526045250819261E-1   -1.913044061909802E-2   -1.299207775508506E-2   -1.769268978238733E-2   -1.347155400745299E-2   -1.944726236458218E-1    4.803179015931116E-1
 1.000979636620000E+10  -3.745907206883450E-1    3.534416311883795E-1   -1.917589913516053E-2   -1.306211572024078E-2   -1.788166423788143E-2   -1.347631572230610E-2   -1.936012354936280E-1    4.807438469411405E-1
 1.000980968880000E+10  -3.737142988053129E-1    3.542654512366441E-1   -1.933439928982520E-2   -1.319432290279002E-2   -1.800449189314149E-2   -1.350905908338955E-2   -1.927825283840769E-1    4.811677770925567E-1
 1.000982301140000E+10  -3.729801926887740E-1    3.549472759037763E-1   -1.945161760109625E-2   -1.318301744575223E-2   -1.814451329863295E-2   -1.355117899112885E-2   -1.919056445228729E-1    4.813672720909537E-1
 1.000983633400000E+10  -3.721100827296677E-1    3.558544898246639E-1   -1.941534659835339E-2   -1.319015189747401E-2   -1.827726136756705E-2   -1.353893042052499E-2   -1.911666276409555E-1    4.818498773870005E-1
 1.000984965660000E+10  -3.713626814518682E-1    3.565279664449588E-1   -1.957349965696126E-2   -1.325275407756913E-2   -1.832453741740061E-2   -1.361127897080787E-2   -1.904263353742134E-1    4.821362257318293E-1
 1.000986297920000E+10  -3.706518335535586E-1    3.574770501759462E-1   -1.962645895730571E-2   -1.327473222817753E-2   -1.846819736942897E-2   -1.367080657312058E-2   -1.894113855830642E-1    4.824596051842280E-1
 1.000987630180000E+10  -3.697506558565476E-1    3.583275495840691E-1   -1.984253253598817E-2   -1.324295412509425E-2   -1.867382644744305E-2   -1.367204964224417E-2   -1.888314639949420E-1    4.827662534719604E-1
 1.000988962440000E+10  -3.687813197450628E-1    3.592367317294291E-1   -1.998238179656601E-2   -1.309149989155108E-2   -1.863416686075787E-2   -1.370923512060459E-2   -1.877601782894423E-1    4.831850777291489E-1
 1.000990294700000E+10  -3.682563377645713E-1    3.599431420900421E-1   -2.013515065756860E-2   -1.328832689181635E-2   -1.879704305612455E-2   -1.376922540372960E-2   -1.871660571965607E-1    4.835962520952577E-1
 1.000991626960000E+10  -3.673117346920575E-1    3.608129599400881E-1   -2.028590198550293E-2   -1.332817264314229E-2   -1.894886437251765E-2   -1.371519340765996E-2   -1.863219410790095E-1    4.837976088273293E-1
 1.000992959220000E+10  -3.665752337160163E-1    3.617824706085969E-1   -2.041931677773762E-2   -1.320885197754562E-2   -1.903457924731094E-2   -1.363497271344050E-2   -1.854359674322801E-1    4.840499987433549E-1
 1.000994291480000E+10  -3.655988938844665E-1    3.625193627061892E-1   -2.055108273907736E-2   -1.329979222858167E-2   -1.919263141392074E-2   -1.377226891738520E-2   -1.846860391132998E-1    4.844417569078772E-1
 1.000995623740000E+10  -3.648246584940570E-1    3.634724154228393E-1   -2.071998571976836E-2   -1.340422225846374E-2   -1.927592033529632E-2   -1.372197300743724E-2   -1.838525242230662E-1    4.847604558461056E-1
 1.000996956000000E+10  -3.640983793779058E-1    3.643525795901013E-1   -2.080517708313788E-2   -1.333492843443849E-2   -1.937932951904687E-2   -1.381638848111034E-2   -1.828106904850456E-1    4.850645388925749E-1
 1.000998288260000E+10  -3.630695921551955E-1    3.649353869992529E-1   -2.098076587309787E-2   -1.329475502253140E-2   -1.951552257018031E-2   -1.383716084679777E-2   -1.820608357071942E-1    4.854447962108852E-1
 1.000999620520000E+10  -3.624591556450984E-1    3.658556131930664E-1   -2.117374042384288E-2   -1.328370990609312E-2   -1.964414620269422E-2   -1.393066509051033E-2   -1.813300810669449E-1    4.857257193837646E-1
 1.001000952780000E+10  -3.615505174534877E-1    3.665360950335440E-1   -2.115612399194075E-2   -1.346559304307205E-2   -1.978440283215421E-2   -1.390360513205156E-2   -1.803590673028587E-1    4.860328047386475E-1
 1.001002285040000E+10  -3.606125104243841E-1    3.674233658018022E-1   -2.128865415770951E-2   -1.354807378996720E-2   -1.986025083772400E-2   -1.388542977225777E-2   -1.796150050896776E-1    4.862423077884325E-1
 1.001003617300000E+10  -3.598214806915408E-1    3.683251928716988E-1   -2.141157913246640E-2   -1.354559048154638E-2   -1.999115494046940E-2   -1.394686747425182E-2   -1.787385619775140E-1    4.867785161302133E-1
 1.001004949560000E+10  -3.589394473808039E-1    3.691219155222632E-1   -2.156985329790287E-2   -1.349885297892165E-2   -2.021667608377248E-2   -1.399272648525113E-2   -1.779842704537867E-1    4.869737747006688E-1
 1.001006281820000E+10  -3.580435374362990E-1    3.699836285343256E-1   -2.162709955840719E-2   -1.345671085345042E-2   -2.028201156269276E-2   -1.395309812419314E-2   -1.769921572756357E-1    4.873378997110514E-1
 1.001007614080000E+10  -3.570387013927740E-1    3.707759323612934E-1   -2.193337129364701E-2   -1.356629215062002E-2   -2.055389201217693E-2   -1.391637419705173E-2   -1.762811283584028E-1    4.877513893861103E-1
 1.001008946340000E+10  -3.563896951325196E-1    3.716742351045059E-1   -2.210329938951887E-2   -1.340308999465314E-2   -2.077408638380375E-2   -1.401615216189155E-2   -1.754268273828180E-1    4.880185467424836E-1
 1.001010278600000E+10  -3.554762345812080E-1    3.723848503538578E-1   -2.226591974186849E-2   -1.345166667583675E-2   -2.076390853009293E-2   -1.380348767235875E-2   -1.746373161716758E-1    4.883025851850084E-1
 1.001011610860000E+10  -3.544712285523453E-1    3.733270090977599E-1   -2.242979626123570E-2   -1.344789279565324E-2   -2.096267397783474E-2   -1.409703486193383E-2   -1.737763906505761E-1    4.884482739670054E-1
 1.001012943120000E+10  -3.535695671823618E-1    3.741392961746255E-1   -2.253822551214025E-2   -1.347451654318532E-2   -2.102194484495746E-2   -1.398734276804257E-2   -1.727907531736745E-1    4.890186133688058E-1
 1.001014275380000E+10  -3.526827720889529E-1    3.749850696982184E-1   -2.266507656852484E-2   -1.332971939350006E-2   -2.117407397983432E-2   -1.411231178471768E-2   -1.720287068228649E-1    4.893372843957310E-1
 1.001015607640000E+10  -3.518033746845736E-1    3.757891977939782E-1   -2.288414505891852E-2   -1.332255960389826E-2   -2.143286941008981E-2   -1.418949404445037E-2   -1.711449635041770E-1    4.894867653597088E-1
 1.001016939900000E+10  -3.508305285259612E-1    3.766193016670185E-1   -2.298711248526793E-2   -1.346389322750173E-2   -2.139371973468881E-2   -1.408947059051895E-2   -1.704336848237808E-1    4.899013512732051E-1
 1.001018272160000E+10  -3.498859321931849E-1    3.774233388325466E-1   -2.314348358616412E-2   -1.345151309257970E-2   -2.172086275925103E-2   -1.413918561481357E-2   -1.694462821151422E-1    4.901590665408998E-1
 1.001019604420000E+10  -3.489134545106916E-1    3.783598941198502E-1   -2.330613225745561E-2   -1.369911461727616E-2   -2.176734765048172E-2   -1.406585631808071E-2   -1.686796821494594E-1    4.903718045287715E-1
 1.001020936680000E+10  -3.480241895536930E-1    3.792630992423838E-1   -2.331471867069415E-2   -1.366489561654202E-2   -2.200642966803643E-2   -1.418945188894159E-2   -1.678510648944045E-1    4.906491762471667E-1
 1.001022268940000E+10  -3.470622657012897E-1    3.800644484121116E-1   -2.357768062036101E-2   -1.367427641629301E-2   -2.214293434201971E-2   -1.416683514298081E-2   -1.669191119004107E-1    4.909438394415732E-1
 1.001023601200000E+10  -3.460405346319269E-1    3.808321580904475E-1   -2.378412299950655E-2   -1.364535813657501E-2   -2.231916252303925E-2   -1.417821218863916E-2   -1.661430963448609E-1    4.913269788084136E-1
 1.001024933460000E+10  -3.451390947382996E-1    3.816329912101183E-1   -2.410286112613868E-2   -1.377605165811924E-2   -2.231019167923808E-2   -1.422450211797888E-2   -1.652171289363084E-1    4.916052777815713E-1
 1.001026265720000E+10  -3.441847141529005E-1    3.825456401249166E-1   -2.413596796822485E-2   -1.364784146503499E-2   -2.257476946436431E-2   -1.423645174125616E-2   -1.643615961012368E-1    4.918589928600708E-1
 1.001027597980000E+10  -3.431794796899342E-1    3.834332639088397E-1   -2.434865517025027E-2   -1.382726292843836E-2   -2.279509006635974E-2   -1.427712628329443E-2   -1.635349128000915E-1    4.922299377922439E-1
 1.001028930240000E+10  -3.422909073683568E-1    3.841560127480297E-1   -2.442598671083282E-2   -1.365756906819838E-2   -2.302644193264152E-2   -1.437761500179190E-2   -1.627217601930703E-1    4.924621202636943E-1
 1.001030262500000E+10  -3.412147941387347E-1    3.851099424319743E-1   -2.483359658250284E-2   -1.362479187731127E-2   -2.308502868946079E-2   -1.429401641739355E-2   -1.619138820757021E-1    4.926726524690210E-1
 1.001031594760000E+10  -3.401786180816190E-1    3.859637538598674E-1   -2.493916175686929E-2   -1.364086364221174E-2   -2.331719670986937E-2   -1.424671358622478E-2   -1.609444795466202E-1    4.930115089418527E-1
 1.001032927020000E+10  -3.392217625517852E-1    3.868009039313928E-1   -2.512199044547220E-2   -1.371579566578398E-2   -2.368947998508660E-2   -1.444842010865228E-2   -1.601229846239368E-1    4.933790862316215E-1
 1.001034259280000E+10  -3.381578843509671E-1    3.877577718552436E-1   -2.532148302570660E-2   -1.372716538986525E-2   -2.364315615226805E-2   -1.443887359949420E-2   -1.591865686904020E-1    4.936835038134816E-1
 1.001035591540000E+10  -3.371479403470813E-1    3.883961812124839E-1   -2.553443984253515E-2   -1.364802208692018E-2   -2.385682782084084E-2   -1.435218609296539E-2   -1.583472528562469E-1    4.938717130146427E-1
 1.001036923800000E+10  -3.361655007253886E-1    3.893336975967351E-1   -2.566545897162690E-2   -1.374876131139001E-2   -2.416567560187959E-2   -1.441385138905122E-2   -1.574921092503618E-1    4.940695453664116E-1
 1.001038256060000E+10  -3.351662467334297E-1    3.901569692440710E-1   -2.585120420146337E-2   -1.382486913287722E-2   -2.425755536535179E-2   -1.446778841980024E-2   -1.565059373129178E-1    4.943910144726045E-1
 1.001039588320000E+10  -3.341078163464916E-1    3.909903703395264E-1   -2.597290924537945E-2   -1.374746185295766E-2   -2.450361013601127E-2   -1.455516720059318E-2   -1.556010838202565E-1    4.947583140131820E-1
 1.001040920580000E+10  -3.328487796013533E-1    3.917912901923439E-1   -2.622540785841817E-2   -1.381865762986537E-2   -2.461747168151315E-2   -1.435936656717128E-2   -1.548228539247331E-1    4.950582702336613E-1
 1.001042252840000E+10  -3.319319941596118E-1    3.925643593599999E-1   -2.647573356447785E-2   -1.393101810108934E-2   -2.482447539350270E-2   -1.464873954682697E-2   -1.539331524043299E-1    4.953143234031124E-1
 1.001043585100000E+10  -3.309113155954644E-1    3.936349555687433E-1   -2.668193111020843E-2   -1.395478582857058E-2   -2.512500505863211E-2   -1.457306925624581E-2   -1.530135241318010E-1    4.955938050595741E-1
 1.001044917360000E+10  -3.296914430775635E-1    3.944219728131741E-1   -2.685396600872663E-2   -1.388604230879937E-2   -2.534193461466014E-2   -1.469887690773937E-2   -1.522799569227186E-1    4.958811109706252E-1
 1.001046249620000E+10  -3.286811584040557E-1    3.950666940252647E-1   -2.722493163406810E-2   -1.388952135910707E-2   -2.539934825706282E-2   -1.449260207273803E-2   -1.514091268484495E-1    4.961614083168596E-1
 1.001047581880000E+10  -3.275359955610523E-1    3.959826798458801E-1   -2.735053311554344E-2   -1.388276846277142E-2   -2.560833725340737E-2   -1.455908928967020E-2   -1.505995561270727E-1    4.962802267399583E-1
 1.001048914140000E+10  -3.265047804626440E-1    3.967968896259277E-1   -2.760635657829428E-2   -1.389136900609778E-2   -2.595911557552872E-2   -1.456220462694827E-2   -1.496899445036350E-1    4.966532407755596E-1
 1.001050246400000E+10  -3.253447087891067E-1    3.976728460567129E-1   -2.780412828480872E-2   -1.386087074979402E-2   -2.599315689776912E-2   -1.462585638019270E-2   -1.487865339402271E-1    4.969157954150522E-1
 1.001051578660000E+10  -3.242874197749717E-1    3.986057934957462E-1   -2.798814696800938E-2   -1.393503410204914E-2   -2.616321169615311E-2   -1.470169871677446E-2   -1.478359966768605E-1    4.972154014630294E-1
 1.001052910920000E+10  -3.230815973826784E-1    3.993154551579061E-1   -2.831555782819861E-2   -1.378128300045317E-2   -2.657219907306016E-2   -1.472099691515358E-2   -1.470812092438535E-1    4.973814227164828E-1
 1.001054243180000E+10  -3.218051809644017E-1    4.003573812789342E-1   -2.857602212926812E-2   -1.376484828862103E-2   -2.672086214715241E-2   -1.479654912413103E-2   -1.461873008802889E-1    4.975388981980469E-1
 1.001055575440000E+10  -3.207862902473056E-1    4.011398572440104E-1   -2.885628585852067E-2   -1.375680242003406E-2   -2.700235265022650E-2   -1.468689522705675E-2   -1.452277476086016E-1    4.979078731075108E-1
 1.001056907700000E+10  -3.195899287988223E-1    4.020234194701590E-1   -2.888970284261191E-2   -1.379439615235685E-2   -2.727350497767219E-2   -1.457837298440822E-2   -1.442916550047795E-1    4.982189984605852E-1
 1.001058239960000E+10  -3.184035167633019E-1    4.028785399506039E-1   -2.929370227509125E-2   -1.398780533467618E-2   -2.753076444245831E-2   -1.470302626465791E-2   -1.435001380979594E-1    4.985562039478924E-1
 1.001059572220000E+10  -3.171459431689106E-1    4.037915639787985E-1   -2.941713357750428E-2   -1.407207639208589E-2   -2.766051905967293E-2   -1.481328410527202E-2   -1.423906115976657E-1    4.986463200595032E-1
 1.001060904480000E+10  -3.158934518658181E-1    4.046379408924143E-1   -2.964963675599714E-2   -1.410568754185068E-2   -2.804310799076108E-2   -1.471546251299342E-2   -1.415843262308663E-1    4.989141031213459E-1
 1.001062236740000E+10  -3.147412385873421E-1    4.053828507725304E-1   -3.005255136583851E-2   -1.407184927409016E-2   -2.829286216164582E-2   -1.484730552375085E-2   -1.406318088654652E-1    4.990664078121346E-1
 1.001063569000000E+10  -3.135086587279868E-1    4.062250516163506E-1   -3.030846407216760E-2   -1.399850040360977E-2   -2.838868407997232E-2   -1.476362513817685E-2   -1.398298921149213E-1    4.994056090444171E-1
