#  HZ   S   RI   R     50.00 
! Rohde & Schwarz Vector Network Analyzer 
! Rohde-Schwarz,ZNB20-2Port,1311601062101988,3.16
! Created: UTC 12/23/2023, 3:49:46 AM
! freq[Hz]                re:S11                  im:S11                  re:S21                  im:S21                  re:S12                  im:S12                  re:S22                  im:S22
 1.000930064700000E+10  -4.003572445485671E-1    3.227542949234651E-1   -1.580570412476166E-2   -1.278369481279841E-2   -1.467910468076028E-2   -1.292409541397152E-2   -2.230514177989745E-1    4.669627814428618E-1
 1.000931445745000E+10  -3.997995437360483E-1    3.235125023403130E-1   -1.588381587302687E-2   -1.264561130482735E-2   -1.470197455675015E-2   -1.288863558214247E-2   -2.223150911319657E-1    4.674118295549435E-1
 1.000932826790000E+10  -3.990137181694037E-1    3.243949331553719E-1   -1.595551394560707E-2   -1.263875506973548E-2   -1.482439846906596E-2   -1.301452953664257E-2   -2.214771235332417E-1    4.677591235214523E-1
 1.000934207835000E+10  -3.985342749851501E-1    3.252818681609103E-1   -1.598874388685902E-2   -1.269381035514871E-2   -1.486494435909443E-2   -1.292837100403973E-2   -2.206565992105078E-1    4.681576269606843E-1
 1.000935588880000E+10  -3.977193259809167E-1    3.261684864495198E-1   -1.604256310164809E-2   -1.276949159180871E-2   -1.495091507230727E-2   -1.301791798237087E-2   -2.199955763408663E-1    4.683743957150032E-1
 1.000936969925000E+10  -3.970877359684801E-1    3.271373037785100E-1   -1.621512302275371E-2   -1.268956222493317E-2   -1.503186089268276E-2   -1.303431764778959E-2   -2.190953548905440E-1    4.690396690508389E-1
 1.000938350970000E+10  -3.964880899232671E-1    3.278794373412799E-1   -1.636880074768463E-2   -1.275247154931848E-2   -1.505110993460866E-2   -1.310088854004628E-2   -2.182576811164313E-1    4.694556451216125E-1
 1.000939732015000E+10  -3.956243477344384E-1    3.287504374993536E-1   -1.646698695137944E-2   -1.281039287953903E-2   -1.508873834819171E-2   -1.305985922986374E-2   -2.174342773110551E-1    4.698891528688344E-1
 1.000941113060000E+10  -3.950708463606389E-1    3.296826252646340E-1   -1.660179688069507E-2   -1.269035701107112E-2   -1.530174299790174E-2   -1.311512792220296E-2   -2.167262618952547E-1    4.702245768642814E-1
 1.000942494105000E+10  -3.941431019747167E-1    3.304995218134400E-1   -1.653007200950456E-2   -1.277053808193283E-2   -1.538149523328913E-2   -1.315075968623531E-2   -2.158449012062915E-1    4.706426171806846E-1
 1.000943875150000E+10  -3.934960833699635E-1    3.313112642178366E-1   -1.659403588169979E-2   -1.278036020775238E-2   -1.554706678931471E-2   -1.314978663057534E-2   -2.149325815405915E-1    4.709246554874839E-1
 1.000945256195000E+10  -3.927859583573343E-1    3.322819904169632E-1   -1.686655183128673E-2   -1.283629941716386E-2   -1.563057231606052E-2   -1.303920751909872E-2   -2.142367874936603E-1    4.713780748396562E-1
 1.000946637240000E+10  -3.921192947443494E-1    3.331179650338889E-1   -1.689474314709428E-2   -1.274944746970522E-2   -1.566058226095464E-2   -1.307363698041753E-2   -2.133137322759325E-1    4.717870668991236E-1
 1.000948018285000E+10  -3.913572316733767E-1    3.338573431688345E-1   -1.700889836753841E-2   -1.282081862142253E-2   -1.569473992298452E-2   -1.325750693778528E-2   -2.124238944560186E-1    4.720814449069528E-1
 1.000949399330000E+10  -3.907314824582689E-1    3.348029226299191E-1   -1.704555613824817E-2   -1.279454634038602E-2   -1.578959957129361E-2   -1.326123003446249E-2   -2.118194036165806E-1    4.725523276747853E-1
 1.000950780375000E+10  -3.899197412162768E-1    3.358599035888001E-1   -1.712844146929914E-2   -1.302425483434726E-2   -1.585799952666780E-2   -1.328045351673469E-2   -2.108835989355720E-1    4.730196105288296E-1
 1.000952161420000E+10  -3.893399321329202E-1    3.365713858143241E-1   -1.722164470464323E-2   -1.281542731173313E-2   -1.610816121920500E-2   -1.330690869705914E-2   -2.101389211769213E-1    4.733010764727291E-1
 1.000953542465000E+10  -3.884149003590529E-1    3.374018652613541E-1   -1.733786038187265E-2   -1.298055704599884E-2   -1.611369274069616E-2   -1.319480892044649E-2   -2.092094589804155E-1    4.736812556798078E-1
 1.000954923510000E+10  -3.877407976197699E-1    3.382077362762677E-1   -1.745641347140426E-2   -1.292500925405180E-2   -1.628943870074533E-2   -1.333824247075138E-2   -2.084731989701056E-1    4.740766202734692E-1
 1.000956304555000E+10  -3.869336955606287E-1    3.391640291837053E-1   -1.752684707479406E-2   -1.308584369139893E-2   -1.618154277263004E-2   -1.344480429274687E-2   -2.075998581294997E-1    4.744843289747497E-1
 1.000957685600000E+10  -3.862458334721683E-1    3.400793012650014E-1   -1.748469253187103E-2   -1.294368537947633E-2   -1.645084736362709E-2   -1.320978154328112E-2   -2.067562642985695E-1    4.749099406508601E-1
 1.000959066645000E+10  -3.856606265564921E-1    3.408380045291503E-1   -1.774388377562621E-2   -1.299269810342734E-2   -1.656577865309789E-2   -1.322910068352240E-2   -2.059152387750805E-1    4.751019422821697E-1
 1.000960447690000E+10  -3.846755617254264E-1    3.416966904842302E-1   -1.781447605127416E-2   -1.299691129007017E-2   -1.662912732180101E-2   -1.318413044701547E-2   -2.050816201874319E-1    4.756837435401014E-1
 1.000961828735000E+10  -3.839250321938166E-1    3.425755518486918E-1   -1.782257059065286E-2   -1.307840412528800E-2   -1.672377510260235E-2   -1.342018408757490E-2   -2.042897853377199E-1    4.759943929493913E-1
 1.000963209780000E+10  -3.831493426324584E-1    3.434398676880208E-1   -1.807900562950826E-2   -1.292508369517663E-2   -1.684491096933499E-2   -1.335544479576636E-2   -2.034860886346762E-1    4.763090210547162E-1
 1.000964590825000E+10  -3.825075730378054E-1    3.443600816946442E-1   -1.836727752418441E-2   -1.291848934323822E-2   -1.698592686970661E-2   -1.346884006422728E-2   -2.026387740777256E-1    4.766901714942276E-1
 1.000965971870000E+10  -3.817187978584335E-1    3.451259881264900E-1   -1.831382880453028E-2   -1.295987965767037E-2   -1.692237927493789E-2   -1.340112599039419E-2   -2.017108725071794E-1    4.770534536638294E-1
 1.000967352915000E+10  -3.809287474790650E-1    3.460328477126557E-1   -1.837463956885161E-2   -1.308635536394202E-2   -1.711862741402871E-2   -1.343958214228775E-2   -2.005989903927080E-1    4.775099110196487E-1
 1.000968733960000E+10  -3.801501394413203E-1    3.469397696338421E-1   -1.850817613818384E-2   -1.303919950826987E-2   -1.729159685621215E-2   -1.354083438672231E-2   -2.000876757192302E-1    4.777961255960377E-1
 1.000970115005000E+10  -3.792949402074652E-1    3.477220788009930E-1   -1.860008934196582E-2   -1.313682737607483E-2   -1.752786591495960E-2   -1.345244621594229E-2   -1.992984291629593E-1    4.783398284694363E-1
 1.000971496050000E+10  -3.785067225076144E-1    3.486346600776934E-1   -1.869564449290829E-2   -1.320168445200942E-2   -1.754961079722404E-2   -1.354327213137708E-2   -1.984107846458643E-1    4.785911442393931E-1
 1.000972877095000E+10  -3.777850894799035E-1    3.493644914888137E-1   -1.891935972245311E-2   -1.322040540079694E-2   -1.759822362453263E-2   -1.358197918010395E-2   -1.974408442179164E-1    4.789021376238209E-1
 1.000974258140000E+10  -3.769453994630571E-1    3.502492722729266E-1   -1.894181467691287E-2   -1.317295160513761E-2   -1.764508364190623E-2   -1.339233518350517E-2   -1.967367019754573E-1    4.793698603150151E-1
 1.000975639185000E+10  -3.762609852938597E-1    3.512303141376855E-1   -1.903461928143664E-2   -1.333643821226674E-2   -1.781359167563664E-2   -1.338479854435874E-2   -1.957909740349291E-1    4.797758813928481E-1
 1.000977020230000E+10  -3.753433270898595E-1    3.521280659381388E-1   -1.929308884190204E-2   -1.315343895628389E-2   -1.786657923359858E-2   -1.352379540608888E-2   -1.949370297634515E-1    4.800140411118841E-1
 1.000978401275000E+10  -3.745760217288898E-1    3.530095235024768E-1   -1.943265854183004E-2   -1.324497013873460E-2   -1.793064267726399E-2   -1.366453173846644E-2   -1.942009579938533E-1    4.803828960251738E-1
 1.000979782320000E+10  -3.737252533953253E-1    3.538038433311372E-1   -1.932425319493371E-2   -1.315736251742221E-2   -1.816410427253917E-2   -1.358287672185149E-2   -1.932518384233813E-1    4.808986999806377E-1
 1.000981163365000E+10  -3.729346413479347E-1    3.546937468063864E-1   -1.965082134481406E-2   -1.323952907540771E-2   -1.820813768124372E-2   -1.370881358743993E-2   -1.923819903472926E-1    4.813279551770800E-1
 1.000982544410000E+10  -3.720811890519727E-1    3.555900020828683E-1   -1.965896011744575E-2   -1.314894988111889E-2   -1.837460112347311E-2   -1.361823051544007E-2   -1.916160314194522E-1    4.814462376279623E-1
 1.000983925455000E+10  -3.713990237451454E-1    3.563669862444601E-1   -1.995639613755151E-2   -1.320185362668540E-2   -1.864270867115354E-2   -1.369239575625933E-2   -1.906586479179795E-1    4.818485080895009E-1
 1.000985306500000E+10  -3.703636520645130E-1    3.571633935137687E-1   -1.997420794083249E-2   -1.309577316440592E-2   -1.869971340904081E-2   -1.372127382912612E-2   -1.899355524825383E-1    4.821020150067800E-1
 1.000986687545000E+10  -3.696700182438160E-1    3.580397892261036E-1   -2.016364082855079E-2   -1.326591374427191E-2   -1.874675248891105E-2   -1.367342803780479E-2   -1.890295858160503E-1    4.826580381487728E-1
 1.000988068590000E+10  -3.688063752198464E-1    3.589005027438597E-1   -2.026014422803573E-2   -1.324575159811903E-2   -1.886558611777216E-2   -1.361078857326608E-2   -1.883016535738873E-1    4.828339461212373E-1
 1.000989449635000E+10  -3.678185114420623E-1    3.597898927816233E-1   -2.040881624548776E-2   -1.333627526070464E-2   -1.905892203238262E-2   -1.371420204210376E-2   -1.874146720144865E-1    4.832706341950151E-1
 1.000990830680000E+10  -3.671305251019563E-1    3.607513342858731E-1   -2.040032761205320E-2   -1.340835467342930E-2   -1.912928330137605E-2   -1.383236101512385E-2   -1.864921733625498E-1    4.835491612670829E-1
 1.000992211725000E+10  -3.662341398875512E-1    3.616626645512367E-1   -2.049157471168179E-2   -1.337964114690157E-2   -1.925198039962562E-2   -1.375821830514007E-2   -1.856625845183633E-1    4.840390829411108E-1
 1.000993592770000E+10  -3.652257979150577E-1    3.623741161228275E-1   -2.062509970488128E-2   -1.337182120677058E-2   -1.937486914173458E-2   -1.375488294157238E-2   -1.846980495504688E-1    4.843028627246541E-1
 1.000994973815000E+10  -3.643903851674353E-1    3.632518000198484E-1   -2.088333392059177E-2   -1.333511986729988E-2   -1.955283430187061E-2   -1.383760337833292E-2   -1.838151828999286E-1    4.846420646002782E-1
 1.000996354860000E+10  -3.636550331423331E-1    3.641042096141028E-1   -2.108682383686265E-2   -1.329368996311159E-2   -1.971917577695264E-2   -1.383214002264945E-2   -1.831252561760843E-1    4.849376510380661E-1
 1.000997735905000E+10  -3.625871059947580E-1    3.650607915250763E-1   -2.129226896889047E-2   -1.333598799275422E-2   -1.982456208685638E-2   -1.388615014922167E-2   -1.821911756651298E-1    4.852912763419172E-1
 1.000999116950000E+10  -3.619196765130752E-1    3.657473051891451E-1   -2.126352096201078E-2   -1.328137916127283E-2   -1.996687470016267E-2   -1.387822505946062E-2   -1.814149735540488E-1    4.856221341134381E-1
 1.001000497995000E+10  -3.610404188147664E-1    3.668140756023399E-1   -2.160067461287508E-2   -1.329451622483839E-2   -2.020647211604840E-2   -1.388166761637226E-2   -1.803771898087912E-1    4.859353881282508E-1
 1.001001879040000E+10  -3.600756977809117E-1    3.675128407414519E-1   -2.167535931710221E-2   -1.333864934700566E-2   -2.019154249285548E-2   -1.391391469505118E-2   -1.796097012909721E-1    4.863631119017264E-1
 1.001003260085000E+10  -3.591073842650067E-1    3.684118257141477E-1   -2.180713710206274E-2   -1.335708281436677E-2   -2.036085902996682E-2   -1.400291983798282E-2   -1.785773811188153E-1    4.866680040714795E-1
 1.001004641130000E+10  -3.582249238586570E-1    3.692680806285762E-1   -2.200347950055723E-2   -1.339760791225588E-2   -2.045475973450490E-2   -1.400144361302206E-2   -1.779499447881867E-1    4.869922188932022E-1
 1.001006022175000E+10  -3.572570959938409E-1    3.701020507650234E-1   -2.210784033087328E-2   -1.350326530675425E-2   -2.064379071881420E-2   -1.408062197234946E-2   -1.769879022824303E-1    4.871643998990780E-1
 1.001007403220000E+10  -3.563099711133083E-1    3.709813006625355E-1   -2.228921262740055E-2   -1.353893808692033E-2   -2.075845445035043E-2   -1.396277288034425E-2   -1.761304731536756E-1    4.875033594955421E-1
 1.001008784265000E+10  -3.553245237751529E-1    3.720199328907214E-1   -2.234885775145270E-2   -1.354356218969313E-2   -2.099766460120473E-2   -1.407386890384139E-2   -1.752494115025671E-1    4.879412226556440E-1
 1.001010165310000E+10  -3.546252233699901E-1    3.728486046857097E-1   -2.263191657291305E-2   -1.353300845140067E-2   -2.115733901132587E-2   -1.399742647909795E-2   -1.743902738277848E-1    4.882522906634039E-1
 1.001011546355000E+10  -3.536794391007259E-1    3.736240337363155E-1   -2.256978467854709E-2   -1.358276017978801E-2   -2.129787178282510E-2   -1.407302812692113E-2   -1.735109443265487E-1    4.884225844980943E-1
 1.001012927400000E+10  -3.525857745429233E-1    3.744074994777662E-1   -2.280353304609961E-2   -1.356565896240864E-2   -2.141006906266077E-2   -1.405534890682980E-2   -1.727008278753023E-1    4.889431630282040E-1
 1.001014308445000E+10  -3.516570162810245E-1    3.754581554398851E-1   -2.299495501974162E-2   -1.369556636731980E-2   -2.159682768254045E-2   -1.409400332668073E-2   -1.716930304822448E-1    4.891330044498722E-1
 1.001015689490000E+10  -3.507330833644660E-1    3.762649754820817E-1   -2.328951462479263E-2   -1.370573626237023E-2   -2.176427139157139E-2   -1.409285162016855E-2   -1.708440226147327E-1    4.895158680520307E-1
 1.001017070535000E+10  -3.496824636929950E-1    3.772014653274091E-1   -2.343354029497432E-2   -1.371786081415309E-2   -2.192575244098824E-2   -1.421615792426040E-2   -1.699546379761584E-1    4.898021768653915E-1
 1.001018451580000E+10  -3.488220059589637E-1    3.780578561746156E-1   -2.362298204354099E-2   -1.368276618522985E-2   -2.213776785947813E-2   -1.412826964533285E-2   -1.691008381811462E-1    4.902300567714871E-1
 1.001019832625000E+10  -3.477260007851689E-1    3.788964205834309E-1   -2.375128102929043E-2   -1.366329563177563E-2   -2.230965207351715E-2   -1.415824503362488E-2   -1.681412460582342E-1    4.904839625843765E-1
 1.001021213670000E+10  -3.467289745857551E-1    3.796494118213417E-1   -2.394292673803370E-2   -1.352827464816058E-2   -2.250159752338871E-2   -1.418026520210515E-2   -1.673171586971015E-1    4.908162656207328E-1
 1.001022594715000E+10  -3.458074977557856E-1    3.807351106866648E-1   -2.415852532800394E-2   -1.367027340667678E-2   -2.263015439352597E-2   -1.433619585655413E-2   -1.663898551964068E-1    4.911576287344766E-1
 1.001023975760000E+10  -3.446615846372190E-1    3.815537582199136E-1   -2.440214318009450E-2   -1.369982321622875E-2   -2.277697575012015E-2   -1.422638794217854E-2   -1.656325136136242E-1    4.914828980673013E-1
 1.001025356805000E+10  -3.436971433440134E-1    3.823818418893591E-1   -2.451902383037761E-2   -1.373203300550417E-2   -2.289720414753268E-2   -1.421681154816013E-2   -1.647013932058144E-1    4.917123351193563E-1
 1.001026737850000E+10  -3.427572643144532E-1    3.832936876751195E-1   -2.473043613792514E-2   -1.370860090445202E-2   -2.313232384905399E-2   -1.425762374521596E-2   -1.638547717078904E-1    4.920809692681314E-1
 1.001028118895000E+10  -3.415769850239535E-1    3.841432695575245E-1   -2.484514539330178E-2   -1.373630466808916E-2   -2.324571495396380E-2   -1.423755693129083E-2   -1.629116954728370E-1    4.923958412836508E-1
 1.001029499940000E+10  -3.406143996307701E-1    3.848922189710874E-1   -2.508799868245392E-2   -1.378629806186278E-2   -2.366133500124553E-2   -1.428734830685962E-2   -1.620650536080026E-1    4.926571444954885E-1
 1.001030880985000E+10  -3.395330055791966E-1    3.858667643767436E-1   -2.520737161635283E-2   -1.392579101793080E-2   -2.366922128026300E-2   -1.434080404120662E-2   -1.610710375386857E-1    4.928859310243270E-1
 1.001032262030000E+10  -3.385854949303574E-1    3.865913984485321E-1   -2.535083271862421E-2   -1.395352724435070E-2   -2.394193507470293E-2   -1.441759902277696E-2   -1.600897105920774E-1    4.932994937014590E-1
 1.001033643075000E+10  -3.374733816942258E-1    3.876573458574520E-1   -2.582894932102031E-2   -1.379383167823058E-2   -2.389768782284676E-2   -1.444077188400673E-2   -1.594100863288327E-1    4.934972035857415E-1
 1.001035024120000E+10  -3.363560789580785E-1    3.884515180549864E-1   -2.578113748293715E-2   -1.392320552546171E-2   -2.420877663537258E-2   -1.463000882058538E-2   -1.583070986929276E-1    4.938865011935303E-1
 1.001036405165000E+10  -3.353054958263295E-1    3.893757605784731E-1   -2.602969938259392E-2   -1.386607827915501E-2   -2.441438724674021E-2   -1.466732823058835E-2   -1.575295629816965E-1    4.941029813081992E-1
 1.001037786210000E+10  -3.341343172516302E-1    3.901280002294863E-1   -2.621595569230419E-2   -1.377305698173860E-2   -2.476219992813577E-2   -1.457184485699482E-2   -1.566924648017522E-1    4.942897515167383E-1
 1.001039167255000E+10  -3.330637155146536E-1    3.911419480437654E-1   -2.646610035918665E-2   -1.373375041792918E-2   -2.489501250749418E-2   -1.454733535702019E-2   -1.557213210282117E-1    4.946298159582109E-1
 1.001040548300000E+10  -3.320125831119404E-1    3.920041659743339E-1   -2.682392249774326E-2   -1.379414318021558E-2   -2.511189359146818E-2   -1.452361320910003E-2   -1.546922770493696E-1    4.950308163196261E-1
 1.001041929345000E+10  -3.308211034602832E-1    3.929600316987434E-1   -2.710847164147792E-2   -1.375811385873749E-2   -2.535962715513593E-2   -1.444913993466115E-2   -1.537963852432136E-1    4.952365384876315E-1
 1.001043310390000E+10  -3.296280881114109E-1    3.936569058633236E-1   -2.725089762130755E-2   -1.383805232588953E-2   -2.552633073805178E-2   -1.463089252044512E-2   -1.528599112184066E-1    4.955125710581666E-1
 1.001044691435000E+10  -3.286254546199717E-1    3.946222862065494E-1   -2.760680527637454E-2   -1.380396461496860E-2   -2.584610371872239E-2   -1.468034448047426E-2   -1.520644149978725E-1    4.957019897118474E-1
 1.001046072480000E+10  -3.275021292091189E-1    3.955096023187260E-1   -2.762614258877402E-2   -1.380545530384356E-2   -2.590524990261350E-2   -1.474040077460543E-2   -1.512218767038182E-1    4.959930549375255E-1
 1.001047453525000E+10  -3.262431969193144E-1    3.963404887491326E-1   -2.786081803742176E-2   -1.378234605734979E-2   -2.618009036542259E-2   -1.467960293255356E-2   -1.502606447213585E-1    4.963787571392664E-1
 1.001048834570000E+10  -3.249805836402723E-1    3.973230186564517E-1   -2.814405377666423E-2   -1.390913354551932E-2   -2.644041238861185E-2   -1.466885277295277E-2   -1.493287515694917E-1    4.966220927204816E-1
 1.001050215615000E+10  -3.238110487661611E-1    3.981324400258519E-1   -2.829286671371479E-2   -1.389166418257604E-2   -2.650913500256302E-2   -1.468804752080575E-2   -1.485821906955203E-1    4.968437344780127E-1
 1.001051596660000E+10  -3.226177577127159E-1    3.990107051119759E-1   -2.861647853409290E-2   -1.412581857677218E-2   -2.695732327921926E-2   -1.470368934417247E-2   -1.474691041454478E-1    4.970990469740017E-1
 1.001052977705000E+10  -3.214051481648640E-1    4.000342018721842E-1   -2.880951445234698E-2   -1.397040949542671E-2   -2.708673901209348E-2   -1.463996636730769E-2   -1.466272943318200E-1    4.974915636408083E-1
 1.001054358750000E+10  -3.201921839320746E-1    4.008200771307706E-1   -2.916728519720110E-2   -1.395974006758329E-2   -2.753544597042824E-2   -1.479281624700259E-2   -1.456165777525238E-1    4.976309329467989E-1
