#  HZ   S   RI   R     50.00 
! Rohde & Schwarz Vector Network Analyzer 
! Rohde-Schwarz,ZNB20-2Port,1311601062101988,3.16
! Created: UTC 12/23/2023, 3:56:17 AM
! freq[Hz]                re:S11                  im:S11                  re:S21                  im:S21                  re:S12                  im:S12                  re:S22                  im:S22
 1.000988482600000E+10  -3.723547262569030E-1    3.570694884628408E-1   -1.906954635709873E-2   -1.285626859984546E-2   -1.743003624995884E-2   -1.332195880231844E-2   -1.889645234040028E-1    4.829096074803843E-1
 1.000989662605000E+10  -3.717186642964614E-1    3.579053133024619E-1   -1.909859914791032E-2   -1.287019335212097E-2   -1.766922456090414E-2   -1.331773291604451E-2   -1.882572373980532E-1    4.832443861485736E-1
 1.000990842610000E+10  -3.708849623343708E-1    3.585156227657979E-1   -1.909096106648887E-2   -1.288031433018923E-2   -1.774156468583999E-2   -1.321446452873568E-2   -1.873639769583886E-1    4.835875111154798E-1
 1.000992022615000E+10  -3.702853467683184E-1    3.592010512201890E-1   -1.918938858025328E-2   -1.294672374861570E-2   -1.781980896198470E-2   -1.337976795324745E-2   -1.868000727297561E-1    4.836978831482007E-1
 1.000993202620000E+10  -3.695238570765051E-1    3.601953531739331E-1   -1.936934382002840E-2   -1.293288535121966E-2   -1.789783739819773E-2   -1.352633271724242E-2   -1.859521899804429E-1    4.842317662905972E-1
 1.000994382625000E+10  -3.688370132811950E-1    3.608040717453360E-1   -1.940389150645487E-2   -1.289615196192465E-2   -1.798828249120672E-2   -1.348614264912776E-2   -1.852654732990497E-1    4.844612971412692E-1
 1.000995562630000E+10  -3.681079557579163E-1    3.615163373418280E-1   -1.947676924733231E-2   -1.294894027123188E-2   -1.812588249588241E-2   -1.351942992132251E-2   -1.845795863974100E-1    4.847106598293688E-1
 1.000996742635000E+10  -3.673726581494070E-1    3.621664255301632E-1   -1.956870407205673E-2   -1.296841280572905E-2   -1.827622353030407E-2   -1.358255266805776E-2   -1.836977146040865E-1    4.849616896813108E-1
 1.000997922640000E+10  -3.667212977770492E-1    3.629345177917817E-1   -1.962749933633963E-2   -1.307252076532405E-2   -1.841730039270873E-2   -1.354721807794758E-2   -1.830246308225726E-1    4.852486812771076E-1
 1.000999102645000E+10  -3.660480407797294E-1    3.636613318088099E-1   -1.990289582171904E-2   -1.295760078164369E-2   -1.841974442071742E-2   -1.362287021684410E-2   -1.824292632503736E-1    4.856381957979121E-1
 1.001000282650000E+10  -3.652807575240198E-1    3.643272053769846E-1   -2.002369046217926E-2   -1.302605363929638E-2   -1.854429775662915E-2   -1.356970204413301E-2   -1.816893179802394E-1    4.859108147170556E-1
 1.001001462655000E+10  -3.644817004862154E-1    3.652488115283355E-1   -2.012067800054140E-2   -1.308054440531633E-2   -1.866510397027977E-2   -1.355276222844810E-2   -1.809096294103522E-1    4.860924956996251E-1
 1.001002642660000E+10  -3.637719707208721E-1    3.658255977419569E-1   -2.005024801782333E-2   -1.300220522223381E-2   -1.872506376794865E-2   -1.358750966051666E-2   -1.800570009189737E-1    4.865569948563486E-1
 1.001003822665000E+10  -3.630681560059463E-1    3.665929903617663E-1   -2.024561923588323E-2   -1.306363482833212E-2   -1.893763840291202E-2   -1.361678602676876E-2   -1.793986488003666E-1    4.866855681454937E-1
 1.001005002670000E+10  -3.625775161216524E-1    3.672708460393703E-1   -2.029242160647795E-2   -1.315106947860190E-2   -1.895599469516320E-2   -1.351244433725759E-2   -1.785260188011040E-1    4.868100496116829E-1
 1.001006182675000E+10  -3.616141064219450E-1    3.680136837098217E-1   -2.043310332106061E-2   -1.321923379650498E-2   -1.908203667163178E-2   -1.365446400102883E-2   -1.779100682277093E-1    4.871863989636511E-1
 1.001007362680000E+10  -3.609040400474876E-1    3.687904313782302E-1   -2.052459948756864E-2   -1.315424607855710E-2   -1.915168077214336E-2   -1.362631615018058E-2   -1.771875666620477E-1    4.874099478470443E-1
 1.001008542685000E+10  -3.601696666979770E-1    3.694680547884327E-1   -2.064947292461860E-2   -1.331319759387104E-2   -1.915345895950249E-2   -1.355913619086101E-2   -1.763500117826914E-1    4.879034972641096E-1
 1.001009722690000E+10  -3.594915129846750E-1    3.701806957812139E-1   -2.076502051437149E-2   -1.326417415797849E-2   -1.939849031107779E-2   -1.369984516003907E-2   -1.756523185539359E-1    4.880929448519333E-1
 1.001010902695000E+10  -3.587016248854279E-1    3.709624939134551E-1   -2.088864182826616E-2   -1.331722008616194E-2   -1.944435029496765E-2   -1.380222920454850E-2   -1.749217221510760E-1    4.883950525832109E-1
 1.001012082700000E+10  -3.579374897269389E-1    3.716157120143860E-1   -2.097144885538146E-2   -1.314309420742220E-2   -1.963639855895757E-2   -1.372574441927488E-2   -1.742690704701368E-1    4.886755421279967E-1
 1.001013262705000E+10  -3.570827897155566E-1    3.724907493397488E-1   -2.115186578896304E-2   -1.320482756271101E-2   -1.986559690206983E-2   -1.375026850465863E-2   -1.736018058602904E-1    4.889799103702900E-1
 1.001014442710000E+10  -3.562572423167669E-1    3.731309953593259E-1   -2.116875056315122E-2   -1.309441082653497E-2   -1.990708615240878E-2   -1.366624606983640E-2   -1.726762434399983E-1    4.893119599110689E-1
 1.001015622715000E+10  -3.556238505574151E-1    3.738972628099151E-1   -2.132728924349226E-2   -1.324486766580126E-2   -2.004994112316327E-2   -1.379414401660149E-2   -1.719885834901340E-1    4.895157347493742E-1
 1.001016802720000E+10  -3.547308779347749E-1    3.745927271591821E-1   -2.169226793134188E-2   -1.328405391648651E-2   -2.007521176122801E-2   -1.380494617800866E-2   -1.711671553592263E-1    4.898667150504944E-1
 1.001017982725000E+10  -3.541992601185620E-1    3.753997572140181E-1   -2.174583937254681E-2   -1.313148204516598E-2   -2.025696925357136E-2   -1.371921818396383E-2   -1.703895622082630E-1    4.900611089338011E-1
 1.001019162730000E+10  -3.531870325438010E-1    3.760664715091516E-1   -2.185613765914288E-2   -1.331052600614750E-2   -2.021864971031424E-2   -1.383832171310033E-2   -1.697357939474120E-1    4.902429723878617E-1
 1.001020342735000E+10  -3.524892130743472E-1    3.767788573599983E-1   -2.196324306821543E-2   -1.331405527046824E-2   -2.042156312604369E-2   -1.398766485702578E-2   -1.689621976596963E-1    4.905318585673890E-1
 1.001021522740000E+10  -3.516743633013825E-1    3.774052960188577E-1   -2.200181056755651E-2   -1.324175635047553E-2   -2.059936158552414E-2   -1.393386589958826E-2   -1.682973039565461E-1    4.908833355765427E-1
 1.001022702745000E+10  -3.508237683409755E-1    3.782768663693752E-1   -2.216425622034193E-2   -1.325608134676256E-2   -2.072051513561037E-2   -1.401662103331414E-2   -1.674821592480277E-1    4.912763837842327E-1
 1.001023882750000E+10  -3.500757011401263E-1    3.790803680139200E-1   -2.230693674771327E-2   -1.332284729288024E-2   -2.083635479786494E-2   -1.397076478306401E-2   -1.667519442327885E-1    4.914459504931103E-1
 1.001025062755000E+10  -3.493033431721295E-1    3.797056829265499E-1   -2.243384177306980E-2   -1.339531073824415E-2   -2.094573970728041E-2   -1.395334994234233E-2   -1.659652709717913E-1    4.916623460575580E-1
 1.001026242760000E+10  -3.486204899459580E-1    3.804878116233869E-1   -2.255540311324004E-2   -1.348544756331078E-2   -2.110835780290607E-2   -1.385327261814553E-2   -1.652767897531489E-1    4.918278440581709E-1
 1.001027422765000E+10  -3.476942593082973E-1    3.812355863168541E-1   -2.262801531681742E-2   -1.360084703432598E-2   -2.127496834096460E-2   -1.393207665805532E-2   -1.645585530594286E-1    4.920262957196786E-1
 1.001028602770000E+10  -3.468338721008712E-1    3.819171269152387E-1   -2.275969031981691E-2   -1.357342314251801E-2   -2.126846580948473E-2   -1.392937171467539E-2   -1.638533237862942E-1    4.924577179538979E-1
 1.001029782775000E+10  -3.459865356281417E-1    3.826551542193699E-1   -2.289761503057616E-2   -1.349017336667121E-2   -2.136733703379171E-2   -1.405541024304926E-2   -1.628715810016327E-1    4.927345801382984E-1
 1.001030962780000E+10  -3.451896110754946E-1    3.835278863481684E-1   -2.320330465276727E-2   -1.352696682286220E-2   -2.155810777965820E-2   -1.405032962289013E-2   -1.623220132016578E-1    4.930408840383931E-1
 1.001032142785000E+10  -3.444013333540752E-1    3.842908565596083E-1   -2.328822984426611E-2   -1.345683707321978E-2   -2.166099778163040E-2   -1.401845545439314E-2   -1.615491446581092E-1    4.931584441803162E-1
 1.001033322790000E+10  -3.435687210513954E-1    3.850552481750316E-1   -2.349831010183673E-2   -1.349916128623655E-2   -2.176583730085829E-2   -1.409080762166323E-2   -1.607995846893694E-1    4.934031344977333E-1
 1.001034502795000E+10  -3.426451530234583E-1    3.857136475792137E-1   -2.357262547440078E-2   -1.339287234884963E-2   -2.212768103410986E-2   -1.413871625536422E-2   -1.599541674999393E-1    4.937176093772620E-1
 1.001035682800000E+10  -3.418216187655020E-1    3.864028581164212E-1   -2.371038512552658E-2   -1.355362910020537E-2   -2.221079443156762E-2   -1.417625876625237E-2   -1.591950344182514E-1    4.940698550842276E-1
 1.001036862805000E+10  -3.410060456349634E-1    3.870484826811389E-1   -2.377080903011934E-2   -1.346834831644162E-2   -2.239859707270078E-2   -1.418270335562760E-2   -1.583237228410417E-1    4.943499115698980E-1
 1.001038042810000E+10  -3.400404909465145E-1    3.878690934923766E-1   -2.401571520602709E-2   -1.349616138451591E-2   -2.250466804159069E-2   -1.403096608982317E-2   -1.576861337137768E-1    4.945780416092331E-1
 1.001039222815000E+10  -3.392787896328714E-1    3.885711365100781E-1   -2.395259898016026E-2   -1.342460809774275E-2   -2.264042223367030E-2   -1.414436645671775E-2   -1.568639898739698E-1    4.945684095678167E-1
 1.001040402820000E+10  -3.384658986757123E-1    3.893798170853324E-1   -2.419615304356636E-2   -1.364203568460289E-2   -2.271019545261408E-2   -1.413638505257421E-2   -1.560195658354951E-1    4.949840353010605E-1
 1.001041582825000E+10  -3.375961589991334E-1    3.900493945461693E-1   -2.441513567277756E-2   -1.359596562935545E-2   -2.290878686731638E-2   -1.423977398602222E-2   -1.553323347528001E-1    4.951467935994291E-1
 1.001042762830000E+10  -3.367245758566823E-1    3.906904757488646E-1   -2.452300247241833E-2   -1.357925043531173E-2   -2.297776120327421E-2   -1.434212012826196E-2   -1.546248565845565E-1    4.956135712871703E-1
 1.001043942835000E+10  -3.358162072556097E-1    3.916127657000693E-1   -2.469329579581232E-2   -1.369884501017734E-2   -2.327603538326257E-2   -1.431084174655383E-2   -1.538185058802703E-1    4.957325476948352E-1
 1.001045122840000E+10  -3.350281118437056E-1    3.923770342577333E-1   -2.505663097933014E-2   -1.348112286045050E-2   -2.325392728973352E-2   -1.428071878076147E-2   -1.530323484245268E-1    4.960342379675194E-1
 1.001046302845000E+10  -3.340467104442247E-1    3.930771736629137E-1   -2.513613780145291E-2   -1.354332992573344E-2   -2.359584149304610E-2   -1.439206447913996E-2   -1.524050928551298E-1    4.963383279208013E-1
 1.001047482850000E+10  -3.330906893509898E-1    3.937625694332887E-1   -2.538538171431095E-2   -1.372877606151717E-2   -2.368600293314475E-2   -1.437933016627724E-2   -1.516163521859017E-1    4.964706690762752E-1
 1.001048662855000E+10  -3.320921022522187E-1    3.945224417596700E-1   -2.535666495943529E-2   -1.354178829059772E-2   -2.387667170643476E-2   -1.437542611844759E-2   -1.507196107166736E-1    4.966414065022304E-1
 1.001049842860000E+10  -3.313170090721528E-1    3.953220029750901E-1   -2.556828350084199E-2   -1.367687648703019E-2   -2.408075844119385E-2   -1.434414719824807E-2   -1.499235334345090E-1    4.968793770087205E-1
 1.001051022865000E+10  -3.304323117272266E-1    3.960368745400915E-1   -2.582630831387139E-2   -1.366911801377014E-2   -2.422442947893801E-2   -1.431082816784297E-2   -1.491576936320216E-1    4.970780362234901E-1
 1.001052202870000E+10  -3.295196060110873E-1    3.966819247698398E-1   -2.596197573714767E-2   -1.366834765369682E-2   -2.429133594855389E-2   -1.445814764281232E-2   -1.485288538106202E-1    4.973277673284337E-1
 1.001053382875000E+10  -3.285096791263686E-1    3.976030219991199E-1   -2.614169871099442E-2   -1.369830852951008E-2   -2.436921246138684E-2   -1.436495037858552E-2   -1.475894844645151E-1    4.978233251081406E-1
 1.001054562880000E+10  -3.274871323008521E-1    3.983120959346340E-1   -2.635570986860953E-2   -1.370547980931631E-2   -2.459478876087461E-2   -1.448309738867433E-2   -1.470163163518987E-1    4.979209564763951E-1
 1.001055742885000E+10  -3.267119854452564E-1    3.991300571152316E-1   -2.651038405370037E-2   -1.379524109589089E-2   -2.472109868388863E-2   -1.451288114473960E-2   -1.461156104379212E-1    4.981650250102470E-1
 1.001056922890000E+10  -3.257860563085364E-1    3.997030346590241E-1   -2.663573528366681E-2   -1.371365050081967E-2   -2.504583495366025E-2   -1.458868421147958E-2   -1.454212703736029E-1    4.982990329368747E-1
 1.001058102895000E+10  -3.247288358703239E-1    4.005065314785737E-1   -2.687369979732422E-2   -1.384200381484456E-2   -2.517731495122570E-2   -1.452359763721045E-2   -1.443808956151143E-1    4.985954589846419E-1
 1.001059282900000E+10  -3.237230924054192E-1    4.011947839719406E-1   -2.700038975557891E-2   -1.406305503419093E-2   -2.535828201263055E-2   -1.458189692245212E-2   -1.438195014884192E-1    4.988894907488842E-1
 1.001060462905000E+10  -3.228744981005107E-1    4.019089807147266E-1   -2.722484822256157E-2   -1.390165384801693E-2   -2.553946343995641E-2   -1.450604145780720E-2   -1.429372498923069E-1    4.990879746328160E-1
 1.001061642910000E+10  -3.218405245438188E-1    4.028390452691198E-1   -2.747000103561915E-2   -1.399244238817984E-2   -2.566193777349867E-2   -1.455848976352987E-2   -1.423226150868154E-1    4.991862996439422E-1
 1.001062822915000E+10  -3.207711302567572E-1    4.035869669500683E-1   -2.757396445182245E-2   -1.383533796183089E-2   -2.582780975557164E-2   -1.467875632015144E-2   -1.414509220817878E-1    4.994733253817630E-1
 1.001064002920000E+10  -3.197816781227899E-1    4.044174030613379E-1   -2.793164179130728E-2   -1.398863302528353E-2   -2.604197073555739E-2   -1.471719085487415E-2   -1.406948804209700E-1    4.996883654678549E-1
 1.001065182925000E+10  -3.188756425916655E-1    4.049729031516479E-1   -2.810292735842026E-2   -1.393452853757690E-2   -2.631600274433370E-2   -1.475079770599892E-2   -1.398698761154033E-1    4.999398353337481E-1
 1.001066362930000E+10  -3.177741697293829E-1    4.057824697918935E-1   -2.824465034903749E-2   -1.374687016758982E-2   -2.657498104868200E-2   -1.468063996596554E-2   -1.390677631304225E-1    5.000026002171060E-1
 1.001067542935000E+10  -3.167244998296965E-1    4.065108103497332E-1   -2.840308337230403E-2   -1.379692230894200E-2   -2.677727104408719E-2   -1.477115565972986E-2   -1.382351831143158E-1    5.003018782749141E-1
 1.001068722940000E+10  -3.156942792333966E-1    4.073336810141278E-1   -2.870731822797169E-2   -1.381813994602795E-2   -2.700091015507825E-2   -1.482980036903418E-2   -1.374464942328673E-1    5.006317940752331E-1
 1.001069902945000E+10  -3.146100765331189E-1    4.080464306527094E-1   -2.884211845685686E-2   -1.394110378185068E-2   -2.716298516480229E-2   -1.485217739468659E-2   -1.367725758978418E-1    5.007789544301886E-1
 1.001071082950000E+10  -3.135729491176541E-1    4.088398053791211E-1   -2.912402879755791E-2   -1.392835064602982E-2   -2.746460607583341E-2   -1.492174760199339E-2   -1.359653212229655E-1    5.009073917032080E-1
 1.001072262955000E+10  -3.125583684854206E-1    4.094878733899807E-1   -2.939273134427729E-2   -1.396768537794938E-2   -2.759686986159836E-2   -1.469596441736753E-2   -1.350854147639396E-1    5.012286496827280E-1
 1.001073442960000E+10  -3.114489820066340E-1    4.103515763212577E-1   -2.958446538714568E-2   -1.391267155537574E-2   -2.784152464334692E-2   -1.469709129993077E-2   -1.342989986952087E-1    5.014911189435527E-1
 1.001074622965000E+10  -3.105394403424460E-1    4.111047289538490E-1   -2.983031523237446E-2   -1.406944831982498E-2   -2.789852473200488E-2   -1.482031456572135E-2   -1.335439458296011E-1    5.017055501877768E-1
 1.001075802970000E+10  -3.092609175605620E-1    4.119237116339700E-1   -2.993129297847631E-2   -1.405986106718511E-2   -2.822610953938697E-2   -1.478238525409729E-2   -1.326635578313769E-1    5.019105742190059E-1
 1.001076982975000E+10  -3.082016721277038E-1    4.126093056134024E-1   -3.020765833981875E-2   -1.405455186012299E-2   -2.832794103909659E-2   -1.489106894174460E-2   -1.320751165088435E-1    5.020753489537719E-1
 1.001078162980000E+10  -3.072154381369096E-1    4.134533101022329E-1   -3.048267611264950E-2   -1.404288213313370E-2   -2.867931776351435E-2   -1.483774185783739E-2   -1.311186981448354E-1    5.022335477446915E-1
 1.001079342985000E+10  -3.060176744824501E-1    4.141436860806811E-1   -3.078579283101972E-2   -1.404956350938902E-2   -2.887139658647499E-2   -1.494115507248168E-2   -1.302641174150948E-1    5.024935869134981E-1
 1.001080522990000E+10  -3.049525485265188E-1    4.149416585904361E-1   -3.109228704897936E-2   -1.404956029047492E-2   -2.906037684027883E-2   -1.491292000618219E-2   -1.293834884196093E-1    5.025178009381774E-1
 1.001081702995000E+10  -3.035783128398910E-1    4.157978024002835E-1   -3.130472175273782E-2   -1.393705662326710E-2   -2.943972889450461E-2   -1.495053199762551E-2   -1.286825877537134E-1    5.029602045296263E-1
 1.001082883000000E+10  -3.025848005515048E-1    4.165412721905397E-1   -3.150972334600163E-2   -1.402707779796481E-2   -2.950053057046238E-2   -1.508169380930964E-2   -1.280404081546406E-1    5.031175168218415E-1
 1.001084063005000E+10  -3.014360660164209E-1    4.172289178912397E-1   -3.172117505282578E-2   -1.399559010380648E-2   -2.985860676622359E-2   -1.496560586924687E-2   -1.271403572460907E-1    5.032513621271868E-1
 1.001085243010000E+10  -3.001555814382394E-1    4.179424231014268E-1   -3.195147299112624E-2   -1.394452102252456E-2   -3.014807738924929E-2   -1.492049517498073E-2   -1.261540544910182E-1    5.034510361204921E-1
 1.001086423015000E+10  -2.990633772269298E-1    4.190140536983200E-1   -3.231009968106321E-2   -1.398113452255284E-2   -3.043363956358664E-2   -1.498145704420376E-2   -1.255186013784347E-1    5.036537475244590E-1
 1.001087603020000E+10  -2.978186343664384E-1    4.195751311405636E-1   -3.242024788545569E-2   -1.395103357307498E-2   -3.067491709615109E-2   -1.501583388063294E-2   -1.245487599189239E-1    5.037802406334927E-1
 1.001088783025000E+10  -2.966156470584823E-1    4.204772984364084E-1   -3.281832030394949E-2   -1.392849731872360E-2   -3.090902631218695E-2   -1.497450722019659E-2   -1.238725296141759E-1    5.040516496210393E-1
 1.001089963030000E+10  -2.953718063892902E-1    4.210557853363863E-1   -3.292804292332764E-2   -1.415792822134499E-2   -3.122160206043324E-2   -1.520192692252811E-2   -1.230574161797570E-1    5.042186200758410E-1
 1.001091143035000E+10  -2.941783466805409E-1    4.218378430192203E-1   -3.324141648730577E-2   -1.427451481109912E-2   -3.148316154910859E-2   -1.510672278599663E-2   -1.223188691059594E-1    5.043157936650955E-1
 1.001092323040000E+10  -2.929296294953935E-1    4.226436487406317E-1   -3.352682515068789E-2   -1.408001483848566E-2   -3.165860672671112E-2   -1.526118378915217E-2   -1.213599431796374E-1    5.045810672456301E-1
 1.001093503045000E+10  -2.916071563925990E-1    4.233202810312572E-1   -3.395907110720581E-2   -1.430649713352537E-2   -3.182780244079880E-2   -1.519553792981775E-2   -1.205226042500400E-1    5.047064550494225E-1
 1.001094683050000E+10  -2.901975484248940E-1    4.242095963825485E-1   -3.433142953206818E-2   -1.416663336161066E-2   -3.223883355037264E-2   -1.525423020174098E-2   -1.198914363661872E-1    5.048933414220284E-1
