#  HZ   S   RI   R     50.00 
! Rohde & Schwarz Vector Network Analyzer 
! Rohde-Schwarz,ZNB20-2Port,1311601062101988,3.16
! Created: UTC 12/23/2023, 3:57:46 AM
! freq[Hz]                re:S11                  im:S11                  re:S21                  im:S21                  re:S12                  im:S12                  re:S22                  im:S22
 1.001003726000000E+10  -3.642073031309815E-1    3.659023749092869E-1   -1.989320183834134E-2   -1.298203970103567E-2   -1.844835054754298E-2   -1.346228628654766E-2   -1.798114347396629E-1    4.865979387378481E-1
 1.001004853217500E+10  -3.635761951596522E-1    3.665193926114776E-1   -1.988118845765756E-2   -1.293074001064009E-2   -1.852191147440097E-2   -1.351293176079889E-2   -1.790527299428714E-1    4.868499130781381E-1
 1.001005980435000E+10  -3.629119742386685E-1    3.674352106185577E-1   -2.025531696798177E-2   -1.296177614635123E-2   -1.868788860357486E-2   -1.348265685798690E-2   -1.784375658309808E-1    4.872055048931036E-1
 1.001007107652500E+10  -3.619976589496194E-1    3.680200814286175E-1   -2.019605731598709E-2   -1.294211053955600E-2   -1.886614061135354E-2   -1.347508323274444E-2   -1.776737834022683E-1    4.876974158003023E-1
 1.001008234870000E+10  -3.615403728766910E-1    3.685877017753307E-1   -2.039802161520427E-2   -1.287332377009565E-2   -1.896654654047166E-2   -1.345316127421780E-2   -1.769005239438100E-1    4.877008028641295E-1
 1.001009362087500E+10  -3.606908574445155E-1    3.694323997633446E-1   -2.041092772381292E-2   -1.292905607637491E-2   -1.899817749967141E-2   -1.350927629462764E-2   -1.761994359974170E-1    4.879840609399288E-1
 1.001010489305000E+10  -3.600111610776980E-1    3.701678553174710E-1   -2.057372006253476E-2   -1.298285894647215E-2   -1.895970344967231E-2   -1.357066534199659E-2   -1.755280009073525E-1    4.882320654840415E-1
 1.001011616522500E+10  -3.592764878963604E-1    3.707756721173533E-1   -2.066487965030527E-2   -1.303771660577121E-2   -1.912999508738704E-2   -1.352175554766567E-2   -1.748390814908766E-1    4.885967414151403E-1
 1.001012743740000E+10  -3.585792363501793E-1    3.714765700442035E-1   -2.071639994649169E-2   -1.306642218589293E-2   -1.918348686090139E-2   -1.351984130884975E-2   -1.741369998546605E-1    4.888233303599293E-1
 1.001013870957500E+10  -3.579436101782646E-1    3.721208839181271E-1   -2.082779595584369E-2   -1.314458617342226E-2   -1.947419935693190E-2   -1.362402191700297E-2   -1.733952854714845E-1    4.889574932089223E-1
 1.001014998175000E+10  -3.571716615597172E-1    3.729945248827211E-1   -2.089819279128037E-2   -1.297131709147338E-2   -1.948382744135246E-2   -1.356727002102403E-2   -1.726210227240471E-1    4.892790436809634E-1
 1.001016125392500E+10  -3.565439130716818E-1    3.735838166375913E-1   -2.120545749274330E-2   -1.306252423849946E-2   -1.962068071744836E-2   -1.376397477750088E-2   -1.719923021264848E-1    4.896726706834117E-1
 1.001017252610000E+10  -3.557335922842336E-1    3.743149886005452E-1   -2.123079729958478E-2   -1.316430389790243E-2   -1.973543995872706E-2   -1.360077746307444E-2   -1.713596865945662E-1    4.899964206002662E-1
 1.001018379827500E+10  -3.550481965833319E-1    3.750278320475384E-1   -2.125238434207128E-2   -1.321754841417691E-2   -1.992239096843090E-2   -1.368384462118767E-2   -1.705078254052243E-1    4.900834708878641E-1
 1.001019507045000E+10  -3.542285387928455E-1    3.758303657139681E-1   -2.130712818469965E-2   -1.329916243894656E-2   -1.992781312622140E-2   -1.373017832070801E-2   -1.697941438106041E-1    4.902675533965017E-1
 1.001020634262500E+10  -3.534586917555331E-1    3.763841281098395E-1   -2.148114257837724E-2   -1.324380194553372E-2   -1.992334470244022E-2   -1.378738749431402E-2   -1.691028273832924E-1    4.906999782198658E-1
 1.001021761480000E+10  -3.528469967196141E-1    3.771856571221988E-1   -2.170392180882243E-2   -1.327233262371807E-2   -2.016805878494899E-2   -1.376566086327514E-2   -1.684082276349591E-1    4.908158908622595E-1
 1.001022888697500E+10  -3.520651136847888E-1    3.777721577592126E-1   -2.164651059505156E-2   -1.334299781405937E-2   -2.028736849193361E-2   -1.380361396583821E-2   -1.676160499529775E-1    4.911075188560478E-1
 1.001024015915000E+10  -3.512689794244821E-1    3.784553216665164E-1   -2.187223637555673E-2   -1.342062881822827E-2   -2.034634662147385E-2   -1.385749723863728E-2   -1.669466628855177E-1    4.914059830850584E-1
 1.001025143132500E+10  -3.504142840779993E-1    3.793007427122795E-1   -2.190849228405237E-2   -1.323013450188664E-2   -2.044106960108890E-2   -1.400364245315366E-2   -1.663488105675674E-1    4.916514639345769E-1
 1.001026270350000E+10  -3.497982146627707E-1    3.798865429725730E-1   -2.196188397943822E-2   -1.344549229443644E-2   -2.053832245316670E-2   -1.387981506070003E-2   -1.655574728980335E-1    4.918900928317761E-1
 1.001027397567500E+10  -3.489802360262505E-1    3.805283700796560E-1   -2.222415888245190E-2   -1.333050811369204E-2   -2.072583084088731E-2   -1.391857718975932E-2   -1.648699417115515E-1    4.920773519692204E-1
 1.001028524785000E+10  -3.481302592769612E-1    3.813996828053531E-1   -2.233135271539468E-2   -1.324747550809149E-2   -2.086512612525464E-2   -1.376470357211580E-2   -1.641757016331650E-1    4.923592292056233E-1
 1.001029652002500E+10  -3.474041747088093E-1    3.820226776497402E-1   -2.238118682412897E-2   -1.324359105226777E-2   -2.094277376876480E-2   -1.389313543330862E-2   -1.634186571466247E-1    4.926119463767799E-1
 1.001030779220000E+10  -3.467811088201562E-1    3.828625997670146E-1   -2.254007927558491E-2   -1.331670629451502E-2   -2.108071899909949E-2   -1.383729363122903E-2   -1.627706447502812E-1    4.928319238869565E-1
 1.001031906437500E+10  -3.458417150895597E-1    3.833318917077710E-1   -2.272028722005764E-2   -1.338240015052045E-2   -2.118336316111538E-2   -1.382339201611592E-2   -1.620034259554287E-1    4.931572672600341E-1
 1.001033033655000E+10  -3.450736749861130E-1    3.841233127005971E-1   -2.303630637708057E-2   -1.341974932537325E-2   -2.130321482715808E-2   -1.393570175697167E-2   -1.612752748044588E-1    4.934459332436425E-1
 1.001034160872500E+10  -3.443305013601502E-1    3.848966149998923E-1   -2.305930417484904E-2   -1.346697008486978E-2   -2.152412171869555E-2   -1.405035123433319E-2   -1.604666227329529E-1    4.937533796892441E-1
 1.001035288090000E+10  -3.435268357200426E-1    3.855483568694952E-1   -2.298925154669778E-2   -1.337629156891019E-2   -2.154379661662908E-2   -1.404611414617189E-2   -1.598370488700105E-1    4.938532820193287E-1
 1.001036415307500E+10  -3.427177135753453E-1    3.862333618203927E-1   -2.321555253258652E-2   -1.340211812720846E-2   -2.170574487750917E-2   -1.398564514455604E-2   -1.590944271003597E-1    4.941940477723463E-1
 1.001037542525000E+10  -3.419155513457142E-1    3.869858238238896E-1   -2.342790368435377E-2   -1.350156273033819E-2   -2.187162903430805E-2   -1.413125444323681E-2   -1.583057325498773E-1    4.944013824649883E-1
 1.001038669742500E+10  -3.411961595185115E-1    3.877532483346371E-1   -2.336170238239622E-2   -1.344735339848485E-2   -2.197950255722451E-2   -1.395127795683779E-2   -1.576958380271059E-1    4.946439465618805E-1
 1.001039796960000E+10  -3.403821845144501E-1    3.885113505486063E-1   -2.369013915245522E-2   -1.362956473600574E-2   -2.198392916919841E-2   -1.405354185676598E-2   -1.567825000286931E-1    4.949437266727885E-1
 1.001040924177500E+10  -3.394383698725995E-1    3.891112623960103E-1   -2.380280427916473E-2   -1.352688718182246E-2   -2.226747504038869E-2   -1.412125385512204E-2   -1.561427930732608E-1    4.950482838851488E-1
 1.001042051395000E+10  -3.386661823801427E-1    3.898366957793332E-1   -2.401245523307619E-2   -1.360430604541379E-2   -2.236011806511955E-2   -1.410391507376145E-2   -1.553806075526402E-1    4.953052716167478E-1
 1.001043178612500E+10  -3.379238865229612E-1    3.903347416997140E-1   -2.409714297282561E-2   -1.351820182063380E-2   -2.257599271850628E-2   -1.420173816247322E-2   -1.547694425061956E-1    4.956020817719582E-1
 1.001044305830000E+10  -3.369600690605450E-1    3.912266941060135E-1   -2.428830005570971E-2   -1.344308219668406E-2   -2.276796077706954E-2   -1.423679935593109E-2   -1.539524668729207E-1    4.957104752865313E-1
 1.001045433047500E+10  -3.361250293595792E-1    3.919201342644626E-1   -2.434808293081496E-2   -1.346316894514176E-2   -2.281779582258750E-2   -1.411146506372324E-2   -1.532242996833805E-1    4.960674853919066E-1
 1.001046560265000E+10  -3.353394033175408E-1    3.926295977406484E-1   -2.445070676705640E-2   -1.352991742951955E-2   -2.289037255849545E-2   -1.425396258712887E-2   -1.524853722462205E-1    4.962407442140884E-1
 1.001047687482500E+10  -3.345215182594237E-1    3.933544761125294E-1   -2.461253230484635E-2   -1.349996839563104E-2   -2.317809816843711E-2   -1.426985627164591E-2   -1.517421339957460E-1    4.965688236143139E-1
 1.001048814700000E+10  -3.337512586665062E-1    3.940016967683324E-1   -2.492210776089071E-2   -1.362413750438390E-2   -2.318895787041010E-2   -1.432641573267523E-2   -1.510695143023914E-1    4.967690193306493E-1
 1.001049941917500E+10  -3.328372675303955E-1    3.946852384236342E-1   -2.498709898235659E-2   -1.353532875665917E-2   -2.350707511540606E-2   -1.437330308417257E-2   -1.502237259124932E-1    4.968834532760629E-1
 1.001051069135000E+10  -3.321439859411286E-1    3.955484433318596E-1   -2.531250779415328E-2   -1.360696810085562E-2   -2.355020244435956E-2   -1.425617402599733E-2   -1.494864994973482E-1    4.971538232149024E-1
 1.001052196352500E+10  -3.311674407329406E-1    3.961937668271199E-1   -2.537962712910842E-2   -1.365586888499649E-2   -2.368253726465098E-2   -1.439529219602360E-2   -1.489825846432883E-1    4.973727000043250E-1
 1.001053323570000E+10  -3.303055449157889E-1    3.969433531911776E-1   -2.552178227214213E-2   -1.364946948550493E-2   -2.389227769479409E-2   -1.425379695163655E-2   -1.482980520222906E-1    4.975603607929091E-1
 1.001054450787500E+10  -3.293535764647865E-1    3.975361205024186E-1   -2.566385286288531E-2   -1.379007622494955E-2   -2.403713695718673E-2   -1.420801654279188E-2   -1.473671772026467E-1    4.978035632333396E-1
 1.001055578005000E+10  -3.285428625405512E-1    3.982476726578979E-1   -2.563772024998414E-2   -1.383313363403126E-2   -2.418262304055700E-2   -1.434891386793965E-2   -1.467281114471262E-1    4.980474148393754E-1
 1.001056705222500E+10  -3.274738590996710E-1    3.989721665498648E-1   -2.591203563427790E-2   -1.379128162371028E-2   -2.430032408311822E-2   -1.444256526166938E-2   -1.458842221803785E-1    4.982091322031765E-1
 1.001057832440000E+10  -3.265850267614691E-1    3.998085616794728E-1   -2.623452295451980E-2   -1.370992361878830E-2   -2.459220593481293E-2   -1.457901271214441E-2   -1.451496107210001E-1    4.984939693033860E-1
 1.001058959657500E+10  -3.257641226413240E-1    4.004060417086694E-1   -2.641779466799690E-2   -1.385873768425821E-2   -2.458680305917043E-2   -1.449909295604562E-2   -1.442684252860750E-1    4.986935528913661E-1
 1.001060086875000E+10  -3.248306238866425E-1    4.011325414299969E-1   -2.648985776143675E-2   -1.380619990605115E-2   -2.485308489152361E-2   -1.446699249286260E-2   -1.437038842328896E-1    4.989927320684832E-1
 1.001061214092500E+10  -3.239430262365042E-1    4.019375321071639E-1   -2.673962936657636E-2   -1.368826358997789E-2   -2.502426054385134E-2   -1.441809602429525E-2   -1.429973266261388E-1    4.991875725933465E-1
 1.001062341310000E+10  -3.229436166852994E-1    4.026501544000434E-1   -2.686645127813431E-2   -1.362119440207257E-2   -2.516791448640986E-2   -1.464192467618333E-2   -1.421962874885427E-1    4.993700676022759E-1
 1.001063468527500E+10  -3.223121658260021E-1    4.033209418469186E-1   -2.704408452017094E-2   -1.379690836830180E-2   -2.537244124474629E-2   -1.451295353182987E-2   -1.413802094919578E-1    4.995255631225291E-1
 1.001064595745000E+10  -3.211993430048022E-1    4.040049321936411E-1   -2.725409139881693E-2   -1.384179462389231E-2   -2.558129169412495E-2   -1.459150142677676E-2   -1.407373614995006E-1    4.999116818784026E-1
 1.001065722962500E+10  -3.201743047050560E-1    4.046980047623243E-1   -2.747902488985917E-2   -1.380359863715166E-2   -2.575309325733802E-2   -1.458210339777674E-2   -1.399711220719290E-1    4.999831314925557E-1
 1.001066850180000E+10  -3.192587988677065E-1    4.052072922612157E-1   -2.763684332146457E-2   -1.375674071859418E-2   -2.592749368304250E-2   -1.454549320126452E-2   -1.392231948620374E-1    5.002703461122644E-1
 1.001067977397500E+10  -3.185522431353223E-1    4.062172630258176E-1   -2.771086508507552E-2   -1.396299399552732E-2   -2.603010429157679E-2   -1.455121320408905E-2   -1.383773339347663E-1    5.005229342967338E-1
 1.001069104615000E+10  -3.172790509115017E-1    4.069172225208222E-1   -2.799170349399681E-2   -1.395728134377543E-2   -2.613913449053430E-2   -1.462129777882899E-2   -1.376396442754684E-1    5.005602668378715E-1
 1.001070231832500E+10  -3.163457954794745E-1    4.074992738925235E-1   -2.812363303514414E-2   -1.398465752043439E-2   -2.632474160434000E-2   -1.464006212688744E-2   -1.369461614067288E-1    5.008212017148758E-1
 1.001071359050000E+10  -3.154493318515001E-1    4.083588421850519E-1   -2.830789160893981E-2   -1.381848118601496E-2   -2.647632564317775E-2   -1.472419996462280E-2   -1.363553871256041E-1    5.011645036541514E-1
 1.001072486267500E+10  -3.143760927822027E-1    4.090701073415435E-1   -2.855846534916783E-2   -1.399047965690245E-2   -2.677358524993732E-2   -1.480234937036120E-2   -1.354989490080615E-1    5.011662529627822E-1
 1.001073613485000E+10  -3.134653971173281E-1    4.096424658509518E-1   -2.892226606893392E-2   -1.407754364641076E-2   -2.695442067929393E-2   -1.470127922686950E-2   -1.347681159542247E-1    5.014319394967109E-1
 1.001074740702500E+10  -3.124894212094344E-1    4.105229756185127E-1   -2.908282037185601E-2   -1.381769344317184E-2   -2.718696315736994E-2   -1.482314448017866E-2   -1.338230022787183E-1    5.017133208512619E-1
 1.001075867920000E+10  -3.113486103668762E-1    4.113587637207571E-1   -2.921581499022166E-2   -1.394375590136628E-2   -2.743197364358978E-2   -1.481786163319890E-2   -1.331061458831662E-1    5.019046753997460E-1
 1.001076995137500E+10  -3.105554847078233E-1    4.120675180481432E-1   -2.933053737343659E-2   -1.380952932735312E-2   -2.758423792207863E-2   -1.487563546346416E-2   -1.323893655321972E-1    5.021338222615751E-1
 1.001078122355000E+10  -3.093826555204570E-1    4.127006939124571E-1   -2.958691174278846E-2   -1.396571269330641E-2   -2.785933866104739E-2   -1.468553993776930E-2   -1.317351607993541E-1    5.023188261749385E-1
 1.001079249572500E+10  -3.083997285540905E-1    4.135877524523098E-1   -2.985919107956723E-2   -1.386428614021796E-2   -2.800001762370331E-2   -1.484231111338559E-2   -1.308665814739119E-1    5.025176012057329E-1
 1.001080376790000E+10  -3.072878895764463E-1    4.141628898202453E-1   -3.017514084906477E-2   -1.386488125818825E-2   -2.822283329516553E-2   -1.497433697576673E-2   -1.301243512474097E-1    5.025941888652733E-1
 1.001081504007500E+10  -3.062691836590961E-1    4.148646287172540E-1   -3.034934326282129E-2   -1.406441824250758E-2   -2.842325424434203E-2   -1.494375397024764E-2   -1.292704068486414E-1    5.029384326128945E-1
 1.001082631225000E+10  -3.052599428930066E-1    4.156881397270653E-1   -3.051713313428454E-2   -1.401222172641316E-2   -2.853616588274447E-2   -1.493657619884094E-2   -1.285004933910871E-1    5.030368872122770E-1
 1.001083758442500E+10  -3.041522918269642E-1    4.163337040714527E-1   -3.081645816335744E-2   -1.398854466895971E-2   -2.887061933395415E-2   -1.507809341454014E-2   -1.278909140060111E-1    5.031417371226996E-1
 1.001084885660000E+10  -3.031132605414016E-1    4.170510256966195E-1   -3.098648448605509E-2   -1.416397961839572E-2   -2.907777128244268E-2   -1.498160507067196E-2   -1.269811461642308E-1    5.034594946637067E-1
 1.001086012877500E+10  -3.019767573294927E-1    4.177463941405720E-1   -3.114134749165726E-2   -1.424992669038842E-2   -2.936031072073917E-2   -1.498405656341810E-2   -1.261972336224843E-1    5.035396574746427E-1
 1.001087140095000E+10  -3.009260674706791E-1    4.185637370707580E-1   -3.135825001043398E-2   -1.412503424299434E-2   -2.952102059684508E-2   -1.495728749904872E-2   -1.254329177672430E-1    5.038583729777995E-1
 1.001088267312500E+10  -2.998030970586996E-1    4.192705407023681E-1   -3.160972177240241E-2   -1.418314826613676E-2   -2.976588400132741E-2   -1.504192171862638E-2   -1.248014786305914E-1    5.039428913520795E-1
 1.001089394530000E+10  -2.987182156372112E-1    4.199016707155717E-1   -3.178875093631094E-2   -1.421759756263822E-2   -3.006865905115861E-2   -1.498533350388499E-2   -1.239923404248162E-1    5.042013115482714E-1
 1.001090521747500E+10  -2.974738118625400E-1    4.207187896839293E-1   -3.213412977740261E-2   -1.418427736337797E-2   -3.013779086817301E-2   -1.513747483549242E-2   -1.231300515175905E-1    5.043295547498687E-1
 1.001091648965000E+10  -2.964004520572674E-1    4.214525750733291E-1   -3.249584379938091E-2   -1.403193493339173E-2   -3.061208426288350E-2   -1.518479050669526E-2   -1.223362295852706E-1    5.045886618759500E-1
 1.001092776182500E+10  -2.953627217805763E-1    4.221756368650161E-1   -3.271779273654242E-2   -1.403515929326923E-2   -3.078038298674923E-2   -1.525801637389521E-2   -1.216459204080825E-1    5.046866344663146E-1
 1.001093903400000E+10  -2.941267445104541E-1    4.229787752595274E-1   -3.301937289590439E-2   -1.408114034378561E-2   -3.091066666441853E-2   -1.516147849311319E-2   -1.207690475278120E-1    5.049617681569747E-1
 1.001095030617500E+10  -2.929502969468575E-1    4.236718958460389E-1   -3.320157280411980E-2   -1.392803827807829E-2   -3.127005101618052E-2   -1.523235983095999E-2   -1.200032320596561E-1    5.050976365806578E-1
 1.001096157835000E+10  -2.915969604304727E-1    4.244212241730591E-1   -3.360489379239960E-2   -1.388194977416793E-2   -3.155139488033921E-2   -1.522464319433406E-2   -1.191934914929681E-1    5.052642828785747E-1
 1.001097285052500E+10  -2.905913007970131E-1    4.253398789562556E-1   -3.378527014923695E-2   -1.409427561571439E-2   -3.185578116737799E-2   -1.520671513873374E-2   -1.185098745132404E-1    5.053821071281440E-1
 1.001098412270000E+10  -2.892621246992376E-1    4.257594353681161E-1   -3.430344179706535E-2   -1.403651204305227E-2   -3.214955285135271E-2   -1.528023998307939E-2   -1.177513038114999E-1    5.054691487863314E-1
 1.001099539487500E+10  -2.881144835016591E-1    4.267493020745470E-1   -3.440521634878166E-2   -1.400525587837042E-2   -3.246710793902329E-2   -1.513209468283609E-2   -1.168914829522554E-1    5.057228709419211E-1
 1.001100666705000E+10  -2.867772000025985E-1    4.274263418214020E-1   -3.462036412492535E-2   -1.422516500542373E-2   -3.256011346535791E-2   -1.528082531100344E-2   -1.161537553515094E-1    5.059565854227951E-1
 1.001101793922500E+10  -2.855564194722213E-1    4.281360040049533E-1   -3.494006220238367E-2   -1.420619953707602E-2   -3.298368518499908E-2   -1.535551614441850E-2   -1.152283297480539E-1    5.061730766578454E-1
 1.001102921140000E+10  -2.843999142280380E-1    4.287244110873870E-1   -3.531040069677982E-2   -1.421049018299826E-2   -3.315957417149615E-2   -1.534265044687598E-2   -1.145713084071203E-1    5.062644533882380E-1
 1.001104048357500E+10  -2.831679035234062E-1    4.296059746952471E-1   -3.568021449999125E-2   -1.428709516108657E-2   -3.338846800694950E-2   -1.533563513108221E-2   -1.136083957139090E-1    5.065948032950676E-1
 1.001105175575000E+10  -2.815605259542081E-1    4.304131429855665E-1   -3.590466646233252E-2   -1.415804330973140E-2   -3.376371450803473E-2   -1.532966389742855E-2   -1.127733691205857E-1    5.066186992829772E-1
