#  HZ   S   RI   R     50.00 
! Rohde & Schwarz Vector Network Analyzer 
! Rohde-Schwarz,ZNB20-2Port,1311601062101988,3.16
! Created: UTC 12/23/2023, 3:58:46 AM
! freq[Hz]                re:S11                  im:S11                  re:S21                  im:S21                  re:S12                  im:S12                  re:S22                  im:S22
 1.001015190100000E+10  -3.579114597244054E-1    3.726520521814016E-1   -2.068349939487725E-2   -1.311493323872299E-2   -1.925954748792885E-2   -1.365641383328715E-2   -1.727298639709076E-1    4.893942771483609E-1
 1.001016276297500E+10  -3.571055850108894E-1    3.732280896355418E-1   -2.077606792878678E-2   -1.296733581129248E-2   -1.936190960957971E-2   -1.356606015283676E-2   -1.719888946178674E-1    4.895238402022358E-1
 1.001017362495000E+10  -3.562100001795438E-1    3.740310138508526E-1   -2.091348243780807E-2   -1.319458354207398E-2   -1.941349390962874E-2   -1.370698791131432E-2   -1.713128846365720E-1    4.897140293990472E-1
 1.001018448692500E+10  -3.555795776293217E-1    3.745974772816485E-1   -2.105579452735043E-2   -1.309579597317818E-2   -1.945063252855693E-2   -1.362440333501218E-2   -1.704859734276354E-1    4.901029214830263E-1
 1.001019534890000E+10  -3.550796774018765E-1    3.752615844415254E-1   -2.102079277524509E-2   -1.303237397411490E-2   -1.966767024246846E-2   -1.367360031567145E-2   -1.699002053818856E-1    4.904848242634586E-1
 1.001020621087500E+10  -3.542781665754456E-1    3.760559365126552E-1   -2.110051899238180E-2   -1.315790516799942E-2   -1.973621423047536E-2   -1.378202098299057E-2   -1.692506465049197E-1    4.906369274023120E-1
 1.001021707285000E+10  -3.535399981444413E-1    3.767078630289337E-1   -2.131386612794909E-2   -1.312988128681693E-2   -1.979554140714468E-2   -1.367304218036136E-2   -1.685419243991914E-1    4.908836597500109E-1
 1.001022793482500E+10  -3.528994263259219E-1    3.773363252238771E-1   -2.135954008505398E-2   -1.310814098517251E-2   -2.006004109189143E-2   -1.364144927222986E-2   -1.678844059486245E-1    4.910753552794138E-1
 1.001023879680000E+10  -3.520533714556118E-1    3.780379187878637E-1   -2.153089468248084E-2   -1.310646756739682E-2   -2.003564998814735E-2   -1.373289552559402E-2   -1.670622605359967E-1    4.913241347748552E-1
 1.001024965877500E+10  -3.514580479400145E-1    3.786397354139924E-1   -2.163270872389615E-2   -1.315912891422353E-2   -2.011694118362869E-2   -1.377420185633068E-2   -1.664474621968020E-1    4.915009327200993E-1
 1.001026052075000E+10  -3.506331361370017E-1    3.792997220237715E-1   -2.181420933891317E-2   -1.321826636041052E-2   -2.021334066146869E-2   -1.386105076614821E-2   -1.658079408241621E-1    4.918880132613606E-1
 1.001027138272500E+10  -3.500468927097184E-1    3.799507499728344E-1   -2.190021439450994E-2   -1.326879675610554E-2   -2.042126257457912E-2   -1.381303155687507E-2   -1.652997038494170E-1    4.920938973292086E-1
 1.001028224470000E+10  -3.492011345438957E-1    3.807116024844881E-1   -2.209383874556899E-2   -1.327696661072808E-2   -2.046882980810653E-2   -1.379998827702367E-2   -1.643736307003644E-1    4.921948324681149E-1
 1.001029310667500E+10  -3.485978077254674E-1    3.814219818031107E-1   -2.204222459418213E-2   -1.320342714779639E-2   -2.066017839329010E-2   -1.385364648402693E-2   -1.638253373972305E-1    4.925662696791434E-1
 1.001030396865000E+10  -3.477990917572936E-1    3.819513401861368E-1   -2.228736555854201E-2   -1.334603316767071E-2   -2.071811187726944E-2   -1.378099230692078E-2   -1.629272612852799E-1    4.928374447130630E-1
 1.001031483062500E+10  -3.470951746325957E-1    3.828310189894156E-1   -2.252171688367269E-2   -1.325051962609628E-2   -2.086079934505282E-2   -1.387212888451078E-2   -1.622993107537028E-1    4.929681520697526E-1
 1.001032569260000E+10  -3.463030852092368E-1    3.833926684113098E-1   -2.253584498031792E-2   -1.323456253672875E-2   -2.101802420938869E-2   -1.373495133863213E-2   -1.617273532688521E-1    4.931642825470510E-1
 1.001033655457500E+10  -3.455959504457976E-1    3.841696905464205E-1   -2.270368327973213E-2   -1.332634681783389E-2   -2.100144853655163E-2   -1.382578003117167E-2   -1.609891839733965E-1    4.936420494757708E-1
 1.001034741655000E+10  -3.447885484406367E-1    3.847794234258899E-1   -2.266971265389899E-2   -1.325639734961474E-2   -2.110068162363702E-2   -1.403588889383760E-2   -1.602767947042557E-1    4.937241736385752E-1
 1.001035827852500E+10  -3.440739996276103E-1    3.854544066583911E-1   -2.292918038206067E-2   -1.344649215359958E-2   -2.131556755126916E-2   -1.401520947350945E-2   -1.597509423284147E-1    4.940139233304974E-1
 1.001036914050000E+10  -3.434059949668234E-1    3.861079641703605E-1   -2.302828253703250E-2   -1.345754793262570E-2   -2.142977046088724E-2   -1.394351563715131E-2   -1.589199464741476E-1    4.942937682933809E-1
 1.001038000247500E+10  -3.424478492857009E-1    3.867412209476810E-1   -2.317858576482366E-2   -1.348630620191472E-2   -2.162060542787857E-2   -1.406032346042358E-2   -1.583803615691170E-1    4.944186456451397E-1
 1.001039086445000E+10  -3.418743789226655E-1    3.874099508056121E-1   -2.324320740112016E-2   -1.335160558005920E-2   -2.165102146901448E-2   -1.409631567628159E-2   -1.575933232337788E-1    4.947718834863968E-1
 1.001040172642500E+10  -3.408502377872602E-1    3.879931307472411E-1   -2.341200444549234E-2   -1.329336252659188E-2   -2.177297526390154E-2   -1.401336114612974E-2   -1.567949585390178E-1    4.948733728516227E-1
 1.001041258840000E+10  -3.402261814541013E-1    3.889491195180412E-1   -2.349478268356688E-2   -1.334654364629317E-2   -2.196815095280279E-2   -1.396760050324295E-2   -1.561094070642859E-1    4.951885375854829E-1
 1.001042345037500E+10  -3.394389620833788E-1    3.895083531603387E-1   -2.371762206364260E-2   -1.338559682635423E-2   -2.195660095349304E-2   -1.411259309459676E-2   -1.554750168324947E-1    4.953037379753493E-1
 1.001043431235000E+10  -3.386268620715700E-1    3.901981338108856E-1   -2.382599033413267E-2   -1.336767334133465E-2   -2.217318943717222E-2   -1.396022201398728E-2   -1.546214005838607E-1    4.957046706354027E-1
 1.001044517432500E+10  -3.378777551182917E-1    3.907504544192275E-1   -2.390777990461318E-2   -1.349951099698914E-2   -2.231889496743215E-2   -1.410823514216886E-2   -1.542235793420468E-1    4.958348968844755E-1
 1.001045603630000E+10  -3.370663125679280E-1    3.916320445060936E-1   -2.412477198036995E-2   -1.351551969347002E-2   -2.241366240735881E-2   -1.411728423812268E-2   -1.533128387187584E-1    4.960807128178885E-1
 1.001046689827500E+10  -3.362928893197209E-1    3.923394218717405E-1   -2.422664544496149E-2   -1.344712015244611E-2   -2.254073082436180E-2   -1.419606079243144E-2   -1.528298240032795E-1    4.962425369559411E-1
 1.001047776025000E+10  -3.354514859681429E-1    3.929093237110246E-1   -2.419231823726350E-2   -1.347459393879507E-2   -2.276542099333571E-2   -1.415212994279562E-2   -1.519050648486745E-1    4.964135124332439E-1
 1.001048862222500E+10  -3.347198738043580E-1    3.935149554901255E-1   -2.444165866909173E-2   -1.357566208900280E-2   -2.274050408348307E-2   -1.437991883535992E-2   -1.511193200507353E-1    4.967390352517414E-1
 1.001049948420000E+10  -3.338676802592947E-1    3.943679571420922E-1   -2.467352692307871E-2   -1.365128072333966E-2   -2.296988597009363E-2   -1.432551775828698E-2   -1.504213569403043E-1    4.970494343907641E-1
 1.001051034617500E+10  -3.329865775919482E-1    3.949877346113386E-1   -2.470844247392598E-2   -1.369100670827901E-2   -2.313551885049659E-2   -1.423190541994818E-2   -1.497554061879353E-1    4.971819149662499E-1
 1.001052120815000E+10  -3.321776871939554E-1    3.956866461076698E-1   -2.470817590891631E-2   -1.357753669549251E-2   -2.326621665105002E-2   -1.423184480597862E-2   -1.491448760478334E-1    4.975268746072843E-1
 1.001053207012500E+10  -3.314683606522049E-1    3.962698258476792E-1   -2.517396037090476E-2   -1.361509936042763E-2   -2.340701972350560E-2   -1.420825302848511E-2   -1.483297415144556E-1    4.976214725656822E-1
 1.001054293210000E+10  -3.305262885688086E-1    3.968919912548096E-1   -2.532547916469495E-2   -1.349601090519598E-2   -2.361667399646731E-2   -1.424646439861089E-2   -1.475639482936724E-1    4.977596206708917E-1
 1.001055379407500E+10  -3.297661254223788E-1    3.976628643562085E-1   -2.534301296858187E-2   -1.365245950424911E-2   -2.372634282499759E-2   -1.437235146448624E-2   -1.469567149702022E-1    4.980842954761482E-1
 1.001056465605000E+10  -3.288329413113398E-1    3.983683519252847E-1   -2.558378070832427E-2   -1.354639346890793E-2   -2.383285929028409E-2   -1.437215763845742E-2   -1.462864502047337E-1    4.982729641343926E-1
 1.001057551802500E+10  -3.280595712315262E-1    3.990486479791354E-1   -2.562935076333255E-2   -1.366702776986952E-2   -2.400476216004589E-2   -1.437934752577679E-2   -1.454978172429616E-1    4.985121157545698E-1
 1.001058638000000E+10  -3.271476334716389E-1    3.997081662632607E-1   -2.580939637784165E-2   -1.360402637904537E-2   -2.412220081259861E-2   -1.441143913435258E-2   -1.447835946588870E-1    4.986951824495786E-1
 1.001059724197500E+10  -3.264364599632062E-1    4.005747990202462E-1   -2.607510681032611E-2   -1.359285615339601E-2   -2.426002454180164E-2   -1.442039568228295E-2   -1.440384021221384E-1    4.989221479281265E-1
 1.001060810395000E+10  -3.254224091215731E-1    4.011381981536722E-1   -2.624014852608013E-2   -1.354617431902578E-2   -2.451614257091876E-2   -1.453816999513385E-2   -1.433449976643468E-1    4.990710382515884E-1
 1.001061896592500E+10  -3.246410585108035E-1    4.018724984500294E-1   -2.640328385383860E-2   -1.381389194329918E-2   -2.460149454146332E-2   -1.445804387949891E-2   -1.427427201564024E-1    4.994064771488138E-1
 1.001062982790000E+10  -3.238283897129763E-1    4.027432728417709E-1   -2.643556418866312E-2   -1.384502889018496E-2   -2.475074390174308E-2   -1.436974008151415E-2   -1.419257224806316E-1    4.995590646474634E-1
 1.001064068987500E+10  -3.227466002409039E-1    4.031863158046929E-1   -2.652874213756657E-2   -1.377046428035604E-2   -2.504408923240687E-2   -1.457980442003841E-2   -1.412800837764303E-1    4.996512589203708E-1
 1.001065155185000E+10  -3.218508733248917E-1    4.038719124351872E-1   -2.673776541824639E-2   -1.387708844837719E-2   -2.516003836425926E-2   -1.445929429240373E-2   -1.405375620120609E-1    4.999566104163556E-1
 1.001066241382500E+10  -3.210044680174976E-1    4.046368785511967E-1   -2.695782798938179E-2   -1.384685011113860E-2   -2.523827009296677E-2   -1.444380655577343E-2   -1.397744034238493E-1    5.001183031388826E-1
 1.001067327580000E+10  -3.201807945845524E-1    4.052499018291360E-1   -2.714348372059969E-2   -1.374618865848420E-2   -2.552895864299703E-2   -1.462721113110050E-2   -1.389391563603047E-1    5.004804302007000E-1
 1.001068413777500E+10  -3.192830365535114E-1    4.060324848555669E-1   -2.736843693034424E-2   -1.378637066858610E-2   -2.549009134708909E-2   -1.450296057285093E-2   -1.384186324566140E-1    5.004217091559466E-1
 1.001069499975000E+10  -3.183905569076273E-1    4.066729310379922E-1   -2.749364052433799E-2   -1.380854093430292E-2   -2.571176417382953E-2   -1.445265924433480E-2   -1.376246005863791E-1    5.007253484641040E-1
 1.001070586172500E+10  -3.173536345731798E-1    4.073842199930259E-1   -2.780175601300432E-2   -1.378914029185312E-2   -2.581255986049622E-2   -1.465969837589793E-2   -1.368956004308331E-1    5.009127870024359E-1
 1.001071672370000E+10  -3.164004063144533E-1    4.081065468258231E-1   -2.787720122151405E-2   -1.388634824101581E-2   -2.612981489103923E-2   -1.463256012502575E-2   -1.361568875239581E-1    5.011230763030716E-1
 1.001072758567500E+10  -3.155621115776468E-1    4.088055255871858E-1   -2.809547083263896E-2   -1.382182896761183E-2   -2.639700748650229E-2   -1.470924255336901E-2   -1.355470380035280E-1    5.012257584294775E-1
 1.001073844765000E+10  -3.146460474698141E-1    4.095284908847446E-1   -2.825433206390249E-2   -1.371202883591221E-2   -2.644301020319455E-2   -1.475031683503048E-2   -1.347215027705477E-1    5.014657674268864E-1
 1.001074930962500E+10  -3.136133639579792E-1    4.101873775534230E-1   -2.861837532621558E-2   -1.381940446247772E-2   -2.669491526650168E-2   -1.468294274920516E-2   -1.340221823449795E-1    5.017527034604350E-1
 1.001076017160000E+10  -3.127085081176797E-1    4.108899012749341E-1   -2.866296024309937E-2   -1.388642938099414E-2   -2.693880867217458E-2   -1.468376724044461E-2   -1.331837777683474E-1    5.019344736171981E-1
 1.001077103357500E+10  -3.118149277540216E-1    4.115266136483244E-1   -2.897638362295381E-2   -1.393556877154071E-2   -2.713536496658731E-2   -1.471584473022154E-2   -1.324546608780768E-1    5.021342529213200E-1
 1.001078189555000E+10  -3.108411407207524E-1    4.122467169964846E-1   -2.893349148801521E-2   -1.401963161347016E-2   -2.712901610726975E-2   -1.480420434904567E-2   -1.317689039452375E-1    5.023684020615504E-1
 1.001079275752500E+10  -3.097859433808078E-1    4.129312889212304E-1   -2.913606864012969E-2   -1.409591616047002E-2   -2.745445709204204E-2   -1.483295838155828E-2   -1.311102228295095E-1    5.023729180864934E-1
 1.001080361950000E+10  -3.088512191839997E-1    4.136591803727755E-1   -2.943114449865196E-2   -1.397788301504225E-2   -2.764268823125232E-2   -1.500931855076770E-2   -1.302522097215016E-1    5.027385799784657E-1
 1.001081448147500E+10  -3.078637411453388E-1    4.142847245683102E-1   -2.964622609180379E-2   -1.405547304393316E-2   -2.779742907458293E-2   -1.489393565826998E-2   -1.295641743233812E-1    5.029755707786774E-1
 1.001082534345000E+10  -3.067820421181224E-1    4.149557781948887E-1   -2.986845324770197E-2   -1.397993981768044E-2   -2.796272003935005E-2   -1.482734236720010E-2   -1.289163081330091E-1    5.032334471939739E-1
 1.001083620542500E+10  -3.057163357029190E-1    4.157517242030921E-1   -3.008079955711909E-2   -1.390550131902238E-2   -2.835098285661238E-2   -1.488455430201680E-2   -1.282287994059981E-1    5.032801890941294E-1
 1.001084706740000E+10  -3.048794983759820E-1    4.164929409697037E-1   -3.036662000625861E-2   -1.394784367297197E-2   -2.853424608934894E-2   -1.490258862607654E-2   -1.274611535309599E-1    5.035365645926865E-1
 1.001085792937500E+10  -3.038314829515232E-1    4.171628145910714E-1   -3.061118653182573E-2   -1.397056801264786E-2   -2.862373211429112E-2   -1.476585086068103E-2   -1.267527219139261E-1    5.036094178259484E-1
 1.001086879135000E+10  -3.027795377335777E-1    4.178832446308177E-1   -3.078730401749303E-2   -1.393601035835229E-2   -2.898880847114686E-2   -1.483424689202590E-2   -1.259992276048580E-1    5.038146368008563E-1
 1.001087965332500E+10  -3.016607203047807E-1    4.185098325649548E-1   -3.103470311005932E-2   -1.403049840116499E-2   -2.912256602285177E-2   -1.493414571924141E-2   -1.252175101557070E-1    5.039747082570408E-1
 1.001089051530000E+10  -3.007154836573999E-1    4.193391928958027E-1   -3.128131779607032E-2   -1.409262885011682E-2   -2.927652172231270E-2   -1.507541763977080E-2   -1.243909227895098E-1    5.042700616972452E-1
 1.001090137727500E+10  -2.997894565091099E-1    4.199326588645912E-1   -3.147772326436075E-2   -1.397160803382365E-2   -2.946319910872760E-2   -1.501978379033803E-2   -1.236696484589725E-1    5.043670147992981E-1
 1.001091223925000E+10  -2.985932433402650E-1    4.207266087114416E-1   -3.172206201439028E-2   -1.408639339348326E-2   -2.970463906176947E-2   -1.520168780932583E-2   -1.228250495900962E-1    5.045802544229564E-1
 1.001092310122500E+10  -2.975448763188770E-1    4.214648149090023E-1   -3.201645179121328E-2   -1.410073451011759E-2   -3.007099405209392E-2   -1.501381301681143E-2   -1.221909386990140E-1    5.047220551002710E-1
 1.001093396320000E+10  -2.964423357185306E-1    4.221246938320856E-1   -3.219657668075738E-2   -1.427690372904521E-2   -3.019122517886989E-2   -1.514538426604069E-2   -1.215077991852695E-1    5.049247213076108E-1
 1.001094482517500E+10  -2.953806958624838E-1    4.228325890022618E-1   -3.230183814459701E-2   -1.418890552689665E-2   -3.049472772752445E-2   -1.502213203677457E-2   -1.205939173244807E-1    5.050010831120363E-1
 1.001095568715000E+10  -2.941211412433194E-1    4.235821952586561E-1   -3.260635997171709E-2   -1.433647202024387E-2   -3.072530630767130E-2   -1.513465996531401E-2   -1.198872569264283E-1    5.051874959750228E-1
 1.001096654912500E+10  -2.931021918509532E-1    4.241743392840553E-1   -3.288084345470858E-2   -1.415941006772472E-2   -3.093034612497098E-2   -1.513362810678259E-2   -1.191998603346260E-1    5.053103086751045E-1
 1.001097741110000E+10  -2.919207581803417E-1    4.249939871881029E-1   -3.312017358300212E-2   -1.423543809657881E-2   -3.109552104863253E-2   -1.525704897002084E-2   -1.184638769727516E-1    5.056048271590039E-1
 1.001098827307500E+10  -2.908217952191949E-1    4.256240381713234E-1   -3.349272486788680E-2   -1.414999476405225E-2   -3.145852691634090E-2   -1.539470537277842E-2   -1.176363799454447E-1    5.057695506545876E-1
 1.001099913505000E+10  -2.895630374717020E-1    4.263501618095311E-1   -3.361039931007324E-2   -1.415434065960504E-2   -3.160080927993605E-2   -1.531160992648944E-2   -1.169078213701376E-1    5.059031828790467E-1
 1.001100999702500E+10  -2.884797634481633E-1    4.270246826224484E-1   -3.392052636856197E-2   -1.414933675344360E-2   -3.196575889366388E-2   -1.535769122180294E-2   -1.159928775896541E-1    5.060562149519078E-1
 1.001102085900000E+10  -2.872708853279614E-1    4.277949417401743E-1   -3.435789288796099E-2   -1.404002064742154E-2   -3.214787982138245E-2   -1.538054421348494E-2   -1.154669772111854E-1    5.060912900922313E-1
 1.001103172097500E+10  -2.860309097372080E-1    4.287003261210504E-1   -3.456001722698421E-2   -1.407775675893640E-2   -3.243620797066890E-2   -1.539099987049569E-2   -1.146592838096626E-1    5.063801274532828E-1
 1.001104258295000E+10  -2.848735653811973E-1    4.293636638811810E-1   -3.497284160274244E-2   -1.404423852934935E-2   -3.269076215192619E-2   -1.530313229261046E-2   -1.138064632739414E-1    5.066015036308492E-1
 1.001105344492500E+10  -2.836930449395820E-1    4.301186264356434E-1   -3.514870310559343E-2   -1.413196039336815E-2   -3.303567457130500E-2   -1.539578325010900E-2   -1.130376398742448E-1    5.066580304356237E-1
 1.001106430690000E+10  -2.824254159857096E-1    4.308558678025750E-1   -3.543384539832818E-2   -1.408779063728953E-2   -3.340326724309228E-2   -1.524075126463087E-2   -1.123334127111810E-1    5.067785827141605E-1
 1.001107516887500E+10  -2.811139454563609E-1    4.312959658480026E-1   -3.551133137968208E-2   -1.413400139167510E-2   -3.368162855627629E-2   -1.530227432950017E-2   -1.116017926771891E-1    5.069196065341939E-1
 1.001108603085000E+10  -2.798806775821365E-1    4.322009671900058E-1   -3.606145501201977E-2   -1.422355418154076E-2   -3.392489906488348E-2   -1.533395346352151E-2   -1.107653283982440E-1    5.071429451091435E-1
 1.001109689282500E+10  -2.787029154687473E-1    4.329764468960585E-1   -3.616166496658427E-2   -1.424886239097920E-2   -3.407272800473600E-2   -1.546787270795370E-2   -1.099209185747309E-1    5.072424822090215E-1
 1.001110775480000E+10  -2.772946786502657E-1    4.336531978537790E-1   -3.655605739981670E-2   -1.431214923771507E-2   -3.433118626635604E-2   -1.552716588017807E-2   -1.091452253788672E-1    5.074672763441853E-1
 1.001111861677500E+10  -2.760316251682207E-1    4.344871646782771E-1   -3.687932781004846E-2   -1.426935504851369E-2   -3.475340144533959E-2   -1.549118663203103E-2   -1.084515449949151E-1    5.076998242201175E-1
 1.001112947875000E+10  -2.747834760987063E-1    4.352306624769722E-1   -3.717137234382513E-2   -1.423743222197444E-2   -3.501526860850402E-2   -1.555967545906220E-2   -1.076546554110143E-1    5.077985947042722E-1
