#  HZ   S   RI   R     50.00 
! Rohde & Schwarz Vector Network Analyzer 
! Rohde-Schwarz,ZNB20-2Port,1311601062101988,3.16
! Created: UTC 12/23/2023, 3:44:00 AM
! freq[Hz]                re:S11                  im:S11                  re:S21                  im:S21                  re:S12                  im:S12                  re:S22                  im:S22
 1.000982519600000E+10  -3.747239443779372E-1    3.545246131849550E-1   -1.874173063569317E-2   -1.275075094950781E-2   -1.742065222576514E-2   -1.332220189827199E-2   -1.920571674841533E-1    4.816654149428164E-1
 1.000983709672500E+10  -3.739756586647101E-1    3.553184811628073E-1   -1.875837574537110E-2   -1.292872137546290E-2   -1.740618996245781E-2   -1.332437410962074E-2   -1.914809751796818E-1    4.817685305670656E-1
 1.000984899745000E+10  -3.732598444703945E-1    3.559228974364522E-1   -1.887758162967730E-2   -1.298447807438994E-2   -1.754673070274076E-2   -1.333862828104667E-2   -1.907574577898479E-1    4.822651472330864E-1
 1.000986089817500E+10  -3.725716169800989E-1    3.568610172661681E-1   -1.908600072928745E-2   -1.296491023821401E-2   -1.759446361192231E-2   -1.333246916630947E-2   -1.899036891770965E-1    4.824604231542800E-1
 1.000987279890000E+10  -3.718112206670225E-1    3.574978191480325E-1   -1.909616745879194E-2   -1.290370488613742E-2   -1.772347497439326E-2   -1.341789960615946E-2   -1.892865930920455E-1    4.828463120768122E-1
 1.000988469962500E+10  -3.711678991354179E-1    3.581130517421374E-1   -1.922230544027206E-2   -1.295327465075059E-2   -1.785758613326168E-2   -1.345180183123706E-2   -1.885732312877706E-1    4.832787106574404E-1
 1.000989660035000E+10  -3.704453773376881E-1    3.591153139645720E-1   -1.935202160521758E-2   -1.304742640104598E-2   -1.791573898685150E-2   -1.353133953424650E-2   -1.878182638916261E-1    4.833069277014111E-1
 1.000990850107500E+10  -3.696144043001786E-1    3.596908128966076E-1   -1.941207597797895E-2   -1.295059209439643E-2   -1.803873904751441E-2   -1.343410549576557E-2   -1.869529845581225E-1    4.836592265218114E-1
 1.000992040180000E+10  -3.690557282199783E-1    3.604809105936147E-1   -1.956439892216810E-2   -1.296792526596919E-2   -1.817596136851882E-2   -1.345643419318746E-2   -1.863214170464072E-1    4.840112563716547E-1
 1.000993230252500E+10  -3.682514981444892E-1    3.611626563934036E-1   -1.968341616878925E-2   -1.313605283837793E-2   -1.821960313121255E-2   -1.348089072467899E-2   -1.855078701516938E-1    4.843174694927207E-1
 1.000994420325000E+10  -3.675330070278793E-1    3.619529035768309E-1   -1.969497901363542E-2   -1.304672120402395E-2   -1.837061404771809E-2   -1.333833399572212E-2   -1.847150313610938E-1    4.845432486228021E-1
 1.000995610397500E+10  -3.668140750725097E-1    3.626860647712340E-1   -1.982244036218116E-2   -1.302965602272510E-2   -1.846013851050256E-2   -1.356615339939907E-2   -1.839916324607456E-1    4.848046628046714E-1
 1.000996800470000E+10  -3.662627249738603E-1    3.634162494061242E-1   -1.994215975564661E-2   -1.301240162792473E-2   -1.871269261427085E-2   -1.361259069947434E-2   -1.832980249986648E-1    4.852083556211612E-1
 1.000997990542500E+10  -3.654621523778271E-1    3.640348083283721E-1   -1.994965768350320E-2   -1.310945547417407E-2   -1.867821376168255E-2   -1.370035521613594E-2   -1.824949998051636E-1    4.854926370951239E-1
 1.000999180615000E+10  -3.646339667278177E-1    3.649201588600210E-1   -2.019398733780008E-2   -1.318299303342638E-2   -1.874306820259096E-2   -1.360450266605912E-2   -1.819218147695969E-1    4.856068634103342E-1
 1.001000370687500E+10  -3.639003590253151E-1    3.656848344360110E-1   -2.032512834268395E-2   -1.310742277164991E-2   -1.877186126901236E-2   -1.377779558316376E-2   -1.810729452889043E-1    4.860670819084427E-1
 1.001001560760000E+10  -3.631677905955624E-1    3.663475155317056E-1   -2.024283818683882E-2   -1.325443869992823E-2   -1.894920203357570E-2   -1.369091991047028E-2   -1.803408691237460E-1    4.863476354274712E-1
 1.001002750832500E+10  -3.624006818668555E-1    3.670993607468531E-1   -2.046893455207425E-2   -1.325651309192195E-2   -1.900167745747595E-2   -1.360086762874836E-2   -1.796248638875327E-1    4.865913516134202E-1
 1.001003940905000E+10  -3.616873144867993E-1    3.677269108332508E-1   -2.057864687451722E-2   -1.332279385405697E-2   -1.929915889548273E-2   -1.368212168946413E-2   -1.787576206858358E-1    4.869456933872780E-1
 1.001005130977500E+10  -3.609070864892124E-1    3.685765718226968E-1   -2.065591822046934E-2   -1.330376003293625E-2   -1.931574369128176E-2   -1.373096976179654E-2   -1.781013427958106E-1    4.872483833867171E-1
 1.001006321050000E+10  -3.601118641390065E-1    3.693316305799356E-1   -2.073214253517365E-2   -1.319446776291718E-2   -1.946761950781622E-2   -1.376108026349113E-2   -1.773702981196998E-1    4.874210535330654E-1
 1.001007511122500E+10  -3.594230206303722E-1    3.701004472226009E-1   -2.092153303110896E-2   -1.326246753375917E-2   -1.958491842624121E-2   -1.378453622417913E-2   -1.766389438673573E-1    4.877989458677136E-1
 1.001008701195000E+10  -3.588208975358313E-1    3.707220824185853E-1   -2.097169714111966E-2   -1.318336804500082E-2   -1.962798114406572E-2   -1.379525212347946E-2   -1.758711167589530E-1    4.880775193479907E-1
 1.001009891267500E+10  -3.579907122880736E-1    3.715537196331438E-1   -2.099939392060605E-2   -1.336465697181611E-2   -1.974788958850986E-2   -1.364987119114191E-2   -1.751511082656506E-1    4.883171597522476E-1
 1.001011081340000E+10  -3.572991319026499E-1    3.722470740084834E-1   -2.120065501337832E-2   -1.324867541429951E-2   -1.981749278139210E-2   -1.379253255373189E-2   -1.742889914424250E-1    4.886766111435744E-1
 1.001012271412500E+10  -3.564187297687871E-1    3.728447758270796E-1   -2.145939325107720E-2   -1.323022412392952E-2   -1.994241664686094E-2   -1.382282759900300E-2   -1.736029604962838E-1    4.889386823187160E-1
 1.001013461485000E+10  -3.556501892589475E-1    3.737167893695091E-1   -2.153573169456061E-2   -1.328282685767536E-2   -2.013333826537954E-2   -1.388343992999835E-2   -1.728945201126997E-1    4.890297459698213E-1
 1.001014651557500E+10  -3.548703404918039E-1    3.745352137368267E-1   -2.170143108528482E-2   -1.333481673183845E-2   -2.031918225717280E-2   -1.390969770487882E-2   -1.721151056278821E-1    4.894473818419760E-1
 1.001015841630000E+10  -3.540581883938100E-1    3.752810555502263E-1   -2.181730598247536E-2   -1.333043586066415E-2   -2.028940973616939E-2   -1.378176733900812E-2   -1.715105588234213E-1    4.897410219486240E-1
 1.001017031702500E+10  -3.531581277800415E-1    3.759751356092320E-1   -2.190107072659714E-2   -1.331427150593381E-2   -2.054121594140107E-2   -1.381031758407054E-2   -1.706702484641962E-1    4.899547203782607E-1
 1.001018221775000E+10  -3.523600912955105E-1    3.766993284356642E-1   -2.198692938759925E-2   -1.338779550687573E-2   -2.063379396446168E-2   -1.400803399477444E-2   -1.698436057047066E-1    4.901883220069234E-1
 1.001019411847500E+10  -3.516369237208403E-1    3.774859110992526E-1   -2.224653727578382E-2   -1.360557551437034E-2   -2.078857114409209E-2   -1.397847139776874E-2   -1.692143668277475E-1    4.904403688853850E-1
 1.001020601920000E+10  -3.508598851404075E-1    3.782169230656398E-1   -2.244029642007292E-2   -1.351933990486944E-2   -2.084782201848423E-2   -1.391914538116164E-2   -1.684550298327629E-1    4.908614627722371E-1
 1.001021791992500E+10  -3.500376012797668E-1    3.789815471366361E-1   -2.250189727643877E-2   -1.355836934597178E-2   -2.105188813945056E-2   -1.389604626574902E-2   -1.676465234699977E-1    4.910046244508202E-1
 1.001022982065000E+10  -3.492575430946051E-1    3.797437057736388E-1   -2.260037823422864E-2   -1.347496700327224E-2   -2.108389163520080E-2   -1.405804506090397E-2   -1.668243349010102E-1    4.913835390154871E-1
 1.001024172137500E+10  -3.483089898556944E-1    3.804678791483138E-1   -2.274717690822944E-2   -1.353256247157034E-2   -2.117901188708064E-2   -1.409832737490507E-2   -1.661281080590246E-1    4.916092779308894E-1
 1.001025362210000E+10  -3.475826355742829E-1    3.811445691143303E-1   -2.290258689851635E-2   -1.355677146038766E-2   -2.139498336598032E-2   -1.408598034227574E-2   -1.653611632100722E-1    4.919155619193676E-1
 1.001026552282500E+10  -3.466764918054899E-1    3.819954322163900E-1   -2.305716230456640E-2   -1.343263870540494E-2   -2.147462394228764E-2   -1.406778474817700E-2   -1.645414282184155E-1    4.921707602575336E-1
 1.001027742355000E+10  -3.459557414616431E-1    3.827061758381615E-1   -2.318547874340657E-2   -1.345245330566700E-2   -2.169225250466908E-2   -1.406390276968965E-2   -1.639221425726645E-1    4.923436348527350E-1
 1.001028932427500E+10  -3.450862471889861E-1    3.834547620674926E-1   -2.333433228971892E-2   -1.347834686760320E-2   -2.176737426667829E-2   -1.406509562533218E-2   -1.631624868266099E-1    4.926469054375334E-1
 1.001030122500000E+10  -3.442675007009794E-1    3.842445439885136E-1   -2.350162077687758E-2   -1.352331901200556E-2   -2.202524169670075E-2   -1.403458176496922E-2   -1.623518777653860E-1    4.930611513282445E-1
 1.001031312572500E+10  -3.433901828521664E-1    3.849839351249699E-1   -2.365997876387019E-2   -1.369839207152224E-2   -2.197037657413498E-2   -1.416335200797525E-2   -1.614165635037966E-1    4.932065890841986E-1
 1.001032502645000E+10  -3.424631771712743E-1    3.855912818697735E-1   -2.376007984606411E-2   -1.345084601200309E-2   -2.218469937726371E-2   -1.416628530649028E-2   -1.608122017404303E-1    4.934079247377386E-1
 1.001033692717500E+10  -3.417025406242152E-1    3.864396893024305E-1   -2.388028289111422E-2   -1.372865102019513E-2   -2.238188895705063E-2   -1.422386028668495E-2   -1.600426552655798E-1    4.936967602404413E-1
 1.001034882790000E+10  -3.408914606262720E-1    3.871549384557789E-1   -2.404436651795673E-2   -1.372771274531577E-2   -2.253897183479565E-2   -1.423364855341099E-2   -1.592857844820869E-1    4.939461753370334E-1
 1.001036072862500E+10  -3.399786705772938E-1    3.878645162837192E-1   -2.410324171959771E-2   -1.375051595038613E-2   -2.264847305117096E-2   -1.419766458305795E-2   -1.584496304823535E-1    4.942817563097990E-1
 1.001037262935000E+10  -3.390730344144973E-1    3.887096689803661E-1   -2.429863138924068E-2   -1.371787001662948E-2   -2.283207603973483E-2   -1.418805473933875E-2   -1.577568937346971E-1    4.946114535335006E-1
 1.001038453007500E+10  -3.382073555139504E-1    3.894075290305548E-1   -2.461536950341345E-2   -1.378459572563243E-2   -2.305953142815689E-2   -1.430296837852416E-2   -1.569979451408884E-1    4.947036178448909E-1
 1.001039643080000E+10  -3.372925405069092E-1    3.902326356483600E-1   -2.477649699114509E-2   -1.379950032432306E-2   -2.319409623806630E-2   -1.425476201962120E-2   -1.560992169425513E-1    4.949910312869523E-1
 1.001040833152500E+10  -3.363433696977015E-1    3.909135950880134E-1   -2.476464879216119E-2   -1.362950367242774E-2   -2.322803726466244E-2   -1.437562008295526E-2   -1.554454061498462E-1    4.951203614167851E-1
 1.001042023225000E+10  -3.353067085848906E-1    3.915980393433770E-1   -2.501241500050519E-2   -1.373116599454643E-2   -2.343020071675431E-2   -1.431278842019621E-2   -1.545929075949616E-1    4.954265008126968E-1
 1.001043213297500E+10  -3.346220595593207E-1    3.924464479822571E-1   -2.527705199662766E-2   -1.369931667615507E-2   -2.372605300733833E-2   -1.443517454866684E-2   -1.537263206346876E-1    4.957249072329686E-1
 1.001044403370000E+10  -3.335757379728888E-1    3.932586468966155E-1   -2.541524107056815E-2   -1.360424331206847E-2   -2.375608116400972E-2   -1.444693339563623E-2   -1.531790287824762E-1    4.957779965367770E-1
 1.001045593442500E+10  -3.327099429861174E-1    3.940483443642900E-1   -2.555955238782015E-2   -1.379435807380638E-2   -2.397100420706321E-2   -1.439013126567625E-2   -1.521856993251478E-1    4.962082181263309E-1
 1.001046783515000E+10  -3.317716404224326E-1    3.947097915108629E-1   -2.562315399035706E-2   -1.374443845647987E-2   -2.409561865765283E-2   -1.439216526188746E-2   -1.516814405839102E-1    4.964793923423207E-1
 1.001047973587500E+10  -3.309181772960937E-1    3.954269519289094E-1   -2.590759292246688E-2   -1.376035202209697E-2   -2.430041032439778E-2   -1.437970666378665E-2   -1.506894167700740E-1    4.966552447345953E-1
 1.001049163660000E+10  -3.299894270614070E-1    3.963176026087413E-1   -2.609454038489616E-2   -1.376199359146216E-2   -2.433910145144560E-2   -1.446705940837056E-2   -1.500211095275339E-1    4.969910092481004E-1
 1.001050353732500E+10  -3.289965802781787E-1    3.967558280928039E-1   -2.626408911445781E-2   -1.381802771259002E-2   -2.460527902696339E-2   -1.447246529012419E-2   -1.492406421020813E-1    4.972234522384935E-1
 1.001051543805000E+10  -3.280132069956562E-1    3.977291200346945E-1   -2.631901418674822E-2   -1.386623754233830E-2   -2.472180300427843E-2   -1.460947094033445E-2   -1.483238414012773E-1    4.974929149373984E-1
 1.001052733877500E+10  -3.269963545726466E-1    3.985171097782897E-1   -2.657052878204682E-2   -1.403884670904525E-2   -2.501433680129504E-2   -1.463607509629058E-2   -1.476993579738866E-1    4.976579834388946E-1
 1.001053923950000E+10  -3.260765733340854E-1    3.994053006767664E-1   -2.679138602798547E-2   -1.387573095390192E-2   -2.515336777268120E-2   -1.466596791583733E-2   -1.469539480980667E-1    4.978157004275146E-1
 1.001055114022500E+10  -3.250281143658183E-1    3.999641679907001E-1   -2.684344699584049E-2   -1.396905719483289E-2   -2.527733030816352E-2   -1.463543812833485E-2   -1.460005819720140E-1    4.980503023822510E-1
 1.001056304095000E+10  -3.242108555659163E-1    4.007428832710167E-1   -2.715579049582371E-2   -1.389064190628957E-2   -2.555166666645047E-2   -1.461394012443745E-2   -1.452598499819417E-1    4.983559436458434E-1
 1.001057494167500E+10  -3.231641134294098E-1    4.014566342543778E-1   -2.734302766184527E-2   -1.393481671613971E-2   -2.568927279839739E-2   -1.476757106850300E-2   -1.443712279049457E-1    4.985825611923664E-1
 1.001058684240000E+10  -3.221332620757255E-1    4.021358201656062E-1   -2.756176125006467E-2   -1.390529567165335E-2   -2.589553400814606E-2   -1.466064691300657E-2   -1.436832534805428E-1    4.987485841583393E-1
 1.001059874312500E+10  -3.213098072619195E-1    4.028584475932143E-1   -2.784088661841423E-2   -1.386261229701149E-2   -2.619684801860835E-2   -1.459892773803013E-2   -1.429616710187874E-1    4.990829790091786E-1
 1.001061064385000E+10  -3.200249650793291E-1    4.038842573282178E-1   -2.806831611853594E-2   -1.402862402476675E-2   -2.624571894632092E-2   -1.455328005647374E-2   -1.420187156462356E-1    4.993356466512497E-1
 1.001062254457500E+10  -3.190478685966948E-1    4.044737286335766E-1   -2.828953732084049E-2   -1.388475852770808E-2   -2.646974273248268E-2   -1.466920339800805E-2   -1.412979171434767E-1    4.994008914674539E-1
 1.001063444530000E+10  -3.180469857534870E-1    4.053619268773788E-1   -2.849160690161423E-2   -1.394758062556838E-2   -2.660817277613700E-2   -1.478955386241452E-2   -1.404454443128898E-1    4.997410114125097E-1
 1.001064634602500E+10  -3.171069832438140E-1    4.060402354788071E-1   -2.866368220779052E-2   -1.388812876899524E-2   -2.683154752517565E-2   -1.487576400637784E-2   -1.397635812023224E-1    4.999005758428848E-1
 1.001065824675000E+10  -3.160425764015790E-1    4.069646473449065E-1   -2.893545910533744E-2   -1.395887995543691E-2   -2.719503170002644E-2   -1.486082666139410E-2   -1.388124570959398E-1    5.001627305615151E-1
 1.001067014747500E+10  -3.149607363444900E-1    4.075771791126024E-1   -2.910225942877810E-2   -1.400047514266748E-2   -2.741386126693628E-2   -1.492843773200859E-2   -1.380768135595337E-1    5.003855810448705E-1
 1.001068204820000E+10  -3.138114812798311E-1    4.084565873356023E-1   -2.933862099119902E-2   -1.417884134810265E-2   -2.747643915940255E-2   -1.482450515292742E-2   -1.372836849181493E-1    5.006635278035980E-1
 1.001069394892500E+10  -3.126484101900766E-1    4.092400413629760E-1   -2.940908069395876E-2   -1.405672019736353E-2   -2.778977597346163E-2   -1.504427336560746E-2   -1.364612610208125E-1    5.008298639316703E-1
 1.001070584965000E+10  -3.117629314027948E-1    4.100110845353976E-1   -2.969346968156525E-2   -1.430620592469723E-2   -2.787813122225298E-2   -1.503693773071608E-2   -1.357532184238495E-1    5.010148720539915E-1
 1.001071775037500E+10  -3.107259914679037E-1    4.107431345374026E-1   -2.996789509225721E-2   -1.422711638577409E-2   -2.829171408101984E-2   -1.489688715541789E-2   -1.349635896474767E-1    5.012077248453669E-1
 1.001072965110000E+10  -3.093598440680707E-1    4.115696070389810E-1   -3.028745837006356E-2   -1.417778067823890E-2   -2.844737116054622E-2   -1.486256276703061E-2   -1.340900551632480E-1    5.014415287534298E-1
 1.001074155182500E+10  -3.083048677545528E-1    4.123811291493677E-1   -3.039175011026723E-2   -1.410729265298548E-2   -2.862769530374905E-2   -1.483012453496841E-2   -1.333248732368612E-1    5.016225146571001E-1
 1.001075345255000E+10  -3.072980899819448E-1    4.130244422151840E-1   -3.083193698741841E-2   -1.412854735766367E-2   -2.888806499652069E-2   -1.503826463663603E-2   -1.323884133861686E-1    5.018521379236117E-1
 1.001076535327500E+10  -3.060623718854319E-1    4.136996642745882E-1   -3.107915123283271E-2   -1.393020157766319E-2   -2.908264182714529E-2   -1.506986857264607E-2   -1.317630989287290E-1    5.020020496442053E-1
 1.001077725400000E+10  -3.049458107203120E-1    4.144299487377136E-1   -3.116611838654355E-2   -1.399209616517272E-2   -2.928547361001363E-2   -1.509221655358529E-2   -1.307039809385107E-1    5.021463238587016E-1
 1.001078915472500E+10  -3.038842679745248E-1    4.152993318498140E-1   -3.153232564206935E-2   -1.403673565601769E-2   -2.971171982435669E-2   -1.511752045967718E-2   -1.299813398335918E-1    5.025672130831562E-1
 1.001080105545000E+10  -3.025450885270528E-1    4.161162436358783E-1   -3.175120496625224E-2   -1.409444150711281E-2   -2.979705806027611E-2   -1.513562612505758E-2   -1.292329034673912E-1    5.025783817835845E-1
 1.001081295617500E+10  -3.014156112100211E-1    4.168300118414244E-1   -3.213017451149649E-2   -1.409406228410741E-2   -3.001887363929135E-2   -1.517091698070972E-2   -1.284716304282035E-1    5.027782013868037E-1
 1.001082485690000E+10  -3.001705103662436E-1    4.176588034385093E-1   -3.229056457828795E-2   -1.413768440963464E-2   -3.031868781145585E-2   -1.509960212951607E-2   -1.276039238263464E-1    5.031120209759026E-1
 1.001083675762500E+10  -2.991155344876210E-1    4.184629029498049E-1   -3.254505014282660E-2   -1.413168694672398E-2   -3.071311343900614E-2   -1.513940602922593E-2   -1.268138933074295E-1    5.032940422197585E-1
 1.001084865835000E+10  -2.978324601828166E-1    4.193015541729287E-1   -3.267861101305008E-2   -1.418777402106390E-2   -3.094917135206557E-2   -1.508095568907737E-2   -1.258544508917149E-1    5.035046612148175E-1
 1.001086055907500E+10  -2.964710331142082E-1    4.199875986631110E-1   -3.309120949940466E-2   -1.429571675749334E-2   -3.114888174804204E-2   -1.499935237290207E-2   -1.250429489008315E-1    5.036198790933654E-1
 1.001087245980000E+10  -2.952184059206703E-1    4.206854967510250E-1   -3.331884492036742E-2   -1.420960828771999E-2   -3.153818345364426E-2   -1.515183898717515E-2   -1.242713415793850E-1    5.037976172365720E-1
 1.001088436052500E+10  -2.939772661288856E-1    4.216259157600848E-1   -3.361253136532939E-2   -1.429793697450797E-2   -3.180008611228262E-2   -1.517673407052588E-2   -1.234355875542591E-1    5.041037117521405E-1
 1.001089626125000E+10  -2.927380741059358E-1    4.223912493292442E-1   -3.399196872221507E-2   -1.414427946313363E-2   -3.191184778319365E-2   -1.525192769839019E-2   -1.225764417500232E-1    5.042287381838696E-1
