#  HZ   S   DB   R     50.00 
! Rohde & Schwarz Vector Network Analyzer 
! Rohde-Schwarz,ZNB20-2Port,1311601062101988,3.16
! Created: UTC 1/12/2023, 6:38:06 PM
! freq[Hz]                db:S11                  ang:S11                 db:S21                  ang:S21                 db:S12                  ang:S12                 db:S22                  ang:S22
 7.874557730000000E9    -2.246584218346756       3.566339889268836E1    -5.278473251909531E1    -5.691905640655420E1    -5.281101973564812E1    -6.090317408999730E1    -2.184897201313222       1.160944981296308E1
 7.874618383550000E9    -2.245665377662011       3.548702497753461E1    -5.233509013412189E1    -5.675900157834942E1    -5.272557028961178E1    -6.108195130266555E1    -2.185744540412765       1.143902425764310E1
 7.874679037100000E9    -2.247119413887634       3.533880845562060E1    -5.253300134670397E1    -5.888424702660380E1    -5.281465348010193E1    -6.114249987451022E1    -2.185509187057553       1.128895695318151E1
 7.874739690650000E9    -2.243873521765148       3.518306260196366E1    -5.256569340488808E1    -5.766650982525303E1    -5.264452413534735E1    -6.215332422849897E1    -2.188170152365606       1.115074429176041E1
 7.874800344200000E9    -2.243563747659728       3.499437549887654E1    -5.234791658726436E1    -5.834617494032052E1    -5.257380113966135E1    -6.298356385197196E1    -2.178555788697538       1.103715874185583E1
 7.874860997750000E9    -2.242202427051700       3.482681826018586E1    -5.221289457052313E1    -5.795169740266166E1    -5.259591800240710E1    -6.342359108616759E1    -2.173710484572674       1.085328206543377E1
 7.874921651300000E9    -2.240037386156763       3.465915027824542E1    -5.272323657050313E1    -6.005146264962266E1    -5.252207420916694E1    -6.030764517920159E1    -2.175931406386569       1.070051085354645E1
 7.874982304850000E9    -2.237671494961035       3.450143112495388E1    -5.208282959793610E1    -6.113433429976503E1    -5.215851718110380E1    -6.051601407535613E1    -2.172505573679397       1.057654049514278E1
 7.875042958400000E9    -2.238179406310945       3.432125460474060E1    -5.216710962028388E1    -6.070711662758993E1    -5.233675741457368E1    -6.352683082327259E1    -2.170220372188522       1.044252277944911E1
 7.875103611950000E9    -2.237125079235752       3.416217540928274E1    -5.200179107703582E1    -5.900207156514630E1    -5.174346898823572E1    -6.144523055003749E1    -2.169366154621039       1.029267497919795E1
 7.875164265500000E9    -2.231782760184866       3.401073904557573E1    -5.187100447364281E1    -5.891047738988391E1    -5.173770997873316E1    -6.331518457835716E1    -2.161731069735471       1.018475887843941E1
 7.875224919050000E9    -2.235114536006189       3.380903314024943E1    -5.185659940137882E1    -6.202667814081616E1    -5.152375308472585E1    -6.515904256439426E1    -2.166033461965013       9.984917045470800
 7.875285572600000E9    -2.231192871936219       3.365645306672964E1    -5.153270436944985E1    -5.898043519092858E1    -5.144646857194725E1    -6.526245332582192E1    -2.162357905925147       9.868319635353201
 7.875346226150000E9    -2.232468067817618       3.348193250847516E1    -5.152196864470794E1    -6.109781438617318E1    -5.154234818729783E1    -6.361915942002183E1    -2.164225370492685       9.727003235620682
 7.875406879700000E9    -2.232341895041603       3.332120859112628E1    -5.147361776360114E1    -6.029432383271389E1    -5.171825760341353E1    -6.369885071277965E1    -2.156809654039883       9.586937176808519
 7.875467533250000E9    -2.231021283012431       3.315337176946923E1    -5.134357549368431E1    -6.070054830772737E1    -5.137990508982156E1    -6.440165023121989E1    -2.159014365961316       9.437560269461558
 7.875528186800000E9    -2.228730498397764       3.299092310016950E1    -5.122976167760140E1    -6.310159737509105E1    -5.121207964953893E1    -6.488396077069832E1    -2.155424535526534       9.301175938831779
 7.875588840350000E9    -2.226654601836306       3.282691193794416E1    -5.146594876623688E1    -6.261066449515271E1    -5.122269305030449E1    -6.507449552417206E1    -2.157500506486670       9.129892945959375
 7.875649493900000E9    -2.225305034836488       3.265891278143533E1    -5.141779763948798E1    -6.155574210332922E1    -5.134464665425311E1    -6.657299184150735E1    -2.154110935970537       8.996200625905960
 7.875710147450000E9    -2.226569822483015       3.247055967401366E1    -5.098546835577209E1    -6.280867177049632E1    -5.098060269461865E1    -6.782045465657409E1    -2.146820027071041       8.918515648019101
 7.875770801000000E9    -2.223118845961668       3.231796741782174E1    -5.097490261871309E1    -6.239977558183683E1    -5.112263023775233E1    -6.681113221145682E1    -2.151269032903445       8.730296866145729
 7.875831454550000E9    -2.218427302605725       3.216525456749821E1    -5.099942937505389E1    -6.315434810686561E1    -5.089820027644599E1    -6.831829672406451E1    -2.148269402451754       8.592211530752165
 7.875892108100000E9    -2.224270389403784       3.200557833976485E1    -5.056410395814463E1    -6.328013414777318E1    -5.085256720450762E1    -6.717749138440726E1    -2.142946112560975       8.411462406800061
 7.875952761650000E9    -2.218585611175595       3.184939798131592E1    -5.074807661781480E1    -6.465444862436779E1    -5.077296848671362E1    -6.657521077611102E1    -2.141842314645824       8.298859758774551
 7.876013415200000E9    -2.218124994389176       3.166216462432932E1    -5.047963236515314E1    -6.431626933787246E1    -5.041424803829536E1    -6.668991428119502E1    -2.144465313277074       8.195090449798574
 7.876074068750000E9    -2.216597154566381       3.150246508976873E1    -5.029054232390781E1    -6.527053969510629E1    -5.045320185927715E1    -6.941745536976892E1    -2.141710662671323       8.016767741780646
 7.876134722300000E9    -2.217003910387354       3.136670060089223E1    -5.045345143821641E1    -6.400338271372962E1    -5.026714570397704E1    -6.873781198781960E1    -2.130494926916601       7.887526853346801
 7.876195375850000E9    -2.217958294692940       3.117611748904933E1    -5.002185869655890E1    -6.513967412203246E1    -5.009834998100386E1    -6.716066448200262E1    -2.136277159554366       7.741036273309528
 7.876256029400000E9    -2.217026652242036       3.101461403802027E1    -5.013447084125008E1    -6.594725734502154E1    -5.012257934064178E1    -6.952538405947342E1    -2.135813750500266       7.603775622977492
 7.876316682950000E9    -2.218752122839267       3.085087253340853E1    -5.004754999469198E1    -6.808361747896183E1    -4.992340935794162E1    -6.930017604769306E1    -2.131489178757889       7.433576926640645
 7.876377336500000E9    -2.215668832356047       3.068731381945712E1    -4.959183172075468E1    -6.601940796549773E1    -5.004685721005210E1    -6.863199582722814E1    -2.133959856796701       7.278063022066666
 7.876437990050000E9    -2.215064504403445       3.050511958791744E1    -4.956529508717551E1    -6.670148813457794E1    -4.979998141104993E1    -6.912047029525905E1    -2.132305096467713       7.115843982345075
 7.876498643600000E9    -2.211395204499126       3.035124299865624E1    -4.963075749151599E1    -6.524780666189136E1    -4.971491074689376E1    -7.125981185176244E1    -2.128175215566993       6.985949384515227
 7.876559297150000E9    -2.212256179899221       3.017698819846655E1    -4.935413362342597E1    -6.655997572744361E1    -4.946058299444729E1    -7.057615540273615E1    -2.132181255996343       6.885637967719230
 7.876619950700000E9    -2.212610978668958       3.000039641462179E1    -4.932191349090016E1    -6.799112052490257E1    -4.946159129129928E1    -7.107066110416979E1    -2.127766223145833       6.698854185153018
 7.876680604250000E9    -2.207520272041529       2.986185712256626E1    -4.913296115690435E1    -6.703946297046022E1    -4.933121920202878E1    -7.123970293931580E1    -2.133092720533116       6.575439815494877
 7.876741257800000E9    -2.211685061005754       2.968584958641597E1    -4.924537270141317E1    -6.726456354017526E1    -4.916309181518616E1    -7.051402010650267E1    -2.124159753540992       6.455044939469531
 7.876801911350000E9    -2.210350739825187       2.950473857575752E1    -4.893296749118459E1    -6.723622924759296E1    -4.880524109829164E1    -7.148092286409778E1    -2.118104986041979       6.265486182477822
 7.876862564900000E9    -2.209090805447425       2.935267776761322E1    -4.884733202601262E1    -6.855495008161992E1    -4.890415156591104E1    -7.113826110087058E1    -2.123164403443461       6.134899005533303
 7.876923218450000E9    -2.204357464443435       2.918054576849602E1    -4.865866323594582E1    -6.934374157890281E1    -4.867690960012688E1    -7.295239471546971E1    -2.119044772509907       5.968394227401022
 7.876983872000000E9    -2.206777693194568       2.900617102901782E1    -4.860581867612445E1    -6.968920974556954E1    -4.848549447857859E1    -7.398973177560323E1    -2.112939583257794       5.870531147325448
 7.877044525550000E9    -2.204251698235023       2.886483163752030E1    -4.846752044521238E1    -7.004484972548774E1    -4.845844547015395E1    -7.224918656232251E1    -2.117869225120298       5.728151008646932
 7.877105179100000E9    -2.203148251187157       2.869563004023953E1    -4.812829823350343E1    -7.031998237481343E1    -4.831757394051000E1    -7.379075779894976E1    -2.116408328463882       5.570206918655436
 7.877165832650000E9    -2.206520432485038       2.853582110784314E1    -4.823071150544830E1    -7.105982665252488E1    -4.820282304372526E1    -7.351984920362268E1    -2.115298086728846       5.433216165701318
 7.877226486200000E9    -2.202263582693997       2.836911774295983E1    -4.797967519706167E1    -7.064715260178696E1    -4.813044024331062E1    -7.398697314933604E1    -2.110692496982321       5.299100950278381
 7.877287139750000E9    -2.203541644265719       2.819839481419636E1    -4.787570913664321E1    -7.069204944580068E1    -4.802867918960730E1    -7.483867706292277E1    -2.112980229554000       5.169857602146418
 7.877347793300000E9    -2.204799421583273       2.802984634499035E1    -4.768377642244613E1    -7.222085649921577E1    -4.790260233567111E1    -7.439902131078544E1    -2.110660098276564       5.009259413466325
 7.877408446850000E9    -2.200876870242440       2.787362790394427E1    -4.761425600955700E1    -7.252567538520451E1    -4.766843289316736E1    -7.520482394132819E1    -2.107452827839897       4.861273925270373
 7.877469100400000E9    -2.198187127692937       2.768529694676027E1    -4.747985955677807E1    -7.285358259469857E1    -4.744684995374971E1    -7.495404462370456E1    -2.112142521067170       4.742847764772475
 7.877529753950000E9    -2.200039162750436       2.752887300797338E1    -4.724191022451267E1    -7.166769093002068E1    -4.724470552927149E1    -7.577804974826445E1    -2.094656989807495       4.640517943852759
 7.877590407500000E9    -2.198275834129312       2.735977816458938E1    -4.684461832418862E1    -7.321564766838145E1    -4.720709215783664E1    -7.800174134186331E1    -2.100544365128580       4.410278352152473
 7.877651061050000E9    -2.199557375095056       2.720855757190296E1    -4.696364438969880E1    -7.314573565724429E1    -4.714552308756719E1    -7.636390985707511E1    -2.102431758696188       4.282856202298663
 7.877711714600000E9    -2.194439844233791       2.704584690051694E1    -4.665922286424706E1    -7.474146927310539E1    -4.689249255378297E1    -7.711835231633856E1    -2.098328030877909       4.197912288516084
 7.877772368150000E9    -2.195717169975396       2.683749441714070E1    -4.645706350584053E1    -7.334167535323598E1    -4.676802257322883E1    -7.780879247658838E1    -2.099797158574935       4.000338673504616
 7.877833021700000E9    -2.198884485466092       2.667457996302363E1    -4.645102683336233E1    -7.577701346712661E1    -4.663703349420730E1    -7.937487692434280E1    -2.098512742737699       3.887934151539763
 7.877893675250000E9    -2.195439825811138       2.651998250055629E1    -4.622694375403096E1    -7.521935707010637E1    -4.635041294790595E1    -7.941845763122926E1    -2.092669406337160       3.759844682737617
 7.877954328800000E9    -2.197638249309754       2.634105540438319E1    -4.603957356168516E1    -7.576754301387716E1    -4.626783622484223E1    -7.883082952194052E1    -2.097901098346531       3.556798098428684
 7.878014982350000E9    -2.195983581400470       2.618333777560687E1    -4.578630929965888E1    -7.727742885998305E1    -4.600930382364130E1    -7.961913239614871E1    -2.100309045333803       3.421717874889149
 7.878075635900000E9    -2.196565039466787       2.600415824334441E1    -4.558620741288637E1    -7.691767999855027E1    -4.585018867287368E1    -8.099352175844379E1    -2.089765193196415       3.321988945194601
 7.878136289450000E9    -2.194007648344253       2.583640352967022E1    -4.546631901389298E1    -7.716735026318457E1    -4.558796675609041E1    -8.133192076366342E1    -2.092791804164238       3.131461123709198
 7.878196943000000E9    -2.193520478456884       2.566434115316797E1    -4.522829096691450E1    -7.794266128518180E1    -4.547239113749188E1    -8.251161777290974E1    -2.090254232065961       3.020669416709245
 7.878257596550000E9    -2.192891275292103       2.550194467398447E1    -4.500365102981381E1    -7.925876361618219E1    -4.523421158258405E1    -8.184127815775628E1    -2.090922234733786       2.845034989350511
 7.878318250100000E9    -2.195842579493078       2.535421527402898E1    -4.497800733794131E1    -7.987033200619211E1    -4.503655208991961E1    -8.323830060962565E1    -2.098022561748991       2.733615979283068
 7.878378903650000E9    -2.196327020285472       2.516555313909598E1    -4.476386714227925E1    -8.002994422507503E1    -4.485244758678847E1    -8.409923170320005E1    -2.092479349716749       2.589591737934549
 7.878439557200000E9    -2.194606049996166       2.500504188005369E1    -4.446218319977436E1    -8.023487950394220E1    -4.468275961105728E1    -8.376493245671821E1    -2.090857669637781       2.432914751662291
 7.878500210750000E9    -2.195098049100910       2.481378369707901E1    -4.427015389796692E1    -8.192117929968380E1    -4.435999946673356E1    -8.540117657570485E1    -2.090383095836002       2.271767967339972
 7.878560864300000E9    -2.192650814483314       2.466067204931774E1    -4.396530250365991E1    -8.297398503452082E1    -4.414151548690473E1    -8.578333697919528E1    -2.091429152873569       2.098972781918721
 7.878621517850000E9    -2.194907699788092       2.447198310657329E1    -4.384736758406515E1    -8.297435400625228E1    -4.403286522033008E1    -8.641164587898446E1    -2.082732615035406       1.981451310239968
 7.878682171400000E9    -2.192556400066393       2.430560269270125E1    -4.361491382116093E1    -8.398860839150683E1    -4.374368898773716E1    -8.702285568213939E1    -2.091612889082416       1.844226770915117
 7.878742824950000E9    -2.191950532305857       2.413851996025983E1    -4.334140207880353E1    -8.461684258283914E1    -4.341426876696041E1    -8.787469963794155E1    -2.088223794841449       1.732493571180661
 7.878803478500000E9    -2.193764302274863       2.395018450422814E1    -4.312337369393150E1    -8.571204316312811E1    -4.314043306301119E1    -8.816582352940854E1    -2.085786771822385       1.586776900533428
 7.878864132050000E9    -2.198088643619557       2.380862313721221E1    -4.287485529289539E1    -8.539630704084612E1    -4.298413867393216E1    -8.944022660344977E1    -2.092067700086858       1.423829909306688
 7.878924785600000E9    -2.195812337251538       2.363595160271694E1    -4.259062474946489E1    -8.716758401306147E1    -4.274065473317564E1    -9.045087900315933E1    -2.087459217288067       1.289294473336599
 7.878985439150000E9    -2.200116473236567       2.346428102849183E1    -4.232642098702061E1    -8.836827663266955E1    -4.241427363941659E1    -9.101786775995285E1    -2.094066287404856       1.127717994508967
 7.879046092700000E9    -2.201743534460757       2.326577591122631E1    -4.206971924459717E1    -8.865811366050853E1    -4.214485967048255E1    -9.239482134517924E1    -2.097917698363789       9.595429769612640E-1
 7.879106746250000E9    -2.203357285852167       2.310436580424123E1    -4.178515630866080E1    -9.044607099187424E1    -4.192016000226160E1    -9.312942647352281E1    -2.097387299000774       8.085439541162462E-1
 7.879167399800000E9    -2.206210494484475       2.293041643538180E1    -4.146756142291456E1    -9.109711774314864E1    -4.158845731773770E1    -9.475452599641373E1    -2.090085246404282       6.725929009956727E-1
 7.879228053350000E9    -2.202644797324551       2.277782978305783E1    -4.123339125706521E1    -9.194722099451575E1    -4.137504628084457E1    -9.623206741630642E1    -2.090491584455212       5.180835858219544E-1
 7.879288706900000E9    -2.209022946490419       2.260092517924511E1    -4.098541706959190E1    -9.333307966505485E1    -4.098207566862737E1    -9.700416664683141E1    -2.092620989526331       3.869535922106890E-1
 7.879349360450000E9    -2.209573776160403       2.243043871398055E1    -4.060438787595129E1    -9.505339976671283E1    -4.076633283693538E1    -9.828837302261660E1    -2.093727555012018       1.935460552023454E-1
 7.879410014000000E9    -2.211271142172912       2.223456168423818E1    -4.027831330954753E1    -9.671591397382120E1    -4.042180813257865E1    -1.000014277563909E2    -2.107441038775921       8.865463095435598E-2
 7.879470667550000E9    -2.217876506017170       2.206734551132406E1    -3.996754378497020E1    -9.793280281893281E1    -4.011017773725566E1    -1.013469994823581E2    -2.101718289448311      -4.959431223637489E-2
 7.879531321100000E9    -2.218094681781293       2.189591246249561E1    -3.962790524448805E1    -9.934730351774239E1    -3.979785052782261E1    -1.029588339850017E2    -2.111567870667211      -2.262008156059763E-1
 7.879591974650000E9    -2.219610732859667       2.170849929661729E1    -3.931310336967181E1    -1.014193687898153E2    -3.949775704052024E1    -1.044971404220540E2    -2.112287664512661      -3.562645818882745E-1
 7.879652628200000E9    -2.225461701713785       2.154996106115814E1    -3.893806300600713E1    -1.031570297094157E2    -3.917040368387939E1    -1.066789586945659E2    -2.120691501998607      -5.723417179886000E-1
 7.879713281750000E9    -2.234586641179813       2.136665970106669E1    -3.866097550217325E1    -1.056111552372864E2    -3.875176405482315E1    -1.085785242034691E2    -2.124333098510598      -7.338219307137753E-1
 7.879773935300000E9    -2.238078347294373       2.122569314190367E1    -3.828223067175757E1    -1.074147679339838E2    -3.840604156668243E1    -1.105591899334697E2    -2.126502751445391      -8.483930715986159E-1
 7.879834588850000E9    -2.241992028241283       2.103368664377873E1    -3.794209881398760E1    -1.094568836102140E2    -3.811604532350263E1    -1.128298565495294E2    -2.138391293670356      -9.964885684977149E-1
 7.879895242400000E9    -2.251009892696854       2.087055324171028E1    -3.761724662427284E1    -1.118960384329498E2    -3.771326748267302E1    -1.153579738571267E2    -2.143567682538196      -1.099244697075812
 7.879955895950000E9    -2.257814980503385       2.071956156407971E1    -3.722807974414383E1    -1.145015252922836E2    -3.738845884414895E1    -1.177919136904712E2    -2.147147640876354      -1.220379438432630
 7.880016549500000E9    -2.269272922973921       2.057146846143335E1    -3.685132292338193E1    -1.177223252499077E2    -3.705344253856045E1    -1.211396922527115E2    -2.165349303363747      -1.350344949156351
 7.880077203050000E9    -2.274239797183645       2.043311179001947E1    -3.651887236475265E1    -1.204035323226623E2    -3.666232602158662E1    -1.240654605685432E2    -2.153624491464111      -1.483176600130296
