#  HZ   S   DB   R     50.00 
! Rohde & Schwarz Vector Network Analyzer 
! Rohde-Schwarz,ZNB20-2Port,1311601062101988,3.16
! Created: UTC 1/12/2023, 6:45:56 PM
! freq[Hz]                db:S11                  ang:S11                 db:S21                  ang:S21                 db:S12                  ang:S12                 db:S22                  ang:S22
 7.875154395000000E9    -2.233957472054173       3.410427179708743E1    -5.272440646017191E1    -5.844304318769140E1    -5.289462324928208E1    -6.010270202356998E1    -2.166256432874718       1.023745978142594E1
 7.875215048550000E9    -2.225129302831340       3.394957891316382E1    -5.299625620352347E1    -5.572476225733035E1    -5.265844900211374E1    -5.994587624657473E1    -2.153910939014251       1.017988470198398E1
 7.875275702100000E9    -2.231112708709312       3.380806392058135E1    -5.237471377482491E1    -5.787222188647933E1    -5.251457465549098E1    -6.076101425300983E1    -2.159564678642771       1.003233829879296E1
 7.875336355650000E9    -2.227272479903017       3.359429556224658E1    -5.242355404785884E1    -5.632996274290944E1    -5.265821723445732E1    -6.142744003858972E1    -2.155694921457758       9.874604612372245
 7.875397009200000E9    -2.224871636077236       3.343931338718944E1    -5.233200827497272E1    -5.790208546474083E1    -5.227589581215135E1    -6.182536070921981E1    -2.152792127517899       9.730464671935669
 7.875457662750000E9    -2.223179058750714       3.327177398255800E1    -5.232844320525654E1    -5.437068102197416E1    -5.271742800392068E1    -6.323653136858593E1    -2.154981365230397       9.562708239763225
 7.875518316300000E9    -2.223027644204149       3.309420451412893E1    -5.213726988805604E1    -5.801412247305731E1    -5.219139548793603E1    -5.952337658935341E1    -2.149235982339652       9.440985864514413
 7.875578969850000E9    -2.222453383307434       3.294350554636267E1    -5.208887626212108E1    -5.933088380168344E1    -5.227891515601102E1    -6.190509662587932E1    -2.146733332671988       9.264036154230412
 7.875639623400000E9    -2.218519306366738       3.275872904589995E1    -5.210116217273934E1    -6.032911294308937E1    -5.203297805914498E1    -6.272794862779967E1    -2.145476802539656       9.171612584899760
 7.875700276950000E9    -2.225934017096857       3.263183630603275E1    -5.197243510960146E1    -6.007207773062697E1    -5.195505780508114E1    -6.297274050860583E1    -2.151676826015306       8.995332928106885
 7.875760930500000E9    -2.219260003245506       3.244479379572936E1    -5.176933604171879E1    -5.770754413280254E1    -5.170294776613223E1    -6.342756449991516E1    -2.144585385430565       8.871867389621798
 7.875821584050000E9    -2.214165134007923       3.226925890290975E1    -5.190207284117196E1    -5.754822758271086E1    -5.192960799766680E1    -6.425860191294888E1    -2.145930905644883       8.707737430408983
 7.875882237600000E9    -2.214941890455849       3.210820095576294E1    -5.183858774499871E1    -6.131597761033880E1    -5.171953009639193E1    -6.245539462913550E1    -2.137850325075316       8.566295251866748
 7.875942891150000E9    -2.213619548954614       3.194980681495545E1    -5.145289947915497E1    -6.058859593626581E1    -5.181811234583049E1    -6.394829397882949E1    -2.132892246789830       8.367207788091644
 7.876003544700000E9    -2.214706688248858       3.179140071910057E1    -5.140725117156145E1    -6.017959149369961E1    -5.157057117611097E1    -6.393440506258708E1    -2.139720905159117       8.216566044234318
 7.876064198250000E9    -2.212341846881298       3.161133051895087E1    -5.115435084032075E1    -5.916797244781031E1    -5.153047965615019E1    -6.515779738824666E1    -2.143211854703669       8.179483109544790
 7.876124851800000E9    -2.212903204681663       3.142997071874312E1    -5.103280349346976E1    -6.194463111686561E1    -5.147972263027022E1    -6.547525451501166E1    -2.132877372389897       8.007633472552394
 7.876185505350000E9    -2.211700019426565       3.127500745732477E1    -5.111970799542884E1    -6.158958565639692E1    -5.132295121634598E1    -6.441048373291740E1    -2.129157639874965       7.863639751258783
 7.876246158900000E9    -2.212084236748627       3.110861025692374E1    -5.119792468455077E1    -6.078880880858587E1    -5.123877654656500E1    -6.716952150083745E1    -2.135760517766716       7.683646242507820
 7.876306812450000E9    -2.206473315573181       3.093417668163441E1    -5.135907060507037E1    -6.165070205277215E1    -5.092853124285196E1    -6.567729476755355E1    -2.125935002169931       7.561657495636626
 7.876367466000000E9    -2.212084720026353       3.080722814293360E1    -5.064686663957274E1    -6.331268117060173E1    -5.090407939758413E1    -6.421222592765997E1    -2.126546245437800       7.433288265942500
 7.876428119550000E9    -2.205677013520301       3.065002600171162E1    -5.100540485933541E1    -6.171539875113137E1    -5.087398504942475E1    -6.555927406881176E1    -2.122701965217513       7.257603137060832
 7.876488773100000E9    -2.207377240455845       3.048403897188760E1    -5.065133056140489E1    -6.215328612415676E1    -5.058473723917131E1    -6.688419508007854E1    -2.120367231212174       7.129442454551222
 7.876549426650000E9    -2.206108361063254       3.029675920928698E1    -5.081684211026568E1    -6.196317907088875E1    -5.077892526433998E1    -6.701367204571102E1    -2.119979437740032       7.041603679577387
 7.876610080200000E9    -2.205926671990686       3.013835007531368E1    -5.059991503907548E1    -6.316148431660266E1    -5.063673022522658E1    -6.714475922984992E1    -2.121889591726322       6.813020264886626
 7.876670733750000E9    -2.202757776333486       2.999519776224520E1    -5.028160619789588E1    -6.421433613754941E1    -5.045229486203158E1    -6.756578704595472E1    -2.118940796582145       6.714735987598809
 7.876731387300000E9    -2.204405274744463       2.981727886235629E1    -5.034919874350686E1    -6.437047433234659E1    -5.032644410110211E1    -6.925915132723901E1    -2.116029068594744       6.522663248974370
 7.876792040850000E9    -2.204036337018269       2.964004854313336E1    -5.021225689599875E1    -6.418754490665131E1    -5.016869026883799E1    -6.685269974837985E1    -2.116107955164791       6.414539049400614
 7.876852694400000E9    -2.202988035103027       2.944616144463524E1    -4.997111134667256E1    -6.524168297250057E1    -4.998841896343126E1    -6.759380500766993E1    -2.113576775482429       6.320832469601784
 7.876913347950000E9    -2.198942430396001       2.928455547588412E1    -4.997212047987537E1    -6.298271892320865E1    -5.003177728398970E1    -6.662781608558038E1    -2.111487198418161       6.146737095098525
 7.876974001500000E9    -2.198180821440799       2.914744741899286E1    -4.982977614648735E1    -6.501890122488443E1    -4.972884306951411E1    -6.843366297649261E1    -2.111726166866753       5.997141227239728
 7.877034655050000E9    -2.199799678913478       2.900214015483979E1    -4.978274926454816E1    -6.488091796464285E1    -4.958177158499403E1    -6.961025636869394E1    -2.113769789424099       5.867164049766387
 7.877095308600000E9    -2.196943449711300       2.881133282419997E1    -4.960954695280131E1    -6.442432284659957E1    -4.956585285578996E1    -6.882784199375786E1    -2.110667219129660       5.744015002979482
 7.877155962150000E9    -2.196742377256842       2.864941501707530E1    -4.941645149086633E1    -6.624318995153472E1    -4.951030889385144E1    -6.959621368542530E1    -2.111312364127826       5.591481311785060
 7.877216615700000E9    -2.195856557296937       2.850158982811389E1    -4.954999093154917E1    -6.559722920231390E1    -4.930303090228872E1    -7.031087260251883E1    -2.101452607788850       5.436953252629755
 7.877277269250000E9    -2.195472227718843       2.831253413188205E1    -4.910977943521515E1    -6.697387340028706E1    -4.928893350260199E1    -6.953236144710282E1    -2.099325677874690       5.290940433533657
 7.877337922800000E9    -2.195052895737962       2.814617151040039E1    -4.870718556204095E1    -6.769900734245486E1    -4.915227371875507E1    -6.981411651155280E1    -2.097877067769612       5.178167791541101
 7.877398576350000E9    -2.194490562360704       2.800309860478080E1    -4.891193240685979E1    -6.689436459703938E1    -4.916537007051397E1    -7.024412338921589E1    -2.099056306187572       5.039402247741768
 7.877459229900000E9    -2.193868618426692       2.780976279917152E1    -4.847714705020499E1    -6.784660392649529E1    -4.887333199732643E1    -7.050179718903955E1    -2.089801259464651       4.853258391179035
 7.877519883450000E9    -2.195272755378670       2.766444784862504E1    -4.886617570782794E1    -6.917060067966671E1    -4.863753820544531E1    -7.092380285810424E1    -2.092934490558971       4.727126458612034
 7.877580537000000E9    -2.191010992766429       2.748929291910678E1    -4.838748118554562E1    -6.862576169449565E1    -4.861425043510027E1    -7.068549680207175E1    -2.093519258972473       4.604977407943348
 7.877641190550000E9    -2.189048742822297       2.730890492033327E1    -4.852308017926120E1    -6.832839437646571E1    -4.843299259786942E1    -7.203574538067117E1    -2.090430558223834       4.436983598330277
 7.877701844100000E9    -2.187948612969210       2.715933611104775E1    -4.815954324519518E1    -6.805747993154996E1    -4.825657080072244E1    -7.281884553999083E1    -2.097091147468571       4.354184966593337
 7.877762497650000E9    -2.188291984873613       2.698781904660335E1    -4.796611392573386E1    -7.022264342132230E1    -4.804731129880381E1    -7.337333418719290E1    -2.086531042853320       4.202638258338072
 7.877823151200000E9    -2.189579147015283       2.683862332794501E1    -4.810783337698280E1    -7.012870112493918E1    -4.798896763268195E1    -7.383217826974118E1    -2.086669484506553       3.994191668607496
 7.877883804750000E9    -2.186401955350999       2.666744946715147E1    -4.808135274839063E1    -6.933161873349944E1    -4.802784055543145E1    -7.275734508304839E1    -2.090207168103294       3.930455011768098
 7.877944458300000E9    -2.189142353796179       2.649493882405753E1    -4.752221945508823E1    -6.964795206642324E1    -4.758226487318323E1    -7.373002256663530E1    -2.085227524582108       3.735777985955469
 7.878005111850000E9    -2.189131385946488       2.632740896779922E1    -4.757488209754086E1    -6.967083360890879E1    -4.741106365565792E1    -7.376824207013411E1    -2.079064309045350       3.599268905083866
 7.878065765400000E9    -2.187294540624555       2.616510749901100E1    -4.724091212334719E1    -7.054411039360853E1    -4.748074830324916E1    -7.535277177001501E1    -2.084954222892772       3.438410326969144
 7.878126418950000E9    -2.182065204140702       2.598648489136604E1    -4.720596503173268E1    -7.257745737448299E1    -4.734054500050210E1    -7.478410560489780E1    -2.083216451178604       3.342867520373945
 7.878187072500000E9    -2.181939639312627       2.581604913093300E1    -4.703188495725242E1    -7.161489269794696E1    -4.708464440908216E1    -7.562785248768043E1    -2.087488231271543       3.190055589943226
 7.878247726050000E9    -2.184665989502830       2.565618652641801E1    -4.683674337212003E1    -7.203294809486464E1    -4.691935789388138E1    -7.594676771500899E1    -2.086753710836210       3.010357013983454
 7.878308379600000E9    -2.183928776044894       2.549280607461267E1    -4.655414330238722E1    -7.288831970549168E1    -4.667212569319873E1    -7.704845295038925E1    -2.085835066001670       2.924950781689883
 7.878369033150000E9    -2.182395340959515       2.530410881908240E1    -4.660855614240283E1    -7.309092175173616E1    -4.656897005448108E1    -7.652489394644630E1    -2.074140613181262       2.737419309550863
 7.878429686700000E9    -2.179934052589952       2.515346039549457E1    -4.626214051926240E1    -7.344381618302138E1    -4.642029968991760E1    -7.690325602929815E1    -2.080200134480550       2.594659790230860
 7.878490340250000E9    -2.180063608788721       2.498364043976202E1    -4.619438787668597E1    -7.398722718429067E1    -4.627927634751110E1    -7.621723560389786E1    -2.078728959071308       2.505957720630852
 7.878550993800000E9    -2.178586805093791       2.480277648700597E1    -4.584570862232883E1    -7.374162403704717E1    -4.611504725600106E1    -7.758346401093061E1    -2.069163734975254       2.323131646901276
 7.878611647350000E9    -2.178091036580835       2.464677904843438E1    -4.583881456885749E1    -7.423204681315224E1    -4.577438742653867E1    -7.853779857391356E1    -2.076418439879252       2.237473716359498
 7.878672300900000E9    -2.180703602303137       2.449169803453115E1    -4.542288586861030E1    -7.440051613559606E1    -4.566044296782323E1    -7.811131628783340E1    -2.071416794310568       2.060860714148493
 7.878732954450000E9    -2.181718815773287       2.430618339714459E1    -4.538051699807446E1    -7.652400412984512E1    -4.549620294615204E1    -7.858035654498954E1    -2.065021310218048       1.894320882658668
 7.878793608000000E9    -2.179013149243798       2.413441799507945E1    -4.515101992772646E1    -7.640933087775301E1    -4.530315028809679E1    -7.978579907058115E1    -2.070533446404083       1.792888705882199
 7.878854261550000E9    -2.179172299829044       2.397346848066276E1    -4.497117524946313E1    -7.649242834132814E1    -4.500010651888164E1    -7.962671561456182E1    -2.069396321011570       1.641027969990210
 7.878914915100000E9    -2.180218383252802       2.381979691169216E1    -4.463164951267348E1    -7.706400475522214E1    -4.481605634550614E1    -8.147935007900600E1    -2.064006763433543       1.453627263050051
 7.878975568650000E9    -2.179118550750371       2.363510831918187E1    -4.452096209234461E1    -7.785131556194274E1    -4.462635402705882E1    -8.193525417537411E1    -2.066007840306125       1.265550624559687
 7.879036222200000E9    -2.177159495655529       2.345225305260671E1    -4.421294040302607E1    -7.876767739973153E1    -4.440611280500227E1    -8.242921154079087E1    -2.074125467149959       1.187918208117242
 7.879096875750000E9    -2.177277452341090       2.328335441292858E1    -4.412155606235069E1    -7.900107891065859E1    -4.428363942827229E1    -8.241750472371778E1    -2.067695600284189       1.044501799743482
 7.879157529300000E9    -2.176539892094935       2.312480481128327E1    -4.362912459194042E1    -7.998501490027975E1    -4.403377440517335E1    -8.347023143396925E1    -2.073457655796044       8.692762012793662E-1
 7.879218182850000E9    -2.177395095411447       2.293509744977348E1    -4.349950860122420E1    -8.002097624552638E1    -4.375726770227412E1    -8.389395485020336E1    -2.069168906889478       7.607327977309627E-1
 7.879278836400000E9    -2.183321420159508       2.275899429014045E1    -4.332953420176423E1    -8.150291758464357E1    -4.351241075855899E1    -8.408782723815594E1    -2.069881184154030       5.977487022419544E-1
 7.879339489950000E9    -2.177281570953356       2.259662687051373E1    -4.312925367963588E1    -8.200911419166147E1    -4.326723956851322E1    -8.521972866161404E1    -2.068310207582603       4.246404422758296E-1
 7.879400143500000E9    -2.178533987454628       2.242858791220318E1    -4.291108962239949E1    -8.214011869077441E1    -4.305594649420087E1    -8.588055090506776E1    -2.066542688072391       2.973877540005466E-1
 7.879460797050000E9    -2.179117115884472       2.226704553396225E1    -4.252418042654836E1    -8.337247893886257E1    -4.272140821670722E1    -8.654499619638690E1    -2.070844863485571       1.279725796384910E-1
 7.879521450600000E9    -2.180697858650678       2.208556747541720E1    -4.232327626051430E1    -8.332874451118465E1    -4.237561495200638E1    -8.676083035805490E1    -2.067129579431250       4.906876965592466E-3
 7.879582104150000E9    -2.180771899404222       2.190965988071256E1    -4.191510677963902E1    -8.475127798273240E1    -4.217463033821718E1    -8.796198614632715E1    -2.067769662326530      -1.481329680359565E-1
 7.879642757700000E9    -2.182940310979201       2.171536139547885E1    -4.176967991066263E1    -8.573684430535701E1    -4.188117095972370E1    -8.898962447000163E1    -2.073188825388478      -3.166485251123212E-1
 7.879703411250000E9    -2.183518481446473       2.156433437821390E1    -4.152313193814975E1    -8.668873393809032E1    -4.158568713135266E1    -9.016312574701342E1    -2.066952652660583      -4.353846692951419E-1
 7.879764064800000E9    -2.187363463629713       2.140068439546781E1    -4.107594436715115E1    -8.790082229232762E1    -4.135669130856056E1    -9.117705562760518E1    -2.071440421824904      -5.945005757327172E-1
 7.879824718350000E9    -2.186697740854069       2.119952620910057E1    -4.081602453791599E1    -8.838004864720668E1    -4.096315479366127E1    -9.125466713174508E1    -2.074800030361291      -7.863609749124089E-1
 7.879885371900000E9    -2.188806514643189       2.101872315255615E1    -4.048513077498981E1    -8.991359651961351E1    -4.068261777683304E1    -9.252423205940912E1    -2.081348927860067      -9.472892176954201E-1
 7.879946025450000E9    -2.191272428595660       2.084127942468986E1    -4.007520399172301E1    -9.135804580329814E1    -4.034266915996806E1    -9.404346799481053E1    -2.078298806595579      -1.073148206942438
 7.880006679000000E9    -2.195327295538742       2.067894270815411E1    -3.981234053988206E1    -9.163338867136112E1    -3.995992857559822E1    -9.533977209433644E1    -2.082267162247727      -1.237074549589941
 7.880067332550000E9    -2.196209295129410       2.047833691238836E1    -3.944690771350940E1    -9.339365510578769E1    -3.964718113835041E1    -9.702516891851580E1    -2.084758982243570      -1.393931549784923
 7.880127986100000E9    -2.200503592287839       2.028459162957401E1    -3.908958368047487E1    -9.462062539678087E1    -3.923849858038853E1    -9.814461947921912E1    -2.084184415756431      -1.528723629927217
 7.880188639650000E9    -2.208142745445519       2.011643449957572E1    -3.863335657070537E1    -9.602744195969629E1    -3.886438864891139E1    -9.953603179357890E1    -2.088443423675417      -1.718074877995688
 7.880249293200000E9    -2.213454803787647       1.994918086421350E1    -3.827605991469959E1    -9.758909872026737E1    -3.850674202443896E1    -1.012084581434796E2    -2.089082009327441      -1.835385304348319
 7.880309946750000E9    -2.215964750183253       1.975940273439991E1    -3.785347061121811E1    -9.959718901661243E1    -3.813205541748430E1    -1.031808034747392E2    -2.098311563244920      -2.066076826555042
 7.880370600300000E9    -2.221425018552230       1.959046147777856E1    -3.738766205821703E1    -1.015898420619054E2    -3.765605847566800E1    -1.056599802622064E2    -2.108839684065219      -2.228980630672644
 7.880431253850000E9    -2.228320566760654       1.939241269369191E1    -3.704640041317096E1    -1.040985604660014E2    -3.723361109541145E1    -1.073313969977581E2    -2.108000715204425      -2.388722471927913
 7.880491907400000E9    -2.241050145826421       1.922291199821688E1    -3.663230542639235E1    -1.063760710668427E2    -3.681334424482372E1    -1.098496765480161E2    -2.122396510024468      -2.527657281770872
 7.880552560950000E9    -2.246452948100061       1.903770994616025E1    -3.613860322594081E1    -1.090311933944641E2    -3.635854193767541E1    -1.126098855471137E2    -2.127032093329674      -2.654494408313446
 7.880613214500000E9    -2.257925327842393       1.887990649963287E1    -3.571104980572493E1    -1.118028321934124E2    -3.590570849259593E1    -1.153544698634561E2    -2.145084047477160      -2.779435488627646
 7.880673868050000E9    -2.270817063677902       1.873765212998675E1    -3.529165832200231E1    -1.154917988814021E2    -3.549809591436538E1    -1.185263846558983E2    -2.151924319847982      -2.980881983538810
