#  HZ   S   DB   R     50.00 
! Rohde & Schwarz Vector Network Analyzer 
! Rohde-Schwarz,ZNB20-2Port,1311601062101988,3.16
! Created: UTC 1/12/2023, 6:30:43 PM
! freq[Hz]                db:S11                  ang:S11                 db:S21                  ang:S21                 db:S12                  ang:S12                 db:S22                  ang:S22
 7.875390259000000E9    -2.221663037868304       3.347525054844878E1    -5.238149299232909E1    -6.002487323748532E1    -5.259101964638607E1    -6.287977381308892E1    -2.123246353100958       9.639267633047650
 7.875450912550000E9    -2.217684847981400       3.329372082563763E1    -5.225767482279264E1    -5.737364476584298E1    -5.244996705089007E1    -6.434146084348629E1    -2.120542937253707       9.497661622677938
 7.875511566100000E9    -2.219120976938594       3.317219421975446E1    -5.237842725638109E1    -5.933969414222084E1    -5.243003130001185E1    -6.406800430090992E1    -2.118426840930012       9.318011843089304
 7.875572219650000E9    -2.217579548167586       3.297780909230249E1    -5.245899052662125E1    -5.796769209205090E1    -5.232271778301435E1    -6.540735368064043E1    -2.117509954613230       9.169026244010025
 7.875632873200000E9    -2.217646977304347       3.281260224393927E1    -5.199055641539394E1    -5.989542525128965E1    -5.208738206634388E1    -6.306863134027697E1    -2.113911865316136       9.080086191010668
 7.875693526750000E9    -2.215400095098091       3.265343493515316E1    -5.186875010197571E1    -6.096956675121917E1    -5.216616439171833E1    -6.406684356473085E1    -2.121441936064684       8.904367284876139
 7.875754180300000E9    -2.214309678285194       3.248710948260920E1    -5.181285911367937E1    -6.188335975203157E1    -5.188975824459224E1    -6.395895760100423E1    -2.118360350924147       8.784692873044635
 7.875814833850000E9    -2.210018207439186       3.233587064173446E1    -5.193497344828847E1    -6.094345966774050E1    -5.188850547563991E1    -6.405493015392366E1    -2.113086484215829       8.609481481628839
 7.875875487400000E9    -2.212137248424912       3.214624689043080E1    -5.150154412153658E1    -6.074105736189193E1    -5.189835214272603E1    -6.456407569661970E1    -2.110395301760950       8.473253390982691
 7.875936140950000E9    -2.208907573231881       3.198914098326347E1    -5.188101711547161E1    -6.032084543060046E1    -5.193265534675251E1    -6.394769888126894E1    -2.113830756481662       8.312831416799368
 7.875996794500000E9    -2.208258130206428       3.182217102814953E1    -5.182148924212481E1    -6.493855368972382E1    -5.155606419865479E1    -6.563661391727327E1    -2.105379999435999       8.180580715808592
 7.876057448050000E9    -2.206966196081295       3.168816029615261E1    -5.166430610301617E1    -6.246869370222392E1    -5.147727165467445E1    -6.569132823380399E1    -2.104314988625694       8.061544669338252
 7.876118101600000E9    -2.202964140966871       3.149437919791002E1    -5.168445728583614E1    -6.259960527688983E1    -5.173773434279130E1    -6.468626908955707E1    -2.102103574745133       7.910463989659410
 7.876178755150000E9    -2.203630854887258       3.133789945678728E1    -5.134375816629706E1    -6.168959953277214E1    -5.150420854654627E1    -6.504506976556044E1    -2.102513154992577       7.761102579072652
 7.876239408700000E9    -2.204843503163406       3.115752311083237E1    -5.129295994935422E1    -6.226307862760866E1    -5.120955337025863E1    -6.626181561028839E1    -2.096115306283637       7.634791191036657
 7.876300062250000E9    -2.206245135937734       3.099944222189744E1    -5.151658006479249E1    -6.459254468748634E1    -5.138305400645611E1    -6.781194408027248E1    -2.100055179918620       7.480355793318962
 7.876360715800000E9    -2.201515619818107       3.082016332347064E1    -5.100934715389370E1    -6.391089824872315E1    -5.110664308674515E1    -6.820413563202376E1    -2.099110354601240       7.357089596619071
 7.876421369350000E9    -2.204223961651994       3.067862675377437E1    -5.083516988336557E1    -6.431126459111047E1    -5.102509678914074E1    -6.656460055806568E1    -2.091579553804638       7.259103860609466
 7.876482022900000E9    -2.203440760702729       3.051562181829046E1    -5.084675201931772E1    -6.185218125900442E1    -5.109794229706810E1    -6.709117317617435E1    -2.087993683604399       7.048714963174683
 7.876542676450000E9    -2.200377445016692       3.034457193256106E1    -5.090094875525806E1    -6.401620290074470E1    -5.090678469546665E1    -6.829608799976965E1    -2.092885021885126       6.922402095100328
 7.876603330000000E9    -2.200902002883225       3.017380954035090E1    -5.082638333640478E1    -6.505016174358639E1    -5.088983759191603E1    -6.673000451338598E1    -2.091991896088905       6.801759928247376
 7.876663983550000E9    -2.196110757450392       3.000904731701351E1    -5.073231749417465E1    -6.544509733460971E1    -5.090380476268156E1    -6.817218298672348E1    -2.081552358569925       6.619139757157055
 7.876724637100000E9    -2.199286932443411       2.982685615301324E1    -5.059059133248422E1    -6.539090168679807E1    -5.058322214794185E1    -6.969158782876954E1    -2.089162636359820       6.535251345302344
 7.876785290650000E9    -2.198170776552147       2.968533679370533E1    -5.062864020545597E1    -6.563076654460201E1    -5.056370620712620E1    -6.951087377297716E1    -2.089333141217937       6.338254043099060
 7.876845944200000E9    -2.196070714550489       2.951891972098559E1    -5.058348308157407E1    -6.642214990014307E1    -5.049245576489074E1    -6.897554700011720E1    -2.081753940099737       6.259276346776191
 7.876906597750000E9    -2.193167970290769       2.933150113617822E1    -5.027699047013940E1    -6.714532654745794E1    -5.027066108680978E1    -6.997376190550314E1    -2.088121480141910       6.086759513682845
 7.876967251300000E9    -2.195270851880267       2.916242143890838E1    -5.014229770250120E1    -6.504468829383092E1    -5.021474988070173E1    -6.917003586879915E1    -2.082803726414187       5.981158771180401
 7.877027904850000E9    -2.193167301253578       2.902698981343553E1    -5.000938490894579E1    -6.612459614127702E1    -4.984798487553771E1    -7.114177172779205E1    -2.081270707163130       5.794857429148989
 7.877088558400000E9    -2.192810868750983       2.884883179868277E1    -4.992296711452552E1    -6.781929359361517E1    -4.977622822560025E1    -7.035591032456635E1    -2.079910313578969       5.692921803006757
 7.877149211950000E9    -2.191886167879911       2.870512607461430E1    -4.970019105692085E1    -6.834930867145255E1    -4.979378584451530E1    -7.094342896454503E1    -2.078277365570608       5.499300871911528
 7.877209865500000E9    -2.190451182467335       2.854930479565322E1    -5.000200490984359E1    -6.835957583579282E1    -4.975372667866331E1    -7.074520351784169E1    -2.074124584936078       5.392273505606481
 7.877270519050000E9    -2.189109215437795       2.835474128982568E1    -4.945913067347114E1    -6.832420597569248E1    -4.960506180591782E1    -7.114571295321747E1    -2.073005402247941       5.213787435732655
 7.877331172600000E9    -2.190243148191128       2.821643923556408E1    -4.939211153690377E1    -6.641170647704388E1    -4.954559696511535E1    -7.133198436760959E1    -2.070414374127126       5.123205054389135
 7.877391826150000E9    -2.188463560278574       2.804505667281138E1    -4.949154996048647E1    -6.669298569178972E1    -4.932162771592342E1    -7.215010141644269E1    -2.071374181249920       4.950552585890624
 7.877452479700000E9    -2.189030701539492       2.787738964616553E1    -4.911014584824154E1    -6.970693406213495E1    -4.923309669430204E1    -7.239587032728519E1    -2.063454201711859       4.827079750603168
 7.877513133250000E9    -2.186525673650396       2.769362193616329E1    -4.902015156124182E1    -6.839132919817771E1    -4.923620235713409E1    -7.142506532945980E1    -2.069898843497311       4.636290075994351
 7.877573786800000E9    -2.184087483454369       2.753034305434046E1    -4.902003300248449E1    -6.895017536791583E1    -4.893788961901065E1    -7.360665761658042E1    -2.064931267921847       4.503018236912987
 7.877634440350000E9    -2.185481875117691       2.738459122814200E1    -4.864902592336334E1    -6.837299704718662E1    -4.900114159469304E1    -7.332768535209485E1    -2.064756734123183       4.384665237324068
 7.877695093900000E9    -2.184090162704380       2.723400781822723E1    -4.842640009455494E1    -6.933682901602859E1    -4.867915374855708E1    -7.294999498504183E1    -2.064978316095269       4.239353779116086
 7.877755747450000E9    -2.183763693043966       2.703895942374741E1    -4.835114474224003E1    -7.034285954629439E1    -4.862746114991607E1    -7.350247720599782E1    -2.063999858038805       4.101369072143989
 7.877816401000000E9    -2.182196051906444       2.685406331459128E1    -4.832951841865838E1    -7.184389726761805E1    -4.841231111715491E1    -7.374130207796735E1    -2.060756843522552       3.956313161205639
 7.877877054550000E9    -2.179890889093397       2.671520065741394E1    -4.827296590158389E1    -6.952283951806379E1    -4.832773780054730E1    -7.364478389939251E1    -2.057044469343539       3.856554554928768
 7.877937708100000E9    -2.181285448948267       2.654777688026720E1    -4.823565983350123E1    -7.103464409864849E1    -4.808028151224184E1    -7.500880501407266E1    -2.060381960424023       3.665774741973981
 7.877998361650000E9    -2.180916666331760       2.636883171831752E1    -4.788333803983641E1    -7.182990018436440E1    -4.808444812851419E1    -7.598754552584019E1    -2.056951700508881       3.544869968871037
 7.878059015200000E9    -2.179872756981168       2.622216610242700E1    -4.780995145355011E1    -7.206776311952592E1    -4.808494941930221E1    -7.529861321191360E1    -2.055793149909052       3.412015281652952
 7.878119668750000E9    -2.179406781857105       2.604345185513388E1    -4.762673412914729E1    -7.203957302048590E1    -4.783367175244355E1    -7.551947752077021E1    -2.053108347508215       3.300837726980563
 7.878180322300000E9    -2.176432937725691       2.587170889625919E1    -4.757359946717641E1    -7.202261235335220E1    -4.761935504272054E1    -7.607625542722644E1    -2.060826765469170       3.145991683086545
 7.878240975850000E9    -2.177265522708682       2.571746180515628E1    -4.734458057156267E1    -7.336728780829448E1    -4.761942684420750E1    -7.632562505668233E1    -2.051790113456872       2.958842270987453
 7.878301629400000E9    -2.176542888715971       2.555052906737863E1    -4.715100027015313E1    -7.314149524937135E1    -4.727674696110078E1    -7.615928212264915E1    -2.056545288189547       2.869426942169961
 7.878362282950000E9    -2.175283088217904       2.538133726096879E1    -4.689658731198346E1    -7.303232480745501E1    -4.724196856402727E1    -7.719869589871935E1    -2.045761628087269       2.679085369232844
 7.878422936500000E9    -2.174490738004427       2.522056154888792E1    -4.699793578431052E1    -7.397593959188453E1    -4.708250381196847E1    -7.716194176710499E1    -2.048044553372584       2.568406118598457
 7.878483590050000E9    -2.176656121812583       2.503617268287224E1    -4.678872378408592E1    -7.429144907379263E1    -4.694493073720182E1    -7.835459023841059E1    -2.042458895277524       2.433880481587343
 7.878544243600000E9    -2.175852812471679       2.489160989365435E1    -4.633470939418893E1    -7.488858011937738E1    -4.659800205489431E1    -7.868645958840759E1    -2.048739865247502       2.255468841653193
 7.878604897150000E9    -2.172711921354441       2.469627045595938E1    -4.611424821237458E1    -7.613637603469964E1    -4.646175413048994E1    -7.852161576806019E1    -2.042965020658025       2.112663317330590
 7.878665550700000E9    -2.176433359831724       2.456032820392195E1    -4.623899783219608E1    -7.442218834923632E1    -4.630728396676954E1    -7.835460676458669E1    -2.047621964837054       1.995818726786824
 7.878726204250000E9    -2.173574037535229       2.438417341258653E1    -4.593692735924783E1    -7.602031334431987E1    -4.620361017067531E1    -8.086281784189686E1    -2.043194327076078       1.825503995359668
 7.878786857800000E9    -2.173198210182703       2.420527597444638E1    -4.576185212145916E1    -7.670047859602292E1    -4.591106350401704E1    -7.955967923342303E1    -2.045080975197827       1.695496890768031
 7.878847511350000E9    -2.171886518219971       2.404351879595339E1    -4.566256729141789E1    -7.727633230316334E1    -4.577617023497569E1    -8.011809079187167E1    -2.039850572112201       1.606415120054292
 7.878908164900000E9    -2.172028207675574       2.386850239698411E1    -4.551244026959136E1    -7.703219169540610E1    -4.553154003290291E1    -8.124472503538477E1    -2.046304070267196       1.425868831087739
 7.878968818450000E9    -2.171577139818951       2.369809309418891E1    -4.522921287527904E1    -7.847649235638620E1    -4.535610100389805E1    -8.166065460152934E1    -2.043743133501832       1.278301017303849
 7.879029472000000E9    -2.173033643199231       2.353982718782755E1    -4.498273669565413E1    -7.767060660876740E1    -4.526618273926459E1    -8.212761048935020E1    -2.042608527168412       1.127710915151296
 7.879090125550000E9    -2.170821154476331       2.338354902586272E1    -4.479007927445448E1    -7.884769313754158E1    -4.502836504666742E1    -8.248555384005719E1    -2.039287499215372       1.004153960424040
 7.879150779100000E9    -2.171387526072592       2.319742762555649E1    -4.455469855196925E1    -8.011347317192782E1    -4.480592792822730E1    -8.240589061612464E1    -2.042819568302506       8.678037498908879E-1
 7.879211432650000E9    -2.171851189747964       2.300034055805804E1    -4.444301304303083E1    -7.978323099575998E1    -4.450082267981482E1    -8.410546416244394E1    -2.040199950183185       7.143232854227799E-1
 7.879272086200000E9    -2.169206619909523       2.285985089784498E1    -4.421164084392072E1    -8.066557095171096E1    -4.443103222383564E1    -8.354201054813676E1    -2.037711311962350       5.646896179786285E-1
 7.879332739750000E9    -2.168797178314312       2.269079506362010E1    -4.406951522467609E1    -8.073945844210685E1    -4.414778776559423E1    -8.470335604125998E1    -2.041042238393425       3.857754396696733E-1
 7.879393393300000E9    -2.170915274657744       2.250681150425725E1    -4.379044909330925E1    -8.192951956903399E1    -4.382557476903996E1    -8.587226839080427E1    -2.038618512461007       2.821736988052031E-1
 7.879454046850000E9    -2.171814108712789       2.233797326464323E1    -4.349690805508759E1    -8.229321435908106E1    -4.369082276922902E1    -8.554282254613051E1    -2.035390453434247       1.344352825296941E-1
 7.879514700400000E9    -2.170512924649203       2.218267209521430E1    -4.327239011000142E1    -8.371618469289733E1    -4.348245437281977E1    -8.686047805934321E1    -2.041374555389250      -2.495865707383404E-2
 7.879575353950000E9    -2.173094585544239       2.200743516122794E1    -4.299269383670796E1    -8.423274008624273E1    -4.323242214722703E1    -8.771569140102419E1    -2.038133894705968      -1.310116569487127E-1
 7.879636007500000E9    -2.172915611177230       2.181477947304656E1    -4.271981000923161E1    -8.453298346964957E1    -4.293017633078234E1    -8.793002867286013E1    -2.045478125351208      -3.358107006782262E-1
 7.879696661050000E9    -2.172958308418478       2.165217361642786E1    -4.248615160567519E1    -8.552273787321018E1    -4.278284934516125E1    -8.845375985926542E1    -2.036858488137483      -4.970800512540450E-1
 7.879757314600000E9    -2.173909234827803       2.147828134701649E1    -4.223832721029055E1    -8.635124694725539E1    -4.242445166577411E1    -8.949153468763971E1    -2.038153223880709      -6.212694664562469E-1
 7.879817968150000E9    -2.174708377953309       2.132802292311627E1    -4.204765565644885E1    -8.636227459425430E1    -4.220474106602644E1    -9.024709538574098E1    -2.037663094112860      -7.737382139905475E-1
 7.879878621700000E9    -2.178014960661311       2.113213753126827E1    -4.171161963019117E1    -8.755990622424962E1    -4.187471756408272E1    -9.163483394845396E1    -2.039775125239653      -9.355045846420983E-1
 7.879939275250000E9    -2.182996446638917       2.096413292576668E1    -4.132302873816285E1    -8.892113328136470E1    -4.153155477836531E1    -9.258047552728544E1    -2.045403669554093      -1.073465142415274
 7.879999928800000E9    -2.180056861533371       2.078278858876379E1    -4.109588033084827E1    -9.001811900914539E1    -4.126343682344131E1    -9.349425130202467E1    -2.040668183372129      -1.220296528372673
 7.880060582350000E9    -2.183755720742550       2.059881042410214E1    -4.078339354473273E1    -9.088048520098341E1    -4.097681399813961E1    -9.402728259829176E1    -2.042965152234466      -1.373496718432881
 7.880121235900000E9    -2.179241328317508       2.042174283142886E1    -4.047722328113607E1    -9.140598404031499E1    -4.063854558617507E1    -9.581604410602426E1    -2.048680876062282      -1.511425606426146
 7.880181889450000E9    -2.183873694805652       2.023609237073064E1    -4.015095996815677E1    -9.286083700565614E1    -4.033535037333011E1    -9.665166161340694E1    -2.045182082097928      -1.643697377145550
 7.880242543000000E9    -2.189272858927124       2.006862859169427E1    -3.977221300871931E1    -9.485097299027343E1    -3.997933737264362E1    -9.801836040011605E1    -2.051309330129600      -1.830806778877457
 7.880303196550000E9    -2.194207364069340       1.988615280219577E1    -3.945346093702169E1    -9.694534666127444E1    -3.963057440347938E1    -9.902009641496218E1    -2.051464541156918      -2.010010751053923
 7.880363850100000E9    -2.196007236542925       1.970728313111222E1    -3.909203656759280E1    -9.774572531163712E1    -3.926415527692755E1    -1.010491051904354E2    -2.052706487830455      -2.104012060017564
 7.880424503650000E9    -2.197562480386322       1.953676708012652E1    -3.868932216758977E1    -9.902509477710690E1    -3.887521344781231E1    -1.024059067123423E2    -2.057520322554558      -2.305134719061810
 7.880485157200000E9    -2.206702795658208       1.936108009410632E1    -3.827387073669716E1    -1.006792503612362E2    -3.850224336087544E1    -1.047214816794670E2    -2.061840146380594      -2.505230520974498
 7.880545810750000E9    -2.214426847840186       1.916640620743312E1    -3.796633717911156E1    -1.024262701800719E2    -3.810389186669664E1    -1.059584340167310E2    -2.067582325501625      -2.634427715369849
 7.880606464300000E9    -2.219148204726603       1.897937076082595E1    -3.757037839440768E1    -1.047661036239861E2    -3.776082000551877E1    -1.081249330898300E2    -2.075555481431979      -2.780300344948177
 7.880667117850000E9    -2.225558968635981       1.880488761143927E1    -3.704940040591290E1    -1.071346492362958E2    -3.730895712519318E1    -1.105236664839867E2    -2.090187546992132      -2.922780550440407
 7.880727771400000E9    -2.239269223236828       1.868535107562639E1    -3.671870130862271E1    -1.098512689351300E2    -3.691000037028800E1    -1.130564962064508E2    -2.090136101287446      -3.057229130703647
 7.880788424950000E9    -2.243828832806639       1.849525788351418E1    -3.630441934595756E1    -1.121608775054716E2    -3.647514933644690E1    -1.158106286056288E2    -2.100697319878997      -3.223174224602966
 7.880849078500000E9    -2.258686365223043       1.831459655403260E1    -3.587474738081900E1    -1.153542767465670E2    -3.607617253675075E1    -1.183613061428900E2    -2.119099399874036      -3.327373553814081
 7.880909732050000E9    -2.265210533684523       1.818006042848768E1    -3.537486075655070E1    -1.184190270588652E2    -3.565347743428782E1    -1.217424928180745E2    -2.118923101833403      -3.507414694808744
