#  HZ   S   DB   R     50.00 
! Rohde & Schwarz Vector Network Analyzer 
! Rohde-Schwarz,ZNB20-2Port,1311601062101988,3.16
! Created: UTC 1/12/2023, 6:31:24 PM
! freq[Hz]                db:S11                  ang:S11                 db:S21                  ang:S21                 db:S12                  ang:S12                 db:S22                  ang:S22
 7.875073181000000E9    -2.222726114797007       3.436006416217112E1    -5.261425387664404E1    -5.746595163241015E1    -5.242903047630867E1    -6.122969901597290E1    -2.133654772406399       1.035572178776091E1
 7.875133834550000E9    -2.221794730369619       3.419643425416508E1    -5.249148614944760E1    -5.771710553699642E1    -5.266493266708883E1    -6.118106163938479E1    -2.138796703416371       1.021437606214756E1
 7.875194488100000E9    -2.223983332523022       3.401766916162962E1    -5.274259027243115E1    -5.646890042377945E1    -5.227395572196001E1    -6.302666819322080E1    -2.132797735605686       1.015400060617643E1
 7.875255141650000E9    -2.218993086419502       3.384668241162587E1    -5.244385434601039E1    -6.000784286832065E1    -5.221921290019331E1    -6.270700562191964E1    -2.127120196119058       9.943736172005371
 7.875315795200000E9    -2.218188955924489       3.368923445751360E1    -5.246205184064100E1    -6.123334748491441E1    -5.211762562672384E1    -6.245047324950992E1    -2.122800792321830       9.814233458674206
 7.875376448750000E9    -2.220408102352078       3.353823564124131E1    -5.250005888077162E1    -5.837311842642934E1    -5.231450121382218E1    -6.418700558616347E1    -2.118834660583143       9.651891522233125
 7.875437102300000E9    -2.218314738634440       3.336162905785592E1    -5.208926884619969E1    -5.839175034186871E1    -5.200069195831623E1    -6.377847795883832E1    -2.124419995586218       9.451506036176577
 7.875497755850000E9    -2.216252854648259       3.317796332310770E1    -5.201096672131790E1    -5.999849335661590E1    -5.191008532477169E1    -6.292736928418564E1    -2.123194076968914       9.358688946204508
 7.875558409400000E9    -2.215028501592411       3.301835025619250E1    -5.202791226345302E1    -5.701818536654594E1    -5.218102055021920E1    -6.346816585465202E1    -2.116826981236382       9.208611198154792
 7.875619062950000E9    -2.214301663314992       3.286661743135218E1    -5.184802877634040E1    -6.013837737342003E1    -5.204717169116442E1    -6.323267542464717E1    -2.118282571400656       9.082602883965412
 7.875679716500000E9    -2.214865638045498       3.267677721105876E1    -5.166491166862635E1    -5.982529176934401E1    -5.187462259312576E1    -6.435094236485521E1    -2.110217555285498       8.900205449975852
 7.875740370050000E9    -2.213993288179191       3.254878189964282E1    -5.176955871104023E1    -6.144446025256715E1    -5.190839860997045E1    -6.475601100098524E1    -2.118724655999037       8.777489879179896
 7.875801023600000E9    -2.215141555759007       3.235009040171234E1    -5.168603883181736E1    -6.132353295083298E1    -5.159558301067334E1    -6.276683187245726E1    -2.113480927291738       8.649503777310358
 7.875861677150000E9    -2.213080608319175       3.218736694683427E1    -5.153712218943432E1    -6.379464731068119E1    -5.157108517895012E1    -6.426626425249265E1    -2.107459501797505       8.568275669381670
 7.875922330700000E9    -2.209360694300187       3.204154651425153E1    -5.146334382620448E1    -6.026993252343670E1    -5.160390922743061E1    -6.329745284676772E1    -2.111813538099256       8.367635433450225
 7.875982984250000E9    -2.207410286963998       3.186948277922587E1    -5.142502743160529E1    -6.190467087983363E1    -5.118881808360744E1    -6.481560889656232E1    -2.104517387271545       8.210574882371414
 7.876043637800000E9    -2.205437291402226       3.169000133446648E1    -5.099788385698950E1    -6.314045208373476E1    -5.114915631351585E1    -6.345804450883600E1    -2.107550953180479       8.090190117943591
 7.876104291350000E9    -2.205849227665804       3.153652788461464E1    -5.089851091072126E1    -6.279809080555007E1    -5.099792670869812E1    -6.611187966484907E1    -2.107444886923749       7.907844424436818
 7.876164944900000E9    -2.204453887611116       3.135963989216406E1    -5.065311774143397E1    -6.238591234268528E1    -5.118911380607570E1    -6.537859275899335E1    -2.102747312661555       7.800146723218567
 7.876225598450000E9    -2.206508787253595       3.119744112523514E1    -5.088351486287106E1    -6.241711061994780E1    -5.085857340241161E1    -6.724034815411937E1    -2.098427759829964       7.655827102408560
 7.876286252000000E9    -2.204657386531396       3.104342500618634E1    -5.087419839097681E1    -6.347351217190178E1    -5.083747220455823E1    -6.707816246172627E1    -2.102651864770162       7.545908638826130
 7.876346905550000E9    -2.200472462569955       3.090501314603802E1    -5.055062465418008E1    -6.407342680716837E1    -5.094402606095714E1    -6.663246976005694E1    -2.095863942516218       7.375214642401137
 7.876407559100000E9    -2.204660998332221       3.070433921369913E1    -5.052902694391877E1    -6.243628370330287E1    -5.076019353138251E1    -6.613676821658399E1    -2.100119221449642       7.248897798409469
 7.876468212650000E9    -2.200316125752734       3.052204753869077E1    -5.055700234447480E1    -6.411800347625469E1    -5.044486107020727E1    -6.822102219130551E1    -2.093186722347112       7.120849283511587
 7.876528866200000E9    -2.198578454852648       3.037344664216575E1    -5.028038792134553E1    -6.604499675630176E1    -5.052067273458714E1    -6.752050802956541E1    -2.093982592903171       6.936147507118892
 7.876589519750000E9    -2.196751531573756       3.018742597575198E1    -5.031753959369929E1    -6.420133165640341E1    -5.025052320748092E1    -6.728700627483367E1    -2.096649456616881       6.796232276960492
 7.876650173300000E9    -2.201706979944536       3.004778951753194E1    -5.017285182732590E1    -6.572401489962715E1    -5.018987938097504E1    -6.726686686461964E1    -2.087858874765953       6.654003838523962
 7.876710826850000E9    -2.195167416265673       2.986734514340539E1    -5.018880447536680E1    -6.501855250013594E1    -5.005988595411634E1    -6.893397254961835E1    -2.090424815875577       6.516748530398403
 7.876771480400000E9    -2.196412489656830       2.972730384230245E1    -4.983987582525334E1    -6.385162402896926E1    -5.007372888940480E1    -6.944773748955150E1    -2.081539045993829       6.397373424744040
 7.876832133950000E9    -2.192703466512455       2.954383422912731E1    -4.979812185861313E1    -6.384753941510175E1    -4.997231256238038E1    -6.962004343852753E1    -2.084419724457096       6.248321970793683
 7.876892787500000E9    -2.192473076988070       2.937837510627963E1    -4.971403584917233E1    -6.572762838408353E1    -4.969834657331602E1    -6.913792727186726E1    -2.084840279785629       6.080469709236385
 7.876953441050000E9    -2.195708491386462       2.921522370525935E1    -4.933927382175806E1    -6.471329253274131E1    -4.960624442075756E1    -6.825724361544310E1    -2.085795081987847       5.960736495416341
 7.877014094600000E9    -2.193844222085209       2.904851916549273E1    -4.920404804319656E1    -6.606496547254615E1    -4.953536207608694E1    -7.002659848928987E1    -2.085433131158862       5.807401114795403
 7.877074748150000E9    -2.191019040696747       2.888417600798990E1    -4.923359267901066E1    -6.613003569967832E1    -4.957383419501227E1    -7.022592021863652E1    -2.073550992132717       5.686234827093855
 7.877135401700000E9    -2.191930502496332       2.872088696147080E1    -4.934491346805920E1    -6.596074220699766E1    -4.930403738223536E1    -7.033280516658745E1    -2.084705590506031       5.505255442771426
 7.877196055250000E9    -2.190843878926465       2.856392620700638E1    -4.902702651685484E1    -6.694216796343848E1    -4.931444068284218E1    -6.979771450441331E1    -2.070588221191094       5.388893593850045
 7.877256708800000E9    -2.190533051315168       2.838062393657080E1    -4.894398239322443E1    -6.702370472598962E1    -4.903680964652566E1    -6.963906759191480E1    -2.073745244287030       5.265370673459685
 7.877317362350000E9    -2.187351179064951       2.822300955632009E1    -4.885312109049813E1    -6.888691151798018E1    -4.886667821034546E1    -7.027187252262804E1    -2.071056691711256       5.106916067462399
 7.877378015900000E9    -2.187280157839579       2.804642265958735E1    -4.869789813015530E1    -6.937055244900428E1    -4.881486268863080E1    -7.235468653260880E1    -2.070559836597710       4.918886068176382
 7.877438669450000E9    -2.188360117597841       2.789950669807942E1    -4.848375856342778E1    -6.885477907236547E1    -4.850085284816856E1    -7.074868889902741E1    -2.068025910273284       4.818014726917751
 7.877499323000000E9    -2.185149583552236       2.769725177146187E1    -4.842196966143647E1    -6.856504608442010E1    -4.851901297102559E1    -7.154257761191396E1    -2.064275307145861       4.677499930257981
 7.877559976550000E9    -2.186900673206966       2.754449197750514E1    -4.815952178844477E1    -6.893705680101388E1    -4.833893753483057E1    -7.260053572559598E1    -2.064422908824873       4.544870922309598
 7.877620630100000E9    -2.184017933288392       2.739862178879046E1    -4.806688381453226E1    -7.008872402957674E1    -4.824271080497385E1    -7.301022917319929E1    -2.063153544988478       4.416005215410231
 7.877681283650000E9    -2.185179453420906       2.721554374232054E1    -4.788108754646932E1    -6.945262682871258E1    -4.812551906732624E1    -7.265638530541639E1    -2.063869490166319       4.225161752476859
 7.877741937200000E9    -2.183440456207807       2.705033915130817E1    -4.796105929615059E1    -6.948113464219446E1    -4.787160413430021E1    -7.294460736678775E1    -2.065173775094773       4.127328854608111
 7.877802590750000E9    -2.183948448024147       2.688693780864888E1    -4.760134106886972E1    -7.076484108258161E1    -4.798491575920549E1    -7.359167889915514E1    -2.065497498191399       3.969301269468799
 7.877863244300000E9    -2.182003707413674       2.672013213089109E1    -4.734512203968829E1    -6.988642080993165E1    -4.773916875257457E1    -7.554395789546992E1    -2.057228775007859       3.814900724375368
 7.877923897850000E9    -2.179933324296978       2.657273176660385E1    -4.723974996290843E1    -7.259777042937148E1    -4.747553141123245E1    -7.474061740053078E1    -2.057871584487575       3.699265313293794
 7.877984551400000E9    -2.178497138650591       2.639972982642028E1    -4.711370313088224E1    -7.185669167678239E1    -4.727375064297173E1    -7.532915746129332E1    -2.059593124377373       3.533382838602492
 7.878045204950000E9    -2.182822340278201       2.621476333315612E1    -4.710911790114379E1    -7.189061142804674E1    -4.721598028755847E1    -7.454722636527802E1    -2.055235133655745       3.443454178920323
 7.878105858500000E9    -2.181178336742631       2.605496397341328E1    -4.686522506004763E1    -7.082974979141990E1    -4.694960716177883E1    -7.555941336964071E1    -2.056392759007257       3.226579573066444
 7.878166512050000E9    -2.176231465140622       2.588173727242391E1    -4.651717437448190E1    -7.177809274225947E1    -4.688017678146575E1    -7.623204142919300E1    -2.055022325373184       3.113295080569408
 7.878227165600000E9    -2.177518646328763       2.573574433543711E1    -4.645112186647246E1    -7.292734134585504E1    -4.679440190878844E1    -7.569299832298661E1    -2.055708646388377       2.998930941106148
 7.878287819150000E9    -2.180078249781756       2.553731932609164E1    -4.634852681369316E1    -7.355356358313944E1    -4.647830325598930E1    -7.674409452456682E1    -2.051329152865489       2.853223805407920
 7.878348472700000E9    -2.175416756670926       2.539922941714111E1    -4.609032175900222E1    -7.389622646181932E1    -4.627694196455043E1    -7.747210769679157E1    -2.054325671288475       2.690916277283720
 7.878409126250000E9    -2.178027187019532       2.524051183008822E1    -4.598085072305043E1    -7.334310407038670E1    -4.618197247427545E1    -7.726119115852575E1    -2.045447958225529       2.570493515542702
 7.878469779800000E9    -2.176301385074896       2.506672746115043E1    -4.583063532119418E1    -7.517284805893038E1    -4.597805754650629E1    -7.842387388814252E1    -2.051322993433950       2.456547157545670
 7.878530433350000E9    -2.176581061177286       2.489452848783234E1    -4.559964225398146E1    -7.539177037448577E1    -4.568142376881315E1    -7.901733424968464E1    -2.053834287522915       2.309948134621838
 7.878591086900000E9    -2.174405217623689       2.473762093429809E1    -4.546211180381799E1    -7.540252812050113E1    -4.563890875428086E1    -7.832076721328049E1    -2.044309232570226       2.119525104671582
 7.878651740450000E9    -2.173058334091058       2.454115274849928E1    -4.514504246323787E1    -7.613541840276079E1    -4.546694791667197E1    -7.946480651089819E1    -2.042634080648614       1.981596830837727
 7.878712394000000E9    -2.172002247042530       2.440318615969901E1    -4.507197032652699E1    -7.655870646989445E1    -4.530115181856999E1    -7.930255867936181E1    -2.043748870125782       1.788597797621269
 7.878773047550000E9    -2.176896610087705       2.421058248254528E1    -4.496170888573468E1    -7.676077716483300E1    -4.508777455267498E1    -8.103724627019201E1    -2.043264250603882       1.715929410949688
 7.878833701100000E9    -2.172756902856545       2.403158382727980E1    -4.465232218934985E1    -7.732390390536607E1    -4.477939280968254E1    -8.175736217456446E1    -2.045029793368810       1.544087165159125
 7.878894354650000E9    -2.172911519860798       2.386627764513339E1    -4.448873860374725E1    -7.841532212388880E1    -4.469748824049005E1    -8.209362739937963E1    -2.044167161007672       1.402488961301765
 7.878955008200000E9    -2.171148619718646       2.370166088471542E1    -4.427172507487199E1    -7.829011859130179E1    -4.443077475075452E1    -8.157320190891299E1    -2.047164873861175       1.249422519366583
 7.879015661750000E9    -2.174521115174182       2.352562394958812E1    -4.415088955460044E1    -7.915048838643371E1    -4.412356924803915E1    -8.259796785510289E1    -2.040411980743686       1.137129709687327
 7.879076315300000E9    -2.172567697699956       2.334859956219479E1    -4.383267680296682E1    -7.955670871513747E1    -4.388633328981344E1    -8.328396810954889E1    -2.039173741156431       9.512027254429987E-1
 7.879136968850000E9    -2.176446672776012       2.319121420756462E1    -4.354965009407753E1    -8.082369907055536E1    -4.373257429255071E1    -8.416002276238638E1    -2.047472684784075       8.579901294762321E-1
 7.879197622400000E9    -2.173979597927117       2.302519940582669E1    -4.322297759675750E1    -8.127653810386482E1    -4.345220590615930E1    -8.396163822412301E1    -2.041683493906251       6.483532590890864E-1
 7.879258275950000E9    -2.175875348722950       2.282623140607901E1    -4.314938730511746E1    -8.171138506689573E1    -4.317490857370954E1    -8.530066440254197E1    -2.036541516361598       5.357495457691001E-1
 7.879318929500000E9    -2.171317987627452       2.265742180352332E1    -4.277887482522316E1    -8.154608458623224E1    -4.296262394526524E1    -8.572269065647662E1    -2.043045082501819       4.189075688882858E-1
 7.879379583050000E9    -2.175761354485048       2.251205545090063E1    -4.256978991611194E1    -8.303983760671224E1    -4.265220237109126E1    -8.666399681540751E1    -2.042259161878644       2.386042162354152E-1
 7.879440236600000E9    -2.172760688191916       2.231562892819226E1    -4.213798051908675E1    -8.420133406572424E1    -4.248055314465455E1    -8.687477095615040E1    -2.046647010507677       8.923996011272947E-2
 7.879500890150000E9    -2.174604290185751       2.213446036384452E1    -4.194069703423224E1    -8.458040310571583E1    -4.215669370717161E1    -8.825882610338651E1    -2.041668394099825      -4.061228869063136E-2
 7.879561543700000E9    -2.178065760112477       2.196308736451758E1    -4.169959614520913E1    -8.515143510755051E1    -4.190959758262427E1    -8.873441953744580E1    -2.046458566563615      -1.911858338575371E-1
 7.879622197250000E9    -2.177387755694156       2.177960345113568E1    -4.138077184831337E1    -8.674044566665832E1    -4.149325331797741E1    -8.978107967208284E1    -2.046581414347842      -3.717154091235133E-1
 7.879682850800000E9    -2.181363281858171       2.161828482723769E1    -4.105587597912376E1    -8.744117082594356E1    -4.123510021333955E1    -9.046073363297585E1    -2.049154817736564      -4.957247361202356E-1
 7.879743504350000E9    -2.180322143877362       2.141383320797916E1    -4.072306870521257E1    -8.854594921125926E1    -4.086507507315985E1    -9.228319911532216E1    -2.044005475917114      -6.717269700730417E-1
 7.879804157900000E9    -2.185321112185051       2.126194816703138E1    -4.039148409666897E1    -8.900366814453140E1    -4.064233812869772E1    -9.281848981841182E1    -2.047783836329389      -8.304595939938468E-1
 7.879864811450000E9    -2.182250901596271       2.108640523582884E1    -4.008975283945599E1    -9.083650729915908E1    -4.031234231811011E1    -9.332315736055267E1    -2.052878921258877      -1.016483746622322
 7.879925465000000E9    -2.188894930036532       2.089266108136457E1    -3.969159545517573E1    -9.171338330499438E1    -3.996043178484979E1    -9.489373292652439E1    -2.052889258288194      -1.167242274017123
 7.879986118550000E9    -2.188727684559876       2.069850969488262E1    -3.950233610035920E1    -9.301776066093971E1    -3.961104397176570E1    -9.648743064666165E1    -2.053210059635477      -1.330307718901800
 7.880046772100000E9    -2.192030458483322       2.051877942858911E1    -3.902474706950090E1    -9.414497093780160E1    -3.924508379659482E1    -9.828881418227142E1    -2.058679308744739      -1.499192408830553
 7.880107425650000E9    -2.197877054864474       2.032616737848142E1    -3.862521118171198E1    -9.599801188521265E1    -3.884840303348742E1    -9.957754512261423E1    -2.065696069134246      -1.599798062822383
 7.880168079200000E9    -2.203079378420220       2.013803846653695E1    -3.827513420041534E1    -9.770445809455464E1    -3.846236975946067E1    -1.008196114553786E2    -2.068188337525789      -1.790851889571769
 7.880228732750000E9    -2.208342124411740       2.000136587608405E1    -3.782644583294876E1    -9.948574906535531E1    -3.805228598384509E1    -1.028337353150024E2    -2.075289109000126      -1.974706704850099
 7.880289386300000E9    -2.214080284651403       1.980513909663494E1    -3.743745719076986E1    -1.015516427490331E2    -3.764399952485365E1    -1.049187976524712E2    -2.080440836672304      -2.089082553283320
 7.880350039850000E9    -2.223513375234374       1.962433983703677E1    -3.699283242118191E1    -1.035021342073715E2    -3.720625594525416E1    -1.068345570711702E2    -2.081678961932084      -2.240916447293976
 7.880410693400000E9    -2.229482018171433       1.943540013006772E1    -3.652921924693592E1    -1.061936103386424E2    -3.677961174308664E1    -1.093794418407589E2    -2.090530722058623      -2.415927430085692
 7.880471346950000E9    -2.241054731727632       1.927836360528508E1    -3.613360221536070E1    -1.084849816835725E2    -3.630743676991919E1    -1.118406483714320E2    -2.110846209019465      -2.537942471168110
 7.880532000500000E9    -2.251339050084842       1.910177952567400E1    -3.564275049146736E1    -1.112212598647460E2    -3.587769364813549E1    -1.148503745968828E2    -2.119280881298974      -2.732505360205499
 7.880592654050000E9    -2.265507626027742       1.893690050628643E1    -3.521698357331704E1    -1.146306142960577E2    -3.541146175213217E1    -1.178644999871966E2    -2.124926290659052      -2.861604576400353
