#  HZ   S   DB   R     50.00 
! Rohde & Schwarz Vector Network Analyzer 
! Rohde-Schwarz,ZNB20-2Port,1311601062101988,3.16
! Created: UTC 1/12/2023, 6:31:43 PM
! freq[Hz]                db:S11                  ang:S11                 db:S21                  ang:S21                 db:S12                  ang:S12                 db:S22                  ang:S22
 7.875065499000000E9    -2.224458252685900       3.436643826018121E1    -5.274244803829592E1    -5.857733931213048E1    -5.246091730119563E1    -6.186211486538853E1    -2.138522261591415       1.037704436315859E1
 7.875126152550000E9    -2.222135863384613       3.421490887504686E1    -5.219748156423777E1    -5.973667335227076E1    -5.234659807182516E1    -6.185487474355986E1    -2.128865486395007       1.024082695512113E1
 7.875186806100000E9    -2.225818853730548       3.403623094649181E1    -5.213602153405026E1    -5.873752829619389E1    -5.247307131372236E1    -6.205484382944736E1    -2.131178462355232       1.007802772211276E1
 7.875247459650000E9    -2.222840936651294       3.387318894597035E1    -5.199166945576888E1    -5.931285257898352E1    -5.233233654359731E1    -6.245981738468456E1    -2.124116878790898       9.949314634570502
 7.875308113200000E9    -2.220496440887037       3.370801896829556E1    -5.228808205007666E1    -5.886297306203742E1    -5.235345625750566E1    -6.210170503672527E1    -2.138331308286841       9.810899369459383
 7.875368766750000E9    -2.215658448272896       3.353311589882205E1    -5.211479114801956E1    -6.043409861812385E1    -5.224737977077959E1    -6.206208608143395E1    -2.126517670255303       9.676062048721699
 7.875429420300000E9    -2.221589134095259       3.338376387343084E1    -5.188210301665491E1    -6.122355262256980E1    -5.190914977216559E1    -6.297508854909152E1    -2.119335756503873       9.565683127847716
 7.875490073850000E9    -2.217438739774177       3.322031623040186E1    -5.187726301367925E1    -6.074021669501256E1    -5.192920546395082E1    -6.354930295700314E1    -2.123727292487720       9.386769271854583
 7.875550727400000E9    -2.218365603142183       3.303589274960103E1    -5.199314002777225E1    -6.098286644277226E1    -5.178437408145081E1    -6.456276774978819E1    -2.119433196652837       9.278068950875387
 7.875611380950000E9    -2.214378649318860       3.285296409397795E1    -5.174953830912412E1    -6.028636561004029E1    -5.180890280546804E1    -6.480898408437120E1    -2.120291775065399       9.111226366181066
 7.875672034500000E9    -2.211351526514510       3.271804123499389E1    -5.173778073454895E1    -6.175261998066183E1    -5.190007671673212E1    -6.335940791335855E1    -2.121014778676926       8.956418757084393
 7.875732688050000E9    -2.211043527796682       3.254999148679378E1    -5.144693475719954E1    -6.079091509953804E1    -5.165619667551221E1    -6.304246839455082E1    -2.113094147316585       8.848257512458675
 7.875793341600000E9    -2.211081614914043       3.238562105982850E1    -5.165793771808643E1    -6.166607547394942E1    -5.164624991063213E1    -6.366684664649107E1    -2.111491375579857       8.684466835911669
 7.875853995150000E9    -2.210290106179440       3.222626153982399E1    -5.150634687637818E1    -6.402891431944855E1    -5.147963225482798E1    -6.329905812450137E1    -2.111847452331387       8.514334386669558
 7.875914648700000E9    -2.214319047448929       3.206415817238939E1    -5.130587653439714E1    -6.091343754629420E1    -5.110340424145597E1    -6.561797060226984E1    -2.109098669727315       8.376246536092413
 7.875975302250000E9    -2.208618888991743       3.189529148256031E1    -5.121554607516963E1    -6.189379579992139E1    -5.130688917451037E1    -6.479329643635410E1    -2.104969804038249       8.238015734688226
 7.876035955800000E9    -2.206082070134250       3.171926153400501E1    -5.105633685588928E1    -6.262492617510022E1    -5.095167474187789E1    -6.557491636296444E1    -2.107678057793436       8.140232048698703
 7.876096609350000E9    -2.205089404591738       3.155446159783039E1    -5.094286342003693E1    -6.349724641352194E1    -5.112473449948179E1    -6.535548130770187E1    -2.109792675575030       7.959223386112853
 7.876157262900000E9    -2.206336390310345       3.139635708933896E1    -5.085271289753411E1    -6.115197843818356E1    -5.087618974124247E1    -6.633592649141369E1    -2.097741484036034       7.800819935114114
 7.876217916450000E9    -2.202630241507348       3.123146551503541E1    -5.079678720030506E1    -6.357108079445234E1    -5.088386059490013E1    -6.614392772955161E1    -2.104779962971899       7.663473047493909
 7.876278570000000E9    -2.203247221236990       3.106759433961941E1    -5.063444462266759E1    -6.458996569417968E1    -5.092809524344489E1    -6.634763793251980E1    -2.103716652262525       7.559663954639682
 7.876339223550000E9    -2.205138488490379       3.089513489802469E1    -5.048180038458425E1    -6.258582644685787E1    -5.071403278067294E1    -6.438050410851928E1    -2.097636775265738       7.379511639977411
 7.876399877100000E9    -2.201018415155281       3.073364092610461E1    -5.074591372191371E1    -6.466690111590896E1    -5.066908398615858E1    -6.656808042097624E1    -2.092200583848462       7.233242855360007
 7.876460530650000E9    -2.201254083869098       3.056412896295092E1    -5.033940001499749E1    -6.381135154073099E1    -5.034073621872183E1    -6.568668395811567E1    -2.096872251284486       7.113423607976794
 7.876521184200000E9    -2.198911466027381       3.039007170231588E1    -5.031049051991758E1    -6.410142565069410E1    -5.030786252660700E1    -6.837002534259015E1    -2.088338869672996       7.008271020231278
 7.876581837750000E9    -2.195808125150617       3.023956721416431E1    -5.031605111872244E1    -6.515263776437240E1    -5.018092792845251E1    -6.800459116871488E1    -2.095222811753158       6.814534416349859
 7.876642491300000E9    -2.200838716840696       3.007304287612568E1    -5.025186546874586E1    -6.373630557413143E1    -5.008701557673759E1    -6.856115931095067E1    -2.094177524161380       6.663397738433462
 7.876703144850000E9    -2.194325388468355       2.991310172798226E1    -4.997504647778770E1    -6.484208153403698E1    -5.009676396677060E1    -6.728462516764482E1    -2.090524948012436       6.552011004509119
 7.876763798400000E9    -2.193210922836641       2.970794426304738E1    -4.971526920884813E1    -6.492072926660549E1    -5.004754741873590E1    -6.931263304739318E1    -2.083647379325905       6.420852035659585
 7.876824451950000E9    -2.195356436038247       2.957510459787160E1    -4.978912838732312E1    -6.575902182027534E1    -4.966818264658023E1    -7.028695517099460E1    -2.084008073929554       6.273943268035089
 7.876885105500000E9    -2.193885675385408       2.940225030859014E1    -4.969859295932936E1    -6.694895045781124E1    -4.984596390743079E1    -6.919067357177931E1    -2.084779482589657       6.101305532325436
 7.876945759050000E9    -2.192061508624176       2.921841988484639E1    -4.940123242385199E1    -6.506285324463180E1    -4.968566594479523E1    -6.807495985511125E1    -2.079683244338008       5.986518588230293
 7.877006412600000E9    -2.190711320026718       2.909209226772290E1    -4.952158616271288E1    -6.579139459902217E1    -4.945849809167582E1    -6.924738636121971E1    -2.086577782693608       5.837981030874175
 7.877067066150000E9    -2.190542143576510       2.890696171751451E1    -4.955135578481634E1    -6.611543511463296E1    -4.946882801807193E1    -7.074796270052929E1    -2.080748874067978       5.681981548438476
 7.877127719700000E9    -2.188443587467165       2.873311332448611E1    -4.911171916737842E1    -6.716791674064982E1    -4.919509356973451E1    -7.027324559984044E1    -2.072707707722588       5.569991938497010
 7.877188373250000E9    -2.191101315580169       2.859065332582492E1    -4.906998943360869E1    -6.768747603943729E1    -4.926129808502269E1    -7.084607749446101E1    -2.071879264333714       5.401075659588511
 7.877249026800000E9    -2.186561126042206       2.842797850823436E1    -4.877361830634744E1    -6.596630552356289E1    -4.886678182050686E1    -7.036751959793079E1    -2.072156841305200       5.293950428535977
 7.877309680350000E9    -2.189439547616360       2.825433646685283E1    -4.880866339669620E1    -6.890157263276797E1    -4.892660441471791E1    -7.124978378351236E1    -2.073295371509020       5.116055770207221
 7.877370333900000E9    -2.189444089505186       2.807704539915481E1    -4.853262740098421E1    -6.871201865942643E1    -4.870190359287732E1    -7.150179229316298E1    -2.069099472223173       4.983744862551436
 7.877430987450000E9    -2.185412630467523       2.794031449539608E1    -4.865356011961455E1    -6.983427500708231E1    -4.876234177652695E1    -7.223770422133764E1    -2.076548664788243       4.855296899980199
 7.877491641000000E9    -2.183884441895167       2.776331782109786E1    -4.838976078649370E1    -6.891207296771097E1    -4.845493912125289E1    -7.263227436705576E1    -2.063328407057271       4.699190731393350
 7.877552294550000E9    -2.185679581259551       2.757591258630551E1    -4.832456227005341E1    -6.983159607116389E1    -4.832919422059442E1    -7.199108792166751E1    -2.066900703330957       4.581743897519242
 7.877612948100000E9    -2.183184346120141       2.740258624512376E1    -4.800726060310885E1    -6.888664127061830E1    -4.814758056021309E1    -7.258126661673441E1    -2.068252473293541       4.397220570834722
 7.877673601650000E9    -2.185812186415875       2.726288750383857E1    -4.800622896605044E1    -7.032711443226057E1    -4.808115301239675E1    -7.332871219025911E1    -2.059592878299228       4.269550585361175
 7.877734255200000E9    -2.185449797279224       2.711286127231540E1    -4.787334393523280E1    -6.892488838340228E1    -4.786751390881061E1    -7.359034891687027E1    -2.061390171192335       4.111415232084975
 7.877794908750000E9    -2.180891569655768       2.691761151274866E1    -4.754820554625702E1    -7.077496311572968E1    -4.786881883358178E1    -7.404213855392808E1    -2.061810516770638       4.000871095498481
 7.877855562300000E9    -2.182328805856925       2.673982409093446E1    -4.741874276869232E1    -7.111100332490085E1    -4.751120736605056E1    -7.369005284326118E1    -2.056586115275143       3.870778142845864
 7.877916215850000E9    -2.183051668513398       2.657733910526388E1    -4.734919431747137E1    -7.147935471026638E1    -4.733286319219572E1    -7.451019942996639E1    -2.056595992734000       3.719792359634956
 7.877976869400000E9    -2.183435430764892       2.643464886494594E1    -4.732824530016883E1    -7.046354320390701E1    -4.730113477756320E1    -7.550733073972135E1    -2.055148011642218       3.570971086959007
 7.878037522950000E9    -2.181483523304762       2.625139980699226E1    -4.706635044465329E1    -7.066824266732139E1    -4.700648727508507E1    -7.483854520870798E1    -2.055188087395727       3.425577360113140
 7.878098176500000E9    -2.180293265228732       2.607373518646700E1    -4.691042195542483E1    -7.125650685228975E1    -4.698983407126585E1    -7.450280802442458E1    -2.057148429477994       3.278981015588758
 7.878158830050000E9    -2.176513760247068       2.592929839928294E1    -4.673898151686888E1    -7.251727344324344E1    -4.678468137474947E1    -7.600243995164308E1    -2.051286941287151       3.157213662316632
 7.878219483600000E9    -2.176770190510303       2.574524253527091E1    -4.648882561971629E1    -7.237087762707677E1    -4.656387306642668E1    -7.690276878923403E1    -2.055636673739510       3.019011987533524
 7.878280137150000E9    -2.178520486193921       2.559097032956946E1    -4.633356713107315E1    -7.296672984304671E1    -4.648533652852876E1    -7.615084011607311E1    -2.050669686624358       2.851871746784414
 7.878340790700000E9    -2.177471462026335       2.541661788141409E1    -4.609924689471495E1    -7.416064747825031E1    -4.624243869658115E1    -7.795256449358551E1    -2.048919050064830       2.736846196061442
 7.878401444250000E9    -2.177295257039384       2.525299687955379E1    -4.584751754736449E1    -7.459092448555798E1    -4.616236592774285E1    -7.787478765949682E1    -2.052233901764871       2.565735431393608
 7.878462097800000E9    -2.176484091138626       2.506303951403331E1    -4.578159500714960E1    -7.437559845958501E1    -4.588584807410149E1    -7.872813757772776E1    -2.046326702095804       2.397267942221089
 7.878522751350000E9    -2.173500523777807       2.491570747165656E1    -4.559872205160632E1    -7.462766060952789E1    -4.562312840083158E1    -7.934894631743759E1    -2.042344072500467       2.312816599692378
 7.878583404900000E9    -2.175993775079068       2.474318178832953E1    -4.555519304826418E1    -7.556346042040941E1    -4.557585755613934E1    -7.987987906103646E1    -2.048786665895686       2.166312130010849
 7.878644058450000E9    -2.173697317408225       2.456052831794294E1    -4.508581795350711E1    -7.683812500401704E1    -4.527624646152906E1    -7.966325868959721E1    -2.043556605182717       1.995053296331613
 7.878704712000000E9    -2.172961228236730       2.438164546144424E1    -4.504561166541122E1    -7.740840942015639E1    -4.518514794724598E1    -8.026400083354811E1    -2.047725827349709       1.867347963039172
 7.878765365550000E9    -2.169486564069304       2.425378714225755E1    -4.495662900357573E1    -7.623461833011226E1    -4.495676941038891E1    -7.972168981768819E1    -2.038999465573486       1.695552608174435
 7.878826019100000E9    -2.172179847551042       2.406905104739586E1    -4.454203979942665E1    -7.832512828298501E1    -4.465372595664753E1    -8.125997886279654E1    -2.043678495881248       1.556758944185741
 7.878886672650000E9    -2.171534879063219       2.390242753192997E1    -4.435479221961917E1    -7.833794429789826E1    -4.456298112704964E1    -8.106063318946561E1    -2.042471398960372       1.435083932904846
 7.878947326200000E9    -2.177265192351326       2.373369891635027E1    -4.413595581693638E1    -7.864039725272158E1    -4.415464857775225E1    -8.138966837187955E1    -2.047728549104491       1.290404318634638
 7.879007979750000E9    -2.173644336183855       2.353470899902229E1    -4.392253860798868E1    -7.938360243096047E1    -4.412204305084083E1    -8.269419279731095E1    -2.040673090075457       1.136151763127821
 7.879068633300000E9    -2.175486697777611       2.336803812050172E1    -4.365894479061970E1    -7.998265736052062E1    -4.384217743370425E1    -8.351616788844794E1    -2.046307897421949       9.883096019819817E-1
 7.879129286850000E9    -2.173364353336904       2.318556296915992E1    -4.344490536734180E1    -8.007645236045686E1    -4.362039505780146E1    -8.347780632103016E1    -2.045194735596500       8.471622356378188E-1
 7.879189940400000E9    -2.172151509015323       2.303576868033673E1    -4.312039542872349E1    -8.148772809135575E1    -4.336917612781883E1    -8.474118342564567E1    -2.039873713432514       7.260521192917355E-1
 7.879250593950000E9    -2.174124170014426       2.286881454251411E1    -4.300130407895301E1    -8.199073045247330E1    -4.313238536815098E1    -8.495697603540017E1    -2.042233301927237       5.452501909768817E-1
 7.879311247500000E9    -2.175666333368173       2.269142130607862E1    -4.266396776815661E1    -8.245751521049468E1    -4.289273430590370E1    -8.596528037019549E1    -2.042998680210176       3.991380810071364E-1
 7.879371901050000E9    -2.175634381307692       2.250651168185744E1    -4.240528481723587E1    -8.320347880999090E1    -4.255238499656279E1    -8.647226420145236E1    -2.045518278410539       2.811840482659000E-1
 7.879432554600000E9    -2.175545195567757       2.232264748307226E1    -4.209144119372586E1    -8.491550819085749E1    -4.233297652346327E1    -8.768496922095250E1    -2.045271402192618       9.066919704106492E-2
 7.879493208150000E9    -2.181106196773145       2.215034264261496E1    -4.187139111619182E1    -8.510041414676826E1    -4.199026550198774E1    -8.824748917514080E1    -2.047178303540786      -3.425308449600378E-2
 7.879553861700000E9    -2.179881116965966       2.198395796602493E1    -4.154197554983167E1    -8.588314878971266E1    -4.172095582369700E1    -8.939470946524239E1    -2.047156501221559      -2.444490028923882E-1
 7.879614515250000E9    -2.180016860396173       2.180414736895414E1    -4.130450465640747E1    -8.618345594248505E1    -4.153090353402095E1    -9.028078840741799E1    -2.042428599508582      -3.671112448078302E-1
 7.879675168800000E9    -2.183008730601548       2.163207535607114E1    -4.103985729543745E1    -8.780635686595917E1    -4.115849795772885E1    -9.087550479387146E1    -2.047196088293838      -5.423226487966486E-1
 7.879735822350000E9    -2.184502366727567       2.147678977241893E1    -4.062573605360441E1    -8.821924213929294E1    -4.084453440295178E1    -9.162586435410223E1    -2.045396169343952      -6.477144001290643E-1
 7.879796475900000E9    -2.186727650444123       2.126803302087745E1    -4.031743814941069E1    -8.973346134754975E1    -4.050932098953790E1    -9.265797565621064E1    -2.047288438760347      -8.030840086155723E-1
 7.879857129450000E9    -2.187182571010258       2.111037647761105E1    -4.002727058796185E1    -9.077793815670441E1    -4.021986614849914E1    -9.442218864557910E1    -2.051172832140761      -9.780620158895226E-1
 7.879917783000000E9    -2.187436720547059       2.090766857261589E1    -3.964344296718056E1    -9.198213245640899E1    -3.982349162718205E1    -9.542429600039571E1    -2.050838191998619      -1.140622888512749
 7.879978436550000E9    -2.191743657168516       2.072725104176356E1    -3.923265258800128E1    -9.357069563721524E1    -3.941929556251473E1    -9.661889778375291E1    -2.057991479812107      -1.288973970473286
 7.880039090100000E9    -2.194908751853838       2.056312302590497E1    -3.881789596925110E1    -9.478872805089317E1    -3.913196685842231E1    -9.858278759908690E1    -2.064856414124683      -1.423983852057114
 7.880099743650000E9    -2.201320563899641       2.038528557310686E1    -3.848359694731722E1    -9.662675079618231E1    -3.871681335348567E1    -1.000612588344613E2    -2.062877965782881      -1.609066641852085
 7.880160397200000E9    -2.206292713826258       2.018286359385211E1    -3.809084317504751E1    -9.838360331152290E1    -3.831745162133126E1    -1.016977697726399E2    -2.069610504975838      -1.762518659718812
 7.880221050750000E9    -2.211380634866445       2.000400907238187E1    -3.767138553757415E1    -1.002264735509372E2    -3.788715162633405E1    -1.032294061435876E2    -2.068970497933539      -1.942254660706157
 7.880281704300000E9    -2.218924576894840       1.981883334594855E1    -3.726719256173001E1    -1.021360674556839E2    -3.743841901269133E1    -1.054850649949594E2    -2.076717255768540      -2.098443938157990
 7.880342357850000E9    -2.225023447584625       1.964298036798484E1    -3.684706410216525E1    -1.040431659853926E2    -3.704583382004475E1    -1.076534571288164E2    -2.083270389072380      -2.230396814063067
 7.880403011400000E9    -2.233424411501774       1.948231658739272E1    -3.639101588484996E1    -1.068874110748540E2    -3.661565775839521E1    -1.099448866273410E2    -2.097579885075006      -2.418034083095571
 7.880463664950000E9    -2.243413190447816       1.929789465457313E1    -3.594810365339623E1    -1.093452444983382E2    -3.615242745570547E1    -1.127906926505986E2    -2.106447212154306      -2.565119039506861
 7.880524318500000E9    -2.257233392082638       1.913253373804282E1    -3.549738252990637E1    -1.125792517549329E2    -3.570663338481368E1    -1.157034288645889E2    -2.114461486450802      -2.690559590121696
 7.880584972050000E9    -2.274609503446345       1.897833787933810E1    -3.497633544537327E1    -1.156960925383851E2    -3.529374794898085E1    -1.189822901370915E2    -2.134678953627685      -2.838972084783224
