#  HZ   S   DB   R     50.00 
! Rohde & Schwarz Vector Network Analyzer 
! Rohde-Schwarz,ZNB20-2Port,1311601062101988,3.16
! Created: UTC 1/12/2023, 6:34:13 PM
! freq[Hz]                db:S11                  ang:S11                 db:S21                  ang:S21                 db:S12                  ang:S12                 db:S22                  ang:S22
 7.874831906000000E9    -2.229458312637528       3.502542584734528E1    -5.271279019437858E1    -5.782157429451613E1    -5.257583030471178E1    -6.086573101835189E1    -2.146304722634633       1.096266336222683E1
 7.874892559550000E9    -2.229723172027270       3.486639762855611E1    -5.250739303441372E1    -5.778297021746314E1    -5.236613386402480E1    -6.162635382452883E1    -2.140908657689204       1.082225750084319E1
 7.874953213100000E9    -2.229653254692046       3.468455630979260E1    -5.235172509723776E1    -5.944496469123030E1    -5.261765065378165E1    -6.096230045484117E1    -2.145342390619698       1.069705687941672E1
 7.875013866650000E9    -2.222852238937532       3.453224292251185E1    -5.250985118001794E1    -5.775267422975819E1    -5.197163897465320E1    -6.282763383320784E1    -2.142131825489627       1.054520646563501E1
 7.875074520200000E9    -2.221507495806136       3.436990252415637E1    -5.218000444436792E1    -5.822935395948463E1    -5.211956306511871E1    -6.240345725759045E1    -2.134426138020968       1.041318697829441E1
 7.875135173750000E9    -2.223281234908737       3.420360605854534E1    -5.196686224612834E1    -6.009806320054359E1    -5.189414821659657E1    -6.330481334838731E1    -2.127913339884224       1.021990675592306E1
 7.875195827300000E9    -2.223418704225394       3.402118788570436E1    -5.213464110470796E1    -5.908104041843809E1    -5.211045878678554E1    -6.441081256956558E1    -2.131253710766930       1.006780798680204E1
 7.875256480850000E9    -2.221426494963938       3.386635437202910E1    -5.220460110926298E1    -5.872033959924821E1    -5.210615516569730E1    -6.350189825251612E1    -2.126439086161756       9.951635935756697
 7.875317134400000E9    -2.221602689051660       3.369859015042773E1    -5.178186581028416E1    -5.967475845713678E1    -5.225849542871910E1    -6.265752863013357E1    -2.129665815471744       9.764918466329854
 7.875377787950000E9    -2.216983767639375       3.351052572670662E1    -5.185812253615104E1    -6.096061769053500E1    -5.176343462003022E1    -6.421426276132776E1    -2.124924242585083       9.682693753140329
 7.875438441500000E9    -2.218699432458425       3.334063090170924E1    -5.144471816929902E1    -6.134739181312999E1    -5.172808507355921E1    -6.396533708314161E1    -2.125324633019835       9.512181721242635
 7.875499095050000E9    -2.215135701571858       3.318376015407573E1    -5.140232093954593E1    -6.061526805337684E1    -5.169265359212596E1    -6.314963787452709E1    -2.123486707933928       9.375149217425115
 7.875559748600000E9    -2.215550418786060       3.302206083056188E1    -5.168418311238785E1    -6.198403663778571E1    -5.168850627813848E1    -6.474733436671876E1    -2.118327331582107       9.249887633130571
 7.875620402150000E9    -2.215756852034549       3.284739342824551E1    -5.153574042644312E1    -6.117566211534481E1    -5.139481742968484E1    -6.402613175660716E1    -2.125334378841502       9.119229450165012
 7.875681055700000E9    -2.217147082566059       3.265898620467100E1    -5.144597450910338E1    -6.326220180852946E1    -5.135047080890280E1    -6.393300656156022E1    -2.119812333118401       8.963751888560754
 7.875741709250000E9    -2.210536123746298       3.254053156539278E1    -5.135905661971564E1    -6.185833599976731E1    -5.131041649081381E1    -6.570364306745503E1    -2.116852883687113       8.824275299161847
 7.875802362800000E9    -2.213155252287773       3.236802407549620E1    -5.106406597200680E1    -6.206192198322831E1    -5.151365218451544E1    -6.463082425969934E1    -2.112102887411365       8.744734797212363
 7.875863016350000E9    -2.209580223851037       3.219529409174073E1    -5.104509953519071E1    -6.289908751836762E1    -5.102733646040873E1    -6.374721112233316E1    -2.110658223427855       8.548125332111322
 7.875923669900000E9    -2.205919164775568       3.201866574916647E1    -5.073615834865866E1    -6.208815301073842E1    -5.110778615584068E1    -6.647375048004714E1    -2.103884206801156       8.377961271195176
 7.875984323450000E9    -2.209225229888327       3.185017931392746E1    -5.095661915937459E1    -6.167717747846780E1    -5.077734403677066E1    -6.590847662300794E1    -2.110409025752587       8.234895702003906
 7.876044977000000E9    -2.208506921419837       3.168196069878673E1    -5.082678272040729E1    -6.315843934194130E1    -5.089427120490114E1    -6.846827067120846E1    -2.110775882497279       8.135063680506670
 7.876105630550000E9    -2.204685288266875       3.152403972485434E1    -5.072526070974180E1    -6.330659363243888E1    -5.082152125413707E1    -6.612459181284051E1    -2.112092535908713       7.956856646783550
 7.876166284100000E9    -2.201879399467336       3.136953511035112E1    -5.071071415167904E1    -6.389568143203633E1    -5.052725167730881E1    -6.834109395576478E1    -2.105777101319470       7.776654340557998
 7.876226937650000E9    -2.204609483995944       3.122061263566577E1    -5.022996642837667E1    -6.402056917383332E1    -5.046439816282438E1    -6.629201112064688E1    -2.104424398434662       7.651960425994076
 7.876287591200000E9    -2.200648446848543       3.102720963157734E1    -5.044594784658710E1    -6.522284443704085E1    -5.042771064067283E1    -6.867123889119257E1    -2.104490492412231       7.523411673254191
 7.876348244750000E9    -2.206410279393116       3.087447958555312E1    -5.043690448930596E1    -6.195730480550433E1    -5.024964481726391E1    -6.815959917877326E1    -2.103223536395987       7.390099276467678
 7.876408898300000E9    -2.199902598606539       3.069348615457686E1    -4.990775429091166E1    -6.612107966912586E1    -5.018943155481617E1    -6.720416772455764E1    -2.097588106114264       7.247824396033297
 7.876469551850000E9    -2.200253687956660       3.053186669467671E1    -4.998858802822964E1    -6.543844805491406E1    -5.030944604471082E1    -6.934997369741814E1    -2.090266016607884       7.084050895042850
 7.876530205400000E9    -2.198939982608096       3.036671864622137E1    -4.983096282780669E1    -6.634839816748011E1    -5.017875532695352E1    -6.751213576564061E1    -2.097696635507488       6.989332242206028
 7.876590858950000E9    -2.199699292346729       3.022552221461564E1    -4.977307535847370E1    -6.627721230678625E1    -4.981306337076559E1    -6.791030837883498E1    -2.091760303474298       6.834302752337967
 7.876651512500000E9    -2.200567939592566       3.004914671608864E1    -4.981477946762953E1    -6.530211592496713E1    -4.966665941546812E1    -6.906681090450577E1    -2.084759196078930       6.651008704418673
 7.876712166050000E9    -2.196943412906635       2.987831067953428E1    -4.950420998895311E1    -6.780508983812007E1    -4.966219467709391E1    -6.852277130045246E1    -2.096567270384380       6.489268125391351
 7.876772819600000E9    -2.196264128818200       2.971024637379586E1    -4.947492947947303E1    -6.702738766263957E1    -4.969571715140400E1    -6.970165646982500E1    -2.084581406769565       6.408029481864030
 7.876833473150000E9    -2.195096199893978       2.953071366473351E1    -4.943497790434613E1    -6.738427264818876E1    -4.949035933214315E1    -6.997596923874822E1    -2.086041834877240       6.214143867350245
 7.876894126700000E9    -2.193757038738308       2.937530451654137E1    -4.912915977114351E1    -6.778800714651182E1    -4.913440318438285E1    -7.040037313514387E1    -2.085349780549529       6.117732758512130
 7.876954780250000E9    -2.194440951199911       2.919272762779650E1    -4.908831584040441E1    -6.830428815464246E1    -4.909566626703271E1    -7.092123889123795E1    -2.083288185891467       5.949942468509697
 7.877015433800000E9    -2.194425209523452       2.905638412182299E1    -4.894300173543684E1    -6.756421701510014E1    -4.894818425125980E1    -7.274924639516883E1    -2.079717864132858       5.833143441094979
 7.877076087350000E9    -2.191346341898823       2.887875235750218E1    -4.879721750288350E1    -6.780353261422329E1    -4.867208294830626E1    -7.104477813332309E1    -2.083784316352754       5.695061797942478
 7.877136740900000E9    -2.194047709008610       2.871446096276471E1    -4.862598285425066E1    -6.972319721220825E1    -4.886191204598106E1    -7.182561344984913E1    -2.074758463910052       5.539018490234546
 7.877197394450000E9    -2.194704094069476       2.855883843824375E1    -4.865043460887936E1    -6.931822588485818E1    -4.875543971287833E1    -7.241772808522136E1    -2.074948029584998       5.345966084898468
 7.877258048000000E9    -2.189860786344309       2.839983313659698E1    -4.849341250405086E1    -6.997437404489872E1    -4.863715466780845E1    -7.250613788537733E1    -2.077309151453378       5.206864712771369
 7.877318701550000E9    -2.187481606707150       2.822737256716285E1    -4.826770895282692E1    -6.956762200638109E1    -4.828348657698075E1    -7.329668072999795E1    -2.070087766777510       5.119008825972362
 7.877379355100000E9    -2.190224769343479       2.802542130039320E1    -4.801549538803105E1    -7.070220756898142E1    -4.831580572169419E1    -7.383930655819634E1    -2.071654711202680       4.963341422696266
 7.877440008650000E9    -2.184918745099945       2.785049384455388E1    -4.791650486594874E1    -7.145539860516371E1    -4.815161380855845E1    -7.404173145914399E1    -2.076257749362655       4.810520725881009
 7.877500662200000E9    -2.186689521703825       2.771602620455267E1    -4.775151387252542E1    -7.025801604498525E1    -4.794946289718563E1    -7.310684871600358E1    -2.071804395711046       4.669074154350767
 7.877561315750000E9    -2.185801292666494       2.754809215942537E1    -4.765582837333456E1    -6.962680222057489E1    -4.787249527503847E1    -7.443517052140791E1    -2.070073559216030       4.548088217378331
 7.877621969300000E9    -2.186367572360180       2.739293593212333E1    -4.733686688139203E1    -7.110448119314668E1    -4.763323499196610E1    -7.383624967794654E1    -2.067549047994333       4.423609796954910
 7.877682622850000E9    -2.182397127070365       2.721121741651180E1    -4.730264657634794E1    -7.125719207331299E1    -4.749147411381678E1    -7.510907478352696E1    -2.064590556409802       4.251751521746108
 7.877743276400000E9    -2.183480525376024       2.703709537653811E1    -4.715347824653044E1    -7.165078699363278E1    -4.724529599391464E1    -7.581514975096002E1    -2.070457818324108       4.133208820121407
 7.877803929950000E9    -2.179593282019944       2.687992641965292E1    -4.714248560901868E1    -7.198738834765672E1    -4.715142140788700E1    -7.545831552968382E1    -2.067293437685426       4.026276266243734
 7.877864583500000E9    -2.186172639427519       2.672851742768435E1    -4.699933554347417E1    -7.338899082857351E1    -4.705218940242943E1    -7.582144367770626E1    -2.062037777778869       3.836265009694609
 7.877925237050000E9    -2.183243600033761       2.654647020803895E1    -4.677914605244793E1    -7.213561749065896E1    -4.685101454191945E1    -7.696559780830070E1    -2.060102481264463       3.727635366259129
 7.877985890600000E9    -2.177948452173328       2.639188774327308E1    -4.654198163146515E1    -7.404513785429717E1    -4.660285595928137E1    -7.648143544052577E1    -2.058545367945458       3.564785265117557
 7.878046544150000E9    -2.183796051487323       2.622509772635830E1    -4.636495955432864E1    -7.439733574355232E1    -4.654806077724344E1    -7.759180083646889E1    -2.063912414949074       3.428920019039896
 7.878107197700000E9    -2.183623566408111       2.604655309186825E1    -4.625774796649560E1    -7.363787774516777E1    -4.642049355604602E1    -7.733662691329098E1    -2.052864761869986       3.296819149428229
 7.878167851250000E9    -2.177569767569219       2.587819914183594E1    -4.603677379329349E1    -7.455156839016496E1    -4.617791020909949E1    -7.740923610285105E1    -2.053425317415541       3.146715668267993
 7.878228504800000E9    -2.180489639580435       2.569658916172506E1    -4.609957290370684E1    -7.455612437510931E1    -4.605356361440204E1    -7.868420220141759E1    -2.056602733229840       2.962228257607765
 7.878289158350000E9    -2.178247516247345       2.554852410286096E1    -4.576322392688161E1    -7.512435395638465E1    -4.587577749045303E1    -7.988665925311651E1    -2.051207804384874       2.811550462440377
 7.878349811900000E9    -2.180663568950653       2.537101865356471E1    -4.561309316176002E1    -7.657748397896700E1    -4.559581554077560E1    -7.930088566167908E1    -2.048651816563254       2.682371196011481
 7.878410465450000E9    -2.175589418887613       2.521211696860077E1    -4.532446637311522E1    -7.758317710317183E1    -4.545214934049689E1    -8.054733082554309E1    -2.050649665324300       2.518781212815743
 7.878471119000000E9    -2.175630556826362       2.505189498681141E1    -4.511868486630151E1    -7.772967817928304E1    -4.527881224978181E1    -8.111927986339435E1    -2.060395512489329       2.412666115457027
 7.878531772550000E9    -2.181941775088648       2.486580483751843E1    -4.497605607057189E1    -7.788351373381914E1    -4.505416547057153E1    -8.073964230716778E1    -2.056730310391020       2.280300020498092
 7.878592426100000E9    -2.176419443851658       2.468592317931003E1    -4.468592069779218E1    -7.799175679903878E1    -4.476141892031262E1    -8.172805657376628E1    -2.049261980433495       2.134868005296853
 7.878653079650000E9    -2.176972818482089       2.452538822746256E1    -4.435915051015595E1    -7.891096361250129E1    -4.462368004729750E1    -8.257441154769103E1    -2.050293694850609       1.967886812124789
 7.878713733200000E9    -2.174602719602501       2.435679246835306E1    -4.435329022599855E1    -8.064403861804117E1    -4.431759366802957E1    -8.267921350993437E1    -2.058550119303869       1.804412282804854
 7.878774386750000E9    -2.175644146571174       2.419271379214716E1    -4.413020587455143E1    -7.950621370470164E1    -4.423196989084001E1    -8.360944041060556E1    -2.050252313826896       1.639399011866328
 7.878835040300000E9    -2.178605912593600       2.400374899824950E1    -4.380500527671803E1    -8.036082762602913E1    -4.399917807901740E1    -8.437216338751914E1    -2.051315588290113       1.589821492641733
 7.878895693850000E9    -2.175924446858490       2.384938717287757E1    -4.357062169532452E1    -8.153336950645414E1    -4.377579320099245E1    -8.498150207210676E1    -2.049566043940759       1.388909503888033
 7.878956347400000E9    -2.175760523764816       2.368004020002336E1    -4.344738945352725E1    -8.213041774820695E1    -4.345802333237425E1    -8.620148321724129E1    -2.053597310678279       1.260711872526844
 7.879017000950000E9    -2.176389028525034       2.349436919990344E1    -4.309247738105021E1    -8.311502934833209E1    -4.333810608561100E1    -8.584053552007738E1    -2.049073462805406       1.083438401122742
 7.879077654500000E9    -2.180033652998877       2.332595443570644E1    -4.291886295277857E1    -8.374443861446900E1    -4.305250811375997E1    -8.647956409302510E1    -2.049821709333268       9.265585526320460E-1
 7.879138308050000E9    -2.178806228605166       2.315260909749428E1    -4.254507268380492E1    -8.349125061102302E1    -4.276583108446432E1    -8.792611046642365E1    -2.048073488519022       7.711514157714353E-1
 7.879198961600000E9    -2.177828895554183       2.298890950665770E1    -4.241857118747468E1    -8.465510558002387E1    -4.254605242209798E1    -8.900492029394752E1    -2.054619499519987       6.877892277939348E-1
 7.879259615150000E9    -2.180965338690543       2.278802724673550E1    -4.216290685281679E1    -8.702258801517058E1    -4.224859028888758E1    -8.970800976438279E1    -2.053975179806711       4.713636750748716E-1
 7.879320268700000E9    -2.181182490733622       2.261678984888782E1    -4.162581428029489E1    -8.670909033280411E1    -4.186464904835783E1    -9.087965038179718E1    -2.057503860060012       3.637338959474958E-1
 7.879380922250000E9    -2.184508601686505       2.246205633159313E1    -4.152890942817665E1    -8.757532222716559E1    -4.174059052116483E1    -9.122592944046933E1    -2.048574990707141       2.340997828758317E-1
 7.879441575800000E9    -2.182854844962038       2.228270654918658E1    -4.123736958498512E1    -8.923997949499883E1    -4.129778928372428E1    -9.227464121715772E1    -2.056099140517605       5.471582316097602E-2
 7.879502229350000E9    -2.184120191272653       2.209305670552120E1    -4.089719135902502E1    -9.018529210859766E1    -4.108755522369403E1    -9.343068180264001E1    -2.051198517996042      -1.099554796503132E-1
 7.879562882900000E9    -2.184281966519251       2.192507474228888E1    -4.055946708855792E1    -9.178044342922222E1    -4.068457636096805E1    -9.461477285618285E1    -2.059239118690831      -2.735321370259161E-1
 7.879623536450000E9    -2.190635231321209       2.175802448798196E1    -4.026363221225825E1    -9.268093560530497E1    -4.037808084471385E1    -9.572895565570545E1    -2.060134239992278      -3.987176390555715E-1
 7.879684190000000E9    -2.197284012865887       2.157036265534605E1    -3.991406772148019E1    -9.402601382034646E1    -4.006343072385627E1    -9.732591026299976E1    -2.062446070994523      -5.817068296551355E-1
 7.879744843550000E9    -2.197688821991489       2.139098008378502E1    -3.961366775059943E1    -9.508031652011249E1    -3.982666582147574E1    -9.824339111863893E1    -2.063001900700427      -7.205304135450712E-1
 7.879805497100000E9    -2.198321848040597       2.122340091619564E1    -3.923619634753685E1    -9.691297306154402E1    -3.944963195093102E1    -9.990868973396698E1    -2.064361728123517      -8.645808144052715E-1
 7.879866150650000E9    -2.204281855552557       2.102901885774039E1    -3.891406231783166E1    -9.842515363651933E1    -3.906469804296847E1    -1.014087697658106E2    -2.071978851741108      -1.013702215927790
 7.879926804200000E9    -2.208227153115957       2.084383559569714E1    -3.852826384348275E1    -9.971587153665344E1    -3.865974780659457E1    -1.032926709495448E2    -2.082965547535668      -1.170792641248892
 7.879987457750000E9    -2.212306051232671       2.068220603245590E1    -3.814932407984537E1    -1.015944443473220E2    -3.828774511310109E1    -1.052479355331493E2    -2.077888719645990      -1.370099414172909
 7.880048111300000E9    -2.218039510363103       2.052629260314380E1    -3.773383590214301E1    -1.034972006479109E2    -3.785544510417228E1    -1.071052073209251E2    -2.087558584078881      -1.452334189594461
 7.880108764850000E9    -2.226774200843284       2.032170476364166E1    -3.731080326974273E1    -1.060350343829464E2    -3.749993066705598E1    -1.094123321647682E2    -2.100372840847494      -1.637328091867466
 7.880169418400000E9    -2.234372037454867       2.014978677345672E1    -3.693697287127384E1    -1.082578483045591E2    -3.710524286154018E1    -1.118169782632507E2    -2.104800446587161      -1.767876159185146
 7.880230071950000E9    -2.244307887359188       2.001603250063162E1    -3.653008633957399E1    -1.109749755304930E2    -3.670947493178569E1    -1.145608201860463E2    -2.112524780715772      -1.978522501555186
 7.880290725500000E9    -2.257042317747615       1.982023466233266E1    -3.611016105060141E1    -1.140359936826029E2    -3.625032882347222E1    -1.174308777486538E2    -2.125402997203730      -2.070315871071470
 7.880351379050000E9    -2.266275936248712       1.967322161652266E1    -3.571071741000474E1    -1.173848957267095E2    -3.584518720897763E1    -1.206760395414132E2    -2.132886800187630      -2.270427214268737
