#  HZ   S   RI   R     50.00 
! Rohde & Schwarz Vector Network Analyzer 
! Rohde-Schwarz,ZNB20-2Port,1311601062101988,3.16
! Created: UTC 3/21/2024, 12:54:46 AM
! freq[Hz]                re:S11                  im:S11                  re:S21                  im:S21                  re:S12                  im:S12                  re:S22                  im:S22
 6.528805003000000E9     5.607015522790079E-1   -5.498619382636907E-2   -7.882269647233648E-3   -3.210775503224787E-2   -8.598474123041213E-3   -3.199080517944275E-2    4.805583156110317E-1   -1.843911138149940E-1
 6.528814667250000E9     5.605317595168059E-1   -5.584850742897593E-2   -7.804411342129469E-3   -3.228336041304148E-2   -8.763125564888596E-3   -3.212445876806032E-2    4.802007972509016E-1   -1.851999108272325E-1
 6.528824331500000E9     5.605578687303158E-1   -5.659971516191648E-2   -8.109325757815884E-3   -3.245658883824051E-2   -8.846427667270349E-3   -3.229335144989191E-2    4.799273378347226E-1   -1.861618509620126E-1
 6.528833995750000E9     5.604240408378148E-1   -5.732347358149851E-2   -8.067375841895931E-3   -3.257564388325048E-2   -8.812158337573164E-3   -3.242672014928329E-2    4.796365889072464E-1   -1.868229356619116E-1
 6.528843660000000E9     5.604322071053776E-1   -5.807504311647388E-2   -8.138316337833190E-3   -3.268238902079968E-2   -8.957134353780965E-3   -3.255503965286231E-2    4.792429819633837E-1   -1.877359265367741E-1
 6.528853324250000E9     5.602869646978137E-1   -5.889925282197891E-2   -8.322607963972472E-3   -3.293119319620315E-2   -9.039910551218821E-3   -3.273206846202920E-2    4.788052240210911E-1   -1.885375225617301E-1
 6.528862988500000E9     5.602661328441179E-1   -5.985915127898496E-2   -8.571035498842222E-3   -3.304254601499355E-2   -9.098024151731434E-3   -3.285721152801451E-2    4.786908009126039E-1   -1.893841123236690E-1
 6.528872652750000E9     5.601323823921595E-1   -6.054275671754848E-2   -8.537701024719889E-3   -3.314875251639415E-2   -9.304928332730429E-3   -3.314060092792526E-2    4.780075816759627E-1   -1.902944039735805E-1
 6.528882317000000E9     5.600167708382012E-1   -6.131070998891831E-2   -8.614326096247064E-3   -3.339825495717789E-2   -9.485425183557963E-3   -3.328604402464924E-2    4.777169143678179E-1   -1.911167119384028E-1
 6.528891981250000E9     5.599277517638281E-1   -6.210549543343674E-2   -8.806881546191492E-3   -3.343408616141062E-2   -9.551934005819147E-3   -3.342527066945761E-2    4.772760399766793E-1   -1.920387583802926E-1
 6.528901645500000E9     5.598414470624777E-1   -6.298417699800687E-2   -8.873735118845202E-3   -3.361050223565539E-2   -9.537743487268097E-3   -3.353478281443538E-2    4.769369596579299E-1   -1.928454969198572E-1
 6.528911309750000E9     5.595760547529777E-1   -6.366057752692472E-2   -8.947696485343281E-3   -3.386815266336522E-2   -9.630423373186639E-3   -3.371658577118408E-2    4.766726891960307E-1   -1.936956022362896E-1
 6.528920974000000E9     5.596413487323841E-1   -6.444471539718548E-2   -9.057165583178119E-3   -3.394916245612141E-2   -9.870488676464831E-3   -3.386251678996609E-2    4.762256505600509E-1   -1.944301908245134E-1
 6.528930638250000E9     5.595948754943969E-1   -6.523925088304447E-2   -9.127647888995479E-3   -3.416285657599300E-2   -9.973594499592557E-3   -3.402014417286990E-2    4.760740876776097E-1   -1.953165549732994E-1
 6.528940302500000E9     5.593654524013304E-1   -6.606117376042844E-2   -9.205053307192275E-3   -3.434863343365070E-2   -9.991958850056746E-3   -3.412860395684292E-2    4.753836494780982E-1   -1.963781483659255E-1
 6.528949966750000E9     5.593153369553429E-1   -6.682761378428409E-2   -9.337583054415342E-3   -3.439349923530551E-2   -1.005808826370501E-2   -3.433958915597161E-2    4.750268487169499E-1   -1.971173267194998E-1
 6.528959631000000E9     5.592216310764949E-1   -6.771606132635161E-2   -9.532309687686639E-3   -3.459042976640656E-2   -1.016959145021083E-2   -3.451296101638159E-2    4.746119925804628E-1   -1.979091029978006E-1
 6.528969295250000E9     5.591386467717749E-1   -6.856761473690699E-2   -9.596713993270381E-3   -3.475295160299352E-2   -1.031486067529723E-2   -3.469266141793394E-2    4.743075263786808E-1   -1.990285854986140E-1
 6.528978959500000E9     5.590635201062808E-1   -6.929437254517082E-2   -9.604911855505429E-3   -3.498545860781117E-2   -1.051150425373831E-2   -3.486372817164702E-2    4.737779609476925E-1   -1.997662611592761E-1
 6.528988623750000E9     5.588882668488110E-1   -7.008842068188323E-2   -9.763467881500541E-3   -3.508648581971506E-2   -1.058347115853029E-2   -3.502524464080985E-2    4.734773573321872E-1   -2.006425480426923E-1
 6.528998288000000E9     5.586869281276734E-1   -7.098466564046287E-2   -9.906898612213782E-3   -3.535910638351704E-2   -1.074660991659323E-2   -3.516566545995151E-2    4.731388537130224E-1   -2.014453445294430E-1
 6.529007952250000E9     5.585641052017222E-1   -7.166204140925776E-2   -1.009571182807054E-2   -3.546900955648238E-2   -1.084184409385967E-2   -3.530369898267890E-2    4.725960455137147E-1   -2.022021493473262E-1
 6.529017616500000E9     5.586055258125932E-1   -7.253843108267950E-2   -1.019622463688203E-2   -3.556460162524767E-2   -1.092974224495505E-2   -3.546171497817239E-2    4.722726254418647E-1   -2.034693625336099E-1
 6.529027280750000E9     5.584876647612970E-1   -7.330190035984771E-2   -1.032102646294778E-2   -3.582901415148024E-2   -1.098745745219111E-2   -3.560720287872461E-2    4.717852984295346E-1   -2.042692419995896E-1
 6.529036945000000E9     5.583181335251194E-1   -7.407588519942324E-2   -1.030387415506965E-2   -3.609387504049075E-2   -1.130112602413198E-2   -3.577982222225502E-2    4.713729147925521E-1   -2.051480313344566E-1
 6.529046609250000E9     5.581579260355449E-1   -7.496934043291921E-2   -1.053624537864575E-2   -3.624569031619146E-2   -1.140975127563199E-2   -3.602829848517307E-2    4.710486796632365E-1   -2.058990580348214E-1
 6.529056273500000E9     5.580362761178463E-1   -7.574230195575403E-2   -1.062194101654995E-2   -3.639208716094344E-2   -1.149378315305917E-2   -3.617511846820768E-2    4.705428402602901E-1   -2.068575961598967E-1
 6.529065937750000E9     5.579480095511268E-1   -7.664112937785651E-2   -1.084256160922656E-2   -3.648987789937945E-2   -1.167092019027966E-2   -3.633963537353099E-2    4.702001747635411E-1   -2.078052444861914E-1
 6.529075602000000E9     5.579628659449659E-1   -7.737798191047766E-2   -1.094158383578026E-2   -3.672574482576797E-2   -1.173633012872685E-2   -3.657639006488307E-2    4.696983737797851E-1   -2.086507870355065E-1
 6.529085266250000E9     5.577333752640800E-1   -7.809783932509351E-2   -1.086176579915003E-2   -3.691648223693355E-2   -1.183201344629967E-2   -3.672821804979651E-2    4.693901852875975E-1   -2.095696555369099E-1
 6.529094930500000E9     5.575708536536840E-1   -7.903845557724050E-2   -1.108611671021001E-2   -3.723698480287805E-2   -1.212659244400014E-2   -3.693596532071783E-2    4.685328200787337E-1   -2.105903906356074E-1
 6.529104594750000E9     5.573337793500762E-1   -7.985701030013144E-2   -1.122874246908164E-2   -3.723579839503966E-2   -1.205808880775256E-2   -3.711636433329844E-2    4.682611034667333E-1   -2.113612503114429E-1
 6.529114259000000E9     5.572479203558744E-1   -8.063722424397710E-2   -1.136729992494515E-2   -3.745022242876583E-2   -1.222740872150723E-2   -3.730778695408776E-2    4.679943848518692E-1   -2.121857315126404E-1
 6.529123923250000E9     5.571353473969967E-1   -8.144801911011268E-2   -1.162053798951655E-2   -3.767196695781950E-2   -1.246354308878059E-2   -3.758111972171456E-2    4.674129623199764E-1   -2.131403801212697E-1
 6.529133587500000E9     5.571400009057687E-1   -8.238289942961678E-2   -1.162014131766117E-2   -3.797104828440337E-2   -1.256273312553901E-2   -3.767443651180406E-2    4.670779195177208E-1   -2.141413623131432E-1
 6.529143251750000E9     5.569342221186391E-1   -8.312441526873174E-2   -1.191316728698333E-2   -3.805166076809441E-2   -1.276813621789635E-2   -3.787895710092022E-2    4.664878815292480E-1   -2.150225135266462E-1
 6.529152916000000E9     5.567444876764593E-1   -8.388600284701965E-2   -1.189411075629709E-2   -3.836858359386013E-2   -1.289826126906082E-2   -3.818913984824038E-2    4.659038767874857E-1   -2.160371844097602E-1
 6.529162580250000E9     5.566631184120548E-1   -8.472862551360009E-2   -1.207913439610196E-2   -3.848171737158448E-2   -1.310736264332791E-2   -3.821049624997847E-2    4.655551681043000E-1   -2.169161571713742E-1
 6.529172244500000E9     5.563964351788643E-1   -8.560215651998156E-2   -1.227951239260619E-2   -3.873292894539147E-2   -1.319317533972396E-2   -3.857238201608777E-2    4.649409444288561E-1   -2.178026659411255E-1
 6.529181908750000E9     5.563945335519894E-1   -8.643560781806822E-2   -1.239310606716132E-2   -3.896833510934890E-2   -1.333742771810031E-2   -3.864850295707918E-2    4.646451597282532E-1   -2.187945788495012E-1
 6.529191573000000E9     5.562231766152270E-1   -8.718087283141338E-2   -1.253021844553830E-2   -3.917007820628303E-2   -1.353856220902927E-2   -3.898345057647356E-2    4.640242339657026E-1   -2.198708486325199E-1
 6.529201237250000E9     5.559467842517484E-1   -8.812847237799366E-2   -1.282694084997137E-2   -3.936294697816861E-2   -1.360392707884661E-2   -3.912589384399283E-2    4.634365587994141E-1   -2.206237855932127E-1
 6.529210901500000E9     5.559064824809655E-1   -8.876962368845723E-2   -1.279854004264323E-2   -3.958326243217897E-2   -1.384958941345358E-2   -3.940462221320524E-2    4.630968307531152E-1   -2.215213602177345E-1
 6.529220565750000E9     5.557274634107502E-1   -8.971173025107736E-2   -1.315018820198679E-2   -3.985491566014115E-2   -1.397909981869870E-2   -3.949484422193811E-2    4.625806355494593E-1   -2.225171362140269E-1
 6.529230230000000E9     5.555613040634177E-1   -9.065226372470843E-2   -1.324959965070958E-2   -4.001362449633095E-2   -1.415675886847111E-2   -3.986524389450927E-2    4.618659541100995E-1   -2.234782153614105E-1
 6.529239894250000E9     5.554421134034662E-1   -9.140194715899669E-2   -1.348760910541666E-2   -4.028423084790139E-2   -1.423484276497276E-2   -4.007248575082973E-2    4.615558451896036E-1   -2.243806761834420E-1
 6.529249558500000E9     5.553050736901446E-1   -9.228809153651278E-2   -1.351084272248428E-2   -4.047252632774950E-2   -1.447539271130177E-2   -4.025339058442803E-2    4.608817961768408E-1   -2.254321646869786E-1
 6.529259222750000E9     5.551547511382710E-1   -9.299958613003791E-2   -1.365796580857214E-2   -4.068448362342441E-2   -1.472851269736636E-2   -4.046682692665508E-2    4.604052625729206E-1   -2.263762610215361E-1
 6.529268887000000E9     5.549356690781230E-1   -9.397393868150593E-2   -1.387268000221012E-2   -4.088892716207426E-2   -1.483223399616482E-2   -4.066413908605328E-2    4.599741832201297E-1   -2.272900100411175E-1
 6.529278551250000E9     5.547121798446830E-1   -9.473186773939621E-2   -1.403243902442137E-2   -4.102406902524408E-2   -1.504302099156354E-2   -4.097209992041011E-2    4.593297028394840E-1   -2.283704017491780E-1
 6.529288215500000E9     5.544783477296630E-1   -9.565460091794217E-2   -1.424339003262278E-2   -4.137052321673384E-2   -1.516648156792932E-2   -4.109210224226262E-2    4.588699819797337E-1   -2.292814461048718E-1
 6.529297879750000E9     5.544200140155248E-1   -9.647525094411047E-2   -1.444463445905652E-2   -4.144429981395146E-2   -1.538037719469598E-2   -4.132082162857972E-2    4.583286692916643E-1   -2.304055581818121E-1
 6.529307544000000E9     5.542052830545705E-1   -9.729959290519334E-2   -1.463337221809392E-2   -4.192130493701911E-2   -1.565012590580775E-2   -4.164883353079869E-2    4.576829908312104E-1   -2.312724929475139E-1
 6.529317208250000E9     5.540913145118148E-1   -9.815240206010968E-2   -1.484414352822311E-2   -4.211370342109272E-2   -1.581887613593464E-2   -4.184314135864126E-2    4.570351079524256E-1   -2.321473318121663E-1
 6.529326872500000E9     5.538428957565638E-1   -9.898023659888845E-2   -1.490350837233917E-2   -4.249703884610920E-2   -1.591297122447852E-2   -4.209610906252198E-2    4.564526099263365E-1   -2.332696081042399E-1
 6.529336536750000E9     5.536904565245243E-1   -9.984570597360831E-2   -1.509296903505036E-2   -4.264186619691810E-2   -1.616454938958135E-2   -4.238178681359300E-2    4.559142909575731E-1   -2.343067815067705E-1
 6.529346201000000E9     5.535415513414662E-1   -1.007059327689349E-1   -1.541636394866716E-2   -4.292666338784100E-2   -1.633669633461113E-2   -4.266026599287999E-2    4.553306582247209E-1   -2.353702064084797E-1
 6.529355865250000E9     5.533421571943866E-1   -1.015529909542799E-1   -1.558029569107299E-2   -4.315586545610975E-2   -1.654720049255429E-2   -4.284631943562349E-2    4.547391786454191E-1   -2.362398357836010E-1
 6.529365529500000E9     5.530942004438807E-1   -1.025112317809995E-1   -1.569640276250687E-2   -4.330443857465834E-2   -1.683419302220227E-2   -4.313696397725602E-2    4.541993380033796E-1   -2.372983620435578E-1
 6.529375193750000E9     5.529597420867856E-1   -1.033300916669716E-1   -1.601210915759534E-2   -4.365572850004189E-2   -1.702329578202185E-2   -4.337085945784158E-2    4.534360239786997E-1   -2.382505668261815E-1
 6.529384858000000E9     5.527508254470492E-1   -1.041263138097129E-1   -1.608868152396289E-2   -4.392683768698515E-2   -1.735156906589521E-2   -4.361573611239501E-2    4.528970220446286E-1   -2.392451860449153E-1
 6.529394522250000E9     5.526142823500899E-1   -1.050876617529004E-1   -1.630242834557936E-2   -4.425619361736406E-2   -1.733257484257780E-2   -4.380184134052992E-2    4.524328830029798E-1   -2.402461671212239E-1
 6.529404186500000E9     5.524154109279678E-1   -1.059736249254390E-1   -1.658153518006907E-2   -4.453400089536911E-2   -1.766039432499320E-2   -4.418072733596918E-2    4.517577905761839E-1   -2.413505977094570E-1
 6.529413850750000E9     5.520954518885935E-1   -1.067231772506606E-1   -1.684117265683619E-2   -4.482819080752656E-2   -1.799178378905952E-2   -4.446599169905169E-2    4.509503112054336E-1   -2.424185137553395E-1
 6.529423515000000E9     5.520108474255848E-1   -1.076214105029664E-1   -1.711296456781576E-2   -4.496391252335066E-2   -1.804483283844810E-2   -4.479532126679145E-2    4.503941092085806E-1   -2.435373043004036E-1
 6.529433179250000E9     5.517117201327959E-1   -1.084421755210649E-1   -1.722456988459132E-2   -4.527265585295568E-2   -1.827570208333358E-2   -4.495610937109012E-2    4.496982241848980E-1   -2.445260212249337E-1
 6.529442843500000E9     5.514685769123934E-1   -1.094203260687962E-1   -1.741713289678504E-2   -4.555611374771893E-2   -1.861545153642535E-2   -4.523049280895599E-2    4.489724345527912E-1   -2.455987516366100E-1
 6.529452507750000E9     5.513608206526206E-1   -1.103363160081708E-1   -1.774737163314626E-2   -4.581315222252060E-2   -1.886783798435573E-2   -4.553673468003019E-2    4.483322239163890E-1   -2.465345910145855E-1
 6.529462172000000E9     5.510716179310128E-1   -1.110958558881004E-1   -1.793092495591058E-2   -4.624327900531102E-2   -1.907207452029687E-2   -4.580916316961933E-2    4.477151409091528E-1   -2.476936290506147E-1
 6.529471836250000E9     5.508696729206890E-1   -1.120502711597763E-1   -1.809345387397189E-2   -4.640323835929312E-2   -1.929143814120414E-2   -4.615884005812560E-2    4.469830637463325E-1   -2.486964646980892E-1
 6.529481500500000E9     5.506556956912033E-1   -1.128997875270659E-1   -1.852874878079384E-2   -4.677391420497342E-2   -1.950057890864923E-2   -4.642607393279833E-2    4.462691748143345E-1   -2.497555749658653E-1
 6.529491164750000E9     5.503633740232871E-1   -1.137900979148372E-1   -1.864268983483542E-2   -4.711781246557434E-2   -1.991388686400961E-2   -4.675711438446341E-2    4.454013438168940E-1   -2.508668965752981E-1
 6.529500829000000E9     5.501448250333095E-1   -1.146562284281640E-1   -1.892950195493523E-2   -4.741303544055177E-2   -2.002178517716389E-2   -4.698802517584343E-2    4.446989353246433E-1   -2.518334615697908E-1
 6.529510493250000E9     5.500362073778873E-1   -1.155830276977571E-1   -1.904652734821467E-2   -4.768143084308189E-2   -2.033704420961664E-2   -4.734791951953605E-2    4.443511522846549E-1   -2.530758382106751E-1
 6.529520157500000E9     5.497205223083219E-1   -1.164436898640788E-1   -1.948293923281013E-2   -4.797121845077528E-2   -2.057531086283755E-2   -4.754439185781741E-2    4.433458013376809E-1   -2.541705597116220E-1
 6.529529821750000E9     5.494567005086004E-1   -1.173817056206410E-1   -1.973764049950457E-2   -4.843958591737390E-2   -2.087339340052735E-2   -4.790006377512768E-2    4.426980677170129E-1   -2.552367078685607E-1
 6.529539486000000E9     5.491926247369386E-1   -1.181676082906115E-1   -1.983480452566056E-2   -4.869956256011524E-2   -2.116964552078705E-2   -4.824392790600627E-2    4.418681597294468E-1   -2.563462966293145E-1
 6.529549150250000E9     5.489473058255185E-1   -1.191645775719846E-1   -2.027987628124630E-2   -4.886688226981495E-2   -2.144968783153739E-2   -4.855456934739891E-2    4.410276434842747E-1   -2.574422816371576E-1
 6.529558814500000E9     5.488027730284222E-1   -1.201160514839378E-1   -2.050289099801997E-2   -4.935657724118572E-2   -2.162233702073062E-2   -4.888377830675129E-2    4.402522919527636E-1   -2.585862513701507E-1
 6.529568478750000E9     5.485012701985303E-1   -1.209212077825604E-1   -2.071990902873188E-2   -4.971814569409296E-2   -2.196656151437425E-2   -4.912261354502834E-2    4.394143038548769E-1   -2.597277511175543E-1
 6.529578143000000E9     5.483656000327480E-1   -1.217761736771083E-1   -2.112095693568222E-2   -5.003281118087107E-2   -2.239710038065838E-2   -4.956959207756043E-2    4.387287074953654E-1   -2.608706934234274E-1
 6.529587807250000E9     5.479899567716398E-1   -1.227431897917461E-1   -2.137068312203100E-2   -5.040556385893306E-2   -2.269698472391238E-2   -4.997439727135589E-2    4.378280687311691E-1   -2.619479368354195E-1
 6.529597471500000E9     5.477310474794098E-1   -1.237053476278169E-1   -2.167277523004762E-2   -5.081877210119138E-2   -2.289177206611785E-2   -5.021234771137838E-2    4.369905702422290E-1   -2.631096217356691E-1
 6.529607135750000E9     5.474907659196526E-1   -1.246866183791865E-1   -2.211045285568352E-2   -5.106858371946917E-2   -2.322838429492912E-2   -5.063723060750222E-2    4.363042621693689E-1   -2.641434186846958E-1
 6.529616800000000E9     5.471841983608527E-1   -1.256014633211024E-1   -2.231542630479443E-2   -5.138715703347868E-2   -2.370708760547670E-2   -5.098392943895540E-2    4.354547925880019E-1   -2.655218322300525E-1
 6.529626464250000E9     5.469452807975994E-1   -1.265240158978614E-1   -2.267958247007882E-2   -5.197112252219239E-2   -2.399194642753692E-2   -5.118939133482308E-2    4.345779723853194E-1   -2.667413663654516E-1
 6.529636128500000E9     5.466134466100034E-1   -1.274373917622840E-1   -2.300707570362820E-2   -5.213570314867974E-2   -2.441234190517331E-2   -5.167979608824646E-2    4.336223037241762E-1   -2.679157898345069E-1
 6.529645792750000E9     5.464014578681358E-1   -1.283981669056069E-1   -2.334755224619051E-2   -5.276352786920636E-2   -2.467966790670845E-2   -5.212769259925800E-2    4.328159779985734E-1   -2.689916142459772E-1
 6.529655457000000E9     5.460100277482828E-1   -1.291922411328005E-1   -2.365565866102523E-2   -5.291409535105244E-2   -2.512977416859594E-2   -5.255042562841187E-2    4.318383559418886E-1   -2.702147423642443E-1
 6.529665121250000E9     5.458007110115740E-1   -1.302550210419690E-1   -2.401142946529968E-2   -5.337915970135492E-2   -2.540631200012301E-2   -5.280426992297402E-2    4.307701664969063E-1   -2.715141590067230E-1
 6.529674785500000E9     5.453261379434629E-1   -1.310662567097831E-1   -2.435924378930178E-2   -5.370759085797457E-2   -2.576913016856937E-2   -5.325291201869980E-2    4.299978292282415E-1   -2.725766166343818E-1
