#  HZ   S   RI   R     50.00 
! Rohde & Schwarz Vector Network Analyzer 
! Rohde-Schwarz,ZNB20-2Port,1311601062101988,3.16
! Created: UTC 3/21/2024, 12:54:55 AM
! freq[Hz]                re:S11                  im:S11                  re:S21                  im:S21                  re:S12                  im:S12                  re:S22                  im:S22
 6.528805626000000E9     5.607274808491444E-1   -5.492773118573925E-2   -7.819197616998903E-3   -3.214483840579288E-2   -8.539094489394078E-3   -3.198388090567833E-2    4.804469066461490E-1   -1.843119915282652E-1
 6.528815308700000E9     5.605819934707670E-1   -5.570132381677454E-2   -7.895059695321314E-3   -3.239920437637312E-2   -8.707524577521929E-3   -3.206873147032469E-2    4.801829071819942E-1   -1.850988961248586E-1
 6.528824991400000E9     5.604959042043242E-1   -5.650617281345004E-2   -7.997932233407376E-3   -3.240778355526570E-2   -8.792934108926179E-3   -3.221340872585263E-2    4.798107208903310E-1   -1.858251183266510E-1
 6.528834674100000E9     5.604215146961768E-1   -5.734781937015076E-2   -8.131083057930753E-3   -3.252297307006441E-2   -8.879236571448925E-3   -3.237830751446646E-2    4.795687705549944E-1   -1.867961404464516E-1
 6.528844356800000E9     5.604732054124790E-1   -5.820244532511992E-2   -8.188933232742652E-3   -3.270338331010057E-2   -8.892057378244353E-3   -3.263654976012108E-2    4.791388538105049E-1   -1.876555722234826E-1
 6.528854039500000E9     5.602574178282339E-1   -5.891476201651970E-2   -8.326655637774320E-3   -3.270049902715564E-2   -8.926706166266032E-3   -3.267346610021982E-2    4.788137646738126E-1   -1.884399580647601E-1
 6.528863722200000E9     5.601437371706476E-1   -5.964020381524749E-2   -8.443276352752835E-3   -3.299986610355541E-2   -9.145337834252793E-3   -3.298853635448795E-2    4.783351006879449E-1   -1.894543279479594E-1
 6.528873404900000E9     5.599187578529843E-1   -6.062105035559610E-2   -8.378508988303628E-3   -3.322240947192347E-2   -9.293656604320731E-3   -3.307355909305462E-2    4.780892224386452E-1   -1.903073905890239E-1
 6.528883087600000E9     5.600301885365231E-1   -6.134305894916996E-2   -8.518084536459665E-3   -3.330036515887321E-2   -9.262775967821863E-3   -3.326207599447969E-2    4.777832871941632E-1   -1.909948840745768E-1
 6.528892770300000E9     5.598601269519946E-1   -6.208683960792254E-2   -8.646189343491933E-3   -3.354272776854024E-2   -9.523152990651465E-3   -3.335653485055778E-2    4.774006059520187E-1   -1.919012358638013E-1
 6.528902453000000E9     5.597012190872336E-1   -6.285848797879003E-2   -8.855958421224519E-3   -3.353822843009445E-2   -9.553007516151990E-3   -3.343484153595145E-2    4.769587567801970E-1   -1.927779423551420E-1
 6.528912135700000E9     5.596525211276522E-1   -6.365490527023743E-2   -8.934191784354353E-3   -3.381714630413097E-2   -9.726833814543779E-3   -3.362665237140592E-2    4.765195772147540E-1   -1.935363836683169E-1
 6.528921818400000E9     5.595853623073855E-1   -6.444580251630568E-2   -9.090440937608144E-3   -3.397738306939569E-2   -9.805345461874712E-3   -3.374796010701774E-2    4.763223510208109E-1   -1.944112904705936E-1
 6.528931501100000E9     5.595262292789146E-1   -6.530290183632108E-2   -9.141329447183266E-3   -3.409793708310842E-2   -9.945623093322378E-3   -3.388493292777394E-2    4.757017423221584E-1   -1.952610814528002E-1
 6.528941183800000E9     5.594545603805537E-1   -6.608469037666767E-2   -9.243404671931328E-3   -3.426520826656485E-2   -1.003649479985011E-2   -3.406323968380571E-2    4.753641375393943E-1   -1.961190199055008E-1
 6.528950866500000E9     5.592705382698456E-1   -6.687528001448688E-2   -9.360934472118509E-3   -3.441314228332847E-2   -1.015000383123662E-2   -3.429192803684936E-2    4.749874525411124E-1   -1.970868346279324E-1
 6.528960549200000E9     5.592497696019929E-1   -6.780087504764729E-2   -9.483119541403309E-3   -3.453111476545349E-2   -1.029711428018531E-2   -3.445483283128022E-2    4.748033879419874E-1   -1.979429975467868E-1
 6.528970231900000E9     5.590808050699504E-1   -6.838730597022795E-2   -9.586278582660061E-3   -3.478239885945886E-2   -1.038081687194095E-2   -3.459904570944201E-2    4.741503257344873E-1   -1.988712169426201E-1
 6.528979914600000E9     5.589954857019330E-1   -6.926052193835289E-2   -9.711584024085047E-3   -3.500818979704087E-2   -1.053609599627346E-2   -3.475444276310234E-2    4.738272967405329E-1   -1.997553405790077E-1
 6.528989597300000E9     5.588649514385242E-1   -7.005273808935281E-2   -9.788713139161874E-3   -3.508871002859557E-2   -1.062635752170124E-2   -3.491241472779973E-2    4.734814624113738E-1   -2.005935092761268E-1
 6.528999280000000E9     5.587720158184373E-1   -7.088078173009674E-2   -9.980600046629344E-3   -3.528705054164993E-2   -1.068452328510623E-2   -3.513436496341101E-2    4.730839831930843E-1   -2.014971011208100E-1
 6.529008962700000E9     5.586046294303181E-1   -7.165409685492710E-2   -1.007172703647312E-2   -3.543217679359310E-2   -1.078287274714338E-2   -3.532622753764222E-2    4.727324437428262E-1   -2.023317673267521E-1
 6.529018645400000E9     5.585077055905996E-1   -7.255822465237124E-2   -1.016581560997344E-2   -3.556325874635779E-2   -1.092951800436336E-2   -3.539354529882432E-2    4.722099108341979E-1   -2.032100829069874E-1
 6.529028328100000E9     5.585175484487859E-1   -7.339427665132904E-2   -1.042362248770649E-2   -3.572309090541351E-2   -1.114727167961346E-2   -3.559676776561651E-2    4.718538893166102E-1   -2.040540371333166E-1
 6.529038010800000E9     5.582121366439808E-1   -7.407435104754090E-2   -1.025150028658690E-2   -3.606885212221191E-2   -1.125594843529175E-2   -3.578514214326785E-2    4.714318777858736E-1   -2.049904146952953E-1
 6.529047693500000E9     5.581854454455459E-1   -7.496979288938482E-2   -1.058467540659313E-2   -3.617657795326003E-2   -1.133445852030170E-2   -3.591585390266932E-2    4.710442919315582E-1   -2.058025929971812E-1
 6.529057376200000E9     5.579991098893242E-1   -7.572976608881234E-2   -1.059483267076492E-2   -3.638881873198013E-2   -1.149491863741837E-2   -3.614645819891182E-2    4.705192770349315E-1   -2.068310024544118E-1
 6.529067058900000E9     5.580103668454883E-1   -7.655187739370688E-2   -1.083356514614855E-2   -3.657762808304836E-2   -1.162194168785650E-2   -3.632466014513335E-2    4.700041892524873E-1   -2.077264110899141E-1
 6.529076741600000E9     5.577210015371269E-1   -7.741671724340254E-2   -1.098392476590014E-2   -3.679026629573649E-2   -1.170608640834254E-2   -3.653330540967406E-2    4.695561949435806E-1   -2.086901792192688E-1
 6.529086424300000E9     5.576362872987748E-1   -7.828689141246456E-2   -1.104774385932388E-2   -3.685436896003821E-2   -1.189555275761757E-2   -3.663232547695375E-2    4.690517813165431E-1   -2.095655884775292E-1
 6.529096107000000E9     5.575821286060618E-1   -7.899107395329125E-2   -1.117300982771212E-2   -3.703016745133782E-2   -1.203813558752137E-2   -3.682238370532191E-2    4.687808682739985E-1   -2.103642112941577E-1
 6.529105789700000E9     5.574347279609765E-1   -7.989979648793222E-2   -1.130187887800032E-2   -3.720187159974180E-2   -1.208768172207567E-2   -3.705080260522560E-2    4.682297144418830E-1   -2.113684621144786E-1
 6.529115472400000E9     5.572461096938450E-1   -8.062400008466496E-2   -1.144312120654293E-2   -3.740866081024665E-2   -1.227991565618828E-2   -3.719177486946929E-2    4.678338081360270E-1   -2.122014330859826E-1
 6.529125155100000E9     5.571960106188278E-1   -8.141321953132150E-2   -1.157329408828905E-2   -3.768031976613940E-2   -1.242152553688488E-2   -3.746499678246550E-2    4.672949639096052E-1   -2.131334987231617E-1
 6.529134837800000E9     5.569813852109302E-1   -8.234067031897772E-2   -1.166795089435234E-2   -3.778957597951114E-2   -1.261517359250917E-2   -3.773614268490146E-2    4.668188856057000E-1   -2.141057793507046E-1
 6.529144520500000E9     5.568243081471064E-1   -8.311489605497760E-2   -1.188393082572950E-2   -3.808886225011628E-2   -1.259999259358017E-2   -3.783707255822385E-2    4.663649526851422E-1   -2.149609771701188E-1
 6.529154203200000E9     5.567552160030653E-1   -8.393848822671027E-2   -1.195705343780355E-2   -3.811395734519450E-2   -1.285627959074364E-2   -3.798628923413317E-2    4.659961077687680E-1   -2.160427330618686E-1
 6.529163885900000E9     5.564412960121959E-1   -8.478398057801347E-2   -1.225703652421781E-2   -3.837417570373052E-2   -1.303881668133475E-2   -3.818156622825699E-2    4.654608649804118E-1   -2.168086589403097E-1
 6.529173568600000E9     5.565581247199336E-1   -8.563905860471235E-2   -1.233538926870526E-2   -3.863906084344190E-2   -1.321938537151869E-2   -3.845793313737335E-2    4.651293934188839E-1   -2.177795355708407E-1
 6.529183251300000E9     5.562806630772172E-1   -8.645344017168662E-2   -1.250374259444969E-2   -3.885711383544480E-2   -1.336433398988729E-2   -3.863958837289564E-2    4.643944265454656E-1   -2.186675370639924E-1
 6.529192934000000E9     5.561901349767975E-1   -8.722361308491716E-2   -1.253903625393974E-2   -3.888643193134943E-2   -1.346800543128563E-2   -3.882296033762690E-2    4.640140156639454E-1   -2.196276298007328E-1
 6.529202616700000E9     5.559590356263225E-1   -8.809379557744584E-2   -1.267949622283799E-2   -3.930040778926689E-2   -1.358878597505438E-2   -3.906060073303270E-2    4.635153425609304E-1   -2.206497890358893E-1
 6.529212299400000E9     5.558058122172341E-1   -8.891785948153445E-2   -1.295817163100797E-2   -3.949275998098359E-2   -1.377878132895347E-2   -3.925634072025883E-2    4.631625727830850E-1   -2.215481347590608E-1
 6.529221982100000E9     5.556011552406339E-1   -8.974298637229620E-2   -1.310301202181307E-2   -3.978815659914756E-2   -1.396820158606039E-2   -3.948446706957716E-2    4.624580830194034E-1   -2.225485299163608E-1
 6.529231664800000E9     5.555045008774422E-1   -9.050346603908406E-2   -1.315248849605810E-2   -3.993656957458659E-2   -1.414804192685045E-2   -3.965352557873902E-2    4.618133509491475E-1   -2.232888458204228E-1
 6.529241347500000E9     5.553636593667579E-1   -9.140283654507270E-2   -1.336359541017693E-2   -4.014322433352292E-2   -1.424505649378385E-2   -3.987667126604773E-2    4.615001303044558E-1   -2.243894024964360E-1
 6.529251030200000E9     5.553063986096124E-1   -9.218651195000094E-2   -1.348659375088236E-2   -4.039416522172887E-2   -1.452223739275324E-2   -4.015165822362344E-2    4.609788310467590E-1   -2.252654084662565E-1
 6.529260712900000E9     5.550309571507693E-1   -9.314765903775668E-2   -1.371965681623420E-2   -4.066491723450159E-2   -1.461765609248548E-2   -4.030951725095402E-2    4.603451148317029E-1   -2.261997624380382E-1
 6.529270395600000E9     5.549085466380782E-1   -9.389260872307044E-2   -1.383381741455733E-2   -4.086191655647230E-2   -1.476036625522051E-2   -4.063867554780767E-2    4.598594922500160E-1   -2.273097731710050E-1
 6.529280078300000E9     5.547488210922782E-1   -9.492273952247965E-2   -1.398283990906150E-2   -4.108179759557744E-2   -1.506722654537070E-2   -4.082185185228494E-2    4.593404755380676E-1   -2.282428111412101E-1
 6.529289761000000E9     5.545344634994639E-1   -9.562333515056719E-2   -1.425754777262873E-2   -4.129600184360569E-2   -1.521994154155683E-2   -4.101925254226302E-2    4.586323585363957E-1   -2.293077175819907E-1
 6.529299443700000E9     5.544023556616989E-1   -9.654608392419155E-2   -1.445376207199437E-2   -4.169214544119811E-2   -1.538018237887453E-2   -4.136141265302921E-2    4.582913253298839E-1   -2.301248838320873E-1
 6.529309126400000E9     5.542532310062458E-1   -9.729581226898276E-2   -1.453458090289983E-2   -4.169326240804315E-2   -1.559976910322469E-2   -4.153124295086192E-2    4.575781570326793E-1   -2.313620287495778E-1
 6.529318809100000E9     5.540236594702824E-1   -9.822271263845295E-2   -1.473272899071137E-2   -4.186671400749434E-2   -1.584004225444677E-2   -4.172013632482183E-2    4.571299597929598E-1   -2.323751480402003E-1
 6.529328491800000E9     5.537455510984722E-1   -9.903954770742431E-2   -1.501761170627963E-2   -4.226786460205648E-2   -1.591375706069913E-2   -4.198398038830295E-2    4.565316453277921E-1   -2.332747197561904E-1
 6.529338174500000E9     5.537231457739890E-1   -9.983266244216647E-2   -1.506835228055011E-2   -4.254789903269195E-2   -1.613269854129586E-2   -4.223472785521458E-2    4.559425465613756E-1   -2.342865673336701E-1
 6.529347857200000E9     5.535154833365379E-1   -1.007875509599032E-1   -1.548873367176869E-2   -4.286299774510654E-2   -1.629592399449191E-2   -4.241862437491237E-2    4.553904171225311E-1   -2.352433447477784E-1
 6.529357539900000E9     5.532812703118081E-1   -1.015129653773570E-1   -1.559545659070149E-2   -4.297275251463128E-2   -1.667631673696789E-2   -4.272925033845720E-2    4.548024300817585E-1   -2.361634804858867E-1
 6.529367222600000E9     5.531253500139195E-1   -1.024133981782546E-1   -1.566287694886639E-2   -4.341823624406865E-2   -1.676334251480016E-2   -4.300378428215240E-2    4.539798224658573E-1   -2.371450578718401E-1
 6.529376905300000E9     5.528926617285607E-1   -1.032625527097451E-1   -1.592910009286191E-2   -4.359136812961058E-2   -1.693622022450565E-2   -4.329728981865798E-2    4.535428391548775E-1   -2.380857929001802E-1
 6.529386588000000E9     5.527355992786723E-1   -1.040677368940044E-1   -1.611270831674664E-2   -4.387197353847570E-2   -1.720159596676654E-2   -4.360593167618482E-2    4.527678057475516E-1   -2.392538081087189E-1
 6.529396270700000E9     5.524486592900880E-1   -1.050998289214148E-1   -1.620782541814542E-2   -4.397326537064783E-2   -1.752887581804279E-2   -4.382602442288182E-2    4.522355097835251E-1   -2.401907271640134E-1
 6.529405953400000E9     5.523136246954157E-1   -1.059653024983957E-1   -1.653463820167254E-2   -4.436306283893196E-2   -1.769105213953560E-2   -4.402430453986325E-2    4.516848551475633E-1   -2.412133591626554E-1
 6.529415636100000E9     5.520393755596917E-1   -1.067208862824444E-1   -1.680670527527982E-2   -4.456049664577214E-2   -1.788725626581977E-2   -4.435249623419570E-2    4.508971480172352E-1   -2.425703463219447E-1
 6.529425318800000E9     5.519833305115003E-1   -1.075769459352635E-1   -1.704854391496686E-2   -4.494482753101094E-2   -1.807986182327754E-2   -4.459593608440249E-2    4.502982213361334E-1   -2.434202491984396E-1
 6.529435001500000E9     5.516062826674952E-1   -1.085817453805334E-1   -1.730757913849524E-2   -4.532819815630822E-2   -1.836046464281615E-2   -4.481717821496214E-2    4.496391115710198E-1   -2.444521556175609E-1
 6.529444684200000E9     5.514781232867227E-1   -1.093744008807099E-1   -1.742019559287001E-2   -4.552677176001471E-2   -1.848191251360700E-2   -4.505570492412390E-2    4.489196980755769E-1   -2.454001671413146E-1
 6.529454366900000E9     5.513077803585202E-1   -1.101578416895735E-1   -1.775038120647652E-2   -4.590922614401265E-2   -1.875896445416775E-2   -4.551335164036631E-2    4.483056702271859E-1   -2.464546552683098E-1
 6.529464049600000E9     5.510537590256029E-1   -1.111404936958749E-1   -1.793299280066010E-2   -4.598411511053418E-2   -1.903976272364616E-2   -4.575757237482132E-2    4.475662777792466E-1   -2.475043067775401E-1
 6.529473732300000E9     5.508267170529666E-1   -1.120980908930008E-1   -1.811489309137946E-2   -4.629078427914813E-2   -1.933707602743937E-2   -4.599166021529080E-2    4.470023784149850E-1   -2.486627761988733E-1
 6.529483415000000E9     5.506238510371821E-1   -1.129368423070613E-1   -1.839329412182957E-2   -4.665206685341181E-2   -1.961471412970876E-2   -4.633811129992158E-2    4.461390647365678E-1   -2.497991602800367E-1
 6.529493097700000E9     5.504309948104831E-1   -1.137525848137242E-1   -1.869512334086195E-2   -4.685507178146577E-2   -1.991446419749332E-2   -4.653900456871993E-2    4.455361234637176E-1   -2.507896087461107E-1
 6.529502780400000E9     5.501494013812694E-1   -1.148331963771348E-1   -1.894239671086788E-2   -4.729608397688911E-2   -2.003219170292638E-2   -4.696518516530376E-2    4.448890399146226E-1   -2.519519284493978E-1
 6.529512463100000E9     5.498944272050151E-1   -1.156032588057203E-1   -1.923226039953016E-2   -4.764340846621940E-2   -2.037761362642355E-2   -4.725645461363898E-2    4.440188809361307E-1   -2.528984716986759E-1
 6.529522145800000E9     5.496710320511526E-1   -1.164610407518184E-1   -1.944990970555130E-2   -4.799921583806611E-2   -2.061021083953997E-2   -4.751379722923437E-2    4.435918014421122E-1   -2.540426607056825E-1
 6.529531828500000E9     5.493866400062700E-1   -1.174086261894578E-1   -1.981248646394158E-2   -4.817976001783519E-2   -2.088427896253561E-2   -4.786523925863492E-2    4.426276900444944E-1   -2.550864552716855E-1
 6.529541511200000E9     5.491455536880470E-1   -1.182157190318521E-1   -1.992026958209549E-2   -4.854897319367766E-2   -2.118880438425466E-2   -4.814572633594960E-2    4.419772727728337E-1   -2.563953001372433E-1
 6.529551193900000E9     5.489100581816583E-1   -1.191844867050502E-1   -2.022397464337354E-2   -4.876401886939973E-2   -2.149075188363077E-2   -4.852741957478084E-2    4.411597569639907E-1   -2.574223577705670E-1
 6.529560876600000E9     5.486669679043764E-1   -1.200735954615192E-1   -2.062942843595111E-2   -4.916235858965937E-2   -2.170941553204826E-2   -4.888984627585582E-2    4.403648556587163E-1   -2.585437854173088E-1
 6.529570559300000E9     5.484765672024845E-1   -1.209503150573968E-1   -2.085997065205989E-2   -4.952557945327933E-2   -2.211783522489407E-2   -4.907470948940798E-2    4.396322124770334E-1   -2.596278251051841E-1
 6.529580242000000E9     5.482106287430243E-1   -1.219228220623491E-1   -2.102369243738052E-2   -4.998686759260811E-2   -2.229790707165152E-2   -4.951418728106975E-2    4.385808642112714E-1   -2.607060372830551E-1
 6.529589924700000E9     5.479138813499923E-1   -1.228651312397910E-1   -2.140744831429114E-2   -5.040518383974621E-2   -2.271271888627310E-2   -4.977820991838928E-2    4.377677989525816E-1   -2.618764507698314E-1
 6.529599607400000E9     5.477105714875072E-1   -1.237764631032914E-1   -2.161682124478591E-2   -5.075024821105038E-2   -2.298800982170036E-2   -5.021997418371994E-2    4.371312696936987E-1   -2.628641216730519E-1
 6.529609290100000E9     5.474024832080067E-1   -1.246830799209049E-1   -2.201603832908181E-2   -5.098887536458123E-2   -2.335355498268773E-2   -5.044346591940799E-2    4.362968026163302E-1   -2.641786570965840E-1
 6.529618972800000E9     5.470546131500988E-1   -1.256952188772574E-1   -2.233167271825465E-2   -5.135312023105389E-2   -2.355944969223812E-2   -5.088634214936595E-2    4.354609653940108E-1   -2.653360032720561E-1
 6.529628655500000E9     5.468076509686965E-1   -1.265181880743329E-1   -2.261600542070300E-2   -5.166608366745722E-2   -2.402069523245461E-2   -5.119172121099634E-2    4.345692214807070E-1   -2.665995527657993E-1
 6.529638338200000E9     5.465328321585727E-1   -1.273907298132342E-1   -2.295209783721216E-2   -5.206903800962395E-2   -2.421595262655649E-2   -5.162240042976181E-2    4.336193780733795E-1   -2.677399398121083E-1
 6.529648020900000E9     5.462466838226656E-1   -1.285221762884833E-1   -2.348944512101658E-2   -5.249860376648041E-2   -2.471815668074881E-2   -5.195209804196611E-2    4.327882832393201E-1   -2.689214268720542E-1
 6.529657703600000E9     5.460158886014246E-1   -1.293951682994986E-1   -2.372733472648620E-2   -5.292347383345621E-2   -2.490997908351443E-2   -5.234372509872795E-2    4.318423187285224E-1   -2.700500817123662E-1
 6.529667386300000E9     5.456481698928082E-1   -1.303293389256384E-1   -2.396609145407716E-2   -5.325542895701528E-2   -2.538265428436087E-2   -5.264262659402234E-2    4.308066364730861E-1   -2.713041989582694E-1
 6.529677069000000E9     5.453450474190077E-1   -1.312395546189073E-1   -2.433524886487048E-2   -5.369543300041440E-2   -2.573869204067424E-2   -5.311537673132756E-2    4.299580610542563E-1   -2.724707712798344E-1
