#  HZ   S   RI   R     50.00 
! Rohde & Schwarz Vector Network Analyzer 
! Rohde-Schwarz,ZNB20-2Port,1311601062101988,3.16
! Created: UTC 3/21/2024, 12:54:58 AM
! freq[Hz]                re:S11                  im:S11                  re:S21                  im:S21                  re:S12                  im:S12                  re:S22                  im:S22
 6.528803605000000E9     5.606408467677008E-1   -5.480055359218963E-2   -7.854732328762482E-3   -3.209228214634604E-2   -8.485453335032802E-3   -3.201642478577141E-2    4.807186023306049E-1   -1.840688130027078E-1
 6.528813301900000E9     5.605885365860218E-1   -5.553835510798869E-2   -7.907455549733173E-3   -3.232159279672591E-2   -8.601389356066936E-3   -3.215738066270553E-2    4.804825899250312E-1   -1.849857037643017E-1
 6.528822998800000E9     5.606067013028934E-1   -5.630855315013282E-2   -7.932095597212715E-3   -3.232606813222494E-2   -8.750133409632059E-3   -3.220317297838431E-2    4.799058858781854E-1   -1.857541155236124E-1
 6.528832695700000E9     5.604637764000934E-1   -5.714671794131564E-2   -8.036197786374114E-3   -3.264468784925471E-2   -8.786031435303755E-3   -3.245451102465823E-2    4.795697903179797E-1   -1.864513225984578E-1
 6.528842392600000E9     5.604005970541526E-1   -5.791711729717924E-2   -8.322697714253438E-3   -3.250600873983559E-2   -8.854486928598384E-3   -3.249372572769275E-2    4.791827489767025E-1   -1.874790390028452E-1
 6.528852089500000E9     5.602609113286318E-1   -5.866174287435286E-2   -8.339510803499246E-3   -3.286818957208767E-2   -9.040382690380709E-3   -3.265932895347082E-2    4.787673257400384E-1   -1.883642046757455E-1
 6.528861786400000E9     5.601615035312660E-1   -5.952020182380784E-2   -8.438685734356147E-3   -3.303730153041437E-2   -9.121187334947314E-3   -3.275822549982121E-2    4.784049466073374E-1   -1.890548076444176E-1
 6.528871483300000E9     5.600898565268269E-1   -6.037090819777937E-2   -8.471542476544858E-3   -3.313998064089469E-2   -9.214323483100011E-3   -3.301226846265498E-2    4.780699501335198E-1   -1.900649320436180E-1
 6.528881180200000E9     5.599391354427471E-1   -6.112184003481605E-2   -8.649094903945114E-3   -3.314379842047786E-2   -9.252006341362348E-3   -3.312853337913792E-2    4.776838670889391E-1   -1.908756301526368E-1
 6.528890877100000E9     5.599127263678310E-1   -6.181280853421391E-2   -8.697884617015582E-3   -3.345177162465145E-2   -9.426911123242562E-3   -3.320366610293658E-2    4.773424088434222E-1   -1.917465331169598E-1
 6.528900574000000E9     5.598789137852829E-1   -6.271318577273301E-2   -8.786358667162255E-3   -3.365925123280843E-2   -9.583318150314744E-3   -3.344993057191306E-2    4.771268930324815E-1   -1.923976398915683E-1
 6.528910270900000E9     5.595869472143721E-1   -6.357514110803043E-2   -8.926006307196394E-3   -3.379090068553846E-2   -9.650053792113693E-3   -3.356897374617839E-2    4.766908021838970E-1   -1.933631629975510E-1
 6.528919967800000E9     5.595559860727981E-1   -6.433855976942016E-2   -9.059917486220684E-3   -3.389043445513361E-2   -9.730235963320523E-3   -3.369664971830807E-2    4.762723480979967E-1   -1.942227831138441E-1
 6.528929664700000E9     5.594589857817079E-1   -6.507889112584749E-2   -9.125455104290570E-3   -3.393858552331648E-2   -9.958934624370173E-3   -3.390265097610229E-2    4.759045662532145E-1   -1.951828337319890E-1
 6.528939361600000E9     5.594667812792441E-1   -6.583852726209853E-2   -9.233081837983402E-3   -3.426262324070475E-2   -9.875025904176070E-3   -3.404204476692028E-2    4.755312731913156E-1   -1.960145926061576E-1
 6.528949058500000E9     5.593130937464300E-1   -6.669166582162905E-2   -9.331213017192863E-3   -3.430647902879037E-2   -1.003465867060735E-2   -3.413130382117938E-2    4.749619748647798E-1   -1.968875067692601E-1
 6.528958755400000E9     5.592743692495199E-1   -6.754076513571693E-2   -9.491403708198396E-3   -3.456003700477598E-2   -1.023841571796204E-2   -3.442169356560010E-2    4.747049065625670E-1   -1.975969381951487E-1
 6.528968452300000E9     5.590655313846178E-1   -6.826194164835808E-2   -9.519172828069229E-3   -3.455274105293601E-2   -1.033547327257738E-2   -3.452944613356855E-2    4.743771347214156E-1   -1.985360457297288E-1
 6.528978149200000E9     5.589134513130266E-1   -6.911418541127609E-2   -9.679701825843394E-3   -3.493858905428166E-2   -1.038853039919776E-2   -3.473486091565165E-2    4.738001045289152E-1   -1.995059709125867E-1
 6.528987846100000E9     5.588768877389155E-1   -6.989856188634640E-2   -9.847191098424390E-3   -3.496450946340790E-2   -1.057756716072599E-2   -3.496228472041973E-2    4.734015711864427E-1   -2.002394543769237E-1
 6.528997543000000E9     5.587667432353121E-1   -7.063620009759057E-2   -9.886361213582308E-3   -3.522161932623979E-2   -1.071203879162672E-2   -3.499304489672850E-2    4.729776768578166E-1   -2.011082197784751E-1
 6.529007239900000E9     5.585657229839341E-1   -7.140955678881804E-2   -1.002725881919196E-2   -3.531406029732601E-2   -1.079604095852462E-2   -3.521645503666490E-2    4.726758445935293E-1   -2.020890645087309E-1
 6.529016936800000E9     5.585586900504761E-1   -7.244623118293590E-2   -1.008081278754428E-2   -3.549786489970230E-2   -1.084661627832377E-2   -3.539832794495042E-2    4.723144692140290E-1   -2.030156596336998E-1
 6.529026633700000E9     5.584162245208643E-1   -7.322030327955957E-2   -1.021680081270493E-2   -3.583435853700086E-2   -1.106320954773630E-2   -3.545904080328133E-2    4.718720744904674E-1   -2.038360474461884E-1
 6.529036330600000E9     5.583595166335007E-1   -7.398227447155768E-2   -1.028636541475179E-2   -3.586891570624327E-2   -1.118768317637601E-2   -3.573870444405900E-2    4.715306234835305E-1   -2.046855688373885E-1
 6.529046027500000E9     5.580414610071380E-1   -7.482923604331673E-2   -1.050007721043597E-2   -3.617427532058249E-2   -1.125052520286757E-2   -3.591577625127829E-2    4.710489572725711E-1   -2.056617002011175E-1
 6.529055724400000E9     5.579789500365292E-1   -7.558455205888048E-2   -1.061276693089560E-2   -3.624817175296675E-2   -1.151709155818962E-2   -3.603976545905140E-2    4.704763108945845E-1   -2.065235684870888E-1
 6.529065421300000E9     5.579498428961346E-1   -7.629942284723534E-2   -1.077014450570813E-2   -3.651913539001619E-2   -1.158720398882072E-2   -3.626370694670902E-2    4.702966796963956E-1   -2.074127467179276E-1
 6.529075118200000E9     5.578757197791973E-1   -7.731895131472495E-2   -1.085090556547747E-2   -3.663673673662426E-2   -1.180452031753490E-2   -3.643867855149596E-2    4.696048053763915E-1   -2.083210597203250E-1
 6.529084815100000E9     5.576805355218509E-1   -7.809144876926606E-2   -1.105345026742808E-2   -3.676788599824434E-2   -1.184727636745705E-2   -3.659453248812101E-2    4.691808806435018E-1   -2.092932614747863E-1
 6.529094512000000E9     5.575211874042805E-1   -7.882512017226867E-2   -1.125592005329064E-2   -3.708875556397476E-2   -1.196676980104611E-2   -3.684401399355305E-2    4.687027938700604E-1   -2.101035060053364E-1
 6.529104208900000E9     5.573471394694852E-1   -7.964459274345742E-2   -1.127302789896091E-2   -3.717224353290819E-2   -1.214520253698011E-2   -3.706626795236619E-2    4.683057783156956E-1   -2.110373253972981E-1
 6.529113905800000E9     5.572361593389957E-1   -8.057986788982896E-2   -1.138408917289181E-2   -3.740834409571808E-2   -1.227959466492436E-2   -3.712490077947603E-2    4.679525538940115E-1   -2.119773696237055E-1
 6.529123602700000E9     5.572156169710010E-1   -8.120874015403148E-2   -1.154692799352115E-2   -3.758945827190876E-2   -1.239259197852684E-2   -3.740030213333879E-2    4.674425720799724E-1   -2.129364052097994E-1
 6.529133299600000E9     5.570055995408971E-1   -8.209752897680117E-2   -1.157573232067627E-2   -3.772082422877283E-2   -1.247597292925338E-2   -3.767130760221044E-2    4.670236132610519E-1   -2.139009729207366E-1
 6.529142996500000E9     5.568810657038767E-1   -8.300067689461207E-2   -1.175759744952974E-2   -3.804951441579787E-2   -1.264233425887431E-2   -3.788227055825484E-2    4.665110488821736E-1   -2.147200846082337E-1
 6.529152693400000E9     5.566874202041799E-1   -8.374666494250256E-2   -1.186675046804780E-2   -3.813983781779209E-2   -1.270149195849717E-2   -3.803457737066567E-2    4.659809118333080E-1   -2.158031642874030E-1
 6.529162390300000E9     5.565625104707362E-1   -8.461160556996390E-2   -1.205219356898085E-2   -3.833308911596617E-2   -1.297754208328272E-2   -3.814035339760076E-2    4.654827949186166E-1   -2.165877112274378E-1
 6.529172087200000E9     5.563889184974938E-1   -8.533960529795094E-2   -1.222250065956092E-2   -3.866792788298890E-2   -1.321923822307848E-2   -3.840495767261935E-2    4.649817462147238E-1   -2.176403616663348E-1
 6.529181784100000E9     5.563524022225609E-1   -8.626869444313189E-2   -1.249330827408203E-2   -3.882441768758581E-2   -1.326215832550202E-2   -3.853174368830811E-2    4.645824604417880E-1   -2.185332040186608E-1
 6.529191481000000E9     5.560985345444808E-1   -8.708646150056956E-2   -1.260013029357467E-2   -3.902786579637715E-2   -1.348714420252736E-2   -3.879285298413955E-2    4.639619277298713E-1   -2.195608804268441E-1
 6.529201177900000E9     5.560352608108057E-1   -8.797189037673682E-2   -1.274989258602675E-2   -3.915674470345771E-2   -1.359387708839553E-2   -3.895809399395996E-2    4.636871364582592E-1   -2.205789768222215E-1
 6.529210874800000E9     5.558463961001902E-1   -8.879972030235453E-2   -1.283569994445103E-2   -3.940564337028039E-2   -1.383284723274702E-2   -3.929921978734890E-2    4.630055837252322E-1   -2.212771743596545E-1
 6.529220571700000E9     5.557066695214815E-1   -8.959657829825696E-2   -1.311696456090051E-2   -3.968470138371284E-2   -1.395246788408498E-2   -3.945854266539359E-2    4.624990003571281E-1   -2.222145211009111E-1
 6.529230268600000E9     5.554822964517737E-1   -9.043665994480020E-2   -1.331757865627429E-2   -3.988243875502719E-2   -1.414729492912529E-2   -3.963658452326877E-2    4.621516586016810E-1   -2.232057656517946E-1
 6.529239965500000E9     5.553145381181371E-1   -9.130683273713644E-2   -1.330969309961483E-2   -4.005589194081723E-2   -1.432919622258309E-2   -3.987894215896690E-2    4.614131115053066E-1   -2.242716722908324E-1
 6.529249662400000E9     5.551320580627392E-1   -9.211302527330546E-2   -1.356847345332178E-2   -4.038057070633570E-2   -1.449387136036119E-2   -4.009878080579012E-2    4.610747742201239E-1   -2.251836120241807E-1
 6.529259359300000E9     5.550088080660172E-1   -9.291941921623231E-2   -1.373827357237377E-2   -4.058801254930897E-2   -1.471065553340604E-2   -4.031232642664186E-2    4.604721201812927E-1   -2.260648712795969E-1
 6.529269056200000E9     5.548733661603485E-1   -9.381226891323406E-2   -1.377319000057984E-2   -4.077597991885666E-2   -1.475370104473611E-2   -4.061030193084331E-2    4.599135464807820E-1   -2.271029335995211E-1
 6.529278753100000E9     5.547609089895329E-1   -9.461821122530141E-2   -1.401426754082459E-2   -4.105694067211792E-2   -1.503496561110250E-2   -4.080467547959859E-2    4.592518772669119E-1   -2.279693576366694E-1
 6.529288450000000E9     5.546022305535387E-1   -9.540927839793664E-2   -1.422578496205594E-2   -4.120335369599387E-2   -1.519457176475905E-2   -4.092306592075342E-2    4.587530447587146E-1   -2.289668109993275E-1
 6.529298146900000E9     5.544138332322874E-1   -9.623206651625349E-2   -1.438709086887482E-2   -4.163360939963369E-2   -1.543350750843478E-2   -4.128416095177601E-2    4.583455390769365E-1   -2.299993002018461E-1
 6.529307843800000E9     5.542179373699321E-1   -9.714562154665068E-2   -1.458832909404292E-2   -4.165605802212569E-2   -1.551864609117756E-2   -4.155806055239449E-2    4.578244953834168E-1   -2.308450225108108E-1
 6.529317540700000E9     5.540968723753406E-1   -9.801530595444934E-2   -1.478299512480454E-2   -4.201502110689297E-2   -1.574163344216832E-2   -4.170607501196279E-2    4.569818747903158E-1   -2.319990010417614E-1
 6.529327237600000E9     5.538405748320784E-1   -9.891373604921040E-2   -1.485096119585107E-2   -4.230606845169256E-2   -1.591910109914375E-2   -4.196330702018085E-2    4.564492946340454E-1   -2.331150020006271E-1
 6.529336934500000E9     5.536344344727262E-1   -9.982021342306596E-2   -1.509741116729078E-2   -4.254847966192833E-2   -1.609747143625285E-2   -4.211660371270425E-2    4.559957623387123E-1   -2.339020952655601E-1
 6.529346631400000E9     5.535030018903477E-1   -1.005591974990441E-1   -1.525643488641757E-2   -4.276432527353664E-2   -1.636655592010275E-2   -4.242327905300249E-2    4.553998953414293E-1   -2.349806366716317E-1
 6.529356328300000E9     5.533340548105956E-1   -1.015272214735912E-1   -1.539131801753938E-2   -4.288488616506494E-2   -1.654122950168392E-2   -4.271383092676482E-2    4.547746857829523E-1   -2.359553655387812E-1
 6.529366025200000E9     5.531508750168637E-1   -1.022539666035845E-1   -1.579102986113293E-2   -4.314389341748386E-2   -1.663896709471362E-2   -4.300803575794637E-2    4.542787464580913E-1   -2.370278627003538E-1
 6.529375722100000E9     5.529035609758914E-1   -1.032380101228052E-1   -1.599520007974872E-2   -4.352771865694977E-2   -1.701519744574636E-2   -4.329672441564906E-2    4.536472311133022E-1   -2.380360284946997E-1
 6.529385419000000E9     5.526445450974197E-1   -1.040748696474712E-1   -1.607059674995735E-2   -4.368666501468326E-2   -1.711815333014008E-2   -4.349279357112646E-2    4.528632362338280E-1   -2.388747861369094E-1
 6.529395115900000E9     5.524786164669210E-1   -1.048054313352635E-1   -1.626062191550820E-2   -4.415689404353929E-2   -1.742755798106590E-2   -4.378636282447095E-2    4.522064387905655E-1   -2.401614612478750E-1
 6.529404812800000E9     5.523652215895261E-1   -1.057171668316923E-1   -1.658649556086860E-2   -4.435571272660527E-2   -1.758216216038327E-2   -4.397870124567364E-2    4.516170703177486E-1   -2.409581934646564E-1
 6.529414509700000E9     5.522831530461098E-1   -1.066538144582680E-1   -1.675232430936928E-2   -4.452076100835403E-2   -1.794401581493978E-2   -4.421939189676372E-2    4.510306446428626E-1   -2.422165862911616E-1
 6.529424206600000E9     5.519242801689260E-1   -1.074807937530664E-1   -1.687561936319843E-2   -4.476478955042622E-2   -1.813459819493584E-2   -4.455333385082045E-2    4.504549132743176E-1   -2.430088434834700E-1
 6.529433903500000E9     5.516548611046408E-1   -1.084226609594524E-1   -1.734196769529371E-2   -4.512764132019688E-2   -1.834481578131475E-2   -4.481333275361842E-2    4.497935040096600E-1   -2.441298341042740E-1
 6.529443600400000E9     5.514997013291099E-1   -1.091803012377139E-1   -1.729429560145299E-2   -4.531632978744524E-2   -1.852634447461883E-2   -4.509325249955417E-2    4.492059208572847E-1   -2.452814779565161E-1
 6.529453297300000E9     5.512363422945388E-1   -1.102650571662279E-1   -1.761755475925472E-2   -4.574237678183019E-2   -1.875114594009226E-2   -4.540744247233805E-2    4.484440022168960E-1   -2.463326913215586E-1
 6.529462994200000E9     5.510184311963247E-1   -1.110698485700747E-1   -1.781282843146361E-2   -4.604549388547687E-2   -1.906670903845227E-2   -4.562604454347345E-2    4.476196153388665E-1   -2.473671348131543E-1
 6.529472691100000E9     5.508422211420976E-1   -1.118261501488174E-1   -1.817866068513668E-2   -4.637078105320762E-2   -1.916936223698080E-2   -4.592254267205428E-2    4.471581471120105E-1   -2.485930284221759E-1
 6.529482388000000E9     5.505505550339245E-1   -1.128652671537495E-1   -1.834805857590165E-2   -4.663124283497134E-2   -1.950062947484780E-2   -4.626274620695115E-2    4.463642085302566E-1   -2.496016482376270E-1
 6.529492084900000E9     5.504652111617404E-1   -1.136035209713999E-1   -1.859607380704401E-2   -4.694380160487814E-2   -1.982831997185597E-2   -4.657923513409326E-2    4.455354337697129E-1   -2.506676295088716E-1
 6.529501781800000E9     5.501551217060456E-1   -1.145427083168787E-1   -1.887009804896210E-2   -4.725144428432579E-2   -2.005598039428743E-2   -4.673963795505005E-2    4.448559480848185E-1   -2.517611823912867E-1
 6.529511478700000E9     5.498846727656572E-1   -1.155277173857474E-1   -1.919130202225031E-2   -4.742763363416921E-2   -2.032108360679170E-2   -4.718083419065252E-2    4.442755759662363E-1   -2.526455452127142E-1
 6.529521175600000E9     5.496057163259400E-1   -1.163566467272247E-1   -1.944001306501855E-2   -4.793434270423387E-2   -2.057178006634012E-2   -4.739311426446847E-2    4.435104904234420E-1   -2.537676953730291E-1
 6.529530872500000E9     5.494301714256934E-1   -1.173338506713247E-1   -1.971503413859766E-2   -4.821354404658108E-2   -2.079163196932655E-2   -4.776020944753993E-2    4.426365877583028E-1   -2.549980840189769E-1
 6.529540569400000E9     5.491602750697344E-1   -1.182491849337678E-1   -1.997031792538327E-2   -4.854253690405215E-2   -2.114130965660004E-2   -4.803238073939416E-2    4.418781685297913E-1   -2.560464014321715E-1
 6.529550266300000E9     5.490184016197431E-1   -1.190802804652935E-1   -2.019545896967571E-2   -4.886331839777081E-2   -2.142875260108110E-2   -4.832530464137901E-2    4.412790366780990E-1   -2.572238594349243E-1
 6.529559963200000E9     5.486772654351999E-1   -1.199809474343323E-1   -2.037579308906593E-2   -4.911519885866539E-2   -2.168357997992456E-2   -4.872526692233083E-2    4.403791657930935E-1   -2.583873314096433E-1
 6.529569660100000E9     5.485086827271735E-1   -1.208734074471372E-1   -2.050757153306720E-2   -4.951437357168052E-2   -2.202440645113929E-2   -4.905675834786952E-2    4.395763652060932E-1   -2.595159205220918E-1
 6.529579357000000E9     5.481454703125783E-1   -1.217902893619064E-1   -2.116099391252169E-2   -4.983788910354373E-2   -2.225342063805293E-2   -4.933823676737287E-2    4.387732418227585E-1   -2.605496128065947E-1
 6.529589053900000E9     5.479893138875068E-1   -1.227280806526473E-1   -2.140234893744477E-2   -5.003640420255999E-2   -2.263305984707333E-2   -4.974004125122374E-2    4.380123693958888E-1   -2.616219612273956E-1
 6.529598750800000E9     5.477643276773558E-1   -1.237217598476901E-1   -2.172751637201532E-2   -5.053971322123482E-2   -2.294238041372880E-2   -5.009118960376836E-2    4.370841796530878E-1   -2.629254808375781E-1
 6.529608447700000E9     5.473825597645129E-1   -1.245605205552109E-1   -2.192289801015903E-2   -5.092136070345253E-2   -2.323401309590968E-2   -5.042725929132948E-2    4.362753827833472E-1   -2.641294333382163E-1
 6.529618144600000E9     5.471328735587023E-1   -1.255579888477545E-1   -2.215059785998133E-2   -5.129518816504116E-2   -2.365393048320355E-2   -5.069874463308088E-2    4.353236853098030E-1   -2.652241397831927E-1
 6.529627841500000E9     5.467809189034205E-1   -1.263469231795483E-1   -2.266092759657284E-2   -5.161683234652609E-2   -2.398702571233395E-2   -5.123648175376450E-2    4.346458364933282E-1   -2.662886723475262E-1
 6.529637538400000E9     5.465767962939490E-1   -1.274032080501510E-1   -2.287974810857867E-2   -5.194942200166843E-2   -2.415895159444236E-2   -5.151987030796768E-2    4.336050062476585E-1   -2.675093914880032E-1
 6.529647235300000E9     5.462024804981932E-1   -1.282739964858501E-1   -2.331576584201926E-2   -5.246052526375834E-2   -2.464184222534518E-2   -5.188305693319101E-2    4.328873081867754E-1   -2.687799239831304E-1
 6.529656932200000E9     5.460250425975751E-1   -1.291888521978513E-1   -2.361079659239456E-2   -5.276305494373848E-2   -2.500132259461587E-2   -5.231974756994834E-2    4.319773815117811E-1   -2.699317811586263E-1
 6.529666629100000E9     5.457044684382812E-1   -1.300699472493876E-1   -2.397735891038142E-2   -5.318192075664887E-2   -2.539180606467795E-2   -5.261072644174253E-2    4.310073680008780E-1   -2.712683777331605E-1
 6.529676326000000E9     5.454112769300596E-1   -1.310992261041611E-1   -2.415992949277284E-2   -5.358844632720362E-2   -2.565314077224036E-2   -5.301945845754066E-2    4.299258037546419E-1   -2.722358768059052E-1
