#  HZ   S   RI   R     50.00 
! Rohde & Schwarz Vector Network Analyzer 
! Rohde-Schwarz,ZNB20-2Port,1311601062101988,3.16
! Created: UTC 3/21/2024, 12:55:05 AM
! freq[Hz]                re:S11                  im:S11                  re:S21                  im:S21                  re:S12                  im:S12                  re:S22                  im:S22
 6.528805791000000E9     5.606508791605421E-1   -5.481305774143403E-2   -7.794529859429327E-3   -3.205071514341385E-2   -8.539218638787389E-3   -3.203372152331599E-2    4.803858819477283E-1   -1.841627016076121E-1
 6.528815491650000E9     5.606822008360350E-1   -5.561104488634370E-2   -7.867002805506654E-3   -3.223981298755457E-2   -8.614239225363333E-3   -3.203619557783609E-2    4.800612267189281E-1   -1.850976574687236E-1
 6.528825192300000E9     5.605463119244606E-1   -5.639216914573609E-2   -7.938674386210848E-3   -3.231653849359854E-2   -8.791034272464394E-3   -3.222194170730517E-2    4.798186711703987E-1   -1.859794598928771E-1
 6.528834892950000E9     5.604081721786289E-1   -5.718079371316343E-2   -8.123332121155985E-3   -3.250840092520468E-2   -8.901965610913184E-3   -3.239634807425920E-2    4.793513854116155E-1   -1.866813313721678E-1
 6.528844593600000E9     5.604151118773063E-1   -5.806011651264514E-2   -8.165613613213045E-3   -3.267168588376091E-2   -8.930267152947828E-3   -3.243965165520622E-2    4.790856071886249E-1   -1.874726258919562E-1
 6.528854294250000E9     5.602356786292353E-1   -5.881082725730415E-2   -8.241354741086539E-3   -3.278308248801165E-2   -9.021626551469909E-3   -3.265809343354764E-2    4.786194585939225E-1   -1.883598926095987E-1
 6.528863994900000E9     5.600811587112816E-1   -5.952333661759937E-2   -8.369444550373450E-3   -3.291233884424490E-2   -9.102173025957146E-3   -3.284739078897463E-2    4.783834533193119E-1   -1.892553265759906E-1
 6.528873695550000E9     5.600455335975300E-1   -6.035420119009980E-2   -8.412396223715150E-3   -3.306803020319000E-2   -9.272196431268745E-3   -3.294645909814426E-2    4.780201474461903E-1   -1.901779824671663E-1
 6.528883396200000E9     5.599022915138545E-1   -6.123851468904236E-2   -8.530919746143277E-3   -3.322443832267588E-2   -9.364357351083671E-3   -3.302240375944060E-2    4.775083008188730E-1   -1.909812334804005E-1
 6.528893096850000E9     5.598884403596645E-1   -6.204870004972919E-2   -8.711782925538035E-3   -3.329310426998214E-2   -9.428897151185492E-3   -3.325906248431241E-2    4.773503811297758E-1   -1.919418357125957E-1
 6.528902797500000E9     5.598099166066499E-1   -6.270672032818450E-2   -8.721054557267804E-3   -3.341757699179247E-2   -9.567032395958297E-3   -3.345239847127122E-2    4.770005131569259E-1   -1.927159168187796E-1
 6.528912498150000E9     5.596271206961284E-1   -6.351823109954836E-2   -8.889917542720397E-3   -3.379216466304669E-2   -9.677602327342954E-3   -3.359046422096484E-2    4.765506938503257E-1   -1.935103104466258E-1
 6.528922198800000E9     5.595874487673452E-1   -6.436887484542141E-2   -8.892700110483057E-3   -3.384988753350057E-2   -9.797907464102808E-3   -3.365452688786033E-2    4.761744962687715E-1   -1.943242605730781E-1
 6.528931899450000E9     5.595062577171184E-1   -6.521008167607578E-2   -9.162821233202875E-3   -3.392981582118237E-2   -9.864976217448385E-3   -3.398188798590088E-2    4.759433547698290E-1   -1.952548367981501E-1
 6.528941600100000E9     5.593818276754694E-1   -6.601179545128476E-2   -9.235648880172235E-3   -3.418100052895091E-2   -9.918747544079192E-3   -3.410034173712520E-2    4.753119185485569E-1   -1.962044512244913E-1
 6.528951300750000E9     5.592996321812280E-1   -6.676135115986151E-2   -9.305598163126500E-3   -3.421969638693784E-2   -1.015283521562933E-2   -3.419931939457747E-2    4.749350244763508E-1   -1.969990275606683E-1
 6.528961001400000E9     5.590392236359137E-1   -6.763945671916460E-2   -9.570855574407698E-3   -3.456888814321470E-2   -1.026349665251561E-2   -3.429328090312316E-2    4.744819204846913E-1   -1.979324172920776E-1
 6.528970702050000E9     5.590482412406524E-1   -6.838073206629321E-2   -9.517930045167914E-3   -3.468947187824742E-2   -1.034552062143933E-2   -3.457469667709250E-2    4.741072001127041E-1   -1.990139591220847E-1
 6.528980402700000E9     5.588852167432510E-1   -6.914620830428446E-2   -9.712874965860973E-3   -3.465996992699619E-2   -1.048270122547735E-2   -3.472442573125054E-2    4.738095726493098E-1   -1.996709050180441E-1
 6.528990103350000E9     5.588135139327477E-1   -6.996632236108426E-2   -9.701759370299502E-3   -3.504806825942205E-2   -1.054362707861418E-2   -3.480445990366363E-2    4.734883726773415E-1   -2.003417709927569E-1
 6.528999804000000E9     5.586161496620210E-1   -7.081205963038198E-2   -9.847904776660409E-3   -3.512775472479909E-2   -1.071037351460576E-2   -3.496680977808879E-2    4.729779227629058E-1   -2.013834648932029E-1
 6.529009504650000E9     5.586649679335373E-1   -7.158165294830791E-2   -9.949565683267100E-3   -3.534984623989388E-2   -1.086077955706151E-2   -3.521201865958844E-2    4.727368051063073E-1   -2.023357263685312E-1
 6.529019205300000E9     5.584794593870706E-1   -7.243673565207272E-2   -1.021897032977416E-2   -3.555176457853344E-2   -1.098090718044827E-2   -3.531035857059014E-2    4.720883953875896E-1   -2.031922996141074E-1
 6.529028905950000E9     5.583071918060353E-1   -7.322957720732429E-2   -1.025762562394027E-2   -3.576455554737471E-2   -1.113510557412978E-2   -3.556624710840236E-2    4.717302056546537E-1   -2.040443227721579E-1
 6.529038606600000E9     5.583133738323590E-1   -7.401084975431831E-2   -1.038711740220374E-2   -3.590277191086703E-2   -1.119423057248545E-2   -3.575648850234060E-2    4.712339617120160E-1   -2.050131899003522E-1
 6.529048307250000E9     5.580976345561830E-1   -7.482225102784076E-2   -1.063614536414672E-2   -3.612831025665064E-2   -1.132677151741524E-2   -3.589735909932544E-2    4.707706472531387E-1   -2.058337939115903E-1
 6.529058007900000E9     5.580496521542144E-1   -7.564271703664367E-2   -1.063447983655415E-2   -3.631126042556448E-2   -1.131854867999972E-2   -3.609349241141119E-2    4.703995766685319E-1   -2.065901360062217E-1
 6.529067708550000E9     5.579418207850715E-1   -7.644469448449187E-2   -1.072819988252927E-2   -3.648833378394393E-2   -1.153120449870749E-2   -3.621988730333294E-2    4.701252603863860E-1   -2.073955868476017E-1
 6.529077409200000E9     5.577903783371047E-1   -7.721643389544752E-2   -1.098027276525467E-2   -3.668150589752601E-2   -1.178211612433320E-2   -3.640049156129774E-2    4.695045022372913E-1   -2.084553887865846E-1
 6.529087109850000E9     5.576191140582433E-1   -7.824676348107408E-2   -1.103469852884794E-2   -3.678943735230593E-2   -1.190604754017275E-2   -3.654539872656565E-2    4.690691189427349E-1   -2.094196140412989E-1
 6.529096810500000E9     5.575440356258125E-1   -7.895692349529662E-2   -1.104684846963659E-2   -3.709613788026466E-2   -1.203269991574725E-2   -3.678015900232157E-2    4.685674993657457E-1   -2.102527250499250E-1
 6.529106511150000E9     5.573337435049029E-1   -7.975647226669469E-2   -1.126114019722976E-2   -3.732021224487668E-2   -1.211506494391764E-2   -3.698421086942027E-2    4.682765955001296E-1   -2.112660897292166E-1
 6.529116211800000E9     5.572237375994261E-1   -8.052197636517064E-2   -1.138947612913430E-2   -3.747687614639207E-2   -1.229973258127244E-2   -3.728582208572033E-2    4.676086759890581E-1   -2.122059860803348E-1
 6.529125912450000E9     5.570873420857093E-1   -8.142045761716732E-2   -1.153523409023594E-2   -3.757483350841081E-2   -1.240070072659132E-2   -3.742384663287619E-2    4.672768968723599E-1   -2.131213565237422E-1
 6.529135613100000E9     5.568906704440753E-1   -8.226113373477845E-2   -1.168407445644409E-2   -3.771653342909196E-2   -1.262825348266070E-2   -3.751952486061209E-2    4.667108640053778E-1   -2.140653680938716E-1
 6.529145313750000E9     5.568157416776331E-1   -8.313129589282429E-2   -1.197697279115226E-2   -3.795704202226206E-2   -1.260946766808369E-2   -3.777716692881151E-2    4.662765544603562E-1   -2.148747131910537E-1
 6.529155014400000E9     5.567928583891190E-1   -8.381309725137660E-2   -1.194912011843444E-2   -3.813973948275787E-2   -1.279235524221210E-2   -3.802710713663596E-2    4.660574722637594E-1   -2.158167243163071E-1
 6.529164715050000E9     5.566127956124730E-1   -8.469064667672097E-2   -1.217444601884208E-2   -3.849840879263158E-2   -1.300218812971635E-2   -3.811921643222894E-2    4.653463474048648E-1   -2.167688944677962E-1
 6.529174415700000E9     5.564266343654545E-1   -8.556805514667629E-2   -1.222912774795038E-2   -3.855894278636932E-2   -1.323189084668411E-2   -3.831056677221161E-2    4.649129121268304E-1   -2.175761922471088E-1
 6.529184116350000E9     5.562001328172594E-1   -8.629382476112384E-2   -1.248117488942133E-2   -3.884353776408745E-2   -1.327365811662040E-2   -3.848754055912326E-2    4.643306651241791E-1   -2.186737478000037E-1
 6.529193817000000E9     5.562685976976502E-1   -8.717661128154733E-2   -1.264373282879718E-2   -3.895113553422307E-2   -1.348986166958611E-2   -3.884251995406524E-2    4.639094239430840E-1   -2.197165877020468E-1
 6.529203517650000E9     5.559934765797981E-1   -8.796350153532868E-2   -1.266715005629274E-2   -3.913208582698675E-2   -1.365905760779432E-2   -3.890347405707204E-2    4.633693774377219E-1   -2.205908744147414E-1
 6.529213218300000E9     5.558218685682681E-1   -8.878131671254330E-2   -1.295809482205724E-2   -3.956591862811368E-2   -1.369474003477947E-2   -3.919541544361162E-2    4.629058158397162E-1   -2.213412208279053E-1
 6.529222918950000E9     5.556953480048727E-1   -8.972924892265378E-2   -1.308284928277137E-2   -3.966321287307650E-2   -1.401295674396998E-2   -3.947534967956023E-2    4.625243987585045E-1   -2.223447670425656E-1
 6.529232619600000E9     5.554537631062355E-1   -9.048834451480881E-2   -1.326566955352481E-2   -3.983271897557680E-2   -1.416082409701004E-2   -3.962304060735664E-2    4.619211129234404E-1   -2.233769043760807E-1
 6.529242320250000E9     5.553780360234325E-1   -9.129389093310368E-2   -1.353462980844685E-2   -4.015515889801002E-2   -1.435275047955804E-2   -3.974964712559113E-2    4.613545703542912E-1   -2.241877174153671E-1
 6.529252020900000E9     5.551780170102251E-1   -9.218501826958155E-2   -1.344947159325207E-2   -4.027920309184146E-2   -1.452425231211431E-2   -4.008088686920203E-2    4.610081905431336E-1   -2.253034847779493E-1
 6.529261721550000E9     5.549677756184408E-1   -9.314932840577492E-2   -1.373314066889898E-2   -4.051625567911850E-2   -1.460457816590378E-2   -4.029736590030182E-2    4.603273952373565E-1   -2.261880286336416E-1
 6.529271422200000E9     5.549086139755945E-1   -9.390555221604102E-2   -1.390743384617238E-2   -4.076302484103012E-2   -1.487931237090452E-2   -4.041371397708118E-2    4.596933211582905E-1   -2.272088949577634E-1
 6.529281122850000E9     5.546807745662515E-1   -9.471108084011239E-2   -1.395424915268518E-2   -4.091134641829872E-2   -1.498973598693241E-2   -4.076331595315410E-2    4.592015029754102E-1   -2.281955928529177E-1
 6.529290823500000E9     5.544938880103614E-1   -9.550538244431160E-2   -1.411013506721705E-2   -4.118020884352123E-2   -1.518953207157893E-2   -4.086527033634018E-2    4.586332957104468E-1   -2.292629180286189E-1
 6.529300524150000E9     5.542778710707897E-1   -9.641907312144968E-2   -1.446081284562137E-2   -4.146657868411130E-2   -1.542867463940584E-2   -4.121950361666306E-2    4.580917396840847E-1   -2.302286388242741E-1
 6.529310224800000E9     5.541190125376982E-1   -9.720293339025680E-2   -1.466048746696684E-2   -4.167328271886493E-2   -1.558599101666136E-2   -4.143027075979792E-2    4.575187091514689E-1   -2.312316527285568E-1
 6.529319925450000E9     5.539299654897293E-1   -9.807614300494671E-2   -1.471161849852472E-2   -4.196300316585661E-2   -1.577451331916372E-2   -4.165220438129490E-2    4.570653770589205E-1   -2.322633543128477E-1
 6.529329626100000E9     5.538411021521324E-1   -9.894087228883894E-2   -1.485480530253746E-2   -4.224242389452431E-2   -1.600537235089703E-2   -4.188250125975913E-2    4.563876124436739E-1   -2.330697302943778E-1
 6.529339326750000E9     5.537056167150990E-1   -9.971684366484553E-2   -1.531091008540597E-2   -4.248778253335862E-2   -1.610748587404432E-2   -4.209070291504460E-2    4.558598670013318E-1   -2.339794671124242E-1
 6.529349027400000E9     5.534362491309298E-1   -1.006645479331701E-1   -1.530712744991564E-2   -4.284322507362023E-2   -1.630003793636894E-2   -4.243725043423748E-2    4.552007190894717E-1   -2.351657921461271E-1
 6.529358728050000E9     5.532403376285732E-1   -1.017827061551104E-1   -1.547345841529754E-2   -4.298243343978900E-2   -1.659146947502127E-2   -4.261748835504305E-2    4.546001844551237E-1   -2.361667307436945E-1
 6.529368428700000E9     5.530446321654197E-1   -1.023359372890279E-1   -1.558332137830474E-2   -4.318055554802443E-2   -1.677552817949635E-2   -4.300239423445026E-2    4.539797569561134E-1   -2.371736392746975E-1
 6.529378129350000E9     5.529025000077974E-1   -1.034158577189034E-1   -1.590400122185891E-2   -4.339133995473386E-2   -1.704106615130205E-2   -4.316752699570982E-2    4.533680826233130E-1   -2.381700125220114E-1
 6.529387830000000E9     5.526918869604281E-1   -1.041354983635151E-1   -1.616704953394650E-2   -4.366360299281286E-2   -1.717762373048771E-2   -4.345276393510474E-2    4.527106814817956E-1   -2.390690935383881E-1
 6.529397530650000E9     5.525503192089911E-1   -1.048796996859902E-1   -1.633342323396655E-2   -4.406395256384481E-2   -1.734382089876610E-2   -4.357649082993483E-2    4.520862455579645E-1   -2.401982368550678E-1
 6.529407231300000E9     5.522089898610777E-1   -1.059202965582835E-1   -1.654150443621853E-2   -4.424005177499426E-2   -1.760887175361128E-2   -4.391451274468883E-2    4.515098301203486E-1   -2.413081338843465E-1
 6.529416931950000E9     5.520343471150567E-1   -1.068094576695192E-1   -1.678194787831012E-2   -4.447273277802243E-2   -1.782410611620633E-2   -4.430536090666413E-2    4.508113543755233E-1   -2.421759415716235E-1
 6.529426632600000E9     5.518555783469543E-1   -1.076410428472788E-1   -1.705557492696711E-2   -4.488032818787882E-2   -1.805003884807136E-2   -4.451770010671698E-2    4.502015496373429E-1   -2.431747942634700E-1
 6.529436333250000E9     5.516361469066032E-1   -1.084495737030768E-1   -1.733103669229827E-2   -4.516231974819782E-2   -1.836088754080448E-2   -4.478223313301286E-2    4.495858913046256E-1   -2.442826952777685E-1
 6.529446033900000E9     5.515679194167485E-1   -1.092580815534501E-1   -1.743936999448507E-2   -4.532407971406647E-2   -1.854747882346611E-2   -4.505427348475077E-2    4.488126446884682E-1   -2.452822248343609E-1
 6.529455734550000E9     5.512112139555497E-1   -1.102203779221565E-1   -1.753127391640487E-2   -4.558879932832142E-2   -1.878784104079434E-2   -4.540263892694245E-2    4.480704765014898E-1   -2.463991751809161E-1
 6.529465435200000E9     5.510546127835242E-1   -1.112106768246052E-1   -1.788808969130799E-2   -4.595907320413865E-2   -1.901123565694260E-2   -4.558900885189812E-2    4.475524542611327E-1   -2.473812859317489E-1
 6.529475135850000E9     5.507385215792652E-1   -1.120659418329626E-1   -1.803738516971019E-2   -4.625378251259461E-2   -1.930354962923072E-2   -4.591882675799164E-2    4.468996534900117E-1   -2.486868116039625E-1
 6.529484836500000E9     5.506091072748009E-1   -1.129025879830258E-1   -1.837337958405631E-2   -4.659748963824270E-2   -1.952668232390799E-2   -4.621537593935356E-2    4.460644062084561E-1   -2.497337178184403E-1
 6.529494537150000E9     5.503846507312029E-1   -1.138491218100822E-1   -1.857848392428286E-2   -4.693379371881982E-2   -1.975043787886840E-2   -4.645706537416200E-2    4.454391731909894E-1   -2.508434689252647E-1
 6.529504237800000E9     5.500617255350190E-1   -1.146548947296991E-1   -1.892503720967076E-2   -4.733391237276278E-2   -2.003507431920785E-2   -4.680198880588040E-2    4.446194333602377E-1   -2.518944399111401E-1
 6.529513938450000E9     5.499470216404869E-1   -1.155315621744578E-1   -1.907253943765563E-2   -4.747119885104487E-2   -2.045225735806442E-2   -4.714825587546722E-2    4.439947086077266E-1   -2.528664169271728E-1
 6.529523639100000E9     5.496948634012079E-1   -1.163957778743801E-1   -1.948291940849266E-2   -4.788416468324234E-2   -2.055820710505980E-2   -4.733915842153073E-2    4.432113337770255E-1   -2.539522806941386E-1
 6.529533339750000E9     5.493260453374299E-1   -1.173831762923788E-1   -1.964961179475103E-2   -4.816935892129000E-2   -2.082442131466555E-2   -4.778759178233771E-2    4.424993960481047E-1   -2.551189093314283E-1
 6.529543040400000E9     5.491369558755950E-1   -1.182118986494501E-1   -2.004725956084195E-2   -4.842130947677905E-2   -2.124645684725713E-2   -4.806382729674750E-2    4.417210939868759E-1   -2.562742989459220E-1
 6.529552741050000E9     5.488155901402048E-1   -1.191375483727377E-1   -2.019305146535517E-2   -4.869487821980983E-2   -2.141464544323130E-2   -4.843863113579355E-2    4.409501031927968E-1   -2.573975458420333E-1
 6.529562441700000E9     5.487823742947481E-1   -1.201021829929595E-1   -2.043010293074237E-2   -4.903054276175020E-2   -2.167517399480400E-2   -4.870385488741038E-2    4.402751476166484E-1   -2.583669934084772E-1
 6.529572142350000E9     5.482956484857717E-1   -1.210348661229809E-1   -2.063807393242417E-2   -4.948322400057918E-2   -2.210458500329225E-2   -4.897255099763444E-2    4.392899341009928E-1   -2.595346617788965E-1
 6.529581843000000E9     5.480930604453909E-1   -1.218613934374743E-1   -2.099807635730942E-2   -4.987295224444960E-2   -2.238919429812703E-2   -4.936366538593582E-2    4.386490413544524E-1   -2.606125620750259E-1
 6.529591543650000E9     5.478654216595807E-1   -1.227084230822331E-1   -2.148112682059672E-2   -5.015433717429456E-2   -2.268737271092269E-2   -4.963229673601069E-2    4.377128218803756E-1   -2.619281212276618E-1
 6.529601244300000E9     5.476471118206360E-1   -1.236635436179921E-1   -2.151423974974349E-2   -5.047612731534387E-2   -2.289371544537715E-2   -5.015777293031089E-2    4.369363826397861E-1   -2.629684677380446E-1
 6.529610944950000E9     5.474592668727007E-1   -1.246211378375214E-1   -2.185819979743621E-2   -5.104478279237804E-2   -2.322936256948884E-2   -5.036670820496938E-2    4.359295228666696E-1   -2.642518332121262E-1
 6.529620645600000E9     5.470080807322317E-1   -1.255851404202110E-1   -2.227381374091347E-2   -5.116420566398198E-2   -2.365747218669910E-2   -5.078286678531926E-2    4.351696131450365E-1   -2.654628118286367E-1
 6.529630346250000E9     5.468463299890362E-1   -1.265302529320972E-1   -2.254864741844739E-2   -5.154330786095321E-2   -2.389104719781202E-2   -5.110667082022752E-2    4.343084942786261E-1   -2.665497058033593E-1
 6.529640046900000E9     5.464989452116872E-1   -1.274085048112534E-1   -2.294130219363509E-2   -5.195337558689368E-2   -2.429916093617856E-2   -5.155066577670470E-2    4.335055800389480E-1   -2.676197842496356E-1
 6.529649747550000E9     5.462403987673633E-1   -1.283455709152973E-1   -2.334825023404323E-2   -5.249756221329280E-2   -2.458901201388006E-2   -5.181878926735466E-2    4.327565513969412E-1   -2.687531093199135E-1
 6.529659448200000E9     5.458596012333500E-1   -1.292345154128451E-1   -2.368935510233130E-2   -5.277073900611098E-2   -2.492500363712054E-2   -5.235409896560610E-2    4.316837581465411E-1   -2.699689730146694E-1
 6.529669148850000E9     5.457113868328770E-1   -1.301338388545496E-1   -2.399021835679514E-2   -5.326917126788508E-2   -2.534951474519131E-2   -5.259789819305886E-2    4.308646011295760E-1   -2.713089203490965E-1
 6.529678849500000E9     5.453838157186307E-1   -1.312857731281563E-1   -2.426521216800563E-2   -5.340893263436034E-2   -2.574854486620643E-2   -5.300720640348067E-2    4.298760833268169E-1   -2.723944422247940E-1
