#  HZ   S   RI   R     50.00 
! Rohde & Schwarz Vector Network Analyzer 
! Rohde-Schwarz,ZNB20-2Port,1311601062101988,3.16
! Created: UTC 3/21/2024, 12:55:17 AM
! freq[Hz]                re:S11                  im:S11                  re:S21                  im:S21                  re:S12                  im:S12                  re:S22                  im:S22
 6.528803746000000E9     5.605697173498957E-1   -5.448903156534910E-2   -7.600663984302857E-3   -3.201001607318978E-2   -8.565987776428712E-3   -3.175563015848260E-2    4.801886302437317E-1   -1.837622001024129E-1
 6.528813482025000E9     5.605015684010509E-1   -5.529277147620947E-2   -7.730693352988136E-3   -3.209286966429239E-2   -8.553754674354047E-3   -3.197819614021874E-2    4.800954961800624E-1   -1.846687603332401E-1
 6.528823218050000E9     5.605889559702575E-1   -5.620750940984581E-2   -8.005333218691204E-3   -3.234452051294356E-2   -8.614756087306599E-3   -3.209151393357653E-2    4.797813843986936E-1   -1.853677953119592E-1
 6.528832954075000E9     5.604443443883426E-1   -5.697756540067151E-2   -8.085879168174487E-3   -3.245788804070852E-2   -8.758968754207305E-3   -3.225503835611105E-2    4.794025321505465E-1   -1.864846651548333E-1
 6.528842690100000E9     5.602909765570925E-1   -5.781602224661821E-2   -8.210596974679364E-3   -3.260960913404520E-2   -8.891161342636502E-3   -3.252123720446321E-2    4.791781714057571E-1   -1.871825314335668E-1
 6.528852426125000E9     5.602747563933861E-1   -5.855180623116004E-2   -8.207686951757187E-3   -3.269861176107901E-2   -9.052853194497164E-3   -3.250898011558593E-2    4.786110500753968E-1   -1.881020915208922E-1
 6.528862162150000E9     5.600118893527196E-1   -5.934383225867481E-2   -8.420024337336048E-3   -3.283438676068418E-2   -9.054824826545921E-3   -3.274681758173636E-2    4.782941423369262E-1   -1.888643202730596E-1
 6.528871898175000E9     5.601123255937499E-1   -6.005543726109910E-2   -8.437614196552722E-3   -3.281896776083342E-2   -9.173655687898470E-3   -3.277321343889171E-2    4.778992038188254E-1   -1.896036055292462E-1
 6.528881634200000E9     5.599215746602957E-1   -6.089811060921572E-2   -8.635197421293300E-3   -3.305297575601800E-2   -9.171426886557699E-3   -3.305108980562948E-2    4.774836090362629E-1   -1.906754749617929E-1
 6.528891370225000E9     5.598513351736580E-1   -6.166647305893742E-2   -8.690536197169248E-3   -3.325936522108590E-2   -9.382360845253982E-3   -3.309438028758199E-2    4.772097259225759E-1   -1.912286650026232E-1
 6.528901106250000E9     5.596630373643928E-1   -6.256060667873010E-2   -8.765104805228092E-3   -3.330302481147608E-2   -9.554527338734591E-3   -3.335037779622081E-2    4.768618967336151E-1   -1.923172200329772E-1
 6.528910842275000E9     5.596562514813752E-1   -6.320896629197544E-2   -8.771531443872030E-3   -3.366931890965861E-2   -9.646460961732476E-3   -3.354272827727699E-2    4.764191875066395E-1   -1.931652243587041E-1
 6.528920578300000E9     5.597205007225263E-1   -6.413995289992475E-2   -8.936475335293485E-3   -3.370470713775533E-2   -9.702446367368243E-3   -3.365849218972383E-2    4.759586007869622E-1   -1.939364893810370E-1
 6.528930314325000E9     5.594763371061381E-1   -6.485976882604215E-2   -9.096843906249590E-3   -3.381681373290121E-2   -9.821977355545736E-3   -3.373283891481246E-2    4.757369667197428E-1   -1.948569518664309E-1
 6.528940050350000E9     5.593953377746466E-1   -6.579446957064426E-2   -9.207190196773929E-3   -3.403008038295691E-2   -9.930566493605386E-3   -3.388491389046887E-2    4.752596595684967E-1   -1.957940923780805E-1
 6.528949786375000E9     5.592478715366066E-1   -6.646580994065490E-2   -9.217576072096461E-3   -3.415410774395668E-2   -1.007686726454685E-2   -3.412099676498120E-2    4.748520173056489E-1   -1.963690080736040E-1
 6.528959522400000E9     5.591933585880802E-1   -6.729102682649540E-2   -9.402090623890910E-3   -3.443008488291190E-2   -1.005845437795382E-2   -3.421216417911715E-2    4.744930601916261E-1   -1.972886366534140E-1
 6.528969258425000E9     5.590025651276160E-1   -6.817674431691589E-2   -9.610095336090965E-3   -3.459517111471768E-2   -1.023154948977944E-2   -3.442037165244000E-2    4.741568939874723E-1   -1.982362345642040E-1
 6.528978994450000E9     5.589526721465655E-1   -6.900499065192409E-2   -9.562244005858846E-3   -3.478316167004429E-2   -1.047880534357458E-2   -3.458224146734417E-2    4.736807289316515E-1   -1.991183128785861E-1
 6.528988730475000E9     5.589141468428803E-1   -6.978161063033002E-2   -9.798286774137011E-3   -3.503358076611233E-2   -1.053814974937494E-2   -3.457163629048229E-2    4.730719018950756E-1   -2.000925744436698E-1
 6.528998466500000E9     5.587269353249152E-1   -7.061233477523077E-2   -9.878831427061738E-3   -3.511736529900060E-2   -1.058214126918662E-2   -3.487702340968111E-2    4.728379800332740E-1   -2.009500953988640E-1
 6.529008202525000E9     5.586624611179490E-1   -7.138386868741396E-2   -1.003456794090296E-2   -3.522512939477349E-2   -1.071281906022052E-2   -3.502814196135096E-2    4.723514002533798E-1   -2.018251099600915E-1
 6.529017938550000E9     5.585272035245188E-1   -7.221918716967113E-2   -1.006595982561729E-2   -3.534042259229630E-2   -1.089658936100672E-2   -3.518568529561112E-2    4.719470955050089E-1   -2.027546170526436E-1
 6.529027674575000E9     5.584385534161259E-1   -7.301885053200644E-2   -1.019662396725316E-2   -3.556186483520697E-2   -1.092753348244225E-2   -3.539333197997794E-2    4.715213054148317E-1   -2.036871990817914E-1
 6.529037410600000E9     5.582887875960700E-1   -7.389034069769342E-2   -1.034681691495995E-2   -3.583325415458363E-2   -1.111757696976921E-2   -3.566927245188040E-2    4.712488154166387E-1   -2.044080378556024E-1
 6.529047146625000E9     5.580693150664573E-1   -7.460988305635574E-2   -1.044616829636440E-2   -3.594346836660873E-2   -1.129703491066362E-2   -3.573439945200474E-2    4.705497964382005E-1   -2.056481378792912E-1
 6.529056882650000E9     5.581038928483800E-1   -7.545424915300927E-2   -1.041705841838565E-2   -3.601480833858622E-2   -1.134726783193727E-2   -3.591535819438685E-2    4.703612462777197E-1   -2.063290280070476E-1
 6.529066618675000E9     5.579164143328641E-1   -7.618405645078752E-2   -1.081441026125922E-2   -3.624244907850045E-2   -1.151044830348600E-2   -3.617688978138545E-2    4.698060326198518E-1   -2.072440051159348E-1
 6.529076354700000E9     5.577647291399416E-1   -7.710464978309159E-2   -1.092331485007372E-2   -3.639766075764589E-2   -1.167985721904310E-2   -3.627289479515954E-2    4.693974635554581E-1   -2.081052378122949E-1
 6.529086090725000E9     5.575997001025966E-1   -7.787024052068518E-2   -1.097481577367685E-2   -3.667324279895837E-2   -1.179246199830037E-2   -3.644560322649745E-2    4.689856243401196E-1   -2.090013005007833E-1
 6.529095826750000E9     5.574212892624154E-1   -7.883479730981663E-2   -1.121270171046156E-2   -3.680860214969339E-2   -1.194188039965072E-2   -3.666139247828871E-2    4.685381251404926E-1   -2.101729544435768E-1
 6.529105562775000E9     5.573711639545146E-1   -7.955872529407590E-2   -1.121907083310894E-2   -3.715536871958444E-2   -1.202740641467777E-2   -3.684511285393488E-2    4.679958400792593E-1   -2.109903394222695E-1
 6.529115298800000E9     5.571584468524079E-1   -8.044171764674433E-2   -1.140616808419221E-2   -3.727234483482721E-2   -1.219981587413885E-2   -3.704701898937501E-2    4.676294003958266E-1   -2.118240349808977E-1
 6.529125034825000E9     5.570173919486294E-1   -8.133379287995440E-2   -1.156339048424048E-2   -3.741116950728733E-2   -1.232384294177892E-2   -3.727351223027195E-2    4.671061544255647E-1   -2.125654991435290E-1
 6.529134770850000E9     5.569621841025206E-1   -8.200076690147738E-2   -1.160328790167770E-2   -3.763002843025443E-2   -1.246468006641614E-2   -3.740677577290130E-2    4.665981342264298E-1   -2.136396849009681E-1
 6.529144506875000E9     5.567951825533529E-1   -8.285944884481994E-2   -1.173493096047521E-2   -3.789060098725211E-2   -1.269661054904009E-2   -3.765738081466733E-2    4.663962250934216E-1   -2.144157691699654E-1
 6.529154242900000E9     5.567570717911576E-1   -8.358679199120625E-2   -1.189272184165567E-2   -3.807859320624488E-2   -1.274310198944193E-2   -3.779307902083917E-2    4.656455056493621E-1   -2.154766954264121E-1
 6.529163978925000E9     5.565809490943446E-1   -8.439499290991652E-2   -1.209201038560921E-2   -3.824452346571226E-2   -1.290125262529659E-2   -3.805842401073060E-2    4.652701347702889E-1   -2.163450018755765E-1
 6.529173714950000E9     5.565172974283437E-1   -8.536312338520721E-2   -1.229741784220756E-2   -3.832884784391170E-2   -1.309209066166809E-2   -3.827562527619487E-2    4.648554502870563E-1   -2.172181376975281E-1
 6.529183450975000E9     5.562987363126877E-1   -8.619401429598490E-2   -1.239813301025452E-2   -3.859134502722784E-2   -1.318659230074256E-2   -3.843650104541780E-2    4.643798357768499E-1   -2.182837718133064E-1
 6.529193187000000E9     5.561695401191725E-1   -8.706246931166146E-2   -1.251714409106855E-2   -3.875784717626519E-2   -1.336748978151057E-2   -3.866650939600069E-2    4.636652832976555E-1   -2.192123500761746E-1
 6.529202923025000E9     5.559919692380383E-1   -8.784843080213550E-2   -1.265057788371158E-2   -3.898830713777462E-2   -1.359445669191776E-2   -3.888549653081370E-2    4.632679004619712E-1   -2.200874006161563E-1
 6.529212659050000E9     5.556874703254250E-1   -8.868167889717757E-2   -1.282107135538578E-2   -3.933415890702699E-2   -1.366510263391611E-2   -3.901145519124549E-2    4.628063135285396E-1   -2.212283893894512E-1
 6.529222395075000E9     5.558003547195867E-1   -8.952717330009662E-2   -1.295346955736371E-2   -3.941270196412949E-2   -1.388448084897365E-2   -3.926401777614340E-2    4.624112820660287E-1   -2.220531497752654E-1
 6.529232131100000E9     5.554932550705177E-1   -9.037394804502701E-2   -1.312883079305997E-2   -3.987595591175201E-2   -1.412652903949584E-2   -3.943106806180470E-2    4.617678438655298E-1   -2.228499063783715E-1
 6.529241867125000E9     5.554388053404992E-1   -9.121825602619706E-2   -1.332367724761471E-2   -3.983638767875752E-2   -1.420356652809406E-2   -3.981293685264123E-2    4.612463732486586E-1   -2.238158530137565E-1
 6.529251603150000E9     5.551897203491392E-1   -9.205226710862498E-2   -1.343236496291001E-2   -4.017997407506549E-2   -1.433114407073325E-2   -4.001746722067636E-2    4.607680488089958E-1   -2.248280147541666E-1
 6.529261339175000E9     5.550392688312433E-1   -9.289352683263061E-2   -1.361309002914449E-2   -4.044794231932379E-2   -1.459619506291717E-2   -4.022870834457206E-2    4.601127106851569E-1   -2.259020716504726E-1
 6.529271075200000E9     5.548960281940815E-1   -9.358090802172855E-2   -1.388306840490525E-2   -4.053147178290062E-2   -1.461557110249066E-2   -4.038390001171223E-2    4.596944481964400E-1   -2.267469483601186E-1
 6.529280811225000E9     5.548359812852702E-1   -9.454980394939148E-2   -1.397867624585108E-2   -4.085055032135949E-2   -1.484769681305628E-2   -4.069912897470357E-2    4.591078507922350E-1   -2.279579079660242E-1
 6.529290547250000E9     5.545381599538263E-1   -9.537307445262663E-2   -1.412131846173603E-2   -4.105714722658019E-2   -1.515728764989579E-2   -4.082201914148943E-2    4.586183189477629E-1   -2.288568058124548E-1
 6.529300283275000E9     5.544122082217781E-1   -9.621990295078038E-2   -1.423428821295725E-2   -4.129798294953846E-2   -1.520701674911070E-2   -4.105297436394310E-2    4.578104078896246E-1   -2.297268838916633E-1
 6.529310019300000E9     5.541597846082339E-1   -9.707526823610718E-2   -1.455940097477896E-2   -4.157878473070374E-2   -1.546876261863167E-2   -4.128827813113403E-2    4.574596001725410E-1   -2.308619012979421E-1
 6.529319755325000E9     5.539742946088364E-1   -9.794646381740316E-2   -1.449006742717281E-2   -4.185081684276873E-2   -1.556651120701062E-2   -4.145238954658990E-2    4.568775141219634E-1   -2.317415125675654E-1
 6.529329491350000E9     5.538520593171965E-1   -9.884322664699846E-2   -1.486130292335953E-2   -4.196979290705394E-2   -1.597686176747716E-2   -4.175660403654941E-2    4.561065905630232E-1   -2.327137210251565E-1
 6.529339227375000E9     5.536834388311948E-1   -9.956312204829351E-2   -1.501466106001734E-2   -4.223404295737233E-2   -1.609283667895073E-2   -4.194578975593360E-2    4.556761220003311E-1   -2.338108806901598E-1
 6.529348963400000E9     5.534566160424326E-1   -1.004293442503666E-1   -1.522798147644911E-2   -4.250175282283963E-2   -1.630232413782239E-2   -4.230996653339529E-2    4.551277395816564E-1   -2.347609220587917E-1
 6.529358699425000E9     5.532912609219051E-1   -1.014333101377874E-1   -1.557367346449616E-2   -4.289450572555562E-2   -1.644460668314239E-2   -4.240838084682429E-2    4.544419736642305E-1   -2.358062934536087E-1
 6.529368435450000E9     5.531655498972315E-1   -1.021943223969102E-1   -1.553422038305572E-2   -4.312720301967751E-2   -1.668343817898619E-2   -4.286879131539146E-2    4.539174463517024E-1   -2.366573774903314E-1
 6.529378171475000E9     5.528639083768792E-1   -1.031384675513785E-1   -1.598107331816280E-2   -4.330789964261628E-2   -1.690604857293004E-2   -4.302821375888459E-2    4.532606824384633E-1   -2.377809038529330E-1
 6.529387907500000E9     5.527221865307987E-1   -1.039794375702524E-1   -1.611035158044847E-2   -4.364623353115642E-2   -1.708754459697903E-2   -4.318653023602725E-2    4.527176080786030E-1   -2.386264554058887E-1
 6.529397643525000E9     5.525638514045552E-1   -1.047688392491635E-1   -1.609691156333558E-2   -4.393261428553692E-2   -1.727625292288873E-2   -4.349816060052713E-2    4.520959805979695E-1   -2.398664158057527E-1
 6.529407379550000E9     5.523147001769035E-1   -1.057018245286380E-1   -1.655484860176248E-2   -4.419421955987661E-2   -1.749928145837103E-2   -4.372631946249293E-2    4.514019304270913E-1   -2.408405795702811E-1
 6.529417115575000E9     5.520750859579079E-1   -1.064256262440263E-1   -1.669110601473321E-2   -4.439910338744744E-2   -1.769752164918014E-2   -4.409140642108544E-2    4.507066120486862E-1   -2.419046686873621E-1
 6.529426851600000E9     5.519061555769462E-1   -1.074291917506587E-1   -1.693663948118383E-2   -4.451968401580200E-2   -1.800499325747753E-2   -4.435203301388223E-2    4.500380685167746E-1   -2.427698672396609E-1
 6.529436587625000E9     5.516497642115632E-1   -1.082638864848477E-1   -1.707287139273064E-2   -4.503891047219925E-2   -1.814645699576985E-2   -4.459469064396703E-2    4.496602915135743E-1   -2.440696870902643E-1
 6.529446323650000E9     5.514448042620771E-1   -1.091954178968443E-1   -1.736721195333892E-2   -4.524511017731554E-2   -1.840518266008642E-2   -4.491289906276540E-2    4.487502295651718E-1   -2.449825202476383E-1
 6.529456059675000E9     5.512233308020412E-1   -1.100462033442276E-1   -1.753826533635352E-2   -4.554405943532589E-2   -1.873579042416977E-2   -4.522880602911149E-2    4.481584339886451E-1   -2.461190548750301E-1
 6.529465795700000E9     5.510040637146958E-1   -1.109279954484979E-1   -1.769883037033499E-2   -4.585292389209485E-2   -1.899876444497662E-2   -4.556129277394253E-2    4.475190502017365E-1   -2.469871441691785E-1
 6.529475531725000E9     5.508857804963347E-1   -1.118486602930831E-1   -1.808942420983166E-2   -4.604819650890901E-2   -1.920286907427808E-2   -4.579561212007310E-2    4.468137400922059E-1   -2.481413156083270E-1
 6.529485267750000E9     5.505556430128874E-1   -1.127767495985375E-1   -1.830797486840570E-2   -4.639362714577592E-2   -1.935804098739477E-2   -4.604332593055279E-2    4.461277565670017E-1   -2.492450317589375E-1
 6.529495003775000E9     5.503509527666069E-1   -1.136622471541967E-1   -1.850391536703782E-2   -4.667998250100081E-2   -1.974041679147718E-2   -4.634777441350488E-2    4.453512111808169E-1   -2.504255031661081E-1
 6.529504739800000E9     5.500866587355293E-1   -1.145110357809236E-1   -1.876132361727640E-2   -4.698411253155542E-2   -1.999340354968141E-2   -4.665905530757350E-2    4.445013646245571E-1   -2.512349091159387E-1
 6.529514475825000E9     5.499175577183643E-1   -1.153877294956103E-1   -1.910073984909760E-2   -4.729442618674038E-2   -2.016543892565103E-2   -4.696794357479066E-2    4.439363581190964E-1   -2.524978535950401E-1
 6.529524211850000E9     5.496829499924629E-1   -1.162712017668347E-1   -1.931954823380966E-2   -4.762153639188582E-2   -2.053026983101798E-2   -4.728273527154847E-2    4.431500914297776E-1   -2.536017805951610E-1
 6.529533947875000E9     5.493845016325163E-1   -1.171375803006173E-1   -1.946446420417911E-2   -4.788567119896252E-2   -2.070941654008556E-2   -4.759558258222553E-2    4.425040229804560E-1   -2.547548525579120E-1
 6.529543683900000E9     5.491260349534655E-1   -1.180959687981345E-1   -1.971540269063414E-2   -4.833679387680694E-2   -2.107292055694057E-2   -4.794282833602267E-2    4.418033317388442E-1   -2.557850777715122E-1
 6.529553419925000E9     5.489209963571650E-1   -1.191164445686975E-1   -2.016647327067440E-2   -4.863481087130237E-2   -2.136904192367070E-2   -4.817982293291095E-2    4.409060756508926E-1   -2.566637984830054E-1
 6.529563155950000E9     5.486003658259834E-1   -1.199872238518410E-1   -2.040705342420543E-2   -4.895961865753892E-2   -2.167897572138312E-2   -4.845064832369758E-2    4.400133399225221E-1   -2.579845443504531E-1
 6.529572891975000E9     5.484082975166075E-1   -1.209481425454599E-1   -2.072134415911402E-2   -4.930834101316091E-2   -2.196415073641256E-2   -4.889174141561461E-2    4.393690973098894E-1   -2.592025202562526E-1
 6.529582628000000E9     5.481912008115182E-1   -1.218072610620735E-1   -2.096144551664852E-2   -4.965525234483849E-2   -2.227519826365668E-2   -4.900964599002379E-2    4.384112499792789E-1   -2.604588216476994E-1
 6.529592364025000E9     5.478716103172759E-1   -1.226719888311836E-1   -2.126860160141104E-2   -5.003886837696706E-2   -2.249030871995948E-2   -4.954714906107053E-2    4.377476547870571E-1   -2.614902755171035E-1
 6.529602100050000E9     5.475214129013593E-1   -1.236235011515927E-1   -2.154165737797967E-2   -5.026344127978887E-2   -2.288453225095945E-2   -4.982111583782953E-2    4.369468892843733E-1   -2.625605293128012E-1
 6.529611836075000E9     5.474424841923070E-1   -1.245266062341767E-1   -2.195883651129108E-2   -5.074041121608709E-2   -2.326546250804743E-2   -5.022770317193351E-2    4.361117230266289E-1   -2.637746757536998E-1
 6.529621572100000E9     5.470824965702386E-1   -1.255593366165416E-1   -2.237078541457712E-2   -5.105493623902758E-2   -2.346129670929007E-2   -5.061440605554778E-2    4.351763682288914E-1   -2.650072848362386E-1
 6.529631308125000E9     5.467223101788486E-1   -1.264148095504304E-1   -2.248586531880381E-2   -5.140953529998224E-2   -2.383918400702872E-2   -5.097046872006258E-2    4.343214375765471E-1   -2.660234111006589E-1
 6.529641044150000E9     5.465155818666829E-1   -1.272595736423792E-1   -2.283877961282083E-2   -5.184479869799401E-2   -2.416423623466120E-2   -5.134646656216822E-2    4.333899187834439E-1   -2.673453689918425E-1
 6.529650780175000E9     5.463412871749118E-1   -1.283641259238676E-1   -2.319231218361162E-2   -5.228030482041637E-2   -2.447328439107301E-2   -5.162125308991074E-2    4.325439769634483E-1   -2.686366665734626E-1
 6.529660516200000E9     5.459507254375948E-1   -1.293358032689036E-1   -2.360378710698847E-2   -5.249699895731819E-2   -2.489460477815153E-2   -5.205016632942470E-2    4.314865760703930E-1   -2.697809462227940E-1
 6.529670252225000E9     5.456072257115538E-1   -1.301941217667215E-1   -2.388422537111536E-2   -5.298048919662413E-2   -2.525145228792958E-2   -5.238620068495140E-2    4.308392644420277E-1   -2.708992079789888E-1
 6.529679988250000E9     5.453774123155625E-1   -1.310946563276871E-1   -2.418044926499099E-2   -5.331259884957330E-2   -2.567751466986514E-2   -5.283846551228596E-2    4.297990068219458E-1   -2.719781422777283E-1
