#  HZ   S   RI   R     50.00 
! Rohde & Schwarz Vector Network Analyzer 
! Rohde-Schwarz,ZNB20-2Port,1311601062101988,3.16
! Created: UTC 3/21/2024, 12:55:19 AM
! freq[Hz]                re:S11                  im:S11                  re:S21                  im:S21                  re:S12                  im:S12                  re:S22                  im:S22
 6.528800486000000E9     5.606514564245079E-1   -5.416904613719227E-2   -7.660841021443747E-3   -3.189058475886863E-2   -8.418054972287524E-3   -3.177472011164471E-2    4.803962852752603E-1   -1.833851707714686E-1
 6.528810242675000E9     5.604973350904340E-1   -5.506915473558713E-2   -7.891172589898110E-3   -3.203418707075248E-2   -8.486246453023639E-3   -3.191291603403117E-2    4.800138898015358E-1   -1.842119380528386E-1
 6.528819999350000E9     5.605794056221817E-1   -5.576984867873876E-2   -7.945263543521203E-3   -3.222626690478641E-2   -8.658018804533199E-3   -3.198389093464007E-2    4.796435688267391E-1   -1.851003176078094E-1
 6.528829756025000E9     5.605078600062923E-1   -5.675309015004894E-2   -8.015388917011326E-3   -3.225849635128254E-2   -8.749328918972458E-3   -3.222702010242563E-2    4.795462454850885E-1   -1.858211501554152E-1
 6.528839512700000E9     5.601325038259795E-1   -5.745193468967992E-2   -8.067902881094321E-3   -3.255559444780595E-2   -8.906127040525534E-3   -3.231643833613983E-2    4.791360478748347E-1   -1.867258111047825E-1
 6.528849269375000E9     5.602723657687831E-1   -5.828816096737891E-2   -8.243079544200886E-3   -3.257343703235432E-2   -8.914681363725800E-3   -3.247696579478809E-2    4.785460641391510E-1   -1.878287421921687E-1
 6.528859026050000E9     5.601341637499258E-1   -5.901270664705095E-2   -8.314785859324049E-3   -3.283298696451406E-2   -8.981489150139002E-3   -3.267779723779262E-2    4.783317330656819E-1   -1.885264744381680E-1
 6.528868782725000E9     5.601731324586613E-1   -5.972777797515175E-2   -8.442435508092015E-3   -3.271762443580224E-2   -9.083688391378969E-3   -3.277427624322125E-2    4.778814041255864E-1   -1.893540479383113E-1
 6.528878539400000E9     5.599030744173407E-1   -6.058099003958627E-2   -8.568937737893781E-3   -3.308761379434510E-2   -9.170329120963933E-3   -3.286212581263114E-2    4.775244680678707E-1   -1.901171797674024E-1
 6.528888296075000E9     5.598939881792732E-1   -6.145511198587261E-2   -8.710191979623579E-3   -3.318941385605820E-2   -9.470858888830634E-3   -3.307888287781600E-2    4.771732180913599E-1   -1.910965414630371E-1
 6.528898052750000E9     5.596896721953133E-1   -6.227906501241229E-2   -8.761731811758291E-3   -3.341986550799959E-2   -9.411561454530426E-3   -3.312104333538937E-2    4.767436603822280E-1   -1.921003863359933E-1
 6.528907809425000E9     5.596023130237285E-1   -6.293231560833916E-2   -8.820700795191308E-3   -3.344654454537457E-2   -9.507682777289667E-3   -3.331257521326800E-2    4.763895223066434E-1   -1.928330450839073E-1
 6.528917566100000E9     5.595815624188232E-1   -6.391290749305460E-2   -9.009870084290281E-3   -3.366312337544409E-2   -9.658592604035003E-3   -3.352101868723825E-2    4.761079669829612E-1   -1.936314333389776E-1
 6.528927322775000E9     5.594914796686394E-1   -6.467565612621723E-2   -8.987962268655461E-3   -3.373933385240811E-2   -9.768266363678751E-3   -3.367376735706984E-2    4.754956065265956E-1   -1.945107734774529E-1
 6.528937079450000E9     5.594752196780343E-1   -6.547183826162008E-2   -9.092375091137729E-3   -3.404050663644505E-2   -9.962247853924621E-3   -3.376631194255321E-2    4.752347070686491E-1   -1.953151893003632E-1
 6.528946836125000E9     5.592149645693955E-1   -6.625851681570040E-2   -9.276048951017347E-3   -3.409201451662923E-2   -1.000547554222168E-2   -3.403602395631061E-2    4.749643314215469E-1   -1.961818340008728E-1
 6.528956592800000E9     5.591961958734203E-1   -6.710099346335577E-2   -9.321802018157214E-3   -3.421716308289663E-2   -1.010497866102135E-2   -3.416256676243781E-2    4.744675678101283E-1   -1.973069485621005E-1
 6.528966349475000E9     5.590663277127108E-1   -6.784170011279639E-2   -9.475381108263103E-3   -3.443648797269952E-2   -1.024694626738696E-2   -3.429906598216074E-2    4.740275655313556E-1   -1.979564668333148E-1
 6.528976106150000E9     5.590045048983449E-1   -6.865516510024093E-2   -9.566559183460784E-3   -3.459038123553422E-2   -1.042374456860443E-2   -3.445010821649591E-2    4.736063401442077E-1   -1.988711686339217E-1
 6.528985862825000E9     5.587810350377318E-1   -6.941231205275340E-2   -9.820772575207843E-3   -3.487599517334661E-2   -1.051770460331912E-2   -3.470676299686162E-2    4.733412535054435E-1   -1.997558060850129E-1
 6.528995619500000E9     5.587493810804482E-1   -7.032723927332687E-2   -9.819224428579880E-3   -3.498934594400799E-2   -1.061208684907426E-2   -3.494958243957973E-2    4.728828017357378E-1   -2.004442977775425E-1
 6.529005376175000E9     5.585424730835462E-1   -7.111365580229553E-2   -9.999318736790098E-3   -3.514485158283311E-2   -1.084492563545394E-2   -3.501979412500117E-2    4.725474021986303E-1   -2.013871026363850E-1
 6.529015132850000E9     5.585617040652354E-1   -7.183006107384873E-2   -1.010913648194897E-2   -3.537224687956857E-2   -1.091038813205076E-2   -3.511292978392348E-2    4.720301519503102E-1   -2.023634021914881E-1
 6.529024889525000E9     5.583513540872651E-1   -7.283338917180139E-2   -1.018394154371508E-2   -3.560356072947374E-2   -1.089515477294433E-2   -3.536685647540759E-2    4.716735803837093E-1   -2.033262631608593E-1
 6.529034646200000E9     5.582220803570103E-1   -7.354250937038795E-2   -1.018316875760203E-2   -3.562017434763939E-2   -1.112742334420995E-2   -3.549201279024138E-2    4.711789722649411E-1   -2.042149883590800E-1
 6.529044402875000E9     5.581277844494584E-1   -7.439544331156440E-2   -1.047270584970750E-2   -3.586002029069144E-2   -1.116079567932999E-2   -3.570433059319027E-2    4.708029371949965E-1   -2.049080465096079E-1
 6.529054159550000E9     5.580244285386100E-1   -7.521624248036250E-2   -1.048554879590683E-2   -3.615464808592458E-2   -1.137419659355228E-2   -3.593920463004481E-2    4.704259572629513E-1   -2.059900588081481E-1
 6.529063916225000E9     5.579702583916775E-1   -7.598086077117282E-2   -1.076228751789555E-2   -3.631628138460058E-2   -1.152174545065502E-2   -3.606468979727333E-2    4.699276022023117E-1   -2.069149943686023E-1
 6.529073672900000E9     5.577725032600110E-1   -7.691633486074369E-2   -1.078577163805822E-2   -3.627797634824219E-2   -1.164618808225732E-2   -3.619665648137071E-2    4.695136972506936E-1   -2.077658531758381E-1
 6.529083429575000E9     5.576564250339617E-1   -7.760194236201277E-2   -1.085122599708162E-2   -3.665937408313862E-2   -1.182510386981548E-2   -3.641067127208932E-2    4.690902056340455E-1   -2.086993108015416E-1
 6.529093186250000E9     5.574910876697989E-1   -7.850232594148024E-2   -1.097631458859364E-2   -3.676621020720288E-2   -1.187627837897620E-2   -3.657660104531011E-2    4.687007556889797E-1   -2.095802918794309E-1
 6.529102942925000E9     5.573581974394021E-1   -7.926421868040051E-2   -1.110822620526229E-2   -3.704895233487368E-2   -1.201708130927525E-2   -3.680946609986063E-2    4.681438488289487E-1   -2.106153338632773E-1
 6.529112699600000E9     5.574136563633121E-1   -8.005172408215534E-2   -1.120537745662506E-2   -3.701864411498823E-2   -1.216109423187983E-2   -3.693964753519447E-2    4.676060755548685E-1   -2.114513177521854E-1
 6.529122456275000E9     5.571572479572622E-1   -8.087171775589984E-2   -1.150973546103926E-2   -3.735424860829668E-2   -1.234000371944482E-2   -3.712981254464075E-2    4.671899304058982E-1   -2.124471633090911E-1
 6.529132212950000E9     5.571019914982979E-1   -8.183607561752571E-2   -1.160835789032385E-2   -3.768868800531270E-2   -1.249673516259628E-2   -3.741298455858588E-2    4.666618475746297E-1   -2.133721307716366E-1
 6.529141969625000E9     5.568868581905501E-1   -8.262325915408063E-2   -1.174575322859211E-2   -3.783727456862728E-2   -1.260797846639323E-2   -3.752749077161672E-2    4.662888766766768E-1   -2.141285961938796E-1
 6.529151726300000E9     5.568035923913521E-1   -8.345501134542933E-2   -1.185427181637121E-2   -3.780098272363849E-2   -1.275584382429379E-2   -3.773365117289845E-2    4.658169815769907E-1   -2.150170522605377E-1
 6.529161482975000E9     5.565892987796757E-1   -8.419145754786665E-2   -1.207796437840406E-2   -3.817448834944356E-2   -1.296233903264043E-2   -3.791044960638068E-2    4.653012688727668E-1   -2.160623667015312E-1
 6.529171239650000E9     5.564331294533580E-1   -8.501686653336935E-2   -1.221477417332608E-2   -3.842959347202873E-2   -1.309861897259258E-2   -3.817282134769179E-2    4.647853325031324E-1   -2.169899566668717E-1
 6.529180996325000E9     5.563040852177550E-1   -8.589495850339750E-2   -1.225994382720698E-2   -3.848819134323748E-2   -1.320216353031275E-2   -3.830984231651706E-2    4.644126261825423E-1   -2.178506550742972E-1
 6.529190753000000E9     5.561966469658888E-1   -8.676092393167890E-2   -1.264281788798265E-2   -3.879762041793914E-2   -1.337560597685205E-2   -3.855211008261653E-2    4.639172829808775E-1   -2.188349863369656E-1
 6.529200509675000E9     5.559443293784710E-1   -8.761608549511449E-2   -1.254036650256093E-2   -3.899151462572723E-2   -1.346359433008179E-2   -3.882289657621029E-2    4.633818179376488E-1   -2.197406350748261E-1
 6.529210266350000E9     5.558160552532576E-1   -8.835918185442297E-2   -1.287580355801755E-2   -3.912533433156629E-2   -1.370171651776901E-2   -3.895311025181029E-2    4.629631865346785E-1   -2.208110008754909E-1
 6.529220023025000E9     5.556882404295536E-1   -8.932513134637803E-2   -1.299409320286337E-2   -3.953155178359465E-2   -1.377232585835877E-2   -3.919841951721889E-2    4.624232605312357E-1   -2.215545914879052E-1
 6.529229779700000E9     5.554940936433719E-1   -9.003946054766855E-2   -1.304397037189801E-2   -3.966793129276552E-2   -1.396704948542772E-2   -3.939907933454589E-2    4.618291508761919E-1   -2.225767802470778E-1
 6.529239536375000E9     5.553116849073787E-1   -9.093744970645107E-2   -1.317650385206171E-2   -3.978963231602205E-2   -1.418045716705677E-2   -3.961816849629947E-2    4.614135651217489E-1   -2.236151369238354E-1
 6.529249293050000E9     5.552008350207509E-1   -9.186002465052272E-2   -1.330344260025288E-2   -3.998575797204847E-2   -1.433555205330481E-2   -3.982976453665852E-2    4.608185741060400E-1   -2.245109464507835E-1
 6.529259049725000E9     5.551301135641935E-1   -9.254428474844262E-2   -1.368228585778593E-2   -4.028648259487955E-2   -1.461711359296224E-2   -4.002513042858891E-2    4.602379315492841E-1   -2.254791181683308E-1
 6.529268806400000E9     5.548677422690074E-1   -9.335582022508535E-2   -1.377956158107888E-2   -4.051594168827768E-2   -1.469931216937246E-2   -4.022994053931717E-2    4.596250482851106E-1   -2.264688644288746E-1
 6.529278563075000E9     5.548827822555273E-1   -9.432540635784957E-2   -1.399032082255055E-2   -4.072364783358120E-2   -1.482307086647698E-2   -4.053200956621028E-2    4.592721940766507E-1   -2.273133115730956E-1
 6.529288319750000E9     5.546106054041201E-1   -9.516762567759696E-2   -1.425641190853559E-2   -4.092871320043489E-2   -1.493566133232107E-2   -4.070951076146425E-2    4.585476328846505E-1   -2.284822239228639E-1
 6.529298076425000E9     5.543068118825404E-1   -9.600681289636714E-2   -1.427919244700408E-2   -4.142159324742815E-2   -1.530300332417419E-2   -4.099447683498177E-2    4.580279429930557E-1   -2.294176509545162E-1
 6.529307833100000E9     5.542437200236395E-1   -9.682154034686204E-2   -1.445136342873182E-2   -4.147635987280722E-2   -1.546704572393796E-2   -4.128251493619939E-2    4.577403935290905E-1   -2.304280211906167E-1
 6.529317589775000E9     5.540181549382114E-1   -9.761529649341427E-2   -1.460720347671687E-2   -4.164079580224952E-2   -1.565939099061945E-2   -4.146986165104913E-2    4.570008120724161E-1   -2.314052966384631E-1
 6.529327346450000E9     5.538270542577423E-1   -9.859227659818233E-2   -1.482113215853010E-2   -4.201262189654253E-2   -1.576752036747967E-2   -4.171070891193857E-2    4.562969507634281E-1   -2.325027115048245E-1
 6.529337103125000E9     5.536215029255606E-1   -9.949820393675374E-2   -1.506492964605232E-2   -4.219775608987376E-2   -1.604389933992100E-2   -4.191258725118243E-2    4.558901104473102E-1   -2.333974889120344E-1
 6.529346859800000E9     5.534319682750281E-1   -1.002935133247132E-1   -1.516353555255401E-2   -4.252415629093671E-2   -1.623885049957543E-2   -4.219637467371996E-2    4.552404459481377E-1   -2.344765024759885E-1
 6.529356616475000E9     5.533719568317709E-1   -1.011459455789266E-1   -1.542206703747806E-2   -4.274903904021477E-2   -1.647951466831253E-2   -4.239103445774300E-2    4.546542247954982E-1   -2.354201023883699E-1
 6.529366373150000E9     5.530740506054133E-1   -1.020387896884146E-1   -1.566114584605578E-2   -4.284939361904193E-2   -1.654119943751307E-2   -4.262601369618525E-2    4.540103995762173E-1   -2.364532853516297E-1
 6.529376129825000E9     5.529225571415810E-1   -1.029311355846304E-1   -1.582579099791076E-2   -4.320849323802185E-2   -1.694449155105525E-2   -4.282435761567730E-2    4.534253163624988E-1   -2.374448142210698E-1
 6.529385886500000E9     5.527351768961609E-1   -1.036561914486200E-1   -1.597353134160388E-2   -4.350801372450218E-2   -1.712977694040364E-2   -4.330449362232622E-2    4.527201951138161E-1   -2.383929937767847E-1
 6.529395643175000E9     5.526175178571834E-1   -1.046656776746533E-1   -1.628451019168259E-2   -4.354398295876741E-2   -1.739521139256332E-2   -4.343517453881790E-2    4.522607211556832E-1   -2.394867574797958E-1
 6.529405399850000E9     5.523247979345008E-1   -1.054815169715431E-1   -1.632333539563077E-2   -4.409343741674156E-2   -1.743986692993329E-2   -4.371224402305573E-2    4.516518476043897E-1   -2.405392037958768E-1
 6.529415156525000E9     5.520745937388754E-1   -1.062162757806284E-1   -1.651132613682753E-2   -4.413617270858498E-2   -1.773002760852264E-2   -4.404976199343513E-2    4.508215782761225E-1   -2.416239362481432E-1
 6.529424913200000E9     5.519013059106560E-1   -1.072857499818040E-1   -1.682557145560641E-2   -4.440559360521002E-2   -1.786249473730470E-2   -4.423503411469033E-2    4.502725603811217E-1   -2.425653623785219E-1
 6.529434669875000E9     5.517295711551662E-1   -1.081750811873745E-1   -1.711368936179329E-2   -4.494007049633638E-2   -1.811651068013038E-2   -4.459470084307584E-2    4.496149184205202E-1   -2.435583695816098E-1
 6.529444426550000E9     5.514346237460254E-1   -1.089998307690192E-1   -1.730069814793957E-2   -4.521369378614198E-2   -1.836716132128434E-2   -4.478160879442136E-2    4.488495322341060E-1   -2.448191289684849E-1
 6.529454183225000E9     5.512742430321480E-1   -1.098510988847607E-1   -1.756708618374854E-2   -4.541371601192343E-2   -1.862845768945549E-2   -4.506056751627557E-2    4.482474586862557E-1   -2.456094798940984E-1
 6.529463939900000E9     5.511150841081994E-1   -1.107687590338135E-1   -1.779567735330037E-2   -4.584194797843837E-2   -1.881661504827020E-2   -4.527067777100710E-2    4.474823354091071E-1   -2.467371378107433E-1
 6.529473696575000E9     5.508798123814632E-1   -1.116897268239439E-1   -1.795229665264528E-2   -4.599639874051033E-2   -1.913727062949900E-2   -4.574966459565648E-2    4.469369366494358E-1   -2.479328003717195E-1
 6.529483453250000E9     5.506361510216651E-1   -1.126064744775058E-1   -1.826030055586284E-2   -4.639463394839743E-2   -1.937918226223143E-2   -4.595201790967464E-2    4.461359230994247E-1   -2.490523178155630E-1
 6.529493209925000E9     5.504081786205827E-1   -1.134489812749600E-1   -1.850752154315255E-2   -4.654160438736572E-2   -1.960941588865578E-2   -4.627659263799830E-2    4.455736665194887E-1   -2.498663662755918E-1
 6.529502966600000E9     5.502452584136379E-1   -1.142913521927956E-1   -1.882850678212380E-2   -4.700688384447042E-2   -1.976997391916474E-2   -4.656727345988762E-2    4.447899684783721E-1   -2.509944867820631E-1
 6.529512723275000E9     5.499335291166175E-1   -1.151804710809184E-1   -1.887856584441676E-2   -4.723410315126456E-2   -2.014544682356238E-2   -4.675345275222588E-2    4.441889384270279E-1   -2.521733051023156E-1
 6.529522479950000E9     5.496919984072803E-1   -1.161489817108994E-1   -1.918912874798764E-2   -4.757534159122711E-2   -2.042266587137369E-2   -4.717846870932234E-2    4.433290628475995E-1   -2.532173796945489E-1
 6.529532236625000E9     5.494764774214933E-1   -1.170579810081627E-1   -1.952356865790535E-2   -4.792845752097281E-2   -2.072475632082347E-2   -4.747205574011191E-2    4.426030682767404E-1   -2.543703218015793E-1
 6.529541993300000E9     5.491796635474873E-1   -1.179026740209577E-1   -1.977193163600969E-2   -4.817192452261590E-2   -2.098840665839389E-2   -4.776748992605885E-2    4.418285993481481E-1   -2.556271893624477E-1
 6.529551749975000E9     5.489975487465083E-1   -1.188641689537589E-1   -2.007614178862867E-2   -4.841983043364519E-2   -2.130771983881770E-2   -4.803366727673103E-2    4.408829887532486E-1   -2.564708189031735E-1
 6.529561506650000E9     5.487547408991857E-1   -1.197052007255891E-1   -2.031723349543290E-2   -4.892008275392479E-2   -2.154636381675631E-2   -4.844311142646794E-2    4.401595720673788E-1   -2.576837839953099E-1
 6.529571263325000E9     5.484369401569770E-1   -1.206140995274789E-1   -2.064960266654356E-2   -4.915576811491825E-2   -2.189047181007892E-2   -4.881508795160697E-2    4.393792856358307E-1   -2.587920642353723E-1
 6.529581020000000E9     5.481698390453672E-1   -1.214839744723189E-1   -2.090731200050460E-2   -4.940752054681003E-2   -2.214932524217855E-2   -4.910009609192592E-2    4.387568863279342E-1   -2.601087687807845E-1
 6.529590776675000E9     5.479847785658638E-1   -1.225358423861719E-1   -2.117442561049504E-2   -4.991739583393182E-2   -2.242779128959541E-2   -4.933476153576725E-2    4.376833438484886E-1   -2.611865973234931E-1
 6.529600533350000E9     5.476372249623361E-1   -1.232824878558192E-1   -2.159061214422275E-2   -5.021542815857460E-2   -2.269957124468680E-2   -4.969753281622513E-2    4.370281871860100E-1   -2.621034232388303E-1
 6.529610290025000E9     5.474130030537391E-1   -1.243357506172919E-1   -2.169676103619086E-2   -5.064297140150869E-2   -2.313980703185637E-2   -5.018388129250486E-2    4.361894149980216E-1   -2.634046543241143E-1
 6.529620046700000E9     5.470880971532429E-1   -1.252812749695554E-1   -2.202910930845173E-2   -5.096954353335633E-2   -2.343949660962238E-2   -5.042455664287745E-2    4.352427957968464E-1   -2.646963383531063E-1
 6.529629803375000E9     5.469053852470328E-1   -1.261567519566656E-1   -2.261715326087818E-2   -5.127445852498619E-2   -2.380739744574403E-2   -5.083022041345234E-2    4.343822590405466E-1   -2.658253371635065E-1
 6.529639560050000E9     5.464446579026937E-1   -1.271067121615810E-1   -2.279754522562211E-2   -5.156045962824287E-2   -2.407700268138266E-2   -5.115587843967714E-2    4.334603148994499E-1   -2.670293326989063E-1
 6.529649316725000E9     5.462661451482272E-1   -1.280949508537705E-1   -2.298721859381742E-2   -5.197448443069047E-2   -2.446001149475742E-2   -5.151358938418339E-2    4.326386714819593E-1   -2.680495613703957E-1
 6.529659073400000E9     5.459692546431600E-1   -1.290899388204213E-1   -2.338957185861600E-2   -5.244812986136688E-2   -2.480055802412764E-2   -5.200990685682084E-2    4.317630650925977E-1   -2.693309437179237E-1
 6.529668830075000E9     5.457144462383333E-1   -1.299061916188285E-1   -2.377678693998112E-2   -5.286200136693768E-2   -2.507802244542975E-2   -5.229124761631205E-2    4.307892433369893E-1   -2.706122042326433E-1
 6.529678586750000E9     5.453202236159279E-1   -1.309383131434635E-1   -2.421410501634361E-2   -5.326623629635326E-2   -2.553605716505102E-2   -5.256656304105636E-2    4.298403346722302E-1   -2.717624511534504E-1
