#  HZ   S   RI   R     50.00 
! Rohde & Schwarz Vector Network Analyzer 
! Rohde-Schwarz,ZNB20-2Port,1311601062101988,3.16
! Created: UTC 3/21/2024, 12:55:22 AM
! freq[Hz]                re:S11                  im:S11                  re:S21                  im:S21                  re:S12                  im:S12                  re:S22                  im:S22
 6.528800878000000E9     5.606375985127583E-1   -5.421607640237123E-2   -7.826147027393076E-3   -3.185125678206967E-2   -8.464579845850443E-3   -3.176094125462229E-2    4.803438486627308E-1   -1.834159984996414E-1
 6.528810637350000E9     5.606107487089766E-1   -5.510837912332345E-2   -7.942542017377631E-3   -3.212447467457001E-2   -8.539693524288142E-3   -3.187658476693605E-2    4.800985219235274E-1   -1.843515523722295E-1
 6.528820396700000E9     5.605713041331531E-1   -5.575074970364759E-2   -7.848140944322209E-3   -3.206350161219272E-2   -8.630507300780207E-3   -3.204566624323900E-2    4.796052416764019E-1   -1.850338306627822E-1
 6.528830156050000E9     5.604419689748122E-1   -5.671534948177671E-2   -8.119015536498273E-3   -3.231504682553232E-2   -8.741522669379390E-3   -3.220547733603939E-2    4.793305382442038E-1   -1.860269119146692E-1
 6.528839915400000E9     5.603468236510555E-1   -5.740951202372498E-2   -8.050513113109517E-3   -3.237942583394313E-2   -8.822008576572372E-3   -3.226176066385624E-2    4.791731945825763E-1   -1.867708461734173E-1
 6.528849674750000E9     5.601188997748416E-1   -5.831386633909442E-2   -8.242487863894629E-3   -3.248209881617285E-2   -8.927014469994070E-3   -3.247769660612085E-2    4.786581525500536E-1   -1.875223937839012E-1
 6.528859434100000E9     5.601888167432181E-1   -5.908951003633666E-2   -8.341419887332351E-3   -3.264760365552629E-2   -9.090737723239513E-3   -3.249240598585977E-2    4.782326100546554E-1   -1.884614227819520E-1
 6.528869193450000E9     5.599993578078412E-1   -5.991810261860190E-2   -8.381472240439270E-3   -3.299663917121847E-2   -9.117480284273472E-3   -3.271663615913720E-2    4.778769555891263E-1   -1.892984074197336E-1
 6.528878952800000E9     5.599304506463841E-1   -6.063026507987555E-2   -8.461782443502607E-3   -3.294737664736796E-2   -9.295875692418229E-3   -3.298264294608391E-2    4.775248615479912E-1   -1.900267216334679E-1
 6.528888712150000E9     5.598938594001864E-1   -6.151394730155646E-2   -8.756857232370291E-3   -3.313760988124002E-2   -9.290770862130458E-3   -3.310914631503509E-2    4.771995175460240E-1   -1.911754370522047E-1
 6.528898471500000E9     5.598274386695596E-1   -6.236070731472913E-2   -8.662754442132055E-3   -3.339539325755809E-2   -9.406901224095926E-3   -3.321745442239231E-2    4.768033168034095E-1   -1.919126080860409E-1
 6.528908230850000E9     5.596769454310090E-1   -6.296502833157439E-2   -8.833945319654887E-3   -3.358184463406274E-2   -9.560146677319133E-3   -3.332138131999625E-2    4.764112002348295E-1   -1.926555150704282E-1
 6.528917990200000E9     5.596405001533944E-1   -6.379935854241509E-2   -9.026692496318163E-3   -3.363709689471450E-2   -9.721577652922791E-3   -3.351338492712783E-2    4.761104861975501E-1   -1.935454704918622E-1
 6.528927749550000E9     5.594949162158044E-1   -6.463471359049019E-2   -9.169631734137847E-3   -3.397869538974307E-2   -9.863930390574382E-3   -3.363166335207129E-2    4.756850745352807E-1   -1.945572695740648E-1
 6.528937508900000E9     5.594444336146660E-1   -6.546963215064441E-2   -9.135455975623876E-3   -3.407328011249994E-2   -9.932374691347457E-3   -3.386295765183660E-2    4.751662129944705E-1   -1.952963519340405E-1
 6.528947268250000E9     5.593535492644861E-1   -6.631717387985085E-2   -9.260791041200572E-3   -3.405389489021675E-2   -1.008596553063430E-2   -3.405682856949228E-2    4.747620558018356E-1   -1.961630310303427E-1
 6.528957027600000E9     5.591678720043074E-1   -6.707895520477986E-2   -9.458443703090872E-3   -3.426847535236414E-2   -1.009292958600846E-2   -3.420468212302832E-2    4.744247894934759E-1   -1.971101034367109E-1
 6.528966786950000E9     5.591723193577921E-1   -6.781839473957549E-2   -9.444025853595862E-3   -3.455377728826236E-2   -1.031572913500989E-2   -3.432294370050077E-2    4.739790294787238E-1   -1.979481676714746E-1
 6.528976546300000E9     5.588660807757326E-1   -6.865597936791813E-2   -9.617151994662896E-3   -3.462477194918154E-2   -1.035534343733422E-2   -3.454406635150086E-2    4.736466757832228E-1   -1.989397922396128E-1
 6.528986305650000E9     5.588385461103385E-1   -6.946105014528306E-2   -9.667370487682236E-3   -3.474425461037441E-2   -1.044998828096993E-2   -3.463674702772670E-2    4.732963330065293E-1   -1.996069431141756E-1
 6.528996065000000E9     5.587349758385590E-1   -7.026904379419462E-2   -9.608058851558070E-3   -3.507596786297149E-2   -1.059610160481137E-2   -3.481506906564451E-2    4.728856473088988E-1   -2.004986293613223E-1
 6.529005824350000E9     5.586988930881325E-1   -7.114216843478634E-2   -1.005565105766358E-2   -3.533478075135528E-2   -1.071934288180495E-2   -3.496448573750703E-2    4.724128571592092E-1   -2.014759619058223E-1
 6.529015583700000E9     5.584332804277080E-1   -7.184923783270016E-2   -1.001134496273269E-2   -3.537954724268583E-2   -1.090366777334394E-2   -3.520435343773432E-2    4.720717502994241E-1   -2.023133166350385E-1
 6.529025343050000E9     5.583848861051830E-1   -7.266774451212736E-2   -1.018654797604170E-2   -3.547011243934260E-2   -1.099514562457469E-2   -3.533280064556740E-2    4.716156469872416E-1   -2.033290714834914E-1
 6.529035102400000E9     5.583257822656594E-1   -7.359654947413555E-2   -1.037148350338838E-2   -3.570410054409522E-2   -1.112041186251605E-2   -3.545734618231292E-2    4.711538096257933E-1   -2.041931887283909E-1
 6.529044861750000E9     5.581829750910773E-1   -7.449899038188626E-2   -1.041565357572432E-2   -3.573558439917098E-2   -1.124056287918508E-2   -3.571138972697585E-2    4.707050140815485E-1   -2.050059324479195E-1
 6.529054621100000E9     5.580480979804435E-1   -7.525278809927875E-2   -1.059858877528256E-2   -3.588605181815639E-2   -1.135977029419416E-2   -3.588678110856523E-2    4.701327612325336E-1   -2.059627182979104E-1
 6.529064380450000E9     5.580087335007620E-1   -7.600440976519846E-2   -1.072664811798115E-2   -3.627891570392079E-2   -1.148643506634952E-2   -3.590756866117478E-2    4.698874927248500E-1   -2.067472601619946E-1
 6.529074139800000E9     5.578468916940295E-1   -7.681417843044291E-2   -1.077255929791145E-2   -3.635737815251663E-2   -1.163119500334219E-2   -3.626307022211218E-2    4.694609484321695E-1   -2.075773719266360E-1
 6.529083899150000E9     5.576560464683974E-1   -7.761479081515611E-2   -1.083670478630392E-2   -3.665250813611899E-2   -1.174626045337641E-2   -3.636329350447876E-2    4.689999947379981E-1   -2.086873727424724E-1
 6.529093658500000E9     5.574646894548251E-1   -7.850636457367353E-2   -1.089687855964636E-2   -3.683114786989548E-2   -1.187849434966184E-2   -3.653289889019468E-2    4.685011044472298E-1   -2.095445420940257E-1
 6.529103417850000E9     5.573682722719637E-1   -7.921213332669053E-2   -1.105542654133142E-2   -3.688862383775966E-2   -1.197219004775275E-2   -3.672293915687975E-2    4.680970224116060E-1   -2.104383880852923E-1
 6.529113177200000E9     5.573254112347867E-1   -8.011673318463619E-2   -1.136840688099692E-2   -3.717405520988488E-2   -1.221568191506803E-2   -3.691513013874381E-2    4.676488038502310E-1   -2.113778186498889E-1
 6.529122936550000E9     5.571726627729702E-1   -8.084742746838403E-2   -1.139161678329008E-2   -3.748287675517004E-2   -1.235062034937957E-2   -3.714799609737899E-2    4.671990563625246E-1   -2.122942046792982E-1
 6.529132695900000E9     5.569316714732705E-1   -8.175914643121604E-2   -1.161764529619447E-2   -3.746409326382539E-2   -1.251977648646871E-2   -3.740568572551052E-2    4.666511144268060E-1   -2.132375149327967E-1
 6.529142455250000E9     5.568669955415211E-1   -8.252887428007195E-2   -1.180434164481342E-2   -3.767380891751771E-2   -1.263622284613035E-2   -3.754456849844665E-2    4.662810905195813E-1   -2.142638692653789E-1
 6.529152214600000E9     5.566719665686335E-1   -8.347254010793273E-2   -1.174445880289068E-2   -3.790934081462247E-2   -1.268105634150828E-2   -3.774442562802435E-2    4.657217376918903E-1   -2.151262492883604E-1
 6.529161973950000E9     5.565365785215325E-1   -8.421934920147846E-2   -1.206158626643477E-2   -3.818708676196791E-2   -1.291003518306987E-2   -3.803204332463704E-2    4.652735251624605E-1   -2.159475036618492E-1
 6.529171733300000E9     5.565088064432091E-1   -8.515978110913433E-2   -1.213198502318077E-2   -3.818661273181594E-2   -1.305731585175803E-2   -3.811529759086021E-2    4.648021110503390E-1   -2.167927145622936E-1
 6.529181492650000E9     5.563818816385617E-1   -8.593561414389250E-2   -1.242298228519889E-2   -3.847545220482654E-2   -1.320392865846128E-2   -3.842534749976198E-2    4.642864803811930E-1   -2.178694310540331E-1
 6.529191252000000E9     5.562435900409439E-1   -8.672338529757799E-2   -1.248678415064058E-2   -3.862516957364016E-2   -1.347823054957471E-2   -3.855395160454313E-2    4.638880909185469E-1   -2.189349079103782E-1
 6.529201011350000E9     5.559245472305895E-1   -8.759884607728335E-2   -1.254456445046976E-2   -3.896925139226497E-2   -1.353718329601546E-2   -3.883840402891361E-2    4.632969881789763E-1   -2.197663413531092E-1
 6.529210770700000E9     5.558835314257135E-1   -8.841236058898724E-2   -1.274938839715778E-2   -3.915745231939658E-2   -1.369685391422706E-2   -3.897992023877116E-2    4.627732179528717E-1   -2.206471231145046E-1
 6.529220530050000E9     5.557324241624578E-1   -8.918392138736800E-2   -1.299706314868969E-2   -3.951102552387066E-2   -1.384357659908234E-2   -3.913362705486006E-2    4.623672161350913E-1   -2.215987572782233E-1
 6.529230289400000E9     5.554261283820712E-1   -9.007966992299467E-2   -1.302510834142403E-2   -3.952219466051562E-2   -1.391912621331795E-2   -3.929689591231435E-2    4.616620681665135E-1   -2.227189114213627E-1
 6.529240048750000E9     5.554434812183479E-1   -9.082307841082801E-2   -1.328671761876347E-2   -3.977528723404358E-2   -1.422987754739103E-2   -3.967074450816583E-2    4.612648522023254E-1   -2.236038121377985E-1
 6.529249808100000E9     5.551814792700469E-1   -9.180816235164349E-2   -1.327232742203210E-2   -3.998835002287461E-2   -1.432717300533797E-2   -3.992798337899491E-2    4.607484338648835E-1   -2.245605663539869E-1
 6.529259567450000E9     5.550274532637498E-1   -9.262323691304018E-2   -1.359287285759563E-2   -4.039749399419600E-2   -1.449898107159396E-2   -4.006807677885616E-2    4.601500155236715E-1   -2.255273567166808E-1
 6.529269326800000E9     5.549021964319897E-1   -9.350076999976364E-2   -1.370150420941226E-2   -4.066644135447302E-2   -1.471573377167752E-2   -4.043211383004029E-2    4.597559585372477E-1   -2.264359079440916E-1
 6.529279086150000E9     5.546362154896558E-1   -9.435878819321726E-2   -1.386648197433560E-2   -4.071460763160491E-2   -1.490066622817058E-2   -4.046986298053579E-2    4.590497440497175E-1   -2.274477075268299E-1
 6.529288845500000E9     5.545525180762673E-1   -9.521489351972158E-2   -1.421084561553760E-2   -4.099953452153230E-2   -1.506303423996065E-2   -4.070981688070496E-2    4.586568958937068E-1   -2.284890103044666E-1
 6.529298604850000E9     5.544652904924660E-1   -9.596632801772538E-2   -1.416854220232252E-2   -4.129178176624836E-2   -1.523034449317551E-2   -4.094638197993383E-2    4.580776452413250E-1   -2.294749263499172E-1
 6.529308364200000E9     5.541600422064648E-1   -9.676835313818830E-2   -1.437762136296723E-2   -4.155296710121974E-2   -1.550355002138251E-2   -4.113522684193072E-2    4.574148259732576E-1   -2.304367849483297E-1
 6.529318123550000E9     5.540255428415577E-1   -9.777623604337719E-2   -1.460342265414335E-2   -4.165835370853913E-2   -1.571291784068838E-2   -4.135634922088988E-2    4.569927081885736E-1   -2.313788399452350E-1
 6.529327882900000E9     5.538515785282677E-1   -9.858488167855639E-2   -1.479654099975669E-2   -4.195060369072530E-2   -1.587071961179382E-2   -4.159599511346547E-2    4.562063684771480E-1   -2.325019303059725E-1
 6.529337642250000E9     5.536681888851274E-1   -9.953996916733275E-2   -1.497001553953758E-2   -4.201132532793449E-2   -1.610283804478843E-2   -4.192178487980217E-2    4.556266735244621E-1   -2.334034671635593E-1
 6.529347401600000E9     5.535691683741210E-1   -1.002720305726418E-1   -1.525061116094610E-2   -4.254009171188479E-2   -1.618944893671391E-2   -4.217031746411418E-2    4.550869400654007E-1   -2.343410040621784E-1
 6.529357160950000E9     5.532592123808782E-1   -1.011220914364730E-1   -1.549364964468565E-2   -4.269360898069741E-2   -1.645810405333845E-2   -4.231722990407492E-2    4.546278296924486E-1   -2.352825395790144E-1
 6.529366920300000E9     5.531345026695456E-1   -1.021292250529566E-1   -1.554152527127960E-2   -4.295745144533546E-2   -1.658480289418435E-2   -4.263612170633436E-2    4.539344871747624E-1   -2.363461264491957E-1
 6.529376679650000E9     5.529796205090179E-1   -1.028615489234010E-1   -1.579027937921609E-2   -4.325047365897736E-2   -1.683647701375091E-2   -4.287111184672057E-2    4.533758186806323E-1   -2.374392903963866E-1
 6.529386439000000E9     5.525944234467365E-1   -1.036991054001900E-1   -1.610326120448789E-2   -4.341573994194191E-2   -1.711402738817000E-2   -4.316620559655598E-2    4.526855910653043E-1   -2.384102465183759E-1
 6.529396198350000E9     5.525525020986869E-1   -1.046053472451041E-1   -1.615012981473256E-2   -4.374857480298446E-2   -1.716421799672646E-2   -4.343806321246929E-2    4.521154180821025E-1   -2.394281061538347E-1
 6.529405957700000E9     5.523811652627845E-1   -1.054569324202169E-1   -1.637742900878460E-2   -4.383852941457385E-2   -1.759859283508124E-2   -4.377418155702519E-2    4.514489269222506E-1   -2.404738145020183E-1
 6.529415717050000E9     5.521639552524087E-1   -1.062766853581032E-1   -1.663673206469116E-2   -4.432246407767911E-2   -1.771710392004093E-2   -4.393041790519824E-2    4.508163870602201E-1   -2.414217933520135E-1
 6.529425476400000E9     5.519156062758145E-1   -1.072593202628498E-1   -1.686972200245206E-2   -4.451110358028252E-2   -1.794288514627368E-2   -4.419059396819638E-2    4.502165191351646E-1   -2.426393879738187E-1
 6.529435235750000E9     5.516948863593332E-1   -1.081934302843724E-1   -1.699889897625921E-2   -4.485097881895950E-2   -1.812342860896766E-2   -4.449784750057000E-2    4.496377731725964E-1   -2.436344373857845E-1
 6.529444995100000E9     5.514452537557426E-1   -1.088924585319640E-1   -1.731257311260082E-2   -4.517236474414609E-2   -1.844218342747162E-2   -4.482928628359563E-2    4.488271883692987E-1   -2.447048992335897E-1
 6.529454754450000E9     5.512078934355683E-1   -1.099243336326122E-1   -1.748087213664579E-2   -4.547383317507718E-2   -1.860045601684146E-2   -4.504283592899688E-2    4.483211252966632E-1   -2.457114765107091E-1
 6.529464513800000E9     5.510354981385952E-1   -1.108788052984059E-1   -1.776562258363392E-2   -4.585812299569286E-2   -1.892986315095093E-2   -4.537887935739458E-2    4.476146289426876E-1   -2.468761620596542E-1
 6.529474273150000E9     5.508175827692662E-1   -1.116166363879474E-1   -1.811954503843559E-2   -4.607604751803485E-2   -1.923584343755958E-2   -4.557845752055596E-2    4.468425955222013E-1   -2.477248345132596E-1
 6.529484032500000E9     5.505274585537813E-1   -1.125881195993423E-1   -1.825806613109065E-2   -4.635295245302740E-2   -1.937262195213437E-2   -4.590378597325357E-2    4.462043918421130E-1   -2.490116965683285E-1
 6.529493791850000E9     5.504107082690460E-1   -1.135147657135367E-1   -1.854271661309156E-2   -4.665150534895227E-2   -1.950467719774860E-2   -4.628218911187801E-2    4.454013102877867E-1   -2.499667195200477E-1
 6.529503551200000E9     5.502445902521125E-1   -1.142961363417691E-1   -1.891720662627975E-2   -4.703311228653436E-2   -1.987009036506678E-2   -4.645084564742907E-2    4.447052642738851E-1   -2.510727224527814E-1
 6.529513310550000E9     5.499673335778952E-1   -1.152810959291279E-1   -1.889663390837588E-2   -4.723583802390993E-2   -2.014500479098558E-2   -4.681172551707627E-2    4.439004368053642E-1   -2.521501256816127E-1
 6.529523069900000E9     5.496856368171418E-1   -1.161321066727211E-1   -1.925833332365525E-2   -4.759333164123927E-2   -2.042207537264071E-2   -4.717759772567245E-2    4.431848022384377E-1   -2.533392849160005E-1
 6.529532829250000E9     5.494439595506866E-1   -1.169980933456172E-1   -1.951471238974817E-2   -4.787267337673426E-2   -2.069256609605988E-2   -4.743879665529026E-2    4.424827902110309E-1   -2.542967747074450E-1
 6.529542588600000E9     5.492900569325928E-1   -1.179910994013340E-1   -1.980473985501180E-2   -4.819463330670606E-2   -2.095252594281092E-2   -4.774407635627458E-2    4.418300685830585E-1   -2.555203696568210E-1
 6.529552347950000E9     5.489815416910060E-1   -1.188763171304517E-1   -2.003102897432128E-2   -4.860629243524920E-2   -2.121265770424014E-2   -4.813184985703581E-2    4.410536225573008E-1   -2.566029734953575E-1
 6.529562107300000E9     5.487235938889028E-1   -1.197722601817778E-1   -2.036822173714556E-2   -4.891820238595596E-2   -2.159124083290315E-2   -4.843174849480949E-2    4.402418292402075E-1   -2.576302900136302E-1
 6.529571866650000E9     5.483879165627564E-1   -1.206367991638726E-1   -2.047538393477953E-2   -4.928744058686103E-2   -2.183190924115605E-2   -4.878419791627089E-2    4.394798393372179E-1   -2.589751847461322E-1
 6.529581626000000E9     5.481777394766321E-1   -1.215642684003602E-1   -2.081426764563675E-2   -4.963080650382042E-2   -2.218493602766692E-2   -4.912159695112073E-2    4.386283772336387E-1   -2.600225570541914E-1
 6.529591385350000E9     5.479460110270459E-1   -1.226402470270799E-1   -2.118294936834873E-2   -4.980664882696699E-2   -2.241059461576782E-2   -4.937810298799412E-2    4.377629014141670E-1   -2.611509083581066E-1
 6.529601144700000E9     5.476656995503808E-1   -1.234918164593652E-1   -2.144982516209331E-2   -5.034617000768098E-2   -2.275495157717038E-2   -4.978368231047469E-2    4.370599423845740E-1   -2.622321308510236E-1
 6.529610904050000E9     5.473848930632966E-1   -1.243246774796882E-1   -2.177766752016348E-2   -5.048495297333844E-2   -2.317237342833650E-2   -5.013442021582845E-2    4.361696822764194E-1   -2.634332012795114E-1
 6.529620663400000E9     5.471545650476557E-1   -1.252292771791481E-1   -2.218986975745725E-2   -5.097161736354255E-2   -2.341935550252744E-2   -5.048074835227053E-2    4.353538763770515E-1   -2.644478306592747E-1
 6.529630422750000E9     5.468092032808759E-1   -1.262937114882781E-1   -2.239840597294374E-2   -5.107837013444468E-2   -2.379548683978534E-2   -5.073089205449604E-2    4.344223410887911E-1   -2.657406079435968E-1
 6.529640182100000E9     5.465006853999183E-1   -1.271692804695127E-1   -2.283027511215339E-2   -5.171129455081021E-2   -2.406604539916770E-2   -5.115723035352109E-2    4.334758366679988E-1   -2.668836939361002E-1
 6.529649941450000E9     5.462962678735244E-1   -1.281302435984517E-1   -2.319837357111080E-2   -5.201151393055113E-2   -2.447610888808090E-2   -5.150821746101474E-2    4.326557183943604E-1   -2.681069017902177E-1
 6.529659700800000E9     5.460447687533505E-1   -1.290996524963992E-1   -2.355537458804459E-2   -5.240913280791069E-2   -2.483701744607220E-2   -5.195171930542079E-2    4.317887863873753E-1   -2.691580138687783E-1
 6.529669460150000E9     5.456551900408876E-1   -1.300390313287645E-1   -2.389145846707673E-2   -5.281517499642927E-2   -2.521944575972343E-2   -5.224131437826815E-2    4.307363345901252E-1   -2.705125870004746E-1
 6.529679219500000E9     5.454005676987386E-1   -1.309435876881460E-1   -2.413189886483191E-2   -5.324370746895182E-2   -2.561066947820536E-2   -5.268810650750723E-2    4.298184667584483E-1   -2.716863632609748E-1
