#  HZ   S   RI   R     50.00 
! Rohde & Schwarz Vector Network Analyzer 
! Rohde-Schwarz,ZNB20-2Port,1311601062101988,3.16
! Created: UTC 3/21/2024, 12:55:24 AM
! freq[Hz]                re:S11                  im:S11                  re:S21                  im:S21                  re:S12                  im:S12                  re:S22                  im:S22
 6.528798993000000E9     5.607551525406999E-1   -5.395853524557397E-2   -7.744619125268807E-3   -3.179639304346332E-2   -8.388479704141374E-3   -3.160967312065132E-2    4.803946793254965E-1   -1.829907831749122E-1
 6.528808766400000E9     5.605857450471435E-1   -5.497418599587288E-2   -7.809715353631090E-3   -3.193476439619249E-2   -8.495321262696110E-3   -3.179767234822483E-2    4.801267401754322E-1   -1.840010013565568E-1
 6.528818539800000E9     5.604633396498925E-1   -5.570252107691531E-2   -7.869259879144032E-3   -3.214817637623886E-2   -8.655548603124416E-3   -3.203109997315209E-2    4.796496125780955E-1   -1.849367294676156E-1
 6.528828313200000E9     5.604303762336190E-1   -5.644678160818736E-2   -8.098602775717081E-3   -3.206795459897724E-2   -8.667851078845573E-3   -3.210841015280655E-2    4.792393192318201E-1   -1.856801184654987E-1
 6.528838086600000E9     5.602260531863044E-1   -5.724827215884132E-2   -8.082004938758134E-3   -3.237711562958527E-2   -8.862083136819276E-3   -3.224318983179823E-2    4.789710860565685E-1   -1.863622171602081E-1
 6.528847860000000E9     5.602187541213014E-1   -5.802296168807768E-2   -8.277232376094738E-3   -3.258088733523608E-2   -8.906779327631302E-3   -3.234586385108635E-2    4.787454938138981E-1   -1.874022962123201E-1
 6.528857633400000E9     5.601718272311637E-1   -5.877288591779986E-2   -8.386079971115496E-3   -3.263242779687352E-2   -9.095736913414839E-3   -3.261357419546140E-2    4.784000636409188E-1   -1.882497568448559E-1
 6.528867406800000E9     5.600414619803648E-1   -5.970885767875327E-2   -8.402996461653989E-3   -3.285665931557935E-2   -9.058133992989315E-3   -3.276921614447531E-2    4.780568964243914E-1   -1.891539905937789E-1
 6.528877180200000E9     5.600701642023974E-1   -6.055110259203016E-2   -8.547526623890902E-3   -3.292948301992448E-2   -9.264051318060152E-3   -3.280775646035296E-2    4.775552632919611E-1   -1.899004196457454E-1
 6.528886953600000E9     5.597785931179788E-1   -6.129291444304002E-2   -8.656202007853320E-3   -3.315188056505394E-2   -9.397878930281243E-3   -3.299365107365260E-2    4.772472375786466E-1   -1.907684464431122E-1
 6.528896727000000E9     5.598084839188214E-1   -6.205302016086613E-2   -8.563055060871166E-3   -3.327622683334439E-2   -9.513553125758526E-3   -3.317888135457790E-2    4.769684961035188E-1   -1.915478708231607E-1
 6.528906500400000E9     5.596770730732852E-1   -6.295254049126216E-2   -8.915547546836303E-3   -3.348114027011460E-2   -9.501488871049709E-3   -3.337575863810632E-2    4.764323499059522E-1   -1.926060169386152E-1
 6.528916273800000E9     5.595907986978013E-1   -6.369831584837647E-2   -9.012786491499725E-3   -3.352224748134335E-2   -9.736775477810064E-3   -3.339411655575885E-2    4.760949996396343E-1   -1.934313172124708E-1
 6.528926047200000E9     5.595682586564070E-1   -6.432716043548233E-2   -9.069167066324395E-3   -3.362176374334466E-2   -9.817526262047469E-3   -3.366173207973897E-2    4.757659614719123E-1   -1.942707568022662E-1
 6.528935820600000E9     5.593542787507954E-1   -6.528744515231183E-2   -9.060998727058985E-3   -3.409437966176265E-2   -9.952314763538497E-3   -3.368678792420789E-2    4.752883046515098E-1   -1.950845099301911E-1
 6.528945594000000E9     5.592740021790328E-1   -6.603506063533819E-2   -9.254030261607362E-3   -3.411320253828774E-2   -1.000863299628747E-2   -3.396001256239221E-2    4.748785247955101E-1   -1.959090976725413E-1
 6.528955367400000E9     5.590793294246788E-1   -6.679666360579244E-2   -9.357885728780766E-3   -3.415597479184126E-2   -1.012512978981454E-2   -3.404819964885746E-2    4.744352846553822E-1   -1.969284890706052E-1
 6.528965140800000E9     5.589989278957094E-1   -6.765757327793220E-2   -9.589788364532980E-3   -3.435965080663786E-2   -1.008790484664000E-2   -3.423425738813562E-2    4.740805219661275E-1   -1.977621528519150E-1
 6.528974914200000E9     5.589813805040934E-1   -6.849618921190291E-2   -9.533732510430838E-3   -3.460906626071890E-2   -1.030871298576006E-2   -3.447128497611318E-2    4.739710490243736E-1   -1.985314816727262E-1
 6.528984687600000E9     5.589035887381238E-1   -6.936744243188328E-2   -9.628639122699631E-3   -3.459584489093289E-2   -1.053295467018886E-2   -3.456223384551350E-2    4.733194754484064E-1   -1.994350880942586E-1
 6.528994461000000E9     5.588125372190795E-1   -7.006764702689632E-2   -9.834140869221028E-3   -3.500871918298858E-2   -1.053921457040457E-2   -3.471051771424601E-2    4.728781910498452E-1   -2.002551482186689E-1
 6.529004234400000E9     5.586288745774033E-1   -7.093226649075970E-2   -9.913229488778668E-3   -3.513085914074678E-2   -1.071526939501091E-2   -3.480336750267961E-2    4.722896084889735E-1   -2.011549133624828E-1
 6.529014007800000E9     5.584955908588656E-1   -7.181940563851931E-2   -1.001687570756840E-2   -3.529188673148837E-2   -1.080284480111890E-2   -3.516413781162765E-2    4.719541396661757E-1   -2.021759924052068E-1
 6.529023781200000E9     5.583169084575595E-1   -7.271401001352672E-2   -9.987263742181417E-3   -3.543850743334656E-2   -1.100983554483440E-2   -3.522065795676835E-2    4.716722723328778E-1   -2.030374151710870E-1
 6.529033554600000E9     5.582314348400272E-1   -7.330468512995165E-2   -1.031529346844839E-2   -3.561234030076579E-2   -1.114340081577830E-2   -3.549699700845839E-2    4.712748114541688E-1   -2.038978025128343E-1
 6.529043328000000E9     5.582070066086481E-1   -7.412268279019732E-2   -1.048358209723111E-2   -3.587298707046084E-2   -1.118986356062554E-2   -3.563013642190528E-2    4.708382636957775E-1   -2.048857528436579E-1
 6.529053101400000E9     5.580790429383102E-1   -7.496348434852744E-2   -1.048185947387943E-2   -3.587525273404826E-2   -1.132473706357009E-2   -3.572708639866059E-2    4.703892612727731E-1   -2.057376783814625E-1
 6.529062874800000E9     5.579186706770838E-1   -7.579893125939724E-2   -1.052907241784477E-2   -3.607633020941214E-2   -1.149183585990401E-2   -3.594834605250811E-2    4.699975685669853E-1   -2.066791840693603E-1
 6.529072648200000E9     5.578433257547033E-1   -7.663758060057548E-2   -1.081264785093072E-2   -3.630679857463474E-2   -1.162161351696906E-2   -3.621427793573663E-2    4.695560642987391E-1   -2.075482085754156E-1
 6.529082421600000E9     5.577011081306708E-1   -7.748043077366856E-2   -1.084288496147173E-2   -3.661515873109677E-2   -1.169744038342225E-2   -3.632458372672091E-2    4.689947662341885E-1   -2.085036463358942E-1
 6.529092195000000E9     5.575958952901738E-1   -7.830918577658265E-2   -1.099613074392792E-2   -3.677346971842147E-2   -1.185565058184046E-2   -3.651701906825931E-2    4.685852678614134E-1   -2.093150835917741E-1
 6.529101968400000E9     5.573801723379543E-1   -7.907942597956069E-2   -1.113480439570236E-2   -3.699597012302141E-2   -1.197567017483232E-2   -3.676701885656158E-2    4.682957612472357E-1   -2.104548777178920E-1
 6.529111741800000E9     5.572503057916200E-1   -7.997850968617402E-2   -1.140106174454753E-2   -3.712288728896557E-2   -1.209672052992556E-2   -3.677503229586448E-2    4.675919763158716E-1   -2.111022818058615E-1
 6.529121515200000E9     5.573037302057374E-1   -8.087252413102185E-2   -1.142336757384992E-2   -3.737671537829753E-2   -1.229427307778543E-2   -3.715862472003413E-2    4.671899566509583E-1   -2.121662694358193E-1
 6.529131288600000E9     5.568808478387803E-1   -8.158753183463746E-2   -1.162171679726060E-2   -3.747272930609543E-2   -1.243678343558373E-2   -3.723617063348497E-2    4.666990541580373E-1   -2.130254497870823E-1
 6.529141062000000E9     5.568667633588948E-1   -8.248466146065957E-2   -1.171473731094489E-2   -3.766300818613168E-2   -1.255141433139727E-2   -3.746353129521405E-2    4.662750492357408E-1   -2.139146640578051E-1
 6.529150835400000E9     5.567718197077514E-1   -8.322869035963509E-2   -1.191546251858790E-2   -3.792933116062051E-2   -1.268740320360681E-2   -3.764204581642665E-2    4.658105173260143E-1   -2.149655438599574E-1
 6.529160608800000E9     5.566044123811943E-1   -8.411081700834359E-2   -1.199052243723285E-2   -3.817974742412092E-2   -1.287705372500611E-2   -3.792111342079880E-2    4.654407290950586E-1   -2.158233481859613E-1
 6.529170382200000E9     5.564212531653127E-1   -8.490287194099956E-2   -1.223163642106630E-2   -3.823501528391837E-2   -1.308387222683317E-2   -3.811318433060858E-2    4.648153155033056E-1   -2.167999931826421E-1
 6.529180155600000E9     5.564381301392658E-1   -8.572178059774987E-2   -1.230252766526083E-2   -3.850021315036260E-2   -1.317447153931998E-2   -3.828654596237171E-2    4.645066361928994E-1   -2.175062138672301E-1
 6.529189929000000E9     5.562199559745742E-1   -8.657220430135716E-2   -1.253833436777124E-2   -3.866286368955499E-2   -1.340150386150380E-2   -3.848557963564495E-2    4.638294714357191E-1   -2.185448715186288E-1
 6.529199702400000E9     5.559043292533103E-1   -8.741825756814042E-2   -1.261849805151098E-2   -3.896558524816064E-2   -1.351711685080022E-2   -3.863641861047286E-2    4.634506399824468E-1   -2.195235013344623E-1
 6.529209475800000E9     5.559122847798603E-1   -8.828407646574994E-2   -1.266943085517938E-2   -3.903269028468954E-2   -1.369430625530878E-2   -3.879250212760418E-2    4.628217044419262E-1   -2.207019986597642E-1
 6.529219249200000E9     5.557249860601278E-1   -8.916899377523335E-2   -1.287831381864030E-2   -3.923197429291260E-2   -1.378198034552815E-2   -3.908722990392041E-2    4.624842273816402E-1   -2.212246682890753E-1
 6.529229022600000E9     5.555579997168303E-1   -9.000180163134013E-2   -1.297080193967609E-2   -3.955103306477956E-2   -1.400506572953142E-2   -3.935709627841347E-2    4.619278564612043E-1   -2.224335423697045E-1
 6.529238796000000E9     5.555117250868745E-1   -9.094027393710709E-2   -1.319950228710074E-2   -3.985450427373537E-2   -1.413594267607652E-2   -3.963345565978264E-2    4.611850076619100E-1   -2.234128993749054E-1
 6.529248569400000E9     5.552396026838808E-1   -9.159946314256347E-2   -1.341822524309670E-2   -3.987341271789308E-2   -1.425556179294362E-2   -3.981513488504346E-2    4.607517680145714E-1   -2.243786572026487E-1
 6.529258342800000E9     5.550595595554491E-1   -9.238651081829301E-2   -1.357651591525751E-2   -4.031694526945308E-2   -1.448960558485329E-2   -3.999145109380553E-2    4.603801126849824E-1   -2.253191807179719E-1
 6.529268116200000E9     5.549266983001397E-1   -9.335858131882942E-2   -1.371039235533355E-2   -4.039147274469539E-2   -1.462929278237121E-2   -4.020655668977724E-2    4.595835493752282E-1   -2.262099762996125E-1
 6.529277889600000E9     5.548142547628381E-1   -9.411303289481283E-2   -1.386100585316221E-2   -4.069794784471848E-2   -1.476048200638320E-2   -4.036592689952653E-2    4.592725349511287E-1   -2.272404784627934E-1
 6.529287663000000E9     5.545760347108606E-1   -9.504497736915880E-2   -1.416462734580056E-2   -4.096179264189066E-2   -1.514871538790208E-2   -4.059998285743227E-2    4.586056870550501E-1   -2.282772984596218E-1
 6.529297436400000E9     5.543307538532081E-1   -9.582598411557719E-2   -1.424148118722484E-2   -4.118444774062559E-2   -1.521255290596174E-2   -4.083656849553725E-2    4.579443327273134E-1   -2.292618824698937E-1
 6.529307209800000E9     5.542572792438750E-1   -9.673706256925761E-2   -1.442084620318574E-2   -4.144957037145614E-2   -1.537684836589294E-2   -4.119596180344150E-2    4.575803776996694E-1   -2.303168660295481E-1
 6.529316983200000E9     5.539496503497093E-1   -9.743400773676060E-2   -1.475310766289584E-2   -4.148823133785536E-2   -1.558786358531800E-2   -4.143274135865035E-2    4.570196550660289E-1   -2.312207929038283E-1
 6.529326756600000E9     5.539104513609645E-1   -9.837853189430401E-2   -1.480166310780393E-2   -4.194721464694190E-2   -1.576597424396931E-2   -4.161884218128527E-2    4.565774783141837E-1   -2.321976246017856E-1
 6.529336530000000E9     5.536331047971591E-1   -9.933677286491051E-2   -1.498097927665880E-2   -4.204889566207908E-2   -1.598273182705534E-2   -4.180622055132716E-2    4.558485199457572E-1   -2.332141635021247E-1
 6.529346303400000E9     5.533812003268949E-1   -1.001691626166911E-1   -1.523318890092180E-2   -4.247176597518498E-2   -1.620069557438347E-2   -4.215737136654222E-2    4.551875527143479E-1   -2.341878225300228E-1
 6.529356076800000E9     5.532624484838286E-1   -1.010831520086782E-1   -1.539121034727696E-2   -4.270979426189924E-2   -1.637283411554501E-2   -4.235951850354591E-2    4.544590295639426E-1   -2.352491280077830E-1
 6.529365850200000E9     5.530608632288098E-1   -1.019216550202916E-1   -1.556367076592118E-2   -4.293849426157671E-2   -1.667013891175996E-2   -4.270022858545011E-2    4.539208500945180E-1   -2.361607456903181E-1
 6.529375623600000E9     5.528996599124085E-1   -1.028931087242464E-1   -1.569611703743522E-2   -4.307335869103981E-2   -1.674243428700345E-2   -4.282745253221405E-2    4.533184424584388E-1   -2.370767878280503E-1
 6.529385397000000E9     5.527632571326803E-1   -1.036075825857850E-1   -1.602153024203037E-2   -4.334536348640792E-2   -1.705102721459860E-2   -4.313849242708705E-2    4.527855540228182E-1   -2.382798617997127E-1
 6.529395170400000E9     5.526396435680710E-1   -1.044905924184266E-1   -1.621296769924623E-2   -4.375373799596997E-2   -1.706595999100738E-2   -4.340221425447727E-2    4.521879681805179E-1   -2.392793860244748E-1
 6.529404943800000E9     5.523074159158835E-1   -1.053166263155655E-1   -1.642785606120046E-2   -4.394486413628501E-2   -1.739696967725458E-2   -4.370521670135322E-2    4.515299059460752E-1   -2.404270987038439E-1
 6.529414717200000E9     5.521385060680184E-1   -1.062765322901824E-1   -1.657070662671887E-2   -4.420440940360826E-2   -1.763120336179554E-2   -4.399168563719596E-2    4.507962827024684E-1   -2.411970320088583E-1
 6.529424490600000E9     5.520649493542268E-1   -1.070814856232738E-1   -1.684673823815665E-2   -4.454417559046205E-2   -1.799956182150136E-2   -4.423099128112133E-2    4.503813517598119E-1   -2.421912853173628E-1
 6.529434264000000E9     5.517553361539732E-1   -1.080918173291392E-1   -1.707159215089280E-2   -4.483090761685232E-2   -1.806354189194651E-2   -4.454794673423786E-2    4.495586678847237E-1   -2.433459496718888E-1
 6.529444037400000E9     5.515497195212237E-1   -1.087750229682849E-1   -1.720725423990744E-2   -4.509715039075015E-2   -1.830807273806899E-2   -4.477666306305174E-2    4.490058212104566E-1   -2.443701478187123E-1
 6.529453810800000E9     5.513521572682096E-1   -1.096716220099380E-1   -1.758728942286301E-2   -4.538637201119356E-2   -1.863502952567261E-2   -4.501279159616689E-2    4.481387710880380E-1   -2.454570039781054E-1
 6.529463584200000E9     5.511240328876772E-1   -1.106403946247305E-1   -1.762138133518674E-2   -4.572234891227311E-2   -1.881759659287997E-2   -4.531833515694937E-2    4.475911461034272E-1   -2.464684483962446E-1
 6.529473357600000E9     5.509457777761442E-1   -1.115722000146645E-1   -1.789812117265321E-2   -4.591289235856254E-2   -1.912532277877320E-2   -4.559665343843022E-2    4.468321409685982E-1   -2.477049523275094E-1
 6.529483131000000E9     5.505655910681140E-1   -1.123758935769026E-1   -1.820938284095409E-2   -4.620185906889804E-2   -1.937601228023730E-2   -4.593609029722339E-2    4.461164775084199E-1   -2.487597993613142E-1
 6.529492904400000E9     5.505268805731134E-1   -1.133634506761269E-1   -1.846541340055556E-2   -4.657340269744003E-2   -1.969764129001556E-2   -4.621219330036137E-2    4.455090808152501E-1   -2.498158952124176E-1
 6.529502677800000E9     5.502682320779144E-1   -1.142359120643169E-1   -1.874356419710786E-2   -4.687854754522218E-2   -1.986953704067653E-2   -4.649866897723160E-2    4.447907281614086E-1   -2.507485764722532E-1
 6.529512451200000E9     5.500567796037036E-1   -1.150700791942708E-1   -1.896371426345557E-2   -4.705451074174696E-2   -2.015138601604072E-2   -4.673267656383791E-2    4.440523624017345E-1   -2.519953607457717E-1
 6.529522224600000E9     5.497877391824592E-1   -1.160451308872205E-1   -1.927746677911419E-2   -4.750670927329105E-2   -2.041792116745660E-2   -4.707122172388859E-2    4.432852223963159E-1   -2.530783432852692E-1
 6.529531998000000E9     5.495877818583086E-1   -1.168313421669923E-1   -1.961162008296168E-2   -4.793053571470288E-2   -2.068889895716373E-2   -4.739032507231163E-2    4.425911794974766E-1   -2.541639413388619E-1
 6.529541771400000E9     5.492084645788431E-1   -1.177687103667620E-1   -1.967914408657807E-2   -4.799005270318100E-2   -2.105722593933439E-2   -4.775720260676714E-2    4.417460631436579E-1   -2.551301262621531E-1
 6.529551544800000E9     5.490064526969622E-1   -1.187604331628198E-1   -2.000701450081997E-2   -4.856718535290524E-2   -2.128310577033523E-2   -4.805776061565113E-2    4.411557228157629E-1   -2.563193437960308E-1
 6.529561318200000E9     5.487756000535490E-1   -1.196988334275101E-1   -2.022395158244676E-2   -4.877059631098854E-2   -2.162039764659402E-2   -4.831930471828177E-2    4.402567284803146E-1   -2.575599595165470E-1
 6.529571091600000E9     5.484813921621726E-1   -1.206179597271934E-1   -2.050885185618300E-2   -4.898832872164714E-2   -2.176158243889413E-2   -4.872828840273227E-2    4.394125349199504E-1   -2.585482106739150E-1
 6.529580865000000E9     5.483026599074939E-1   -1.213606542864189E-1   -2.093381560555811E-2   -4.949030772988022E-2   -2.218469165266334E-2   -4.903043103393929E-2    4.387550284690782E-1   -2.597166022861025E-1
 6.529590638400000E9     5.479754908658598E-1   -1.223881845085286E-1   -2.112644055103658E-2   -4.974842679585617E-2   -2.235639402721142E-2   -4.929022243747128E-2    4.378123010483871E-1   -2.608083883692312E-1
 6.529600411800000E9     5.477005402139602E-1   -1.232506065963629E-1   -2.133462052200369E-2   -5.013023978120649E-2   -2.288976136458348E-2   -4.961270617982517E-2    4.370736888456494E-1   -2.621379373373231E-1
 6.529610185200000E9     5.473656651644023E-1   -1.242302645755990E-1   -2.173131048169785E-2   -5.054123460968483E-2   -2.307348998414912E-2   -5.000464241492545E-2    4.362803103295641E-1   -2.630998873596431E-1
 6.529619958600000E9     5.471793943244361E-1   -1.250722881870160E-1   -2.206928339408493E-2   -5.095281156100705E-2   -2.340224163957105E-2   -5.040106026277898E-2    4.353240590193059E-1   -2.644357875358478E-1
 6.529629732000000E9     5.470089644184094E-1   -1.261196951250533E-1   -2.241135531361109E-2   -5.141061237462386E-2   -2.371783367862407E-2   -5.074601496133480E-2    4.344661159533854E-1   -2.655880620681672E-1
 6.529639505400000E9     5.466238246174033E-1   -1.269183693681673E-1   -2.270736493293984E-2   -5.175332852418735E-2   -2.403286621166343E-2   -5.109748892362285E-2    4.337393146404818E-1   -2.666774299635317E-1
 6.529649278800000E9     5.462982962114612E-1   -1.279686174825896E-1   -2.310647577480738E-2   -5.210076643968325E-2   -2.454031724983107E-2   -5.151927812400080E-2    4.327073502372113E-1   -2.678449295699060E-1
 6.529659052200000E9     5.460087830175933E-1   -1.289260568501620E-1   -2.342465030806611E-2   -5.237625438114092E-2   -2.481937035711015E-2   -5.182186008297011E-2    4.318467943886702E-1   -2.690413314828444E-1
 6.529668825600000E9     5.457363439653103E-1   -1.299407898724311E-1   -2.360606458911756E-2   -5.281338593713427E-2   -2.512392368189459E-2   -5.224901822186736E-2    4.309498520598104E-1   -2.704090029943899E-1
 6.529678599000000E9     5.454186149648693E-1   -1.308618588665162E-1   -2.410841905605291E-2   -5.302443628768167E-2   -2.541661348018353E-2   -5.261153515721349E-2    4.299313976333612E-1   -2.714268963401305E-1
