#  HZ   S   RI   R     50.00 
! Rohde & Schwarz Vector Network Analyzer 
! Rohde-Schwarz,ZNB20-2Port,1311601062101988,3.16
! Created: UTC 3/21/2024, 12:55:40 AM
! freq[Hz]                re:S11                  im:S11                  re:S21                  im:S21                  re:S12                  im:S12                  re:S22                  im:S22
 6.528796527000000E9     5.605923544745924E-1   -5.367678114748971E-2   -7.649816684897179E-3   -3.175978358054667E-2   -8.420649046628660E-3   -3.150250448998821E-2    4.805089578867859E-1   -1.825321954714849E-1
 6.528806343975000E9     5.605388914425313E-1   -5.445607699308364E-2   -7.824578348607867E-3   -3.177755973759271E-2   -8.499132109663937E-3   -3.171431046615594E-2    4.801395037753446E-1   -1.834402788120807E-1
 6.528816160950000E9     5.606609102380907E-1   -5.522602096457058E-2   -7.895901320577122E-3   -3.199650971540288E-2   -8.466031250692512E-3   -3.190771479162319E-2    4.796396575168421E-1   -1.843109891585400E-1
 6.528825977925000E9     5.603569571095347E-1   -5.608673122938471E-2   -7.995147215098105E-3   -3.206460796749457E-2   -8.619754038473247E-3   -3.204142038969653E-2    4.791617197087043E-1   -1.850870354492875E-1
 6.528835794900000E9     5.603013417688825E-1   -5.686063088492571E-2   -8.209070712712209E-3   -3.220210543924359E-2   -8.807161268802868E-3   -3.213535375634347E-2    4.790594929916820E-1   -1.861170266261682E-1
 6.528845611875000E9     5.601919623206856E-1   -5.776246291753753E-2   -8.191228013134546E-3   -3.227751546127165E-2   -8.798845051347960E-3   -3.226680068860213E-2    4.786841951533486E-1   -1.868054121544846E-1
 6.528855428850000E9     5.602226022202457E-1   -5.848564237334097E-2   -8.160853376839644E-3   -3.256361692551570E-2   -8.915356997941069E-3   -3.236530583154756E-2    4.783353145100215E-1   -1.877584947657261E-1
 6.528865245825000E9     5.599923370148976E-1   -5.928513782859564E-2   -8.372553746754377E-3   -3.274713620409037E-2   -9.096060648060764E-3   -3.256222063115514E-2    4.779453536147874E-1   -1.884253293010756E-1
 6.528875062800000E9     5.599484489575347E-1   -6.015039053248350E-2   -8.424584097171771E-3   -3.277679958216518E-2   -9.169165490671987E-3   -3.273715309628181E-2    4.774163193997993E-1   -1.893360776668828E-1
 6.528884879775000E9     5.599063432321699E-1   -6.091765578866241E-2   -8.399363778378310E-3   -3.300493591663777E-2   -9.235321057793990E-3   -3.285549708280194E-2    4.771800853149500E-1   -1.903738325185142E-1
 6.528894696750000E9     5.596283429145462E-1   -6.176360928568526E-2   -8.622650892195258E-3   -3.325963983380584E-2   -9.411995187143102E-3   -3.308557557123134E-2    4.767471552905617E-1   -1.911357675471902E-1
 6.528904513725000E9     5.597578920543739E-1   -6.253932661210054E-2   -8.741605162095718E-3   -3.329272753530915E-2   -9.566354241431952E-3   -3.326277516490488E-2    4.764114446024201E-1   -1.920936892834855E-1
 6.528914330700000E9     5.596297239264627E-1   -6.328459048110560E-2   -8.823428521371947E-3   -3.350125708046176E-2   -9.549835588227685E-3   -3.347135438863295E-2    4.760595901044365E-1   -1.929005830811305E-1
 6.528924147675000E9     5.596010561252510E-1   -6.411117349315561E-2   -8.956398216135241E-3   -3.362056224273807E-2   -9.646982856120260E-3   -3.346252266921741E-2    4.758241095038407E-1   -1.936867251110712E-1
 6.528933964650000E9     5.593861202891830E-1   -6.492578232299939E-2   -9.063052659909939E-3   -3.379861080908617E-2   -9.848907864762368E-3   -3.365264237993781E-2    4.752198282459196E-1   -1.946183479467914E-1
 6.528943781625000E9     5.594469863801750E-1   -6.568963299022838E-2   -9.115057519345326E-3   -3.407811619412193E-2   -9.994169952526182E-3   -3.384545002787898E-2    4.748652237743190E-1   -1.954555761869422E-1
 6.528953598600000E9     5.590496594886694E-1   -6.650791644262412E-2   -9.020591786856394E-3   -3.402811536570605E-2   -9.975779596189440E-3   -3.398168435510013E-2    4.745254911405101E-1   -1.964792884374152E-1
 6.528963415575000E9     5.590943410497691E-1   -6.727005146033241E-2   -9.368422067447904E-3   -3.432923942419673E-2   -1.020542281912621E-2   -3.411207990215286E-2    4.740418965938846E-1   -1.972012441451528E-1
 6.528973232550000E9     5.589266226635554E-1   -6.819259151164621E-2   -9.580967901686733E-3   -3.437947292725002E-2   -1.027806058988277E-2   -3.436872406907820E-2    4.738568245246851E-1   -1.982343824459754E-1
 6.528983049525000E9     5.587928819098362E-1   -6.888448310003371E-2   -9.565095043519961E-3   -3.467254872706332E-2   -1.040600595078350E-2   -3.438861217183650E-2    4.733005733237926E-1   -1.990388645261663E-1
 6.528992866500000E9     5.588520298596862E-1   -6.973357642485763E-2   -9.671389935375446E-3   -3.480287433715013E-2   -1.056793083121378E-2   -3.457364416054592E-2    4.729071408163210E-1   -1.998983640239916E-1
 6.529002683475000E9     5.587588847319354E-1   -7.063412730093638E-2   -9.785199955737048E-3   -3.486280234531598E-2   -1.055185337040524E-2   -3.480514433902889E-2    4.726446266235285E-1   -2.007358679472892E-1
 6.529012500450000E9     5.584128040306239E-1   -7.134487494746421E-2   -1.002879739293315E-2   -3.499985052998125E-2   -1.073460346665115E-2   -3.488531273782701E-2    4.721052974567794E-1   -2.015458822438637E-1
 6.529022317425000E9     5.583895770091204E-1   -7.223775780990543E-2   -1.002967589755012E-2   -3.522338836016512E-2   -1.083583215489878E-2   -3.527945742218735E-2    4.715649821918803E-1   -2.026195348806947E-1
 6.529032134400000E9     5.583443564476771E-1   -7.305024898317797E-2   -1.019682351090644E-2   -3.563919424044928E-2   -1.099372529756471E-2   -3.523094762840572E-2    4.712572663483249E-1   -2.034220837754527E-1
 6.529041951375000E9     5.581660410716963E-1   -7.385593858306375E-2   -1.036142440881444E-2   -3.560050419552580E-2   -1.116063322671782E-2   -3.547553203996615E-2    4.707041996441592E-1   -2.044773331937783E-1
 6.529051768350000E9     5.580590563094526E-1   -7.459667231031518E-2   -1.039166402859186E-2   -3.578838666351382E-2   -1.129237026661198E-2   -3.573533472002093E-2    4.704181810921690E-1   -2.053126486392624E-1
 6.529061585325000E9     5.578649842596592E-1   -7.558440146556558E-2   -1.060727003127923E-2   -3.599844781819565E-2   -1.134801188774868E-2   -3.573591100931842E-2    4.698933325653021E-1   -2.062064195556492E-1
 6.529071402300000E9     5.577768767168497E-1   -7.629191593746956E-2   -1.066865867509935E-2   -3.608258334838937E-2   -1.153708351817124E-2   -3.603333672152066E-2    4.695465995829648E-1   -2.070598381624885E-1
 6.529081219275000E9     5.576512621073101E-1   -7.717917794660550E-2   -1.083239292000212E-2   -3.631162988552050E-2   -1.163031142934438E-2   -3.616342754982412E-2    4.691071228271410E-1   -2.079773798986580E-1
 6.529091036250000E9     5.575984877851307E-1   -7.794853272159777E-2   -1.099819538140608E-2   -3.665713537346606E-2   -1.187622406880097E-2   -3.642009275579825E-2    4.687165791038165E-1   -2.089198990181353E-1
 6.529100853225000E9     5.574023227628954E-1   -7.871827509493878E-2   -1.108065390892667E-2   -3.676881418107373E-2   -1.184144630464606E-2   -3.657255442182968E-2    4.680382402013890E-1   -2.098542772648702E-1
 6.529110670200000E9     5.572234646655031E-1   -7.958688947686197E-2   -1.126593832908146E-2   -3.687079385727765E-2   -1.216729757992887E-2   -3.670206261618401E-2    4.676193614108460E-1   -2.104516527348757E-1
 6.529120487175000E9     5.572610305792004E-1   -8.048402979526470E-2   -1.140726984502990E-2   -3.713212239545173E-2   -1.221390557649626E-2   -3.693416590121725E-2    4.670880479674211E-1   -2.115548652005989E-1
 6.529130304150000E9     5.570382690002149E-1   -8.130224642660369E-2   -1.155807696647290E-2   -3.727320395749535E-2   -1.231859129989555E-2   -3.715117601982077E-2    4.667992646792037E-1   -2.124238637803001E-1
 6.529140121125000E9     5.568471507224876E-1   -8.211913505865537E-2   -1.155892475983691E-2   -3.758588993356316E-2   -1.254779727811515E-2   -3.726938582595582E-2    4.664575766692679E-1   -2.134264309044770E-1
 6.529149938100000E9     5.567332164922407E-1   -8.297118527794138E-2   -1.181296910938663E-2   -3.775861187812450E-2   -1.267002368159816E-2   -3.763221729379794E-2    4.657403728250848E-1   -2.144254113079064E-1
 6.529159755075000E9     5.565850419321168E-1   -8.374962845622574E-2   -1.205044942992786E-2   -3.787965140549360E-2   -1.284463406952526E-2   -3.765962810708681E-2    4.653480211854245E-1   -2.153383363856993E-1
 6.529169572050000E9     5.565414158802507E-1   -8.456843690696715E-2   -1.208219369766923E-2   -3.821351377013044E-2   -1.295839630393562E-2   -3.785512342497324E-2    4.649557114210361E-1   -2.162663210390535E-1
 6.529179389025000E9     5.564556048978981E-1   -8.535969326713687E-2   -1.219656246686835E-2   -3.832367753769006E-2   -1.303438775317046E-2   -3.817388583031757E-2    4.644242048189695E-1   -2.172105297317958E-1
 6.529189206000000E9     5.561501259700407E-1   -8.626917368624172E-2   -1.245513713813397E-2   -3.846095729631249E-2   -1.325897731552431E-2   -3.839004856536896E-2    4.638075497295222E-1   -2.182512705757571E-1
 6.529199022975000E9     5.560940736321688E-1   -8.703812050207906E-2   -1.257229695412589E-2   -3.877894749465163E-2   -1.346880668254949E-2   -3.850828320439480E-2    4.633503716200456E-1   -2.191105216784959E-1
 6.529208839950000E9     5.559994741877033E-1   -8.803305894533449E-2   -1.274381815241753E-2   -3.898707059340410E-2   -1.370824432388833E-2   -3.880984535294341E-2    4.628349524127989E-1   -2.200634485894077E-1
 6.529218656925000E9     5.558324233001957E-1   -8.877337531820927E-2   -1.271998043383803E-2   -3.922801011326817E-2   -1.392412854849211E-2   -3.887881170615657E-2    4.623168824549151E-1   -2.211441626222712E-1
 6.529228473900000E9     5.556270230187675E-1   -8.960416721073061E-2   -1.304238542146043E-2   -3.937424851891989E-2   -1.392219510047788E-2   -3.915388386850151E-2    4.617643661217826E-1   -2.219978009170276E-1
 6.529238290875000E9     5.553144013161909E-1   -9.048996398002900E-2   -1.324857615771509E-2   -3.958360413431791E-2   -1.405663698116864E-2   -3.931134281145269E-2    4.612569760654091E-1   -2.228296278865378E-1
 6.529248107850000E9     5.551404230419665E-1   -9.138862174145712E-2   -1.334029597918472E-2   -3.982599555677128E-2   -1.429784619505668E-2   -3.954882942764786E-2    4.609677540771014E-1   -2.239267523864825E-1
 6.529257924825000E9     5.550456421675208E-1   -9.221585326712077E-2   -1.352881672446352E-2   -3.996924380276042E-2   -1.452545471422171E-2   -3.981075424716575E-2    4.602159239226915E-1   -2.247894122167579E-1
 6.529267741800000E9     5.549674298690469E-1   -9.294113979362410E-2   -1.360402878130009E-2   -4.027624233526140E-2   -1.460220375142349E-2   -4.002319441150642E-2    4.596880072055720E-1   -2.258774508808019E-1
 6.529277558775000E9     5.546562820649130E-1   -9.384138572499483E-2   -1.382902911458667E-2   -4.074006567617730E-2   -1.477551306498117E-2   -4.033236638746515E-2    4.592087757303552E-1   -2.267435119182713E-1
 6.529287375750000E9     5.544300788503528E-1   -9.471705865991065E-2   -1.400486657360514E-2   -4.073333577189980E-2   -1.496243522805824E-2   -4.049883804212732E-2    4.586136707526268E-1   -2.277943316421257E-1
 6.529297192725000E9     5.543802241618799E-1   -9.562382262975341E-2   -1.424388979164624E-2   -4.101027101628171E-2   -1.506169612587773E-2   -4.070392043027404E-2    4.580197073025311E-1   -2.286820623871373E-1
 6.529307009700000E9     5.542265998167453E-1   -9.648920413929146E-2   -1.429370120043005E-2   -4.121116034285217E-2   -1.527370584113625E-2   -4.096514034529834E-2    4.574099097907171E-1   -2.296647966309698E-1
 6.529316826675000E9     5.540170038234766E-1   -9.736842815917821E-2   -1.455583237639708E-2   -4.158348547823280E-2   -1.548203675860865E-2   -4.123233866751080E-2    4.570424411057602E-1   -2.305252974190473E-1
 6.529326643650000E9     5.539839005503523E-1   -9.813372145507730E-2   -1.468336642358962E-2   -4.174686245819924E-2   -1.571292446911363E-2   -4.146196525493073E-2    4.565360175916032E-1   -2.317576952452870E-1
 6.529336460625000E9     5.537384494479978E-1   -9.897692251908866E-2   -1.480253481714188E-2   -4.194776613229314E-2   -1.587159618219014E-2   -4.162444804262257E-2    4.558367054981769E-1   -2.326970034462557E-1
 6.529346277600000E9     5.534036043230549E-1   -9.993391596736488E-2   -1.494347238413208E-2   -4.225429643138600E-2   -1.605690156290300E-2   -4.198291699181680E-2    4.552102610194869E-1   -2.338627415540877E-1
 6.529356094575000E9     5.533548755929077E-1   -1.007492475779860E-1   -1.534124540082145E-2   -4.253993197401267E-2   -1.625091822988369E-2   -4.215973717157088E-2    4.546229044426002E-1   -2.347868994587969E-1
 6.529365911550000E9     5.531828660657824E-1   -1.017086429382029E-1   -1.545272886167995E-2   -4.267392041485404E-2   -1.644222396816233E-2   -4.240548976802182E-2    4.539836957422820E-1   -2.356786567083023E-1
 6.529375728525000E9     5.527905822034381E-1   -1.024639781474882E-1   -1.564270952439439E-2   -4.289135235897613E-2   -1.670140889865884E-2   -4.272930304199372E-2    4.533947539805064E-1   -2.366423711907280E-1
 6.529385545500000E9     5.527509549157318E-1   -1.033193993700658E-1   -1.585158988398352E-2   -4.315477602556058E-2   -1.697470629972520E-2   -4.282267226124855E-2    4.528646325311458E-1   -2.378699182162384E-1
 6.529395362475000E9     5.525146953032637E-1   -1.043082634468244E-1   -1.604875133525864E-2   -4.337580441314733E-2   -1.704174125790904E-2   -4.325497828541030E-2    4.521751049121059E-1   -2.387373274567421E-1
 6.529405179450000E9     5.523735471623707E-1   -1.052065751387319E-1   -1.621747171108957E-2   -4.376184339670208E-2   -1.724336136895535E-2   -4.348369556779410E-2    4.516459427455153E-1   -2.398937804360019E-1
 6.529414996425000E9     5.522159358848528E-1   -1.059508358826492E-1   -1.651835026656525E-2   -4.394820069638506E-2   -1.756210360225182E-2   -4.370383962441664E-2    4.509140274520751E-1   -2.408785497537326E-1
 6.529424813400000E9     5.519825099596551E-1   -1.069669907994886E-1   -1.677925425731559E-2   -4.441484258336448E-2   -1.775885285190060E-2   -4.400905183431084E-2    4.501909179236261E-1   -2.419072354806377E-1
 6.529434630375000E9     5.517068985506260E-1   -1.078210656769284E-1   -1.699564067644840E-2   -4.465798116882640E-2   -1.806509991417289E-2   -4.424583368802534E-2    4.495598241867398E-1   -2.428571631415824E-1
 6.529444447350000E9     5.515144890726525E-1   -1.085873522598975E-1   -1.719405988190693E-2   -4.477620659329261E-2   -1.818494332444872E-2   -4.445532331202849E-2    4.491200898280984E-1   -2.439181490615829E-1
 6.529454264325000E9     5.512588677834949E-1   -1.095314189968913E-1   -1.739103615184184E-2   -4.513040478812176E-2   -1.850145289772533E-2   -4.481037865766553E-2    4.483753995928348E-1   -2.449809598518126E-1
 6.529464081300000E9     5.511065054593474E-1   -1.104453891188187E-1   -1.752965091563614E-2   -4.544767304770909E-2   -1.894187988674832E-2   -4.506447435900633E-2    4.476558549207567E-1   -2.460945607321921E-1
 6.529473898275000E9     5.509522947975649E-1   -1.112367236097090E-1   -1.787212775667367E-2   -4.575621490105945E-2   -1.901108149608075E-2   -4.543560701685100E-2    4.468683452121904E-1   -2.472041564170067E-1
 6.529483715250000E9     5.507375246153244E-1   -1.122313104626026E-1   -1.798062144548388E-2   -4.602371817771603E-2   -1.920018574359023E-2   -4.561572455417788E-2    4.463760854533197E-1   -2.483455780520549E-1
 6.529493532225000E9     5.504436596132490E-1   -1.131070294775365E-1   -1.833436347248590E-2   -4.623486708979337E-2   -1.946429286806498E-2   -4.596535694891715E-2    4.455822359904501E-1   -2.493685244692290E-1
 6.529503349200000E9     5.502397842011116E-1   -1.140104757215639E-1   -1.858029656522854E-2   -4.668203903581179E-2   -1.975828572150405E-2   -4.623849872815297E-2    4.447600995375178E-1   -2.504133811460347E-1
 6.529513166175000E9     5.499235871080453E-1   -1.148873064711790E-1   -1.891610043102886E-2   -4.691822993999323E-2   -2.003558220104333E-2   -4.661029042956242E-2    4.440529688504745E-1   -2.515852327063258E-1
 6.529522983150000E9     5.497463170355178E-1   -1.158919585964341E-1   -1.905022624539467E-2   -4.735512304841143E-2   -2.031229395994433E-2   -4.697051823192657E-2    4.433664097695852E-1   -2.524918291283543E-1
 6.529532800125000E9     5.494983782367815E-1   -1.168391829700256E-1   -1.937026525626208E-2   -4.758492346926193E-2   -2.047472889363129E-2   -4.728798970739910E-2    4.425695486451296E-1   -2.536438183676222E-1
 6.529542617100000E9     5.491845919254529E-1   -1.176223434014397E-1   -1.954982183540506E-2   -4.809389140966566E-2   -2.087133345073449E-2   -4.755464498320087E-2    4.418533175772810E-1   -2.546840904448158E-1
 6.529552434075000E9     5.489243337660561E-1   -1.184497095679576E-1   -1.984861553834436E-2   -4.811926152288516E-2   -2.107205560656895E-2   -4.788871848172689E-2    4.411673815805276E-1   -2.559859385627780E-1
 6.529562251050000E9     5.487647518356656E-1   -1.193606923097984E-1   -2.021904101038543E-2   -4.850170277739101E-2   -2.142561812828898E-2   -4.811750574090808E-2    4.403260425477183E-1   -2.571298549537619E-1
 6.529572068025000E9     5.485731123334295E-1   -1.204351057701498E-1   -2.046502318483842E-2   -4.891157291406661E-2   -2.167529960556005E-2   -4.847361839034607E-2    4.394265537283689E-1   -2.581755035090082E-1
 6.529581885000000E9     5.483692750893665E-1   -1.212992725387428E-1   -2.084488767759818E-2   -4.933185318545889E-2   -2.208702736302007E-2   -4.876624259819905E-2    4.386963486750891E-1   -2.592824713104578E-1
 6.529591701975000E9     5.480302656664782E-1   -1.222339882933963E-1   -2.107300026641023E-2   -4.973977930051159E-2   -2.236827344101129E-2   -4.914654270527351E-2    4.379560800133814E-1   -2.605333066163671E-1
 6.529601518950000E9     5.475788523356616E-1   -1.230596034482755E-1   -2.120968508806950E-2   -4.991159340437289E-2   -2.269231982328705E-2   -4.944750095612918E-2    4.370765040981067E-1   -2.614302399352109E-1
 6.529611335925000E9     5.473756207402483E-1   -1.240423753462428E-1   -2.160508397167965E-2   -5.024635340692118E-2   -2.303481565533392E-2   -4.983820465438271E-2    4.362828778501179E-1   -2.628299237130451E-1
 6.529621152900000E9     5.471698050880786E-1   -1.250433819435242E-1   -2.194796606440567E-2   -5.059889705037085E-2   -2.321660272009117E-2   -5.014021836899269E-2    4.355426906578805E-1   -2.639998228989657E-1
 6.529630969875000E9     5.468302046416641E-1   -1.258431762539052E-1   -2.241745585270650E-2   -5.107587437414227E-2   -2.356931260773473E-2   -5.054416146335698E-2    4.345535569781437E-1   -2.650429411363236E-1
 6.529640786850000E9     5.465727439142244E-1   -1.268282824680625E-1   -2.260267468702686E-2   -5.137411807836215E-2   -2.398245404097419E-2   -5.087620659028028E-2    4.335423704088979E-1   -2.662697427683057E-1
 6.529650603825000E9     5.462281737519876E-1   -1.277175141149383E-1   -2.300307693384791E-2   -5.177336835365099E-2   -2.434122670835067E-2   -5.127872364301471E-2    4.327843801186817E-1   -2.674167706855470E-1
 6.529660420800000E9     5.460354324286830E-1   -1.287863931722422E-1   -2.330287215240669E-2   -5.223208583841225E-2   -2.465142801116676E-2   -5.154956269567231E-2    4.320266170442408E-1   -2.685715758592963E-1
 6.529670237775000E9     5.457277578996838E-1   -1.296432158433356E-1   -2.364888765494902E-2   -5.245616048600580E-2   -2.501086603005030E-2   -5.205234998081298E-2    4.308530725749102E-1   -2.697961998719509E-1
 6.529680054750000E9     5.455517675146524E-1   -1.306100814803121E-1   -2.402347553167138E-2   -5.296046093927663E-2   -2.538103577961654E-2   -5.236338083865111E-2    4.300714413810010E-1   -2.710703656807550E-1
