#  HZ   S   RI   R     50.00 
! Rohde & Schwarz Vector Network Analyzer 
! Rohde-Schwarz,ZNB20-2Port,1311601062101988,3.16
! Created: UTC 3/21/2024, 12:55:52 AM
! freq[Hz]                re:S11                  im:S11                  re:S21                  im:S21                  re:S12                  im:S12                  re:S22                  im:S22
 6.528797812000000E9     5.605980566562901E-1   -5.361654920097066E-2   -7.645061185587854E-3   -3.166684413707992E-2   -8.390208313514932E-3   -3.140553068682397E-2    4.804428327897537E-1   -1.826273211791567E-1
 6.528807646425000E9     5.604675624837527E-1   -5.443431557873865E-2   -7.748134101037486E-3   -3.184339850302828E-2   -8.494248049127316E-3   -3.169736783999368E-2    4.799269211477367E-1   -1.833425043274550E-1
 6.528817480850000E9     5.604609949569164E-1   -5.524049169331623E-2   -7.787609771424334E-3   -3.197790145480765E-2   -8.572585428885324E-3   -3.187964896919723E-2    4.796344131165313E-1   -1.842289579984091E-1
 6.528827315275000E9     5.602799582198134E-1   -5.601898504376896E-2   -8.013455707113789E-3   -3.213962569044205E-2   -8.636471528840322E-3   -3.195126968187387E-2    4.792766069563160E-1   -1.851918381524805E-1
 6.528837149700000E9     5.602508244886321E-1   -5.683539671643671E-2   -8.064476831332493E-3   -3.211165055095069E-2   -8.856096345383209E-3   -3.213096401327734E-2    4.789982781679159E-1   -1.860267458369751E-1
 6.528846984125000E9     5.602484475094983E-1   -5.751241098653656E-2   -8.175760432865394E-3   -3.235011142386248E-2   -8.928258818533539E-3   -3.220920171429042E-2    4.784725483818074E-1   -1.868483669959512E-1
 6.528856818550000E9     5.601007025080601E-1   -5.843674646478584E-2   -8.283060224448340E-3   -3.251068360852054E-2   -8.909918708005653E-3   -3.238262283811437E-2    4.782111812388981E-1   -1.877101940383682E-1
 6.528866652975000E9     5.600138536935819E-1   -5.931211655228198E-2   -8.246677325691492E-3   -3.257780114287818E-2   -9.086414079189345E-3   -3.252967084614999E-2    4.778709509030299E-1   -1.884316429122082E-1
 6.528876487400000E9     5.599404292989748E-1   -6.004184827094104E-2   -8.440588849906779E-3   -3.278777961242087E-2   -9.194420947727641E-3   -3.264443793643651E-2    4.773275937807988E-1   -1.894309056685274E-1
 6.528886321825000E9     5.597815490260908E-1   -6.089865346552403E-2   -8.455844106465530E-3   -3.291295885300693E-2   -9.222743078050143E-3   -3.284138684091246E-2    4.771549036644188E-1   -1.902580888928454E-1
 6.528896156250000E9     5.596799461251819E-1   -6.164681653658089E-2   -8.587598446139448E-3   -3.313929945919487E-2   -9.430762994442666E-3   -3.286165763469190E-2    4.768551742495834E-1   -1.911967817021166E-1
 6.528905990675000E9     5.597115115677560E-1   -6.254364152647354E-2   -8.738085114603354E-3   -3.337514400436319E-2   -9.542245298401354E-3   -3.310390596018874E-2    4.762913545599495E-1   -1.919386651705591E-1
 6.528915825100000E9     5.595027231409441E-1   -6.316183962971415E-2   -9.002509908852757E-3   -3.353380953898755E-2   -9.606377909085273E-3   -3.317819826646372E-2    4.760572368405141E-1   -1.927567034822479E-1
 6.528925659525000E9     5.595935852551928E-1   -6.414684070441466E-2   -9.000369780002666E-3   -3.360752282523734E-2   -9.621976203601746E-3   -3.341491250674258E-2    4.757223579945583E-1   -1.938141080591772E-1
 6.528935493950000E9     5.593452298542149E-1   -6.490627414216034E-2   -9.177078683754851E-3   -3.388570118770852E-2   -9.873133581924097E-3   -3.360642544457434E-2    4.752335166274578E-1   -1.945366656155702E-1
 6.528945328375000E9     5.592276588637235E-1   -6.559505747117569E-2   -9.264914066798139E-3   -3.378145152062737E-2   -9.871012288006490E-3   -3.376958563460862E-2    4.747294138729651E-1   -1.954781382513028E-1
 6.528955162800000E9     5.592625511498889E-1   -6.655177897371534E-2   -9.291646422930063E-3   -3.415720416845674E-2   -9.938690206039406E-3   -3.388769558303033E-2    4.744047313842765E-1   -1.963496304757209E-1
 6.528964997225000E9     5.589925078697651E-1   -6.734203101946450E-2   -9.462038872024865E-3   -3.435154087091050E-2   -1.011932916422855E-2   -3.408005602636848E-2    4.740342970716446E-1   -1.971929866397929E-1
 6.528974831650000E9     5.589586239676697E-1   -6.803240328285586E-2   -9.562428505043982E-3   -3.434470589655677E-2   -1.025619533507482E-2   -3.431949824386505E-2    4.737433866774723E-1   -1.979973743971906E-1
 6.528984666075000E9     5.587736033375289E-1   -6.896563713833000E-2   -9.698041965532270E-3   -3.463872664385087E-2   -1.035181299267304E-2   -3.441335106560056E-2    4.731715481190245E-1   -1.989569667624554E-1
 6.528994500500000E9     5.587111401702860E-1   -6.964347452037702E-2   -9.645749589128259E-3   -3.470616919982483E-2   -1.053134036465159E-2   -3.458359138274532E-2    4.727390530029956E-1   -1.999851923012864E-1
 6.529004334925000E9     5.586859687145758E-1   -7.052924139732657E-2   -9.773528458584948E-3   -3.502994767182918E-2   -1.062064892904553E-2   -3.461702538766486E-2    4.724910493667811E-1   -2.008480841586341E-1
 6.529014169350000E9     5.584275677699869E-1   -7.135732361848622E-2   -9.907320729351124E-3   -3.507898918852931E-2   -1.072003375819158E-2   -3.484435867173455E-2    4.720151228530440E-1   -2.017102140578549E-1
 6.529024003775000E9     5.584383684478678E-1   -7.226286612798255E-2   -1.000494427324060E-2   -3.520349809234232E-2   -1.089660718483557E-2   -3.505433679877330E-2    4.714465802533961E-1   -2.024955329367091E-1
 6.529033838200000E9     5.583489409849905E-1   -7.316150472667940E-2   -1.024968421306428E-2   -3.539121182893306E-2   -1.100585983514686E-2   -3.521745543339505E-2    4.712335726640264E-1   -2.035282620403165E-1
 6.529043672625000E9     5.582585534451404E-1   -7.396633030844967E-2   -1.031634407436715E-2   -3.565530557137771E-2   -1.119139716750786E-2   -3.534497845514714E-2    4.707250184408143E-1   -2.042968144010421E-1
 6.529053507050000E9     5.580813135324864E-1   -7.471554424903297E-2   -1.046656914731556E-2   -3.570414097770819E-2   -1.137008147966262E-2   -3.554024102201004E-2    4.703646359689411E-1   -2.053000723208109E-1
 6.529063341475000E9     5.579979128244099E-1   -7.552550619619276E-2   -1.045148136020156E-2   -3.599083012453153E-2   -1.135452796049895E-2   -3.579492341166818E-2    4.697563492997065E-1   -2.060410081660489E-1
 6.529073175900000E9     5.578156135153449E-1   -7.634331360804190E-2   -1.059859168583005E-2   -3.621591212937521E-2   -1.153224694022907E-2   -3.588277781205013E-2    4.694525115722018E-1   -2.070803367504060E-1
 6.529083010325000E9     5.576234050581782E-1   -7.708147581044174E-2   -1.083901412919410E-2   -3.624451563684579E-2   -1.166623795796957E-2   -3.613498949276873E-2    4.690192078554795E-1   -2.079570891759059E-1
 6.529092844750000E9     5.575232355040565E-1   -7.796897624112438E-2   -1.107906904415649E-2   -3.657029639109028E-2   -1.186314278423422E-2   -3.636605315729909E-2    4.685716961579284E-1   -2.089209038256070E-1
 6.529102679175000E9     5.573844428019337E-1   -7.886259190844790E-2   -1.100392380192902E-2   -3.672154172138419E-2   -1.188159867858578E-2   -3.652153172322468E-2    4.680898605213307E-1   -2.096717523163713E-1
 6.529112513600000E9     5.573061012805145E-1   -7.970586955790446E-2   -1.112101990654428E-2   -3.694135843469743E-2   -1.207188173853300E-2   -3.667607958683432E-2    4.675836092067178E-1   -2.105649127890395E-1
 6.529122348025000E9     5.571263044301353E-1   -8.044802912699980E-2   -1.135357348925916E-2   -3.707760723842728E-2   -1.223704879565665E-2   -3.691606097869277E-2    4.670377131116628E-1   -2.115694525136216E-1
 6.529132182450000E9     5.570547352612604E-1   -8.133458098362870E-2   -1.142651957138783E-2   -3.724965468349604E-2   -1.235352178919083E-2   -3.702839593998263E-2    4.667105100795317E-1   -2.125659292083260E-1
 6.529142016875000E9     5.567898914002968E-1   -8.208997783726628E-2   -1.158869351724157E-2   -3.737133051810951E-2   -1.252968328681574E-2   -3.731467785862317E-2    4.662591356861797E-1   -2.135296850030573E-1
 6.529151851300000E9     5.566751941902137E-1   -8.292330899785476E-2   -1.171580513762763E-2   -3.768299555689364E-2   -1.285379906650484E-2   -3.742217608006344E-2    4.656321675514365E-1   -2.144931470001571E-1
 6.529161685725000E9     5.565555416892435E-1   -8.379373781043047E-2   -1.205158732910766E-2   -3.782101184012481E-2   -1.276521708212073E-2   -3.760663920353377E-2    4.652208266081529E-1   -2.154372026009086E-1
 6.529171520150000E9     5.563885342743232E-1   -8.459504755944464E-2   -1.208633506028592E-2   -3.790578098482959E-2   -1.295087417193088E-2   -3.792969466304665E-2    4.647771706630558E-1   -2.163019938307879E-1
 6.529181354575000E9     5.562828034088939E-1   -8.539282968938328E-2   -1.213718939559801E-2   -3.828815891286739E-2   -1.319407604576320E-2   -3.802971570814437E-2    4.643213682002734E-1   -2.172704525977378E-1
 6.529191189000000E9     5.561571803197277E-1   -8.629642416912563E-2   -1.229658465259926E-2   -3.851211145433410E-2   -1.337001485148565E-2   -3.839226165110381E-2    4.637343421376136E-1   -2.181551957806819E-1
 6.529201023425000E9     5.560956870343927E-1   -8.705064753933725E-2   -1.262389567732474E-2   -3.879966122494088E-2   -1.332200635659521E-2   -3.839227383120804E-2    4.632342089735120E-1   -2.191824530446172E-1
 6.529210857850000E9     5.558025344782230E-1   -8.802561241048737E-2   -1.265659669627777E-2   -3.896872873175936E-2   -1.357593569603438E-2   -3.868151145851439E-2    4.625998541399438E-1   -2.199198784068540E-1
 6.529220692275000E9     5.556382492896934E-1   -8.885981920282429E-2   -1.269646429028873E-2   -3.919618838105697E-2   -1.373079344248506E-2   -3.888033113778509E-2    4.624303165743914E-1   -2.209152523906607E-1
 6.529230526700000E9     5.555273822212199E-1   -8.964198434936774E-2   -1.305342450913846E-2   -3.934549009250791E-2   -1.377830498428005E-2   -3.911848288076576E-2    4.619056874410490E-1   -2.218991436136931E-1
 6.529240361125000E9     5.552990447866263E-1   -9.062040840171860E-2   -1.314630293851948E-2   -3.960456252700894E-2   -1.408850698166704E-2   -3.931627324886786E-2    4.612697094379137E-1   -2.229259509683997E-1
 6.529250195550000E9     5.552221986182202E-1   -9.141658642759461E-2   -1.319791675430668E-2   -3.978264842911747E-2   -1.422930486234145E-2   -3.953349564411924E-2    4.607016905328774E-1   -2.238458810138748E-1
 6.529260029975000E9     5.551290409766655E-1   -9.217885109856398E-2   -1.354961019325839E-2   -3.993370104952225E-2   -1.443303947015492E-2   -3.967742168384657E-2    4.601018680441325E-1   -2.249085036675045E-1
 6.529269864400000E9     5.549248828742139E-1   -9.303317751443106E-2   -1.360423565937151E-2   -4.024459444797230E-2   -1.462428178458408E-2   -3.987544410250207E-2    4.596976210237415E-1   -2.257978733357842E-1
 6.529279698825000E9     5.547050658431212E-1   -9.398701872079378E-2   -1.392316775506600E-2   -4.047920216903192E-2   -1.480584908359148E-2   -4.020192799129357E-2    4.591567403121535E-1   -2.267001065982534E-1
 6.529289533250000E9     5.545664532945139E-1   -9.472351920924924E-2   -1.401862789990974E-2   -4.058962964372243E-2   -1.487336677749473E-2   -4.039245572803790E-2    4.585627018329113E-1   -2.277793683132724E-1
 6.529299367675000E9     5.543707675736981E-1   -9.551071076540824E-2   -1.428104368186269E-2   -4.083299017424612E-2   -1.521197551923956E-2   -4.058777587535633E-2    4.581981380837067E-1   -2.286675193792564E-1
 6.529309202100000E9     5.542152302371255E-1   -9.650250409950212E-2   -1.438836388070754E-2   -4.109444954684291E-2   -1.537596780645226E-2   -4.090772484590167E-2    4.573478972574836E-1   -2.297760333341503E-1
 6.529319036525000E9     5.540052233046677E-1   -9.734907756439176E-2   -1.440494462790184E-2   -4.130241452799601E-2   -1.544547583653461E-2   -4.109892258079126E-2    4.569761228924956E-1   -2.305979241132419E-1
 6.529328870950000E9     5.537395640135185E-1   -9.815602442116241E-2   -1.468985061820434E-2   -4.164049382521166E-2   -1.571590707540700E-2   -4.139722463283026E-2    4.564320052685384E-1   -2.317793850621443E-1
 6.529338705375000E9     5.537515003317462E-1   -9.899988461585595E-2   -1.494640152215285E-2   -4.199732121776719E-2   -1.590004075709204E-2   -4.162969990796107E-2    4.556655385059870E-1   -2.326856215199496E-1
 6.529348539800000E9     5.535060501569415E-1   -9.990381876252125E-2   -1.504268146314261E-2   -4.220245009201311E-2   -1.612991691773949E-2   -4.185707359488878E-2    4.549823873251667E-1   -2.336343131752570E-1
 6.529358374225000E9     5.532861744134532E-1   -1.007313840713477E-1   -1.532820708911700E-2   -4.242462926711345E-2   -1.628298218258145E-2   -4.218037059250833E-2    4.546321916323112E-1   -2.348003301698005E-1
 6.529368208650000E9     5.531446287226519E-1   -1.017872474690008E-1   -1.550077936144894E-2   -4.262936735637934E-2   -1.651104757031685E-2   -4.239433843481897E-2    4.539523399550351E-1   -2.356687419400088E-1
 6.529378043075000E9     5.527773581147762E-1   -1.024479070127875E-1   -1.573003902385471E-2   -4.293771591277041E-2   -1.666376487385130E-2   -4.259608481518413E-2    4.535087700277783E-1   -2.367777468193138E-1
 6.529387877500000E9     5.527454129411419E-1   -1.033991639213321E-1   -1.589408489682646E-2   -4.321558641015297E-2   -1.694488836681372E-2   -4.295776925984782E-2    4.527090303295822E-1   -2.378527447469558E-1
 6.529397711925000E9     5.524008939567125E-1   -1.042445817565270E-1   -1.616100167534305E-2   -4.332988775752155E-2   -1.710408439186135E-2   -4.311164717917020E-2    4.520313104662085E-1   -2.388056517766234E-1
 6.529407546350000E9     5.523519318131422E-1   -1.051676120598733E-1   -1.618876865316439E-2   -4.369902082850229E-2   -1.733846633220644E-2   -4.325458183889191E-2    4.515116146371592E-1   -2.397791268043661E-1
 6.529417380775000E9     5.520988219829333E-1   -1.059438716976997E-1   -1.646656291953638E-2   -4.398522417694831E-2   -1.755672193838748E-2   -4.365997694812445E-2    4.506968251507560E-1   -2.408986710531291E-1
 6.529427215200000E9     5.518839722883176E-1   -1.069662859557130E-1   -1.673426990172839E-2   -4.420961710013611E-2   -1.776523465073642E-2   -4.383928129376612E-2    4.499947042478372E-1   -2.419107635149985E-1
 6.529437049625000E9     5.516758817796861E-1   -1.076957292617829E-1   -1.704019543117815E-2   -4.450467454262475E-2   -1.802982726536812E-2   -4.408923723835281E-2    4.494431305054471E-1   -2.430320063109776E-1
 6.529446884050000E9     5.514644000167267E-1   -1.087122040969261E-1   -1.713576513084579E-2   -4.473714835179427E-2   -1.825265454029876E-2   -4.447593856843486E-2    4.488282254166903E-1   -2.438296993132152E-1
 6.529456718475000E9     5.512814309849554E-1   -1.095664017484313E-1   -1.739772264957115E-2   -4.505652069766016E-2   -1.845248128743854E-2   -4.483315836458493E-2    4.481184123176926E-1   -2.448873204447106E-1
 6.529466552900000E9     5.511725313942273E-1   -1.103763199039113E-1   -1.756491180597303E-2   -4.535734924828573E-2   -1.881328902639473E-2   -4.508812602779502E-2    4.476010688612203E-1   -2.458957796284336E-1
 6.529476387325000E9     5.508628488591575E-1   -1.113418885709880E-1   -1.795780521486948E-2   -4.561652414736132E-2   -1.902119672483831E-2   -4.530236458538053E-2    4.467764658724425E-1   -2.471189019519971E-1
 6.529486221750000E9     5.506352534826131E-1   -1.122270651427868E-1   -1.793972694213530E-2   -4.591319879670123E-2   -1.928006801554777E-2   -4.556711989819442E-2    4.461005945348143E-1   -2.482366759877883E-1
 6.529496056175000E9     5.504143478890172E-1   -1.131667430328061E-1   -1.833067478436034E-2   -4.612311352538631E-2   -1.956763387479751E-2   -4.597351594945508E-2    4.454868882856080E-1   -2.492420816668500E-1
 6.529505890600000E9     5.500582604944724E-1   -1.140006321872530E-1   -1.856814133414706E-2   -4.647862135585165E-2   -1.970369587453599E-2   -4.626503194278839E-2    4.447104472949667E-1   -2.504552628972923E-1
 6.529515725025000E9     5.498966216039568E-1   -1.147725205456772E-1   -1.876033062961444E-2   -4.691845823627495E-2   -1.999468480385592E-2   -4.641582172692178E-2    4.440622857000154E-1   -2.515534406868881E-1
 6.529525559450000E9     5.496849884392914E-1   -1.158753766225217E-1   -1.898770416901216E-2   -4.728698059748210E-2   -2.022554996950394E-2   -4.682401020086587E-2    4.431873530218713E-1   -2.526039687413577E-1
 6.529535393875000E9     5.494053867333165E-1   -1.167024382312454E-1   -1.932648212592836E-2   -4.752994174751034E-2   -2.055555859842547E-2   -4.717106657968697E-2    4.425340501173333E-1   -2.536038259224391E-1
 6.529545228300000E9     5.491390935426557E-1   -1.176096751275697E-1   -1.968719296187189E-2   -4.784116112226568E-2   -2.087299766237861E-2   -4.740794197506470E-2    4.418504179819170E-1   -2.548424322444405E-1
 6.529555062725000E9     5.489744088697133E-1   -1.184497579590189E-1   -1.989048782803243E-2   -4.801536842763381E-2   -2.108056896679256E-2   -4.773661938147023E-2    4.409796608731518E-1   -2.558994479560676E-1
 6.529564897150000E9     5.486010876553248E-1   -1.193330217766496E-1   -2.015280360954720E-2   -4.843846402895768E-2   -2.134867300182799E-2   -4.818114190191244E-2    4.401668066359432E-1   -2.569153536318234E-1
 6.529574731575000E9     5.484555948118017E-1   -1.203621344256386E-1   -2.046497135172283E-2   -4.870212207303939E-2   -2.170364250588866E-2   -4.834891772934589E-2    4.393998175462865E-1   -2.582115373229242E-1
 6.529584566000000E9     5.482588908582375E-1   -1.213497791902995E-1   -2.077778778435019E-2   -4.921538579519753E-2   -2.195605005028739E-2   -4.873477338614991E-2    4.386833078001828E-1   -2.592630643852398E-1
 6.529594400425000E9     5.479202889531675E-1   -1.222899019098743E-1   -2.096204891497608E-2   -4.944326922997486E-2   -2.223714238407809E-2   -4.903493970170184E-2    4.378349475393764E-1   -2.602958010210175E-1
 6.529604234850000E9     5.477046275804490E-1   -1.231166272638054E-1   -2.130377192026685E-2   -4.984343978534789E-2   -2.276933795086203E-2   -4.947728192812729E-2    4.370941898943733E-1   -2.614396877852097E-1
 6.529614069275000E9     5.473878156726896E-1   -1.240386125132362E-1   -2.163834521803998E-2   -5.026484673638146E-2   -2.289646301493715E-2   -4.975032910650390E-2    4.362461823280276E-1   -2.626945904085521E-1
 6.529623903700000E9     5.470554454410207E-1   -1.250398235830678E-1   -2.199699172629435E-2   -5.056120955839715E-2   -2.325757485036611E-2   -5.012462494286377E-2    4.353924835118029E-1   -2.638043711134152E-1
 6.529633738125000E9     5.467706437023000E-1   -1.258916273720422E-1   -2.227529913117785E-2   -5.100395443782046E-2   -2.361900253525781E-2   -5.045976295102428E-2    4.343899363789057E-1   -2.650201183629707E-1
 6.529643572550000E9     5.465463350539196E-1   -1.268362315304286E-1   -2.272205023473212E-2   -5.117724818256168E-2   -2.399193772158069E-2   -5.081083715517876E-2    4.335143771606174E-1   -2.662510162216088E-1
 6.529653406975000E9     5.463289974249690E-1   -1.278339204985524E-1   -2.292038683477885E-2   -5.178094466238068E-2   -2.433454518075298E-2   -5.105239680949896E-2    4.327767260731793E-1   -2.675103038560173E-1
 6.529663241400000E9     5.459736660277587E-1   -1.288491556089457E-1   -2.339422146816902E-2   -5.214282989742968E-2   -2.457953894809357E-2   -5.145730596024781E-2    4.317016823345540E-1   -2.685499386386522E-1
 6.529673075825000E9     5.457481666852976E-1   -1.296695427025123E-1   -2.355320717712107E-2   -5.245247130801247E-2   -2.505129813089709E-2   -5.186577368833043E-2    4.308485525797008E-1   -2.698390152958455E-1
 6.529682910250000E9     5.453077948132238E-1   -1.307443928592916E-1   -2.397725223794964E-2   -5.283964082798322E-2   -2.523667238366695E-2   -5.225140865564817E-2    4.299940175395305E-1   -2.708655316888861E-1
