#  HZ   S   RI   R     50.00 
! Rohde & Schwarz Vector Network Analyzer 
! Rohde-Schwarz,ZNB20-2Port,1311601062101988,3.16
! Created: UTC 3/21/2024, 12:55:57 AM
! freq[Hz]                re:S11                  im:S11                  re:S21                  im:S21                  re:S12                  im:S12                  re:S22                  im:S22
 6.528795333000000E9     5.605937123894366E-1   -5.336484625314493E-2   -7.750309588739374E-3   -3.156966904352095E-2   -8.382049832494307E-3   -3.149950464526257E-2    4.814995007993789E-1   -1.838309678591369E-1
 6.528805189200000E9     5.606206451910619E-1   -5.423291144540120E-2   -7.776324290579218E-3   -3.171708724821527E-2   -8.562001082948641E-3   -3.168170875365189E-2    4.811159422275034E-1   -1.845870964842687E-1
 6.528815045400000E9     5.605487075881830E-1   -5.496471920006017E-2   -7.741022321410009E-3   -3.187643642118880E-2   -8.569585861036594E-3   -3.170616393257493E-2    4.807428642474412E-1   -1.854250635952624E-1
 6.528824901600000E9     5.604019457409115E-1   -5.583813331769714E-2   -7.876624581914776E-3   -3.203031225285979E-2   -8.598426080825639E-3   -3.185191757265030E-2    4.804671307938917E-1   -1.862165608437094E-1
 6.528834757800000E9     5.603819201810574E-1   -5.656762228343244E-2   -8.090432669350835E-3   -3.225516546149680E-2   -8.848809908919959E-3   -3.208376746950169E-2    4.800097309585560E-1   -1.873390344955062E-1
 6.528844614000000E9     5.602981031993972E-1   -5.740985724296841E-2   -8.055009343020560E-3   -3.222299832800935E-2   -8.918529788687148E-3   -3.204333246429408E-2    4.797051217738732E-1   -1.880778769241929E-1
 6.528854470200000E9     5.601888802888386E-1   -5.821701547277891E-2   -8.268751092229291E-3   -3.246050384455766E-2   -8.945578433250926E-3   -3.233668257494464E-2    4.792479482365873E-1   -1.889436565544675E-1
 6.528864326400000E9     5.600950161367748E-1   -5.904181213774613E-2   -8.396985805496611E-3   -3.261669361092972E-2   -9.002514155389092E-3   -3.246893261067931E-2    4.788583396961928E-1   -1.897418914355490E-1
 6.528874182600000E9     5.599996087709520E-1   -5.987258241008332E-2   -8.498104844791602E-3   -3.284985941014500E-2   -9.207333858262674E-3   -3.250106108098329E-2    4.787897789849754E-1   -1.905812651762666E-1
 6.528884038800000E9     5.597939500363399E-1   -6.065447500979797E-2   -8.641383801619659E-3   -3.284914314646949E-2   -9.310155301729461E-3   -3.284763091423074E-2    4.783294516863503E-1   -1.915161422726874E-1
 6.528893895000000E9     5.597017648286708E-1   -6.150867955910313E-2   -8.712020927351009E-3   -3.309993880745311E-2   -9.422635329535207E-3   -3.285930526702513E-2    4.777049516697775E-1   -1.922757977147240E-1
 6.528903751200000E9     5.596384078264502E-1   -6.225277594708059E-2   -8.719595316090484E-3   -3.320310731072081E-2   -9.453337827329145E-3   -3.313574711484225E-2    4.774321071726313E-1   -1.932629975265036E-1
 6.528913607400000E9     5.595897317953852E-1   -6.298515367319794E-2   -8.856861872905821E-3   -3.333025521457722E-2   -9.655642663099593E-3   -3.326163589842086E-2    4.770908692243476E-1   -1.941946323558238E-1
 6.528923463600000E9     5.594773414342371E-1   -6.395923389079021E-2   -8.940946630748540E-3   -3.364542294157007E-2   -9.665060039309545E-3   -3.343834179406379E-2    4.769215851570873E-1   -1.948061358047836E-1
 6.528933319800000E9     5.593950378427684E-1   -6.473994524281641E-2   -8.918934079768955E-3   -3.378731117012736E-2   -9.781061952426957E-3   -3.350476127016883E-2    4.762567531054624E-1   -1.957489858217666E-1
 6.528943176000000E9     5.593185054696949E-1   -6.546737204671690E-2   -9.204127197412169E-3   -3.377227613523666E-2   -9.957519234161319E-3   -3.367442606315052E-2    4.758371894953659E-1   -1.967046690241569E-1
 6.528953032200000E9     5.591570521457189E-1   -6.640141195592847E-2   -9.266406698500405E-3   -3.400305934220554E-2   -1.000819464396124E-2   -3.386358933815957E-2    4.753943991430900E-1   -1.975435663017661E-1
 6.528962888400000E9     5.590970283117076E-1   -6.700843612603928E-2   -9.362395009138869E-3   -3.402853547188025E-2   -1.013435272912874E-2   -3.401165330114154E-2    4.750123743531223E-1   -1.983823276720269E-1
 6.528972744600000E9     5.590296593505111E-1   -6.782830003236608E-2   -9.521985913980850E-3   -3.438243211874111E-2   -1.025295911457991E-2   -3.421145565616882E-2    4.746283945276017E-1   -1.992516816746857E-1
 6.528982600800000E9     5.587718950784228E-1   -6.871468845862770E-2   -9.530807197099905E-3   -3.454295848700760E-2   -1.041415297369661E-2   -3.435002167357015E-2    4.743288540094805E-1   -2.003183989965362E-1
 6.528992457000000E9     5.586402484220004E-1   -6.947463113791912E-2   -9.667062426460373E-3   -3.470022504935064E-2   -1.052134637856936E-2   -3.449207257970482E-2    4.738277807863207E-1   -2.010794256683021E-1
 6.529002313200000E9     5.586238558550017E-1   -7.035369332658795E-2   -9.926929844086075E-3   -3.489338923672872E-2   -1.063097986725286E-2   -3.469159867711797E-2    4.734456642618555E-1   -2.019736804154072E-1
 6.529012169400000E9     5.585979716476410E-1   -7.114569901340219E-2   -9.925123766540507E-3   -3.512767585793325E-2   -1.080576460852353E-2   -3.478034886567898E-2    4.731863441029291E-1   -2.029243579510089E-1
 6.529022025600000E9     5.583679351116153E-1   -7.194124163246654E-2   -1.007932267566034E-2   -3.524817748881616E-2   -1.087813058174092E-2   -3.503377722557288E-2    4.725584270834858E-1   -2.039044744547562E-1
 6.529031881800000E9     5.583742209984044E-1   -7.295922698510304E-2   -1.020125948460689E-2   -3.551165939015202E-2   -1.094011896629050E-2   -3.521707413264949E-2    4.721424898323496E-1   -2.047036352418623E-1
 6.529041738000000E9     5.582414794489270E-1   -7.367575599193547E-2   -1.030097421671344E-2   -3.564731212961212E-2   -1.103428552489259E-2   -3.540897978003861E-2    4.716669121646627E-1   -2.055599740689021E-1
 6.529051594200000E9     5.579944299084456E-1   -7.443026218190092E-2   -1.050658586865357E-2   -3.566801863506487E-2   -1.129441584970213E-2   -3.553611698314492E-2    4.712398175121557E-1   -2.063987552865090E-1
 6.529061450400000E9     5.578463247144743E-1   -7.530144653147482E-2   -1.059032117727187E-2   -3.587510927366141E-2   -1.131602431168129E-2   -3.566431902767848E-2    4.709111306305527E-1   -2.072579515821336E-1
 6.529071306600000E9     5.578513498058485E-1   -7.606437740977380E-2   -1.061655052203427E-2   -3.611317311962264E-2   -1.163828134128457E-2   -3.588340668641540E-2    4.705691809886162E-1   -2.082188383639466E-1
 6.529081162800000E9     5.577789462694858E-1   -7.695041216741411E-2   -1.088541148662123E-2   -3.625596440590943E-2   -1.168919172803656E-2   -3.605825949397364E-2    4.698140333832430E-1   -2.091564123637620E-1
 6.529091019000000E9     5.575605147574205E-1   -7.778890938905689E-2   -1.102490703746432E-2   -3.652572802333127E-2   -1.184315916189109E-2   -3.637398556502489E-2    4.696132185362589E-1   -2.100569095492885E-1
 6.529100875200000E9     5.574454193590761E-1   -7.853226467618937E-2   -1.096813629727140E-2   -3.661490121054835E-2   -1.186352078991631E-2   -3.641258189167756E-2    4.691991610318773E-1   -2.110227160305070E-1
 6.529110731400000E9     5.572350131181337E-1   -7.937941240732019E-2   -1.118255974801815E-2   -3.681022843244785E-2   -1.202503319863089E-2   -3.668644763808231E-2    4.686139517182513E-1   -2.121048981043857E-1
 6.529120587600000E9     5.571963090641094E-1   -8.033994809058673E-2   -1.137586691642867E-2   -3.697023617455028E-2   -1.223149910722351E-2   -3.676067092507843E-2    4.682874336727820E-1   -2.129381420523579E-1
 6.529130443800000E9     5.569841979894322E-1   -8.112902620293910E-2   -1.153697057609578E-2   -3.725313363811773E-2   -1.231178503155135E-2   -3.704926487797967E-2    4.676860130140200E-1   -2.138933346872369E-1
 6.529140300000000E9     5.568862233630634E-1   -8.190891333605754E-2   -1.159600729610826E-2   -3.738460528156504E-2   -1.245674433866672E-2   -3.720107936890438E-2    4.670531105475937E-1   -2.147178660856311E-1
 6.529150156200000E9     5.567099641007170E-1   -8.277889953319745E-2   -1.174592157994197E-2   -3.756999964776591E-2   -1.261268905382292E-2   -3.742876450261799E-2    4.668025411950200E-1   -2.157409137717800E-1
 6.529160012400000E9     5.567110859144330E-1   -8.357236529080839E-2   -1.185448806242042E-2   -3.791481065810205E-2   -1.280400520282266E-2   -3.755588909296098E-2    4.662192047714060E-1   -2.165598186708312E-1
 6.529169868600000E9     5.563545481607334E-1   -8.442334479410209E-2   -1.205727363317574E-2   -3.797652669810701E-2   -1.292962651604692E-2   -3.771102163610834E-2    4.657985166257868E-1   -2.176644129666426E-1
 6.529179724800000E9     5.563490368138542E-1   -8.526898540427250E-2   -1.224799424255439E-2   -3.817711004412153E-2   -1.315129129080055E-2   -3.805312445121514E-2    4.653595469256551E-1   -2.184216882280728E-1
 6.529189581000000E9     5.562590493131098E-1   -8.609806780390732E-2   -1.223101007503775E-2   -3.841431809014983E-2   -1.325329063156346E-2   -3.824489850188738E-2    4.647966531759281E-1   -2.194432739470773E-1
 6.529199437200000E9     5.560068998946385E-1   -8.690520861880852E-2   -1.254018809150587E-2   -3.861683031174880E-2   -1.347151569013019E-2   -3.845307055849741E-2    4.643933546078560E-1   -2.204562610200504E-1
 6.529209293400000E9     5.559879796098418E-1   -8.777145531963618E-2   -1.255491225260257E-2   -3.891305157908749E-2   -1.353554787113240E-2   -3.862587159316101E-2    4.636899632189680E-1   -2.213556168415358E-1
 6.529219149600000E9     5.555956945049592E-1   -8.858025949189179E-2   -1.287616439062460E-2   -3.912054187243620E-2   -1.372807484539641E-2   -3.885468798770183E-2    4.634772218252330E-1   -2.223030245863090E-1
 6.529229005800000E9     5.554728095357506E-1   -8.957431038177752E-2   -1.302658872335917E-2   -3.908433051152885E-2   -1.401213396026886E-2   -3.913461909233434E-2    4.628148976254979E-1   -2.234010706421747E-1
 6.529238862000000E9     5.553451423109634E-1   -9.036754470131567E-2   -1.332912167808914E-2   -3.953478400996051E-2   -1.410353331561436E-2   -3.927548497845244E-2    4.623261338959092E-1   -2.241336800539422E-1
 6.529248718200000E9     5.551948931371681E-1   -9.115522221507225E-2   -1.330426796359025E-2   -3.975447672219917E-2   -1.429290098214834E-2   -3.949237366918847E-2    4.617916856202639E-1   -2.249693136035323E-1
 6.529258574400000E9     5.549567296995083E-1   -9.218692930835422E-2   -1.347189923425591E-2   -3.999353656938169E-2   -1.436114753477881E-2   -3.965493755502444E-2    4.612242298121841E-1   -2.261788566244989E-1
 6.529268430600000E9     5.548798008834889E-1   -9.286762942272359E-2   -1.360994655376611E-2   -4.021583042775268E-2   -1.462163694333184E-2   -3.978464144481778E-2    4.607345014714491E-1   -2.271738703212974E-1
 6.529278286800000E9     5.546970232387044E-1   -9.370278094240729E-2   -1.385644764110728E-2   -4.040620220478107E-2   -1.482074908183542E-2   -4.015960976198515E-2    4.602225983527816E-1   -2.281026931406639E-1
 6.529288143000000E9     5.545811241192038E-1   -9.456130495555000E-2   -1.389734171555200E-2   -4.071764653724408E-2   -1.501998515585406E-2   -4.030636400351994E-2    4.595476915101048E-1   -2.290922896183814E-1
 6.529297999200000E9     5.544538550846523E-1   -9.537022900351935E-2   -1.405033288939054E-2   -4.086105910122215E-2   -1.510283799006885E-2   -4.065654131381363E-2    4.589420022342004E-1   -2.300115336313920E-1
 6.529307855400000E9     5.541714339795072E-1   -9.625683273905183E-2   -1.441304566064470E-2   -4.109379865821808E-2   -1.531586200435542E-2   -4.080954958680370E-2    4.585182975852676E-1   -2.310130423448598E-1
 6.529317711600000E9     5.541202770288521E-1   -9.710416751242679E-2   -1.457633920951645E-2   -4.135990556151672E-2   -1.548472081425178E-2   -4.103191173634040E-2    4.577782837168078E-1   -2.319605492402281E-1
 6.529327567800000E9     5.539452828610792E-1   -9.807462250932739E-2   -1.474930394949892E-2   -4.156618867588315E-2   -1.564535461037239E-2   -4.129768565497780E-2    4.571888787885037E-1   -2.331081945803011E-1
 6.529337424000000E9     5.536098341520341E-1   -9.883475887793074E-2   -1.487406871399718E-2   -4.182625803813475E-2   -1.586435097180641E-2   -4.147100121961870E-2    4.565462478815003E-1   -2.339404077595600E-1
 6.529347280200000E9     5.534943508851896E-1   -9.971075515916723E-2   -1.511582541378822E-2   -4.194633093045461E-2   -1.614078032314171E-2   -4.188453945445238E-2    4.561141965052053E-1   -2.350887188024449E-1
 6.529357136400000E9     5.532879001206769E-1   -1.006530949566951E-1   -1.525085624038447E-2   -4.231302434222584E-2   -1.629410273899366E-2   -4.209514319036624E-2    4.556204426678666E-1   -2.359598564724881E-1
 6.529366992600000E9     5.531539186296561E-1   -1.014833147483291E-1   -1.548096006687668E-2   -4.257889180557064E-2   -1.647126563379938E-2   -4.223579415006521E-2    4.548538839108429E-1   -2.370905449123113E-1
 6.529376848800000E9     5.530079347452669E-1   -1.024319289711930E-1   -1.556319475765832E-2   -4.279106378921933E-2   -1.671201363799778E-2   -4.257950391653884E-2    4.543191659091403E-1   -2.379557123124442E-1
 6.529386705000000E9     5.527192145149189E-1   -1.032430754937826E-1   -1.593574412854817E-2   -4.316374402187342E-2   -1.689699467343288E-2   -4.280820885011249E-2    4.537376414055113E-1   -2.390923599361278E-1
 6.529396561200000E9     5.525159980310247E-1   -1.040577222132428E-1   -1.605378512949249E-2   -4.335363595396427E-2   -1.711198016567187E-2   -4.312754526851800E-2    4.530951257590529E-1   -2.401239932359628E-1
 6.529406417400000E9     5.523607943104225E-1   -1.049495031830179E-1   -1.631436977072704E-2   -4.380003864229697E-2   -1.723762494056571E-2   -4.340601839084910E-2    4.524792037139260E-1   -2.410788094038243E-1
 6.529416273600000E9     5.522435221864124E-1   -1.059088493860919E-1   -1.651702549708084E-2   -4.393726190205206E-2   -1.756817893639861E-2   -4.363132953325340E-2    4.516999817052307E-1   -2.422309610662878E-1
 6.529426129800000E9     5.519589285041049E-1   -1.067319661428818E-1   -1.669438626101015E-2   -4.429352660194058E-2   -1.778784880268397E-2   -4.388227238934434E-2    4.511424772614213E-1   -2.431807324447976E-1
 6.529435986000000E9     5.517558659994577E-1   -1.076423813600921E-1   -1.693480503092168E-2   -4.439711927170415E-2   -1.796481983220036E-2   -4.413289443063372E-2    4.506448177879203E-1   -2.442942721952421E-1
 6.529445842200000E9     5.514400670993417E-1   -1.086425603162006E-1   -1.707721335371141E-2   -4.473785658542239E-2   -1.830439496626077E-2   -4.438542719566044E-2    4.500394572555020E-1   -2.453869907810509E-1
 6.529455698400000E9     5.513279747803385E-1   -1.093339028611659E-1   -1.732738289745983E-2   -4.503663594546228E-2   -1.848479727843019E-2   -4.471765102221473E-2    4.492171436126425E-1   -2.463851827929427E-1
 6.529465554600000E9     5.510171346325522E-1   -1.103348815434247E-1   -1.762419799791411E-2   -4.533129457440808E-2   -1.872335319933832E-2   -4.500891709374241E-2    4.484595395562374E-1   -2.474834220878532E-1
 6.529475410800000E9     5.509160025356516E-1   -1.111866798472674E-1   -1.779440424501826E-2   -4.561904579610748E-2   -1.888758569303681E-2   -4.519162730602062E-2    4.477218922272855E-1   -2.488315593098487E-1
 6.529485267000000E9     5.507799140608333E-1   -1.120211930504581E-1   -1.806779297226535E-2   -4.591029388707562E-2   -1.917936530077644E-2   -4.558055036978517E-2    4.471494296435800E-1   -2.495088383634308E-1
 6.529495123200000E9     5.504479752538914E-1   -1.129260079637166E-1   -1.832627481768254E-2   -4.633737423854289E-2   -1.946192668264679E-2   -4.578361576010500E-2    4.462474420973267E-1   -2.506253982389234E-1
 6.529504979400000E9     5.502268219624324E-1   -1.138798814545431E-1   -1.856596657740092E-2   -4.650067226615102E-2   -1.976416625941211E-2   -4.602069710222950E-2    4.456592902996458E-1   -2.518727403321433E-1
 6.529514835600000E9     5.499650612785069E-1   -1.147625510689617E-1   -1.887831291754110E-2   -4.679000539241039E-2   -1.999947143675765E-2   -4.642958522204684E-2    4.449580419308111E-1   -2.529042012513691E-1
 6.529524691800000E9     5.496846076642146E-1   -1.157392274848055E-1   -1.911527726460389E-2   -4.709314674563254E-2   -2.027543766629603E-2   -4.665773733847517E-2    4.442090752701156E-1   -2.539458148501025E-1
 6.529534548000000E9     5.495365268101829E-1   -1.166739838272136E-1   -1.924928610573424E-2   -4.747805753924345E-2   -2.047123704624241E-2   -4.701838794512105E-2    4.435587643979885E-1   -2.549544485138516E-1
 6.529544404200000E9     5.492654141710216E-1   -1.175830573130520E-1   -1.963678212708268E-2   -4.762259209442686E-2   -2.084336541915011E-2   -4.736157253802128E-2    4.426448272301204E-1   -2.561293559021803E-1
 6.529554260400000E9     5.488802565505195E-1   -1.183330799749543E-1   -1.988457708372799E-2   -4.808481611023032E-2   -2.109099601635532E-2   -4.763545697548203E-2    4.418090631339415E-1   -2.573597844401401E-1
 6.529564116600000E9     5.487105231572095E-1   -1.193288585394235E-1   -2.016850059973994E-2   -4.852841226767592E-2   -2.132625568480616E-2   -4.807485136711676E-2    4.410048784767210E-1   -2.584033922916660E-1
 6.529573972800000E9     5.484643581492475E-1   -1.202532830316146E-1   -2.053917889938517E-2   -4.878140527440883E-2   -2.170613243938141E-2   -4.833813612071782E-2    4.402594560334428E-1   -2.595294703519685E-1
 6.529583829000000E9     5.481968270802301E-1   -1.211074215195159E-1   -2.072457493194985E-2   -4.899710997868086E-2   -2.203910011738503E-2   -4.872835918157027E-2    4.394694173715061E-1   -2.605843157776194E-1
 6.529593685200000E9     5.479080385720040E-1   -1.220275401455007E-1   -2.094365156465673E-2   -4.930168463731128E-2   -2.230509154393917E-2   -4.902783236167243E-2    4.388462925556789E-1   -2.618827689552346E-1
 6.529603541400000E9     5.476821871844203E-1   -1.229972031318899E-1   -2.144182447340706E-2   -4.978046186449139E-2   -2.265196002598877E-2   -4.938312685132881E-2    4.378124754552367E-1   -2.629273411027329E-1
 6.529613397600000E9     5.474314954722707E-1   -1.239786246913019E-1   -2.170884178601120E-2   -5.024422097644844E-2   -2.300837213568466E-2   -4.965247529618705E-2    4.371093888055539E-1   -2.640317868173888E-1
 6.529623253800000E9     5.471571154707233E-1   -1.248514735476838E-1   -2.194678069707675E-2   -5.048322322144704E-2   -2.323344419152191E-2   -4.998785293459788E-2    4.361745146018486E-1   -2.653244266140803E-1
 6.529633110000000E9     5.468283502100024E-1   -1.258194750548205E-1   -2.228386909364504E-2   -5.078666665320134E-2   -2.360286645929145E-2   -5.039708893139898E-2    4.353460413094893E-1   -2.664636665737228E-1
 6.529642966200000E9     5.466604967875011E-1   -1.267031368175782E-1   -2.265531212028923E-2   -5.118848965431824E-2   -2.384158978680722E-2   -5.071381357707720E-2    4.344499754482499E-1   -2.675997386913225E-1
 6.529652822400000E9     5.463190672803153E-1   -1.275838029435729E-1   -2.285997905110383E-2   -5.161229510291381E-2   -2.429393356412317E-2   -5.103465118981697E-2    4.334734249237342E-1   -2.687952450854257E-1
 6.529662678600000E9     5.461244329124147E-1   -1.286117909339715E-1   -2.334548918499632E-2   -5.195986966859448E-2   -2.471886300512147E-2   -5.150458566935347E-2    4.325242112672610E-1   -2.699048269098347E-1
 6.529672534800000E9     5.457161296900170E-1   -1.295376066486134E-1   -2.363143514006330E-2   -5.234183805958565E-2   -2.506283885948322E-2   -5.187376672807538E-2    4.317699976113918E-1   -2.711978380441421E-1
 6.529682391000000E9     5.454053250381627E-1   -1.305146007282822E-1   -2.386701599260135E-2   -5.282793946196388E-2   -2.533234623281077E-2   -5.226049086189050E-2    4.306958917355195E-1   -2.724625727736476E-1
