#  HZ   S   RI   R     50.00 
! Rohde & Schwarz Vector Network Analyzer 
! Rohde-Schwarz,ZNB20-2Port,1311601062101988,3.16
! Created: UTC 3/21/2024, 12:56:21 AM
! freq[Hz]                re:S11                  im:S11                  re:S21                  im:S21                  re:S12                  im:S12                  re:S22                  im:S22
 6.528794390000000E9     5.605288562416677E-1   -5.300622532470588E-2   -7.630709826382281E-3   -3.137178797450976E-2   -8.369452277381286E-3   -3.139651599256400E-2    4.813499965150549E-1   -1.836238920608283E-1
 6.528804296200000E9     5.605193698197183E-1   -5.386754918922892E-2   -7.709910607486031E-3   -3.152002780030426E-2   -8.456120425973834E-3   -3.144717074558193E-2    4.809912953206785E-1   -1.845972039627314E-1
 6.528814202400000E9     5.603875640803576E-1   -5.472851074927994E-2   -7.904871478542007E-3   -3.171050206940988E-2   -8.489730600251932E-3   -3.160366578694298E-2    4.807449872209713E-1   -1.853186868604773E-1
 6.528824108600000E9     5.603165830245690E-1   -5.539810252906956E-2   -8.009768379582474E-3   -3.180008998820863E-2   -8.587043388005538E-3   -3.175441453730456E-2    4.804081106202426E-1   -1.864174535360004E-1
 6.528834014800000E9     5.602870625863182E-1   -5.633548803865795E-2   -8.095269843960804E-3   -3.204489262058326E-2   -8.800720286470465E-3   -3.190473818769688E-2    4.798885012440839E-1   -1.871218997709040E-1
 6.528843921000000E9     5.602013436224190E-1   -5.703956000350933E-2   -7.893713289580400E-3   -3.210940898780065E-2   -8.801821606934700E-3   -3.208901852853469E-2    4.795663617750394E-1   -1.880392373974912E-1
 6.528853827200000E9     5.600973727500025E-1   -5.795192642680429E-2   -8.246155359968910E-3   -3.234201297973969E-2   -8.857717627047098E-3   -3.218990833894357E-2    4.793553483814099E-1   -1.888647490936637E-1
 6.528863733400000E9     5.599946919104081E-1   -5.867429454087369E-2   -8.286441669790924E-3   -3.237327724227476E-2   -8.893912091619278E-3   -3.235436765825383E-2    4.790283579948827E-1   -1.895858050869022E-1
 6.528873639600000E9     5.599313839796273E-1   -5.957535630707694E-2   -8.430661657643449E-3   -3.260769753490942E-2   -9.176696561030068E-3   -3.253554497532451E-2    4.784288634321147E-1   -1.906537779563331E-1
 6.528883545800000E9     5.598180789662109E-1   -6.035312682902858E-2   -8.519891769952078E-3   -3.284363045393925E-2   -9.258944686919256E-3   -3.253119367194059E-2    4.781215995456921E-1   -1.913299893962382E-1
 6.528893452000000E9     5.596848854658698E-1   -6.101972204876559E-2   -8.575241311017136E-3   -3.301788137423980E-2   -9.284391623267912E-3   -3.270671512412281E-2    4.777518750637076E-1   -1.923338614443655E-1
 6.528903358200000E9     5.596285720348132E-1   -6.191149476175569E-2   -8.622399901103412E-3   -3.304618867308457E-2   -9.401197323736036E-3   -3.298480966565870E-2    4.773920011955889E-1   -1.933404865884083E-1
 6.528913264400000E9     5.596083815923939E-1   -6.264067868555989E-2   -8.778951513487853E-3   -3.324251213404113E-2   -9.584909483312889E-3   -3.299867962968124E-2    4.769286975209617E-1   -1.939730872938425E-1
 6.528923170600000E9     5.593577020872229E-1   -6.356529115329217E-2   -8.920688194253028E-3   -3.329841498306683E-2   -9.629999106657513E-3   -3.328589406952457E-2    4.766082394459850E-1   -1.949480448947875E-1
 6.528933076800000E9     5.593144100262308E-1   -6.438413793452311E-2   -8.963149467051307E-3   -3.358147444998700E-2   -9.866425901940638E-3   -3.344251576469102E-2    4.762343068974101E-1   -1.957859035904162E-1
 6.528942983000000E9     5.592242629888013E-1   -6.517707640101866E-2   -9.117638235414184E-3   -3.359358240975280E-2   -9.926260132367432E-3   -3.348889535037547E-2    4.759845314637082E-1   -1.966375127725239E-1
 6.528952889200000E9     5.591730629080109E-1   -6.595081398235324E-2   -9.207178449298128E-3   -3.393632782319812E-2   -1.003965739830410E-2   -3.362116223886404E-2    4.754741699043561E-1   -1.975870491984912E-1
 6.528962795400000E9     5.590215766359130E-1   -6.669329673229769E-2   -9.360723975598718E-3   -3.399169257069027E-2   -1.012469372936183E-2   -3.387858967284883E-2    4.751505309298513E-1   -1.983235793643768E-1
 6.528972701600000E9     5.590308594027690E-1   -6.751939310728461E-2   -9.390053780632122E-3   -3.408942374764856E-2   -1.025842007388842E-2   -3.407099243545402E-2    4.747220895413483E-1   -1.993108143080312E-1
 6.528982607800000E9     5.587523223923728E-1   -6.831512685012833E-2   -9.627843901525083E-3   -3.432144712753710E-2   -1.022775592578428E-2   -3.424452747511483E-2    4.742784605467557E-1   -2.002094123757168E-1
 6.528992514000000E9     5.587927443253948E-1   -6.915090260503162E-2   -9.634450668872811E-3   -3.438255820421380E-2   -1.048542555310542E-2   -3.435333625326939E-2    4.738165453961796E-1   -2.009616770596230E-1
 6.529002420200000E9     5.584660404161029E-1   -7.011049956360987E-2   -9.835327959587596E-3   -3.461753230296645E-2   -1.056043952786993E-2   -3.446671985225192E-2    4.732824881690861E-1   -2.019173050406247E-1
 6.529012326400000E9     5.584855409790627E-1   -7.087614778064390E-2   -9.916859089189593E-3   -3.490627818289819E-2   -1.063941643867143E-2   -3.476342239185293E-2    4.730087604416339E-1   -2.028056997923353E-1
 6.529022232600000E9     5.583930126911202E-1   -7.163801952922622E-2   -1.000899624293318E-2   -3.493673867842376E-2   -1.073628411306547E-2   -3.493955964146361E-2    4.724896601586087E-1   -2.036997011584804E-1
 6.529032138800000E9     5.582955651494855E-1   -7.256866685235906E-2   -1.014623110576899E-2   -3.514259109256590E-2   -1.088790370003098E-2   -3.499945506776837E-2    4.721066948015918E-1   -2.046462091166719E-1
 6.529042045000000E9     5.581205514120270E-1   -7.339519330244089E-2   -1.041827013829858E-2   -3.528934881239729E-2   -1.113340217874385E-2   -3.526484624218579E-2    4.717248886897768E-1   -2.056832202669307E-1
 6.529051951200000E9     5.579690038110267E-1   -7.429161884371352E-2   -1.049567795495664E-2   -3.553452749681035E-2   -1.110852860731343E-2   -3.543952085256922E-2    4.714252896203878E-1   -2.063134706407939E-1
 6.529061857400000E9     5.578647071955363E-1   -7.497249768588458E-2   -1.053063379031691E-2   -3.581754744544417E-2   -1.137051671662918E-2   -3.557091750788639E-2    4.708268262108624E-1   -2.073533773411625E-1
 6.529071763600000E9     5.578549624712129E-1   -7.583456691414338E-2   -1.058235386448316E-2   -3.584577170021905E-2   -1.146858026774710E-2   -3.578095239508045E-2    4.703976338398765E-1   -2.083421148944529E-1
 6.529081669800000E9     5.575980794903952E-1   -7.678656167471407E-2   -1.077636573586436E-2   -3.610265132212531E-2   -1.162448048293509E-2   -3.580311168840147E-2    4.697968630021855E-1   -2.090621151639728E-1
 6.529091576000000E9     5.575055272940916E-1   -7.757050471225299E-2   -1.086697604043324E-2   -3.635512904060086E-2   -1.176190507656436E-2   -3.613443021028538E-2    4.694838596081704E-1   -2.101445599800757E-1
 6.529101482200000E9     5.572929253392195E-1   -7.833273245169541E-2   -1.100335403751131E-2   -3.648465413710211E-2   -1.177514248400194E-2   -3.621964675841591E-2    4.691563147159668E-1   -2.109489941096032E-1
 6.529111388400000E9     5.571241727817362E-1   -7.921553772974038E-2   -1.117659995986594E-2   -3.680558347210826E-2   -1.199539890081720E-2   -3.644765204711878E-2    4.686720405270202E-1   -2.118690082615692E-1
 6.529121294600000E9     5.571167853382711E-1   -8.002406000888891E-2   -1.131658860320554E-2   -3.684670091402347E-2   -1.205643402552375E-2   -3.663574320065508E-2    4.682326532130340E-1   -2.128437605280503E-1
 6.529131200800000E9     5.569390713573469E-1   -8.087242588767789E-2   -1.145623625365880E-2   -3.705405821035752E-2   -1.228824060396976E-2   -3.688494818667959E-2    4.676653932214982E-1   -2.137704538796026E-1
 6.529141107000000E9     5.567470100324489E-1   -8.161504703409646E-2   -1.148793527871830E-2   -3.737471825671951E-2   -1.241291111729049E-2   -3.707385000702225E-2    4.673066664273228E-1   -2.149340887451004E-1
 6.529151013200000E9     5.567152423143289E-1   -8.244948724890773E-2   -1.178486673959850E-2   -3.728140601154566E-2   -1.262363260509143E-2   -3.721656608816375E-2    4.667592633198077E-1   -2.156172712034085E-1
 6.529160919400000E9     5.565261888816934E-1   -8.346896561664402E-2   -1.196331358475437E-2   -3.763876231576777E-2   -1.275560416603031E-2   -3.738107031349786E-2    4.660979153207778E-1   -2.165968796959512E-1
 6.529170825600000E9     5.563673658078137E-1   -8.417751448115220E-2   -1.195698410470399E-2   -3.769832615290081E-2   -1.290436718468528E-2   -3.764264219909343E-2    4.658053940325280E-1   -2.175924969800521E-1
 6.529180731800000E9     5.563766205227907E-1   -8.500308957018815E-2   -1.220015232641730E-2   -3.803815348885251E-2   -1.300668095340112E-2   -3.783419852563726E-2    4.651926539762495E-1   -2.185525254639744E-1
 6.529190638000000E9     5.561533344188289E-1   -8.583142531053320E-2   -1.238956317880654E-2   -3.840794088424627E-2   -1.319208409117967E-2   -3.793914139779384E-2    4.647440901702700E-1   -2.192277832215374E-1
 6.529200544200000E9     5.560803295452404E-1   -8.660173859627514E-2   -1.245091349797443E-2   -3.848531677305549E-2   -1.337874182400151E-2   -3.820597698280712E-2    4.641624674700386E-1   -2.202211328121180E-1
 6.529210450400000E9     5.558429716957518E-1   -8.754439716732264E-2   -1.266391631132788E-2   -3.868206938835501E-2   -1.342573221868405E-2   -3.838826742931320E-2    4.639320322210836E-1   -2.213283955730114E-1
 6.529220356600000E9     5.556713594729630E-1   -8.843343958633004E-2   -1.278913541517920E-2   -3.885823647254564E-2   -1.373454975802982E-2   -3.859095636515676E-2    4.631887381185984E-1   -2.223161636127789E-1
 6.529230262800000E9     5.554593678219630E-1   -8.939702449305530E-2   -1.296272022427529E-2   -3.909411423047320E-2   -1.382832701400659E-2   -3.886273091500254E-2    4.628691456982481E-1   -2.231203396249075E-1
 6.529240169000000E9     5.553593048124396E-1   -9.015519412631325E-2   -1.291627523965518E-2   -3.928597353444867E-2   -1.402464996178957E-2   -3.908058517477218E-2    4.620876690468458E-1   -2.241412090156145E-1
 6.529250075200000E9     5.551098218423499E-1   -9.097032128678853E-2   -1.329577240341212E-2   -3.948699900376017E-2   -1.423399940548025E-2   -3.923686061617191E-2    4.618417470409226E-1   -2.249599374936864E-1
 6.529259981400000E9     5.550643319453011E-1   -9.179667639496430E-2   -1.341326370052020E-2   -3.966233503211056E-2   -1.441901391717607E-2   -3.945249898420746E-2    4.610569087374980E-1   -2.261818591368739E-1
 6.529269887600000E9     5.548407044802018E-1   -9.262838192007317E-2   -1.367745867393845E-2   -3.989665452610637E-2   -1.444785539826835E-2   -3.972980009357412E-2    4.604818762997017E-1   -2.271619012080510E-1
 6.529279793800000E9     5.546851586878884E-1   -9.347389431163554E-2   -1.383474423896221E-2   -4.014519570875334E-2   -1.465218944889362E-2   -3.995932337359004E-2    4.599735119525128E-1   -2.281120964066662E-1
 6.529289700000000E9     5.546519440123262E-1   -9.444437629020187E-2   -1.393052072258421E-2   -4.053723610607115E-2   -1.490717835691737E-2   -4.006580321012693E-2    4.595160369848693E-1   -2.290921791359556E-1
 6.529299606200000E9     5.543677886253601E-1   -9.521983251101183E-2   -1.417673091212394E-2   -4.063779878862516E-2   -1.501618011860228E-2   -4.046857593148201E-2    4.588244085971844E-1   -2.300062176036986E-1
 6.529309512400000E9     5.542776122201525E-1   -9.623448829600130E-2   -1.429594366692382E-2   -4.079330867167798E-2   -1.527718065512909E-2   -4.066201899369145E-2    4.582969096835885E-1   -2.310482227326836E-1
 6.529319418600000E9     5.540000665698567E-1   -9.693581070028112E-2   -1.431444963896053E-2   -4.118410603345223E-2   -1.547776900531095E-2   -4.089934392354092E-2    4.577764371155415E-1   -2.319406331947185E-1
 6.529329324800000E9     5.538011514931261E-1   -9.782723555252770E-2   -1.470830030658605E-2   -4.143835146559770E-2   -1.554543508651611E-2   -4.100273082420136E-2    4.572430198111683E-1   -2.328747199845034E-1
 6.529339231000000E9     5.536613648626153E-1   -9.866555339805365E-2   -1.489377396570120E-2   -4.175506364152049E-2   -1.581780697750167E-2   -4.134917608013478E-2    4.567197895708134E-1   -2.339179376264063E-1
 6.529349137200000E9     5.534668030617111E-1   -9.958049368921539E-2   -1.488968346541217E-2   -4.199226985364746E-2   -1.601860586782736E-2   -4.156276069393609E-2    4.558694595565167E-1   -2.350461390628552E-1
 6.529359043400000E9     5.531939730893576E-1   -1.003883307493345E-1   -1.524922904297661E-2   -4.217591001919328E-2   -1.627911199914101E-2   -4.170067292773409E-2    4.554423447638983E-1   -2.359754733515289E-1
 6.529368949600000E9     5.531066795660339E-1   -1.013752362358498E-1   -1.545048887132167E-2   -4.235489676769453E-2   -1.643656173350899E-2   -4.215331832098750E-2    4.548290307002512E-1   -2.370706393866939E-1
 6.529378855800000E9     5.528300906659376E-1   -1.021708270700520E-1   -1.565328387555584E-2   -4.265701172507583E-2   -1.665493710955409E-2   -4.232801748019325E-2    4.542849155384862E-1   -2.380256315445302E-1
 6.529388762000000E9     5.527989434081890E-1   -1.029933080356154E-1   -1.567518804364606E-2   -4.292668910662215E-2   -1.684194953021115E-2   -4.256178163312458E-2    4.537270253446367E-1   -2.391030870751077E-1
 6.529398668200000E9     5.524659202837525E-1   -1.039855975928729E-1   -1.601901598796050E-2   -4.315132127360281E-2   -1.704749774968744E-2   -4.279294024881596E-2    4.530873422550818E-1   -2.400886651595406E-1
 6.529408574400000E9     5.523441109061401E-1   -1.047883588366169E-1   -1.636538443766474E-2   -4.351021992318837E-2   -1.732005963746516E-2   -4.307088836877856E-2    4.524743409499666E-1   -2.412876700864236E-1
 6.529418480600000E9     5.520898998338248E-1   -1.055795612251082E-1   -1.629176584665602E-2   -4.384809947220798E-2   -1.754430057758477E-2   -4.340807962343142E-2    4.517841655617959E-1   -2.419858153687221E-1
 6.529428386800000E9     5.518631929580617E-1   -1.065696692826145E-1   -1.676083374194687E-2   -4.385204875012822E-2   -1.772065727837294E-2   -4.373518682280493E-2    4.510199398218493E-1   -2.432560123385187E-1
 6.529438293000000E9     5.517034106180804E-1   -1.075014816789458E-1   -1.673785916770170E-2   -4.406055949965877E-2   -1.807971973465899E-2   -4.389283771977513E-2    4.504243463410334E-1   -2.441660289604280E-1
 6.529448199200000E9     5.514253055436845E-1   -1.082941318236645E-1   -1.705946232330566E-2   -4.451699935309855E-2   -1.822344695859166E-2   -4.428310623564885E-2    4.496884140346927E-1   -2.453655404170108E-1
 6.529458105400000E9     5.513166338717890E-1   -1.092209074588331E-1   -1.720725936828169E-2   -4.480225644569565E-2   -1.838759209426173E-2   -4.448068093114119E-2    4.490878466492453E-1   -2.464658913509142E-1
 6.529468011600000E9     5.510220542725532E-1   -1.100221851268507E-1   -1.752106472421077E-2   -4.512016302696643E-2   -1.866488530722875E-2   -4.468463033482445E-2    4.482347086760277E-1   -2.474662976298569E-1
 6.529477917800000E9     5.507069809094756E-1   -1.110420523834483E-1   -1.789581525271550E-2   -4.547360705231744E-2   -1.898514488542489E-2   -4.504864116516386E-2    4.476336843929156E-1   -2.485031240903793E-1
 6.529487824000000E9     5.505378443816159E-1   -1.119314848952697E-1   -1.803038671708863E-2   -4.571985794045044E-2   -1.909713311217787E-2   -4.518758889431305E-2    4.469497873328080E-1   -2.495711533262779E-1
 6.529497730200000E9     5.504313467501496E-1   -1.128565489870410E-1   -1.826894221495488E-2   -4.601796243632598E-2   -1.939084905297709E-2   -4.562617572149039E-2    4.464766301992307E-1   -2.506582567922179E-1
 6.529507636400000E9     5.501084081504245E-1   -1.137299511797058E-1   -1.847647077344131E-2   -4.618729761430111E-2   -1.976302977309877E-2   -4.585177821023462E-2    4.456354560654233E-1   -2.517333360846907E-1
 6.529517542600000E9     5.499302433369166E-1   -1.146200897771611E-1   -1.867419308774445E-2   -4.655714604877685E-2   -1.986523436856886E-2   -4.623355385700779E-2    4.449266664543347E-1   -2.528341336178283E-1
 6.529527448800000E9     5.497017553577408E-1   -1.155397907834362E-1   -1.893758260498426E-2   -4.683877164379758E-2   -2.025060850834549E-2   -4.650463818393485E-2    4.441577295529934E-1   -2.539377829154563E-1
 6.529537355000000E9     5.494524687379755E-1   -1.164558681250628E-1   -1.924397322283276E-2   -4.733042752928043E-2   -2.045231725641072E-2   -4.673806458146611E-2    4.433731160744431E-1   -2.549470586478325E-1
 6.529547261200000E9     5.491961486851076E-1   -1.173728917111261E-1   -1.960710631014345E-2   -4.750811334632896E-2   -2.078674569791200E-2   -4.716847119157350E-2    4.426616862690066E-1   -2.561530470817736E-1
 6.529557167400000E9     5.488799635413423E-1   -1.182178783734053E-1   -1.986604034783706E-2   -4.798067427924369E-2   -2.101406571766202E-2   -4.745967355607709E-2    4.417404642192638E-1   -2.571625959260622E-1
 6.529567073600000E9     5.487331658093660E-1   -1.191598086448461E-1   -2.009318736255636E-2   -4.817278748532777E-2   -2.127028686606340E-2   -4.784251458502508E-2    4.410192297280358E-1   -2.582727214692100E-1
 6.529576979800000E9     5.483453453179077E-1   -1.201091345393617E-1   -2.041458090428057E-2   -4.838652563186437E-2   -2.163634181483105E-2   -4.802764712713165E-2    4.402131608015591E-1   -2.595949817743956E-1
 6.529586886000000E9     5.481556922030354E-1   -1.210263739762845E-1   -2.063689398441526E-2   -4.890407393579538E-2   -2.190501274978995E-2   -4.844884787436469E-2    4.393891908081590E-1   -2.606165717293381E-1
 6.529596792200000E9     5.479063163809786E-1   -1.219791366104715E-1   -2.088902983385516E-2   -4.916069552777692E-2   -2.222911011925037E-2   -4.870295533495796E-2    4.386079725216496E-1   -2.618264491165408E-1
 6.529606698400000E9     5.475308282585655E-1   -1.229830871545493E-1   -2.134884309623520E-2   -4.949143881985000E-2   -2.257405407142034E-2   -4.909660028294805E-2    4.378792940083018E-1   -2.628502502211097E-1
 6.529616604600000E9     5.473140570517833E-1   -1.238418426830801E-1   -2.159463814343036E-2   -4.975804993780315E-2   -2.284218470371648E-2   -4.936348978705666E-2    4.370967515817766E-1   -2.641107058200778E-1
 6.529626510800000E9     5.471226319483505E-1   -1.247718594266030E-1   -2.192001642541584E-2   -5.022463367041102E-2   -2.313680112974056E-2   -4.976311065367221E-2    4.362149841094202E-1   -2.654233390925334E-1
 6.529636417000000E9     5.467284288472699E-1   -1.256611506650139E-1   -2.225213827373177E-2   -5.055747141256035E-2   -2.354262663205996E-2   -5.014406828075708E-2    4.352942303039271E-1   -2.665211486782747E-1
 6.529646323200000E9     5.466001892433456E-1   -1.267107821906526E-1   -2.250837699772119E-2   -5.099495474204647E-2   -2.377335653517214E-2   -5.049510784749899E-2    4.345035444026472E-1   -2.675527516610278E-1
 6.529656229400000E9     5.462858409221844E-1   -1.276477397432082E-1   -2.291636800717822E-2   -5.136240373852898E-2   -2.420428932887360E-2   -5.081009623340318E-2    4.336330214419670E-1   -2.687366002700597E-1
 6.529666135600000E9     5.459859077987548E-1   -1.285104679277252E-1   -2.317914209985064E-2   -5.170135624292443E-2   -2.443883354532183E-2   -5.115937000094979E-2    4.325322222921097E-1   -2.698287097965436E-1
 6.529676041800000E9     5.457395864229216E-1   -1.294335499204964E-1   -2.362412271749265E-2   -5.211069714385835E-2   -2.488900170914101E-2   -5.156043503863406E-2    4.316629790318077E-1   -2.710658791004002E-1
 6.529685948000000E9     5.453815014871755E-1   -1.303429862381819E-1   -2.385673213968281E-2   -5.255514170369837E-2   -2.530775620601904E-2   -5.193277047151233E-2    4.307952150814064E-1   -2.722735538175502E-1
