#  HZ   S   RI   R     50.00 
! Rohde & Schwarz Vector Network Analyzer 
! Rohde-Schwarz,ZNB20-2Port,1311601062101988,3.16
! Created: UTC 3/21/2024, 12:56:26 AM
! freq[Hz]                re:S11                  im:S11                  re:S21                  im:S21                  re:S12                  im:S12                  re:S22                  im:S22
 6.528792753000000E9     5.606235844121423E-1   -5.293958630175595E-2   -7.624903593096735E-3   -3.139031702116992E-2   -8.305478850577993E-3   -3.128421027068477E-2    4.815156160173094E-1   -1.835723423229979E-1
 6.528802676350000E9     5.604121105041018E-1   -5.364664387605046E-2   -7.680605366498634E-3   -3.151385250986075E-2   -8.388164127017502E-3   -3.144639298091519E-2    4.809953276274718E-1   -1.844239764117203E-1
 6.528812599700000E9     5.604408330071123E-1   -5.455426206688299E-2   -7.952363515685099E-3   -3.166571567137257E-2   -8.447551286849628E-3   -3.158112960023802E-2    4.807396995931544E-1   -1.852211346147729E-1
 6.528822523050000E9     5.603329730685255E-1   -5.534740281655955E-2   -7.952513864225090E-3   -3.185315862502270E-2   -8.520473648402320E-3   -3.169219150550896E-2    4.804030715564243E-1   -1.862334831863749E-1
 6.528832446400000E9     5.602559065242775E-1   -5.604141247517255E-2   -8.043035677399030E-3   -3.213865964584178E-2   -8.700213282621739E-3   -3.181790117661033E-2    4.801404907714123E-1   -1.869830598905634E-1
 6.528842369750000E9     5.602023266151783E-1   -5.681529108658957E-2   -8.151147598467013E-3   -3.216304758830456E-2   -8.822475691027691E-3   -3.200913071815202E-2    4.796562055379027E-1   -1.878240637548059E-1
 6.528852293100000E9     5.600926864049481E-1   -5.761163174548700E-2   -8.189718115526880E-3   -3.230285457711661E-2   -8.868914847098881E-3   -3.215771785960961E-2    4.793682397505894E-1   -1.888420222161294E-1
 6.528862216450000E9     5.600367021235219E-1   -5.848775097863142E-2   -8.337584179748793E-3   -3.241511461106138E-2   -9.025759021712959E-3   -3.234091221338008E-2    4.789040514262551E-1   -1.896077540258445E-1
 6.528872139800000E9     5.600125682029771E-1   -5.929801755799460E-2   -8.350045545784739E-3   -3.258890760537964E-2   -9.109178743898506E-3   -3.245363345715731E-2    4.786444395401309E-1   -1.903745380442102E-1
 6.528882063150000E9     5.597948461490915E-1   -6.008842624397358E-2   -8.469012800587166E-3   -3.284736429781340E-2   -9.254296322012346E-3   -3.253341901502418E-2    4.781719284162727E-1   -1.912580666532445E-1
 6.528891986500000E9     5.596909515636740E-1   -6.096104996551192E-2   -8.478286252920755E-3   -3.280325454434811E-2   -9.349119346762223E-3   -3.284579914709349E-2    4.779038664838758E-1   -1.921185435065572E-1
 6.528901909850000E9     5.596378026731148E-1   -6.164015624813382E-2   -8.747963572087587E-3   -3.296163437781807E-2   -9.421135457187041E-3   -3.279648843841914E-2    4.774689359746512E-1   -1.929985787986024E-1
 6.528911833200000E9     5.594616814498934E-1   -6.267055197747437E-2   -8.903482328284628E-3   -3.318013394302748E-2   -9.550955630656032E-3   -3.303465655118255E-2    4.770350667750805E-1   -1.939810561774173E-1
 6.528921756550000E9     5.594465776772370E-1   -6.341275694560329E-2   -8.919101145603528E-3   -3.313949395302693E-2   -9.688239399130324E-3   -3.318125664355950E-2    4.766697025661865E-1   -1.948011828901726E-1
 6.528931679900000E9     5.593810438854223E-1   -6.413823935507505E-2   -9.086025760913462E-3   -3.358373314861379E-2   -9.752929441689272E-3   -3.325972785057745E-2    4.761730560900140E-1   -1.955867109167372E-1
 6.528941603250000E9     5.591804956231755E-1   -6.505778200772953E-2   -9.076395337530250E-3   -3.365650049606034E-2   -9.815509306652008E-3   -3.346830003161266E-2    4.758471923358458E-1   -1.964457084422449E-1
 6.528951526600000E9     5.590881164306640E-1   -6.590482332899796E-2   -9.250859202008757E-3   -3.385115066300333E-2   -1.000002899727232E-2   -3.369493830229484E-2    4.754200660172700E-1   -1.973667444651889E-1
 6.528961449950000E9     5.590167027524940E-1   -6.663218642563440E-2   -9.277671628492450E-3   -3.401177121607350E-2   -1.002284475099649E-2   -3.380095988641369E-2    4.752893729436907E-1   -1.984026512893695E-1
 6.528971373300000E9     5.589035039872310E-1   -6.735762909181831E-2   -9.510008949249414E-3   -3.416718999570491E-2   -1.019080193460456E-2   -3.393121422121860E-2    4.747284389597229E-1   -1.991857187527139E-1
 6.528981296650000E9     5.587212997087257E-1   -6.821909356999753E-2   -9.588027128585369E-3   -3.434795334546462E-2   -1.029490579546106E-2   -3.413057083894635E-2    4.742621363089712E-1   -2.001124393956489E-1
 6.528991220000000E9     5.586365730380976E-1   -6.896831366318557E-2   -9.646554338663160E-3   -3.451653423478187E-2   -1.046071595922057E-2   -3.430539323339381E-2    4.739391894913277E-1   -2.009225610913022E-1
 6.529001143350000E9     5.586312202092436E-1   -6.993181799525808E-2   -9.782900435895255E-3   -3.449375088421550E-2   -1.066428215009111E-2   -3.449060818565251E-2    4.734200251069051E-1   -2.017636917260794E-1
 6.529011066700000E9     5.584761432103852E-1   -7.077903892698297E-2   -9.856188273825334E-3   -3.484597898936869E-2   -1.065792163319960E-2   -3.462268981483616E-2    4.729816557364136E-1   -2.028421468263487E-1
 6.529020990050000E9     5.583200378009346E-1   -7.161313529785279E-2   -9.929804465331709E-3   -3.491381582682867E-2   -1.082015173992689E-2   -3.481670743294188E-2    4.725797976909094E-1   -2.036265358257718E-1
 6.529030913400000E9     5.581762029455477E-1   -7.239723262335757E-2   -1.026434283552683E-2   -3.495245147696667E-2   -1.093758762226541E-2   -3.493495882321813E-2    4.721748881906122E-1   -2.045354532464092E-1
 6.529040836750000E9     5.580688631322251E-1   -7.323332599139933E-2   -1.016092621220359E-2   -3.540180137723386E-2   -1.100547388340986E-2   -3.508736801867140E-2    4.716760699598770E-1   -2.054775141461833E-1
 6.529050760100000E9     5.579857609854314E-1   -7.413337850488991E-2   -1.035762449945747E-2   -3.551739609459988E-2   -1.119771101458109E-2   -3.530950314297162E-2    4.712730448506500E-1   -2.062860466552640E-1
 6.529060683450000E9     5.578819814118001E-1   -7.484323128407297E-2   -1.050799843388245E-2   -3.572530561943686E-2   -1.132157873221331E-2   -3.552590272629619E-2    4.709243673471173E-1   -2.072876585021232E-1
 6.529070606800000E9     5.577533325540771E-1   -7.572978516397878E-2   -1.048253397870604E-2   -3.606393180563494E-2   -1.151060233319810E-2   -3.569823053977628E-2    4.705138260775161E-1   -2.080905983506396E-1
 6.529080530150000E9     5.576471359258506E-1   -7.652164812919146E-2   -1.071721711671823E-2   -3.604085702176306E-2   -1.152024814931354E-2   -3.584805073494521E-2    4.700259842389322E-1   -2.091964045655743E-1
 6.529090453500000E9     5.574870238611950E-1   -7.731454978692079E-2   -1.095397479216489E-2   -3.627492618820075E-2   -1.169490399601192E-2   -3.609319877812818E-2    4.695883560946110E-1   -2.098797405372300E-1
 6.529100376850000E9     5.574591949874665E-1   -7.826691340894723E-2   -1.098925782249519E-2   -3.648290433564266E-2   -1.181793132927297E-2   -3.629235005157180E-2    4.691580143202677E-1   -2.108846775816317E-1
 6.529110300200000E9     5.572765207315206E-1   -7.903888864051002E-2   -1.118866038233328E-2   -3.656493395780593E-2   -1.197583421248863E-2   -3.645139895320215E-2    4.685439815785162E-1   -2.116936134484135E-1
 6.529120223550000E9     5.570386893602949E-1   -7.994758601752422E-2   -1.132866717517013E-2   -3.678846229896619E-2   -1.216968056529072E-2   -3.655344211424073E-2    4.681823688428925E-1   -2.127202589061234E-1
 6.529130146900000E9     5.568875421143976E-1   -8.062375522739498E-2   -1.151543746203892E-2   -3.707502705952032E-2   -1.228254486327131E-2   -3.680137621096601E-2    4.676508462162916E-1   -2.135317323461481E-1
 6.529140070250000E9     5.567775928853159E-1   -8.152840088323984E-2   -1.139467954948872E-2   -3.714014728562686E-2   -1.257683032454579E-2   -3.699673655982614E-2    4.672508243191851E-1   -2.145798377468171E-1
 6.529149993600000E9     5.566528729160019E-1   -8.231984674668436E-2   -1.176947868521600E-2   -3.749386362962464E-2   -1.260182874917891E-2   -3.727101350048428E-2    4.667811244452152E-1   -2.155509918139734E-1
 6.529159916950000E9     5.565961184752974E-1   -8.304478741498619E-2   -1.181690672528725E-2   -3.764801069424808E-2   -1.274046578154030E-2   -3.735564570675515E-2    4.662372145526867E-1   -2.165327354324232E-1
 6.529169840300000E9     5.564701815400607E-1   -8.401924917965942E-2   -1.207248434417396E-2   -3.777019957436240E-2   -1.290532682826857E-2   -3.750799038418430E-2    4.658341718367988E-1   -2.174113724808048E-1
 6.529179763650000E9     5.562858677826920E-1   -8.492402320816279E-2   -1.205963878499557E-2   -3.804962858942217E-2   -1.301137318687399E-2   -3.778310720165472E-2    4.652803804229608E-1   -2.183844348888636E-1
 6.529189687000000E9     5.560799718969269E-1   -8.575611623751828E-2   -1.236208793202393E-2   -3.821597822306680E-2   -1.317170148433031E-2   -3.794275099046763E-2    4.648267137867720E-1   -2.191636717780504E-1
 6.529199610350000E9     5.560404301350926E-1   -8.653359251972990E-2   -1.249040975934375E-2   -3.839129247041758E-2   -1.333797700657289E-2   -3.824293988022954E-2    4.642993921518885E-1   -2.202228825189243E-1
 6.529209533700000E9     5.557547950596019E-1   -8.746487855186566E-2   -1.259585507547434E-2   -3.882550100631509E-2   -1.356105085976439E-2   -3.832635509425009E-2    4.638876814951498E-1   -2.213311288835196E-1
 6.529219457050000E9     5.555759252412272E-1   -8.832659785334090E-2   -1.275903544521668E-2   -3.880754441609024E-2   -1.371294130018322E-2   -3.860352584043453E-2    4.633093048841322E-1   -2.221742424221858E-1
 6.529229380400000E9     5.554481451817653E-1   -8.912496919811234E-2   -1.290875119536895E-2   -3.897618752258929E-2   -1.376599138823247E-2   -3.872445294334974E-2    4.628871914687501E-1   -2.231455522667711E-1
 6.529239303750000E9     5.553809224327898E-1   -8.986410193292935E-2   -1.302983436648059E-2   -3.921749256858464E-2   -1.394163060064378E-2   -3.897632044469498E-2    4.622388378321291E-1   -2.241347332516063E-1
 6.529249227100000E9     5.552393146540847E-1   -9.082982341787525E-2   -1.321647018627314E-2   -3.936614924058847E-2   -1.419187558559983E-2   -3.914637861075279E-2    4.617651621839293E-1   -2.251365972543379E-1
 6.529259150450000E9     5.550848561956789E-1   -9.160442965143564E-2   -1.324281279783122E-2   -3.964006955335567E-2   -1.436547792399327E-2   -3.943101750476345E-2    4.611912830062281E-1   -2.261444103663274E-1
 6.529269073800000E9     5.548702662042339E-1   -9.254754978994760E-2   -1.353989115359250E-2   -3.996226159511652E-2   -1.453608811341987E-2   -3.975365415903771E-2    4.606897989663167E-1   -2.269606734845503E-1
 6.529278997150000E9     5.546971837002993E-1   -9.335974880020281E-2   -1.372613220342453E-2   -3.997708916939999E-2   -1.469187471238283E-2   -3.990494813737634E-2    4.600408865863790E-1   -2.279603345272513E-1
 6.529288920500000E9     5.545046465295599E-1   -9.418085724662431E-2   -1.385653136802800E-2   -4.026099845493349E-2   -1.480445992824261E-2   -3.999723752534766E-2    4.596182422966230E-1   -2.289667615812145E-1
 6.529298843850000E9     5.543793261725662E-1   -9.511533559017608E-2   -1.400158197065417E-2   -4.060046704900624E-2   -1.503926715022433E-2   -4.037911017268597E-2    4.590555531876565E-1   -2.298101554007688E-1
 6.529308767200000E9     5.542173775935428E-1   -9.599226346245472E-2   -1.424535177759029E-2   -4.086780371450791E-2   -1.520953339445567E-2   -4.059326602526905E-2    4.586069764317154E-1   -2.310710259014652E-1
 6.529318690550000E9     5.540173253500831E-1   -9.676793744752214E-2   -1.446679546259026E-2   -4.113997840383169E-2   -1.539242726167354E-2   -4.076962227972665E-2    4.579078997649982E-1   -2.318557051282212E-1
 6.529328613900000E9     5.537504971705234E-1   -9.766126560740035E-2   -1.460402867067762E-2   -4.127040744121914E-2   -1.561426792904290E-2   -4.110707794988033E-2    4.572337708906538E-1   -2.328718576037968E-1
 6.529338537250000E9     5.536144407322016E-1   -9.852720049053863E-2   -1.480044271020026E-2   -4.161732202238120E-2   -1.580962168667507E-2   -4.133980911638762E-2    4.566066087841422E-1   -2.340333725784232E-1
 6.529348460600000E9     5.535907255042437E-1   -9.945715956805952E-2   -1.502124948179725E-2   -4.180000751780944E-2   -1.610679897621221E-2   -4.151619816510871E-2    4.560851400225677E-1   -2.348683825912617E-1
 6.529358383950000E9     5.532286883190756E-1   -1.003599689578032E-1   -1.515874800763071E-2   -4.204125455539957E-2   -1.626164581276362E-2   -4.178706498462408E-2    4.554879737266390E-1   -2.359472058946088E-1
 6.529368307300000E9     5.530864167983838E-1   -1.012213436063760E-1   -1.538732569623584E-2   -4.234104226295364E-2   -1.642882396876292E-2   -4.190444737414443E-2    4.548809991600665E-1   -2.368893212862418E-1
 6.529378230650000E9     5.528800955886009E-1   -1.020873662805195E-1   -1.555756712394487E-2   -4.263868024964668E-2   -1.668167596818588E-2   -4.236693138218493E-2    4.543330956035654E-1   -2.380578662731944E-1
 6.529388154000000E9     5.527181750279708E-1   -1.029153512335909E-1   -1.580800783044416E-2   -4.288785426754756E-2   -1.675272520505354E-2   -4.253717905030516E-2    4.535838254909405E-1   -2.389159442046597E-1
 6.529398077350000E9     5.525035579886016E-1   -1.038941084056852E-1   -1.598715019735703E-2   -4.323797725610889E-2   -1.698643464610259E-2   -4.276331519026641E-2    4.530528709865315E-1   -2.399679160666863E-1
 6.529408000700000E9     5.522272152715851E-1   -1.047977903908630E-1   -1.619311078216481E-2   -4.337966697393249E-2   -1.728696605482700E-2   -4.312891704725982E-2    4.524778885612829E-1   -2.411369421061003E-1
 6.529417924050000E9     5.520245703140666E-1   -1.056327161407476E-1   -1.626778320826976E-2   -4.363398457967909E-2   -1.741964239185631E-2   -4.316831590396438E-2    4.517240930317201E-1   -2.422315717382506E-1
 6.529427847400000E9     5.518329933628573E-1   -1.063856967346575E-1   -1.667580049286068E-2   -4.382197457546569E-2   -1.768246423870851E-2   -4.357743057535157E-2    4.512394295171747E-1   -2.431061885357854E-1
 6.529437770750000E9     5.516652437678375E-1   -1.074102984225170E-1   -1.678374086659648E-2   -4.415864963043146E-2   -1.788464296763452E-2   -4.383596890318710E-2    4.504662008694724E-1   -2.440730543899320E-1
 6.529447694100000E9     5.513940080366262E-1   -1.081493141698197E-1   -1.703078148368150E-2   -4.451109106984472E-2   -1.820984607796021E-2   -4.411880130598855E-2    4.497469385879171E-1   -2.451948063259244E-1
 6.529457617450000E9     5.512378048141849E-1   -1.091661600768661E-1   -1.737242287103183E-2   -4.464617432727128E-2   -1.847777775517807E-2   -4.451235155523335E-2    4.491893301646717E-1   -2.463887109423833E-1
 6.529467540800000E9     5.509866062648050E-1   -1.100326265577358E-1   -1.750760038083265E-2   -4.500615189191210E-2   -1.858864081171484E-2   -4.461877003890333E-2    4.484544023227903E-1   -2.473162843410656E-1
 6.529477464150000E9     5.508179310463833E-1   -1.109431353279953E-1   -1.771144975406787E-2   -4.527028268004873E-2   -1.885522142005599E-2   -4.501707368924130E-2    4.476902890169018E-1   -2.484697514919881E-1
 6.529487387500000E9     5.505144666027602E-1   -1.117345934945034E-1   -1.792659315491418E-2   -4.580237120541123E-2   -1.908137027966918E-2   -4.527539689941526E-2    4.471400283227196E-1   -2.495456129261404E-1
 6.529497310850000E9     5.503751435399614E-1   -1.127869918818428E-1   -1.822851571489068E-2   -4.583358881327938E-2   -1.938097617791408E-2   -4.554232316286914E-2    4.463806418401306E-1   -2.506404998567007E-1
 6.529507234200000E9     5.501270575745262E-1   -1.135587433115324E-1   -1.864977394425986E-2   -4.614409456647116E-2   -1.961509080409869E-2   -4.586092480718246E-2    4.455852612640939E-1   -2.515768046697972E-1
 6.529517157550000E9     5.498636033532632E-1   -1.145683104968605E-1   -1.870850840441762E-2   -4.647361531776273E-2   -1.998198561479976E-2   -4.616066941417985E-2    4.450301375902897E-1   -2.527172442563756E-1
 6.529527080900000E9     5.497616520529421E-1   -1.153876274099890E-1   -1.900448791804018E-2   -4.679303442258493E-2   -2.018459387235438E-2   -4.643662125066206E-2    4.442234723072969E-1   -2.539981160123223E-1
 6.529537004250000E9     5.494569223383140E-1   -1.163055709618799E-1   -1.927013336396069E-2   -4.714814315834887E-2   -2.048273151734088E-2   -4.677036218232801E-2    4.434763362583772E-1   -2.549638380683717E-1
 6.529546927600000E9     5.491597550403499E-1   -1.171430086338313E-1   -1.949831469545066E-2   -4.732568258521066E-2   -2.076703133866315E-2   -4.695655502655712E-2    4.425534050172218E-1   -2.561385612375957E-1
 6.529556850950000E9     5.488968325893560E-1   -1.180949536258961E-1   -1.985273946913948E-2   -4.761200853808660E-2   -2.104462777027509E-2   -4.736627021951695E-2    4.420091953500529E-1   -2.573867362056443E-1
 6.529566774300000E9     5.488271686977437E-1   -1.190734722282422E-1   -2.005921226379498E-2   -4.825583652324036E-2   -2.128649613976024E-2   -4.769907464956663E-2    4.410535594563600E-1   -2.582342530398574E-1
 6.529576697650000E9     5.484361561261805E-1   -1.200505420151773E-1   -2.030830459079662E-2   -4.833481461611828E-2   -2.162065508708089E-2   -4.807107963534246E-2    4.403755326035104E-1   -2.595014241574991E-1
 6.529586621000000E9     5.481539862536264E-1   -1.209022077211745E-1   -2.061251331205111E-2   -4.869726775448228E-2   -2.189222090291943E-2   -4.838648639360753E-2    4.396178231671218E-1   -2.604833157346331E-1
 6.529596544350000E9     5.478154215353288E-1   -1.218510607346505E-1   -2.098115745709564E-2   -4.910176000609542E-2   -2.214111569653666E-2   -4.862360567805254E-2    4.386830429312523E-1   -2.617867792064061E-1
 6.529606467700000E9     5.477744113040734E-1   -1.227833130067799E-1   -2.109743010874670E-2   -4.947241436042706E-2   -2.252185111085929E-2   -4.903305516531526E-2    4.379223975346179E-1   -2.629005981109556E-1
 6.529616391050000E9     5.474135683192134E-1   -1.236728893534719E-1   -2.152954206148700E-2   -4.988234104459510E-2   -2.288849022296896E-2   -4.935550999113805E-2    4.372136412480780E-1   -2.639404124347488E-1
 6.529626314400000E9     5.471179343146830E-1   -1.245721960457367E-1   -2.193259820155475E-2   -5.005927061506173E-2   -2.307711377106270E-2   -4.964234244245714E-2    4.361876141352554E-1   -2.650516384497451E-1
 6.529636237750000E9     5.469381700854715E-1   -1.257110981118601E-1   -2.220302542582181E-2   -5.056830487155668E-2   -2.352732390694705E-2   -5.003782741469535E-2    4.353878572947762E-1   -2.663341036842573E-1
 6.529646161100000E9     5.466020644569626E-1   -1.265071171091871E-1   -2.260473656041043E-2   -5.098691461681081E-2   -2.382324623862764E-2   -5.028077621974379E-2    4.345488095759289E-1   -2.674701878304122E-1
 6.529656084450000E9     5.462795484747757E-1   -1.275100422137506E-1   -2.282893286563269E-2   -5.117910194807093E-2   -2.415499999463343E-2   -5.070954331073061E-2    4.336052219450495E-1   -2.688497379165021E-1
 6.529666007800000E9     5.459654368645648E-1   -1.283895068882151E-1   -2.322205028641114E-2   -5.167275830390896E-2   -2.462510571058347E-2   -5.113974749043940E-2    4.326519613828093E-1   -2.700192105141113E-1
 6.529675931150000E9     5.457760565162305E-1   -1.293587495264751E-1   -2.337884969413044E-2   -5.201090848301194E-2   -2.488189561087936E-2   -5.152051497863841E-2    4.318252822503897E-1   -2.711506782547997E-1
 6.529685854500000E9     5.452545206568711E-1   -1.304385266930014E-1   -2.381463277912597E-2   -5.243053061747936E-2   -2.525883081090041E-2   -5.186095918136999E-2    4.307918006104875E-1   -2.722096135457374E-1
