#  HZ   S   RI   R     50.00 
! Rohde & Schwarz Vector Network Analyzer 
! Rohde-Schwarz,ZNB20-2Port,1311601062101988,3.16
! Created: UTC 3/21/2024, 12:56:40 AM
! freq[Hz]                re:S11                  im:S11                  re:S21                  im:S21                  re:S12                  im:S12                  re:S22                  im:S22
 6.528788157000000E9     5.605970556679459E-1   -5.242552356029760E-2   -7.600895427208267E-3   -3.115950514681638E-2   -8.205195680186381E-3   -3.115508995881783E-2    4.817103542899556E-1   -1.829878965351240E-1
 6.528798127275000E9     5.605483579330663E-1   -5.312754217907102E-2   -7.646409319904413E-3   -3.141001747051308E-2   -8.303877547501372E-3   -3.125970118760114E-2    4.811864462090460E-1   -1.839652373808932E-1
 6.528808097550000E9     5.604160953272360E-1   -5.397913424383313E-2   -7.717942961395604E-3   -3.159420064541383E-2   -8.450793651210623E-3   -3.141121034739447E-2    4.810105201213364E-1   -1.848080566305277E-1
 6.528818067825000E9     5.603474419340486E-1   -5.472349159722603E-2   -7.885552681197082E-3   -3.164790542723056E-2   -8.565307547626393E-3   -3.151268621157802E-2    4.805449365471810E-1   -1.855663309897299E-1
 6.528828038100000E9     5.603709617984084E-1   -5.562251897137153E-2   -8.126745347912042E-3   -3.179316287110969E-2   -8.595695313644765E-3   -3.165381021270882E-2    4.801916869871196E-1   -1.864075162010629E-1
 6.528838008375000E9     5.602567013756680E-1   -5.628915213437467E-2   -8.087075712459257E-3   -3.199130319131130E-2   -8.772274429214641E-3   -3.187524896663409E-2    4.797989390788026E-1   -1.873765107207167E-1
 6.528847978650000E9     5.600985898282735E-1   -5.713161738489100E-2   -8.018215009740762E-3   -3.211106294846295E-2   -8.865678797267847E-3   -3.203154354614617E-2    4.794262603250314E-1   -1.882440657362911E-1
 6.528857948925000E9     5.600686829373172E-1   -5.786540199696532E-2   -8.203061145868015E-3   -3.219970448884005E-2   -8.955178214035046E-3   -3.223103303269069E-2    4.790787807423492E-1   -1.890218104626777E-1
 6.528867919200000E9     5.599280882443085E-1   -5.879249557749039E-2   -8.336412136287188E-3   -3.237824557643659E-2   -8.985645303118810E-3   -3.223176439226998E-2    4.787240585284512E-1   -1.899426381428414E-1
 6.528877889475000E9     5.598171554633915E-1   -5.965377699923398E-2   -8.370364369631813E-3   -3.257869491115208E-2   -9.188216145525971E-3   -3.234984077845308E-2    4.783207050820518E-1   -1.907798249391600E-1
 6.528887859750000E9     5.597672400269643E-1   -6.040245034351065E-2   -8.423735318418363E-3   -3.264768581268093E-2   -9.236025502965791E-3   -3.250714225717066E-2    4.779392204069923E-1   -1.916476688664406E-1
 6.528897830025000E9     5.597464031708712E-1   -6.131416211258325E-2   -8.682616518419053E-3   -3.291524416849993E-2   -9.435076596882846E-3   -3.278484669493516E-2    4.775269402235295E-1   -1.925863376289059E-1
 6.528907800300000E9     5.595211392663717E-1   -6.208282689379415E-2   -8.785149736561738E-3   -3.307142605373518E-2   -9.355056842546823E-3   -3.288436833311217E-2    4.772451228207427E-1   -1.934495018692872E-1
 6.528917770575000E9     5.594234842541264E-1   -6.288524732806168E-2   -8.903354586664488E-3   -3.298071923967654E-2   -9.513799400719298E-3   -3.321195723069865E-2    4.767023432345877E-1   -1.942884187614343E-1
 6.528927740850000E9     5.593350149861306E-1   -6.379934586102906E-2   -8.926374561539850E-3   -3.338930526088468E-2   -9.735941081605023E-3   -3.319385300311053E-2    4.765276285981366E-1   -1.952012064802972E-1
 6.528937711125000E9     5.592912641040831E-1   -6.453798820501437E-2   -9.165619926274264E-3   -3.344745285106421E-2   -9.885524603037994E-3   -3.331956549882873E-2    4.761277488905686E-1   -1.960449339061463E-1
 6.528947681400000E9     5.591468639026580E-1   -6.539921691130701E-2   -9.169133828276645E-3   -3.365712547050673E-2   -9.851133579187973E-3   -3.347327146755535E-2    4.756843188157039E-1   -1.968193049938571E-1
 6.528957651675000E9     5.590194289064668E-1   -6.623545518654481E-2   -9.283609967188388E-3   -3.390817834195520E-2   -9.917640858076423E-3   -3.369304153269308E-2    4.752703397809506E-1   -1.975005312832047E-1
 6.528967621950000E9     5.590352931658167E-1   -6.706868840866280E-2   -9.421893957100639E-3   -3.397914166358334E-2   -1.011654892708461E-2   -3.384014505741316E-2    4.746788979695650E-1   -1.987814122412429E-1
 6.528977592225000E9     5.587765598630187E-1   -6.783945135916800E-2   -9.432579632785191E-3   -3.416507807455332E-2   -1.032908490140770E-2   -3.395474777738942E-2    4.744168061950613E-1   -1.997218340869230E-1
 6.528987562500000E9     5.586408026766466E-1   -6.864130810058093E-2   -9.509797883504976E-3   -3.434498634682035E-2   -1.031471098307981E-2   -3.418567301543515E-2    4.739283195481300E-1   -2.003855719899754E-1
 6.528997532775000E9     5.586323291451374E-1   -6.938968877387533E-2   -9.721503310775658E-3   -3.451635367540684E-2   -1.050900355358277E-2   -3.432676571751025E-2    4.735926031661885E-1   -2.014282264840039E-1
 6.529007503050000E9     5.585312967455209E-1   -7.031554998983656E-2   -9.735489734871913E-3   -3.473694709684459E-2   -1.062107881775924E-2   -3.454434054825161E-2    4.732735125477263E-1   -2.022790982533700E-1
 6.529017473325000E9     5.584159677211612E-1   -7.116280777016247E-2   -9.908087539844452E-3   -3.492486224404324E-2   -1.074853522439736E-2   -3.466793927236686E-2    4.728203720440740E-1   -2.031431695240957E-1
 6.529027443600000E9     5.583290650880481E-1   -7.192725713186941E-2   -1.006487649169178E-2   -3.503868273831669E-2   -1.078790196333474E-2   -3.485638072632496E-2    4.723480985641944E-1   -2.039307141415377E-1
 6.529037413875000E9     5.581080073706780E-1   -7.279577023174807E-2   -1.012614426446366E-2   -3.522795940586074E-2   -1.092857298123954E-2   -3.501989853482800E-2    4.719683524115413E-1   -2.050730135426516E-1
 6.529047384150000E9     5.579431211479998E-1   -7.368297149131926E-2   -1.039101082589030E-2   -3.518152911528982E-2   -1.112759392119256E-2   -3.513952749117146E-2    4.715170694918077E-1   -2.057554524637524E-1
 6.529057354425000E9     5.580056248435677E-1   -7.443205441500540E-2   -1.040467610161979E-2   -3.549220115910286E-2   -1.113170446701386E-2   -3.543828099282450E-2    4.709867384688066E-1   -2.068504725169851E-1
 6.529067324700000E9     5.577946774124343E-1   -7.531095485087813E-2   -1.063516990231305E-2   -3.568401067263875E-2   -1.138268324903682E-2   -3.556640385514705E-2    4.704853694504012E-1   -2.075609435260613E-1
 6.529077294975000E9     5.576026763113343E-1   -7.609150314817245E-2   -1.056370631335444E-2   -3.595068096990136E-2   -1.148226023559230E-2   -3.571231922664508E-2    4.701289187937560E-1   -2.086133656340058E-1
 6.529087265250000E9     5.576247587521537E-1   -7.697806267063494E-2   -1.068907943772515E-2   -3.614457012300573E-2   -1.166575085308656E-2   -3.589185533048588E-2    4.696828643204453E-1   -2.094679848864792E-1
 6.529097235525000E9     5.573961159076453E-1   -7.779665544343289E-2   -1.094170393678257E-2   -3.615991909789378E-2   -1.174701962174343E-2   -3.604632596994612E-2    4.691759752353249E-1   -2.103811033804803E-1
 6.529107205800000E9     5.572439622909792E-1   -7.858354178846452E-2   -1.111796956293964E-2   -3.645492420132561E-2   -1.189346678915945E-2   -3.628154233029489E-2    4.688289481737539E-1   -2.114664994580475E-1
 6.529117176075000E9     5.571644953469097E-1   -7.940273742266994E-2   -1.117422580024349E-2   -3.666605200781071E-2   -1.213875403897110E-2   -3.639183246307415E-2    4.684415224352653E-1   -2.123322314362201E-1
 6.529127146350000E9     5.571341963145127E-1   -8.032708518835384E-2   -1.128179166724014E-2   -3.696284051681713E-2   -1.226321337636179E-2   -3.663329379361523E-2    4.679415625700542E-1   -2.134026130488739E-1
 6.529137116625000E9     5.568026120363468E-1   -8.117005167714238E-2   -1.151890184693780E-2   -3.701925863914536E-2   -1.238206525086151E-2   -3.683542105405527E-2    4.672592205458516E-1   -2.141376961968214E-1
 6.529147086900000E9     5.567310343161618E-1   -8.194427018625595E-2   -1.168247493599741E-2   -3.728995185539034E-2   -1.246910456574597E-2   -3.696699798125035E-2    4.668899733796312E-1   -2.150049430482370E-1
 6.529157057175000E9     5.566175169824870E-1   -8.275838959249074E-2   -1.183244198411883E-2   -3.747094680197864E-2   -1.262730400849935E-2   -3.716532091307555E-2    4.666041397136376E-1   -2.160264263077943E-1
 6.529167027450000E9     5.564139178102102E-1   -8.374365682614970E-2   -1.187820220525849E-2   -3.764437400468758E-2   -1.270689925563221E-2   -3.735576142680383E-2    4.660661462325357E-1   -2.168705255997228E-1
 6.529176997725000E9     5.564515648554192E-1   -8.447760988474173E-2   -1.208603201326225E-2   -3.793538940787954E-2   -1.294417590309106E-2   -3.763742373657863E-2    4.654685014919721E-1   -2.180484854690029E-1
 6.529186968000000E9     5.560940164266303E-1   -8.524298535711193E-2   -1.215602179909548E-2   -3.813319398001212E-2   -1.316163893925005E-2   -3.785828634647759E-2    4.648815936459106E-1   -2.188684493582515E-1
 6.529196938275000E9     5.559906816043565E-1   -8.616624784430386E-2   -1.231294102616346E-2   -3.818076979997473E-2   -1.324259047128612E-2   -3.803643060777409E-2    4.645905368920717E-1   -2.198196815140627E-1
 6.529206908550000E9     5.557486788020838E-1   -8.706615699348894E-2   -1.248907670277103E-2   -3.850850220409253E-2   -1.344165065552745E-2   -3.827113317286798E-2    4.640452658502124E-1   -2.206600136703638E-1
 6.529216878825000E9     5.556147542988916E-1   -8.795332356262969E-2   -1.267658894608939E-2   -3.857979046031299E-2   -1.358477856904620E-2   -3.844283720974712E-2    4.634936913638339E-1   -2.217537500290937E-1
 6.529226849100000E9     5.555035339569703E-1   -8.876059295070446E-2   -1.276589535612336E-2   -3.879849737011720E-2   -1.377669869839365E-2   -3.869144049873238E-2    4.628468747184291E-1   -2.227261683865571E-1
 6.529236819375000E9     5.553757178967370E-1   -8.963870532379456E-2   -1.297358812188324E-2   -3.919919361296059E-2   -1.386867780476988E-2   -3.881668527137580E-2    4.624401340669012E-1   -2.236089091245091E-1
 6.529246789650000E9     5.552522805705595E-1   -9.045874165961770E-2   -1.319381129877120E-2   -3.929981053637186E-2   -1.409361758866571E-2   -3.910598208299564E-2    4.618358531721967E-1   -2.245920238728629E-1
 6.529256759925000E9     5.551264274446926E-1   -9.134340401289073E-2   -1.346875981056067E-2   -3.952452124045570E-2   -1.429784960593583E-2   -3.930263039212888E-2    4.612573309060118E-1   -2.254842992349508E-1
 6.529266730200000E9     5.549380233629746E-1   -9.219676694523439E-2   -1.348724094301446E-2   -3.979453442348244E-2   -1.437360008611881E-2   -3.941226876018610E-2    4.608536072688474E-1   -2.266675552781231E-1
 6.529276700475000E9     5.546614704556111E-1   -9.294625130780693E-2   -1.349029364815770E-2   -4.003429289841139E-2   -1.459846827420114E-2   -3.968173104124156E-2    4.603608282193173E-1   -2.276161070461330E-1
 6.529286670750000E9     5.545752569800404E-1   -9.392725690086091E-2   -1.378894109248370E-2   -4.021585012918965E-2   -1.487435162058155E-2   -3.989082213468002E-2    4.597235208099337E-1   -2.284972558074827E-1
 6.529296641025000E9     5.543731183131043E-1   -9.473178320534995E-2   -1.406393990858333E-2   -4.041351548727160E-2   -1.490487915794646E-2   -4.018007245976603E-2    4.591409299646443E-1   -2.295698719643618E-1
 6.529306611300000E9     5.542514203446752E-1   -9.559418638175185E-2   -1.429284634306444E-2   -4.062240345201296E-2   -1.513269996635151E-2   -4.041668393886202E-2    4.587309063255243E-1   -2.303638854596345E-1
 6.529316581575000E9     5.539753442374582E-1   -9.643942928634426E-2   -1.436671998502481E-2   -4.089185531985529E-2   -1.532327452682137E-2   -4.068536024256358E-2    4.580017889140036E-1   -2.315858348848098E-1
 6.529326551850000E9     5.537760824030570E-1   -9.729962322239624E-2   -1.447102974836740E-2   -4.126385158310936E-2   -1.552524643893949E-2   -4.086188545491835E-2    4.572910104880742E-1   -2.325261924680651E-1
 6.529336522125000E9     5.536713118488686E-1   -9.819408488550413E-2   -1.459553589711841E-2   -4.147743569211570E-2   -1.565120739987575E-2   -4.112989920103092E-2    4.568768517276911E-1   -2.335025118219927E-1
 6.529346492400000E9     5.534414349018130E-1   -9.914756741332256E-2   -1.493553577192777E-2   -4.162874880316721E-2   -1.593116543755375E-2   -4.132065192098588E-2    4.562663427875943E-1   -2.346253696632612E-1
 6.529356462675000E9     5.532002438800225E-1   -9.987793254239760E-2   -1.502250713838967E-2   -4.184581668136911E-2   -1.615040319096539E-2   -4.158896712509074E-2    4.556835621318248E-1   -2.354567438341746E-1
 6.529366432950000E9     5.531605827972003E-1   -1.009152819252013E-1   -1.531742072984596E-2   -4.210161420358979E-2   -1.620160155548152E-2   -4.185707471950980E-2    4.549703267381429E-1   -2.365157957492992E-1
 6.529376403225000E9     5.528911864279095E-1   -1.016773605006474E-1   -1.542252700317350E-2   -4.244427382337329E-2   -1.653569926267737E-2   -4.206928950904085E-2    4.545802543861356E-1   -2.376792106886305E-1
 6.529386373500000E9     5.527499810640835E-1   -1.026188391686198E-1   -1.571902383967883E-2   -4.263603197506443E-2   -1.675154056833144E-2   -4.225969775774376E-2    4.537946975278535E-1   -2.386352466225231E-1
 6.529396343775000E9     5.524610451779619E-1   -1.034264926178971E-1   -1.595283634247727E-2   -4.287046178251016E-2   -1.704168220129952E-2   -4.259835426584982E-2    4.531193310860012E-1   -2.395462175075801E-1
 6.529406314050000E9     5.522800885322948E-1   -1.042609997109503E-1   -1.615224040660416E-2   -4.319622615372617E-2   -1.715695712888416E-2   -4.285622440229480E-2    4.525344904422453E-1   -2.405950742315955E-1
 6.529416284325000E9     5.520187422322652E-1   -1.052971566681239E-1   -1.640838946738284E-2   -4.342233049744249E-2   -1.735358925310540E-2   -4.315405394662252E-2    4.520467892560036E-1   -2.415523900705172E-1
 6.529426254600000E9     5.519837609200530E-1   -1.062251110304045E-1   -1.649833352421955E-2   -4.374817359662148E-2   -1.764741007197705E-2   -4.345807808418140E-2    4.513260644275667E-1   -2.426116962564286E-1
 6.529436224875000E9     5.516310673501565E-1   -1.070201199937593E-1   -1.663408088338594E-2   -4.392400829513234E-2   -1.780228085697551E-2   -4.367075418086765E-2    4.505865086053444E-1   -2.438188613481753E-1
 6.529446195150000E9     5.514982897499207E-1   -1.078500401303476E-1   -1.710827447577353E-2   -4.429083360767435E-2   -1.802906238542037E-2   -4.396874979670089E-2    4.499937027248681E-1   -2.448875522778503E-1
 6.529456165425000E9     5.513457770273745E-1   -1.088095686582552E-1   -1.701486616272121E-2   -4.449667047043465E-2   -1.814695228679722E-2   -4.423512409133527E-2    4.493619685790292E-1   -2.459409036700917E-1
 6.529466135700000E9     5.510279300241635E-1   -1.097065120445049E-1   -1.751808932692736E-2   -4.481834670042598E-2   -1.846317721164292E-2   -4.441814360278628E-2    4.487156592920319E-1   -2.469635093836396E-1
 6.529476105975000E9     5.509846391414441E-1   -1.106051005901879E-1   -1.757460015949596E-2   -4.502101701215407E-2   -1.878146431022249E-2   -4.478160228521454E-2    4.479369909188873E-1   -2.481336845690097E-1
 6.529486076250000E9     5.507171582676291E-1   -1.115171666154813E-1   -1.791564633703488E-2   -4.553720436049890E-2   -1.904037235018788E-2   -4.502694397151605E-2    4.471545409399588E-1   -2.491076052739448E-1
 6.529496046525000E9     5.503209332855729E-1   -1.124512800748272E-1   -1.817350820084179E-2   -4.561278538980006E-2   -1.932657529223535E-2   -4.538730136264191E-2    4.464958830701095E-1   -2.501323768257542E-1
 6.529506016800000E9     5.502043569482493E-1   -1.131657273744605E-1   -1.840778660497035E-2   -4.596851276103905E-2   -1.952624350200851E-2   -4.568523908133514E-2    4.458345297295277E-1   -2.512478845836101E-1
 6.529515987075000E9     5.499400491715384E-1   -1.141748426773240E-1   -1.866356964694944E-2   -4.638587917324025E-2   -1.991352293970099E-2   -4.591163452455409E-2    4.450780512401126E-1   -2.524453552122429E-1
 6.529525957350000E9     5.497193548025332E-1   -1.150616670321341E-1   -1.887603499820257E-2   -4.650134049231707E-2   -2.002530278961868E-2   -4.618300328561881E-2    4.442861548518480E-1   -2.534696701453478E-1
 6.529535927625000E9     5.494735252609330E-1   -1.161805235600164E-1   -1.917991960917849E-2   -4.687127997057366E-2   -2.032176372304520E-2   -4.646693686717319E-2    4.434667403932888E-1   -2.544566839665809E-1
 6.529545897900000E9     5.493105814696454E-1   -1.168282089599236E-1   -1.943871831335294E-2   -4.726908582201589E-2   -2.058677399776905E-2   -4.681551196651956E-2    4.429480179125900E-1   -2.556101656558807E-1
 6.529555868175000E9     5.488830573945603E-1   -1.178412464446003E-1   -1.976729407956797E-2   -4.758944631227325E-2   -2.090229253996713E-2   -4.723861517100823E-2    4.420818223865205E-1   -2.567615493087962E-1
 6.529565838450000E9     5.486749880858782E-1   -1.187729823996924E-1   -2.008007179661260E-2   -4.795674276934503E-2   -2.119828291926638E-2   -4.747521282967400E-2    4.411814623028819E-1   -2.579654425638361E-1
 6.529575808725000E9     5.485860865379162E-1   -1.196756818351913E-1   -2.028719554813284E-2   -4.814805740257679E-2   -2.145082889453962E-2   -4.776369982642884E-2    4.404861793213330E-1   -2.589615929187178E-1
 6.529585779000000E9     5.483191169797548E-1   -1.205378202057874E-1   -2.064029175204997E-2   -4.852051215766234E-2   -2.178059398207672E-2   -4.816552260938859E-2    4.398161323072317E-1   -2.601943761903641E-1
 6.529595749275000E9     5.480168188450308E-1   -1.214389342826144E-1   -2.079343168502242E-2   -4.886184982679925E-2   -2.216850542755226E-2   -4.845700033851561E-2    4.390373561695340E-1   -2.614171485519690E-1
 6.529605719550000E9     5.476660527843180E-1   -1.224340313018883E-1   -2.117679859548622E-2   -4.909594102107211E-2   -2.240241008524662E-2   -4.881328980443734E-2    4.380767898833236E-1   -2.624582236315226E-1
 6.529615689825000E9     5.474969600077858E-1   -1.234082814834587E-1   -2.144820481550962E-2   -4.970638501781184E-2   -2.267195126840765E-2   -4.912848930375373E-2    4.371190387068317E-1   -2.636655084299462E-1
 6.529625660100000E9     5.472160702173361E-1   -1.243344020207444E-1   -2.170331137443457E-2   -5.001415608416659E-2   -2.295329663922581E-2   -4.954943679132624E-2    4.364382504895764E-1   -2.647669024854188E-1
 6.529635630375000E9     5.468036385625392E-1   -1.253161846384106E-1   -2.206215060691295E-2   -5.034357064666138E-2   -2.346016590392055E-2   -4.978699419096451E-2    4.356188475010023E-1   -2.660705456072464E-1
 6.529645600650000E9     5.465617087880321E-1   -1.262236858353462E-1   -2.221657322147320E-2   -5.062353358335962E-2   -2.364257072365346E-2   -5.023446197080707E-2    4.345321188858781E-1   -2.670149131864218E-1
 6.529655570925000E9     5.463124512838319E-1   -1.270383384418663E-1   -2.276351318836498E-2   -5.104286222868977E-2   -2.402242853949174E-2   -5.053514520686963E-2    4.338079714180899E-1   -2.682451825526946E-1
 6.529665541200000E9     5.460469017104080E-1   -1.280483289255840E-1   -2.312060236591008E-2   -5.128710517481024E-2   -2.444154578203923E-2   -5.094229355116778E-2    4.327472328399550E-1   -2.696287930010246E-1
 6.529675511475000E9     5.456428730884172E-1   -1.290560205602213E-1   -2.349510714936648E-2   -5.177581915530156E-2   -2.473056134901455E-2   -5.121778555455049E-2    4.319751478661499E-1   -2.706988860098928E-1
 6.529685481750000E9     5.455156113269026E-1   -1.300435632247693E-1   -2.363813823331425E-2   -5.222228323934212E-2   -2.509330161087941E-2   -5.158298406932185E-2    4.309697765963655E-1   -2.718728169859724E-1
