#  HZ   S   RI   R     50.00 
! Rohde & Schwarz Vector Network Analyzer 
! Rohde-Schwarz,ZNB20-2Port,1311601062101988,3.16
! Created: UTC 3/21/2024, 12:56:44 AM
! freq[Hz]                re:S11                  im:S11                  re:S21                  im:S21                  re:S12                  im:S12                  re:S22                  im:S22
 6.528789692000000E9     5.607274613319161E-1   -5.237995350899619E-2   -7.532785012395626E-3   -3.135953293373764E-2   -8.126308955322473E-3   -3.106371104916915E-2    4.816563771182456E-1   -1.829547422808604E-1
 6.528799662650000E9     5.604941231028487E-1   -5.324829551041421E-2   -7.706920326272135E-3   -3.124065785824311E-2   -8.419654133569796E-3   -3.133001219629786E-2    4.811382536965296E-1   -1.838236969252213E-1
 6.528809633300000E9     5.604466405185089E-1   -5.400166419499255E-2   -7.800428582324466E-3   -3.147379125941383E-2   -8.440728926709931E-3   -3.149305275111536E-2    4.808431499180000E-1   -1.848500879326667E-1
 6.528819603950000E9     5.602873985597173E-1   -5.485933977521926E-2   -7.770137885140567E-3   -3.170992207911279E-2   -8.481779699142726E-3   -3.163105728972011E-2    4.805912596697853E-1   -1.857819377033993E-1
 6.528829574600000E9     5.603456301326230E-1   -5.569029033122502E-2   -7.921552725683248E-3   -3.177197721426545E-2   -8.655891087745430E-3   -3.170758453517038E-2    4.801674062401043E-1   -1.864909647969876E-1
 6.528839545250000E9     5.601001643378787E-1   -5.649420107488367E-2   -8.015596109744959E-3   -3.198754713148188E-2   -8.681625246974200E-3   -3.182955517308875E-2    4.798451044901073E-1   -1.873414587536030E-1
 6.528849515900000E9     5.601302158259904E-1   -5.731273730333959E-2   -8.178731053441725E-3   -3.213256422395426E-2   -8.850566400201761E-3   -3.192807111318047E-2    4.794119113800495E-1   -1.883592865270094E-1
 6.528859486550000E9     5.599165289302642E-1   -5.812208706051150E-2   -8.191684899553754E-3   -3.231366399649867E-2   -8.949923648026136E-3   -3.210160132444858E-2    4.789886573509738E-1   -1.891935218926099E-1
 6.528869457200000E9     5.598096760315067E-1   -5.886113257951180E-2   -8.319561537791452E-3   -3.252216551047090E-2   -9.013183572776291E-3   -3.233326980075944E-2    4.785947379995151E-1   -1.898836254307284E-1
 6.528879427850000E9     5.599313155532845E-1   -5.979814066004633E-2   -8.275918882447161E-3   -3.259074070027460E-2   -9.065718946128239E-3   -3.240021183663989E-2    4.781887028095589E-1   -1.907649505695025E-1
 6.528889398500000E9     5.596841862358599E-1   -6.053909300188323E-2   -8.469705696335563E-3   -3.271804915605408E-2   -9.254394566202992E-3   -3.263967776023202E-2    4.779052682409327E-1   -1.916586747605489E-1
 6.528899369150000E9     5.596217487920793E-1   -6.137152726459143E-2   -8.717337702108224E-3   -3.296074253406526E-2   -9.352444395396137E-3   -3.264959179381028E-2    4.775065892475395E-1   -1.925674358338978E-1
 6.528909339800000E9     5.593655614047675E-1   -6.210352070549839E-2   -8.765300708334096E-3   -3.290363057776180E-2   -9.493572270038197E-3   -3.283288990107998E-2    4.771488456510775E-1   -1.933947134214206E-1
 6.528919310450000E9     5.594601716365136E-1   -6.301631740379889E-2   -8.762217422104857E-3   -3.326677378393266E-2   -9.555522449563142E-3   -3.305607238249769E-2    4.768114863674714E-1   -1.942270582445474E-1
 6.528929281100000E9     5.592787300942298E-1   -6.374458546231962E-2   -8.891126259214489E-3   -3.330358574435024E-2   -9.650145968979604E-3   -3.325753559753676E-2    4.764110914192539E-1   -1.952471986669506E-1
 6.528939251750000E9     5.591346308833978E-1   -6.461139806057442E-2   -9.058220786443394E-3   -3.356817562046784E-2   -9.873599786384676E-3   -3.325570966197210E-2    4.759100579744834E-1   -1.960837156578476E-1
 6.528949222400000E9     5.590976270806760E-1   -6.548710246596591E-2   -9.166153140639767E-3   -3.368209145393668E-2   -9.881684941340120E-3   -3.344790467661496E-2    4.756139054118979E-1   -1.969831308572421E-1
 6.528959193050000E9     5.588860696198471E-1   -6.626077154426141E-2   -9.347790919441814E-3   -3.361802625938737E-2   -1.000682692368302E-2   -3.363331214499318E-2    4.752336318653566E-1   -1.978421024401134E-1
 6.528969163700000E9     5.588823008701002E-1   -6.704308449947878E-2   -9.430927406842957E-3   -3.410951412645077E-2   -1.010873801560442E-2   -3.378118147800350E-2    4.748272390753097E-1   -1.986691258881461E-1
 6.528979134350000E9     5.587936572239902E-1   -6.793787800788394E-2   -9.507224586576112E-3   -3.409738963252198E-2   -1.024239146364068E-2   -3.394414533329028E-2    4.743118492226180E-1   -1.995473569788524E-1
 6.528989105000000E9     5.586792449060470E-1   -6.868002049506411E-2   -9.579747306618539E-3   -3.442850372795157E-2   -1.037235252319592E-2   -3.409197195452645E-2    4.739854875229998E-1   -2.005276756015669E-1
 6.528999075650000E9     5.586983748301884E-1   -6.956219456988101E-2   -9.666933051909458E-3   -3.443480112428789E-2   -1.039433876021400E-2   -3.427174186870230E-2    4.735580812328928E-1   -2.014478799158063E-1
 6.529009046300000E9     5.584258322723973E-1   -7.033306563617404E-2   -9.799291121860275E-3   -3.471829557882698E-2   -1.062172337531419E-2   -3.447270951696235E-2    4.731568882895129E-1   -2.023360970042156E-1
 6.529019016950000E9     5.583841607702169E-1   -7.117249206899007E-2   -1.005669385257699E-2   -3.489901679259024E-2   -1.082356023764487E-2   -3.458344938881470E-2    4.726121565313488E-1   -2.031076164370320E-1
 6.529028987600000E9     5.581853501198446E-1   -7.203145921521770E-2   -1.007558870158979E-2   -3.499069298340166E-2   -1.075919517420387E-2   -3.485896355200751E-2    4.722854973361043E-1   -2.038961975158989E-1
 6.529038958250000E9     5.580719761896704E-1   -7.284498695230275E-2   -1.037958077574606E-2   -3.522754943644443E-2   -1.095689942657274E-2   -3.502514757913578E-2    4.718237840377511E-1   -2.050845151359278E-1
 6.529048928900000E9     5.579609134563598E-1   -7.366522420543982E-2   -1.025559404912036E-2   -3.544229771526763E-2   -1.108668380792914E-2   -3.509713481121756E-2    4.716117438651858E-1   -2.058898835163935E-1
 6.529058899550000E9     5.578009032220128E-1   -7.452812706016446E-2   -1.043837996962066E-2   -3.558916779382898E-2   -1.123847531159351E-2   -3.539753700032973E-2    4.710129008327320E-1   -2.068108022088097E-1
 6.529068870200000E9     5.576451172884507E-1   -7.525488881954853E-2   -1.062726349513493E-2   -3.575535554251414E-2   -1.131692260718514E-2   -3.549660200866703E-2    4.706503023255645E-1   -2.078369447435241E-1
 6.529078840850000E9     5.575763299126449E-1   -7.618746033309726E-2   -1.071215478707918E-2   -3.569075347601727E-2   -1.151877020620314E-2   -3.570567813115688E-2    4.701410224020572E-1   -2.085637984486313E-1
 6.529088811500000E9     5.574591934692583E-1   -7.692759296927766E-2   -1.076719658803627E-2   -3.609457489152389E-2   -1.156221429165401E-2   -3.587110402967033E-2    4.695668904481639E-1   -2.095731328952796E-1
 6.529098782150000E9     5.573529079010876E-1   -7.777741421593182E-2   -1.096880815308193E-2   -3.627228614592548E-2   -1.174812749441372E-2   -3.604418829214704E-2    4.692109493873425E-1   -2.103659306755623E-1
 6.529108752800000E9     5.572674364481887E-1   -7.873903260950327E-2   -1.101433040215501E-2   -3.634517296169471E-2   -1.186045544237639E-2   -3.620526865117869E-2    4.687770307350828E-1   -2.112355699334309E-1
 6.529118723450000E9     5.571372766204145E-1   -7.937967567330724E-2   -1.114105517985265E-2   -3.669334562316478E-2   -1.198318136992955E-2   -3.647477752697870E-2    4.683373771552230E-1   -2.122235306298881E-1
 6.529128694100000E9     5.569532755567116E-1   -8.034576649599737E-2   -1.131175032233134E-2   -3.689515344959170E-2   -1.225818969614962E-2   -3.658846428252212E-2    4.678653336120674E-1   -2.132897057236336E-1
 6.529138664750000E9     5.567852385772731E-1   -8.121923843734272E-2   -1.138296418722197E-2   -3.694755599718298E-2   -1.235214846671349E-2   -3.676055923964509E-2    4.671614710227487E-1   -2.143410874309050E-1
 6.529148635400000E9     5.566288008399934E-1   -8.202179722760981E-2   -1.162035215446929E-2   -3.726993150545976E-2   -1.248340825611706E-2   -3.709199101669352E-2    4.667995894414705E-1   -2.151202205752161E-1
 6.529158606050000E9     5.565044912569969E-1   -8.282092417021543E-2   -1.169559189420423E-2   -3.741879635221299E-2   -1.265992852597070E-2   -3.724247254029046E-2    4.663294693162465E-1   -2.159870012158288E-1
 6.529168576700000E9     5.563730003232900E-1   -8.363705846471994E-2   -1.191520094943158E-2   -3.770994903713953E-2   -1.279152897123482E-2   -3.741757534819441E-2    4.659864387825679E-1   -2.169735761035303E-1
 6.529178547350000E9     5.562220713117789E-1   -8.447649504809031E-2   -1.198630030933459E-2   -3.794927052675154E-2   -1.290150527625328E-2   -3.758760950015629E-2    4.653165054612127E-1   -2.179362948941777E-1
 6.529188518000000E9     5.561931889634124E-1   -8.524494320639243E-2   -1.235631313894632E-2   -3.812841630754134E-2   -1.304024306552854E-2   -3.782529441025571E-2    4.649737946751800E-1   -2.188304806051890E-1
 6.529198488650000E9     5.559754307037443E-1   -8.616243372041640E-2   -1.238408497061211E-2   -3.827268138446264E-2   -1.334656444582650E-2   -3.801633169868485E-2    4.643411021985790E-1   -2.197661834855384E-1
 6.529208459300000E9     5.558707699438371E-1   -8.716426346439161E-2   -1.263177668045067E-2   -3.841842642033132E-2   -1.339827875011593E-2   -3.817777379785158E-2    4.639030690174840E-1   -2.205547919302157E-1
 6.529218429950000E9     5.557364698853453E-1   -8.800175540334058E-2   -1.270152533161917E-2   -3.865757872266850E-2   -1.355224707528556E-2   -3.833290401432675E-2    4.633459278045925E-1   -2.216203433651082E-1
 6.529228400600000E9     5.554649408640354E-1   -8.870928240351579E-2   -1.281703155571075E-2   -3.873083151760046E-2   -1.374078149772300E-2   -3.861264180459430E-2    4.629846221457218E-1   -2.226538214135021E-1
 6.529238371250000E9     5.553460207800197E-1   -8.976001518927269E-2   -1.299356683247635E-2   -3.907797220629274E-2   -1.390003162427779E-2   -3.879409072401924E-2    4.622960793075278E-1   -2.236902950995627E-1
 6.529248341900000E9     5.551749054105672E-1   -9.051666337408958E-2   -1.315340782632369E-2   -3.943753349121040E-2   -1.407557839026998E-2   -3.904622026976827E-2    4.617873082970665E-1   -2.244965374308444E-1
 6.529258312550000E9     5.550050623588508E-1   -9.149177943779278E-2   -1.323018676941018E-2   -3.952049764735002E-2   -1.426367680064167E-2   -3.924467463122727E-2    4.613159042593801E-1   -2.253684990150790E-1
 6.529268283200000E9     5.548315172557609E-1   -9.223781099254708E-2   -1.336915476430283E-2   -3.980566293224354E-2   -1.439625327118049E-2   -3.943466434036635E-2    4.607226965343397E-1   -2.265266186467910E-1
 6.529278253850000E9     5.547939491729348E-1   -9.306799174433918E-2   -1.361300395001229E-2   -4.002778058671304E-2   -1.455844187550531E-2   -3.974434827103025E-2    4.601681015202164E-1   -2.275827931396432E-1
 6.529288224500000E9     5.545425765835735E-1   -9.401216132139449E-2   -1.372600949517534E-2   -4.010066961989412E-2   -1.469675467360786E-2   -3.991709725672069E-2    4.597814120812236E-1   -2.284661538037995E-1
 6.529298195150000E9     5.543618358594834E-1   -9.485299001277110E-2   -1.409719244287807E-2   -4.040524105174556E-2   -1.492612288523574E-2   -4.016731946044511E-2    4.591026928569590E-1   -2.295523388563413E-1
 6.529308165800000E9     5.541705460464402E-1   -9.570056335396741E-2   -1.409929644253437E-2   -4.057204992618272E-2   -1.514716569334923E-2   -4.045760497347873E-2    4.585909778378344E-1   -2.303410534224535E-1
 6.529318136450000E9     5.540971840828048E-1   -9.652232674838222E-2   -1.436860086262349E-2   -4.095725895958103E-2   -1.534197574350333E-2   -4.061029215898970E-2    4.580484828230132E-1   -2.316098628825696E-1
 6.529328107100000E9     5.538526004125357E-1   -9.743747586976134E-2   -1.459584473051909E-2   -4.104505559462810E-2   -1.554321237526226E-2   -4.092629489777037E-2    4.572832385112856E-1   -2.323876152350922E-1
 6.529338077750000E9     5.536594035741622E-1   -9.827351136001106E-2   -1.483765787742527E-2   -4.131186276556074E-2   -1.573303888575451E-2   -4.109125024264787E-2    4.567974064481682E-1   -2.333479885326663E-1
 6.529348048400000E9     5.534618015321129E-1   -9.907632213251293E-2   -1.478393004204448E-2   -4.149602320197105E-2   -1.594129315978714E-2   -4.133432549964055E-2    4.560748924891057E-1   -2.344450962053265E-1
 6.529358019050000E9     5.532294742821970E-1   -9.995279089784469E-2   -1.501106570201693E-2   -4.185636822867118E-2   -1.602116042881752E-2   -4.151306490881480E-2    4.554695648765220E-1   -2.354984656399496E-1
 6.529367989700000E9     5.531085404960945E-1   -1.008994673757070E-1   -1.523355790295870E-2   -4.217861150849975E-2   -1.630920118970810E-2   -4.185939214442898E-2    4.550804068361301E-1   -2.364842385660917E-1
 6.529377960350000E9     5.528845061947149E-1   -1.017840698637642E-1   -1.535370526657902E-2   -4.234820669421127E-2   -1.654652979501105E-2   -4.209040524458402E-2    4.543830390117684E-1   -2.377311966201669E-1
 6.529387931000000E9     5.526940470422917E-1   -1.026511809399004E-1   -1.566630280863664E-2   -4.275295202307441E-2   -1.673163154501332E-2   -4.226467852511213E-2    4.537380843689024E-1   -2.385182295456899E-1
 6.529397901650000E9     5.524980195022563E-1   -1.035031203025907E-1   -1.600820187366946E-2   -4.286079022237083E-2   -1.696395247743190E-2   -4.260880603814599E-2    4.531319406994194E-1   -2.395846588918968E-1
 6.529407872300000E9     5.523413841304774E-1   -1.044224731307680E-1   -1.615289514778564E-2   -4.328146664995362E-2   -1.710138187248516E-2   -4.302821655685453E-2    4.525403929410764E-1   -2.405457628550436E-1
 6.529417842950000E9     5.521906313792303E-1   -1.053131423773313E-1   -1.636193747126940E-2   -4.322341638590438E-2   -1.742321674719938E-2   -4.319308681900581E-2    4.518004559352817E-1   -2.417311291977069E-1
 6.529427813600000E9     5.518643413787345E-1   -1.061821330986382E-1   -1.657505112660182E-2   -4.371400181608874E-2   -1.757121221331143E-2   -4.338663238403968E-2    4.513655863701637E-1   -2.426785745699324E-1
 6.529437784250000E9     5.516568291626800E-1   -1.070957682922864E-1   -1.672212326779801E-2   -4.398874685124046E-2   -1.766954701612404E-2   -4.363977245129907E-2    4.504763475605895E-1   -2.437550703134115E-1
 6.529447754900000E9     5.514585514862981E-1   -1.080348925807330E-1   -1.699471525311022E-2   -4.422401124513207E-2   -1.802547344031735E-2   -4.382757528060812E-2    4.499145769865894E-1   -2.446802807439421E-1
 6.529457725550000E9     5.512523350860221E-1   -1.088501890598326E-1   -1.712189919890904E-2   -4.450151098051056E-2   -1.833745495023940E-2   -4.418066485370409E-2    4.492047006095966E-1   -2.458870845759574E-1
 6.529467696200000E9     5.510523331972343E-1   -1.098425998331589E-1   -1.736195455931273E-2   -4.462712554604915E-2   -1.852523539003107E-2   -4.457905306642555E-2    4.486715167096232E-1   -2.468540709758734E-1
 6.529477666850000E9     5.507599878795461E-1   -1.107342853157959E-1   -1.754779949982556E-2   -4.510266744435298E-2   -1.881978218130397E-2   -4.472662038210909E-2    4.477962096176059E-1   -2.480212588631715E-1
 6.529487637500000E9     5.506473049615283E-1   -1.115127094356442E-1   -1.790566373636437E-2   -4.533619884187275E-2   -1.901732836137256E-2   -4.499867997976633E-2    4.471880356573930E-1   -2.490371543042931E-1
 6.529497608150000E9     5.503935070488098E-1   -1.125134531795338E-1   -1.817979357070413E-2   -4.567051657836339E-2   -1.936046624229947E-2   -4.531972000217566E-2    4.461841918652458E-1   -2.501278162323706E-1
 6.529507578800000E9     5.499387049331389E-1   -1.133385643430314E-1   -1.840793545917718E-2   -4.592161879659069E-2   -1.949846108127876E-2   -4.556537400261029E-2    4.457467195694404E-1   -2.512040945970047E-1
 6.529517549450000E9     5.498927102572915E-1   -1.143692114264272E-1   -1.861526028149863E-2   -4.634868610887714E-2   -1.978380348188426E-2   -4.591064715073224E-2    4.450463211859644E-1   -2.523719056746707E-1
 6.529527520100000E9     5.496222917734142E-1   -1.150779925069903E-1   -1.899716607447243E-2   -4.661708710369909E-2   -2.000598025981485E-2   -4.616473544309559E-2    4.442457888560842E-1   -2.534427677401219E-1
 6.529537490750000E9     5.493665766409717E-1   -1.161024063221837E-1   -1.918224310662266E-2   -4.687720402155977E-2   -2.039498144458413E-2   -4.642976499408287E-2    4.436230537842248E-1   -2.545044025805036E-1
 6.529547461400000E9     5.492940676531062E-1   -1.169818936571596E-1   -1.929547167240325E-2   -4.725574348825757E-2   -2.053838617391936E-2   -4.674701503045395E-2    4.427750441233720E-1   -2.557345735185972E-1
 6.529557432050000E9     5.489575728085643E-1   -1.179187245731705E-1   -1.967918733077549E-2   -4.755649952090331E-2   -2.090141157658382E-2   -4.714442303156329E-2    4.420982599709131E-1   -2.567470915497522E-1
 6.529567402700000E9     5.486509652941306E-1   -1.188608110901338E-1   -1.996770901057189E-2   -4.806557103065578E-2   -2.122260642565429E-2   -4.748284068481985E-2    4.413675008569772E-1   -2.578345494739536E-1
 6.529577373350000E9     5.484353018284573E-1   -1.197112916095547E-1   -2.031237023295223E-2   -4.829155153424929E-2   -2.143559514366103E-2   -4.775706735874446E-2    4.404287017345789E-1   -2.589834774290352E-1
 6.529587344000000E9     5.481989421180128E-1   -1.206548988844906E-1   -2.051885988754886E-2   -4.859667936261550E-2   -2.177162571618850E-2   -4.816870664912348E-2    4.395518185755924E-1   -2.601292378801407E-1
 6.529597314650000E9     5.478407031837256E-1   -1.216815371437609E-1   -2.091547778731561E-2   -4.884211457026223E-2   -2.209903136631273E-2   -4.839416478137700E-2    4.389016208749887E-1   -2.613080651280851E-1
 6.529607285300000E9     5.476986479203506E-1   -1.224879481198316E-1   -2.110500888836835E-2   -4.916476056289771E-2   -2.242297996787340E-2   -4.879921462743204E-2    4.379374190284474E-1   -2.624023090779450E-1
 6.529617255950000E9     5.473725988385303E-1   -1.233885823533501E-1   -2.142392180406727E-2   -4.952955514989694E-2   -2.268591610469778E-2   -4.913729065579342E-2    4.371272055055584E-1   -2.635313619692641E-1
 6.529627226600000E9     5.471249853784294E-1   -1.243246327228374E-1   -2.168727924092299E-2   -4.979915237498501E-2   -2.298216808778740E-2   -4.948255694221128E-2    4.362952384628500E-1   -2.649023755978278E-1
 6.529637197250000E9     5.469135553395624E-1   -1.254347804305311E-1   -2.198419120080659E-2   -5.017587106818083E-2   -2.327462571801311E-2   -4.980222989126834E-2    4.356645625413777E-1   -2.658884676190733E-1
 6.529647167900000E9     5.466324799019819E-1   -1.263523339717754E-1   -2.240132548509705E-2   -5.053924245413197E-2   -2.371999731828087E-2   -5.013669312858961E-2    4.345663699598839E-1   -2.669869262474562E-1
 6.529657138550000E9     5.462347026437874E-1   -1.272451676613171E-1   -2.260920505798409E-2   -5.107743335663169E-2   -2.403434472202511E-2   -5.055686390250536E-2    4.337825358026289E-1   -2.682812074059449E-1
 6.529667109200000E9     5.459889472923314E-1   -1.282576324210163E-1   -2.301498138580128E-2   -5.141746870755030E-2   -2.444165393554356E-2   -5.092396526626843E-2    4.328012979196219E-1   -2.695028554329461E-1
 6.529677079850000E9     5.456438963148740E-1   -1.291190006361445E-1   -2.338981888307171E-2   -5.169158971954400E-2   -2.478731947439358E-2   -5.128212803382741E-2    4.319139283241502E-1   -2.707570959072652E-1
 6.529687050500000E9     5.454164311021570E-1   -1.301048717355459E-1   -2.374249635315658E-2   -5.217685151142812E-2   -2.509385877669882E-2   -5.168815014225755E-2    4.309330092471556E-1   -2.719207825422534E-1
