#  HZ   S   RI   R     50.00 
! Rohde & Schwarz Vector Network Analyzer 
! Rohde-Schwarz,ZNB20-2Port,1311601062101988,3.16
! Created: UTC 3/21/2024, 12:56:52 AM
! freq[Hz]                re:S11                  im:S11                  re:S21                  im:S21                  re:S12                  im:S12                  re:S22                  im:S22
 6.528789125000000E9     5.605887352666983E-1   -5.243296985112453E-2   -7.462608100146446E-3   -3.113026988886692E-2   -8.288149346635047E-3   -3.109552762223076E-2    4.815651983607284E-1   -1.825678611653500E-1
 6.528799112575000E9     5.605368591516399E-1   -5.308040712286330E-2   -7.715254551838841E-3   -3.131196766993909E-2   -8.258545091632876E-3   -3.135545866260624E-2    4.810321677210492E-1   -1.834526659981465E-1
 6.528809100150000E9     5.603759029404884E-1   -5.388139101109324E-2   -7.737266367662008E-3   -3.156841578450826E-2   -8.464620047552640E-3   -3.138441491685558E-2    4.808660198297590E-1   -1.843295206588129E-1
 6.528819087725000E9     5.603349935133892E-1   -5.473003973333890E-2   -7.773917187624526E-3   -3.156390633316412E-2   -8.483233765375861E-3   -3.149170548622435E-2    4.805528974913797E-1   -1.851526283162181E-1
 6.528829075300000E9     5.602027405791038E-1   -5.553749438495600E-2   -7.844164803695037E-3   -3.182185328478548E-2   -8.599235543564173E-3   -3.163700992718106E-2    4.798702195842744E-1   -1.860229160803107E-1
 6.528839062875000E9     5.601220315185491E-1   -5.634625644414566E-2   -8.030155298852319E-3   -3.188139553093982E-2   -8.728295737871762E-3   -3.177346547654033E-2    4.797776166217794E-1   -1.867680947392446E-1
 6.528849050450000E9     5.601160363858497E-1   -5.711415164483484E-2   -8.036927211526388E-3   -3.195503773569741E-2   -8.838515934991258E-3   -3.188546466301093E-2    4.793312348820589E-1   -1.876476240383012E-1
 6.528859038025000E9     5.600174061325647E-1   -5.791350794927005E-2   -8.161067807213570E-3   -3.229587927196984E-2   -8.978891362029654E-3   -3.206302613106785E-2    4.789550656346918E-1   -1.885650832939337E-1
 6.528869025600000E9     5.599932981737894E-1   -5.880888436116550E-2   -8.280033739746784E-3   -3.233064391689420E-2   -9.023271504090716E-3   -3.222076298151318E-2    4.786640180680118E-1   -1.895851638358824E-1
 6.528879013175000E9     5.598182127637777E-1   -5.956081641851138E-2   -8.423802404108345E-3   -3.246646529963720E-2   -9.081482664696019E-3   -3.234126137096572E-2    4.781661137336761E-1   -1.902627583819576E-1
 6.528889000750000E9     5.598062834446762E-1   -6.055052912925413E-2   -8.479436778289091E-3   -3.266220652021536E-2   -9.226343221556877E-3   -3.249196483000792E-2    4.778948032982575E-1   -1.911947745924596E-1
 6.528898988325000E9     5.596977144379998E-1   -6.126766263597073E-2   -8.646242772065814E-3   -3.278976386210757E-2   -9.375295393098206E-3   -3.261094509417468E-2    4.773382316473202E-1   -1.919418331324965E-1
 6.528908975900000E9     5.597440868858189E-1   -6.199845280431877E-2   -8.608361781361661E-3   -3.307483547470356E-2   -9.488951751213110E-3   -3.284641527880329E-2    4.772130096280280E-1   -1.930213060064034E-1
 6.528918963475000E9     5.594460243479639E-1   -6.290658547541982E-2   -8.734988545655667E-3   -3.326047176812943E-2   -9.531766909648839E-3   -3.291372435514653E-2    4.767941863660886E-1   -1.936722741731216E-1
 6.528928951050000E9     5.592778505614278E-1   -6.356566674236280E-2   -8.875057174091830E-3   -3.315108506203746E-2   -9.615528025577177E-3   -3.312708771225740E-2    4.763227906074069E-1   -1.944341210836304E-1
 6.528938938625000E9     5.592405127948579E-1   -6.443288449697242E-2   -9.005541517899372E-3   -3.356518316293704E-2   -9.804090190359974E-3   -3.325880901676182E-2    4.759991434122535E-1   -1.955059346906139E-1
 6.528948926200000E9     5.590170194731005E-1   -6.533329509001830E-2   -9.105837197503373E-3   -3.350818148216894E-2   -9.876108931264074E-3   -3.347458758035421E-2    4.756107416057546E-1   -1.964240139957760E-1
 6.528958913775000E9     5.590624600873720E-1   -6.605320179240684E-2   -9.306066489905574E-3   -3.377476794495853E-2   -1.002442500159840E-2   -3.360937670266354E-2    4.751617706106410E-1   -1.972934792125292E-1
 6.528968901350000E9     5.588217243971174E-1   -6.694365203400987E-2   -9.366981270826287E-3   -3.388941001748046E-2   -1.017751778500952E-2   -3.376179971922324E-2    4.747253499526587E-1   -1.982234426810483E-1
 6.528978888925000E9     5.588562910836278E-1   -6.779309351698135E-2   -9.434500004190653E-3   -3.402513578406554E-2   -1.019876466702226E-2   -3.397443135787082E-2    4.744193380235741E-1   -1.989657687432468E-1
 6.528988876500000E9     5.587298059374083E-1   -6.854613879151197E-2   -9.556536241252403E-3   -3.433123803107999E-2   -1.036812335267307E-2   -3.411368969493526E-2    4.740082957089479E-1   -1.998670038724909E-1
 6.528998864075000E9     5.585680557695414E-1   -6.937917936520975E-2   -9.598064134684718E-3   -3.443024134062008E-2   -1.048789734132878E-2   -3.432525234067953E-2    4.735491760562880E-1   -2.008675094412455E-1
 6.529008851650000E9     5.585428408287512E-1   -7.027829016027295E-2   -9.889066856018579E-3   -3.447613756459079E-2   -1.057915909992647E-2   -3.450317083911009E-2    4.731219703394893E-1   -2.016074140430822E-1
 6.529018839225000E9     5.583785504567453E-1   -7.106465022088768E-2   -9.938433763560437E-3   -3.481720098292327E-2   -1.064932304059258E-2   -3.463627061615884E-2    4.726732377535559E-1   -2.026962530115446E-1
 6.529028826800000E9     5.582063472590428E-1   -7.199798345400288E-2   -9.986019588182744E-3   -3.486075980501931E-2   -1.075169776103617E-2   -3.480792016734916E-2    4.722864729957068E-1   -2.034961192243359E-1
 6.529038814375000E9     5.581908699015837E-1   -7.264932240457686E-2   -1.016055909455691E-2   -3.504770534647148E-2   -1.096375943130834E-2   -3.490372321733664E-2    4.718229818663531E-1   -2.043687283815800E-1
 6.529048801950000E9     5.580004138279124E-1   -7.361885778882302E-2   -1.015387648884007E-2   -3.523271687635159E-2   -1.108740374485868E-2   -3.517689067405480E-2    4.714404625997898E-1   -2.054281213473051E-1
 6.529058789525000E9     5.579924491839603E-1   -7.457748884628310E-2   -1.035612810100099E-2   -3.543103363427535E-2   -1.126183815199063E-2   -3.532470224081484E-2    4.709713582343340E-1   -2.062808592553260E-1
 6.529068777100000E9     5.577529587764141E-1   -7.519362127073954E-2   -1.061357179546736E-2   -3.556000503002843E-2   -1.124415899993453E-2   -3.547349115729790E-2    4.704989682363728E-1   -2.070873317993649E-1
 6.529078764675000E9     5.576787502890959E-1   -7.596450030801224E-2   -1.063828913166039E-2   -3.576253517757297E-2   -1.152971291033264E-2   -3.553795046755739E-2    4.700184762896031E-1   -2.080471276719150E-1
 6.529088752250000E9     5.575032475620820E-1   -7.692604171158343E-2   -1.076012381509814E-2   -3.587928103981815E-2   -1.159254284927126E-2   -3.580543994335945E-2    4.696406398181020E-1   -2.090907924829696E-1
 6.529098739825000E9     5.573803805251890E-1   -7.772868945902023E-2   -1.088867820245475E-2   -3.624734064685976E-2   -1.172819016807579E-2   -3.600017719701463E-2    4.692273873464335E-1   -2.099249829635363E-1
 6.529108727400000E9     5.572148297218597E-1   -7.851767523647676E-2   -1.112941418154206E-2   -3.641684918498684E-2   -1.196993713515616E-2   -3.618000834690469E-2    4.688214510408458E-1   -2.108963117657771E-1
 6.529118714975000E9     5.571143953151713E-1   -7.939810085193214E-2   -1.121005032419609E-2   -3.642301983789201E-2   -1.206396553583714E-2   -3.632518494354330E-2    4.681609705828687E-1   -2.117100127164669E-1
 6.529128702550000E9     5.568162603062095E-1   -8.034874370746352E-2   -1.120146381612936E-2   -3.678883480169262E-2   -1.214450539976668E-2   -3.655651957872277E-2    4.678191305139718E-1   -2.128309927186148E-1
 6.529138690125000E9     5.568122976149935E-1   -8.111449869827538E-2   -1.145283594287273E-2   -3.689888038792802E-2   -1.234625590201265E-2   -3.680620085332566E-2    4.673240747246759E-1   -2.137982254456293E-1
 6.529148677700000E9     5.566652136619922E-1   -8.199215728031842E-2   -1.162384904279097E-2   -3.720597181893846E-2   -1.248687540978687E-2   -3.689361283019850E-2    4.668690343617468E-1   -2.146797514776129E-1
 6.529158665275000E9     5.564942884914739E-1   -8.276177839984004E-2   -1.174726440216051E-2   -3.736319855535763E-2   -1.261570441667156E-2   -3.721445723520270E-2    4.664228382987556E-1   -2.156016652060882E-1
 6.529168652850000E9     5.564646422992774E-1   -8.362494622095359E-2   -1.186753256225745E-2   -3.766920148216272E-2   -1.277201964690838E-2   -3.732088367435880E-2    4.657971567662718E-1   -2.163915306271295E-1
 6.529178640425000E9     5.562728625394778E-1   -8.446116542343376E-2   -1.194285287570333E-2   -3.786558039554830E-2   -1.293094758964273E-2   -3.754556972825593E-2    4.654033605328141E-1   -2.173624961460002E-1
 6.529188628000000E9     5.560091069361611E-1   -8.539141796427548E-2   -1.212728381145230E-2   -3.803750452763899E-2   -1.305890970715499E-2   -3.778442633871235E-2    4.649812484584980E-1   -2.184382262067659E-1
 6.529198615575000E9     5.558931938937678E-1   -8.624036996975123E-2   -1.228412624623375E-2   -3.825482940398341E-2   -1.315954497807131E-2   -3.790591142001279E-2    4.645283167508311E-1   -2.193719905172768E-1
 6.529208603150000E9     5.558399386655015E-1   -8.705710102626418E-2   -1.248677957161814E-2   -3.839714991559749E-2   -1.343004753089053E-2   -3.819456431761969E-2    4.638297960279169E-1   -2.202258130718149E-1
 6.529218590725000E9     5.556858955929382E-1   -8.793025459046129E-2   -1.272244594363682E-2   -3.853211947706583E-2   -1.354120621778706E-2   -3.841429366916080E-2    4.633770501315425E-1   -2.212745759280072E-1
 6.529228578300000E9     5.555285550533199E-1   -8.870939336172028E-2   -1.275020037652825E-2   -3.878280661056994E-2   -1.379731683287167E-2   -3.860008120583258E-2    4.628760337614788E-1   -2.221732369015467E-1
 6.529238565875000E9     5.553503268932729E-1   -8.954719560439195E-2   -1.295109925601346E-2   -3.905277192036293E-2   -1.384004153468160E-2   -3.876582152441070E-2    4.623861201318991E-1   -2.231291940255248E-1
 6.529248553450000E9     5.551672657695647E-1   -9.044514064951356E-2   -1.309006390700378E-2   -3.927387176823645E-2   -1.401653409758735E-2   -3.899320366604180E-2    4.618291175937292E-1   -2.242059890271119E-1
 6.529258541025000E9     5.550141970682752E-1   -9.130842104389754E-2   -1.320713986388862E-2   -3.934248881859337E-2   -1.423188398914153E-2   -3.915193252640573E-2    4.612343284597671E-1   -2.249988690016030E-1
 6.529268528600000E9     5.548767234532470E-1   -9.207860423529568E-2   -1.349691606314267E-2   -3.961621865938704E-2   -1.429698492355595E-2   -3.941012994649197E-2    4.607919952228441E-1   -2.261170782660691E-1
 6.529278516175000E9     5.547456762621263E-1   -9.303517263212784E-2   -1.363435562820500E-2   -3.989879013461499E-2   -1.451081185922320E-2   -3.957086110761489E-2    4.602288520039404E-1   -2.269611380866335E-1
 6.529288503750000E9     5.545311164577608E-1   -9.381738961421289E-2   -1.370419301114806E-2   -4.004923402582906E-2   -1.472084218299959E-2   -3.982968611061521E-2    4.597202768743459E-1   -2.280004875840128E-1
 6.529298491325000E9     5.543581437906069E-1   -9.474747042763577E-2   -1.390188276726830E-2   -4.027814580621630E-2   -1.488914123377377E-2   -4.018565700315940E-2    4.590179824152192E-1   -2.289542927173191E-1
 6.529308478900000E9     5.540855276864586E-1   -9.566477272691194E-2   -1.420622830447671E-2   -4.029242107620123E-2   -1.514457774879460E-2   -4.029202010452284E-2    4.585132230106595E-1   -2.298241409204998E-1
 6.529318466475000E9     5.541125082845015E-1   -9.648973573594731E-2   -1.429877439834793E-2   -4.077751871716931E-2   -1.525943883702871E-2   -4.053061570841943E-2    4.579490122027005E-1   -2.311193916283671E-1
 6.529328454050000E9     5.539062577174141E-1   -9.722686587706195E-2   -1.448002907119836E-2   -4.107613999688397E-2   -1.554291374002290E-2   -4.074646159937097E-2    4.574074010417617E-1   -2.320310290128467E-1
 6.529338441625000E9     5.536742478665574E-1   -9.817675401747328E-2   -1.467669083908526E-2   -4.126387163861490E-2   -1.562917297791379E-2   -4.109587073152240E-2    4.566471681448996E-1   -2.330756173033935E-1
 6.529348429200000E9     5.534082349586478E-1   -9.899929266331263E-2   -1.488106000794200E-2   -4.155244556191517E-2   -1.594886273994292E-2   -4.133006706452507E-2    4.562052552836375E-1   -2.342064112456610E-1
 6.529358416775000E9     5.533062900693393E-1   -9.988474402315702E-2   -1.505819757890160E-2   -4.188678018784658E-2   -1.611938107905106E-2   -4.150141249446020E-2    4.555962385137336E-1   -2.349530146414356E-1
 6.529368404350000E9     5.531812145258136E-1   -1.009055960569056E-1   -1.523920795431347E-2   -4.214508457248965E-2   -1.617555888123517E-2   -4.177384834320003E-2    4.549636190876725E-1   -2.359548173484097E-1
 6.529378391925000E9     5.529153871313482E-1   -1.016364154697829E-1   -1.552377372110448E-2   -4.225999985588163E-2   -1.650764396474815E-2   -4.208924190476408E-2    4.544463185657114E-1   -2.369724546676981E-1
 6.529388379500000E9     5.527522717978438E-1   -1.026273300918417E-1   -1.577528053089058E-2   -4.264811129579880E-2   -1.682245090733490E-2   -4.227651549407592E-2    4.536558283707754E-1   -2.380555539904153E-1
 6.529398367075000E9     5.524915506308562E-1   -1.033780109398578E-1   -1.581025804492153E-2   -4.278683115165465E-2   -1.692981568972769E-2   -4.252834019526081E-2    4.531591702225262E-1   -2.391102813430900E-1
 6.529408354650000E9     5.524201600827231E-1   -1.043994457531526E-1   -1.598093471708370E-2   -4.316246117877096E-2   -1.706278664978836E-2   -4.282401780632356E-2    4.524602593977650E-1   -2.401086220628873E-1
 6.529418342225000E9     5.521881771834501E-1   -1.052153445415748E-1   -1.643291918717233E-2   -4.325833091872758E-2   -1.737889081049666E-2   -4.298332162675561E-2    4.519247121771686E-1   -2.412766670171525E-1
 6.529428329800000E9     5.518550730327585E-1   -1.062166092405471E-1   -1.661833673662579E-2   -4.364943967586642E-2   -1.756223448494585E-2   -4.334527718747936E-2    4.511661515172287E-1   -2.420920694778326E-1
 6.529438317375000E9     5.516022181896382E-1   -1.069613620644521E-1   -1.665849585891098E-2   -4.390697379855619E-2   -1.772231901623620E-2   -4.359750584917457E-2    4.504570077669450E-1   -2.431599535721567E-1
 6.529448304950000E9     5.515594483098989E-1   -1.078370837864435E-1   -1.697139223906528E-2   -4.416577648565960E-2   -1.810388060590822E-2   -4.382179693648576E-2    4.498109686485605E-1   -2.443210666450713E-1
 6.529458292525000E9     5.511730338225724E-1   -1.087727691816052E-1   -1.715009916367401E-2   -4.453812835324406E-2   -1.822436020106260E-2   -4.406004496671951E-2    4.492421290722298E-1   -2.451875227587234E-1
 6.529468280100000E9     5.510620489918457E-1   -1.096691004463321E-1   -1.745787641379544E-2   -4.467172313116339E-2   -1.846989042770022E-2   -4.436983138418987E-2    4.485476709864237E-1   -2.464474846674893E-1
 6.529478267675000E9     5.510172816108456E-1   -1.106681055590126E-1   -1.759934629220943E-2   -4.490281594075212E-2   -1.874140018458595E-2   -4.462790025695049E-2    4.479166528585631E-1   -2.475449270348438E-1
 6.529488255250000E9     5.505963658680583E-1   -1.115352073765073E-1   -1.793002714008366E-2   -4.530408267288314E-2   -1.896650446894260E-2   -4.495652563020314E-2    4.472382046143124E-1   -2.485571097572217E-1
 6.529498242825000E9     5.503794183580650E-1   -1.124331533304180E-1   -1.795177795458754E-2   -4.565613395204599E-2   -1.922923091501763E-2   -4.534140610232448E-2    4.466275529296232E-1   -2.496347031353932E-1
 6.529508230400000E9     5.502023517212836E-1   -1.132854614170620E-1   -1.839875768361732E-2   -4.594487503681265E-2   -1.950728901417561E-2   -4.552499279864554E-2    4.458521336589205E-1   -2.508436875277304E-1
 6.529518217975000E9     5.499283184051171E-1   -1.141088535118439E-1   -1.856462865941323E-2   -4.630176092764759E-2   -1.971967529608499E-2   -4.585881306713246E-2    4.450227142413106E-1   -2.518705363535074E-1
 6.529528205550000E9     5.497142579216062E-1   -1.150547396875375E-1   -1.871598299082190E-2   -4.647830786888424E-2   -2.007087922855894E-2   -4.610261534204672E-2    4.442919330673016E-1   -2.531081876678560E-1
 6.529538193125000E9     5.495027175376794E-1   -1.160619037612560E-1   -1.913767958083618E-2   -4.689003845454536E-2   -2.030241351437546E-2   -4.654764245853962E-2    4.436427016740119E-1   -2.540976497185267E-1
 6.529548180700000E9     5.492345563316389E-1   -1.169068343536351E-1   -1.923575777222444E-2   -4.710155864043413E-2   -2.053769240450221E-2   -4.690834447353923E-2    4.426342145458497E-1   -2.552408352314534E-1
 6.529558168275000E9     5.489870488164146E-1   -1.179317705856563E-1   -1.973595360815723E-2   -4.743072314958389E-2   -2.079065694260269E-2   -4.703878316569322E-2    4.419690584118603E-1   -2.563286118796655E-1
 6.529568155850000E9     5.487572626048123E-1   -1.188490215506713E-1   -2.003470355163007E-2   -4.772873784332930E-2   -2.108770011080595E-2   -4.731285925707153E-2    4.412307695128644E-1   -2.574200155607090E-1
 6.529578143425000E9     5.485065778890789E-1   -1.197469795564189E-1   -2.028471943211775E-2   -4.806035336781345E-2   -2.130555605576775E-2   -4.778933279507720E-2    4.404378829303578E-1   -2.585959755292819E-1
 6.529588131000000E9     5.482199429136904E-1   -1.206930437583036E-1   -2.043167210941476E-2   -4.844893925132452E-2   -2.163390561224391E-2   -4.799662873226209E-2    4.397104822709769E-1   -2.596164310066342E-1
 6.529598118575000E9     5.479450918327452E-1   -1.215511836926548E-1   -2.081927220620431E-2   -4.869601854480213E-2   -2.203177475684884E-2   -4.829065585535953E-2    4.388406681383257E-1   -2.608277065673422E-1
 6.529608106150000E9     5.477704775081332E-1   -1.225677200253979E-1   -2.090574487165464E-2   -4.906051047951258E-2   -2.229533408869917E-2   -4.868012537932466E-2    4.379634508866740E-1   -2.620269112390612E-1
 6.529618093725000E9     5.473680482444956E-1   -1.233509175339578E-1   -2.132772315953237E-2   -4.959121557818977E-2   -2.260260962523638E-2   -4.901910373739771E-2    4.372443027203120E-1   -2.631242319852935E-1
 6.529628081300000E9     5.470642767400563E-1   -1.244175113183616E-1   -2.164105238354792E-2   -4.970731543253092E-2   -2.298315352418546E-2   -4.942389603085430E-2    4.362560832333091E-1   -2.643313461067606E-1
 6.529638068875000E9     5.467884674847225E-1   -1.253478743870826E-1   -2.216067159360135E-2   -5.020766735828969E-2   -2.331248358500232E-2   -4.969131534319427E-2    4.355277711015412E-1   -2.654234114405281E-1
 6.529648056450000E9     5.464851640806357E-1   -1.263867970710854E-1   -2.239963541036563E-2   -5.047024743246940E-2   -2.356319144236313E-2   -5.010687421123956E-2    4.346129345661038E-1   -2.665221370867108E-1
 6.529658044025000E9     5.463733362849380E-1   -1.272727823601358E-1   -2.274446047017807E-2   -5.081902924817481E-2   -2.399970270353034E-2   -5.040788332839339E-2    4.337576427906749E-1   -2.678333430095918E-1
 6.529668031600000E9     5.458601577567427E-1   -1.281037384406551E-1   -2.299335255119670E-2   -5.125421250096853E-2   -2.423746435067205E-2   -5.079487380721324E-2    4.329278597540208E-1   -2.688664455743260E-1
 6.529678019175000E9     5.456720429538385E-1   -1.290835913914302E-1   -2.329590763066249E-2   -5.169001858275988E-2   -2.470628500115353E-2   -5.111159542678159E-2    4.318890829848993E-1   -2.701780994142978E-1
 6.529688006750000E9     5.453811436385085E-1   -1.300728267139308E-1   -2.377410206782217E-2   -5.218184603648562E-2   -2.505837949952783E-2   -5.152101302122108E-2    4.310420783983175E-1   -2.713531307045259E-1
