#  HZ   S   RI   R     50.00 
! Rohde & Schwarz Vector Network Analyzer 
! Rohde-Schwarz,ZNB20-2Port,1311601062101988,3.16
! Created: UTC 3/21/2024, 12:56:59 AM
! freq[Hz]                re:S11                  im:S11                  re:S21                  im:S21                  re:S12                  im:S12                  re:S22                  im:S22
 6.528786797000000E9     5.605742746523573E-1   -5.206382367264445E-2   -7.548326050240525E-3   -3.119069556240926E-2   -8.198682675270163E-3   -3.106665773466714E-2    4.814464521744367E-1   -1.820916270203414E-1
 6.528796808900000E9     5.604084762506867E-1   -5.287883214178694E-2   -7.599628318179323E-3   -3.130208932531215E-2   -8.390951663238307E-3   -3.117924088504553E-2    4.811739837645686E-1   -1.829913702930065E-1
 6.528806820800000E9     5.603806216721809E-1   -5.377310965658436E-2   -7.704114802166809E-3   -3.141686693776477E-2   -8.337189853979677E-3   -3.128669865039668E-2    4.808695146438811E-1   -1.840093393163845E-1
 6.528816832700000E9     5.603850037359962E-1   -5.448184924267989E-2   -7.650830837371132E-3   -3.160709712748275E-2   -8.447395091187521E-3   -3.131388928765343E-2    4.807076137204793E-1   -1.847001016377116E-1
 6.528826844600000E9     5.602134550915062E-1   -5.537781711817986E-2   -7.945468152947617E-3   -3.159232809534921E-2   -8.636944242593900E-3   -3.157886536442524E-2    4.801437562016250E-1   -1.856134577920894E-1
 6.528836856500000E9     5.602383613034750E-1   -5.618217557967510E-2   -8.023313606023222E-3   -3.194867058155467E-2   -8.686196680764332E-3   -3.170442579149672E-2    4.797773520958928E-1   -1.864909328089807E-1
 6.528846868400000E9     5.599777990582543E-1   -5.696503725861085E-2   -8.056671864563866E-3   -3.196428049553157E-2   -8.706581786883603E-3   -3.182076357388534E-2    4.794228336860922E-1   -1.873187788582915E-1
 6.528856880300000E9     5.600436084929453E-1   -5.773209352127134E-2   -8.245519883976017E-3   -3.203718246800336E-2   -8.856696337726996E-3   -3.201453306870998E-2    4.791245731783773E-1   -1.881223155228011E-1
 6.528866892200000E9     5.598808934895928E-1   -5.864802257479949E-2   -8.365451864586726E-3   -3.230681807474456E-2   -9.000553507102410E-3   -3.221545515389863E-2    4.787236813077334E-1   -1.890619745476711E-1
 6.528876904100000E9     5.598409618807889E-1   -5.941387740770251E-2   -8.331113411250063E-3   -3.257715229030514E-2   -9.109707654372719E-3   -3.240202919770530E-2    4.783325441916277E-1   -1.898853934793789E-1
 6.528886916000000E9     5.597194415178158E-1   -6.026998137389974E-2   -8.460277095798750E-3   -3.264052605757015E-2   -9.144066527787691E-3   -3.253621902288710E-2    4.778511200047925E-1   -1.909580506970123E-1
 6.528896927900000E9     5.596636117126459E-1   -6.108515862956146E-2   -8.365119551380296E-3   -3.281286680917269E-2   -9.307596235113520E-3   -3.262818140411584E-2    4.775062166354451E-1   -1.916997112692747E-1
 6.528906939800000E9     5.594499251683501E-1   -6.189486660849148E-2   -8.702190687443229E-3   -3.289025354868701E-2   -9.383693761813736E-3   -3.272248053885604E-2    4.771698279988009E-1   -1.925732747497578E-1
 6.528916951700000E9     5.594481904180266E-1   -6.268458200864935E-2   -8.690819153614790E-3   -3.300149545063372E-2   -9.445586113081722E-3   -3.292035293897760E-2    4.769129543752839E-1   -1.933839880441580E-1
 6.528926963600000E9     5.593192108998952E-1   -6.342801559573223E-2   -8.840965247143605E-3   -3.313675407802718E-2   -9.600522655291426E-3   -3.309089168744846E-2    4.762175426942153E-1   -1.941897713967113E-1
 6.528936975500000E9     5.591232109476507E-1   -6.428555994325204E-2   -8.995212614842102E-3   -3.346639084404166E-2   -9.724593917831363E-3   -3.319103700467427E-2    4.760856379280491E-1   -1.949497629818957E-1
 6.528946987400000E9     5.590364639666190E-1   -6.506349305969662E-2   -9.094358363026913E-3   -3.358235269007092E-2   -9.806745934348732E-3   -3.342398363893950E-2    4.756344143060896E-1   -1.961133459235649E-1
 6.528956999300000E9     5.589223662025328E-1   -6.590315218576223E-2   -9.110695641348648E-3   -3.377477207501881E-2   -9.908465440189959E-3   -3.355703040080353E-2    4.753119102407443E-1   -1.969750080097442E-1
 6.528967011200000E9     5.589299198488045E-1   -6.663348119375580E-2   -9.363351622026716E-3   -3.368570300780284E-2   -1.006373166170985E-2   -3.365874921884253E-2    4.747981944345029E-1   -1.978223665418330E-1
 6.528977023100000E9     5.588139206489343E-1   -6.762402645336389E-2   -9.324844861692718E-3   -3.404223455610429E-2   -1.020464309515838E-2   -3.377515272037232E-2    4.744452887354162E-1   -1.988501330998300E-1
 6.528987035000000E9     5.586848035622889E-1   -6.846447538643759E-2   -9.524987902244042E-3   -3.415862680942208E-2   -1.029667062310343E-2   -3.401318515719718E-2    4.741364201380130E-1   -1.995537735480885E-1
 6.528997046900000E9     5.585041500509726E-1   -6.927532095291519E-2   -9.600899824469909E-3   -3.440203208806793E-2   -1.036701601110045E-2   -3.417057274449006E-2    4.736195462574101E-1   -2.006513652180748E-1
 6.529007058800000E9     5.584160944894090E-1   -7.018243368701366E-2   -9.731698767218156E-3   -3.447511136962714E-2   -1.052275943263238E-2   -3.433668404248923E-2    4.731451756526682E-1   -2.014963391574126E-1
 6.529017070700000E9     5.583561149949773E-1   -7.100691500283783E-2   -9.925285505294184E-3   -3.472691193585069E-2   -1.060937066492549E-2   -3.447733203725598E-2    4.727348106413697E-1   -2.023708154173873E-1
 6.529027082600000E9     5.581075264927771E-1   -7.176684435459614E-2   -9.943579116721142E-3   -3.478787519751955E-2   -1.085829288495695E-2   -3.469000418222060E-2    4.723254373901801E-1   -2.033481501848885E-1
 6.529037094500000E9     5.581569049018276E-1   -7.260580913403421E-2   -1.016720348988082E-2   -3.510677093998149E-2   -1.086545006629591E-2   -3.482149055409836E-2    4.718199932046433E-1   -2.039045454117647E-1
 6.529047106400000E9     5.580633994512565E-1   -7.341555450057322E-2   -1.032184945218487E-2   -3.515617938168878E-2   -1.107379817448087E-2   -3.507179291387667E-2    4.714414750380143E-1   -2.049679965178315E-1
 6.529057118300000E9     5.578137442953790E-1   -7.425461007321339E-2   -1.044832955650182E-2   -3.527153813353861E-2   -1.114632900881352E-2   -3.515997861464090E-2    4.710347483657266E-1   -2.058417802658750E-1
 6.529067130200000E9     5.576244551393136E-1   -7.517248120747312E-2   -1.047907751415381E-2   -3.558394298712881E-2   -1.126154938366920E-2   -3.546374373720514E-2    4.706140628969965E-1   -2.069013744562873E-1
 6.529077142100000E9     5.576188028859926E-1   -7.585168220547658E-2   -1.060853394574546E-2   -3.564423790684153E-2   -1.142593294456055E-2   -3.553982773159410E-2    4.701588574631569E-1   -2.078238434849077E-1
 6.529087154000000E9     5.574011285720476E-1   -7.673851066113757E-2   -1.070829162482697E-2   -3.585220704214056E-2   -1.158897225301282E-2   -3.572539656759040E-2    4.697274591472780E-1   -2.084800244294144E-1
 6.529097165900000E9     5.573190821005013E-1   -7.760804517403415E-2   -1.083365945430378E-2   -3.617887204610799E-2   -1.175002252950812E-2   -3.585182985157729E-2    4.692674890397859E-1   -2.096343781164000E-1
 6.529107177800000E9     5.572734082714379E-1   -7.837942157565279E-2   -1.097092095781625E-2   -3.629486794729694E-2   -1.181755190690626E-2   -3.611976212389129E-2    4.687438374871287E-1   -2.105475403415660E-1
 6.529117189700000E9     5.570526694245854E-1   -7.935366379795415E-2   -1.105675496197991E-2   -3.647298857953184E-2   -1.203273140278842E-2   -3.625660489722139E-2    4.684160646938339E-1   -2.114102639042199E-1
 6.529127201600000E9     5.568958760796808E-1   -8.010702031504269E-2   -1.114261007592950E-2   -3.658367559855358E-2   -1.214669602473233E-2   -3.650618090930319E-2    4.677761464658183E-1   -2.123573984725515E-1
 6.529137213500000E9     5.567950471874358E-1   -8.096027068126740E-2   -1.146447869547914E-2   -3.694232962978849E-2   -1.213406528918686E-2   -3.668740463158378E-2    4.675774685853259E-1   -2.132731931171495E-1
 6.529147225400000E9     5.566817967522250E-1   -8.179684897645248E-2   -1.166648736134933E-2   -3.707188122460017E-2   -1.239948924200777E-2   -3.677660273754786E-2    4.669466262289254E-1   -2.141571189563246E-1
 6.529157237300000E9     5.565009591050490E-1   -8.266028766972351E-2   -1.173781449058660E-2   -3.723013016191425E-2   -1.255342436578320E-2   -3.699509475810036E-2    4.664651730586900E-1   -2.152097524806650E-1
 6.529167249200000E9     5.564751661057441E-1   -8.350689362702091E-2   -1.170751848009815E-2   -3.741323356252940E-2   -1.271508904715638E-2   -3.727378013728509E-2    4.660182668360912E-1   -2.160806790805455E-1
 6.529177261100000E9     5.561583075361608E-1   -8.421876680491051E-2   -1.201975534831756E-2   -3.762653906209410E-2   -1.280927437103114E-2   -3.734765157698691E-2    4.654467484310366E-1   -2.170460412595462E-1
 6.529187273000000E9     5.560594161763464E-1   -8.517668844509994E-2   -1.223339211332687E-2   -3.790741188237207E-2   -1.301552132877055E-2   -3.757894994648624E-2    4.650825487983024E-1   -2.179465893483969E-1
 6.529197284900000E9     5.559344136081406E-1   -8.606132980702519E-2   -1.228797438758336E-2   -3.807351013269957E-2   -1.321393590316717E-2   -3.787077837101642E-2    4.645326243298509E-1   -2.189000729866249E-1
 6.529207296800000E9     5.558252872716385E-1   -8.685143602967142E-2   -1.255418087986409E-2   -3.824548452224198E-2   -1.329755556151094E-2   -3.802639501231855E-2    4.639709008717270E-1   -2.197228976681475E-1
 6.529217308700000E9     5.555856791923006E-1   -8.761875984486506E-2   -1.262195563099444E-2   -3.854669062503410E-2   -1.358480416449100E-2   -3.824379889263920E-2    4.633732558275513E-1   -2.208865119578227E-1
 6.529227320600000E9     5.554629377166668E-1   -8.856533180306603E-2   -1.273690714407725E-2   -3.867659671126795E-2   -1.366506218439761E-2   -3.852632980019113E-2    4.629643058605616E-1   -2.217787046198072E-1
 6.529237332500000E9     5.554386768742914E-1   -8.946656193608903E-2   -1.293572301214667E-2   -3.890568171213823E-2   -1.382382606009914E-2   -3.869056724354046E-2    4.623301367055596E-1   -2.228263134553567E-1
 6.529247344400000E9     5.551621818490147E-1   -9.027299935904366E-2   -1.324748012524929E-2   -3.910634105278266E-2   -1.403401258683964E-2   -3.883945284391175E-2    4.619872784880886E-1   -2.238756788818532E-1
 6.529257356300000E9     5.549876442100686E-1   -9.126017731967115E-2   -1.327324024152296E-2   -3.940485088598495E-2   -1.420987203536681E-2   -3.914193833109254E-2    4.613811700587781E-1   -2.246216805417416E-1
 6.529267368200000E9     5.547875138633181E-1   -9.210201797971879E-2   -1.343669294410270E-2   -3.964221254836475E-2   -1.428844598954011E-2   -3.934217499976705E-2    4.608057085681364E-1   -2.257318883626057E-1
 6.529277380100000E9     5.547042373578233E-1   -9.283220050617072E-2   -1.357738959473726E-2   -3.978075370867312E-2   -1.450116465007448E-2   -3.952678864677713E-2    4.603963471363177E-1   -2.265771682266101E-1
 6.529287392000000E9     5.546759178191847E-1   -9.368595489484625E-2   -1.373669774394114E-2   -4.008022418184654E-2   -1.469001930035257E-2   -3.971927717267340E-2    4.596900128644479E-1   -2.276199113231296E-1
 6.529297403900000E9     5.543287912428715E-1   -9.451111146110983E-2   -1.386220125539870E-2   -4.030174403161944E-2   -1.480923612417130E-2   -4.004633815299308E-2    4.590738168649797E-1   -2.286876850321564E-1
 6.529307415800000E9     5.541513945410885E-1   -9.528327834928545E-2   -1.417268120594424E-2   -4.058892131814665E-2   -1.511445939762076E-2   -4.025544939083910E-2    4.586224956783471E-1   -2.296365013413364E-1
 6.529317427700000E9     5.540929348404365E-1   -9.637110365611579E-2   -1.439747775914066E-2   -4.072942333695085E-2   -1.515696939342801E-2   -4.042550138919169E-2    4.580333047283693E-1   -2.306328088898026E-1
 6.529327439600000E9     5.537950560503022E-1   -9.713593762505059E-2   -1.430840928220469E-2   -4.078750317301406E-2   -1.545537256806185E-2   -4.066083183579191E-2    4.574493392786714E-1   -2.316172943816605E-1
 6.529337451500000E9     5.535894323151256E-1   -9.799682937279025E-2   -1.472006441401938E-2   -4.114691872898764E-2   -1.560103370000624E-2   -4.088144788466190E-2    4.569346050553721E-1   -2.325465450622251E-1
 6.529347463400000E9     5.534368759931224E-1   -9.893606687341901E-2   -1.491356167515394E-2   -4.145679126431883E-2   -1.592146537514495E-2   -4.124548426927895E-2    4.563855660658139E-1   -2.337201436868867E-1
 6.529357475300000E9     5.532091692138309E-1   -9.987571316588569E-2   -1.498754172011220E-2   -4.173206549057518E-2   -1.589533223321735E-2   -4.140364269974130E-2    4.557397247561322E-1   -2.345622561802246E-1
 6.529367487200000E9     5.530549430387589E-1   -1.006709263794083E-1   -1.522569176115196E-2   -4.197250714356320E-2   -1.632913053118443E-2   -4.161495233020004E-2    4.551520653491124E-1   -2.357090404762180E-1
 6.529377499100000E9     5.528532244230741E-1   -1.015978476356082E-1   -1.537170295595545E-2   -4.224027287632130E-2   -1.647162209158438E-2   -4.205625924667723E-2    4.545558707181464E-1   -2.366519989244859E-1
 6.529387511000000E9     5.526491842641620E-1   -1.024159526640876E-1   -1.564790071293954E-2   -4.245530265114833E-2   -1.661930297643309E-2   -4.218639365775218E-2    4.539162627739335E-1   -2.378936051525039E-1
 6.529397522900000E9     5.524276984027666E-1   -1.033735445806457E-1   -1.584741970002487E-2   -4.265219502337710E-2   -1.677207891722041E-2   -4.230802242148385E-2    4.531856147564680E-1   -2.387814322968282E-1
 6.529407534800000E9     5.523283696521529E-1   -1.042232737668419E-1   -1.611477787046709E-2   -4.305934293926428E-2   -1.708302050463729E-2   -4.264349471479498E-2    4.525435852412483E-1   -2.398011936997264E-1
 6.529417546700000E9     5.520216562616379E-1   -1.051078403834993E-1   -1.632118711118622E-2   -4.326403424669963E-2   -1.732609334081846E-2   -4.292449419933853E-2    4.520563484979276E-1   -2.408628532290273E-1
 6.529427558600000E9     5.518879216613422E-1   -1.059984392473034E-1   -1.639201153755885E-2   -4.364580749000627E-2   -1.748728433657074E-2   -4.320654883310669E-2    4.513581068554455E-1   -2.418073123772382E-1
 6.529437570500000E9     5.517079721416772E-1   -1.067854324341093E-1   -1.653854994743657E-2   -4.370654740275749E-2   -1.772060945591690E-2   -4.337544209656301E-2    4.508154375690399E-1   -2.428336010719077E-1
 6.529447582400000E9     5.515272343914766E-1   -1.076947332181257E-1   -1.693688042335794E-2   -4.415632627202060E-2   -1.789996188902733E-2   -4.373326365019305E-2    4.499621683927655E-1   -2.439121108453922E-1
 6.529457594300000E9     5.513315320353194E-1   -1.087240915019693E-1   -1.721526204440481E-2   -4.435170194042720E-2   -1.819061237005087E-2   -4.403780169916462E-2    4.492963446643653E-1   -2.450166636627828E-1
 6.529467606200000E9     5.510084820564229E-1   -1.095449456293202E-1   -1.726075510159888E-2   -4.448620804425669E-2   -1.853684615782591E-2   -4.433649112703114E-2    4.486979794402090E-1   -2.461168189940008E-1
 6.529477618100000E9     5.507985841952866E-1   -1.103607357172051E-1   -1.760386252251123E-2   -4.493180317441860E-2   -1.869943175969085E-2   -4.455326002904311E-2    4.479199190398674E-1   -2.472017342010442E-1
 6.529487630000000E9     5.506436020956796E-1   -1.113528106999866E-1   -1.775330045538579E-2   -4.523288829600684E-2   -1.892696247465061E-2   -4.496074454713914E-2    4.473216191324157E-1   -2.482480479787540E-1
 6.529497641900000E9     5.502719680584546E-1   -1.123732855533342E-1   -1.805597559949445E-2   -4.560735246263898E-2   -1.919406550415121E-2   -4.508591036870380E-2    4.464566039362999E-1   -2.493063740554257E-1
 6.529507653800000E9     5.500512167971928E-1   -1.132206175161242E-1   -1.827910162652900E-2   -4.573139298419247E-2   -1.936659465278245E-2   -4.546793465591402E-2    4.456765554454933E-1   -2.505175009492056E-1
 6.529517665700000E9     5.498559062710667E-1   -1.140370104955152E-1   -1.849666725939810E-2   -4.622673057049706E-2   -1.970555102107778E-2   -4.571138275274390E-2    4.451055201898448E-1   -2.514992137752137E-1
 6.529527677600000E9     5.495595754417173E-1   -1.149817575747802E-1   -1.880782448980994E-2   -4.629458075909378E-2   -1.992715639536221E-2   -4.601532636792603E-2    4.444197033608651E-1   -2.526598166229446E-1
 6.529537689500000E9     5.493692119352672E-1   -1.159905181031335E-1   -1.915456899935797E-2   -4.674517803345553E-2   -2.024672895516080E-2   -4.629186501291331E-2    4.437743005115484E-1   -2.537689518747238E-1
 6.529547701400000E9     5.492173728246571E-1   -1.168483334145576E-1   -1.940353092912020E-2   -4.716143119705666E-2   -2.051016445200701E-2   -4.664868925586264E-2    4.429174503438605E-1   -2.547225607061570E-1
 6.529557713300000E9     5.488326799515623E-1   -1.178203395887233E-1   -1.957192293491268E-2   -4.723119089855787E-2   -2.085027767452480E-2   -4.697432461253982E-2    4.420561380202055E-1   -2.560500210374764E-1
 6.529567725200000E9     5.487706073767793E-1   -1.186465441311168E-1   -1.984846173682949E-2   -4.765226331602653E-2   -2.103243685557735E-2   -4.737178788230423E-2    4.413235720522580E-1   -2.570460015557011E-1
 6.529577737100000E9     5.484259173824694E-1   -1.197006863386809E-1   -2.021087045393318E-2   -4.799860472953494E-2   -2.133679483853522E-2   -4.759373541460166E-2    4.405800122390508E-1   -2.581320475946099E-1
 6.529587749000000E9     5.481919165904462E-1   -1.204934033038504E-1   -2.043831853322626E-2   -4.840112014103438E-2   -2.168573718948003E-2   -4.785268140361797E-2    4.397631181968141E-1   -2.593620265634624E-1
 6.529597760900000E9     5.479735014224791E-1   -1.214775154022802E-1   -2.062164544875802E-2   -4.870674350513333E-2   -2.195132028169373E-2   -4.817797649149322E-2    4.390852725769284E-1   -2.603820389318545E-1
 6.529607772800000E9     5.476445162996298E-1   -1.224039802404871E-1   -2.118122025648581E-2   -4.899737377247371E-2   -2.230317100690099E-2   -4.855247868351027E-2    4.380922775229533E-1   -2.617015118024927E-1
 6.529617784700000E9     5.474212730785564E-1   -1.233900292101630E-1   -2.134143344343204E-2   -4.932929269300115E-2   -2.263363522658127E-2   -4.888798212422661E-2    4.373536863804149E-1   -2.627773311909939E-1
 6.529627796600000E9     5.471249264388290E-1   -1.243263590999491E-1   -2.155475486144785E-2   -4.979126255612464E-2   -2.293275310970726E-2   -4.925685728980882E-2    4.364225348163212E-1   -2.639216044946830E-1
 6.529637808500000E9     5.468868311883698E-1   -1.251715065393954E-1   -2.192028392529552E-2   -5.016987150590344E-2   -2.314986600112574E-2   -4.955936515604573E-2    4.357231178184143E-1   -2.651976574836946E-1
 6.529647820400000E9     5.465638543404066E-1   -1.261244260340306E-1   -2.222844647103477E-2   -5.047362742217271E-2   -2.350285782029392E-2   -4.998239742719546E-2    4.346643969062193E-1   -2.662312369335494E-1
 6.529657832300000E9     5.462097610473452E-1   -1.271521254871650E-1   -2.253846636806863E-2   -5.083676816909983E-2   -2.388423809953372E-2   -5.034602215834452E-2    4.338747027180195E-1   -2.673992221647424E-1
 6.529667844200000E9     5.458890503452667E-1   -1.280988509512304E-1   -2.294543866620510E-2   -5.121441063931348E-2   -2.414669556157149E-2   -5.068025779329298E-2    4.328554116512269E-1   -2.686098059293038E-1
 6.529677856100000E9     5.456776096420171E-1   -1.290698627258111E-1   -2.325361956813401E-2   -5.158719914383388E-2   -2.459410018844261E-2   -5.103106512097223E-2    4.321646500602168E-1   -2.698775390769468E-1
 6.529687868000000E9     5.452731055238685E-1   -1.299523552973568E-1   -2.359320118082051E-2   -5.191112078991813E-2   -2.502067040197353E-2   -5.135257668200495E-2    4.310040278902846E-1   -2.710995849838527E-1
