#  HZ   S   RI   R     50.00 
! Rohde & Schwarz Vector Network Analyzer 
! Rohde-Schwarz,ZNB20-2Port,1311601062101988,3.16
! Created: UTC 3/21/2024, 12:57:01 AM
! freq[Hz]                re:S11                  im:S11                  re:S21                  im:S21                  re:S12                  im:S12                  re:S22                  im:S22
 6.528790035000000E9     5.604394856364895E-1   -5.230006437389433E-2   -7.426121771445491E-3   -3.121482051870967E-2   -8.163715298041420E-3   -3.110202991810911E-2    4.815799057800561E-1   -1.824673302915431E-1
 6.528800034950000E9     5.604240907699123E-1   -5.320624833232361E-2   -7.643881098646999E-3   -3.141966508845852E-2   -8.336359181180244E-3   -3.119466289122095E-2    4.810782963500232E-1   -1.832796481604086E-1
 6.528810034900000E9     5.603685487659571E-1   -5.389631624074800E-2   -7.708109448235237E-3   -3.152943217291146E-2   -8.309616104690465E-3   -3.140704929720357E-2    4.806798478107152E-1   -1.840052342656413E-1
 6.528820034850000E9     5.603362146219824E-1   -5.475223734058586E-2   -7.767523178143018E-3   -3.171370572897232E-2   -8.495674175368822E-3   -3.144954898601809E-2    4.804187126631245E-1   -1.851099454722895E-1
 6.528830034800000E9     5.602408528281527E-1   -5.564018572922370E-2   -7.893395469370706E-3   -3.164516572917957E-2   -8.578836813270001E-3   -3.162348596123140E-2    4.799898762407573E-1   -1.858466542791886E-1
 6.528840034750000E9     5.600543661780656E-1   -5.642774593296995E-2   -8.134589956629778E-3   -3.186598202612752E-2   -8.672625534998937E-3   -3.178522719455025E-2    4.798452637834884E-1   -1.866895247095447E-1
 6.528850034700000E9     5.600689893635707E-1   -5.712510284378129E-2   -8.149285193788679E-3   -3.194317928559576E-2   -8.794060925366510E-3   -3.191286127012580E-2    4.792133034416919E-1   -1.876412729106230E-1
 6.528860034650000E9     5.599618911147161E-1   -5.796928096171019E-2   -8.109936486009377E-3   -3.215599921313931E-2   -8.859807380898031E-3   -3.196123006653875E-2    4.789960080713468E-1   -1.882175894729210E-1
 6.528870034600000E9     5.598531812214231E-1   -5.874648536414540E-2   -8.353514478044267E-3   -3.237349169521581E-2   -8.959116986933085E-3   -3.215241588437068E-2    4.783654886756115E-1   -1.892440001040543E-1
 6.528880034550000E9     5.597096545735223E-1   -5.965821762464436E-2   -8.346102462828714E-3   -3.233588301375245E-2   -9.117498819614905E-3   -3.223379691009830E-2    4.782510862250918E-1   -1.900648938640742E-1
 6.528890034500000E9     5.596591120062274E-1   -6.045388784049928E-2   -8.454224578469036E-3   -3.249982900433018E-2   -9.275080514604689E-3   -3.241655163952130E-2    4.777119962231123E-1   -1.909991265246238E-1
 6.528900034450000E9     5.594791989746897E-1   -6.129950497694046E-2   -8.588229036977143E-3   -3.271661128613966E-2   -9.320331034528695E-3   -3.258829079827490E-2    4.773863488885617E-1   -1.918816784288788E-1
 6.528910034400000E9     5.594295267440172E-1   -6.201448019249803E-2   -8.659989225358371E-3   -3.306591263282604E-2   -9.358957190855301E-3   -3.278441252093613E-2    4.771106828304268E-1   -1.928768214250360E-1
 6.528920034350000E9     5.593377788944703E-1   -6.291690603327821E-2   -8.832749091400549E-3   -3.312571847711728E-2   -9.542558425262086E-3   -3.297224259782746E-2    4.766103050420891E-1   -1.935726001295830E-1
 6.528930034300000E9     5.592023535330968E-1   -6.374345514938053E-2   -8.847373667624999E-3   -3.330107828116816E-2   -9.664246213072242E-3   -3.307400073776177E-2    4.763419076604835E-1   -1.945833670014608E-1
 6.528940034250000E9     5.591250137289930E-1   -6.448104362578450E-2   -8.980287192900300E-3   -3.337515820966130E-2   -9.720748690711404E-3   -3.322924899707767E-2    4.759003581985455E-1   -1.953376557488596E-1
 6.528950034200000E9     5.590717943292270E-1   -6.536650241592032E-2   -9.076196618768620E-3   -3.357220544000557E-2   -9.881538346192743E-3   -3.331713036434775E-2    4.756538874125833E-1   -1.962263710470395E-1
 6.528960034150000E9     5.589129225901991E-1   -6.620723403340022E-2   -9.184237474141608E-3   -3.376921100484289E-2   -9.910016154654713E-3   -3.355422413493375E-2    4.751221044424181E-1   -1.970680089714270E-1
 6.528970034100000E9     5.588339349824962E-1   -6.702641987724690E-2   -9.391131193321779E-3   -3.384776977274161E-2   -1.017312841187966E-2   -3.371007068827327E-2    4.747599707382808E-1   -1.980533166567994E-1
 6.528980034050000E9     5.587348648490510E-1   -6.774307085796462E-2   -9.362366079926446E-3   -3.412987963672517E-2   -1.016001444474656E-2   -3.381525338127007E-2    4.742814796998341E-1   -1.988242023381882E-1
 6.528990034000000E9     5.586380747494815E-1   -6.856200196544636E-2   -9.516269615854231E-3   -3.418020634163366E-2   -1.035822865558266E-2   -3.401903355289439E-2    4.739811893050031E-1   -1.996858379733776E-1
 6.529000033950000E9     5.584433413619256E-1   -6.943285102402830E-2   -9.611261149916818E-3   -3.426759409114812E-2   -1.042848200098780E-2   -3.429994195360372E-2    4.734909739931669E-1   -2.006914569267415E-1
 6.529010033900000E9     5.582769639023574E-1   -7.039283100043869E-2   -9.727014255890658E-3   -3.454743464374329E-2   -1.055902325159949E-2   -3.441914332696703E-2    4.731329906340000E-1   -2.016435354822168E-1
 6.529020033850000E9     5.582505898998150E-1   -7.104309865606157E-2   -1.013384382916840E-2   -3.465612592724495E-2   -1.066940036938331E-2   -3.454379125955681E-2    4.726079625898484E-1   -2.024915432310654E-1
 6.529030033800000E9     5.581664498201558E-1   -7.197820000485070E-2   -1.018559843141445E-2   -3.488970093915648E-2   -1.079903423131429E-2   -3.460948064006605E-2    4.722418565213332E-1   -2.033841257967713E-1
 6.529040033750000E9     5.580096693960473E-1   -7.273580476767354E-2   -1.003885122143426E-2   -3.499861550373952E-2   -1.096042149883701E-2   -3.487639086773651E-2    4.716678730507562E-1   -2.044551354071696E-1
 6.529050033700000E9     5.579426636198944E-1   -7.362694224048895E-2   -1.030313559432058E-2   -3.525855490394553E-2   -1.113977683768286E-2   -3.499892106055773E-2    4.712858117546609E-1   -2.051647525251925E-1
 6.529060033650000E9     5.578320602910584E-1   -7.442848844780028E-2   -1.041298677687101E-2   -3.537279380198823E-2   -1.116170601518695E-2   -3.523684211225809E-2    4.709643420298391E-1   -2.062233442270699E-1
 6.529070033600000E9     5.575930634100688E-1   -7.529628876659665E-2   -1.050354790543760E-2   -3.561781711655496E-2   -1.132304130216101E-2   -3.540352934001902E-2    4.703889671177542E-1   -2.071704601285295E-1
 6.529080033550000E9     5.575437471088484E-1   -7.614745844469159E-2   -1.060197601685483E-2   -3.586995988044053E-2   -1.141437575059579E-2   -3.547716570119461E-2    4.700093680470112E-1   -2.078356341863092E-1
 6.529090033500000E9     5.575309983184636E-1   -7.686825761762321E-2   -1.069067153269388E-2   -3.599628073375370E-2   -1.159196163273566E-2   -3.571743109049810E-2    4.695735322775378E-1   -2.088987890448840E-1
 6.529100033450000E9     5.571900913541096E-1   -7.775190783905714E-2   -1.080669024126233E-2   -3.607060817764440E-2   -1.184654259653193E-2   -3.591650956668840E-2    4.692091006733909E-1   -2.098252046370387E-1
 6.529110033400000E9     5.570923453223788E-1   -7.851857850201770E-2   -1.093283891819960E-2   -3.630452229615137E-2   -1.185460537513906E-2   -3.611461966733005E-2    4.686941116617634E-1   -2.106412488014154E-1
 6.529120033350000E9     5.569963113173172E-1   -7.945364576245079E-2   -1.114742322486111E-2   -3.656999681585479E-2   -1.202467233035035E-2   -3.635198020398572E-2    4.683990593410274E-1   -2.115969084483192E-1
 6.529130033300000E9     5.569596661505180E-1   -8.038010533461457E-2   -1.125052875029136E-2   -3.668542886904944E-2   -1.216036359182665E-2   -3.649660319087324E-2    4.676622446272387E-1   -2.125927909269408E-1
 6.529140033250000E9     5.567231161322591E-1   -8.104735739528024E-2   -1.150257700934627E-2   -3.695219862665927E-2   -1.232613265737352E-2   -3.670370545269449E-2    4.671859893662138E-1   -2.134095801076918E-1
 6.529150033200000E9     5.566539602770418E-1   -8.189729563723964E-2   -1.149184462507721E-2   -3.711373948503285E-2   -1.240546792256955E-2   -3.691210392190088E-2    4.669254262102390E-1   -2.143771064444179E-1
 6.529160033150000E9     5.564667888136270E-1   -8.293271330637181E-2   -1.168667767649341E-2   -3.732762117841543E-2   -1.261356085393824E-2   -3.713818588864472E-2    4.662584817928073E-1   -2.151996997708334E-1
 6.529170033100000E9     5.563899367690804E-1   -8.366561039389181E-2   -1.184506561512922E-2   -3.765976939673437E-2   -1.266919302160044E-2   -3.727304034500639E-2    4.657720512896816E-1   -2.163712264360746E-1
 6.529180033050000E9     5.561857952047498E-1   -8.455515973979939E-2   -1.197487623274493E-2   -3.766203522878814E-2   -1.290289235597335E-2   -3.758588836484691E-2    4.652355745072860E-1   -2.171365313243739E-1
 6.529190033000000E9     5.560611264711587E-1   -8.542517327806642E-2   -1.217117353527875E-2   -3.797095926057096E-2   -1.295277288248254E-2   -3.760389743481753E-2    4.647796327843655E-1   -2.181892088418912E-1
 6.529200032950000E9     5.558729793703183E-1   -8.612394988393728E-2   -1.241534012616993E-2   -3.817528130746916E-2   -1.313082243463362E-2   -3.789826266326572E-2    4.643428820171451E-1   -2.190153667130097E-1
 6.529210032900000E9     5.557280845172956E-1   -8.705611635044407E-2   -1.251548974686527E-2   -3.843064737434491E-2   -1.339598305665689E-2   -3.808046999098196E-2    4.639131676042749E-1   -2.200696800257056E-1
 6.529220032850000E9     5.556165851863901E-1   -8.787408073500179E-2   -1.265483023781102E-2   -3.860590453836100E-2   -1.355771482409902E-2   -3.834540093967517E-2    4.632756494563294E-1   -2.210863486022960E-1
 6.529230032800000E9     5.554015152076356E-1   -8.868978306777262E-2   -1.273064994280386E-2   -3.880608936283611E-2   -1.369630492927102E-2   -3.846314240128722E-2    4.628886776978208E-1   -2.219974241071128E-1
 6.529240032750000E9     5.553536245653149E-1   -8.960844077153120E-2   -1.302064214601585E-2   -3.903055391940811E-2   -1.378494649940446E-2   -3.872212259392455E-2    4.622800246377811E-1   -2.229333997134426E-1
 6.529250032700000E9     5.551196644878246E-1   -9.048534789785244E-2   -1.304315373500745E-2   -3.918510373872946E-2   -1.408847561720072E-2   -3.893009306802354E-2    4.617001406876622E-1   -2.240031139180834E-1
 6.529260032650000E9     5.549254278142571E-1   -9.138971810467211E-2   -1.327593587067495E-2   -3.927004443136361E-2   -1.412397822693083E-2   -3.928131168652993E-2    4.612679492170577E-1   -2.250235386170959E-1
 6.529270032600000E9     5.547070882468370E-1   -9.212038786237925E-2   -1.348349231291795E-2   -3.942425959879130E-2   -1.434957716327343E-2   -3.929324958829183E-2    4.606897029574867E-1   -2.258264610494748E-1
 6.529280032550000E9     5.545754517121615E-1   -9.311146463763471E-2   -1.360696729171394E-2   -3.980178650717005E-2   -1.457879932154396E-2   -3.970453820118350E-2    4.601502374307834E-1   -2.268741326053185E-1
 6.529290032500000E9     5.545083642320308E-1   -9.383979977523087E-2   -1.382015637917954E-2   -3.996253135690143E-2   -1.474906763833856E-2   -3.982981462772438E-2    4.595478309509295E-1   -2.276931956795102E-1
 6.529300032450000E9     5.544289038988121E-1   -9.479214085940864E-2   -1.403271187717069E-2   -4.019852476839499E-2   -1.493699793015922E-2   -4.001993611978553E-2    4.590081087891267E-1   -2.287243527224158E-1
 6.529310032400000E9     5.540172580591604E-1   -9.566460300278229E-2   -1.403918977401085E-2   -4.057547527895469E-2   -1.517322310447022E-2   -4.028298850481175E-2    4.583612012652922E-1   -2.297694333473872E-1
 6.529320032350000E9     5.538449348236462E-1   -9.644642397615048E-2   -1.421596386242100E-2   -4.074325268511526E-2   -1.530505101904197E-2   -4.043434017636702E-2    4.577938968847832E-1   -2.306408927923985E-1
 6.529330032300000E9     5.537915508115843E-1   -9.744553677510405E-2   -1.454829319982811E-2   -4.101500367843326E-2   -1.551316464990898E-2   -4.083077043140082E-2    4.573498623235065E-1   -2.317162363459293E-1
 6.529340032250000E9     5.536468025593858E-1   -9.834376964068750E-2   -1.475238588391190E-2   -4.126441387575427E-2   -1.559280947983587E-2   -4.101526358731979E-2    4.567445645148698E-1   -2.327749215013069E-1
 6.529350032200000E9     5.534020113311887E-1   -9.903805217805299E-2   -1.479337944099968E-2   -4.148376947451191E-2   -1.585136420248509E-2   -4.121538088722401E-2    4.560909456403350E-1   -2.337302045059612E-1
 6.529360032150000E9     5.532533486292909E-1   -9.992575344279447E-2   -1.504307020690249E-2   -4.168475637113575E-2   -1.606719044867122E-2   -4.148275527284224E-2    4.556744168121553E-1   -2.348143515933203E-1
 6.529370032100000E9     5.531014295324179E-1   -1.008189924921866E-1   -1.525707664740873E-2   -4.204439314316995E-2   -1.629964424607520E-2   -4.168435296046968E-2    4.550408836238907E-1   -2.358863115152036E-1
 6.529380032050000E9     5.527978656142939E-1   -1.016697651761166E-1   -1.543179110375002E-2   -4.221486254491514E-2   -1.642044466935581E-2   -4.189800434772582E-2    4.544163856608896E-1   -2.369801775237552E-1
 6.529390032000000E9     5.527498989565705E-1   -1.025168478340898E-1   -1.569384747684748E-2   -4.252209881748364E-2   -1.681772134618487E-2   -4.230582262574240E-2    4.538466607985704E-1   -2.378290087614240E-1
 6.529400031950000E9     5.525279302478913E-1   -1.036740378611092E-1   -1.581542554973364E-2   -4.276590490740124E-2   -1.699444223873060E-2   -4.248963808654278E-2    4.530874565242698E-1   -2.388064469218856E-1
 6.529410031900000E9     5.522703260741783E-1   -1.044157538797263E-1   -1.603495489279264E-2   -4.302658456209567E-2   -1.718466777307318E-2   -4.273852454041294E-2    4.526301098535697E-1   -2.399728481499052E-1
 6.529420031850000E9     5.520406103455660E-1   -1.052074452630063E-1   -1.630374239108862E-2   -4.331603466387590E-2   -1.727662882343339E-2   -4.299354801464467E-2    4.518483456459224E-1   -2.409825872643327E-1
 6.529430031800000E9     5.519335548479013E-1   -1.061478369165015E-1   -1.662323865696337E-2   -4.358189133273278E-2   -1.750587620027132E-2   -4.321749057294047E-2    4.512363509828438E-1   -2.420652311915442E-1
 6.529440031750000E9     5.516072180800909E-1   -1.069664235616724E-1   -1.678993122268660E-2   -4.380525413224332E-2   -1.774660817702235E-2   -4.355211748450055E-2    4.505734450631328E-1   -2.431535651070886E-1
 6.529450031700000E9     5.514538315662135E-1   -1.079141581453071E-1   -1.699179777616030E-2   -4.407386708984532E-2   -1.802446397458185E-2   -4.366619387835191E-2    4.499220691458713E-1   -2.441138126528472E-1
 6.529460031650000E9     5.512126950589119E-1   -1.088553982646046E-1   -1.707451332541373E-2   -4.438151391989354E-2   -1.822988652950554E-2   -4.412930597316193E-2    4.492203436321334E-1   -2.452123486397662E-1
 6.529470031600000E9     5.509534315403122E-1   -1.096753920708970E-1   -1.745153941677823E-2   -4.462245820609901E-2   -1.845735065912119E-2   -4.432213689195703E-2    4.485499422917310E-1   -2.462647058203889E-1
 6.529480031550000E9     5.506998582861198E-1   -1.106431706863065E-1   -1.754016334684978E-2   -4.513900029118138E-2   -1.883594976672433E-2   -4.467539819727277E-2    4.480078543680703E-1   -2.472465840849107E-1
 6.529490031500000E9     5.506212654514132E-1   -1.115140061644568E-1   -1.782324987239174E-2   -4.534169005345454E-2   -1.904018512256501E-2   -4.486573280853966E-2    4.472226785930847E-1   -2.484384670826081E-1
 6.529500031450000E9     5.503368970235771E-1   -1.124813713114122E-1   -1.802802330251833E-2   -4.560989671199945E-2   -1.919777091835159E-2   -4.523047220731879E-2    4.465317469024996E-1   -2.494618070269258E-1
 6.529510031400000E9     5.501199849189788E-1   -1.133901399099979E-1   -1.842514922930037E-2   -4.579514163726543E-2   -1.950341378039093E-2   -4.555445477678582E-2    4.457277262332817E-1   -2.505818525792076E-1
 6.529520031350000E9     5.498692121948345E-1   -1.142188386615318E-1   -1.854741006458629E-2   -4.625466044261602E-2   -1.973469300248031E-2   -4.578398832958461E-2    4.448912615297069E-1   -2.516323997780332E-1
 6.529530031300000E9     5.496990033535755E-1   -1.151480342846204E-1   -1.889120538744247E-2   -4.648964272752593E-2   -2.002435903064488E-2   -4.603579528412275E-2    4.442043182538254E-1   -2.527883251266290E-1
 6.529540031250000E9     5.492353599597254E-1   -1.162151303416043E-1   -1.911363725966559E-2   -4.678610118583414E-2   -2.023006307630130E-2   -4.635759839544431E-2    4.436150548680977E-1   -2.538144706634311E-1
 6.529550031200000E9     5.490068818176881E-1   -1.169859329230948E-1   -1.949886383455892E-2   -4.704988336125474E-2   -2.059237385581946E-2   -4.665551456938927E-2    4.427489621854858E-1   -2.549528906730480E-1
 6.529560031150000E9     5.489555238765333E-1   -1.179276148173126E-1   -1.958196861489496E-2   -4.733375919861681E-2   -2.082450166576482E-2   -4.702670046783644E-2    4.420326495563923E-1   -2.560576419256207E-1
 6.529570031100000E9     5.485588479664084E-1   -1.188069434684492E-1   -1.990887945264651E-2   -4.782904979378464E-2   -2.101949461210769E-2   -4.729173432753477E-2    4.413583026220826E-1   -2.572543196081628E-1
 6.529580031050000E9     5.483143281482640E-1   -1.198254415889469E-1   -2.016921379425957E-2   -4.802628432715620E-2   -2.144463639337024E-2   -4.765468314378773E-2    4.404458904522415E-1   -2.584299626990493E-1
 6.529590031000000E9     5.480967191289221E-1   -1.206658457151477E-1   -2.037486553424289E-2   -4.841316341162624E-2   -2.174080402801388E-2   -4.802818351268953E-2    4.396678922099617E-1   -2.595515088886173E-1
 6.529600030950000E9     5.478488079338341E-1   -1.215557866222000E-1   -2.066713805630450E-2   -4.870308119313301E-2   -2.201935177904389E-2   -4.834109535537592E-2    4.389241343909426E-1   -2.606033348047609E-1
 6.529610030900000E9     5.475314082150488E-1   -1.225037057480972E-1   -2.119128041247011E-2   -4.904425703113668E-2   -2.226551880107779E-2   -4.866869576307097E-2    4.379364926992608E-1   -2.618523483652495E-1
 6.529620030850000E9     5.472956423505663E-1   -1.234482874661483E-1   -2.146215943923259E-2   -4.945462657719399E-2   -2.263699953631044E-2   -4.898110772697255E-2    4.370873836080565E-1   -2.630537731962798E-1
 6.529630030800000E9     5.469746812497370E-1   -1.244862965133486E-1   -2.171507236794864E-2   -4.986064834850541E-2   -2.290290879592464E-2   -4.932209488204645E-2    4.362980768140819E-1   -2.640659754914443E-1
 6.529640030750000E9     5.466640317825907E-1   -1.252641534784369E-1   -2.204486630527332E-2   -5.021044273431570E-2   -2.332547165005768E-2   -4.970012391826210E-2    4.354168809390208E-1   -2.650502647614014E-1
 6.529650030700000E9     5.464630149868340E-1   -1.263427993119984E-1   -2.224727901881239E-2   -5.069488670855937E-2   -2.363977225229522E-2   -5.001639761288731E-2    4.345797790657355E-1   -2.664380196191707E-1
 6.529660030650000E9     5.461029249770204E-1   -1.272854291492204E-1   -2.249089513141251E-2   -5.098211395324781E-2   -2.388190620704941E-2   -5.036413282132834E-2    4.337413528477219E-1   -2.675916448434922E-1
 6.529670030600000E9     5.459298258285314E-1   -1.282620214303782E-1   -2.297429871853780E-2   -5.112978535828940E-2   -2.431800519792007E-2   -5.067444390898058E-2    4.327377993322311E-1   -2.686793095053595E-1
 6.529680030550000E9     5.456531330516082E-1   -1.291365186991200E-1   -2.326669563078088E-2   -5.158269578661503E-2   -2.462505526008636E-2   -5.109827142917053E-2    4.318833466032124E-1   -2.699937862346949E-1
 6.529690030500000E9     5.452738807195312E-1   -1.300692608841558E-1   -2.367434937088242E-2   -5.185203655374663E-2   -2.512909544508090E-2   -5.157196927323829E-2    4.309407766428044E-1   -2.713288233204013E-1
