#  HZ   S   RI   R     50.00 
! Rohde & Schwarz Vector Network Analyzer 
! Rohde-Schwarz,ZNB20-2Port,1311601062101988,3.16
! Created: UTC 3/21/2024, 12:57:09 AM
! freq[Hz]                re:S11                  im:S11                  re:S21                  im:S21                  re:S12                  im:S12                  re:S22                  im:S22
 6.528786411000000E9     5.606269373427410E-1   -5.196363496429612E-2   -7.416222429481261E-3   -3.110160526329332E-2   -8.163155758996236E-3   -3.097214674587384E-2    4.814651327889480E-1   -1.816915442669614E-1
 6.528796442325000E9     5.604201090422447E-1   -5.275272474588594E-2   -7.673239435284658E-3   -3.117785004041148E-2   -8.288464219724350E-3   -3.110598449693144E-2    4.810524382979988E-1   -1.825158185912181E-1
 6.528806473650000E9     5.604041926422304E-1   -5.356708140431460E-2   -7.673364410763779E-3   -3.126182759840392E-2   -8.338004847707536E-3   -3.115995726554313E-2    4.808246973732432E-1   -1.834598403064725E-1
 6.528816504975000E9     5.603767244547671E-1   -5.447786299399370E-2   -7.772642317843372E-3   -3.148086449542413E-2   -8.469222738634000E-3   -3.138116107324963E-2    4.804589716279318E-1   -1.842394578566957E-1
 6.528826536300000E9     5.601317377191178E-1   -5.524155793386390E-2   -7.930610596451004E-3   -3.156615659550135E-2   -8.520818442829080E-3   -3.142723108605189E-2    4.799957290877375E-1   -1.851349860033471E-1
 6.528836567625000E9     5.602223682318400E-1   -5.597860118024732E-2   -7.881643498712284E-3   -3.174218351565752E-2   -8.640618229988243E-3   -3.160898856143231E-2    4.797231202154271E-1   -1.858802285538217E-1
 6.528846598950000E9     5.600970661249352E-1   -5.692609899835562E-2   -8.135376519817807E-3   -3.195853289419952E-2   -8.713298550002373E-3   -3.174752839544959E-2    4.792657595445706E-1   -1.867961262127888E-1
 6.528856630275000E9     5.598369093030446E-1   -5.765142820188685E-2   -8.122589727231662E-3   -3.190118334024648E-2   -8.936263986973135E-3   -3.199527658426233E-2    4.789048562971354E-1   -1.877633815794990E-1
 6.528866661600000E9     5.597232479852094E-1   -5.848723973507556E-2   -8.191224353920563E-3   -3.229971947665561E-2   -8.938911900040269E-3   -3.204028470581295E-2    4.786244852098590E-1   -1.883945760066010E-1
 6.528876692925000E9     5.597216961838637E-1   -5.925382805763474E-2   -8.249296445319456E-3   -3.228838725289833E-2   -8.967213727651371E-3   -3.224906927279336E-2    4.782574338003046E-1   -1.895181026631056E-1
 6.528886724250000E9     5.597369592297987E-1   -6.001206667980858E-2   -8.470156623322421E-3   -3.246750545297641E-2   -9.068483377158664E-3   -3.240004325406756E-2    4.777197300889914E-1   -1.902620804913160E-1
 6.528896755575000E9     5.595582010854564E-1   -6.088325772610788E-2   -8.492776725699740E-3   -3.281432771383196E-2   -9.271609355014747E-3   -3.246138484365959E-2    4.774311855014426E-1   -1.911600327620731E-1
 6.528906786900000E9     5.594770294102074E-1   -6.173354217590476E-2   -8.638716768465754E-3   -3.284050634144657E-2   -9.311087518513839E-3   -3.272047926049940E-2    4.771364347357793E-1   -1.919504398791240E-1
 6.528916818225000E9     5.593814745637462E-1   -6.248321639123275E-2   -8.601416192009909E-3   -3.293036407230351E-2   -9.553181916869503E-3   -3.283242038811671E-2    4.767091322024927E-1   -1.928903981633593E-1
 6.528926849550000E9     5.593013068592492E-1   -6.336165148059161E-2   -8.911509246887618E-3   -3.309338853500825E-2   -9.530438771561560E-3   -3.301482963821954E-2    4.764017972356449E-1   -1.936562095755854E-1
 6.528936880875000E9     5.591992827710749E-1   -6.426250553684880E-2   -8.951799607891510E-3   -3.335005280964554E-2   -9.736010188154551E-3   -3.315592044894211E-2    4.760895317936655E-1   -1.948271701306896E-1
 6.528946912200000E9     5.590579928975504E-1   -6.498015148339660E-2   -9.102884338057317E-3   -3.342063712557578E-2   -9.899005459937243E-3   -3.328414528622281E-2    4.755186789042578E-1   -1.954578349250519E-1
 6.528956943525000E9     5.590650553827207E-1   -6.581156036234702E-2   -9.136000807420013E-3   -3.361012873817673E-2   -9.994365529150399E-3   -3.339163469180338E-2    4.751482958679586E-1   -1.961917914252801E-1
 6.528966974850000E9     5.588565928937979E-1   -6.672185877645728E-2   -9.312076305508104E-3   -3.382781735464872E-2   -1.002299704440268E-2   -3.360470091337681E-2    4.747303494990178E-1   -1.970851511110353E-1
 6.528977006175000E9     5.587364524625446E-1   -6.749641247979433E-2   -9.369673182732914E-3   -3.399817205281450E-2   -1.015108087905165E-2   -3.394293028557263E-2    4.742190955550895E-1   -1.982400693014993E-1
 6.528987037500000E9     5.586677690220418E-1   -6.829301803807820E-2   -9.505473070054090E-3   -3.402526830605777E-2   -1.038817784572585E-2   -3.395112662581125E-2    4.740190611970865E-1   -1.990689253868944E-1
 6.528997068825000E9     5.584650012422500E-1   -6.915040705491345E-2   -9.706948745221449E-3   -3.437031174506919E-2   -1.045388793735400E-2   -3.412611742690866E-2    4.735836957287738E-1   -1.999299854715167E-1
 6.529007100150000E9     5.584317313396229E-1   -7.004773647771517E-2   -9.834664017578699E-3   -3.440189070625062E-2   -1.044578075113058E-2   -3.431233601803307E-2    4.730145840485905E-1   -2.006962353821566E-1
 6.529017131475000E9     5.583148826358950E-1   -7.072073242981575E-2   -9.791056731567153E-3   -3.460482615949591E-2   -1.061098182598332E-2   -3.444040837290066E-2    4.727559470631024E-1   -2.019092463038301E-1
 6.529027162800000E9     5.582152345334634E-1   -7.163615624724749E-2   -9.846225124086980E-3   -3.475220592301859E-2   -1.072432615542097E-2   -3.460805448237429E-2    4.722531139599118E-1   -2.026313891357239E-1
 6.529037194125000E9     5.581380173882107E-1   -7.242949072414841E-2   -1.012057845659889E-2   -3.499194923656331E-2   -1.092474773606262E-2   -3.475242983358071E-2    4.718068119820296E-1   -2.036264353522338E-1
 6.529047225450000E9     5.580183428815169E-1   -7.327649906143048E-2   -1.004510963216321E-2   -3.510210008522371E-2   -1.099373705243671E-2   -3.503705124604092E-2    4.713554465820268E-1   -2.045405120346783E-1
 6.529057256775000E9     5.577979235755295E-1   -7.413573023849318E-2   -1.031376929717241E-2   -3.538617719578344E-2   -1.119328740749778E-2   -3.513388326018863E-2    4.708899060484211E-1   -2.053836109103915E-1
 6.529067288100000E9     5.575795272355584E-1   -7.503936025415724E-2   -1.037754119713958E-2   -3.545015803012461E-2   -1.125021772958760E-2   -3.523063329463589E-2    4.701608972888167E-1   -2.061845290781004E-1
 6.529077319425000E9     5.575104449125963E-1   -7.590570752331408E-2   -1.053396712471612E-2   -3.558049721418308E-2   -1.145715664475986E-2   -3.551575184370539E-2    4.699549537823155E-1   -2.073268660831516E-1
 6.529087350750000E9     5.575119982049689E-1   -7.664935091955472E-2   -1.074164609976090E-2   -3.591443563778640E-2   -1.147809190353109E-2   -3.561970763956797E-2    4.695211232963756E-1   -2.082964610608334E-1
 6.529097382075000E9     5.573599410840243E-1   -7.742123451750807E-2   -1.079100880000164E-2   -3.607298921476773E-2   -1.168983558984048E-2   -3.587407428052551E-2    4.691385545178108E-1   -2.090129626995927E-1
 6.529107413400000E9     5.571250046427944E-1   -7.827636483534724E-2   -1.112704743690485E-2   -3.616971445506126E-2   -1.183496207099404E-2   -3.599166025648334E-2    4.688357692414941E-1   -2.100265755489848E-1
 6.529117444725000E9     5.571009115388357E-1   -7.918926670203490E-2   -1.112608531826121E-2   -3.643609846674183E-2   -1.197529154552956E-2   -3.625497474420664E-2    4.680812149558258E-1   -2.108842383649872E-1
 6.529127476050000E9     5.569500824734633E-1   -8.000821112374362E-2   -1.113362493100819E-2   -3.652520197363221E-2   -1.210373320899300E-2   -3.643054710547194E-2    4.677452791175594E-1   -2.119832524271049E-1
 6.529137507375000E9     5.567168281104198E-1   -8.085664004126063E-2   -1.137272672196884E-2   -3.667860117488964E-2   -1.235417833598945E-2   -3.658036071160240E-2    4.674406261790350E-1   -2.127246716197778E-1
 6.529147538700000E9     5.566428727589148E-1   -8.161023670519231E-2   -1.150299020565104E-2   -3.695205679856919E-2   -1.233240064038686E-2   -3.667552437507020E-2    4.668359806731822E-1   -2.136006625111210E-1
 6.529157570025000E9     5.565946247415987E-1   -8.254314456114109E-2   -1.161556539780916E-2   -3.715838818096856E-2   -1.243487410760324E-2   -3.690366936135771E-2    4.663782260427567E-1   -2.145857314995908E-1
 6.529167601350000E9     5.564122923830905E-1   -8.336042202543961E-2   -1.186967071629963E-2   -3.742474877595912E-2   -1.269539130846807E-2   -3.723789356904824E-2    4.659542198999629E-1   -2.155146788166548E-1
 6.529177632675000E9     5.561270226120250E-1   -8.427005870404844E-2   -1.201729482494521E-2   -3.777582749552552E-2   -1.279808291324219E-2   -3.735075233362233E-2    4.654575519305982E-1   -2.166953916996958E-1
 6.529187664000000E9     5.561484533625576E-1   -8.519140584749595E-2   -1.214581704511595E-2   -3.772428041277068E-2   -1.296224391089033E-2   -3.762731704756230E-2    4.648062673537206E-1   -2.175487644544863E-1
 6.529197695325000E9     5.558909244014868E-1   -8.592704520516387E-2   -1.225229483011644E-2   -3.805876732855460E-2   -1.312235197855788E-2   -3.772098323901844E-2    4.644156208994338E-1   -2.185071323400763E-1
 6.529207726650000E9     5.558034902019245E-1   -8.686333613887851E-2   -1.242992267475758E-2   -3.822976106989561E-2   -1.338971918059855E-2   -3.799418922989572E-2    4.638392876921318E-1   -2.194850200243099E-1
 6.529217757975000E9     5.556589580491308E-1   -8.767763983682804E-2   -1.241113942951945E-2   -3.841680796222720E-2   -1.348331855834743E-2   -3.810479975808564E-2    4.634092175415019E-1   -2.201904692456463E-1
 6.529227789300000E9     5.554108081179239E-1   -8.853958894500848E-2   -1.267825116700840E-2   -3.856085131273659E-2   -1.362434440008849E-2   -3.834984322864989E-2    4.629290305747982E-1   -2.214250372512950E-1
 6.529237820625000E9     5.552755392036252E-1   -8.941053584177661E-2   -1.277175621036232E-2   -3.885626643854623E-2   -1.372151617594976E-2   -3.856625105476859E-2    4.624078254823726E-1   -2.222331039969745E-1
 6.529247851950000E9     5.550886579534756E-1   -9.022709914951325E-2   -1.287891100326256E-2   -3.907765159448176E-2   -1.389203589833289E-2   -3.879133147653233E-2    4.617238233974845E-1   -2.232022904273195E-1
 6.529257883275000E9     5.549440915799794E-1   -9.109764801448350E-2   -1.321158161759112E-2   -3.937588254049644E-2   -1.410069726350691E-2   -3.902710348716176E-2    4.611175455827958E-1   -2.243223280836787E-1
 6.529267914600000E9     5.547993859011900E-1   -9.201587278130469E-2   -1.348147096616356E-2   -3.941576634830374E-2   -1.426271831889959E-2   -3.927456989680579E-2    4.606877467741841E-1   -2.252546561030767E-1
 6.529277945925000E9     5.546410172161430E-1   -9.269819686749871E-2   -1.347310936630308E-2   -3.975921529672457E-2   -1.454046840655475E-2   -3.943915632655194E-2    4.601139199368716E-1   -2.263228401873804E-1
 6.529287977250000E9     5.543597048212040E-1   -9.369123018460489E-2   -1.368863597094393E-2   -4.009340374047209E-2   -1.473240047241251E-2   -3.968103938805940E-2    4.596217499320609E-1   -2.271876016167043E-1
 6.529298008575000E9     5.542988480459168E-1   -9.458627536876556E-2   -1.383751432213905E-2   -4.015380113046626E-2   -1.479939086193727E-2   -3.992535993963571E-2    4.590696798889206E-1   -2.282872485959875E-1
 6.529308039900000E9     5.542236286252030E-1   -9.548703766414794E-2   -1.403931502781211E-2   -4.033666123830109E-2   -1.498215803926671E-2   -4.017243786331871E-2    4.585903658989014E-1   -2.291546724852990E-1
 6.529318071225000E9     5.540030374947382E-1   -9.625215652100765E-2   -1.423105539194312E-2   -4.062183398769927E-2   -1.517469764927147E-2   -4.040351991104335E-2    4.580437014388405E-1   -2.301545510244534E-1
 6.529328102550000E9     5.537288555576215E-1   -9.708232845394205E-2   -1.445875595480507E-2   -4.097377084337091E-2   -1.535967216331056E-2   -4.063750976992826E-2    4.574645632423265E-1   -2.311848886707082E-1
 6.529338133875000E9     5.536161596874853E-1   -9.798801140778964E-2   -1.464662670459554E-2   -4.109767446413802E-2   -1.555537004318038E-2   -4.085959490983090E-2    4.568247625440551E-1   -2.320252869050506E-1
 6.529348165200000E9     5.533919779463613E-1   -9.889568006771929E-2   -1.473004968740248E-2   -4.145306092263645E-2   -1.570485847777624E-2   -4.108891792621511E-2    4.562129036025661E-1   -2.331986495164075E-1
 6.529358196525000E9     5.531293533880214E-1   -9.970718060817599E-2   -1.494596330840741E-2   -4.160380661268278E-2   -1.589765171975019E-2   -4.136595294433759E-2    4.555415964386537E-1   -2.340375514610246E-1
 6.529368227850000E9     5.530463811998264E-1   -1.006822226537619E-1   -1.502083406100852E-2   -4.178818332510592E-2   -1.619702669349620E-2   -4.149895666174330E-2    4.549862187354162E-1   -2.351887555194905E-1
 6.529378259175000E9     5.528353570501645E-1   -1.015842316803594E-1   -1.531413718817886E-2   -4.213398425837221E-2   -1.640260453350473E-2   -4.170878852028809E-2    4.545061066342915E-1   -2.362616321225457E-1
 6.529388290500000E9     5.527173438528216E-1   -1.024456934548525E-1   -1.557414104896986E-2   -4.248184551381966E-2   -1.660418194542105E-2   -4.202299130338130E-2    4.537597258467541E-1   -2.373128867876431E-1
 6.529398321825000E9     5.524401376353600E-1   -1.032689043980868E-1   -1.576392687169917E-2   -4.262092510130757E-2   -1.691245658213325E-2   -4.236970405836047E-2    4.531101889448665E-1   -2.383276895393662E-1
 6.529408353150000E9     5.523499899448215E-1   -1.042014047852656E-1   -1.584901094893917E-2   -4.276748844581690E-2   -1.706571896731934E-2   -4.259363577034368E-2    4.526831040119004E-1   -2.391666836927622E-1
 6.529418384475000E9     5.521450252907153E-1   -1.050310421372509E-1   -1.626461739986059E-2   -4.315654045110260E-2   -1.725470500250197E-2   -4.294949917716849E-2    4.518089814387315E-1   -2.403222797006262E-1
 6.529428415800000E9     5.517268185048554E-1   -1.058886072033465E-1   -1.628576044787169E-2   -4.337096651775265E-2   -1.757875514755100E-2   -4.308933541350257E-2    4.512226701292332E-1   -2.413012432911447E-1
 6.529438447125000E9     5.516904193019062E-1   -1.068608926310327E-1   -1.662602226272271E-2   -4.385069255722538E-2   -1.772154787978054E-2   -4.343027939977770E-2    4.507130264244161E-1   -2.421462131347639E-1
 6.529448478450000E9     5.516213564874342E-1   -1.077536024653253E-1   -1.688472322592411E-2   -4.403297223633004E-2   -1.786931835246426E-2   -4.374851122391445E-2    4.498534558499532E-1   -2.435377044416838E-1
 6.529458509775000E9     5.512483121785828E-1   -1.087036532584802E-1   -1.710034266977374E-2   -4.443256708952017E-2   -1.816724497763505E-2   -4.395587484799639E-2    4.493722698112075E-1   -2.444943952388887E-1
 6.529468541100000E9     5.511134612159370E-1   -1.097492024955148E-1   -1.726033963879614E-2   -4.456613670275099E-2   -1.837068699215597E-2   -4.416422921933787E-2    4.485939056681669E-1   -2.456754278466128E-1
 6.529478572425000E9     5.507023449024616E-1   -1.104242732185824E-1   -1.740887619984808E-2   -4.465937742223976E-2   -1.861905615498676E-2   -4.453658268658243E-2    4.480009387524950E-1   -2.466780849796412E-1
 6.529488603750000E9     5.506740898033582E-1   -1.113335995155089E-1   -1.783746188431908E-2   -4.518304416083321E-2   -1.893040705017493E-2   -4.468506822394713E-2    4.472453441090945E-1   -2.475691783893979E-1
 6.529498635075000E9     5.502350727244850E-1   -1.122564126309534E-1   -1.805422779204922E-2   -4.528773674565913E-2   -1.916004753448665E-2   -4.503029012065432E-2    4.464444744965800E-1   -2.489109239991116E-1
 6.529508666400000E9     5.502126160966287E-1   -1.132650051387421E-1   -1.833145798361539E-2   -4.565961469390598E-2   -1.934980643501823E-2   -4.542205356905513E-2    4.459204405883611E-1   -2.498882607720261E-1
 6.529518697725000E9     5.498597250154695E-1   -1.141756631514246E-1   -1.847551684294553E-2   -4.601377163287752E-2   -1.957668319255541E-2   -4.563128238294750E-2    4.453031031883714E-1   -2.510227976050208E-1
 6.529528729050000E9     5.496436034672076E-1   -1.150980832945282E-1   -1.882350107326369E-2   -4.632716009627559E-2   -1.979743763400590E-2   -4.588898265413639E-2    4.443353290663180E-1   -2.519295246103504E-1
 6.529538760375000E9     5.494134981216811E-1   -1.159487768136873E-1   -1.900334057008503E-2   -4.656009277955095E-2   -2.011594359433835E-2   -4.636186196709405E-2    4.434925927939219E-1   -2.531926132428397E-1
 6.529548791700000E9     5.491295552407365E-1   -1.169030746461248E-1   -1.929438255347032E-2   -4.697361106088068E-2   -2.040376717339584E-2   -4.648449081992941E-2    4.427570905462031E-1   -2.542362481560796E-1
 6.529558823025000E9     5.488685708019233E-1   -1.177651195570213E-1   -1.947366508106474E-2   -4.732846434015685E-2   -2.077206182586012E-2   -4.682678439352807E-2    4.420906559085574E-1   -2.554247099423979E-1
 6.529568854350000E9     5.486548728256853E-1   -1.187227809214776E-1   -1.979396199296460E-2   -4.758316971206961E-2   -2.103199430472829E-2   -4.724672190436843E-2    4.413050665505274E-1   -2.564783329457827E-1
 6.529578885675000E9     5.484413809972145E-1   -1.195661228012397E-1   -2.010470806239945E-2   -4.800924729806741E-2   -2.133889103436170E-2   -4.750650229716893E-2    4.404618547460868E-1   -2.575007828067065E-1
 6.529588917000000E9     5.481552310133988E-1   -1.204484822373132E-1   -2.031517017211185E-2   -4.831690359622665E-2   -2.157961700330029E-2   -4.786752173187458E-2    4.398321775207305E-1   -2.588490961536942E-1
 6.529598948325000E9     5.478917012483013E-1   -1.215266454694330E-1   -2.074963192603915E-2   -4.854177792878023E-2   -2.188265961221110E-2   -4.825542797259198E-2    4.390842940127054E-1   -2.598178202935273E-1
 6.529608979650000E9     5.475897055334852E-1   -1.223699990215874E-1   -2.096394429598827E-2   -4.907209784791360E-2   -2.219981079043483E-2   -4.846482785692752E-2    4.379422247198549E-1   -2.610984310104706E-1
 6.529619010975000E9     5.473903440188050E-1   -1.232853186487515E-1   -2.130811909447458E-2   -4.929969522329571E-2   -2.249984541803789E-2   -4.881075325250279E-2    4.372578624480149E-1   -2.622526049281040E-1
 6.529629042300000E9     5.471495085600674E-1   -1.241875811890393E-1   -2.156209250336498E-2   -4.965969796357458E-2   -2.293397173445286E-2   -4.915694121964699E-2    4.365249681094787E-1   -2.634532164641029E-1
 6.529639073625000E9     5.467754907586406E-1   -1.252766084019485E-1   -2.191498411989271E-2   -5.005329269000870E-2   -2.314106178114918E-2   -4.948016247356227E-2    4.357070920944224E-1   -2.646650097924431E-1
 6.529649104950000E9     5.466507965429803E-1   -1.260367146027515E-1   -2.220622371014457E-2   -5.028528988554865E-2   -2.348768721716610E-2   -4.990156467186324E-2    4.345564169297326E-1   -2.657819874834669E-1
 6.529659136275000E9     5.462890508334560E-1   -1.270540751295709E-1   -2.251525207238309E-2   -5.068958654352160E-2   -2.380379444048456E-2   -5.025873699567988E-2    4.338142613479292E-1   -2.669382068089028E-1
 6.529669167600000E9     5.459509800107357E-1   -1.281182608483449E-1   -2.282700812697089E-2   -5.105121068299646E-2   -2.422053674876829E-2   -5.056691442703917E-2    4.328990689948962E-1   -2.681778590534746E-1
 6.529679198925000E9     5.455631657682841E-1   -1.290966442439183E-1   -2.315480853779698E-2   -5.129326892205322E-2   -2.452143155318458E-2   -5.092348123249962E-2    4.320098786320752E-1   -2.694806383441445E-1
 6.529689230250000E9     5.453983680524936E-1   -1.299281726900988E-1   -2.359189410116820E-2   -5.172816421181648E-2   -2.491283350973232E-2   -5.123969597097107E-2    4.310641207978277E-1   -2.704787286645762E-1
