#  HZ   S   RI   R     50.00 
! Rohde & Schwarz Vector Network Analyzer 
! Rohde-Schwarz,ZNB20-2Port,1311601062101988,3.16
! Created: UTC 3/21/2024, 12:57:13 AM
! freq[Hz]                re:S11                  im:S11                  re:S21                  im:S21                  re:S12                  im:S12                  re:S22                  im:S22
 6.528786195000000E9     5.606250715482791E-1   -5.194834814600068E-2   -7.416955432027997E-3   -3.098800668753266E-2   -8.142338800161193E-3   -3.080870426034227E-2    4.812629059125741E-1   -1.813534354664223E-1
 6.528796236025000E9     5.604785512815709E-1   -5.275820385096838E-2   -7.669388697438992E-3   -3.124660143370579E-2   -8.358423222974892E-3   -3.105641116498751E-2    4.809028551181433E-1   -1.823812958434733E-1
 6.528806277050000E9     5.603841192097453E-1   -5.354061887488237E-2   -7.702695949875312E-3   -3.124411022289825E-2   -8.319219820602266E-3   -3.119699897702699E-2    4.804607361566814E-1   -1.831918332629955E-1
 6.528816318075000E9     5.602837269913994E-1   -5.437182982293534E-2   -7.833668590088222E-3   -3.149740520695229E-2   -8.513108750989427E-3   -3.122018678128131E-2    4.801804921943909E-1   -1.839530172948524E-1
 6.528826359100000E9     5.601866054418772E-1   -5.518483653640780E-2   -7.776551822387665E-3   -3.153637378020682E-2   -8.526137729751771E-3   -3.144113587120484E-2    4.798785987460539E-1   -1.849894830366133E-1
 6.528836400125000E9     5.601399429295562E-1   -5.587974924351310E-2   -7.935114424667412E-3   -3.185394530430177E-2   -8.609093113107025E-3   -3.158412372055470E-2    4.795610633057785E-1   -1.855476898865550E-1
 6.528846441150000E9     5.600924614367735E-1   -5.674907745514159E-2   -7.969525719281294E-3   -3.171551297484319E-2   -8.732326903435778E-3   -3.181912073448425E-2    4.791109636592355E-1   -1.864535400676174E-1
 6.528856482175000E9     5.599027296394631E-1   -5.749278742840090E-2   -8.124351947152178E-3   -3.191878794175269E-2   -8.764977700930991E-3   -3.194025125800662E-2    4.788569641973323E-1   -1.874451038558333E-1
 6.528866523200000E9     5.598338312177651E-1   -5.843139889868192E-2   -8.256833909818269E-3   -3.222836763374744E-2   -8.914720036932836E-3   -3.197527779919235E-2    4.784165336979583E-1   -1.883276217817321E-1
 6.528876564225000E9     5.596844329342560E-1   -5.922299714077984E-2   -8.181279288371587E-3   -3.231154046131672E-2   -9.032757735690858E-3   -3.216307641946970E-2    4.780991373944808E-1   -1.892040549585137E-1
 6.528886605250000E9     5.596825115297721E-1   -6.004759642094454E-2   -8.347320613013191E-3   -3.247044316541613E-2   -9.142154959860637E-3   -3.235894565677169E-2    4.775332873691067E-1   -1.900644418120669E-1
 6.528896646275000E9     5.594326686702975E-1   -6.074207580011264E-2   -8.450435142519154E-3   -3.271663873725452E-2   -9.277087555297350E-3   -3.245869781152255E-2    4.773034210080589E-1   -1.909986287879783E-1
 6.528906687300000E9     5.594470585180116E-1   -6.182529032366171E-2   -8.669114019449342E-3   -3.272252265494548E-2   -9.373356594384661E-3   -3.278730334356821E-2    4.767983905806522E-1   -1.917267575019506E-1
 6.528916728325000E9     5.592577744436429E-1   -6.259354450073619E-2   -8.761343492748756E-3   -3.284694210140371E-2   -9.451300756516361E-3   -3.271610551746079E-2    4.764944992640290E-1   -1.927109228712142E-1
 6.528926769350000E9     5.592428819170944E-1   -6.332694613519936E-2   -8.892769658596651E-3   -3.312550756812219E-2   -9.586348805918332E-3   -3.292927733322145E-2    4.762217238915505E-1   -1.935698240346239E-1
 6.528936810375000E9     5.591253800601473E-1   -6.424469981670464E-2   -8.877124724820325E-3   -3.342672815341947E-2   -9.641670921440634E-3   -3.310162541931280E-2    4.758647966863707E-1   -1.944355343695929E-1
 6.528946851400000E9     5.590221638690041E-1   -6.510114907003556E-2   -9.059992212728268E-3   -3.334727291708736E-2   -9.811829172193493E-3   -3.323581348660350E-2    4.754495008600891E-1   -1.953937097134673E-1
 6.528956892425000E9     5.589730465055865E-1   -6.579277740871894E-2   -9.071327125391052E-3   -3.367978918535702E-2   -9.923532102681723E-3   -3.338548508268993E-2    4.750209024400884E-1   -1.960312049010580E-1
 6.528966933450000E9     5.588793619194217E-1   -6.665307716133002E-2   -9.299941537817456E-3   -3.373708850781165E-2   -9.972550616733975E-3   -3.357661520269793E-2    4.745043770059331E-1   -1.969756797363055E-1
 6.528976974475000E9     5.588031505608752E-1   -6.754101458875403E-2   -9.363641432647353E-3   -3.385365310948039E-2   -1.020303146059813E-2   -3.380604391390334E-2    4.741429800377935E-1   -1.979311014396618E-1
 6.528987015500000E9     5.586593004770295E-1   -6.829787162997938E-2   -9.550803201693065E-3   -3.399854147723405E-2   -1.026133332137327E-2   -3.385746458908920E-2    4.736934177675309E-1   -1.987967414998533E-1
 6.528997056525000E9     5.584976222694376E-1   -6.905459572269990E-2   -9.740091073414212E-3   -3.418414878760489E-2   -1.035255871513413E-2   -3.404955096644197E-2    4.735305092799353E-1   -1.998210089670001E-1
 6.529007097550000E9     5.584456649374830E-1   -6.995105154166169E-2   -9.695467582149469E-3   -3.438145635882954E-2   -1.040444587225344E-2   -3.419298818468579E-2    4.729765607714039E-1   -2.005488559631002E-1
 6.529017138575000E9     5.582885563898067E-1   -7.075177183049408E-2   -9.869268395662423E-3   -3.454969011275905E-2   -1.062464335025398E-2   -3.445761654389909E-2    4.725619838226435E-1   -2.013761288803780E-1
 6.529027179600000E9     5.580154052756833E-1   -7.164160520693280E-2   -1.003879502676540E-2   -3.472391829234924E-2   -1.079305967497778E-2   -3.455902391637284E-2    4.721223576994292E-1   -2.025826704929143E-1
 6.529037220625000E9     5.579416089894170E-1   -7.252647218826021E-2   -1.002585223805495E-2   -3.494927375391187E-2   -1.085282273248768E-2   -3.470626408393654E-2    4.717366538376925E-1   -2.032273890943587E-1
 6.529047261650000E9     5.580147197688407E-1   -7.321059977825878E-2   -1.025134970955225E-2   -3.523195614047852E-2   -1.101497430146222E-2   -3.487135944550478E-2    4.712731690987595E-1   -2.042447712423746E-1
 6.529057302675000E9     5.577641743510652E-1   -7.416136252085727E-2   -1.032186769394619E-2   -3.539700909223131E-2   -1.112129203669997E-2   -3.510332639961226E-2    4.708218007039855E-1   -2.050703837461367E-1
 6.529067343700000E9     5.576473811196615E-1   -7.499332935536251E-2   -1.038093023751794E-2   -3.546663984091298E-2   -1.115721394924632E-2   -3.521978733264969E-2    4.703375874546105E-1   -2.059613472786784E-1
 6.529077384725000E9     5.575466772946388E-1   -7.572630195898709E-2   -1.064430331574860E-2   -3.560714092629786E-2   -1.145021556550995E-2   -3.540619729785802E-2    4.698861279165971E-1   -2.070011749874097E-1
 6.529087425750000E9     5.573254938127753E-1   -7.664623599047789E-2   -1.072851440263504E-2   -3.581836950243276E-2   -1.146766687000331E-2   -3.567615223909204E-2    4.694425186667056E-1   -2.078566935737199E-1
 6.529097466775000E9     5.573770789537273E-1   -7.747570372400808E-2   -1.089541365250477E-2   -3.597578579849016E-2   -1.166841684181454E-2   -3.573140893295481E-2    4.692194097504310E-1   -2.087030095740842E-1
 6.529107507800000E9     5.571679830564371E-1   -7.828199539997609E-2   -1.085117986385059E-2   -3.612335731016417E-2   -1.181814026952517E-2   -3.603974891997381E-2    4.686710197929476E-1   -2.096949119934484E-1
 6.529117548825000E9     5.570846809307017E-1   -7.910566720525777E-2   -1.133616717619473E-2   -3.636928956765532E-2   -1.194245824787325E-2   -3.620245576258786E-2    4.681834080776197E-1   -2.106412390278622E-1
 6.529127589850000E9     5.569922295197465E-1   -7.996263115741065E-2   -1.129788801840351E-2   -3.656224152494287E-2   -1.207055712633623E-2   -3.644146778240386E-2    4.676202014971730E-1   -2.115028516981772E-1
 6.529137630875000E9     5.568429379368569E-1   -8.079430376799838E-2   -1.124048098573459E-2   -3.690567883104487E-2   -1.221947070660113E-2   -3.659369506415360E-2    4.671552362987777E-1   -2.125525038716402E-1
 6.529147671900000E9     5.566184644161306E-1   -8.168848838867748E-2   -1.149198318954077E-2   -3.687964441344966E-2   -1.240498263662710E-2   -3.670348451477959E-2    4.667478947950764E-1   -2.134408733146565E-1
 6.529157712925000E9     5.564648778861384E-1   -8.250962309872896E-2   -1.158041557935160E-2   -3.707031372557551E-2   -1.256423850033008E-2   -3.698525177592461E-2    4.662430694514005E-1   -2.143236107401274E-1
 6.529167753950000E9     5.562651433989618E-1   -8.332775817179984E-2   -1.183924450183429E-2   -3.746112074441569E-2   -1.275212245089387E-2   -3.714704696866755E-2    4.657972240349671E-1   -2.153911910096627E-1
 6.529177794975000E9     5.562405889251840E-1   -8.419981426261944E-2   -1.199500820074738E-2   -3.760129521959134E-2   -1.288150580270582E-2   -3.728308469615825E-2    4.651464472340116E-1   -2.161843130076423E-1
 6.529187836000000E9     5.560958631278614E-1   -8.499854043245640E-2   -1.204506066637345E-2   -3.788892429149365E-2   -1.296149033746012E-2   -3.760011914855466E-2    4.646935998990915E-1   -2.171342168849564E-1
 6.529197877025000E9     5.559219287387743E-1   -8.586293511833018E-2   -1.217084029579264E-2   -3.805251000074197E-2   -1.305623856996361E-2   -3.776387370841715E-2    4.644537516220202E-1   -2.180534047266187E-1
 6.529207918050000E9     5.558074093974124E-1   -8.673680456911939E-2   -1.241492168120736E-2   -3.815305115052414E-2   -1.325608222358385E-2   -3.796644777090962E-2    4.637501727800303E-1   -2.191739109536174E-1
 6.529217959075000E9     5.555992022029786E-1   -8.761764060905390E-2   -1.250325524938412E-2   -3.840743768083977E-2   -1.343458438039453E-2   -3.813003029355887E-2    4.633034286778259E-1   -2.201166475502257E-1
 6.529228000100000E9     5.554127589223459E-1   -8.858400409394168E-2   -1.273750706845814E-2   -3.865857724748293E-2   -1.364343742336875E-2   -3.827589532956247E-2    4.627709424853222E-1   -2.210413286626231E-1
 6.529238041125000E9     5.552188586212764E-1   -8.938058708189647E-2   -1.271402052213954E-2   -3.894145120184474E-2   -1.375360122139533E-2   -3.855976387011920E-2    4.621628283450172E-1   -2.221539398345759E-1
 6.529248082150000E9     5.551168347322019E-1   -9.012649321849241E-2   -1.305822979108033E-2   -3.899907742449583E-2   -1.393238889873505E-2   -3.877529085657851E-2    4.617368046162164E-1   -2.231163008530999E-1
 6.529258123175000E9     5.550022804947755E-1   -9.105416006756313E-2   -1.312174100275735E-2   -3.920450704968562E-2   -1.401777107010833E-2   -3.896725399747985E-2    4.611675952715201E-1   -2.239901981323768E-1
 6.529268164200000E9     5.546593237413948E-1   -9.186516007108078E-2   -1.321534029777938E-2   -3.951904355774392E-2   -1.426467754461376E-2   -3.907558600526839E-2    4.605297601765747E-1   -2.249753447123553E-1
 6.529278205225000E9     5.546548653665411E-1   -9.277359008075665E-2   -1.356666428233189E-2   -3.964123660352392E-2   -1.438536335521076E-2   -3.944882927129722E-2    4.600618835551214E-1   -2.260193593347112E-1
 6.529288246250000E9     5.544072641185853E-1   -9.356395024078562E-2   -1.370422631388092E-2   -3.997231703729031E-2   -1.457627255982036E-2   -3.955766107084522E-2    4.594833300689577E-1   -2.269521641046223E-1
 6.529298287275000E9     5.542967656322242E-1   -9.451085297164649E-2   -1.393409115120707E-2   -4.013628636551293E-2   -1.472857571653362E-2   -3.986938284363870E-2    4.589576661895506E-1   -2.277920015000093E-1
 6.529308328300000E9     5.540815215522426E-1   -9.532987338235663E-2   -1.406232932257723E-2   -4.040005971327744E-2   -1.497020781557490E-2   -4.017211110586096E-2    4.583700249544265E-1   -2.289094659929371E-1
 6.529318369325000E9     5.540117168456256E-1   -9.622259678363725E-2   -1.422863304077229E-2   -4.064652409987134E-2   -1.519738308392428E-2   -4.023804217708191E-2    4.578352666131927E-1   -2.299468673914660E-1
 6.529328410350000E9     5.537773908607221E-1   -9.721074439409730E-2   -1.449719881562267E-2   -4.088983521625347E-2   -1.530447952862774E-2   -4.051486430112312E-2    4.573396591287953E-1   -2.307902969690448E-1
 6.529338451375000E9     5.535715090678994E-1   -9.792083026356901E-2   -1.460157508777833E-2   -4.103221355402837E-2   -1.556349276770271E-2   -4.088909295056351E-2    4.566875636459184E-1   -2.317305918621137E-1
 6.529348492400000E9     5.534050023838967E-1   -9.888080474867716E-2   -1.474150761684870E-2   -4.139279903449682E-2   -1.573228824032955E-2   -4.106988339531333E-2    4.561363179268664E-1   -2.328968290359117E-1
 6.529358533425000E9     5.531996838928133E-1   -9.972032679939996E-2   -1.486804695865535E-2   -4.157101749977574E-2   -1.590879780085202E-2   -4.131396685795845E-2    4.556298891152060E-1   -2.338536148652057E-1
 6.529368574450000E9     5.530164808380620E-1   -1.005251290682023E-1   -1.514268388081987E-2   -4.196215707543031E-2   -1.612472094054729E-2   -4.151491891215390E-2    4.548435598870720E-1   -2.349773003936076E-1
 6.529378615475000E9     5.528706485855367E-1   -1.015431288878731E-1   -1.540971690699938E-2   -4.200731405053006E-2   -1.636256800244970E-2   -4.176364034137828E-2    4.542264776721645E-1   -2.358587370281800E-1
 6.529388656500000E9     5.527375787282311E-1   -1.023744921418409E-1   -1.553742874186874E-2   -4.224768546356782E-2   -1.657990143925713E-2   -4.198837429289148E-2    4.537161107951112E-1   -2.369733813016140E-1
 6.529398697525000E9     5.525429556072430E-1   -1.033764722966081E-1   -1.575500059367026E-2   -4.258353797570660E-2   -1.673820284356858E-2   -4.229926927507364E-2    4.531978372234376E-1   -2.379894905938650E-1
 6.529408738550000E9     5.522617272107991E-1   -1.041378546358708E-1   -1.607215552666205E-2   -4.282774493155572E-2   -1.695867688684944E-2   -4.255925538126111E-2    4.525890429170762E-1   -2.389529237634998E-1
 6.529418779575000E9     5.520893290806768E-1   -1.050902172337918E-1   -1.632113833402951E-2   -4.303631314161105E-2   -1.724113085468767E-2   -4.285701731456974E-2    4.517764293388417E-1   -2.400860895213966E-1
 6.529428820600000E9     5.518479778871878E-1   -1.058746778292880E-1   -1.638047100722787E-2   -4.337169333053358E-2   -1.747253391240844E-2   -4.305043379787228E-2    4.510821766513399E-1   -2.410824270165611E-1
 6.529438861625000E9     5.515714621262033E-1   -1.067817246679060E-1   -1.646751492309487E-2   -4.359117141485808E-2   -1.774051013638879E-2   -4.336043996558684E-2    4.505159938472357E-1   -2.421435167970272E-1
 6.529448902650000E9     5.514981628886552E-1   -1.076508440209852E-1   -1.680495107530241E-2   -4.391966958402339E-2   -1.787304170720984E-2   -4.363356120601126E-2    4.499163297833380E-1   -2.432930533134768E-1
 6.529458943675000E9     5.512213539938060E-1   -1.085770792607440E-1   -1.696730637515219E-2   -4.420750729422894E-2   -1.805934899012484E-2   -4.396490694708368E-2    4.491850317188744E-1   -2.442180243421664E-1
 6.529468984700000E9     5.509426309966584E-1   -1.094389554682629E-1   -1.738742608402958E-2   -4.451672590426872E-2   -1.826547594022570E-2   -4.410325602065033E-2    4.484503577676938E-1   -2.454067981889424E-1
 6.529479025725000E9     5.508207115239028E-1   -1.104803615655433E-1   -1.741645021420322E-2   -4.481502833375180E-2   -1.867010073523080E-2   -4.451366662129348E-2    4.478922924853499E-1   -2.464222884387298E-1
 6.529489066750000E9     5.506553969000590E-1   -1.113042768420432E-1   -1.795323000530502E-2   -4.502611160323595E-2   -1.892175999670932E-2   -4.481451716555083E-2    4.472185952171210E-1   -2.474169699310234E-1
 6.529499107775000E9     5.503628276634596E-1   -1.121453594680098E-1   -1.805166587257770E-2   -4.541774717559069E-2   -1.906098522885667E-2   -4.502951079167755E-2    4.465520056778711E-1   -2.485028199475826E-1
 6.529509148800000E9     5.500631219125381E-1   -1.131728908410915E-1   -1.825435385090017E-2   -4.556741426187852E-2   -1.922294393856307E-2   -4.536277440135932E-2    4.457114540227726E-1   -2.497497982763309E-1
 6.529519189825000E9     5.498626166048292E-1   -1.138703322161035E-1   -1.856291884217729E-2   -4.598348808860065E-2   -1.968703242704059E-2   -4.550793312132746E-2    4.449626918454159E-1   -2.506572842228069E-1
 6.529529230850000E9     5.496542132532232E-1   -1.150203599285813E-1   -1.875377898608289E-2   -4.637403923870753E-2   -1.994643123157471E-2   -4.590478889076091E-2    4.442859915140766E-1   -2.518865103560513E-1
 6.529539271875000E9     5.493572280051180E-1   -1.157756913510682E-1   -1.903872087071056E-2   -4.676649098209291E-2   -2.018451616800599E-2   -4.624396421856010E-2    4.435178011396420E-1   -2.529178768492694E-1
 6.529549312900000E9     5.491859877422638E-1   -1.167287984677206E-1   -1.922029634876802E-2   -4.697798402708283E-2   -2.043062091262537E-2   -4.651279544358803E-2    4.428756782448937E-1   -2.541375942355847E-1
 6.529559353925000E9     5.488590960854116E-1   -1.177144420005511E-1   -1.961043306033200E-2   -4.727866233951619E-2   -2.076158814412421E-2   -4.679691027604953E-2    4.419313094376245E-1   -2.551596791717778E-1
 6.529569394950000E9     5.485793805758302E-1   -1.186724008615963E-1   -1.973671525409975E-2   -4.760819896518000E-2   -2.100193426424135E-2   -4.712622899315809E-2    4.411772873698637E-1   -2.561436845067813E-1
 6.529579435975000E9     5.484010875644719E-1   -1.195840984679970E-1   -2.013390773786722E-2   -4.783168566921014E-2   -2.125944836838096E-2   -4.751855572369682E-2    4.405452330679105E-1   -2.574443597430592E-1
 6.529589477000000E9     5.480699296298820E-1   -1.205189679492657E-1   -2.029050127275634E-2   -4.829722214968723E-2   -2.167025278553156E-2   -4.777062730062907E-2    4.397038400961751E-1   -2.586444538700604E-1
 6.529599518025000E9     5.478875094800443E-1   -1.214225206686212E-1   -2.060518617101630E-2   -4.856745736307515E-2   -2.193107631465325E-2   -4.804621918367025E-2    4.388335701399584E-1   -2.597460632164357E-1
 6.529609559050000E9     5.475971145426884E-1   -1.224046228729585E-1   -2.090236634309333E-2   -4.893250969867250E-2   -2.227827895561060E-2   -4.843652393084951E-2    4.379725306517950E-1   -2.607390045400140E-1
 6.529619600075000E9     5.472898694897973E-1   -1.232525025735512E-1   -2.114375703224507E-2   -4.920045767597091E-2   -2.247709002989768E-2   -4.882656838813004E-2    4.371258538155800E-1   -2.619058889067223E-1
 6.529629641100000E9     5.469715154063556E-1   -1.242080532017366E-1   -2.158134031810792E-2   -4.957908143353172E-2   -2.297065315812833E-2   -4.914390240967967E-2    4.362163717190081E-1   -2.632660224266934E-1
 6.529639682125000E9     5.468208344262990E-1   -1.251156499061339E-1   -2.184916858394127E-2   -4.983120153060282E-2   -2.309947113560113E-2   -4.939558905580765E-2    4.355175311061616E-1   -2.644090974679455E-1
 6.529649723150000E9     5.465368742461750E-1   -1.261706504565108E-1   -2.217808736522217E-2   -5.019472404005381E-2   -2.346923935031284E-2   -4.974950894426509E-2    4.345734682818838E-1   -2.655374713980766E-1
 6.529659764175000E9     5.462755997923828E-1   -1.269387032012718E-1   -2.254859818571569E-2   -5.057864653071655E-2   -2.381699445867243E-2   -5.026205008975232E-2    4.337397566268446E-1   -2.666839592958752E-1
 6.529669805200000E9     5.458868732388186E-1   -1.279990685532797E-1   -2.285956038386392E-2   -5.107584700610465E-2   -2.415635205941489E-2   -5.041563148815564E-2    4.327900870513751E-1   -2.678841589170694E-1
 6.529679846225000E9     5.456517409146652E-1   -1.289704862394545E-1   -2.329138359166189E-2   -5.127960066001812E-2   -2.453542085007849E-2   -5.088478899448276E-2    4.318916285873686E-1   -2.690576994633172E-1
 6.529689887250000E9     5.452797104777551E-1   -1.298875087069168E-1   -2.352247659197642E-2   -5.187628738748732E-2   -2.485227561220308E-2   -5.119820877853526E-2    4.308248788405203E-1   -2.701897094989861E-1
