#  HZ   S   RI   R     50.00 
! Rohde & Schwarz Vector Network Analyzer 
! Rohde-Schwarz,ZNB20-2Port,1311601062101988,3.16
! Created: UTC 3/21/2024, 12:57:16 AM
! freq[Hz]                re:S11                  im:S11                  re:S21                  im:S21                  re:S12                  im:S12                  re:S22                  im:S22
 6.528785863000000E9     5.605991527127377E-1   -5.184353536157629E-2   -7.437297146076689E-3   -3.098472108447670E-2   -8.150488941325470E-3   -3.093877335650596E-2    4.813504932403131E-1   -1.812902067067832E-1
 6.528795909375000E9     5.603027746937559E-1   -5.270309242120762E-2   -7.408420888767651E-3   -3.096538633669838E-2   -8.227190722898093E-3   -3.101540745188099E-2    4.810969533324564E-1   -1.822515717227559E-1
 6.528805955750000E9     5.603779751291142E-1   -5.351742027530330E-2   -7.658366195358326E-3   -3.135697745810004E-2   -8.301488823118168E-3   -3.117610993309262E-2    4.806383536229950E-1   -1.829640618518294E-1
 6.528816002125000E9     5.602029680012567E-1   -5.425179831265217E-2   -7.648247839013080E-3   -3.137660176726567E-2   -8.347372549913098E-3   -3.127911092167639E-2    4.802563177811435E-1   -1.838788847084128E-1
 6.528826048500000E9     5.601352335949493E-1   -5.517589018335867E-2   -7.766520794033396E-3   -3.151032820936771E-2   -8.503871103415059E-3   -3.149333524878423E-2    4.798878737707704E-1   -1.848022251269588E-1
 6.528836094875000E9     5.600634090840557E-1   -5.591229546143351E-2   -7.988375128151495E-3   -3.174418798669964E-2   -8.627158335486463E-3   -3.159165819795116E-2    4.796509023302706E-1   -1.857692742580850E-1
 6.528846141250000E9     5.599661616098361E-1   -5.662981341146441E-2   -7.923607342719354E-3   -3.178096703561881E-2   -8.775211613318876E-3   -3.173819316605347E-2    4.793254852558113E-1   -1.865669513249780E-1
 6.528856187625000E9     5.599182864701582E-1   -5.749671597344740E-2   -8.094928680548343E-3   -3.203906018207908E-2   -8.892210371273862E-3   -3.187986868229794E-2    4.787005485563912E-1   -1.873415603558621E-1
 6.528866234000000E9     5.598056101359614E-1   -5.838610882781028E-2   -8.285375915202153E-3   -3.217155273890610E-2   -9.003912984878513E-3   -3.198403736255886E-2    4.783014254401957E-1   -1.881449845217953E-1
 6.528876280375000E9     5.597044750360139E-1   -5.917302046646902E-2   -8.348639931277935E-3   -3.240968463959813E-2   -8.949141973493554E-3   -3.227175117747071E-2    4.780593740146762E-1   -1.891055510041989E-1
 6.528886326750000E9     5.597397917395954E-1   -5.990940650260033E-2   -8.402615349842553E-3   -3.245119634909304E-2   -9.074824906436007E-3   -3.232003774921249E-2    4.776125464011178E-1   -1.899307606925865E-1
 6.528896373125000E9     5.596029348817019E-1   -6.082314291505442E-2   -8.415070863059697E-3   -3.260666931277513E-2   -9.187933658347124E-3   -3.236165177592433E-2    4.773498275100979E-1   -1.907009015242650E-1
 6.528906419500000E9     5.594405652662531E-1   -6.161707949487717E-2   -8.753100421758229E-3   -3.262888749497273E-2   -9.296893598526926E-3   -3.264266916905670E-2    4.770055179801766E-1   -1.916612273105077E-1
 6.528916465875000E9     5.592176053559688E-1   -6.239556517675158E-2   -8.674902586773309E-3   -3.289191268791827E-2   -9.479748723179157E-3   -3.274160789830343E-2    4.765307047643851E-1   -1.926188625302261E-1
 6.528926512250000E9     5.592541320197830E-1   -6.336632484919076E-2   -8.789400017675931E-3   -3.296830282278155E-2   -9.499200349458307E-3   -3.293050141830953E-2    4.760284658220770E-1   -1.934213755592952E-1
 6.528936558625000E9     5.591246204806422E-1   -6.415626580963216E-2   -9.000242447255696E-3   -3.331400317382919E-2   -9.641899545539104E-3   -3.314274145982728E-2    4.758867487396736E-1   -1.943360801631880E-1
 6.528946605000000E9     5.589684678229172E-1   -6.493315063305580E-2   -8.985927674460941E-3   -3.334747079788693E-2   -9.778610678612368E-3   -3.312827614095560E-2    4.753744328879589E-1   -1.951282700933494E-1
 6.528956651375000E9     5.589876272204979E-1   -6.571033384616425E-2   -9.134387816730096E-3   -3.356775137304455E-2   -9.863170414711200E-3   -3.333925997666157E-2    4.748300895174932E-1   -1.960529543721786E-1
 6.528966697750000E9     5.589289357583112E-1   -6.659229157958435E-2   -9.368779714021653E-3   -3.375524992197416E-2   -1.000424035427838E-2   -3.355240192133950E-2    4.746051012374710E-1   -1.968633927978800E-1
 6.528976744125000E9     5.588057945238271E-1   -6.734362542186791E-2   -9.302615574335321E-3   -3.381297469838087E-2   -1.015929091322832E-2   -3.363756227527283E-2    4.743008812611177E-1   -1.978091932790114E-1
 6.528986790500000E9     5.587211177632017E-1   -6.811673913984369E-2   -9.406477147365930E-3   -3.403367798202167E-2   -1.028274222853717E-2   -3.389287064073028E-2    4.737207067484250E-1   -1.986299136326884E-1
 6.528996836875000E9     5.586742249722306E-1   -6.905152798023355E-2   -9.669586556048645E-3   -3.425958109470451E-2   -1.030023009232060E-2   -3.413916078922821E-2    4.731885010365970E-1   -1.996723450677805E-1
 6.529006883250000E9     5.584409666776131E-1   -6.990457828303111E-2   -9.702735335517928E-3   -3.448202981246645E-2   -1.052839008578423E-2   -3.411158301334583E-2    4.729156125874400E-1   -2.005612167849491E-1
 6.529016929625000E9     5.584164680574250E-1   -7.073691671458207E-2   -9.786326108752935E-3   -3.463918028729656E-2   -1.057276741275987E-2   -3.432653798222527E-2    4.724362379390324E-1   -2.013721512916403E-1
 6.529026976000000E9     5.582822376019564E-1   -7.141049959963540E-2   -9.946521971875550E-3   -3.471965980895076E-2   -1.077777331832435E-2   -3.461425677531536E-2    4.722121653648581E-1   -2.023720037163208E-1
 6.529037022375000E9     5.580342264284553E-1   -7.239026817532100E-2   -1.005449179405742E-2   -3.481236327447952E-2   -1.076548668670280E-2   -3.467896071085567E-2    4.716921589407853E-1   -2.033246873690291E-1
 6.529047068750000E9     5.579731130136368E-1   -7.311404901747783E-2   -1.023712976775693E-2   -3.508940620204998E-2   -1.083528476047389E-2   -3.490804537177883E-2    4.712247251652519E-1   -2.041464969729377E-1
 6.529057115125000E9     5.578900254801475E-1   -7.400061233578525E-2   -1.031753133392484E-2   -3.518817678813528E-2   -1.107473637765913E-2   -3.512509542705669E-2    4.707364744365192E-1   -2.050788106372360E-1
 6.529067161500000E9     5.576769362592177E-1   -7.488041826952334E-2   -1.045593768853086E-2   -3.532251331682919E-2   -1.119808935494504E-2   -3.523258878749069E-2    4.703906137921345E-1   -2.060352832683986E-1
 6.529077207875000E9     5.575895575530043E-1   -7.579936481578757E-2   -1.062447005417349E-2   -3.554754917104084E-2   -1.139987884944633E-2   -3.544619619404207E-2    4.699227968529661E-1   -2.068061858667004E-1
 6.529087254250000E9     5.574583903009827E-1   -7.659023037014338E-2   -1.066409127348589E-2   -3.585936817458159E-2   -1.153215209074044E-2   -3.563901365290353E-2    4.694886135966839E-1   -2.077646095861373E-1
 6.529097300625000E9     5.572456782040045E-1   -7.740622714856661E-2   -1.084956573541380E-2   -3.604028148116818E-2   -1.158048550303222E-2   -3.576539644963651E-2    4.690402806839657E-1   -2.087789370611796E-1
 6.529107347000000E9     5.571283452079648E-1   -7.823145866917953E-2   -1.102940736849395E-2   -3.611371700956618E-2   -1.188812678978986E-2   -3.594709219598027E-2    4.685622962179263E-1   -2.096892985751596E-1
 6.529117393375000E9     5.570234135186964E-1   -7.910090967325181E-2   -1.102975001830954E-2   -3.646887716751113E-2   -1.192272604328098E-2   -3.623501867040985E-2    4.680184344561067E-1   -2.106022236207077E-1
 6.529127439750000E9     5.568806457418120E-1   -7.988112128697733E-2   -1.133936510388277E-2   -3.649988836851129E-2   -1.204259648296101E-2   -3.637276091972489E-2    4.676748500213167E-1   -2.114405500220149E-1
 6.529137486125000E9     5.568052737402008E-1   -8.077843847694047E-2   -1.127505394050136E-2   -3.675402587821121E-2   -1.221877470076103E-2   -3.647414309333196E-2    4.672053346039246E-1   -2.124554047698064E-1
 6.529147532500000E9     5.567622506967641E-1   -8.164331381794990E-2   -1.150825829386862E-2   -3.691037149682621E-2   -1.234009960796933E-2   -3.669517011610194E-2    4.665799351464918E-1   -2.133061467123903E-1
 6.529157578875000E9     5.565008193841596E-1   -8.229421787283622E-2   -1.161099298872875E-2   -3.713019671006541E-2   -1.252009419620768E-2   -3.684001023823671E-2    4.663031809947008E-1   -2.141417500071560E-1
 6.529167625250000E9     5.563098292350024E-1   -8.329176472618510E-2   -1.195743919524522E-2   -3.732387952360924E-2   -1.281119948942829E-2   -3.709952193990469E-2    4.658020882075884E-1   -2.153373568682156E-1
 6.529177671625000E9     5.561044480331243E-1   -8.414878887034349E-2   -1.200356716265289E-2   -3.748335327345682E-2   -1.285143662429406E-2   -3.736140759770731E-2    4.651244936359127E-1   -2.159784186922165E-1
 6.529187718000000E9     5.561148333121863E-1   -8.492729416124273E-2   -1.207405365158852E-2   -3.767714427579207E-2   -1.292835385343691E-2   -3.746786934307112E-2    4.647276456617123E-1   -2.172660619525274E-1
 6.529197764375000E9     5.557784897312287E-1   -8.583789382854314E-2   -1.221343107744308E-2   -3.788271373727064E-2   -1.317644715233347E-2   -3.770897580388817E-2    4.640699566154368E-1   -2.179840660535264E-1
 6.529207810750000E9     5.556324586103357E-1   -8.685775005589601E-2   -1.241871309955188E-2   -3.816038450657661E-2   -1.330337406668382E-2   -3.787774831509920E-2    4.637221043061487E-1   -2.190819362565513E-1
 6.529217857125000E9     5.555226398031703E-1   -8.757864273655290E-2   -1.252787357315314E-2   -3.846504684415986E-2   -1.341515837515591E-2   -3.812832755687125E-2    4.631525728282345E-1   -2.201160359768207E-1
 6.529227903500000E9     5.553960502520856E-1   -8.847270816981559E-2   -1.270309007105025E-2   -3.868930373971661E-2   -1.359809988922714E-2   -3.824012697283315E-2    4.626804604480810E-1   -2.208940862877758E-1
 6.529237949875000E9     5.553072772782298E-1   -8.928155113594446E-2   -1.283347167018106E-2   -3.864995836558013E-2   -1.366760776904075E-2   -3.849961164890603E-2    4.621733045339244E-1   -2.219416876387951E-1
 6.529247996250000E9     5.550723612703756E-1   -9.005719902483296E-2   -1.288875434346430E-2   -3.896923632335045E-2   -1.390285911181245E-2   -3.870248351875057E-2    4.617220880945750E-1   -2.227634778527933E-1
 6.529258042625000E9     5.549535485094569E-1   -9.099893919184654E-2   -1.321672678497134E-2   -3.915469267131955E-2   -1.408582708135994E-2   -3.890475153938091E-2    4.612133189309662E-1   -2.238490105975089E-1
 6.529268089000000E9     5.547538947685283E-1   -9.184970270543975E-2   -1.336950369489286E-2   -3.935096905043153E-2   -1.426099818285572E-2   -3.909539354526588E-2    4.606311913726386E-1   -2.249456982868613E-1
 6.529278135375000E9     5.546446673825245E-1   -9.269596505294393E-2   -1.349554645189648E-2   -3.958346287106956E-2   -1.437673467209098E-2   -3.936849190789781E-2    4.602590037151167E-1   -2.259227374963206E-1
 6.529288181750000E9     5.544381886810038E-1   -9.361400705909523E-2   -1.359886201155858E-2   -3.998930204297724E-2   -1.456325284840924E-2   -3.957189155881891E-2    4.594903900879414E-1   -2.267675023716017E-1
 6.529298228125000E9     5.542535675593337E-1   -9.448720154508614E-2   -1.375328341128264E-2   -4.018569181462340E-2   -1.480581252718630E-2   -3.975232195935085E-2    4.590108286730924E-1   -2.278222939241953E-1
 6.529308274500000E9     5.541372004103324E-1   -9.540251187467237E-2   -1.405712292362907E-2   -4.045488845587814E-2   -1.488324589357817E-2   -4.016270739623450E-2    4.584158128231627E-1   -2.288939660464228E-1
 6.529318320875000E9     5.539268578149202E-1   -9.614339772055830E-2   -1.420060011780867E-2   -4.046095330705930E-2   -1.514772205920357E-2   -4.024679021688429E-2    4.578545877894366E-1   -2.297268270114588E-1
 6.529328367250000E9     5.536558320324220E-1   -9.711309266568909E-2   -1.450260135414634E-2   -4.077710382046506E-2   -1.538123894041473E-2   -4.056411282603224E-2    4.571100995134180E-1   -2.308450360034968E-1
 6.529338413625000E9     5.534772069840472E-1   -9.792856408946858E-2   -1.446414342167322E-2   -4.107529284366349E-2   -1.553895381938306E-2   -4.076564461754858E-2    4.565244503716521E-1   -2.317391645558976E-1
 6.529348460000000E9     5.534030256294388E-1   -9.888799952161981E-2   -1.469173784900473E-2   -4.128149542895526E-2   -1.578497832414997E-2   -4.103225379320451E-2    4.559952676931158E-1   -2.327810004164415E-1
 6.529358506375000E9     5.532487993921186E-1   -9.970703847547097E-2   -1.490053620864101E-2   -4.154605705774850E-2   -1.596993558146129E-2   -4.126202154828175E-2    4.554937128959504E-1   -2.338319143187475E-1
 6.529368552750000E9     5.529684951578068E-1   -1.004889256722599E-1   -1.513197323087050E-2   -4.174616453752830E-2   -1.610532118077465E-2   -4.154895817942069E-2    4.550579824330738E-1   -2.350167836747622E-1
 6.529378599125000E9     5.528961233221583E-1   -1.014646948203233E-1   -1.541785777419852E-2   -4.218044675426020E-2   -1.634348519612104E-2   -4.168798969618561E-2    4.544559139018655E-1   -2.358114520703168E-1
 6.529388645500000E9     5.526949427039697E-1   -1.023314218485765E-1   -1.532906036044272E-2   -4.230949557270663E-2   -1.653071892294664E-2   -4.199905387658217E-2    4.537568858089516E-1   -2.367948899386251E-1
 6.529398691875000E9     5.524783580504207E-1   -1.032083379099748E-1   -1.570838382105770E-2   -4.256465793389382E-2   -1.677323812620419E-2   -4.217663758577964E-2    4.530516095237799E-1   -2.378819684460955E-1
 6.529408738250000E9     5.522333079168820E-1   -1.040686512054286E-1   -1.605623822631783E-2   -4.286147135020774E-2   -1.701072632999920E-2   -4.246368636518676E-2    4.524117853508712E-1   -2.388525684823039E-1
 6.529418784625000E9     5.520517935265579E-1   -1.050689710491173E-1   -1.616841256250859E-2   -4.315976646703688E-2   -1.723206165025924E-2   -4.284006604278816E-2    4.518066396458529E-1   -2.398856821886175E-1
 6.529428831000000E9     5.518500970684210E-1   -1.058988122444813E-1   -1.646831929188892E-2   -4.337553254005438E-2   -1.746123132351850E-2   -4.300160859594308E-2    4.510678192163903E-1   -2.408655855206745E-1
 6.529438877375000E9     5.516486092223016E-1   -1.067899577362136E-1   -1.662308885380817E-2   -4.354679674076416E-2   -1.762046931813142E-2   -4.331173132926817E-2    4.504568499718052E-1   -2.420882896833831E-1
 6.529448923750000E9     5.513882710708444E-1   -1.077049485973129E-1   -1.676034214297128E-2   -4.384963970168982E-2   -1.788611137852954E-2   -4.362804194227524E-2    4.499996177921046E-1   -2.430906424170722E-1
 6.529458970125000E9     5.511754662952640E-1   -1.086411176400308E-1   -1.687446507514089E-2   -4.419487101999523E-2   -1.828097102084812E-2   -4.392599044865866E-2    4.491521317686847E-1   -2.441161764277828E-1
 6.529469016500000E9     5.510078368093217E-1   -1.094353487339416E-1   -1.716964680856132E-2   -4.443141751429137E-2   -1.838486986081877E-2   -4.410243843032066E-2    4.485694335128880E-1   -2.452196567122579E-1
 6.529479062875000E9     5.508064418028673E-1   -1.102621511956573E-1   -1.755216117934571E-2   -4.463391462761635E-2   -1.867962741133020E-2   -4.439403121445500E-2    4.477570217974934E-1   -2.463093402743028E-1
 6.529489109250000E9     5.505862817925161E-1   -1.113071365933905E-1   -1.761961319632575E-2   -4.506659974470800E-2   -1.882414789540534E-2   -4.465855774335543E-2    4.470739522725482E-1   -2.474537542858354E-1
 6.529499155625000E9     5.503773979069027E-1   -1.122338609455736E-1   -1.791414407530457E-2   -4.546171965421283E-2   -1.915262763360508E-2   -4.494332958761452E-2    4.463227551586298E-1   -2.484110140891120E-1
 6.529509202000000E9     5.500784697141661E-1   -1.130598737105801E-1   -1.820568861945083E-2   -4.555925608939580E-2   -1.936673508424932E-2   -4.525485279584032E-2    4.458028378475702E-1   -2.494641896024057E-1
 6.529519248375000E9     5.498303932936959E-1   -1.140149210595257E-1   -1.853602349568748E-2   -4.594625286716324E-2   -1.953172681522901E-2   -4.559820843852010E-2    4.448588840193571E-1   -2.506060751711980E-1
 6.529529294750000E9     5.495923339175193E-1   -1.147966769229717E-1   -1.871623317409020E-2   -4.620257625686466E-2   -1.992144184596301E-2   -4.570374799218487E-2    4.442415052793109E-1   -2.517527453741413E-1
 6.529539341125000E9     5.494209890452194E-1   -1.157121678310206E-1   -1.880113797931724E-2   -4.661466771502734E-2   -2.005790517018897E-2   -4.613695689815880E-2    4.434987562447441E-1   -2.528082957794633E-1
 6.529549387500000E9     5.491914203190178E-1   -1.167234461534354E-1   -1.920484302980640E-2   -4.688619034807453E-2   -2.027521021268918E-2   -4.650157788328860E-2    4.427536342619393E-1   -2.538328557069027E-1
 6.529559433875000E9     5.489062167186554E-1   -1.175189860996690E-1   -1.955820871674292E-2   -4.717561892614750E-2   -2.068090012186070E-2   -4.669801137463983E-2    4.420418986964420E-1   -2.550339696030381E-1
 6.529569480250000E9     5.486787086545897E-1   -1.186055313112202E-1   -1.983795736422577E-2   -4.752255323590631E-2   -2.103978630360497E-2   -4.710341173380099E-2    4.412476544785658E-1   -2.561982575650145E-1
 6.529579526625000E9     5.483893528078040E-1   -1.194902072552665E-1   -2.010004181423166E-2   -4.780068404083529E-2   -2.124647227409480E-2   -4.747038567350553E-2    4.403938739716570E-1   -2.574421061221215E-1
 6.529589573000000E9     5.480613340726505E-1   -1.204189018397319E-1   -2.043429756207994E-2   -4.822878846574839E-2   -2.157917586254824E-2   -4.771456140719433E-2    4.396014117511655E-1   -2.584587469736715E-1
 6.529599619375000E9     5.477242066893178E-1   -1.213723216016262E-1   -2.061895554380422E-2   -4.840221019792595E-2   -2.178795159616750E-2   -4.803946603234868E-2    4.388052003526540E-1   -2.596894000052921E-1
 6.529609665750000E9     5.475532649797529E-1   -1.223146616517230E-1   -2.097115046362191E-2   -4.876034281340117E-2   -2.218678547034990E-2   -4.843680481280860E-2    4.380489863926874E-1   -2.607925677840630E-1
 6.529619712125000E9     5.472377361525682E-1   -1.232181587431780E-1   -2.122543392238069E-2   -4.924431029013751E-2   -2.240436482830736E-2   -4.869239137739304E-2    4.371284394285229E-1   -2.619154167994778E-1
 6.529629758500000E9     5.470256230667762E-1   -1.241632773688149E-1   -2.152806559375207E-2   -4.960290330048256E-2   -2.278647773900401E-2   -4.902206503821405E-2    4.363285459480897E-1   -2.630306665223945E-1
 6.529639804875000E9     5.467105621006851E-1   -1.251223696603671E-1   -2.165160348187241E-2   -4.981227757136003E-2   -2.311616217821455E-2   -4.944355343747335E-2    4.354676125170071E-1   -2.641832100927750E-1
 6.529649851250000E9     5.464052411444734E-1   -1.260698084900369E-1   -2.209803291081659E-2   -5.013383459851589E-2   -2.349873938146724E-2   -4.975833170666003E-2    4.345652693853213E-1   -2.655321089374267E-1
 6.529659897625000E9     5.462033188494420E-1   -1.269879847809124E-1   -2.247416407468479E-2   -5.068285861103115E-2   -2.374232986712658E-2   -5.011642834076348E-2    4.337356487972470E-1   -2.667051319156947E-1
 6.529669944000000E9     5.459417227978890E-1   -1.280549438388316E-1   -2.281062303350936E-2   -5.103531261201153E-2   -2.418309765892875E-2   -5.054091356874648E-2    4.328491840876585E-1   -2.676571946020149E-1
 6.529679990375000E9     5.456580643126736E-1   -1.289615650797319E-1   -2.316060675575059E-2   -5.133972513006493E-2   -2.449688053776146E-2   -5.084737193249404E-2    4.319026026926033E-1   -2.689492659998605E-1
 6.529690036750000E9     5.452588453709202E-1   -1.298369090190450E-1   -2.348732975394911E-2   -5.174014481616314E-2   -2.479047212962969E-2   -5.122176597715870E-2    4.307864845591673E-1   -2.701440314118723E-1
