#  HZ   S   RI   R     50.00 
! Rohde & Schwarz Vector Network Analyzer 
! Rohde-Schwarz,ZNB20-2Port,1311601062101988,3.16
! Created: UTC 3/21/2024, 12:57:18 AM
! freq[Hz]                re:S11                  im:S11                  re:S21                  im:S21                  re:S12                  im:S12                  re:S22                  im:S22
 6.528787031000000E9     5.604872352690962E-1   -5.196373418134789E-2   -7.495535025619582E-3   -3.089074408583672E-2   -8.109199639204203E-3   -3.094782910380271E-2    4.813572933949264E-1   -1.814352300339398E-1
 6.528797076425000E9     5.605251746099517E-1   -5.268738947213609E-2   -7.570303529881525E-3   -3.113487785715963E-2   -8.236228411796586E-3   -3.096094427816125E-2    4.808863713041475E-1   -1.822116332762166E-1
 6.528807121850000E9     5.603390292612238E-1   -5.357755204174397E-2   -7.655197641275892E-3   -3.143865917286251E-2   -8.304161104878655E-3   -3.118165305901599E-2    4.804998069239470E-1   -1.830632491503628E-1
 6.528817167275000E9     5.602915634728660E-1   -5.431464545324000E-2   -7.644361155165942E-3   -3.146684670289655E-2   -8.470959825478332E-3   -3.142121620241795E-2    4.802267927934876E-1   -1.841797423200872E-1
 6.528827212700000E9     5.601585690659895E-1   -5.521499439924835E-2   -7.777136691546163E-3   -3.149811696303351E-2   -8.559811317955367E-3   -3.148468859111413E-2    4.798585438157458E-1   -1.848895584022356E-1
 6.528837258125000E9     5.599762899682638E-1   -5.605635754591966E-2   -8.041185469026400E-3   -3.171258490192291E-2   -8.668937788675096E-3   -3.168079522191002E-2    4.796452644814629E-1   -1.857925703856120E-1
 6.528847303550000E9     5.600921683032646E-1   -5.680538651093616E-2   -8.070338333314013E-3   -3.185288846469187E-2   -8.779982170866523E-3   -3.163700752794928E-2    4.792001356713755E-1   -1.865379258700250E-1
 6.528857348975000E9     5.599935898429786E-1   -5.770252933741452E-2   -8.096182685974257E-3   -3.217077186897512E-2   -8.765996979594534E-3   -3.189189782314606E-2    4.787851782764663E-1   -1.873426790191844E-1
 6.528867394400000E9     5.598179991487590E-1   -5.839400434984341E-2   -8.188003850674520E-3   -3.216991112489147E-2   -8.904870349635998E-3   -3.208748577818148E-2    4.784528542625520E-1   -1.882149486770169E-1
 6.528877439825000E9     5.596544790194692E-1   -5.931558890792592E-2   -8.207638419792541E-3   -3.235540956498744E-2   -9.059707068954983E-3   -3.216691760446250E-2    4.780382859285219E-1   -1.890858908150497E-1
 6.528887485250000E9     5.596766159215670E-1   -6.011706224282119E-2   -8.381281793016664E-3   -3.248871300351978E-2   -9.130726064168244E-3   -3.234537849508232E-2    4.775910094298006E-1   -1.900393908219349E-1
 6.528897530675000E9     5.595360915376157E-1   -6.090743394480345E-2   -8.520171932410173E-3   -3.269875786677109E-2   -9.285587557851341E-3   -3.254479252145825E-2    4.773116198634991E-1   -1.908587101599130E-1
 6.528907576100000E9     5.595340541667968E-1   -6.174263992187199E-2   -8.693934946160008E-3   -3.282796356846790E-2   -9.386698663984314E-3   -3.259906281015024E-2    4.768473507012892E-1   -1.917237069513162E-1
 6.528917621525000E9     5.593825787307959E-1   -6.259824906374362E-2   -8.706816669473469E-3   -3.290434823805753E-2   -9.583939963929271E-3   -3.273925390873794E-2    4.766165823193474E-1   -1.926317714504328E-1
 6.528927666950000E9     5.591431536322305E-1   -6.333702129369422E-2   -8.870203372555631E-3   -3.304276750598625E-2   -9.596930731903154E-3   -3.289278054335551E-2    4.761249672723047E-1   -1.934782841232105E-1
 6.528937712375000E9     5.591485354884078E-1   -6.415600725402681E-2   -8.930723040078159E-3   -3.319114993326328E-2   -9.669392726427944E-3   -3.315349646070410E-2    4.755665471809521E-1   -1.943307356914546E-1
 6.528947757800000E9     5.591808899289753E-1   -6.505277347092507E-2   -9.122270502062714E-3   -3.329099495459476E-2   -9.797123118220208E-3   -3.332472892824598E-2    4.751583852275748E-1   -1.952757514551181E-1
 6.528957803225000E9     5.589956238187377E-1   -6.589708677725532E-2   -9.150607192951526E-3   -3.350014144144005E-2   -9.853455255030863E-3   -3.337529908857435E-2    4.750841593357832E-1   -1.962065011197005E-1
 6.528967848650000E9     5.587877340984232E-1   -6.664223513928090E-2   -9.304911164611573E-3   -3.377220270493667E-2   -9.953059931980521E-3   -3.349587654921101E-2    4.745624516968177E-1   -1.969452052069467E-1
 6.528977894075000E9     5.586352220828392E-1   -6.739582533138329E-2   -9.470096646050497E-3   -3.390020468933660E-2   -1.015687499299097E-2   -3.379055366818148E-2    4.739953179135891E-1   -1.979053971997665E-1
 6.528987939500000E9     5.585414653239962E-1   -6.836311296229602E-2   -9.445826188298527E-3   -3.402010435406692E-2   -1.022385214093637E-2   -3.391614905085092E-2    4.737405252870055E-1   -1.986924383277199E-1
 6.528997984925000E9     5.584816891378981E-1   -6.920549080225452E-2   -9.688305751088059E-3   -3.414242680797777E-2   -1.031113404493033E-2   -3.400426269483473E-2    4.733098775236180E-1   -1.995845464163981E-1
 6.529008030350000E9     5.585074730816746E-1   -6.991694226711695E-2   -9.774101388982786E-3   -3.433305656125950E-2   -1.057347330521610E-2   -3.429308511927693E-2    4.728987339096261E-1   -2.005269926464254E-1
 6.529018075775000E9     5.583002300556803E-1   -7.079210808334253E-2   -9.827670368565576E-3   -3.462177019886309E-2   -1.068356211854544E-2   -3.443058701194512E-2    4.724645766853927E-1   -2.015441810414867E-1
 6.529028121200000E9     5.581072002605461E-1   -7.148468517951198E-2   -9.853478803308080E-3   -3.460030421604213E-2   -1.071904141925640E-2   -3.454044716883345E-2    4.719364281713965E-1   -2.024236979841136E-1
 6.529038166625000E9     5.580655506436999E-1   -7.241615642868342E-2   -1.005758793082344E-2   -3.505750401215984E-2   -1.092662645408303E-2   -3.457284895790127E-2    4.716507141872552E-1   -2.032377307673112E-1
 6.529048212050000E9     5.579538924288742E-1   -7.338584698598173E-2   -1.026380068829106E-2   -3.510833889535486E-2   -1.103103357993700E-2   -3.495023772848239E-2    4.711364463590758E-1   -2.044309490441101E-1
 6.529058257475000E9     5.577533444995061E-1   -7.414916477591575E-2   -1.029707330908401E-2   -3.536268948481318E-2   -1.115778791571196E-2   -3.511884372743070E-2    4.707488676029558E-1   -2.051429976304387E-1
 6.529068302900000E9     5.576673468714589E-1   -7.491439846716223E-2   -1.051553595796005E-2   -3.533992508424625E-2   -1.123238168911003E-2   -3.536872772383861E-2    4.702678859993607E-1   -2.062173191196705E-1
 6.529078348325000E9     5.575482703666894E-1   -7.564175068079043E-2   -1.054029397239631E-2   -3.560246933411092E-2   -1.148872080689485E-2   -3.540442515061446E-2    4.698607263220084E-1   -2.070422819773949E-1
 6.529088393750000E9     5.573945186095681E-1   -7.658919164537566E-2   -1.064449210682388E-2   -3.587560466607011E-2   -1.157687409316297E-2   -3.550209368900033E-2    4.695483820283085E-1   -2.078938813837202E-1
 6.529098439175000E9     5.573520767722487E-1   -7.741504724856929E-2   -1.084045241539041E-2   -3.591864172773488E-2   -1.168243287691920E-2   -3.579861146560650E-2    4.691272678031189E-1   -2.088446492388132E-1
 6.529108484600000E9     5.571816614768532E-1   -7.825386037934945E-2   -1.110402220653976E-2   -3.609388984423683E-2   -1.173522080608057E-2   -3.599869008859024E-2    4.684448842325051E-1   -2.097292429771833E-1
 6.529118530025000E9     5.569748403259798E-1   -7.918355216619138E-2   -1.108955543519356E-2   -3.639683043562067E-2   -1.189951567456879E-2   -3.611289540910458E-2    4.681763273094242E-1   -2.105867625539280E-1
 6.529128575450000E9     5.569274418354077E-1   -7.997404292051921E-2   -1.114133092083085E-2   -3.649314345761992E-2   -1.212963876864815E-2   -3.627399833968615E-2    4.676098607122562E-1   -2.116329402346422E-1
 6.529138620875000E9     5.567618004840189E-1   -8.081353797078145E-2   -1.138266160510707E-2   -3.671020347396237E-2   -1.228892101199011E-2   -3.639979436958855E-2    4.670586236149710E-1   -2.125430756370300E-1
 6.529148666300000E9     5.564939778977823E-1   -8.176006605468557E-2   -1.152150952261979E-2   -3.701903895975718E-2   -1.238765782879014E-2   -3.664237394553053E-2    4.667402517346430E-1   -2.133566223863603E-1
 6.529158711725000E9     5.564170710553878E-1   -8.247387508943210E-2   -1.159183607749179E-2   -3.698659522096244E-2   -1.255322091816398E-2   -3.690007081938502E-2    4.661225779689225E-1   -2.144772413857671E-1
 6.529168757150000E9     5.563298644948723E-1   -8.333072730545184E-2   -1.171074382557935E-2   -3.731887328850095E-2   -1.268008285451545E-2   -3.699163171832404E-2    4.656117752840300E-1   -2.153120403122897E-1
 6.529178802575000E9     5.561185576684298E-1   -8.421620839023367E-2   -1.184966361690040E-2   -3.763991303692145E-2   -1.279089296685020E-2   -3.731915327192772E-2    4.651139424173103E-1   -2.162719771432753E-1
 6.529188848000000E9     5.560267298056548E-1   -8.514641877831107E-2   -1.211337118639884E-2   -3.785808181659679E-2   -1.293289569595253E-2   -3.741894593395691E-2    4.647472378935295E-1   -2.170876322802292E-1
 6.529198893425000E9     5.559066318623140E-1   -8.598221293884950E-2   -1.217389118086042E-2   -3.784783001916242E-2   -1.312234876425249E-2   -3.769016006449859E-2    4.642531664071957E-1   -2.180057305473189E-1
 6.529208938850000E9     5.558442413028066E-1   -8.682721342859033E-2   -1.238903626211188E-2   -3.823395157144990E-2   -1.329199354525649E-2   -3.795609229335786E-2    4.636765644952659E-1   -2.190978023045649E-1
 6.529218984275000E9     5.556732652846709E-1   -8.766360831814779E-2   -1.255499548881726E-2   -3.839819497601956E-2   -1.335798356013728E-2   -3.805751786024952E-2    4.631755476694223E-1   -2.201969943010089E-1
 6.529229029700000E9     5.554751968252488E-1   -8.846811022442146E-2   -1.289656168482986E-2   -3.868030321499285E-2   -1.363084083433375E-2   -3.834961220477678E-2    4.627139275869553E-1   -2.209173062582184E-1
 6.529239075125000E9     5.552791497429569E-1   -8.937473367507692E-2   -1.291175439955097E-2   -3.872142479972644E-2   -1.383378292763242E-2   -3.847655903840017E-2    4.620461938208797E-1   -2.220223769814126E-1
 6.529249120550000E9     5.551117065951433E-1   -9.027643053271074E-2   -1.295214815809784E-2   -3.907226839748614E-2   -1.392477918356914E-2   -3.879359373360706E-2    4.615938526936256E-1   -2.229436108675288E-1
 6.529259165975000E9     5.550153779268701E-1   -9.113875249085145E-2   -1.313146687946933E-2   -3.918915199724835E-2   -1.410630344922914E-2   -3.896813694573249E-2    4.611194703951820E-1   -2.240451789852003E-1
 6.529269211400000E9     5.548072500075026E-1   -9.189014838625338E-2   -1.345706111935639E-2   -3.949845043667807E-2   -1.419978867097359E-2   -3.919134982346559E-2    4.606815421973882E-1   -2.248205864712847E-1
 6.529279256825000E9     5.546472167941425E-1   -9.287362415493647E-2   -1.352434381290065E-2   -3.970643569366022E-2   -1.443343062312225E-2   -3.943702870488602E-2    4.600688918673536E-1   -2.260365944469516E-1
 6.529289302250000E9     5.545353068457469E-1   -9.371466450640406E-2   -1.370961499952405E-2   -3.987578428440509E-2   -1.463817383554824E-2   -3.958293968453025E-2    4.594587603348639E-1   -2.267737830348921E-1
 6.529299347675000E9     5.542588248522210E-1   -9.454607417904691E-2   -1.382419370433197E-2   -4.009330342817438E-2   -1.475548192531165E-2   -3.990860053268228E-2    4.588365335141405E-1   -2.278314701659724E-1
 6.529309393100000E9     5.540334747979114E-1   -9.541833879133589E-2   -1.386092838114883E-2   -4.031339790982301E-2   -1.495450576583254E-2   -4.004582386350043E-2    4.583750427891858E-1   -2.288504160927095E-1
 6.529319438525000E9     5.539940298211646E-1   -9.632313594295189E-2   -1.433364271944484E-2   -4.068956507318777E-2   -1.518752058815515E-2   -4.035491579780137E-2    4.577989405829709E-1   -2.299105026509933E-1
 6.529329483950000E9     5.538775243366690E-1   -9.715495436045854E-2   -1.447951472377849E-2   -4.072253315653040E-2   -1.546112502585725E-2   -4.055161945080350E-2    4.572543961519905E-1   -2.308350054660933E-1
 6.529339529375000E9     5.535702633082860E-1   -9.796239120217555E-2   -1.453752091453114E-2   -4.106860650862059E-2   -1.554040420012368E-2   -4.080061019999116E-2    4.566123303245512E-1   -2.317548676060140E-1
 6.529349574800000E9     5.534876916901076E-1   -9.893919885843927E-2   -1.466654160170736E-2   -4.141679603548638E-2   -1.576672224449076E-2   -4.109220091867823E-2    4.561471122247073E-1   -2.328562643203991E-1
 6.529359620225000E9     5.531690045205059E-1   -9.977160348122414E-2   -1.489962689546804E-2   -4.148641515430994E-2   -1.593369852323701E-2   -4.131822756000066E-2    4.554511084363476E-1   -2.339578801228564E-1
 6.529369665650000E9     5.530249105318938E-1   -1.006214778657737E-1   -1.514534365598055E-2   -4.179880632441871E-2   -1.612575566961853E-2   -4.150401441323825E-2    4.548461164925536E-1   -2.348794611800271E-1
 6.529379711075000E9     5.527808917106667E-1   -1.016296897564182E-1   -1.535942309731458E-2   -4.211332820376350E-2   -1.636863285684322E-2   -4.173670025206624E-2    4.544040821878619E-1   -2.359026348445116E-1
 6.529389756500000E9     5.526243444356331E-1   -1.023772287110883E-1   -1.550887331992226E-2   -4.229816609033101E-2   -1.649317147343145E-2   -4.205679851444190E-2    4.537971708181350E-1   -2.369206867265273E-1
 6.529399801925000E9     5.524456254015166E-1   -1.032344199919994E-1   -1.568989612575275E-2   -4.251321592842475E-2   -1.673284917528354E-2   -4.230889974108980E-2    4.530854273673130E-1   -2.379475906709946E-1
 6.529409847350000E9     5.522190088269839E-1   -1.041749237503440E-1   -1.598355070547506E-2   -4.275704612687664E-2   -1.704076117567127E-2   -4.246057565190508E-2    4.524692710983590E-1   -2.390668951998263E-1
 6.529419892775000E9     5.518802518441306E-1   -1.050638434177346E-1   -1.610192446749096E-2   -4.302751215017843E-2   -1.715160884957515E-2   -4.277500884428024E-2    4.517039244416349E-1   -2.401468697128460E-1
 6.529429938200000E9     5.518561089517734E-1   -1.060001326049767E-1   -1.635692288677221E-2   -4.348800620959722E-2   -1.741384627624638E-2   -4.305952788212596E-2    4.511679969590526E-1   -2.409624948784488E-1
 6.529439983625000E9     5.515301977256549E-1   -1.068898353544369E-1   -1.647980534672303E-2   -4.366478136846420E-2   -1.773158254470305E-2   -4.326732838146003E-2    4.504326011814531E-1   -2.421125294255967E-1
 6.529450029050000E9     5.512521854881411E-1   -1.077409645468396E-1   -1.675686148692780E-2   -4.385772567909425E-2   -1.776709430773580E-2   -4.359539203017280E-2    4.498212208026559E-1   -2.431003124453647E-1
 6.529460074475000E9     5.512596986344034E-1   -1.086007397946154E-1   -1.700556653045272E-2   -4.415607423570778E-2   -1.809796820581334E-2   -4.381822117347177E-2    4.491642154832604E-1   -2.443647481010809E-1
 6.529470119900000E9     5.510180898029612E-1   -1.095782356108555E-1   -1.719097646561503E-2   -4.451116350118405E-2   -1.832564752414311E-2   -4.416309004118506E-2    4.484988429853310E-1   -2.452802628593363E-1
 6.529480165325000E9     5.508032410484870E-1   -1.104451779078656E-1   -1.746969207923358E-2   -4.463777359649639E-2   -1.865525713668440E-2   -4.432287332513043E-2    4.476341661772436E-1   -2.465703830655961E-1
 6.529490210750000E9     5.506373598985819E-1   -1.113891957202389E-1   -1.769641926265965E-2   -4.500976301492356E-2   -1.883700843435189E-2   -4.465977227426309E-2    4.470801636005449E-1   -2.474970442465542E-1
 6.529500256175000E9     5.502467089752083E-1   -1.122760867043836E-1   -1.800938122362971E-2   -4.528954363355168E-2   -1.908465807499830E-2   -4.499875653858327E-2    4.463931912682967E-1   -2.484693201937898E-1
 6.529510301600000E9     5.500869079958846E-1   -1.131171703885608E-1   -1.812253726588164E-2   -4.568710274436232E-2   -1.937324729143640E-2   -4.526628411307693E-2    4.456858984735501E-1   -2.496869489291547E-1
 6.529520347025000E9     5.497341649165435E-1   -1.140466920395211E-1   -1.838259171662963E-2   -4.595281943373523E-2   -1.963536938662628E-2   -4.552282823314519E-2    4.449389452482012E-1   -2.506672003221637E-1
 6.529530392450000E9     5.497088183494874E-1   -1.151560327925262E-1   -1.873495553524223E-2   -4.625984238626706E-2   -1.997662761432785E-2   -4.594777205321767E-2    4.441587152506531E-1   -2.519307286125582E-1
 6.529540437875000E9     5.493795629985537E-1   -1.160972057092041E-1   -1.896922715501475E-2   -4.651770501487457E-2   -2.010679177752958E-2   -4.616819178864943E-2    4.435023758771521E-1   -2.529376585125005E-1
 6.529550483300000E9     5.491662305427664E-1   -1.168863488204651E-1   -1.935688238371407E-2   -4.686393499160050E-2   -2.043887007031967E-2   -4.652644885451739E-2    4.426758120181975E-1   -2.539323947645282E-1
 6.529560528725000E9     5.488925789182771E-1   -1.178812554774276E-1   -1.948297215989241E-2   -4.718287084208510E-2   -2.069502528804035E-2   -4.672577446797882E-2    4.419039822108804E-1   -2.551539228830139E-1
 6.529570574150000E9     5.486613829386727E-1   -1.186179025688715E-1   -1.971420453339711E-2   -4.755656937033675E-2   -2.099892682490224E-2   -4.710273716091756E-2    4.411335064034755E-1   -2.561974115799012E-1
 6.529580619575000E9     5.484374876698092E-1   -1.196171917450652E-1   -2.002315855127850E-2   -4.784238947981774E-2   -2.122757189656430E-2   -4.743459938860645E-2    4.402996890773982E-1   -2.574477041354530E-1
 6.529590665000000E9     5.481190704555590E-1   -1.206318378681363E-1   -2.042456228734718E-2   -4.814655686830677E-2   -2.165467644176089E-2   -4.768745399042118E-2    4.395362969516508E-1   -2.585006475481886E-1
 6.529600710425000E9     5.477959988607869E-1   -1.214637409361511E-1   -2.072000421532139E-2   -4.861808127613643E-2   -2.190844595200597E-2   -4.799264728880360E-2    4.388350847366829E-1   -2.598132121085158E-1
 6.529610755850000E9     5.475943727419887E-1   -1.223281187506701E-1   -2.098667178714165E-2   -4.899477643547328E-2   -2.214996011559701E-2   -4.846041439193708E-2    4.379699513059123E-1   -2.609028954576606E-1
 6.529620801275000E9     5.473504372602298E-1   -1.233039623783147E-1   -2.122558165874242E-2   -4.917596368969619E-2   -2.249782614406556E-2   -4.872006574419070E-2    4.371283706423080E-1   -2.619178494188714E-1
 6.529630846700000E9     5.470589548453623E-1   -1.242215838431502E-1   -2.153321651904219E-2   -4.948134423875192E-2   -2.284604340122615E-2   -4.903413674533059E-2    4.363737376862048E-1   -2.631325448740724E-1
 6.529640892125000E9     5.468062960550588E-1   -1.252248472799175E-1   -2.195691631205239E-2   -4.997537585044203E-2   -2.321999446670016E-2   -4.946852253149152E-2    4.354469395417827E-1   -2.642288071960765E-1
 6.529650937550000E9     5.464445035397523E-1   -1.261435396146532E-1   -2.204185101708648E-2   -5.023550243930436E-2   -2.341785651361400E-2   -4.980641686836127E-2    4.344767119400362E-1   -2.654025836090790E-1
 6.529660982975000E9     5.461824280751213E-1   -1.270593739698960E-1   -2.248989557856542E-2   -5.068290805050060E-2   -2.380503715279321E-2   -5.016306244268569E-2    4.336436164928021E-1   -2.665789182243443E-1
 6.529671028400000E9     5.459814003318906E-1   -1.280827962111870E-1   -2.290245949043818E-2   -5.107425135350168E-2   -2.412701621491027E-2   -5.053160405223720E-2    4.326973534900339E-1   -2.678193817431853E-1
 6.529681073825000E9     5.456599806632075E-1   -1.289756015100122E-1   -2.315182185213243E-2   -5.146246710125024E-2   -2.453465333821443E-2   -5.085763450766372E-2    4.318632159391694E-1   -2.689944227756698E-1
 6.529691119250000E9     5.451949930088835E-1   -1.300109988889466E-1   -2.365774648072567E-2   -5.179676049097687E-2   -2.484532540330256E-2   -5.121651119967843E-2    4.310840379500346E-1   -2.702143446442582E-1
