#  HZ   S   RI   R     50.00 
! Rohde & Schwarz Vector Network Analyzer 
! Rohde-Schwarz,ZNB20-2Port,1311601062101988,3.16
! Created: UTC 3/21/2024, 12:57:38 AM
! freq[Hz]                re:S11                  im:S11                  re:S21                  im:S21                  re:S12                  im:S12                  re:S22                  im:S22
 6.528785001000000E9     5.604287827131351E-1   -5.164565026949693E-2   -7.444263335314440E-3   -3.098492868947538E-2   -8.088379703632144E-3   -3.077835373609470E-2    4.814381682192840E-1   -1.810163316561051E-1
 6.528795092525000E9     5.601565722432981E-1   -5.249793995210583E-2   -7.607234062955732E-3   -3.099157872083951E-2   -8.264543725045448E-3   -3.092976098958131E-2    4.810040332814552E-1   -1.820113389801355E-1
 6.528805184050000E9     5.602236817252002E-1   -5.337319041205404E-2   -7.672126024214216E-3   -3.104052617110771E-2   -8.362910459089755E-3   -3.101953182578076E-2    4.807056587317672E-1   -1.827005769574045E-1
 6.528815275575000E9     5.602044158744711E-1   -5.414270233809056E-2   -7.727683013011411E-3   -3.124454505164382E-2   -8.421799546615616E-3   -3.121011186870156E-2    4.802005639110777E-1   -1.835306366195452E-1
 6.528825367100000E9     5.599944329280959E-1   -5.501591767623452E-2   -7.619259757669141E-3   -3.148773824285875E-2   -8.431098503676357E-3   -3.125889878625937E-2    4.798527697748474E-1   -1.844953736443410E-1
 6.528835458625000E9     5.599931647286890E-1   -5.571520402993061E-2   -7.844200282177442E-3   -3.160494817957896E-2   -8.513750300634152E-3   -3.148779434907022E-2    4.796211405661471E-1   -1.853968322596831E-1
 6.528845550150000E9     5.600088094199107E-1   -5.655059457939528E-2   -7.901577716336464E-3   -3.173707279402280E-2   -8.638577928331843E-3   -3.152075991041156E-2    4.793174843845491E-1   -1.862801771968383E-1
 6.528855641675000E9     5.597874222708316E-1   -5.742676339958833E-2   -8.148774891037299E-3   -3.194181594177151E-2   -8.773773864454661E-3   -3.176367217669120E-2    4.788447283202326E-1   -1.871397120573357E-1
 6.528865733200000E9     5.596908696826985E-1   -5.820375478404895E-2   -8.192654109847538E-3   -3.196924798905872E-2   -8.987658484377915E-3   -3.186203614867807E-2    4.784334962329981E-1   -1.878342809619323E-1
 6.528875824725000E9     5.596340678038145E-1   -5.907563066907650E-2   -8.237363454231964E-3   -3.217275091544960E-2   -8.903320449740538E-3   -3.204503805073662E-2    4.781881418025548E-1   -1.887849989571363E-1
 6.528885916250000E9     5.594722254125668E-1   -5.994478752595306E-2   -8.531856443983951E-3   -3.221226249196687E-2   -9.101328145462053E-3   -3.225037769503723E-2    4.778187526196710E-1   -1.896649168446517E-1
 6.528896007775000E9     5.593840956936261E-1   -6.063966435963652E-2   -8.475519086698092E-3   -3.237158322277613E-2   -9.231364142761572E-3   -3.235816332880646E-2    4.774303510569682E-1   -1.904413315510971E-1
 6.528906099300000E9     5.593231838214416E-1   -6.150271414293709E-2   -8.723222747200976E-3   -3.255564776999725E-2   -9.246688183069037E-3   -3.237423398586319E-2    4.769123925169979E-1   -1.913659230063899E-1
 6.528916190825000E9     5.593307025745101E-1   -6.229719300443495E-2   -8.629651476418866E-3   -3.270275324779817E-2   -9.367856423180226E-3   -3.270149529731006E-2    4.766256308915995E-1   -1.921012440259751E-1
 6.528926282350000E9     5.590466841480672E-1   -6.320644105532741E-2   -8.792003798415609E-3   -3.295360654932867E-2   -9.405146639214880E-3   -3.267529842688436E-2    4.762468499262804E-1   -1.931166988685953E-1
 6.528936373875000E9     5.588809744667340E-1   -6.390910265334183E-2   -8.969876919228488E-3   -3.301741037329518E-2   -9.620521096284878E-3   -3.307938242536551E-2    4.758672101151124E-1   -1.942286668000953E-1
 6.528946465400000E9     5.588923759321108E-1   -6.480196341887771E-2   -9.149172378909031E-3   -3.318610175918872E-2   -9.755988091563748E-3   -3.322580343826523E-2    4.755983229044602E-1   -1.948925157453794E-1
 6.528956556925000E9     5.588351764983945E-1   -6.559982694586547E-2   -9.022157500399959E-3   -3.349430302863619E-2   -9.828364045742260E-3   -3.311024698110371E-2    4.752192734147063E-1   -1.956948608508680E-1
 6.528966648450000E9     5.587092565968488E-1   -6.641162481631924E-2   -9.266115826484494E-3   -3.360342953396258E-2   -9.997974642970319E-3   -3.342665817332842E-2    4.747439519433265E-1   -1.966923654856650E-1
 6.528976739975000E9     5.586668295620205E-1   -6.733271518151895E-2   -9.385944526369197E-3   -3.383566717939630E-2   -1.006425842104184E-2   -3.368566255857054E-2    4.744456965389323E-1   -1.975335843014964E-1
 6.528986831500000E9     5.584545643304233E-1   -6.802755388260706E-2   -9.477032436538461E-3   -3.397145047025162E-2   -1.026404096109747E-2   -3.378145783850594E-2    4.738521147962844E-1   -1.984952660947467E-1
 6.528996923025000E9     5.583460305516070E-1   -6.911113833603585E-2   -9.507915419628629E-3   -3.410601134373824E-2   -1.031240035060868E-2   -3.388422110666398E-2    4.734277325863145E-1   -1.993390635224710E-1
 6.529007014550000E9     5.582597312003784E-1   -6.979716682757187E-2   -9.750772243547052E-3   -3.420792116726065E-2   -1.049932782464438E-2   -3.416084293015410E-2    4.730119330655062E-1   -2.003212137652459E-1
 6.529017106075000E9     5.581473759581632E-1   -7.061035983348320E-2   -9.837630100409549E-3   -3.430879470869929E-2   -1.050038347057762E-2   -3.427441022357912E-2    4.725718659286324E-1   -2.011799880658960E-1
 6.529027197600000E9     5.580965217452980E-1   -7.149600897895940E-2   -9.815118350735383E-3   -3.460157145750869E-2   -1.072057508494064E-2   -3.438766116627915E-2    4.722439736004721E-1   -2.021685773112516E-1
 6.529037289125000E9     5.577781546342301E-1   -7.218729566609011E-2   -9.874827111161987E-3   -3.471203199759400E-2   -1.083943731881904E-2   -3.459188881946062E-2    4.717686730432704E-1   -2.030058942209809E-1
 6.529047380650000E9     5.577413811147238E-1   -7.305946760818516E-2   -1.007488733799232E-2   -3.482413947069350E-2   -1.093556780601162E-2   -3.474128458619218E-2    4.711739372698640E-1   -2.038110888411346E-1
 6.529057472175000E9     5.576136672346459E-1   -7.382979368360060E-2   -1.035344663090205E-2   -3.508705826907920E-2   -1.101336400231364E-2   -3.489446014955890E-2    4.709092286986787E-1   -2.049122219056733E-1
 6.529067563700000E9     5.575916182440273E-1   -7.482261822342931E-2   -1.040673237366113E-2   -3.530262365786134E-2   -1.113323337804332E-2   -3.503029867811357E-2    4.704933772569025E-1   -2.056939420567868E-1
 6.529077655225000E9     5.574497534486796E-1   -7.570220844461184E-2   -1.046288894957986E-2   -3.540722982700971E-2   -1.141010140970219E-2   -3.530761244896371E-2    4.701870324670533E-1   -2.067547015409655E-1
 6.529087746750000E9     5.574095153680634E-1   -7.644243191512434E-2   -1.063757910505887E-2   -3.569174361623906E-2   -1.162206813264713E-2   -3.542568205725544E-2    4.694217344386840E-1   -2.075623819334407E-1
 6.529097838275000E9     5.572146334276067E-1   -7.734329018082714E-2   -1.082057047432566E-2   -3.560299819512829E-2   -1.158370611365009E-2   -3.570136462092741E-2    4.690920618483680E-1   -2.084151731699030E-1
 6.529107929800000E9     5.570633807316062E-1   -7.808277427722932E-2   -1.090559026332702E-2   -3.603434353238484E-2   -1.165962473481675E-2   -3.576690857673239E-2    4.687660115306064E-1   -2.095609055813195E-1
 6.529118021325000E9     5.568412813332685E-1   -7.891600348787935E-2   -1.097045479564738E-2   -3.605108093685964E-2   -1.189288900053952E-2   -3.605067618615476E-2    4.681735346294827E-1   -2.102644362397121E-1
 6.529128112850000E9     5.567993666395562E-1   -7.991159628436376E-2   -1.137816321445152E-2   -3.631205477971242E-2   -1.204639506194548E-2   -3.618361544071499E-2    4.677652342875188E-1   -2.112733876418313E-1
 6.529138204375000E9     5.566209430502815E-1   -8.074740220924734E-2   -1.127681869182580E-2   -3.659379305494106E-2   -1.219149962345467E-2   -3.644015631802033E-2    4.673153770490444E-1   -2.123525591647439E-1
 6.529148295900000E9     5.566175283580661E-1   -8.143194452403135E-2   -1.146285804034546E-2   -3.678583052563671E-2   -1.238684950402693E-2   -3.655203533879875E-2    4.668304544075388E-1   -2.130548347546647E-1
 6.529158387425000E9     5.564022607174031E-1   -8.239695166631408E-2   -1.158546719514020E-2   -3.703729373992460E-2   -1.242315127702674E-2   -3.675898886711849E-2    4.663939458685034E-1   -2.141737746768919E-1
 6.529168478950000E9     5.562283882304907E-1   -8.318098294663741E-2   -1.184029727433367E-2   -3.711370843852733E-2   -1.256206038774947E-2   -3.704736333854070E-2    4.658411727639821E-1   -2.150495696802504E-1
 6.529178570475000E9     5.561015505784088E-1   -8.408860448937272E-2   -1.188622391943386E-2   -3.739503383354568E-2   -1.264733122326009E-2   -3.719437227101182E-2    4.653033971260425E-1   -2.159219220199351E-1
 6.529188662000000E9     5.560182638561403E-1   -8.488212421949577E-2   -1.206657834581731E-2   -3.754955218982736E-2   -1.283356377278288E-2   -3.736497310765102E-2    4.647740998906709E-1   -2.167798918759671E-1
 6.529198753525000E9     5.557401034190381E-1   -8.574834181528283E-2   -1.230555466519588E-2   -3.776985061767633E-2   -1.304139593114881E-2   -3.751272674380531E-2    4.644314347857452E-1   -2.179278597522788E-1
 6.529208845050000E9     5.555752318887824E-1   -8.671306558453232E-2   -1.242587492050210E-2   -3.797111678332455E-2   -1.326532111025274E-2   -3.762796946895389E-2    4.638804220435409E-1   -2.188138247991008E-1
 6.529218936575000E9     5.555443484499056E-1   -8.744792514489139E-2   -1.253820042395560E-2   -3.826503292687283E-2   -1.344369522392485E-2   -3.796713262348959E-2    4.633565596448136E-1   -2.198277482940996E-1
 6.529229028100000E9     5.553097015567686E-1   -8.828442152820734E-2   -1.262494668067217E-2   -3.838413621980296E-2   -1.350096180016947E-2   -3.818480213300573E-2    4.627700001421355E-1   -2.209096283161941E-1
 6.529239119625000E9     5.552905242142102E-1   -8.910901930911261E-2   -1.285820265135519E-2   -3.877361899958966E-2   -1.371351314013848E-2   -3.841061775323164E-2    4.622042175089951E-1   -2.217068003904017E-1
 6.529249211150000E9     5.549138265357225E-1   -9.006112759559425E-2   -1.281060194984681E-2   -3.884731229298102E-2   -1.392479355719462E-2   -3.852643071753821E-2    4.617417453705492E-1   -2.227258195491565E-1
 6.529259302675000E9     5.549258282552247E-1   -9.090622163884242E-2   -1.321640356683936E-2   -3.901662963626572E-2   -1.407727981479322E-2   -3.890058516853316E-2    4.612489906331420E-1   -2.236888497513485E-1
 6.529269394200000E9     5.546402242976728E-1   -9.173222332605474E-2   -1.333408561826313E-2   -3.928372790128932E-2   -1.426454549560689E-2   -3.892935437140654E-2    4.607031243641603E-1   -2.246927429359712E-1
 6.529279485725000E9     5.545524580741287E-1   -9.266962577642195E-2   -1.353157158510732E-2   -3.946392966706774E-2   -1.435000698207997E-2   -3.916825590872886E-2    4.601638783494336E-1   -2.255474511661425E-1
 6.529289577250000E9     5.544095696334865E-1   -9.353754809480258E-2   -1.368023147805706E-2   -3.978191198399000E-2   -1.456614550538955E-2   -3.944090912789568E-2    4.595223982887034E-1   -2.266922776809541E-1
 6.529299668775000E9     5.542740286642800E-1   -9.440356052779404E-2   -1.385159571942895E-2   -3.993563158025919E-2   -1.470548370798757E-2   -3.975231613718836E-2    4.589853160588698E-1   -2.276803815063208E-1
 6.529309760300000E9     5.540190714483225E-1   -9.528834435738157E-2   -1.393165435766033E-2   -4.010654408903226E-2   -1.489704651799843E-2   -3.993721850639527E-2    4.585301696320098E-1   -2.285250859830070E-1
 6.529319851825000E9     5.538381756752985E-1   -9.616644514037311E-2   -1.425417775769823E-2   -4.038477085013902E-2   -1.501762478356360E-2   -4.020885244331278E-2    4.580900270794425E-1   -2.296943601954194E-1
 6.529329943350000E9     5.536237803800549E-1   -9.702447107461278E-2   -1.441105551071238E-2   -4.067753993301518E-2   -1.532486505213908E-2   -4.040229855962492E-2    4.574766934425573E-1   -2.306251051784145E-1
 6.529340034875000E9     5.534240118653431E-1   -9.782190799842932E-2   -1.459300527233566E-2   -4.089224281307600E-2   -1.550994133476239E-2   -4.062221984116440E-2    4.567523670753491E-1   -2.314660643970811E-1
 6.529350126400000E9     5.533231990916629E-1   -9.878648366075438E-2   -1.481189960182650E-2   -4.114064475063175E-2   -1.565430933622077E-2   -4.087475408357952E-2    4.561828752514422E-1   -2.326556443053267E-1
 6.529360217925000E9     5.531254603026221E-1   -9.958110433283911E-2   -1.483933216996194E-2   -4.141659013915367E-2   -1.601714647618523E-2   -4.106275518409101E-2    4.554508726137828E-1   -2.336967552787247E-1
 6.529370309450000E9     5.527558816784325E-1   -1.004933602324400E-1   -1.509261003228638E-2   -4.157724803244571E-2   -1.606264204417262E-2   -4.132204344789476E-2    4.550027128617352E-1   -2.345575706196877E-1
 6.529380400975000E9     5.528139484497964E-1   -1.014368130380021E-1   -1.525849991082902E-2   -4.189666253573334E-2   -1.628130106043499E-2   -4.159602568998308E-2    4.543453983564206E-1   -2.356947504610979E-1
 6.529390492500000E9     5.524782114524205E-1   -1.023032913863273E-1   -1.548044222594510E-2   -4.214020030910424E-2   -1.646944256321744E-2   -4.189788455146336E-2    4.538643830389155E-1   -2.366914854658329E-1
 6.529400584025000E9     5.523482073282997E-1   -1.030597797622493E-1   -1.567089139907888E-2   -4.235424953357032E-2   -1.667911599957917E-2   -4.204547073623966E-2    4.533096926210202E-1   -2.377253096916764E-1
 6.529410675550000E9     5.520973048809339E-1   -1.041732685850214E-1   -1.585433896113337E-2   -4.270499016689742E-2   -1.693534596775658E-2   -4.238716273739399E-2    4.525475103244357E-1   -2.388331623649865E-1
 6.529420767075000E9     5.519169907075059E-1   -1.049749532703899E-1   -1.606805766719980E-2   -4.298710305828287E-2   -1.708894184533721E-2   -4.277940142436460E-2    4.517947950947644E-1   -2.398680709256775E-1
 6.529430858600000E9     5.516954142748650E-1   -1.058605476481124E-1   -1.633656634180153E-2   -4.316504707363338E-2   -1.729433061941920E-2   -4.291163181493993E-2    4.513876197295085E-1   -2.408736756914393E-1
 6.529440950125000E9     5.515412831320059E-1   -1.067290591875966E-1   -1.636385818465832E-2   -4.358647253998556E-2   -1.748776028405023E-2   -4.315375533883641E-2    4.505744268854218E-1   -2.420275792546877E-1
 6.529451041650000E9     5.513610144575833E-1   -1.077110577868869E-1   -1.674337907076575E-2   -4.377485404592432E-2   -1.787904356158236E-2   -4.338023565112721E-2    4.500173066718185E-1   -2.429378041042659E-1
 6.529461133175000E9     5.510721494378292E-1   -1.084990401825265E-1   -1.687983428658470E-2   -4.397319592016952E-2   -1.798758667825499E-2   -4.363077216132569E-2    4.491393219250633E-1   -2.440643611179670E-1
 6.529471224700000E9     5.509764885534493E-1   -1.095481403763771E-1   -1.724497676419177E-2   -4.436746843391307E-2   -1.828547952518260E-2   -4.401032147094817E-2    4.485198014213312E-1   -2.449422558330955E-1
 6.529481316225000E9     5.506381022898772E-1   -1.102702284250479E-1   -1.739797733353826E-2   -4.457010209998184E-2   -1.858240112256087E-2   -4.416027211941091E-2    4.478921047295879E-1   -2.462023959534918E-1
 6.529491407750000E9     5.503416428208658E-1   -1.112549450160078E-1   -1.770892068786379E-2   -4.487492737028595E-2   -1.883356661708854E-2   -4.442364319980665E-2    4.472253115427224E-1   -2.473061607074166E-1
 6.529501499275000E9     5.502102228415644E-1   -1.121797894680987E-1   -1.790753802702779E-2   -4.522521595475801E-2   -1.898019048515429E-2   -4.477559841965149E-2    4.465699398450242E-1   -2.483617702883723E-1
 6.529511590800000E9     5.500406174043474E-1   -1.130536403169190E-1   -1.797000198063421E-2   -4.532894457688743E-2   -1.916394814580059E-2   -4.516377054102370E-2    4.457353217236900E-1   -2.493609128224972E-1
 6.529521682325000E9     5.497662971486366E-1   -1.139944885473480E-1   -1.858656457247711E-2   -4.569414884014873E-2   -1.955721094001181E-2   -4.539975309455636E-2    4.452647771500155E-1   -2.505024420310716E-1
 6.529531773850000E9     5.494475664653253E-1   -1.149330255117590E-1   -1.865970880759546E-2   -4.596878603788646E-2   -1.979318488690650E-2   -4.568344867562367E-2    4.442934663028633E-1   -2.515015087612104E-1
 6.529541865375000E9     5.492335365731680E-1   -1.157466811964177E-1   -1.898620821922807E-2   -4.643742523880000E-2   -2.010995125544026E-2   -4.607527578078593E-2    4.435654544348116E-1   -2.526727570262418E-1
 6.529551956900000E9     5.491326371740618E-1   -1.168424186701073E-1   -1.921140369052218E-2   -4.661298297225598E-2   -2.035561903380261E-2   -4.634996571588653E-2    4.428682823763645E-1   -2.538381519447419E-1
 6.529562048425000E9     5.487565398999181E-1   -1.176096715621815E-1   -1.954423476932922E-2   -4.688582604721469E-2   -2.058343900106567E-2   -4.659440641754067E-2    4.423002504402475E-1   -2.548383047041503E-1
 6.529572139950000E9     5.485248382205401E-1   -1.186794161077161E-1   -1.987036210862727E-2   -4.731548968572291E-2   -2.092167775720736E-2   -4.698303682776143E-2    4.412973995240247E-1   -2.560632536074965E-1
 6.529582231475000E9     5.483978489875737E-1   -1.195277542018599E-1   -2.006408408236700E-2   -4.757801110441220E-2   -2.118334692811696E-2   -4.721103977432710E-2    4.404585241339152E-1   -2.571990926106054E-1
 6.529592323000000E9     5.479672237524993E-1   -1.204323068120154E-1   -2.034848874218015E-2   -4.789287954189683E-2   -2.156705979210900E-2   -4.759490977343483E-2    4.396926817900702E-1   -2.583886916611279E-1
 6.529602414525000E9     5.478206079830211E-1   -1.214223268169258E-1   -2.057898041043099E-2   -4.823118709623686E-2   -2.180043375270418E-2   -4.781599566811801E-2    4.388639341919583E-1   -2.593657701381930E-1
 6.529612506050000E9     5.474341315554561E-1   -1.223008419284884E-1   -2.082346763792484E-2   -4.861083444892905E-2   -2.212499323096639E-2   -4.804005458602532E-2    4.382059393667422E-1   -2.605711035327730E-1
 6.529622597575000E9     5.472190535805392E-1   -1.231665588943050E-1   -2.123685276587469E-2   -4.903432575586398E-2   -2.249383361096382E-2   -4.867541368724819E-2    4.374394610577795E-1   -2.616333732683540E-1
 6.529632689100000E9     5.470674907280910E-1   -1.241833065354361E-1   -2.149104546541622E-2   -4.919516328162756E-2   -2.273338611795740E-2   -4.888986135635241E-2    4.363495763976930E-1   -2.628255633505031E-1
 6.529642780625000E9     5.468069609417108E-1   -1.251164739630166E-1   -2.173073129446003E-2   -4.963196497446668E-2   -2.309165934220552E-2   -4.921438852669157E-2    4.354720416701941E-1   -2.640705371555880E-1
 6.529652872150000E9     5.462895594580461E-1   -1.260727287385021E-1   -2.224913143833857E-2   -4.999786824978888E-2   -2.332793613278203E-2   -4.956800335529419E-2    4.347583436216507E-1   -2.652127305155164E-1
 6.529662963675000E9     5.460346562461649E-1   -1.270412490642285E-1   -2.240355268660114E-2   -5.043895060766682E-2   -2.372009972112980E-2   -4.990517747107812E-2    4.338521675741067E-1   -2.663752968191148E-1
 6.529673055200000E9     5.458110948111157E-1   -1.279915395970207E-1   -2.290466235598030E-2   -5.072132882426943E-2   -2.409320299664617E-2   -5.029585869563351E-2    4.329554399466573E-1   -2.677546854391116E-1
 6.529683146725000E9     5.454744678622475E-1   -1.289339923830313E-1   -2.316379992889413E-2   -5.117379859009399E-2   -2.450821768033804E-2   -5.063907940605940E-2    4.319799391684452E-1   -2.688686944808715E-1
 6.529693238250000E9     5.452250301755301E-1   -1.298355777049219E-1   -2.342547605695236E-2   -5.160723219775314E-2   -2.476754753475921E-2   -5.095145758658783E-2    4.311527232740193E-1   -2.701521917675337E-1
