#  HZ   S   RI   R     50.00 
! Rohde & Schwarz Vector Network Analyzer 
! Rohde-Schwarz,ZNB20-2Port,1311601062101988,3.16
! Created: UTC 3/21/2024, 12:57:43 AM
! freq[Hz]                re:S11                  im:S11                  re:S21                  im:S21                  re:S12                  im:S12                  re:S22                  im:S22
 6.528783993000000E9     5.604562278161801E-1   -5.148054072765430E-2   -7.554959986978058E-3   -3.086952783577212E-2   -7.999109241941412E-3   -3.077450861372954E-2    4.813522189457073E-1   -1.808209842622714E-1
 6.528794096325000E9     5.603708989450202E-1   -5.222735973456134E-2   -7.442046820765550E-3   -3.103098194874228E-2   -8.101955093830175E-3   -3.086919509928510E-2    4.810782390429429E-1   -1.817484007182257E-1
 6.528804199650000E9     5.602725662165807E-1   -5.292196424309150E-2   -7.545637529754367E-3   -3.112483348136370E-2   -8.255889347636528E-3   -3.099589266559036E-2    4.807270579827531E-1   -1.825682551073871E-1
 6.528814302975000E9     5.602881889793090E-1   -5.380196937307938E-2   -7.733551079716197E-3   -3.129304332987382E-2   -8.322819601216763E-3   -3.116588917224678E-2    4.805050186889845E-1   -1.833715244094762E-1
 6.528824406300000E9     5.601394475971537E-1   -5.466438974404847E-2   -7.739677009674884E-3   -3.151962610061832E-2   -8.378027300572966E-3   -3.130444535019507E-2    4.800116608549869E-1   -1.842213183874694E-1
 6.528834509625000E9     5.600001953723535E-1   -5.549725152202854E-2   -7.875564144197216E-3   -3.170015607265460E-2   -8.572215667369961E-3   -3.140983262665804E-2    4.796738384499494E-1   -1.852286018151063E-1
 6.528844612950000E9     5.599542507875176E-1   -5.633829553062571E-2   -8.002057304988281E-3   -3.176450478895900E-2   -8.628737744281953E-3   -3.157997937774512E-2    4.793662456077377E-1   -1.859846791819004E-1
 6.528854716275000E9     5.599987873409172E-1   -5.706940833117562E-2   -8.120583748534440E-3   -3.188778122754209E-2   -8.705750624719797E-3   -3.173226897033616E-2    4.789746804520119E-1   -1.868624904033400E-1
 6.528864819600000E9     5.598077686594402E-1   -5.792910617092049E-2   -8.152771013214686E-3   -3.199942596884407E-2   -8.861515886848506E-3   -3.194374845740651E-2    4.787241802555728E-1   -1.878656290974773E-1
 6.528874922925000E9     5.596406484206584E-1   -5.875085782301891E-2   -8.370831365832431E-3   -3.221493755549167E-2   -8.968163029751763E-3   -3.203040845679107E-2    4.782992457957320E-1   -1.886415703249818E-1
 6.528885026250000E9     5.595706419829589E-1   -5.962718483474323E-2   -8.345079529960138E-3   -3.215820322047171E-2   -9.056126378760816E-3   -3.215210864075844E-2    4.778154347329565E-1   -1.894082533908168E-1
 6.528895129575000E9     5.594957598997209E-1   -6.035194205726681E-2   -8.397038011665902E-3   -3.240196450748428E-2   -9.172843780040497E-3   -3.222478260259799E-2    4.773765218692996E-1   -1.903448501337454E-1
 6.528905232900000E9     5.593614945260948E-1   -6.127598418623668E-2   -8.528279233451572E-3   -3.259887663661148E-2   -9.296523569985962E-3   -3.244710050576891E-2    4.768801558166458E-1   -1.912934374246205E-1
 6.528915336225000E9     5.594486981528285E-1   -6.201282936850786E-2   -8.626223740207667E-3   -3.283445921709453E-2   -9.521691609701986E-3   -3.264276648698147E-2    4.767467633934442E-1   -1.921617180454623E-1
 6.528925439550000E9     5.591859030864784E-1   -6.293251733526398E-2   -8.782316335199067E-3   -3.272438803183633E-2   -9.466913016383962E-3   -3.282477362603359E-2    4.763209780694150E-1   -1.930808904134254E-1
 6.528935542875000E9     5.590193691680151E-1   -6.369423384245648E-2   -8.872276247520204E-3   -3.300354663491976E-2   -9.726554109307161E-3   -3.293261086122545E-2    4.759339168330627E-1   -1.937324725177207E-1
 6.528945646200000E9     5.590402766850564E-1   -6.458744828122261E-2   -9.093844404084001E-3   -3.331051241462795E-2   -9.804901867500881E-3   -3.299314089241119E-2    4.755167130385876E-1   -1.946198155457887E-1
 6.528955749525000E9     5.588829470500687E-1   -6.545943319981641E-2   -9.089172057018643E-3   -3.327617731774046E-2   -9.833141047588650E-3   -3.322976826263486E-2    4.749668680921375E-1   -1.956323976219672E-1
 6.528965852850000E9     5.587974586937284E-1   -6.619395155105529E-2   -9.244395385428761E-3   -3.352485836356858E-2   -9.983140489075601E-3   -3.339740861080540E-2    4.748316552257641E-1   -1.965185163923201E-1
 6.528975956175000E9     5.587200998623012E-1   -6.691691737293584E-2   -9.406043598698949E-3   -3.360098791370627E-2   -1.003210503195047E-2   -3.368722186042161E-2    4.744084334255765E-1   -1.973860820985085E-1
 6.528986059500000E9     5.586121268253367E-1   -6.783641064178098E-2   -9.554131940003371E-3   -3.389193231780015E-2   -1.007324439918164E-2   -3.367469337163797E-2    4.739675556539106E-1   -1.984334789171827E-1
 6.528996162825000E9     5.585759298280848E-1   -6.868199890107002E-2   -9.501994870213196E-3   -3.402946492894936E-2   -1.026418004646030E-2   -3.389811283725259E-2    4.735679282713804E-1   -1.992288050374131E-1
 6.529006266150000E9     5.584181486339658E-1   -6.949945314834650E-2   -9.716442575520675E-3   -3.426469006528272E-2   -1.042972922953028E-2   -3.414510546610434E-2    4.730934561978656E-1   -2.001605171845021E-1
 6.529016369475000E9     5.582884312089951E-1   -7.046715492420656E-2   -9.784852532972052E-3   -3.437716601275111E-2   -1.052756399224988E-2   -3.418986459840000E-2    4.728498402902972E-1   -2.010810751507583E-1
 6.529026472800000E9     5.581441095946073E-1   -7.115080397524923E-2   -9.903677628363616E-3   -3.456565804952444E-2   -1.064905881783494E-2   -3.440057551894418E-2    4.723430563816280E-1   -2.020279502917487E-1
 6.529036576125000E9     5.582232829967922E-1   -7.197665173347513E-2   -9.973908198922271E-3   -3.468063627686952E-2   -1.077213167670573E-2   -3.458437472346276E-2    4.718906504994020E-1   -2.027563413660824E-1
 6.529046679450000E9     5.577975033307394E-1   -7.289148664547782E-2   -1.002787444309663E-2   -3.494587254586223E-2   -1.099689300529239E-2   -3.474649761329465E-2    4.713262399604348E-1   -2.039877962881238E-1
 6.529056782775000E9     5.578566063574331E-1   -7.371733158606246E-2   -1.026131508920284E-2   -3.516252397330283E-2   -1.113860583531908E-2   -3.498549352831116E-2    4.710455371875513E-1   -2.047468084159645E-1
 6.529066886100000E9     5.577052145173095E-1   -7.453346940293459E-2   -1.033525256055918E-2   -3.530903050843026E-2   -1.118556829532198E-2   -3.507067875834679E-2    4.704451426475752E-1   -2.056624361482859E-1
 6.529076989425000E9     5.575717589887418E-1   -7.540676726891034E-2   -1.045585215974469E-2   -3.547705975215293E-2   -1.131172608500264E-2   -3.527753885514456E-2    4.698988718455080E-1   -2.065101856621510E-1
 6.529087092750000E9     5.575390323133713E-1   -7.616426277885287E-2   -1.067834274337283E-2   -3.563142679178290E-2   -1.150289613069640E-2   -3.549189155433008E-2    4.694830578495329E-1   -2.075502440183375E-1
 6.529097196075000E9     5.573589816429283E-1   -7.703346980331220E-2   -1.065000187986201E-2   -3.573384944963530E-2   -1.163736731777513E-2   -3.551918463897025E-2    4.691988556356769E-1   -2.084250863420307E-1
 6.529107299400000E9     5.571543021907920E-1   -7.791622947462791E-2   -1.091248325202239E-2   -3.602814417962975E-2   -1.173244236924204E-2   -3.587316900689767E-2    4.686827471174783E-1   -2.093920081281954E-1
 6.529117402725000E9     5.570384828057282E-1   -7.874642054341453E-2   -1.105746974945384E-2   -3.632305771258417E-2   -1.180888824997621E-2   -3.593550542944467E-2    4.682478092559327E-1   -2.100948024640530E-1
 6.529127506050000E9     5.568590501016450E-1   -7.960597407932747E-2   -1.121056022665125E-2   -3.633837893363750E-2   -1.195011142129617E-2   -3.611898735687701E-2    4.679263971832203E-1   -2.111352749315661E-1
 6.529137609375000E9     5.568180631744143E-1   -8.047368401128045E-2   -1.135001991985172E-2   -3.656660832671541E-2   -1.221278206198075E-2   -3.637749870194502E-2    4.673183436200911E-1   -2.120391973378826E-1
 6.529147712700000E9     5.565458701708169E-1   -8.129404635990363E-2   -1.146950368765416E-2   -3.672944786123076E-2   -1.225579025819333E-2   -3.653567033805886E-2    4.668867256213712E-1   -2.130133940503934E-1
 6.529157816025000E9     5.564087700605098E-1   -8.212420319273100E-2   -1.138836616756674E-2   -3.697091533190831E-2   -1.237388154848615E-2   -3.679605436535113E-2    4.662699222080704E-1   -2.139660515518120E-1
 6.529167919350000E9     5.562318104905115E-1   -8.310026454819951E-2   -1.176030453440960E-2   -3.717621500661240E-2   -1.262902735394489E-2   -3.695176083694068E-2    4.658711862253599E-1   -2.149639354591790E-1
 6.529178022675000E9     5.561420261479173E-1   -8.395695334668155E-2   -1.193219920415453E-2   -3.715657083168291E-2   -1.266342148224853E-2   -3.707633753567892E-2    4.653277420276769E-1   -2.159198741022025E-1
 6.529188126000000E9     5.560967181735743E-1   -8.467916115797641E-2   -1.204925679738767E-2   -3.761655900454645E-2   -1.291227461798753E-2   -3.729421602061283E-2    4.649245760659299E-1   -2.168762869222574E-1
 6.529198229325000E9     5.559284030011643E-1   -8.543205831191408E-2   -1.213853626440034E-2   -3.777200437720216E-2   -1.298126344169960E-2   -3.750437753976101E-2    4.643573033049381E-1   -2.179609551015105E-1
 6.529208332650000E9     5.557348460714728E-1   -8.644391407524220E-2   -1.239198936037943E-2   -3.788275425944081E-2   -1.318527000747364E-2   -3.760808505648154E-2    4.639902624189577E-1   -2.186427644840371E-1
 6.529218435975000E9     5.556840498940743E-1   -8.729552702277200E-2   -1.239861986825856E-2   -3.808925447639190E-2   -1.334154581217584E-2   -3.791134776312457E-2    4.634430213279726E-1   -2.195880489132665E-1
 6.529228539300000E9     5.554647411547706E-1   -8.807878828869214E-2   -1.277928278990961E-2   -3.838374904609636E-2   -1.349158431682243E-2   -3.812552972869467E-2    4.627935430394617E-1   -2.205442218821846E-1
 6.529238642625000E9     5.552784524909007E-1   -8.896138119865274E-2   -1.268654296041804E-2   -3.864646336066953E-2   -1.372298320223121E-2   -3.827822122695521E-2    4.624574160146728E-1   -2.216726871366435E-1
 6.529248745950000E9     5.551171882708056E-1   -8.977976651113244E-2   -1.284674583474627E-2   -3.878244250674969E-2   -1.381368403186278E-2   -3.856462635579425E-2    4.619031520029147E-1   -2.224890685371322E-1
 6.529258849275000E9     5.549247331587865E-1   -9.068051330296763E-2   -1.315003936003463E-2   -3.902537673615815E-2   -1.410427622312345E-2   -3.878752124313086E-2    4.612530945430067E-1   -2.234025249610535E-1
 6.529268952600000E9     5.547546082626481E-1   -9.158787825577007E-2   -1.328892515764666E-2   -3.916728667368323E-2   -1.424172599003560E-2   -3.901016440200311E-2    4.607014246451332E-1   -2.244290959535312E-1
 6.529279055925000E9     5.546618854270776E-1   -9.251067230084839E-2   -1.346761718810659E-2   -3.947336757512795E-2   -1.435334380875137E-2   -3.929164088528802E-2    4.602399119746668E-1   -2.254108178097383E-1
 6.529289159250000E9     5.544089198023033E-1   -9.342403697078325E-2   -1.360914601925080E-2   -3.972959502763162E-2   -1.453889343978400E-2   -3.942428983072271E-2    4.597740837199727E-1   -2.265848473000042E-1
 6.529299262575000E9     5.542476734270220E-1   -9.411887371281612E-2   -1.376341329295404E-2   -3.982627277415094E-2   -1.474909786498347E-2   -3.965377368560307E-2    4.589958735613673E-1   -2.274517817125087E-1
 6.529309365900000E9     5.540725056261154E-1   -9.487789722265488E-2   -1.399697079443528E-2   -4.020418131342425E-2   -1.494691189206149E-2   -3.996087329715886E-2    4.585547284930122E-1   -2.285888545471631E-1
 6.529319469225000E9     5.539344197729547E-1   -9.602421471130103E-2   -1.393287914590564E-2   -4.041030994892610E-2   -1.506242146280732E-2   -4.004087654909465E-2    4.579315737817559E-1   -2.293696346143503E-1
 6.529329572550000E9     5.536772432213614E-1   -9.682623437375536E-2   -1.433063986709419E-2   -4.054162938886188E-2   -1.527815382628298E-2   -4.030310556923067E-2    4.573845719560818E-1   -2.304404665888158E-1
 6.529339675875000E9     5.535356730820172E-1   -9.761462609121664E-2   -1.445456232517266E-2   -4.077792486089778E-2   -1.541582144676816E-2   -4.062326655287955E-2    4.568526550249970E-1   -2.315976721652619E-1
 6.529349779200000E9     5.532577947938183E-1   -9.854603985253577E-2   -1.475060084842090E-2   -4.111330394550484E-2   -1.574601113554959E-2   -4.067920085554936E-2    4.562860379866999E-1   -2.323378267150140E-1
 6.529359882525000E9     5.532296571365658E-1   -9.938303386500522E-2   -1.482815640545556E-2   -4.136454145905313E-2   -1.577202849437458E-2   -4.108427038099630E-2    4.557026566324304E-1   -2.334501119342526E-1
 6.529369985850000E9     5.530747729917309E-1   -1.002215502188480E-1   -1.513267700885441E-2   -4.166813528251181E-2   -1.609472966423672E-2   -4.131136625979590E-2    4.550265998940098E-1   -2.345028318320299E-1
 6.529380089175000E9     5.527837273451075E-1   -1.012380580678917E-1   -1.532399289740539E-2   -4.185532070626148E-2   -1.623802321342189E-2   -4.159795125605611E-2    4.544877233805834E-1   -2.354882477096774E-1
 6.529390192500000E9     5.525430719209666E-1   -1.021630862281112E-1   -1.547920476461300E-2   -4.206928883556579E-2   -1.648803203050961E-2   -4.183057371170534E-2    4.538428130839093E-1   -2.365559721475900E-1
 6.529400295825000E9     5.524494831018959E-1   -1.030181825148417E-1   -1.563767543985806E-2   -4.240341482722410E-2   -1.675813030288264E-2   -4.211021167326062E-2    4.531397756587560E-1   -2.375539254855176E-1
 6.529410399150000E9     5.523254997221021E-1   -1.038267995523629E-1   -1.585812775829118E-2   -4.257934208667084E-2   -1.683986950915202E-2   -4.227480739125347E-2    4.526050615681248E-1   -2.386961249077678E-1
 6.529420502475000E9     5.520964364634439E-1   -1.047037890490470E-1   -1.607481212225987E-2   -4.297956075118182E-2   -1.713440033319227E-2   -4.255302105125895E-2    4.518694099401321E-1   -2.397046109633209E-1
 6.529430605800000E9     5.518121771011603E-1   -1.057048031457527E-1   -1.620368428903257E-2   -4.311344368966433E-2   -1.736305061918443E-2   -4.284462684517835E-2    4.513976078958898E-1   -2.405512185660259E-1
 6.529440709125000E9     5.516147584420308E-1   -1.065359867281049E-1   -1.650393660071845E-2   -4.342050397529264E-2   -1.755481505491500E-2   -4.318574377027614E-2    4.507369103948784E-1   -2.416756923438602E-1
 6.529450812450000E9     5.514209534850951E-1   -1.074168437020603E-1   -1.681791063103970E-2   -4.368277619105847E-2   -1.771718276717393E-2   -4.329208280372097E-2    4.499854378949801E-1   -2.429249223051050E-1
 6.529460915775000E9     5.511603417818782E-1   -1.083730415020211E-1   -1.710696576080118E-2   -4.402048527526400E-2   -1.815576827112887E-2   -4.361838058087927E-2    4.492813723850800E-1   -2.438790574926567E-1
 6.529471019100000E9     5.510024372501345E-1   -1.093025442227553E-1   -1.723178454598523E-2   -4.435015467567546E-2   -1.830609554727813E-2   -4.382570381713158E-2    4.485932692000734E-1   -2.449151555133367E-1
 6.529481122425000E9     5.508002078537851E-1   -1.101575179319389E-1   -1.745697182395571E-2   -4.454591014171066E-2   -1.859679010633705E-2   -4.416375934826869E-2    4.478352771898010E-1   -2.459821816223127E-1
 6.529491225750000E9     5.505056444738203E-1   -1.109997782857652E-1   -1.766390474850833E-2   -4.484973652461795E-2   -1.883901891337169E-2   -4.442898074861090E-2    4.471850162492523E-1   -2.471476278572680E-1
 6.529501329075000E9     5.503290932180082E-1   -1.119845080180452E-1   -1.789867140389863E-2   -4.512086020700116E-2   -1.903787574651957E-2   -4.472055334308415E-2    4.464923901696327E-1   -2.481761647479618E-1
 6.529511432400000E9     5.500969564940061E-1   -1.128099239835121E-1   -1.817212120171592E-2   -4.527525679673926E-2   -1.925333859916905E-2   -4.503752947891959E-2    4.458817462317888E-1   -2.491766612656477E-1
 6.529521535725000E9     5.498296421059391E-1   -1.138212688768969E-1   -1.846856307383915E-2   -4.566158231738226E-2   -1.950175809694351E-2   -4.539361101232284E-2    4.451600321743508E-1   -2.503154770490545E-1
 6.529531639050000E9     5.496177084896620E-1   -1.146838285259139E-1   -1.863230940921803E-2   -4.585392205658324E-2   -1.979003957935814E-2   -4.561828233010452E-2    4.443766476378708E-1   -2.514081491014865E-1
 6.529541742375000E9     5.494371379634176E-1   -1.155930441212005E-1   -1.889085175114176E-2   -4.638145515037412E-2   -2.002875723256373E-2   -4.591700122130354E-2    4.437351519155326E-1   -2.525155465764460E-1
 6.529551845700000E9     5.492589991331064E-1   -1.165691726006798E-1   -1.909019780356965E-2   -4.658398310844422E-2   -2.045052825716630E-2   -4.626451974912085E-2    4.429830505919535E-1   -2.536923367258580E-1
 6.529561949025000E9     5.488255430114379E-1   -1.174174113179520E-1   -1.936166585474185E-2   -4.707083898653719E-2   -2.054082509875946E-2   -4.647420768280716E-2    4.423914631013544E-1   -2.548045489493591E-1
 6.529572052350000E9     5.485867741491051E-1   -1.183846401967380E-1   -1.968683574117912E-2   -4.715840851050013E-2   -2.087199866141573E-2   -4.686315052730467E-2    4.413073534851205E-1   -2.559409392472914E-1
 6.529582155675000E9     5.484308537513822E-1   -1.193413794858227E-1   -1.994930380456819E-2   -4.761404813090475E-2   -2.106670232942306E-2   -4.718081090562533E-2    4.405219942182906E-1   -2.570617681411461E-1
 6.529592259000000E9     5.482001312665541E-1   -1.202221108800545E-1   -2.033530998585650E-2   -4.792911577114902E-2   -2.152885858121809E-2   -4.751128320632708E-2    4.398478095802533E-1   -2.580779302515809E-1
 6.529602362325000E9     5.478422446338436E-1   -1.212540578270161E-1   -2.057636282531644E-2   -4.818451446301254E-2   -2.177459032903859E-2   -4.783230508103429E-2    4.389563550061884E-1   -2.592939900167300E-1
 6.529612465650000E9     5.475250060469745E-1   -1.221741316170550E-1   -2.068646839539543E-2   -4.856052927213858E-2   -2.200847481570820E-2   -4.816275308233189E-2    4.382577715075950E-1   -2.604206928665535E-1
 6.529622568975000E9     5.473519989566266E-1   -1.231322500476799E-1   -2.117556346949351E-2   -4.887977037376947E-2   -2.242018315243783E-2   -4.857716016165196E-2    4.374256095881043E-1   -2.614787570057036E-1
 6.529632672300000E9     5.469983196759496E-1   -1.240461193643620E-1   -2.141708907485764E-2   -4.930087462602131E-2   -2.273037901224013E-2   -4.880776718925115E-2    4.363814418941642E-1   -2.627541861554777E-1
 6.529642775625000E9     5.467884776909517E-1   -1.249769472070363E-1   -2.182160926190687E-2   -4.960483487908750E-2   -2.302842612075013E-2   -4.917947691188228E-2    4.355358748807615E-1   -2.637355063514665E-1
 6.529652878950000E9     5.464853200560582E-1   -1.259235764649299E-1   -2.200293893146648E-2   -5.001297313460538E-2   -2.339842854205289E-2   -4.950151106755669E-2    4.346393684437656E-1   -2.651559318438704E-1
 6.529662982275000E9     5.461906341506396E-1   -1.269040539000368E-1   -2.243909032432646E-2   -5.035240798157171E-2   -2.366743871113451E-2   -4.979339829111218E-2    4.339891131322316E-1   -2.661972417228499E-1
 6.529673085600000E9     5.458676232442088E-1   -1.277795910920973E-1   -2.251533363669670E-2   -5.081986864187311E-2   -2.397302627631811E-2   -5.029161639638761E-2    4.329852545037229E-1   -2.675654665870005E-1
 6.529683188925000E9     5.454696852028228E-1   -1.287716737218476E-1   -2.309031409460452E-2   -5.110793024406007E-2   -2.435671719285083E-2   -5.067636251093802E-2    4.321962834089678E-1   -2.687836833946457E-1
 6.529693292250000E9     5.452855480267164E-1   -1.297526686370380E-1   -2.340458872504165E-2   -5.151393626082647E-2   -2.468084179063704E-2   -5.090217169999413E-2    4.312182362607698E-1   -2.697825599102449E-1
