#  HZ   S   RI   R     50.00 
! Rohde & Schwarz Vector Network Analyzer 
! Rohde-Schwarz,ZNB20-2Port,1311601062101988,3.16
! Created: UTC 3/21/2024, 12:58:07 AM
! freq[Hz]                re:S11                  im:S11                  re:S21                  im:S21                  re:S12                  im:S12                  re:S22                  im:S22
 6.528779332000000E9     5.604413588032328E-1   -5.077944348768559E-2   -7.254937446669918E-3   -3.075005296326881E-2   -7.976625308062949E-3   -3.049077379017496E-2    4.815900865277131E-1   -1.806554934688820E-1
 6.528789499100000E9     5.603878172670063E-1   -5.161889454375693E-2   -7.495144847684697E-3   -3.084002818771757E-2   -8.089610605906222E-3   -3.080202185205000E-2    4.813235391853367E-1   -1.814167748677763E-1
 6.528799666200000E9     5.603136983667918E-1   -5.238988290190333E-2   -7.597628385271360E-3   -3.090607598055007E-2   -8.233259353486981E-3   -3.087902756791338E-2    4.808350760122207E-1   -1.825230232489237E-1
 6.528809833300000E9     5.601571485502929E-1   -5.323782565290252E-2   -7.741972453947804E-3   -3.106950767101962E-2   -8.302809889549937E-3   -3.105965921473011E-2    4.805034843732411E-1   -1.833120517531694E-1
 6.528820000400000E9     5.601742314505302E-1   -5.403648614547729E-2   -7.817496917521323E-3   -3.132048149516221E-2   -8.336203283268038E-3   -3.107699554245594E-2    4.800500138134191E-1   -1.841827114106889E-1
 6.528830167500000E9     5.601538539692685E-1   -5.484720984435844E-2   -7.693775792011340E-3   -3.143946122717742E-2   -8.441990250717488E-3   -3.128862141564267E-2    4.797960342687253E-1   -1.851682214978252E-1
 6.528840334600000E9     5.599690158031857E-1   -5.574013094613417E-2   -7.891461627225987E-3   -3.146749475363568E-2   -8.589388778098839E-3   -3.146985603856385E-2    4.794064052004485E-1   -1.859129135896591E-1
 6.528850501700000E9     5.599291118666618E-1   -5.655890658511811E-2   -8.049812270184083E-3   -3.159347807749491E-2   -8.675944102766944E-3   -3.150907615577122E-2    4.791238377501827E-1   -1.867784579643864E-1
 6.528860668800000E9     5.598997885301625E-1   -5.729688079123027E-2   -7.984022148575886E-3   -3.184771242506696E-2   -8.817203363302580E-3   -3.162643853622196E-2    4.786639359796548E-1   -1.876970156791049E-1
 6.528870835900000E9     5.597332471344248E-1   -5.808967649417455E-2   -8.172789332153645E-3   -3.195179493363266E-2   -8.875100527345631E-3   -3.186319915009795E-2    4.783307762063282E-1   -1.884813023354990E-1
 6.528881003000000E9     5.596643847752750E-1   -5.902185047206512E-2   -8.249281929036286E-3   -3.199872665919280E-2   -9.009736146707808E-3   -3.203866978946735E-2    4.778993739745400E-1   -1.894149847560979E-1
 6.528891170100000E9     5.595452451300303E-1   -5.975209147333425E-2   -8.369765970751557E-3   -3.212896983844286E-2   -9.058118662749309E-3   -3.212893424198647E-2    4.775346035930907E-1   -1.902831465745123E-1
 6.528901337200000E9     5.594674423546802E-1   -6.068638968032650E-2   -8.534110741232236E-3   -3.250299105156079E-2   -9.167733681447611E-3   -3.228970005001997E-2    4.771587583334587E-1   -1.909774892443868E-1
 6.528911504300000E9     5.593820845443601E-1   -6.143328163004520E-2   -8.589950882790630E-3   -3.252617622085940E-2   -9.342453981468568E-3   -3.232806934705870E-2    4.768582437740650E-1   -1.919820295697650E-1
 6.528921671400000E9     5.593064134434538E-1   -6.228028256553864E-2   -8.579679264540974E-3   -3.282790180777309E-2   -9.455439882217333E-3   -3.250911259471304E-2    4.764773693589495E-1   -1.929823763430324E-1
 6.528931838500000E9     5.591082172089945E-1   -6.320988569396792E-2   -8.865506810475036E-3   -3.297387527284314E-2   -9.593240289546967E-3   -3.269996497795877E-2    4.760576091221009E-1   -1.936600538973409E-1
 6.528942005600000E9     5.590939672889593E-1   -6.402919178380509E-2   -8.865026976213185E-3   -3.301649229809401E-2   -9.578615322271255E-3   -3.286374652125271E-2    4.756614732137576E-1   -1.946374650946130E-1
 6.528952172700000E9     5.590604740845658E-1   -6.483437615486638E-2   -8.897820284622712E-3   -3.330138232498488E-2   -9.660691116651172E-3   -3.306480633089660E-2    4.751231104725090E-1   -1.955537276265867E-1
 6.528962339800000E9     5.588088986123926E-1   -6.563728844554111E-2   -9.081375000405610E-3   -3.343426620069899E-2   -9.854170459085819E-3   -3.323147503739109E-2    4.747795559042494E-1   -1.965362302046609E-1
 6.528972506900000E9     5.586274651524100E-1   -6.642174454788032E-2   -9.290993447426827E-3   -3.350145663134977E-2   -9.891004022927832E-3   -3.335034763594531E-2    4.745633648123000E-1   -1.973305894900898E-1
 6.528982674000000E9     5.586342258721532E-1   -6.721699217479467E-2   -9.376757484276242E-3   -3.368286336489310E-2   -1.005979806367569E-2   -3.357724071539173E-2    4.739166845721165E-1   -1.982265840348149E-1
 6.528992841100000E9     5.584917534461050E-1   -6.818487330482681E-2   -9.356449398537968E-3   -3.390181890719168E-2   -1.015554658537824E-2   -3.361160106410677E-2    4.735825164740097E-1   -1.991091882162170E-1
 6.529003008200000E9     5.583216216177643E-1   -6.904104496735898E-2   -9.585225262634840E-3   -3.406957710467651E-2   -1.036071502576597E-2   -3.385372790956062E-2    4.730762584934837E-1   -1.998870869925438E-1
 6.529013175300000E9     5.583285637770399E-1   -6.984010665880167E-2   -9.666293164025270E-3   -3.413902096220855E-2   -1.045611498281170E-2   -3.400473567366023E-2    4.726674640065587E-1   -2.009794053286253E-1
 6.529023342400000E9     5.581611274843530E-1   -7.073809291505868E-2   -9.755737959219834E-3   -3.443854601342387E-2   -1.060996269617976E-2   -3.401965951733452E-2    4.723092610906401E-1   -2.017824809535305E-1
 6.529033509500000E9     5.579872339072650E-1   -7.149894013031960E-2   -9.922582352740591E-3   -3.463213545694610E-2   -1.072147328505477E-2   -3.438184171918406E-2    4.716704127374889E-1   -2.026847656130412E-1
 6.529043676600000E9     5.578660595221350E-1   -7.230225277403286E-2   -1.000619624014575E-2   -3.458293411782426E-2   -1.085974765929036E-2   -3.451757438283399E-2    4.713840299391870E-1   -2.035859970151917E-1
 6.529053843700000E9     5.578179861359903E-1   -7.314581672305083E-2   -1.024971663815062E-2   -3.488762643110229E-2   -1.095801649123139E-2   -3.468076884403834E-2    4.709364991259663E-1   -2.045885470271285E-1
 6.529064010800000E9     5.577145696113486E-1   -7.398221100324508E-2   -1.026304419071112E-2   -3.501956153339446E-2   -1.110169850926649E-2   -3.484684492392547E-2    4.705194808031914E-1   -2.054699526148124E-1
 6.529074177900000E9     5.576111994266704E-1   -7.485483494533660E-2   -1.047127432222285E-2   -3.515403360878867E-2   -1.120081228863426E-2   -3.505600564862985E-2    4.701537002153365E-1   -2.064321527955695E-1
 6.529084345000000E9     5.575192593951923E-1   -7.570091534316929E-2   -1.062624730983249E-2   -3.547145528176764E-2   -1.133271234207901E-2   -3.520214172326661E-2    4.697652664884865E-1   -2.071852937623374E-1
 6.529094512100000E9     5.572907781732577E-1   -7.649417736177390E-2   -1.060143537933942E-2   -3.558809772593518E-2   -1.150217687021731E-2   -3.537804678656097E-2    4.692062428620698E-1   -2.083013805053912E-1
 6.529104679200000E9     5.570772533090856E-1   -7.746276996037381E-2   -1.079891519292704E-2   -3.576069275272151E-2   -1.163878221178197E-2   -3.563517732099052E-2    4.687453135196115E-1   -2.091973418861590E-1
 6.529114846300000E9     5.569838569356619E-1   -7.817046750540757E-2   -1.086297322001023E-2   -3.597209569649445E-2   -1.182758939487683E-2   -3.580765870395394E-2    4.683916109035857E-1   -2.100452950235596E-1
 6.529125013400000E9     5.568240472832821E-1   -7.903770192339658E-2   -1.117841720479084E-2   -3.619920442011784E-2   -1.201343900072191E-2   -3.598260489531168E-2    4.678639586952532E-1   -2.110840310593431E-1
 6.529135180500000E9     5.567039553728351E-1   -7.995203462527328E-2   -1.131061723507858E-2   -3.638074404890584E-2   -1.205904754626868E-2   -3.610583352222078E-2    4.674768459497308E-1   -2.120884233803966E-1
 6.529145347600000E9     5.565846680408233E-1   -8.085135833013803E-2   -1.140054597442239E-2   -3.653776075548349E-2   -1.216039659451462E-2   -3.639807786647957E-2    4.671277169420741E-1   -2.130811032713666E-1
 6.529155514700000E9     5.565290339177827E-1   -8.160390075576071E-2   -1.152078932646382E-2   -3.668409900948168E-2   -1.242309990759163E-2   -3.648610478155460E-2    4.663875677161113E-1   -2.138528356957941E-1
 6.529165681800000E9     5.563078366705947E-1   -8.246207847810506E-2   -1.155480937341041E-2   -3.682998841947641E-2   -1.245478347583708E-2   -3.675370943124163E-2    4.659487901390671E-1   -2.147400924117889E-1
 6.529175848900000E9     5.562125212601290E-1   -8.331947090911165E-2   -1.175718705814262E-2   -3.694418328580019E-2   -1.270779171012188E-2   -3.692580909019342E-2    4.654980140610779E-1   -2.156913835231723E-1
 6.529186016000000E9     5.560451381979181E-1   -8.426809319137596E-2   -1.190541600472739E-2   -3.720760173857733E-2   -1.274115671976686E-2   -3.720350590264045E-2    4.649149574278564E-1   -2.167790781042424E-1
 6.529196183100000E9     5.558957618527306E-1   -8.504924348627788E-2   -1.188099739437496E-2   -3.744451946610595E-2   -1.301382980983945E-2   -3.727036903971025E-2    4.645789075028082E-1   -2.176636218275641E-1
 6.529206350200000E9     5.557816005505318E-1   -8.593763319959936E-2   -1.219988777453622E-2   -3.768516980322131E-2   -1.311719690891616E-2   -3.750154444953662E-2    4.639688071675613E-1   -2.186407139166550E-1
 6.529216517300000E9     5.556009543328790E-1   -8.677089991212864E-2   -1.247057992582137E-2   -3.794296781174253E-2   -1.319860343257433E-2   -3.762877448524117E-2    4.635372797464552E-1   -2.195797879170138E-1
 6.529226684400000E9     5.553615262872349E-1   -8.766161341332446E-2   -1.253514310497552E-2   -3.805403251172376E-2   -1.345582678906186E-2   -3.797146829744542E-2    4.629133572099731E-1   -2.205486968349656E-1
 6.529236851500000E9     5.553036449010613E-1   -8.850945454948347E-2   -1.284698945230135E-2   -3.845452841893753E-2   -1.353125801433811E-2   -3.812412119221861E-2    4.624041749249200E-1   -2.216096300773566E-1
 6.529247018600000E9     5.551508309956824E-1   -8.934966051065552E-2   -1.299577612507172E-2   -3.855468929569492E-2   -1.370872009274378E-2   -3.835213300082610E-2    4.618898872847789E-1   -2.225078411749050E-1
 6.529257185700000E9     5.550454440360100E-1   -9.026820263698784E-2   -1.291724208366341E-2   -3.883316817693588E-2   -1.391087748235049E-2   -3.850979063765553E-2    4.614253751372394E-1   -2.233744580552368E-1
 6.529267352800000E9     5.548484976609860E-1   -9.112280426705799E-2   -1.305974436380411E-2   -3.905720585577543E-2   -1.405705935824116E-2   -3.882013028904800E-2    4.608266955079230E-1   -2.244308720333763E-1
 6.529277519900000E9     5.544637426837051E-1   -9.211278577646979E-2   -1.332741600518082E-2   -3.933816513602504E-2   -1.433875816762096E-2   -3.901226934185362E-2    4.602632081087061E-1   -2.254344347446834E-1
 6.529287687000000E9     5.544488848394022E-1   -9.291749037157392E-2   -1.349656175387678E-2   -3.941493236793583E-2   -1.449204698721867E-2   -3.915664014871433E-2    4.598638694674116E-1   -2.264020878346308E-1
 6.529297854100000E9     5.543414817660212E-1   -9.371934164816280E-2   -1.369602810950868E-2   -3.965255215373679E-2   -1.473549978102830E-2   -3.931582931353058E-2    4.590323322955133E-1   -2.274309897072975E-1
 6.529308021200000E9     5.540723988397491E-1   -9.465591675209914E-2   -1.379784063041065E-2   -3.996537476319383E-2   -1.478953781649029E-2   -3.966363802897612E-2    4.585244309125433E-1   -2.284178712100733E-1
 6.529318188300000E9     5.539313811415270E-1   -9.553608674154300E-2   -1.409964526182353E-2   -4.033557320337460E-2   -1.488005218240448E-2   -3.989066999431422E-2    4.580884470345075E-1   -2.293570427375551E-1
 6.529328355400000E9     5.538089181600059E-1   -9.637379805229254E-2   -1.438151040785788E-2   -4.029812265093329E-2   -1.526753859446695E-2   -4.013286455387065E-2    4.576312069485829E-1   -2.303359828205594E-1
 6.529338522500000E9     5.535813912617668E-1   -9.725919831067738E-2   -1.435516299615811E-2   -4.052378049905336E-2   -1.533367746257124E-2   -4.033577750466000E-2    4.568857851393089E-1   -2.314003256045178E-1
 6.529348689600000E9     5.533029858762776E-1   -9.824055020611451E-2   -1.445937492167238E-2   -4.074332960436838E-2   -1.554626284047614E-2   -4.044743263161434E-2    4.563816843896932E-1   -2.324101706736046E-1
 6.529358856700000E9     5.532438957540294E-1   -9.898451885948054E-2   -1.471942194457096E-2   -4.106794111994438E-2   -1.577033252761180E-2   -4.079144321929937E-2    4.557901491957472E-1   -2.333038815025531E-1
 6.529369023800000E9     5.529350388499957E-1   -9.997068367217947E-2   -1.504761910209600E-2   -4.146629304539257E-2   -1.591695093028340E-2   -4.104806640651321E-2    4.552041111166033E-1   -2.342878855092538E-1
 6.529379190900000E9     5.527890434944280E-1   -1.007881785228375E-1   -1.513790319999114E-2   -4.167906239697302E-2   -1.619974417889692E-2   -4.141376807598671E-2    4.546172120988330E-1   -2.354224353383058E-1
 6.529389358000000E9     5.526047745847867E-1   -1.016891426927799E-1   -1.535139510956045E-2   -4.185544014083727E-2   -1.635035048926450E-2   -4.154345228941919E-2    4.538991587809833E-1   -2.364294849631559E-1
 6.529399525100000E9     5.523997308825775E-1   -1.025115486905429E-1   -1.558877247282600E-2   -4.211299336046773E-2   -1.665186957510497E-2   -4.180559861884457E-2    4.531006217617984E-1   -2.373733426308498E-1
 6.529409692200000E9     5.522729326962943E-1   -1.034641265658359E-1   -1.585075286471409E-2   -4.232299222104581E-2   -1.677033123436091E-2   -4.203291335291289E-2    4.527234354077543E-1   -2.384686630339703E-1
 6.529419859300000E9     5.521166780559853E-1   -1.042280289890262E-1   -1.600255479240243E-2   -4.258361834281030E-2   -1.693892158544583E-2   -4.219529227697704E-2    4.519424046117275E-1   -2.395384040908927E-1
 6.529430026400000E9     5.518343360626914E-1   -1.053283234345179E-1   -1.627813576644985E-2   -4.276744490366981E-2   -1.721497534629964E-2   -4.251479958914010E-2    4.514481212331752E-1   -2.405844270464702E-1
 6.529440193500000E9     5.515895464436196E-1   -1.061163901968051E-1   -1.639664214255498E-2   -4.313404647352224E-2   -1.743574885140972E-2   -4.289489355198912E-2    4.508382314605920E-1   -2.417623412648810E-1
 6.529450360600000E9     5.514872556619640E-1   -1.070917283448207E-1   -1.666100416333719E-2   -4.343020597305482E-2   -1.772519839905457E-2   -4.318153025881270E-2    4.500252169318578E-1   -2.426780943598005E-1
 6.529460527700000E9     5.512043685915532E-1   -1.079521471152742E-1   -1.689183281080402E-2   -4.379045824465341E-2   -1.781459039275892E-2   -4.332326692823305E-2    4.494589268061990E-1   -2.439041573566895E-1
 6.529470694800000E9     5.509591184551671E-1   -1.088114268756114E-1   -1.707116843162282E-2   -4.396376575207726E-2   -1.808502766865312E-2   -4.358190003695245E-2    4.487704374237853E-1   -2.448589653974895E-1
 6.529480861900000E9     5.507468529756190E-1   -1.097702601010225E-1   -1.726018871165023E-2   -4.419584353133007E-2   -1.848049233440776E-2   -4.386412481568694E-2    4.480339304196741E-1   -2.458250575030619E-1
 6.529491029000000E9     5.505220702467487E-1   -1.107013925123025E-1   -1.759218296113796E-2   -4.441033887084792E-2   -1.870805537070945E-2   -4.424303659047749E-2    4.473631063511011E-1   -2.470103374874565E-1
 6.529501196100000E9     5.503622983091432E-1   -1.115180494211351E-1   -1.792253086410387E-2   -4.486471400506561E-2   -1.882329895294308E-2   -4.447423788136021E-2    4.466150909225232E-1   -2.481182476384431E-1
 6.529511363200000E9     5.500828069411310E-1   -1.124829459826647E-1   -1.802548980106407E-2   -4.511113483663664E-2   -1.905583710124894E-2   -4.483595853541720E-2    4.460006396964751E-1   -2.492752714802363E-1
 6.529521530300000E9     5.497912969349579E-1   -1.134405547246852E-1   -1.826488257716740E-2   -4.551828012469517E-2   -1.940918717934957E-2   -4.509288431596919E-2    4.452891973897671E-1   -2.501521397252436E-1
 6.529531697400000E9     5.496037442345979E-1   -1.143339265369370E-1   -1.853314127986044E-2   -4.570313610253306E-2   -1.970614965471766E-2   -4.531127676656672E-2    4.445564261726462E-1   -2.513359124721818E-1
 6.529541864500000E9     5.494230292455777E-1   -1.152650480176283E-1   -1.877826523590953E-2   -4.612652611379661E-2   -1.986821345384134E-2   -4.569043028553205E-2    4.437445319979628E-1   -2.524518483595056E-1
 6.529552031600000E9     5.492995067710896E-1   -1.161009470744257E-1   -1.910320549795338E-2   -4.630287462919225E-2   -2.029502713089800E-2   -4.593785017127191E-2    4.429384126859029E-1   -2.535494497663214E-1
 6.529562198700000E9     5.489820133201340E-1   -1.172009935891049E-1   -1.930868746389617E-2   -4.664332034956641E-2   -2.044960709673241E-2   -4.637113645104273E-2    4.422875240134349E-1   -2.546376059220591E-1
 6.529572365800000E9     5.486482057657964E-1   -1.180334251629352E-1   -1.965227357468077E-2   -4.711021055228907E-2   -2.074767732737112E-2   -4.660919718676106E-2    4.415050235799075E-1   -2.557825406169630E-1
 6.529582532900000E9     5.484126514121271E-1   -1.190212417550600E-1   -1.988779728006487E-2   -4.729160440565787E-2   -2.103862788648617E-2   -4.687891156757726E-2    4.407264259330295E-1   -2.569368792581695E-1
 6.529592700000000E9     5.483040462632432E-1   -1.200176026486018E-1   -2.017604425588444E-2   -4.764951692941913E-2   -2.133261792569503E-2   -4.714404694497998E-2    4.397987174305389E-1   -2.582003499600425E-1
 6.529602867100000E9     5.478283927588561E-1   -1.209408626769708E-1   -2.045138443924114E-2   -4.804297404439875E-2   -2.160561654157321E-2   -4.757321199175773E-2    4.392008396597819E-1   -2.594147509924642E-1
 6.529613034200000E9     5.475964624030365E-1   -1.219336309785981E-1   -2.064909274801287E-2   -4.831195547925834E-2   -2.187999518063912E-2   -4.787829142953650E-2    4.382816826442726E-1   -2.603956509769074E-1
 6.529623201300000E9     5.473928160991176E-1   -1.227354280029472E-1   -2.109122585021174E-2   -4.871230493593610E-2   -2.220875975639171E-2   -4.815584824927433E-2    4.374437647338614E-1   -2.614877210153255E-1
 6.529633368400000E9     5.470500979062959E-1   -1.237999416217020E-1   -2.118487609239738E-2   -4.901653978645376E-2   -2.262021030230715E-2   -4.848800721550322E-2    4.366521267872839E-1   -2.627243930543124E-1
 6.529643535500000E9     5.468120587431136E-1   -1.246866834482514E-1   -2.158301187668482E-2   -4.926659017404350E-2   -2.285533223725469E-2   -4.886212736260771E-2    4.357272464243543E-1   -2.638918125307426E-1
 6.529653702600000E9     5.463611299297407E-1   -1.255693512627150E-1   -2.198478675819884E-2   -4.971267477286988E-2   -2.315594428780970E-2   -4.914967220814179E-2    4.347833750299707E-1   -2.648756635786990E-1
 6.529663869700000E9     5.462106611349510E-1   -1.265972079716579E-1   -2.216631487675703E-2   -5.013564314914139E-2   -2.355751532628757E-2   -4.961626634031684E-2    4.340194164330510E-1   -2.661571900180527E-1
 6.529674036800000E9     5.459477123417127E-1   -1.275556930943054E-1   -2.253406414979058E-2   -5.038742022519793E-2   -2.399706465944065E-2   -4.992118293418775E-2    4.330265503144607E-1   -2.672708321492275E-1
 6.529684203900000E9     5.455877711462314E-1   -1.284534372160200E-1   -2.289301673555634E-2   -5.082519570860412E-2   -2.421756105777948E-2   -5.024668804505258E-2    4.323045699841291E-1   -2.687772593221101E-1
 6.529694371000000E9     5.452734834583679E-1   -1.295599247874358E-1   -2.333163006544334E-2   -5.126704055170651E-2   -2.456579451098740E-2   -5.068674660964658E-2    4.312509807270095E-1   -2.698832016775046E-1
