#  HZ   S   RI   R     50.00 
! Rohde & Schwarz Vector Network Analyzer 
! Rohde-Schwarz,ZNB20-2Port,1311601062101988,3.16
! Created: UTC 3/21/2024, 12:58:12 AM
! freq[Hz]                re:S11                  im:S11                  re:S21                  im:S21                  re:S12                  im:S12                  re:S22                  im:S22
 6.528780105000000E9     5.605004822027079E-1   -5.082496962516200E-2   -7.313863846769224E-3   -3.067140317981010E-2   -8.037763067290824E-3   -3.056730723794779E-2    4.813826520372491E-1   -1.805392056965488E-1
 6.528790276475000E9     5.603917632177834E-1   -5.160058670861326E-2   -7.499791967011509E-3   -3.086529609114554E-2   -8.110914514912908E-3   -3.072720490625458E-2    4.812632989582543E-1   -1.813687212403745E-1
 6.528800447950000E9     5.602872682578441E-1   -5.238006620110656E-2   -7.488376875949625E-3   -3.091903958179603E-2   -8.229817619944865E-3   -3.066698316564550E-2    4.806360149421384E-1   -1.822692987928691E-1
 6.528810619425000E9     5.602017352157305E-1   -5.332544462864505E-2   -7.614215064786999E-3   -3.111071818901706E-2   -8.375226030902246E-3   -3.097216293911730E-2    4.803947003729658E-1   -1.830235116566346E-1
 6.528820790900000E9     5.601009270150310E-1   -5.409963820648111E-2   -7.731876706279089E-3   -3.118701318780174E-2   -8.467541552154494E-3   -3.112599002205473E-2    4.800969344812375E-1   -1.839901114517543E-1
 6.528830962375000E9     5.600612194710761E-1   -5.488243874649117E-2   -7.843512207879806E-3   -3.142462820806868E-2   -8.495225580141206E-3   -3.118779135645401E-2    4.797514904623136E-1   -1.848135849374599E-1
 6.528841133850000E9     5.599866151751252E-1   -5.572343007829637E-2   -7.888901503168590E-3   -3.142063363251187E-2   -8.537458672444990E-3   -3.143462565961119E-2    4.793589631532981E-1   -1.856390402673908E-1
 6.528851305325000E9     5.597987339944775E-1   -5.652307476221229E-2   -7.896132162226703E-3   -3.172614816035459E-2   -8.626343363262848E-3   -3.152802919888901E-2    4.790383298133585E-1   -1.865614284457588E-1
 6.528861476800000E9     5.597848440835744E-1   -5.741245583739220E-2   -8.046696505453178E-3   -3.168104218626319E-2   -8.696001540830747E-3   -3.159185175827045E-2    4.786647730311032E-1   -1.875599211418718E-1
 6.528871648275000E9     5.597131831114740E-1   -5.820913070285991E-2   -8.141982787623672E-3   -3.207739422213872E-2   -8.855490210523237E-3   -3.176711661005403E-2    4.782958218082660E-1   -1.882842576722102E-1
 6.528881819750000E9     5.595992954090095E-1   -5.895024283710684E-2   -8.212242666534584E-3   -3.200608654876263E-2   -8.964268368470986E-3   -3.201394467910429E-2    4.778883376281139E-1   -1.892498074590276E-1
 6.528891991225000E9     5.594823919747747E-1   -5.987173105274963E-2   -8.375882328214996E-3   -3.223013970763977E-2   -9.090264916825337E-3   -3.202777077291533E-2    4.773853545519993E-1   -1.899290361599142E-1
 6.528902162700000E9     5.593921018265497E-1   -6.061341160749541E-2   -8.489177108884237E-3   -3.238390647563430E-2   -9.191193622361980E-3   -3.232563827217193E-2    4.771694799447694E-1   -1.910315423283312E-1
 6.528912334175000E9     5.592856958619925E-1   -6.149958896685238E-2   -8.518540067028429E-3   -3.245282689007195E-2   -9.290570001099365E-3   -3.241615506997760E-2    4.766623200492069E-1   -1.918733632002874E-1
 6.528922505650000E9     5.591507064252086E-1   -6.233461929379456E-2   -8.576281869801068E-3   -3.263163783233443E-2   -9.490670027697804E-3   -3.254020539170804E-2    4.762160305833901E-1   -1.926862595100839E-1
 6.528932677125000E9     5.591412126968331E-1   -6.315761276329850E-2   -8.779660740054724E-3   -3.277763428235748E-2   -9.566313191676709E-3   -3.277112044936674E-2    4.757933589241027E-1   -1.936632963836195E-1
 6.528942848600000E9     5.590377634224586E-1   -6.391571283931030E-2   -8.847500638380483E-3   -3.312604660932630E-2   -9.577191814039963E-3   -3.275057590726669E-2    4.757363834339219E-1   -1.944558101308064E-1
 6.528953020075000E9     5.589299623582982E-1   -6.492520998892871E-2   -9.042912073239916E-3   -3.320223276367645E-2   -9.794670740813685E-3   -3.306503478384690E-2    4.751763214823761E-1   -1.955485073800904E-1
 6.528963191550000E9     5.587632767095753E-1   -6.567474125426806E-2   -9.019118926340353E-3   -3.327208733425663E-2   -9.852341707854500E-3   -3.316207421149912E-2    4.747853787948657E-1   -1.962661204157706E-1
 6.528973363025000E9     5.587059275533680E-1   -6.659532361073754E-2   -9.318995788220093E-3   -3.356973477588038E-2   -9.886849155156629E-3   -3.333984329127452E-2    4.743430533757909E-1   -1.970687477084170E-1
 6.528983534500000E9     5.586296542432831E-1   -6.729120666816973E-2   -9.391724907286052E-3   -3.364426165489175E-2   -1.010747724648183E-2   -3.343687447194405E-2    4.739931121263558E-1   -1.979797590429280E-1
 6.528993705975000E9     5.585648164860924E-1   -6.811851717058545E-2   -9.386081096299721E-3   -3.385708756342153E-2   -1.026765201785979E-2   -3.368425070757889E-2    4.735784275708527E-1   -1.989414324202259E-1
 6.529003877450000E9     5.583282674774948E-1   -6.902666850558248E-2   -9.531603610732067E-3   -3.401117197181554E-2   -1.025402590439214E-2   -3.383458917050679E-2    4.730628996762019E-1   -1.999487214051349E-1
 6.529014048925000E9     5.583131561494910E-1   -6.976647319537412E-2   -9.435549545339941E-3   -3.410269698660697E-2   -1.052864541203862E-2   -3.399571357667601E-2    4.726462418483939E-1   -2.008459233397406E-1
 6.529024220400000E9     5.582284683132938E-1   -7.060136011656087E-2   -9.845216220501642E-3   -3.443809873993506E-2   -1.068845638201520E-2   -3.423171920023699E-2    4.723275343676428E-1   -2.015970789625181E-1
 6.529034391875000E9     5.579832336351718E-1   -7.148810992298023E-2   -9.833226330933377E-3   -3.448386369234970E-2   -1.071891390879235E-2   -3.438699814222195E-2    4.717602594974059E-1   -2.025167383036560E-1
 6.529044563350000E9     5.578497123953453E-1   -7.238994617159235E-2   -1.002021601536493E-2   -3.462034957986378E-2   -1.079769145852954E-2   -3.454722175298627E-2    4.713568065061737E-1   -2.035749631589709E-1
 6.529054734825000E9     5.576734251428845E-1   -7.317557760024249E-2   -1.007021993024056E-2   -3.496439549082338E-2   -1.094684826496582E-2   -3.465036014978551E-2    4.709490871029633E-1   -2.044594391017975E-1
 6.529064906300000E9     5.576703164453175E-1   -7.399726672430490E-2   -1.044132095281806E-2   -3.503650816316919E-2   -1.113544637698255E-2   -3.480391697408973E-2    4.707071277877181E-1   -2.053857444846350E-1
 6.529075077775000E9     5.575337788007487E-1   -7.492805923361419E-2   -1.035862580686640E-2   -3.509882864834921E-2   -1.122529384783372E-2   -3.497487309476312E-2    4.700171024360444E-1   -2.061273278092274E-1
 6.529085249250000E9     5.574368027777892E-1   -7.574510215750413E-2   -1.038261387810601E-2   -3.551098319869855E-2   -1.134538851067383E-2   -3.518947702565043E-2    4.696006830807812E-1   -2.070519854360653E-1
 6.529095420725000E9     5.572365866475194E-1   -7.659086195311064E-2   -1.059101597796562E-2   -3.554439960657002E-2   -1.138924678967188E-2   -3.547816474955946E-2    4.692793163453688E-1   -2.081502453731746E-1
 6.529105592200000E9     5.570848821495182E-1   -7.742244170498139E-2   -1.063181187535123E-2   -3.569571616994768E-2   -1.160337352401386E-2   -3.561406607809499E-2    4.687536515626390E-1   -2.089436721453823E-1
 6.529115763675000E9     5.569957013124353E-1   -7.825593794122022E-2   -1.093973185660845E-2   -3.588915644202154E-2   -1.178676037050912E-2   -3.568224395485471E-2    4.682964438435698E-1   -2.098732306087314E-1
 6.529125935150000E9     5.567970265768888E-1   -7.911852561656484E-2   -1.106511225292483E-2   -3.614377523349829E-2   -1.190592059162534E-2   -3.585590403841794E-2    4.678558756984542E-1   -2.108286672896851E-1
 6.529136106625000E9     5.566800879233751E-1   -8.005162738831267E-2   -1.127304205706594E-2   -3.632393447348629E-2   -1.201618897229797E-2   -3.604977434068420E-2    4.672542686772446E-1   -2.118300662797690E-1
 6.529146278100000E9     5.565439666461832E-1   -8.086781439860992E-2   -1.142972925617330E-2   -3.645691437988294E-2   -1.219326395621935E-2   -3.637640333673535E-2    4.667782809879014E-1   -2.127038293251365E-1
 6.529156449575000E9     5.564265908527869E-1   -8.163071442994313E-2   -1.153773179433072E-2   -3.671020161631988E-2   -1.237398501846829E-2   -3.643404167459875E-2    4.663787408675679E-1   -2.134994309042477E-1
 6.529166621050000E9     5.563051920453561E-1   -8.245528867162448E-2   -1.172565972387361E-2   -3.687857072454235E-2   -1.254351921916693E-2   -3.669619128370646E-2    4.659271929705631E-1   -2.145362670949995E-1
 6.529176792525000E9     5.561777511877597E-1   -8.341295575448199E-2   -1.176402775098509E-2   -3.706589339968373E-2   -1.267247807884959E-2   -3.684055643310612E-2    4.654384949941194E-1   -2.155584538236667E-1
 6.529186964000000E9     5.559048018279644E-1   -8.425302829053116E-2   -1.197310411219206E-2   -3.725746587797807E-2   -1.276752283740239E-2   -3.707686332610468E-2    4.648106155875162E-1   -2.164526267963671E-1
 6.529197135475000E9     5.558494558201326E-1   -8.513434218572359E-2   -1.207478285760463E-2   -3.743638406295195E-2   -1.296346635071555E-2   -3.735264535587522E-2    4.645061246595834E-1   -2.176248095481017E-1
 6.529207306950000E9     5.557167373847722E-1   -8.592600471163440E-2   -1.219030975625854E-2   -3.772456627951726E-2   -1.304731236715498E-2   -3.750368328101815E-2    4.637916521259666E-1   -2.184619766286564E-1
 6.529217478425000E9     5.554863425152563E-1   -8.683212672384019E-2   -1.246460596601996E-2   -3.780101551014248E-2   -1.327461972192318E-2   -3.775533801757598E-2    4.633580281135165E-1   -2.194196042404917E-1
 6.529227649900000E9     5.554459810169688E-1   -8.776553466638462E-2   -1.244870284902619E-2   -3.804955732399076E-2   -1.344844529765724E-2   -3.785890407077918E-2    4.628583023782752E-1   -2.204363357203531E-1
 6.529237821375000E9     5.552498385442115E-1   -8.868295953901523E-2   -1.255887204151035E-2   -3.856179028786774E-2   -1.356183643822779E-2   -3.814520203000741E-2    4.625406658617388E-1   -2.212755055018397E-1
 6.529247992850000E9     5.550261670405857E-1   -8.939382617186013E-2   -1.293339570443126E-2   -3.854080626753915E-2   -1.380993142847267E-2   -3.833517335620353E-2    4.617572061128986E-1   -2.223361783703477E-1
 6.529258164325000E9     5.549788296940870E-1   -9.037457980240131E-2   -1.303219915821583E-2   -3.878379925512513E-2   -1.394863503982077E-2   -3.855641423729787E-2    4.613450477573559E-1   -2.233859575850229E-1
 6.529268335800000E9     5.547153465837069E-1   -9.111405708300138E-2   -1.302253380522928E-2   -3.893709440936945E-2   -1.405002910116804E-2   -3.872710062908234E-2    4.608914321590218E-1   -2.242989242641998E-1
 6.529278507275000E9     5.544799464065984E-1   -9.202622641361552E-2   -1.337305571842601E-2   -3.924788364215804E-2   -1.422146081780088E-2   -3.893286300123468E-2    4.602805324725378E-1   -2.253033793804707E-1
 6.529288678750000E9     5.544104562181602E-1   -9.288107342122146E-2   -1.352082079417914E-2   -3.956282206700490E-2   -1.449649929496684E-2   -3.921783073810260E-2    4.597578220938293E-1   -2.262628270730708E-1
 6.529298850225000E9     5.543601465889457E-1   -9.387552639181150E-2   -1.370279225573373E-2   -3.954071340787591E-2   -1.469272208885425E-2   -3.938808271969029E-2    4.591307756511872E-1   -2.272679019821212E-1
 6.529309021700000E9     5.540811874610369E-1   -9.461670586016195E-2   -1.382513324168854E-2   -3.986618887122111E-2   -1.483764810452225E-2   -3.965973922123583E-2    4.587392250637624E-1   -2.281714518449334E-1
 6.529319193175000E9     5.538910954722049E-1   -9.557874081457689E-2   -1.405475444456982E-2   -4.010085006595301E-2   -1.508524442233679E-2   -3.979179699399421E-2    4.581271793385390E-1   -2.292059015779766E-1
 6.529329364650000E9     5.537003436134056E-1   -9.633940492599917E-2   -1.419421149545808E-2   -4.030342516093373E-2   -1.511108156030253E-2   -4.012766385807002E-2    4.574508750143466E-1   -2.301351090677197E-1
 6.529339536125000E9     5.535262008142069E-1   -9.727862239059773E-2   -1.437794546119599E-2   -4.055391229603557E-2   -1.527481027738575E-2   -4.032052355351012E-2    4.569295908832521E-1   -2.311650538388799E-1
 6.529349707600000E9     5.533431821510086E-1   -9.812799764935271E-2   -1.448986037495662E-2   -4.078974414616011E-2   -1.558183235843135E-2   -4.058511872661709E-2    4.561659902802473E-1   -2.321727541897023E-1
 6.529359879075000E9     5.532383840555414E-1   -9.901137234151623E-2   -1.472422087138460E-2   -4.113280030411859E-2   -1.573866469548327E-2   -4.078906702202832E-2    4.557404395788369E-1   -2.333324908582666E-1
 6.529370050550000E9     5.529074125621227E-1   -9.996292995091360E-2   -1.499596846839232E-2   -4.145070402831516E-2   -1.595507917793975E-2   -4.106526983951762E-2    4.551347687131201E-1   -2.343090713140371E-1
 6.529380222025000E9     5.528708678869216E-1   -1.008799684610456E-1   -1.511334619070459E-2   -4.159716775272071E-2   -1.614285809852310E-2   -4.121247114703341E-2    4.543784194987630E-1   -2.353650807928580E-1
 6.529390393500000E9     5.525540673382358E-1   -1.016802692437895E-1   -1.540807648999270E-2   -4.190527028898476E-2   -1.635725607480900E-2   -4.146163938290698E-2    4.538992137153008E-1   -2.364742946837294E-1
 6.529400564975000E9     5.524645891981208E-1   -1.025628641337653E-1   -1.551820703648911E-2   -4.200974963546148E-2   -1.654438450409168E-2   -4.174529620519449E-2    4.532883737055227E-1   -2.374952891162443E-1
 6.529410736450000E9     5.520658088274671E-1   -1.034690401154360E-1   -1.583623788999675E-2   -4.231191706435247E-2   -1.671024909067894E-2   -4.202129467571893E-2    4.528477748809004E-1   -2.383017650260928E-1
 6.529420907925000E9     5.521123687189625E-1   -1.044681428229358E-1   -1.601550793387680E-2   -4.265954414122307E-2   -1.700027497548437E-2   -4.220350590525138E-2    4.521486440754205E-1   -2.393497650482866E-1
 6.529431079400000E9     5.517754670768098E-1   -1.052379117451156E-1   -1.616478626161128E-2   -4.290166096686060E-2   -1.728327525048881E-2   -4.244814477117831E-2    4.512795322104513E-1   -2.404417943837984E-1
 6.529441250875000E9     5.515522273871624E-1   -1.061396650297849E-1   -1.641356621121507E-2   -4.303173381860492E-2   -1.748205683568309E-2   -4.274839131024629E-2    4.506052422657360E-1   -2.415379063306654E-1
 6.529451422350000E9     5.513758096273828E-1   -1.070343194516001E-1   -1.659476826230060E-2   -4.345614719219857E-2   -1.764105698434057E-2   -4.308291818123574E-2    4.502469102824973E-1   -2.425381247010936E-1
 6.529461593825000E9     5.512535161341117E-1   -1.079454284727754E-1   -1.694274973804507E-2   -4.359861532210955E-2   -1.785344205000903E-2   -4.330378759692064E-2    4.493765635003401E-1   -2.437855655072659E-1
 6.529471765300000E9     5.508798387986036E-1   -1.089386628324083E-1   -1.710117954591267E-2   -4.399721558091743E-2   -1.814930280378070E-2   -4.366764785871432E-2    4.487600054709898E-1   -2.447997173678568E-1
 6.529481936775000E9     5.506957883819137E-1   -1.098424758963487E-1   -1.719864984490592E-2   -4.437680244225663E-2   -1.839903592996345E-2   -4.386149636150116E-2    4.478428701600911E-1   -2.458681861829283E-1
 6.529492108250000E9     5.504615052950688E-1   -1.107483911773885E-1   -1.746680259563984E-2   -4.452453460198787E-2   -1.865254809592419E-2   -4.421417864025506E-2    4.475385120876298E-1   -2.468574604438709E-1
 6.529502279725000E9     5.502703482008251E-1   -1.116120320312110E-1   -1.770581956132075E-2   -4.476983116910987E-2   -1.885462234512192E-2   -4.441822022507103E-2    4.466478218393224E-1   -2.478796454064901E-1
 6.529512451200000E9     5.499631673067520E-1   -1.126188493686550E-1   -1.809210170846007E-2   -4.509920766465119E-2   -1.911847025303776E-2   -4.477519657346759E-2    4.460682868657116E-1   -2.490956194504262E-1
 6.529522622675000E9     5.498004629652801E-1   -1.135337525416890E-1   -1.819945185450273E-2   -4.535686036170060E-2   -1.939481621599019E-2   -4.511503369776307E-2    4.454056732283274E-1   -2.499886646347838E-1
 6.529532794150000E9     5.496505436599977E-1   -1.145026216225393E-1   -1.853359424195907E-2   -4.565731980463767E-2   -1.960152259171260E-2   -4.534446255437465E-2    4.446258765508437E-1   -2.513242134354229E-1
 6.529542965625000E9     5.493533062009767E-1   -1.153819586815724E-1   -1.871561859172348E-2   -4.597450327408237E-2   -1.992914683505323E-2   -4.569922285813938E-2    4.436331747181110E-1   -2.523671581488086E-1
 6.529553137100000E9     5.490487577965696E-1   -1.162544613275447E-1   -1.921607093770196E-2   -4.630390711759166E-2   -2.021000648351784E-2   -4.601250841731350E-2    4.429134176696753E-1   -2.535292371307677E-1
 6.529563308575000E9     5.488946110412959E-1   -1.172088958559833E-1   -1.926706228116921E-2   -4.671566879202146E-2   -2.041964993176900E-2   -4.625360501710708E-2    4.422023100649597E-1   -2.545854665553853E-1
 6.529573480050000E9     5.485585108002257E-1   -1.181950405574773E-1   -1.970716307123297E-2   -4.685519786328723E-2   -2.074277864331859E-2   -4.648670841508504E-2    4.414644743119697E-1   -2.555221488118511E-1
 6.529583651525000E9     5.483783995132683E-1   -1.190271347254822E-1   -1.974329036487595E-2   -4.721498442325209E-2   -2.111459973471652E-2   -4.696329900143333E-2    4.406319461607438E-1   -2.568276358174276E-1
 6.529593823000000E9     5.480805621956165E-1   -1.201082013384874E-1   -2.008592771603862E-2   -4.765053535678106E-2   -2.125165050565699E-2   -4.711543485213258E-2    4.398340824574997E-1   -2.578661743282963E-1
 6.529603994475000E9     5.477690054557477E-1   -1.209700976679692E-1   -2.032389043290796E-2   -4.796680065841692E-2   -2.156738469766101E-2   -4.757381523228047E-2    4.391203131931526E-1   -2.590125046687333E-1
 6.529614165950000E9     5.475184578698981E-1   -1.218727615736590E-1   -2.076135822686057E-2   -4.819536559207982E-2   -2.195820390023445E-2   -4.776482554982880E-2    4.381655637705124E-1   -2.603891498279798E-1
 6.529624337425000E9     5.472631475864745E-1   -1.227955840543114E-1   -2.090390809850805E-2   -4.863682750999464E-2   -2.222695683694145E-2   -4.808822695633187E-2    4.374981015011118E-1   -2.613962116577523E-1
 6.529634508900000E9     5.469512668033769E-1   -1.237880568371324E-1   -2.125465084175412E-2   -4.898356406909439E-2   -2.250355421436234E-2   -4.843921106095673E-2    4.365012471054097E-1   -2.626373588119117E-1
 6.529644680375000E9     5.467118992446899E-1   -1.245699413673959E-1   -2.166397142023002E-2   -4.928290005224523E-2   -2.290426448597030E-2   -4.880550655981029E-2    4.356848149751333E-1   -2.635980414828743E-1
 6.529654851850000E9     5.465340369775041E-1   -1.256947956278146E-1   -2.193017314135463E-2   -4.961973786725991E-2   -2.319665714499258E-2   -4.915304198613384E-2    4.348582218346032E-1   -2.649363227845914E-1
 6.529665023325000E9     5.462235483168767E-1   -1.266721076316302E-1   -2.208876608046402E-2   -5.009884964750132E-2   -2.343178108004680E-2   -4.955465661189983E-2    4.339606499211874E-1   -2.661094899718743E-1
 6.529675194800000E9     5.458980171030803E-1   -1.276008730961603E-1   -2.254232545693070E-2   -5.044979069660541E-2   -2.396614273438385E-2   -4.985459571486951E-2    4.330339371543358E-1   -2.673010855326362E-1
 6.529685366275000E9     5.455610051426688E-1   -1.285555838141365E-1   -2.293310575864306E-2   -5.072550033848555E-2   -2.423539517516302E-2   -5.024274058246837E-2    4.323494788879003E-1   -2.684860559554335E-1
 6.529695537750000E9     5.451956269752509E-1   -1.295077709805580E-1   -2.324489352958322E-2   -5.117999499765593E-2   -2.468438732673415E-2   -5.059308734505110E-2    4.311745804989684E-1   -2.696295461108503E-1
