#  HZ   S   RI   R     50.00 
! Rohde & Schwarz Vector Network Analyzer 
! Rohde-Schwarz,ZNB20-2Port,1311601062101988,3.16
! Created: UTC 3/21/2024, 12:58:24 AM
! freq[Hz]                re:S11                  im:S11                  re:S21                  im:S21                  re:S12                  im:S12                  re:S22                  im:S22
 6.528780533000000E9     5.603978687350994E-1   -5.068992847556134E-2   -7.252972007622639E-3   -3.054261398090764E-2   -8.026153434686283E-3   -3.050132848907846E-2    4.816335024520796E-1   -1.797774223371587E-1
 6.528790721775000E9     5.602512520163214E-1   -5.149676957113661E-2   -7.488263202956515E-3   -3.077783962205244E-2   -8.129351807384437E-3   -3.057028469629589E-2    4.809677276094920E-1   -1.805863167937440E-1
 6.528800910550000E9     5.602605162284565E-1   -5.231418246120922E-2   -7.472333864394257E-3   -3.089126478153264E-2   -8.179319436702553E-3   -3.076572891360796E-2    4.808381981985591E-1   -1.815430024543266E-1
 6.528811099325000E9     5.602080400400852E-1   -5.310095175706575E-2   -7.459771406987900E-3   -3.110120004094632E-2   -8.220096366739052E-3   -3.089574079745064E-2    4.803822556697427E-1   -1.823093474151042E-1
 6.528821288100000E9     5.600387128050407E-1   -5.401482905257199E-2   -7.838626035256148E-3   -3.120504711032008E-2   -8.408169363443373E-3   -3.096106833807095E-2    4.800036957874552E-1   -1.831254309198564E-1
 6.528831476875000E9     5.600053004680348E-1   -5.478528749484064E-2   -7.878997264259047E-3   -3.143495606524578E-2   -8.448786950707233E-3   -3.128162308347810E-2    4.796732268764601E-1   -1.840908190765797E-1
 6.528841665650000E9     5.599396668720372E-1   -5.560214954072945E-2   -7.721473337027234E-3   -3.152537570311277E-2   -8.557169157542923E-3   -3.124821698662013E-2    4.792990086592361E-1   -1.849117818429007E-1
 6.528851854425000E9     5.598104981300104E-1   -5.647406878143518E-2   -8.087618648412728E-3   -3.160800870317441E-2   -8.603256943798441E-3   -3.148896885860212E-2    4.789046982872239E-1   -1.858902027311917E-1
 6.528862043200000E9     5.596275654634958E-1   -5.732939370545947E-2   -8.117555325140057E-3   -3.172455238137054E-2   -8.687288814878976E-3   -3.164861114606179E-2    4.787257105675251E-1   -1.867532438036869E-1
 6.528872231975000E9     5.596458629936448E-1   -5.809067145200629E-2   -8.065264728130612E-3   -3.184164118692876E-2   -8.868613107221495E-3   -3.179457958562901E-2    4.782549888300744E-1   -1.876149364816134E-1
 6.528882420750000E9     5.594638581535505E-1   -5.901378046412320E-2   -8.233887724564612E-3   -3.216187542057018E-2   -8.875190238863817E-3   -3.192043348482929E-2    4.778749696529063E-1   -1.884667069075846E-1
 6.528892609525000E9     5.595268083584410E-1   -5.974825055910607E-2   -8.472415197076640E-3   -3.226500489293110E-2   -9.136665929403915E-3   -3.211418686186572E-2    4.774171401361883E-1   -1.893303522260766E-1
 6.528902798300000E9     5.592491081752121E-1   -6.060085503150080E-2   -8.420569196345372E-3   -3.244774644389505E-2   -9.079637897479381E-3   -3.223077421306166E-2    4.771760520316246E-1   -1.900591306112976E-1
 6.528912987075000E9     5.591913860907219E-1   -6.136323202765148E-2   -8.580330940736649E-3   -3.253357141582472E-2   -9.212886143228930E-3   -3.238807884027282E-2    4.767886549927264E-1   -1.910938674880941E-1
 6.528923175850000E9     5.591631557413452E-1   -6.224900933369776E-2   -8.661998948723170E-3   -3.271025299970448E-2   -9.407830202510445E-3   -3.245448161939038E-2    4.763926303157616E-1   -1.919078999941751E-1
 6.528933364625000E9     5.590470050046619E-1   -6.311973566046064E-2   -8.722359997281635E-3   -3.286255845827934E-2   -9.475134459778429E-3   -3.266629195696589E-2    4.759157387674357E-1   -1.929062066649967E-1
 6.528943553400000E9     5.589349714354189E-1   -6.395431390937711E-2   -8.988767273954550E-3   -3.305014049817685E-2   -9.579726323196421E-3   -3.270276804012889E-2    4.755269674430598E-1   -1.935766449565218E-1
 6.528953742175000E9     5.587790764435808E-1   -6.463703487713758E-2   -8.909249534543376E-3   -3.311288319579420E-2   -9.754673293066833E-3   -3.300377864412372E-2    4.752138594508598E-1   -1.945002812741624E-1
 6.528963930950000E9     5.587478074244282E-1   -6.557523874348932E-2   -9.188653846180077E-3   -3.319923754672242E-2   -9.842340192967961E-3   -3.307169402841261E-2    4.747417072887011E-1   -1.952601940251250E-1
 6.528974119725000E9     5.587295282348574E-1   -6.642590564316628E-2   -9.168020419849439E-3   -3.347812892970898E-2   -1.006353399580631E-2   -3.323298917685921E-2    4.742271072443447E-1   -1.964673435596443E-1
 6.528984308500000E9     5.584355083123614E-1   -6.731507286390720E-2   -9.320355425927875E-3   -3.363904828734118E-2   -9.971453602115913E-3   -3.346866895070083E-2    4.740079635504788E-1   -1.972537816641011E-1
 6.528994497275000E9     5.584177587907814E-1   -6.803226579217084E-2   -9.327434091982055E-3   -3.376597387550442E-2   -1.024275170796708E-2   -3.366412768364240E-2    4.734910934603865E-1   -1.981992690840293E-1
 6.529004686050000E9     5.583055885910760E-1   -6.888024526587931E-2   -9.604239622358233E-3   -3.396299369624136E-2   -1.028832705441588E-2   -3.375160336882638E-2    4.731715834039475E-1   -1.989677903385119E-1
 6.529014874825000E9     5.582277057996992E-1   -6.966912324466676E-2   -9.624999271672867E-3   -3.402214459830671E-2   -1.046359131809177E-2   -3.377388928207949E-2    4.727597656952738E-1   -2.000833623151169E-1
 6.529025063600000E9     5.581597966321283E-1   -7.062229559430301E-2   -9.885511070740295E-3   -3.420392205228946E-2   -1.047373928556822E-2   -3.413796899640807E-2    4.723031724767498E-1   -2.007247113802155E-1
 6.529035252375000E9     5.579348046994652E-1   -7.149548968774352E-2   -9.945988115391734E-3   -3.447962608692018E-2   -1.071364232532847E-2   -3.435947862804373E-2    4.718878660292507E-1   -2.018649369029136E-1
 6.529045441150000E9     5.577994945876491E-1   -7.238228257971364E-2   -9.936605993211471E-3   -3.467550112964275E-2   -1.080763490513785E-2   -3.443186085424240E-2    4.713113402316581E-1   -2.027538384648114E-1
 6.529055629925000E9     5.576844607049740E-1   -7.318569661984115E-2   -1.009054461732411E-2   -3.482485289239023E-2   -1.092013451313364E-2   -3.462590566480971E-2    4.710594150289389E-1   -2.037022725151249E-1
 6.529065818700000E9     5.575152803421899E-1   -7.399211417875641E-2   -1.027727752272098E-2   -3.492497235737464E-2   -1.102729309990632E-2   -3.473283431186262E-2    4.706068587819917E-1   -2.044235859791607E-1
 6.529076007475000E9     5.574781916155471E-1   -7.477567234420786E-2   -1.039405276904737E-2   -3.514595431997318E-2   -1.120377581978347E-2   -3.495172299922149E-2    4.702453959778780E-1   -2.054623385366716E-1
 6.529086196250000E9     5.573081832143223E-1   -7.577123222288740E-2   -1.051662240369727E-2   -3.523550015660259E-2   -1.135394841557114E-2   -3.509678156503535E-2    4.696270339732812E-1   -2.064381086109872E-1
 6.529096385025000E9     5.572600999403950E-1   -7.647345365648812E-2   -1.063293849001461E-2   -3.563327121867894E-2   -1.135210450437428E-2   -3.527785538428067E-2    4.693075884831248E-1   -2.072941879847972E-1
 6.529106573800000E9     5.570939814438930E-1   -7.732840705788489E-2   -1.101333681263540E-2   -3.570213045107479E-2   -1.161122989758636E-2   -3.552452931352341E-2    4.688561377963102E-1   -2.083895224161419E-1
 6.529116762575000E9     5.568977562338034E-1   -7.821901608749399E-2   -1.093766347558255E-2   -3.605891785937697E-2   -1.169060099364169E-2   -3.570436257656927E-2    4.682456882893156E-1   -2.092047368246688E-1
 6.529126951350000E9     5.568253346142760E-1   -7.911533978925682E-2   -1.092752570114815E-2   -3.609100399597439E-2   -1.190097064427480E-2   -3.587129747907254E-2    4.678621336724249E-1   -2.100728554236487E-1
 6.529137140125000E9     5.566100338724346E-1   -7.993211556406180E-2   -1.100283885723848E-2   -3.627837171326968E-2   -1.203068550203640E-2   -3.603752432463282E-2    4.674796650575446E-1   -2.110715565693111E-1
 6.529147328900000E9     5.565384708721370E-1   -8.075892417220473E-2   -1.130249722935425E-2   -3.646344326734592E-2   -1.215877801233926E-2   -3.620435046154270E-2    4.668931200802306E-1   -2.120356445561459E-1
 6.529157517675000E9     5.563481439732660E-1   -8.168653492771295E-2   -1.153750855883502E-2   -3.665933887683194E-2   -1.233366603488689E-2   -3.640095628546067E-2    4.663340363605616E-1   -2.129808660071406E-1
 6.529167706450000E9     5.563254542131567E-1   -8.237263041192651E-2   -1.156848367258321E-2   -3.678788223980787E-2   -1.244145976894575E-2   -3.666287277912603E-2    4.660738801155502E-1   -2.138312691775662E-1
 6.529177895225000E9     5.561759799307600E-1   -8.330825165667897E-2   -1.187279026536470E-2   -3.705564506443815E-2   -1.258574540610638E-2   -3.683277322152952E-2    4.655797653364963E-1   -2.147946315528474E-1
 6.529188084000000E9     5.560356830322134E-1   -8.423031516453183E-2   -1.191475979287215E-2   -3.710569539026570E-2   -1.282205098921294E-2   -3.700186597422423E-2    4.648234483032587E-1   -2.157575585428623E-1
 6.529198272775000E9     5.558177191951271E-1   -8.511261686371828E-2   -1.202411798298981E-2   -3.740846380282690E-2   -1.290124693092192E-2   -3.713553644622906E-2    4.644760247779283E-1   -2.166657093499606E-1
 6.529208461550000E9     5.556192098122440E-1   -8.597707780371326E-2   -1.211627476567607E-2   -3.762824571294256E-2   -1.304957513205341E-2   -3.755718989802406E-2    4.640651237218845E-1   -2.176967951410448E-1
 6.529218650325000E9     5.556001299473472E-1   -8.683417121603906E-2   -1.227675733280860E-2   -3.790556694622185E-2   -1.328347089866374E-2   -3.766496143767682E-2    4.635022623833811E-1   -2.186314942378350E-1
 6.529228839100000E9     5.553085579019341E-1   -8.755349336768203E-2   -1.254759817737586E-2   -3.805382720231751E-2   -1.337018636141966E-2   -3.787418792487109E-2    4.629437278433066E-1   -2.195639539894731E-1
 6.529239027875000E9     5.553197698338206E-1   -8.856284263720388E-2   -1.259871849022650E-2   -3.847491586387893E-2   -1.368113890902716E-2   -3.795812752070184E-2    4.623674949346401E-1   -2.206820663235307E-1
 6.529249216650000E9     5.550150171246421E-1   -8.930126843205069E-2   -1.269871630634097E-2   -3.841053782075329E-2   -1.368103543025996E-2   -3.819517899298107E-2    4.618626791120078E-1   -2.217041289193033E-1
 6.529259405425000E9     5.549635176290044E-1   -9.033574674143312E-2   -1.290942626029021E-2   -3.875131148036283E-2   -1.386993290868231E-2   -3.844998703871309E-2    4.615086846077621E-1   -2.225385374467227E-1
 6.529269594200000E9     5.546782040384699E-1   -9.121137977848424E-2   -1.327374603836150E-2   -3.886281120886010E-2   -1.404637960826731E-2   -3.866026987869721E-2    4.610086455942292E-1   -2.234410036813222E-1
 6.529279782975000E9     5.545771378182085E-1   -9.201538167977022E-2   -1.322119486413030E-2   -3.919423023331589E-2   -1.423027059906324E-2   -3.892524398794380E-2    4.601977297418814E-1   -2.245005194417309E-1
 6.529289971750000E9     5.542838890668159E-1   -9.288605626114314E-2   -1.356446533571675E-2   -3.935561586652777E-2   -1.442104312071548E-2   -3.912375069608456E-2    4.598152341961182E-1   -2.255543370465355E-1
 6.529300160525000E9     5.542404159076250E-1   -9.371522996133287E-2   -1.375077414852071E-2   -3.957885004934611E-2   -1.459443139259699E-2   -3.933995151082015E-2    4.591909939275358E-1   -2.264410606722991E-1
 6.529310349300000E9     5.539580710067696E-1   -9.461206281078231E-2   -1.382187681268530E-2   -3.985214175499019E-2   -1.473561350513503E-2   -3.952900743181301E-2    4.585459443679648E-1   -2.275791577868588E-1
 6.529320538075000E9     5.538600848449164E-1   -9.543404969822022E-2   -1.388544274265409E-2   -4.012972480232777E-2   -1.496747964702454E-2   -3.980842090054561E-2    4.580524484723869E-1   -2.285800309802405E-1
 6.529330726850000E9     5.538051116753138E-1   -9.639843795851034E-2   -1.428339899713321E-2   -4.017484547420651E-2   -1.499132020857858E-2   -3.995325533107615E-2    4.575077493371358E-1   -2.293610759425412E-1
 6.529340915625000E9     5.535563457511213E-1   -9.720540039883051E-2   -1.430856950078671E-2   -4.052587693182743E-2   -1.538660859135177E-2   -4.029882714502010E-2    4.569629664675433E-1   -2.305917817726965E-1
 6.529351104400000E9     5.532794410464362E-1   -9.812284379932049E-2   -1.449599046287357E-2   -4.083156916986241E-2   -1.554273130403293E-2   -4.039130478173020E-2    4.563870190289378E-1   -2.313092993540148E-1
 6.529361293175000E9     5.530954595459104E-1   -9.912041521339229E-2   -1.476853240313342E-2   -4.114586139572916E-2   -1.576738091569808E-2   -4.082879175406230E-2    4.556748801078147E-1   -2.325995759026549E-1
 6.529371481950000E9     5.530017369759429E-1   -9.995007183500451E-2   -1.489906024750579E-2   -4.114762685086184E-2   -1.589027717731608E-2   -4.095299494654151E-2    4.551384114953299E-1   -2.335387460589574E-1
 6.529381670725000E9     5.528751435746859E-1   -1.006931299763000E-1   -1.519424909070221E-2   -4.144920171629218E-2   -1.602349476820003E-2   -4.120672194816438E-2    4.546329500854309E-1   -2.346330414032358E-1
 6.529391859500000E9     5.526089255380268E-1   -1.017650061601918E-1   -1.534305900803628E-2   -4.176332092138085E-2   -1.635130834570655E-2   -4.138125984510642E-2    4.542356811664952E-1   -2.356044216103352E-1
 6.529402048275000E9     5.524127039989815E-1   -1.026269628440214E-1   -1.535503371232720E-2   -4.204374624955756E-2   -1.654936894689118E-2   -4.179215698370369E-2    4.532236427269442E-1   -2.366098599763867E-1
 6.529412237050000E9     5.521945123442523E-1   -1.034342967643716E-1   -1.573794492905595E-2   -4.227030151172438E-2   -1.680655156478039E-2   -4.193388856872573E-2    4.526737092152062E-1   -2.376522706687371E-1
 6.529422425825000E9     5.519152562224043E-1   -1.044769397330733E-1   -1.589249600532868E-2   -4.264262480951728E-2   -1.699058425133677E-2   -4.227177443274117E-2    4.521289952725014E-1   -2.386505917190364E-1
 6.529432614600000E9     5.516882649534188E-1   -1.052251045259960E-1   -1.607243821782193E-2   -4.287588194143881E-2   -1.719669940625949E-2   -4.248516352731802E-2    4.514991616435413E-1   -2.396558582058010E-1
 6.529442803375000E9     5.515369613923801E-1   -1.062681930218205E-1   -1.635712675347446E-2   -4.307939890943470E-2   -1.736703579332247E-2   -4.270281578102322E-2    4.508140759094468E-1   -2.408440241659619E-1
 6.529452992150000E9     5.513015140943740E-1   -1.071884305407236E-1   -1.652806397968763E-2   -4.346222098653959E-2   -1.763376535883843E-2   -4.293753419651650E-2    4.500038795109810E-1   -2.418716848448363E-1
 6.529463180925000E9     5.510599615601635E-1   -1.080570140763249E-1   -1.682377201062806E-2   -4.367389164398958E-2   -1.791799903561664E-2   -4.329204129643124E-2    4.493880864565162E-1   -2.427839862299359E-1
 6.529473369700000E9     5.508676797719035E-1   -1.089298765598003E-1   -1.698290561950381E-2   -4.385575748191786E-2   -1.809324104609273E-2   -4.358733569672657E-2    4.488836768215616E-1   -2.438915405124487E-1
 6.529483558475000E9     5.506570802313655E-1   -1.098624471455328E-1   -1.714921104085920E-2   -4.415450736213217E-2   -1.838899538930257E-2   -4.388046643490149E-2    4.481964805384652E-1   -2.450095369826843E-1
 6.529493747250000E9     5.504456505575518E-1   -1.107320142090544E-1   -1.743645142305075E-2   -4.442122623464538E-2   -1.855356021529584E-2   -4.419962109157946E-2    4.475407284519989E-1   -2.460326002930468E-1
 6.529503936025000E9     5.502827255521393E-1   -1.115382253766067E-1   -1.781580965468482E-2   -4.471366206632656E-2   -1.880682592857182E-2   -4.441011861602644E-2    4.466183518554910E-1   -2.470812955198314E-1
 6.529514124800000E9     5.499663987145005E-1   -1.124630442057455E-1   -1.797577811454111E-2   -4.519577605520812E-2   -1.909740837711405E-2   -4.462270320460315E-2    4.459739226421663E-1   -2.484375348125944E-1
 6.529524313575000E9     5.497415334924535E-1   -1.135055476057016E-1   -1.819094896371521E-2   -4.546665672888276E-2   -1.934273316947687E-2   -4.493153855085368E-2    4.453090280301634E-1   -2.493164510885557E-1
 6.529534502350000E9     5.495040488841594E-1   -1.144387867028481E-1   -1.847094299256460E-2   -4.570558100619369E-2   -1.956827129941006E-2   -4.527278709003708E-2    4.444936377180576E-1   -2.506345440106543E-1
 6.529544691125000E9     5.493867614353262E-1   -1.153009024211820E-1   -1.866914648087266E-2   -4.586070289109581E-2   -1.993687426289236E-2   -4.551691554175477E-2    4.437942476810616E-1   -2.515012219867975E-1
 6.529554879900000E9     5.490644727109820E-1   -1.163173899115044E-1   -1.910879238403848E-2   -4.627601223032408E-2   -2.011914263744607E-2   -4.580444987938392E-2    4.429945959273606E-1   -2.527299129782319E-1
 6.529565068675000E9     5.488706458403916E-1   -1.171368082545804E-1   -1.929370031743978E-2   -4.648178627442427E-2   -2.043895477979400E-2   -4.617162076369969E-2    4.422859930164434E-1   -2.539003727690638E-1
 6.529575257450000E9     5.484783589165912E-1   -1.180554721097023E-1   -1.954258607290866E-2   -4.701043193252709E-2   -2.074167396981271E-2   -4.646632450003890E-2    4.415179944999348E-1   -2.550231403763630E-1
 6.529585446225000E9     5.483211546323716E-1   -1.190272174337519E-1   -1.991041586526044E-2   -4.715983870573161E-2   -2.099847979104422E-2   -4.681552343121660E-2    4.406983552743099E-1   -2.560042910103972E-1
 6.529595635000000E9     5.480338596961875E-1   -1.199440393767765E-1   -2.006706671352045E-2   -4.744172606842910E-2   -2.129782538936317E-2   -4.709045055989202E-2    4.398032306039651E-1   -2.571464621842847E-1
 6.529605823775000E9     5.478976530531644E-1   -1.208185041166872E-1   -2.021646421600558E-2   -4.783386839308450E-2   -2.149778806430597E-2   -4.738279451855849E-2    4.391570022431125E-1   -2.582767933642914E-1
 6.529616012550000E9     5.474971333031269E-1   -1.219374422632481E-1   -2.050156149077030E-2   -4.814230313786291E-2   -2.183493270638576E-2   -4.790395918104241E-2    4.383094172853987E-1   -2.594089113266621E-1
 6.529626201325000E9     5.471737705170410E-1   -1.228855919229448E-1   -2.089696826516333E-2   -4.845058169973603E-2   -2.213462627892975E-2   -4.801011587063637E-2    4.376334554133570E-1   -2.604896717888240E-1
 6.529636390100000E9     5.470192864700227E-1   -1.237683639758961E-1   -2.119744392867131E-2   -4.889065698424123E-2   -2.243598458288129E-2   -4.850427500789089E-2    4.366867786706165E-1   -2.617927135818711E-1
 6.529646578875000E9     5.466702329245172E-1   -1.246748716966843E-1   -2.160857773555359E-2   -4.923045406356730E-2   -2.288667451068823E-2   -4.876722544409156E-2    4.357598200383281E-1   -2.628462975085499E-1
 6.529656767650000E9     5.463580579496913E-1   -1.255524390746901E-1   -2.191112528365455E-2   -4.945091666171919E-2   -2.319220384252245E-2   -4.907695625498543E-2    4.348682792848710E-1   -2.640782012690135E-1
 6.529666956425000E9     5.461393811335289E-1   -1.265572013049598E-1   -2.223787983961372E-2   -5.002454303423030E-2   -2.342128178730248E-2   -4.945454678722469E-2    4.340032347773260E-1   -2.653320328477306E-1
 6.529677145200000E9     5.456771336939527E-1   -1.276519965171151E-1   -2.261537568676419E-2   -5.028703208641636E-2   -2.383338503597935E-2   -4.979904822909900E-2    4.331070150899023E-1   -2.664811756688102E-1
 6.529687333975000E9     5.456090684211129E-1   -1.285280351989022E-1   -2.295520011602736E-2   -5.065355285448404E-2   -2.415044197478915E-2   -5.018170520812857E-2    4.323038796173498E-1   -2.676830809574669E-1
 6.529697522750000E9     5.452315476079576E-1   -1.295425238537120E-1   -2.325704747725588E-2   -5.106063647309171E-2   -2.452413445454233E-2   -5.049485218069182E-2    4.314810998566686E-1   -2.688905771049075E-1
