#  HZ   S   RI   R     50.00 
! Rohde & Schwarz Vector Network Analyzer 
! Rohde-Schwarz,ZNB20-2Port,1311601062101988,3.16
! Created: UTC 3/21/2024, 12:58:35 AM
! freq[Hz]                re:S11                  im:S11                  re:S21                  im:S21                  re:S12                  im:S12                  re:S22                  im:S22
 6.528778201000000E9     5.603510181316345E-1   -5.051512649512600E-2   -7.304269038496018E-3   -3.055578379975113E-2   -7.899397276914698E-3   -3.027132314320001E-2    4.812560586393374E-1   -1.784250775153138E-1
 6.528788408475000E9     5.602432566911969E-1   -5.139883952070219E-2   -7.452152450804567E-3   -3.057374080363207E-2   -8.040416095737720E-3   -3.050546031760118E-2    4.809089509389685E-1   -1.792949403360113E-1
 6.528798615950000E9     5.601119059815650E-1   -5.225990061151941E-2   -7.463832301654940E-3   -3.076199417904129E-2   -8.102326721726363E-3   -3.070830133399535E-2    4.804428024906550E-1   -1.801251941735272E-1
 6.528808823425000E9     5.601531910318079E-1   -5.312216574065717E-2   -7.468884362155643E-3   -3.092530441333004E-2   -8.291340842523429E-3   -3.081008088258065E-2    4.801836801726356E-1   -1.810073154846012E-1
 6.528819030900000E9     5.599494201538809E-1   -5.388039293832370E-2   -7.602014821211177E-3   -3.107353693813359E-2   -8.349079730658807E-3   -3.100325322061243E-2    4.798338188859307E-1   -1.819069038141158E-1
 6.528829238375000E9     5.598741734348361E-1   -5.473605799285738E-2   -7.700968929291247E-3   -3.122299966310150E-2   -8.377186786165277E-3   -3.112626729021587E-2    4.793673853903001E-1   -1.828290687493964E-1
 6.528839445850000E9     5.598041005447519E-1   -5.546137344445322E-2   -7.797772536504368E-3   -3.127091347116827E-2   -8.548147046471390E-3   -3.134321983090805E-2    4.791505343738580E-1   -1.836247195264465E-1
 6.528849653325000E9     5.597665879694327E-1   -5.631688608812847E-2   -7.979829445788515E-3   -3.145341675812790E-2   -8.582284374471342E-3   -3.139883384428363E-2    4.788997558693804E-1   -1.845250051880615E-1
 6.528859860800000E9     5.596515637257620E-1   -5.717034547919531E-2   -7.937149123538944E-3   -3.168715426553630E-2   -8.640544230955744E-3   -3.147399507618969E-2    4.784953000206225E-1   -1.854713091890776E-1
 6.528870068275000E9     5.595904710420169E-1   -5.796765472086303E-2   -8.091670267768643E-3   -3.174853546600895E-2   -8.895409652682896E-3   -3.164813481444709E-2    4.781539214104923E-1   -1.862931321560329E-1
 6.528880275750000E9     5.594435307508627E-1   -5.881317403240342E-2   -8.232733667131419E-3   -3.193469003914574E-2   -8.874404955952821E-3   -3.183954948562367E-2    4.775993949533263E-1   -1.871506066984013E-1
 6.528890483225000E9     5.594309987234739E-1   -5.961884806770888E-2   -8.193298475180369E-3   -3.208754117918439E-2   -9.019743486870485E-3   -3.190236064558007E-2    4.773163822587921E-1   -1.880638731470434E-1
 6.528900690700000E9     5.592465413680789E-1   -6.041999016208601E-2   -8.394164921623360E-3   -3.216857488566797E-2   -9.006907505759665E-3   -3.204257431353191E-2    4.769003621852761E-1   -1.889615200701492E-1
 6.528910898175000E9     5.591140377637511E-1   -6.131659826221491E-2   -8.631488903807384E-3   -3.232770259703018E-2   -9.210477958561992E-3   -3.221722840720383E-2    4.765252091613937E-1   -1.897562663724211E-1
 6.528921105650000E9     5.590534344364237E-1   -6.206465722166145E-2   -8.735364923924033E-3   -3.270195926188359E-2   -9.372755175832815E-3   -3.243592547915067E-2    4.762256050090536E-1   -1.906312950209630E-1
 6.528931313125000E9     5.589370797244886E-1   -6.291331122888463E-2   -8.698352820414486E-3   -3.276353688794340E-2   -9.410938572856213E-3   -3.260250187445394E-2    4.757425531080803E-1   -1.915968546805833E-1
 6.528941520600000E9     5.589473693063817E-1   -6.379717980223458E-2   -8.732087281022406E-3   -3.300132749399918E-2   -9.441170533704584E-3   -3.267892491323135E-2    4.753577995776429E-1   -1.923075630248552E-1
 6.528951728075000E9     5.587888863604301E-1   -6.458091580512079E-2   -8.856500048024662E-3   -3.311707963802171E-2   -9.591424668998315E-3   -3.290637018931314E-2    4.749534159953803E-1   -1.933722235474767E-1
 6.528961935550000E9     5.586289969248178E-1   -6.553891219799227E-2   -8.975648983791088E-3   -3.325426283682582E-2   -9.708488886400997E-3   -3.300634567198253E-2    4.746228040819381E-1   -1.943090342248897E-1
 6.528972143025000E9     5.585468560047637E-1   -6.635152324545592E-2   -9.132621695009391E-3   -3.320683455341290E-2   -9.921017167056121E-3   -3.312032278766575E-2    4.741913760312255E-1   -1.951628232619784E-1
 6.528982350500000E9     5.584769176114968E-1   -6.721030937549680E-2   -9.318558968741659E-3   -3.347471884135510E-2   -9.979855493576868E-3   -3.338834272179258E-2    4.737952928437964E-1   -1.959587690124434E-1
 6.528992557975000E9     5.583778443415950E-1   -6.801483007972180E-2   -9.332783491330423E-3   -3.365683303020549E-2   -1.020367242096008E-2   -3.353824412561655E-2    4.734477457418017E-1   -1.969684267610795E-1
 6.529002765450000E9     5.582212530163999E-1   -6.878185580291937E-2   -9.445648349240299E-3   -3.378027797963427E-2   -1.024234139316785E-2   -3.359011296830300E-2    4.729353882164710E-1   -1.978560014392355E-1
 6.529012972925000E9     5.582476998589597E-1   -6.971103823681431E-2   -9.586731818954456E-3   -3.403566365210126E-2   -1.039047065926295E-2   -3.382936437611515E-2    4.725633554012570E-1   -1.986967545026288E-1
 6.529023180400000E9     5.579825268523266E-1   -7.056775122977127E-2   -9.739920878347411E-3   -3.408793414275759E-2   -1.048736814331972E-2   -3.401889023167249E-2    4.719647631792120E-1   -1.997961884482592E-1
 6.529033387875000E9     5.579099454315108E-1   -7.142110520435378E-2   -9.721716720699991E-3   -3.441751564738462E-2   -1.062717408703222E-2   -3.414742919224836E-2    4.717033004150366E-1   -2.005545151705224E-1
 6.529043595350000E9     5.578209332458620E-1   -7.226582464951412E-2   -9.909035993308590E-3   -3.441795647071522E-2   -1.081599670843117E-2   -3.433868365605582E-2    4.712642943315886E-1   -2.014432302472365E-1
 6.529053802825000E9     5.575759761818779E-1   -7.298660731243263E-2   -1.004409728861534E-2   -3.476005780231542E-2   -1.090273277769863E-2   -3.451438739189648E-2    4.708311120302073E-1   -2.025450957852879E-1
 6.529064010300000E9     5.575078289517870E-1   -7.385548157668732E-2   -1.023125055999875E-2   -3.492811262208290E-2   -1.098459734440180E-2   -3.473345625039105E-2    4.703390541082079E-1   -2.034225879061578E-1
 6.529074217775000E9     5.573449974647735E-1   -7.471442013036769E-2   -1.029930973624868E-2   -3.498895226113836E-2   -1.107175299397932E-2   -3.479767278729234E-2    4.699871819971240E-1   -2.042570411057081E-1
 6.529084425250000E9     5.573397745620736E-1   -7.552292979788691E-2   -1.045254925009604E-2   -3.519112491167496E-2   -1.124613681928453E-2   -3.499827449516479E-2    4.695512060987255E-1   -2.052634566365719E-1
 6.529094632725000E9     5.571858681442182E-1   -7.637143877426567E-2   -1.054723319678533E-2   -3.538122737279577E-2   -1.145790569801933E-2   -3.532239866223291E-2    4.691272926592106E-1   -2.061006945792746E-1
 6.529104840200000E9     5.570932211138397E-1   -7.727600369829039E-2   -1.077179686415504E-2   -3.559401842511047E-2   -1.154378412164876E-2   -3.540375427494795E-2    4.685862550974958E-1   -2.070055317814489E-1
 6.529115047675000E9     5.569637263572568E-1   -7.805622411666048E-2   -1.083369012757659E-2   -3.589423459956535E-2   -1.163643180632401E-2   -3.568913630708870E-2    4.682827002437137E-1   -2.079834201593975E-1
 6.529125255150000E9     5.567686353209582E-1   -7.905912092653604E-2   -1.107559914935582E-2   -3.593932452381897E-2   -1.173639797694396E-2   -3.581993180019910E-2    4.677653583683900E-1   -2.088296349360013E-1
 6.529135462625000E9     5.566661522041367E-1   -7.984189027714873E-2   -1.105129782220955E-2   -3.622699202748598E-2   -1.191825860677296E-2   -3.593947890214119E-2    4.673214404583267E-1   -2.098783552528041E-1
 6.529145670100000E9     5.564206262227814E-1   -8.088654916144096E-2   -1.116265402385597E-2   -3.624264434133469E-2   -1.203142492396153E-2   -3.615774041632794E-2    4.667543954793056E-1   -2.108775083204223E-1
 6.529155877575000E9     5.562646375781157E-1   -8.157145031566049E-2   -1.141869242933667E-2   -3.655981906877692E-2   -1.215031125326468E-2   -3.636753138400627E-2    4.663555255502541E-1   -2.116984046970883E-1
 6.529166085050000E9     5.563123744844701E-1   -8.238709993421674E-2   -1.152515309683385E-2   -3.684233563301807E-2   -1.247590059081998E-2   -3.646531116269157E-2    4.658934863873021E-1   -2.125108147645935E-1
 6.529176292525000E9     5.561154273289747E-1   -8.328000631346032E-2   -1.161260191058733E-2   -3.700503633537088E-2   -1.260286889361285E-2   -3.664393203103226E-2    4.654988194647179E-1   -2.135379083668114E-1
 6.529186500000000E9     5.558493904228217E-1   -8.412642278540937E-2   -1.178632623019994E-2   -3.721673764848364E-2   -1.271152587678045E-2   -3.684550636801719E-2    4.648344977049616E-1   -2.146148170069760E-1
 6.529196707475000E9     5.557906423526280E-1   -8.494980940465117E-2   -1.195063538262724E-2   -3.733803781257496E-2   -1.281456904792782E-2   -3.712605345886383E-2    4.642846529443259E-1   -2.153765897885436E-1
 6.529206914950000E9     5.554887101152010E-1   -8.574666584223999E-2   -1.211567325176846E-2   -3.760722978739294E-2   -1.294201049692568E-2   -3.734133398527237E-2    4.638588848565241E-1   -2.166993744205102E-1
 6.529217122425000E9     5.553752411288003E-1   -8.662883878143739E-2   -1.237681157437111E-2   -3.777634534756322E-2   -1.314195776724481E-2   -3.759371090225867E-2    4.634141959212451E-1   -2.175260351545153E-1
 6.529227329900000E9     5.553284973678104E-1   -8.759272688724262E-2   -1.242842808076828E-2   -3.796952510233953E-2   -1.332156730790211E-2   -3.772994536589409E-2    4.629024684549570E-1   -2.183473408561253E-1
 6.529237537375000E9     5.551818597203124E-1   -8.855252630439130E-2   -1.267866887002638E-2   -3.817143260895925E-2   -1.350611136768006E-2   -3.791584165144472E-2    4.623803414663878E-1   -2.193078369488504E-1
 6.529247744850000E9     5.550604141345653E-1   -8.925667710936798E-2   -1.285973229456775E-2   -3.832871643019756E-2   -1.366921320802417E-2   -3.822242537573593E-2    4.618027107816395E-1   -2.202348898271627E-1
 6.529257952325000E9     5.547708122576387E-1   -9.012813711209375E-2   -1.291290611067649E-2   -3.858124996600044E-2   -1.380487181754476E-2   -3.825994645600242E-2    4.613898870097903E-1   -2.212060428037270E-1
 6.529268159800000E9     5.546000276221584E-1   -9.099240066736212E-2   -1.292374028102356E-2   -3.875792223351688E-2   -1.395388416710491E-2   -3.857751845388526E-2    4.607789669577906E-1   -2.222594594962493E-1
 6.529278367275000E9     5.545766124167283E-1   -9.189275493767948E-2   -1.320389562030351E-2   -3.913211547906716E-2   -1.408464030222484E-2   -3.873948429184120E-2    4.601875827302400E-1   -2.232343774414832E-1
 6.529288574750000E9     5.542869640414521E-1   -9.278259372662097E-2   -1.338228648434809E-2   -3.925665250991982E-2   -1.428938952967420E-2   -3.898047450806860E-2    4.597214317543062E-1   -2.241571508783919E-1
 6.529298782225000E9     5.541214726889642E-1   -9.364515248993792E-2   -1.358336061247802E-2   -3.940918263575263E-2   -1.453793954681301E-2   -3.929036309688234E-2    4.591176847010657E-1   -2.252626859716305E-1
 6.529308989700000E9     5.539690631128535E-1   -9.450427839742255E-2   -1.367455819164224E-2   -3.974310702622443E-2   -1.454575309054361E-2   -3.947491233652058E-2    4.585918392984707E-1   -2.261932505189353E-1
 6.529319197175000E9     5.538303276920585E-1   -9.535568247358282E-2   -1.396331963029304E-2   -3.998559855401722E-2   -1.489982731906610E-2   -3.969672114532096E-2    4.580125546740926E-1   -2.272774551294042E-1
 6.529329404650000E9     5.535742735387457E-1   -9.626315765900856E-2   -1.404406146184272E-2   -4.022792551159064E-2   -1.498944031077763E-2   -3.994062292339757E-2    4.576128815554326E-1   -2.282053120378029E-1
 6.529339612125000E9     5.533864516292142E-1   -9.717956641002469E-2   -1.434782219853077E-2   -4.039528584528892E-2   -1.513445768310791E-2   -4.013128185016533E-2    4.568849363389825E-1   -2.291238393528958E-1
 6.529349819600000E9     5.532773641104823E-1   -9.803441724913570E-2   -1.442187747121385E-2   -4.063027967653608E-2   -1.551360121410891E-2   -4.032916156127098E-2    4.563872608198089E-1   -2.301321288261919E-1
 6.529360027075000E9     5.531007299248415E-1   -9.898403590255131E-2   -1.460027822629896E-2   -4.087103355755242E-2   -1.559347510417771E-2   -4.060747588864431E-2    4.558492881315618E-1   -2.312329769941894E-1
 6.529370234550000E9     5.528300073028966E-1   -9.982663048846564E-2   -1.483632802765414E-2   -4.098536558943801E-2   -1.578036830478067E-2   -4.079458493283766E-2    4.550756462814533E-1   -2.321969708137988E-1
 6.529380442025000E9     5.527806590753581E-1   -1.007461083207218E-1   -1.504734079255225E-2   -4.127172672067576E-2   -1.600900629961209E-2   -4.119899466490540E-2    4.544519487308035E-1   -2.334096708113402E-1
 6.529390649500000E9     5.525341963086207E-1   -1.016246807327498E-1   -1.517555546284884E-2   -4.162360578203691E-2   -1.631867741748111E-2   -4.137425178676160E-2    4.537718574555988E-1   -2.343847692354983E-1
 6.529400856975000E9     5.522654659475170E-1   -1.024657696967311E-1   -1.546381574409571E-2   -4.183783768756200E-2   -1.642175051288499E-2   -4.148681672573877E-2    4.533628820095228E-1   -2.354163005575532E-1
 6.529411064450000E9     5.521228067995674E-1   -1.033384997838705E-1   -1.561135514285330E-2   -4.209474165439098E-2   -1.671123628302395E-2   -4.180610481746794E-2    4.526781177609522E-1   -2.363338792196368E-1
 6.529421271925000E9     5.519913089477867E-1   -1.041786990770388E-1   -1.578924052160002E-2   -4.236737994466114E-2   -1.683238879977386E-2   -4.219107458140947E-2    4.520286565762548E-1   -2.373408075401028E-1
 6.529431479400000E9     5.517490364240084E-1   -1.052314003500106E-1   -1.607573790794302E-2   -4.268486934942346E-2   -1.708634457668885E-2   -4.223942799066330E-2    4.514687975098808E-1   -2.384408162111548E-1
 6.529441686875000E9     5.515285112659075E-1   -1.060147935518364E-1   -1.626563396995917E-2   -4.287799869010884E-2   -1.736986738646821E-2   -4.254672648795572E-2    4.506133030728250E-1   -2.395385893750220E-1
 6.529451894350000E9     5.513517601730604E-1   -1.070251856559963E-1   -1.660186682240413E-2   -4.318018225128117E-2   -1.747716298758349E-2   -4.295324691048324E-2    4.500429625905440E-1   -2.405835080675624E-1
 6.529462101825000E9     5.510599160916032E-1   -1.078960534997304E-1   -1.679785306399116E-2   -4.330072104986198E-2   -1.773006174259302E-2   -4.308761927643678E-2    4.494178540481376E-1   -2.415987230122725E-1
 6.529472309300000E9     5.508568076279057E-1   -1.087532117647585E-1   -1.695869392010879E-2   -4.368850188029925E-2   -1.795737082175255E-2   -4.332682895802165E-2    4.488144485035886E-1   -2.427792672505104E-1
 6.529482516775000E9     5.506091081366044E-1   -1.096884941835721E-1   -1.719732174465446E-2   -4.392431442019383E-2   -1.821609998270291E-2   -4.368424956703325E-2    4.482111227832218E-1   -2.436500305299693E-1
 6.529492724250000E9     5.505379566552742E-1   -1.106980563428454E-1   -1.745429586149392E-2   -4.421933941231418E-2   -1.847382666575779E-2   -4.393488284181351E-2    4.474480168130787E-1   -2.447386146511409E-1
 6.529502931725000E9     5.501949658552454E-1   -1.114726337430373E-1   -1.759326655869330E-2   -4.464338554395010E-2   -1.871133111244953E-2   -4.423714902951554E-2    4.465760529160193E-1   -2.459499262484457E-1
 6.529513139200000E9     5.499768957626798E-1   -1.123588821438200E-1   -1.793273241075102E-2   -4.481509303144057E-2   -1.888502679586647E-2   -4.454032490215156E-2    4.460060865121145E-1   -2.469241460989583E-1
 6.529523346675000E9     5.497803887272293E-1   -1.133770843714288E-1   -1.799938541420162E-2   -4.524391090233736E-2   -1.923328544362106E-2   -4.474376484528422E-2    4.453609999836954E-1   -2.480468251190811E-1
 6.529533554150000E9     5.494701052350168E-1   -1.142216791653615E-1   -1.836760878346493E-2   -4.541713689672298E-2   -1.946411125286945E-2   -4.500795876880972E-2    4.445195127420608E-1   -2.492457761011920E-1
 6.529543761625000E9     5.492073377159087E-1   -1.151920532939931E-1   -1.862884954312380E-2   -4.575220138039125E-2   -1.975775088067630E-2   -4.543961926873953E-2    4.438941891001347E-1   -2.502438381927409E-1
 6.529553969100000E9     5.490936674267686E-1   -1.161789138876008E-1   -1.893114766167619E-2   -4.599401020756962E-2   -1.999428749373408E-2   -4.576804188224631E-2    4.429830252809526E-1   -2.513558303678188E-1
 6.529564176575000E9     5.487710891570698E-1   -1.170924832737765E-1   -1.912208855346393E-2   -4.627273215101736E-2   -2.024884124847936E-2   -4.596323610275101E-2    4.423319831446808E-1   -2.524936854644227E-1
 6.529574384050000E9     5.485307850844847E-1   -1.179125433380833E-1   -1.950379424200348E-2   -4.675203999475624E-2   -2.059882014349462E-2   -4.630080235036631E-2    4.415314020922281E-1   -2.535478369425522E-1
 6.529584591525000E9     5.482233262223926E-1   -1.188381339260613E-1   -1.977679431075146E-2   -4.696436697776029E-2   -2.087875371899367E-2   -4.655509156935585E-2    4.406872818654496E-1   -2.546333511903540E-1
 6.529594799000000E9     5.479794877079752E-1   -1.197826467247802E-1   -1.997380564851320E-2   -4.731021693080662E-2   -2.113505321132364E-2   -4.694983722452394E-2    4.399160888123891E-1   -2.559227544236325E-1
 6.529605006475000E9     5.478152277812393E-1   -1.207590439250737E-1   -2.029095674442088E-2   -4.767001235957846E-2   -2.147424595694224E-2   -4.724584652461301E-2    4.390962319780176E-1   -2.570462098632809E-1
 6.529615213950000E9     5.474989888763448E-1   -1.216560341185451E-1   -2.049292369990023E-2   -4.795776863245486E-2   -2.177728305211153E-2   -4.763598411826003E-2    4.384413150503468E-1   -2.583081774478633E-1
 6.529625421425000E9     5.472659438651213E-1   -1.224858096264694E-1   -2.096446596079508E-2   -4.840304493782260E-2   -2.204211768808700E-2   -4.801442990117515E-2    4.375859630259059E-1   -2.593365602446437E-1
 6.529635628900000E9     5.469871452019796E-1   -1.236480927472433E-1   -2.104847490762399E-2   -4.860147542770102E-2   -2.237202916077817E-2   -4.833639020912592E-2    4.365627368306124E-1   -2.606327909940246E-1
 6.529645836375000E9     5.466859898085042E-1   -1.245547338931283E-1   -2.142735212204615E-2   -4.896269978864581E-2   -2.272280090335934E-2   -4.861429577560383E-2    4.357541002223974E-1   -2.615698093549197E-1
 6.529656043850000E9     5.463764156347642E-1   -1.255291113918158E-1   -2.169581952385035E-2   -4.939057967637000E-2   -2.293206484196681E-2   -4.892252559821597E-2    4.350359573110220E-1   -2.627951398482427E-1
 6.529666251325000E9     5.461222025221463E-1   -1.265111144320896E-1   -2.204411249217637E-2   -4.980245109011051E-2   -2.343534389298785E-2   -4.927321427670513E-2    4.340539737249646E-1   -2.639986691271436E-1
 6.529676458800000E9     5.457940930309093E-1   -1.274961223655985E-1   -2.246685140141102E-2   -5.016655921113745E-2   -2.359208471869756E-2   -4.970433902898818E-2    4.332155270073066E-1   -2.650320200422407E-1
 6.529686666275000E9     5.455092469712394E-1   -1.283795667597380E-1   -2.277379241498514E-2   -5.038429083614383E-2   -2.403518263281673E-2   -5.004308662455507E-2    4.321953026391168E-1   -2.663272015134435E-1
 6.529696873750000E9     5.453092037617895E-1   -1.293419013741805E-1   -2.306901516699212E-2   -5.080850333389703E-2   -2.433862727546846E-2   -5.029086371891396E-2    4.313675303308248E-1   -2.674472406010484E-1
