#  HZ   S   RI   R     50.00 
! Rohde & Schwarz Vector Network Analyzer 
! Rohde-Schwarz,ZNB20-2Port,1311601062101988,3.16
! Created: UTC 3/21/2024, 12:58:40 AM
! freq[Hz]                re:S11                  im:S11                  re:S21                  im:S21                  re:S12                  im:S12                  re:S22                  im:S22
 6.528777014000000E9     5.603610901469314E-1   -5.035638665931155E-2   -7.273684537387383E-3   -3.041739253208591E-2   -7.899264973120620E-3   -3.043026665531272E-2    4.814722334265008E-1   -1.783754529996594E-1
 6.528787244675000E9     5.603592061045650E-1   -5.110459458780928E-2   -7.355865301197457E-3   -3.076725181770747E-2   -8.040815903827749E-3   -3.050213080351533E-2    4.811458465549707E-1   -1.793283335013835E-1
 6.528797475350000E9     5.603746817284067E-1   -5.197911337099932E-2   -7.576991094295091E-3   -3.086175103605326E-2   -8.069084014375302E-3   -3.071898811269771E-2    4.805548212581264E-1   -1.801221395500042E-1
 6.528807706025000E9     5.600753875289708E-1   -5.281681995482276E-2   -7.491271846306823E-3   -3.090362769657630E-2   -8.275819481076745E-3   -3.082932680958496E-2    4.803963489786038E-1   -1.808980774136293E-1
 6.528817936700000E9     5.601510365497273E-1   -5.359515818021728E-2   -7.642093695494756E-3   -3.101186578479477E-2   -8.299345048564612E-3   -3.098328385235692E-2    4.799391492607260E-1   -1.819085142825207E-1
 6.528828167375000E9     5.600251035827258E-1   -5.442126214175170E-2   -7.752222350295320E-3   -3.122142066150141E-2   -8.437749940428559E-3   -3.100705667144969E-2    4.794725638252301E-1   -1.827197010633989E-1
 6.528838398050000E9     5.599246364608932E-1   -5.524997304139057E-2   -7.830739254291076E-3   -3.129865348358826E-2   -8.540452285056640E-3   -3.114779377546856E-2    4.793816530091746E-1   -1.836828867371403E-1
 6.528848628725000E9     5.597771028011318E-1   -5.612554644604435E-2   -7.945170056210239E-3   -3.149095463560173E-2   -8.531392738671997E-3   -3.144774856760251E-2    4.790358572965618E-1   -1.844923819993537E-1
 6.528858859400000E9     5.598318150456599E-1   -5.695312342149720E-2   -7.901980980574137E-3   -3.153925915519444E-2   -8.740693114597357E-3   -3.147445824643157E-2    4.785237262254917E-1   -1.853742660112444E-1
 6.528869090075000E9     5.597556446098175E-1   -5.774917705713119E-2   -7.979447298633192E-3   -3.171984171291088E-2   -8.762499565136405E-3   -3.159457021141363E-2    4.782532366731936E-1   -1.863203241927792E-1
 6.528879320750000E9     5.597137274609585E-1   -5.854490041288397E-2   -8.190758100141573E-3   -3.196512729633252E-2   -8.965819950557643E-3   -3.179484169889111E-2    4.777797662712253E-1   -1.870528952466781E-1
 6.528889551425000E9     5.594962223351823E-1   -5.934603457085877E-2   -8.342140316072624E-3   -3.216820737296306E-2   -8.919767506707334E-3   -3.190413630079064E-2    4.774043158816620E-1   -1.879638330216078E-1
 6.528899782100000E9     5.594055508939694E-1   -6.014827668414247E-2   -8.417247486759656E-3   -3.229033634252428E-2   -9.095473119856066E-3   -3.201220627496735E-2    4.770586617365158E-1   -1.887753886367296E-1
 6.528910012775000E9     5.593304961183825E-1   -6.109566855597785E-2   -8.435169986663681E-3   -3.229957848594683E-2   -9.273875037315894E-3   -3.221951066052695E-2    4.766875264608395E-1   -1.896954758203840E-1
 6.528920243450000E9     5.590523424940659E-1   -6.185316552971035E-2   -8.556341344841735E-3   -3.256454213399838E-2   -9.265121397705089E-3   -3.246411140353161E-2    4.763373650883067E-1   -1.906429711641630E-1
 6.528930474125000E9     5.589669581620033E-1   -6.277903542865469E-2   -8.524792280930669E-3   -3.264612573232459E-2   -9.469768963026218E-3   -3.248144670433347E-2    4.759030599863757E-1   -1.914784576252874E-1
 6.528940704800000E9     5.589077127955682E-1   -6.357177963393744E-2   -8.876037265097234E-3   -3.290507928305530E-2   -9.538652662181053E-3   -3.263344301484385E-2    4.755589067499174E-1   -1.923638084398313E-1
 6.528950935475000E9     5.587932931356339E-1   -6.433467582210729E-2   -8.959074460992001E-3   -3.301278922336953E-2   -9.621974201456475E-3   -3.282763113539918E-2    4.751867671878348E-1   -1.932797998630640E-1
 6.528961166150000E9     5.587716706980806E-1   -6.522932175119464E-2   -9.057609389250942E-3   -3.309652617337693E-2   -9.683597626588882E-3   -3.302576244627242E-2    4.747723882771370E-1   -1.941543435780742E-1
 6.528971396825000E9     5.586773162008519E-1   -6.597978623543889E-2   -9.148472848005549E-3   -3.331560701489744E-2   -9.779110606459196E-3   -3.320832370353500E-2    4.743722258116875E-1   -1.949292773168010E-1
 6.528981627500000E9     5.585101939858904E-1   -6.691944727930681E-2   -9.241073401299947E-3   -3.350950675679659E-2   -1.002768069876091E-2   -3.340691115787033E-2    4.738645408385408E-1   -1.959125535347468E-1
 6.528991858175000E9     5.583676804707519E-1   -6.775423933375235E-2   -9.403799753254834E-3   -3.349866070312022E-2   -1.009500260948761E-2   -3.346286798254778E-2    4.734868181412390E-1   -1.968577172978737E-1
 6.529002088850000E9     5.582890867180598E-1   -6.855725469002422E-2   -9.474170558021274E-3   -3.390400005651887E-2   -1.020080003240124E-2   -3.360812375475373E-2    4.730342550158813E-1   -1.978595132399917E-1
 6.529012319525000E9     5.581497694942904E-1   -6.963371087514122E-2   -9.590154291991886E-3   -3.393269796146971E-2   -1.034897469077601E-2   -3.372315053699875E-2    4.726572780019889E-1   -1.986760403608726E-1
 6.529022550200000E9     5.580965891751547E-1   -7.031527607029589E-2   -9.774738680699916E-3   -3.415026077317034E-2   -1.048989565681738E-2   -3.399869952447574E-2    4.721707867639722E-1   -1.996323753096549E-1
 6.529032780875000E9     5.579861998540303E-1   -7.117519278609576E-2   -9.887277873423826E-3   -3.426003581226782E-2   -1.055525596234987E-2   -3.411590550228087E-2    4.719166713534597E-1   -2.004404790819274E-1
 6.529043011550000E9     5.578459436265681E-1   -7.200202942605730E-2   -1.000395056308633E-2   -3.446893116740430E-2   -1.074032234206139E-2   -3.431734575055456E-2    4.714378539955739E-1   -2.013630057330098E-1
 6.529053242225000E9     5.576956170520706E-1   -7.278257502285271E-2   -1.011704263522054E-2   -3.470358377688808E-2   -1.092649160544181E-2   -3.446321128587088E-2    4.709044027103261E-1   -2.023066416246158E-1
 6.529063472900000E9     5.575765235699870E-1   -7.367969845470081E-2   -1.037911058010956E-2   -3.495001981491315E-2   -1.091670655351958E-2   -3.459454175772520E-2    4.705501678634891E-1   -2.033561842143538E-1
 6.529073703575000E9     5.574489415833258E-1   -7.452621689091038E-2   -1.026944554151431E-2   -3.510148541481228E-2   -1.105733666150870E-2   -3.483179632385965E-2    4.702081467311168E-1   -2.042029754385475E-1
 6.529083934250000E9     5.573315181154470E-1   -7.537192943922984E-2   -1.038178953884025E-2   -3.514384545118927E-2   -1.124471585431400E-2   -3.495246203396566E-2    4.697551733086971E-1   -2.050476475252226E-1
 6.529094164925000E9     5.571855490516889E-1   -7.620248624369073E-2   -1.055545353121875E-2   -3.534042806071016E-2   -1.134969345049525E-2   -3.519710553365565E-2    4.693030383275689E-1   -2.059879166213232E-1
 6.529104395600000E9     5.569897749472313E-1   -7.709582367054810E-2   -1.072484855121324E-2   -3.553144598085272E-2   -1.145044288272953E-2   -3.527290757881183E-2    4.686604075626529E-1   -2.068909737373676E-1
 6.529114626275000E9     5.569496206040830E-1   -7.789361087680165E-2   -1.080514428831142E-2   -3.569660233162635E-2   -1.166817319417973E-2   -3.554218790833407E-2    4.681872605585599E-1   -2.078798906325630E-1
 6.529124856950000E9     5.567448888891224E-1   -7.870804582978293E-2   -1.102987069119859E-2   -3.586797006677626E-2   -1.168166493582851E-2   -3.577403616548470E-2    4.678711869995283E-1   -2.088319141309765E-1
 6.529135087625000E9     5.567036540424791E-1   -7.968969398452722E-2   -1.097050069421303E-2   -3.614334364298272E-2   -1.190883816797633E-2   -3.590545139404941E-2    4.673637647341221E-1   -2.095992931857294E-1
 6.529145318300000E9     5.564046159216621E-1   -8.038338579137574E-2   -1.121439351848118E-2   -3.631013478202749E-2   -1.200446627950276E-2   -3.602264991113242E-2    4.668341382192875E-1   -2.106819004843498E-1
 6.529155548975000E9     5.564188715968444E-1   -8.134235735149081E-2   -1.141059248287792E-2   -3.643049665279605E-2   -1.223229718205497E-2   -3.630063261144482E-2    4.664778360343367E-1   -2.117327841170049E-1
 6.529165779650000E9     5.561852197806256E-1   -8.221736136340665E-2   -1.163991671678954E-2   -3.670616002464916E-2   -1.234992908064652E-2   -3.655205126918530E-2    4.660074297513198E-1   -2.125081326420003E-1
 6.529176010325000E9     5.561737734583573E-1   -8.306946751126967E-2   -1.163986152655437E-2   -3.699877328885469E-2   -1.257701930536014E-2   -3.670441228061835E-2    4.654289611689693E-1   -2.134236141883865E-1
 6.529186241000000E9     5.561475110924655E-1   -8.403884169189528E-2   -1.179817470682657E-2   -3.716551410857619E-2   -1.259800568993628E-2   -3.688669124011094E-2    4.648869627411997E-1   -2.145736458039841E-1
 6.529196471675000E9     5.558509103448395E-1   -8.472553891261497E-2   -1.189853823548749E-2   -3.738520543643098E-2   -1.282863106948067E-2   -3.706704198827834E-2    4.644398491822431E-1   -2.154139634305266E-1
 6.529206702350000E9     5.557026971349390E-1   -8.559689498450987E-2   -1.209761658625257E-2   -3.751585445130186E-2   -1.309620039434193E-2   -3.723630898732477E-2    4.640635665977839E-1   -2.164607455572904E-1
 6.529216933025000E9     5.555364481503734E-1   -8.661036536262592E-2   -1.213729594287923E-2   -3.765484178462752E-2   -1.305935455196598E-2   -3.752734502116079E-2    4.635215085764872E-1   -2.173436581906595E-1
 6.529227163700000E9     5.554273261015010E-1   -8.720583981960937E-2   -1.245832177591754E-2   -3.790569210584645E-2   -1.331695832902533E-2   -3.764970822513891E-2    4.630365770032816E-1   -2.182710721455221E-1
 6.529237394375000E9     5.552471546579646E-1   -8.829117890091361E-2   -1.257949308523374E-2   -3.819777900329165E-2   -1.340923131774950E-2   -3.792192805635631E-2    4.625104446636676E-1   -2.192722004386149E-1
 6.529247625050000E9     5.551184962688495E-1   -8.904090070757027E-2   -1.267207469146193E-2   -3.830823990523136E-2   -1.358007371957974E-2   -3.817632729113651E-2    4.620266288059585E-1   -2.202924969701356E-1
 6.529257855725000E9     5.549115724251481E-1   -9.000376014147121E-2   -1.284083161062809E-2   -3.843171945422574E-2   -1.378931406196804E-2   -3.833930455640946E-2    4.613397831272130E-1   -2.213345025713318E-1
 6.529268086400000E9     5.547933766712844E-1   -9.089307192834462E-2   -1.305581617801868E-2   -3.876175706625788E-2   -1.402347495657358E-2   -3.854967392846442E-2    4.608174517981609E-1   -2.222473721845201E-1
 6.529278317075000E9     5.545173176594730E-1   -9.171276328744654E-2   -1.324440384854700E-2   -3.896348680742684E-2   -1.406689358714722E-2   -3.863266852159022E-2    4.602807700851163E-1   -2.230966001140997E-1
 6.529288547750000E9     5.544013331340227E-1   -9.261208134435234E-2   -1.333284773015107E-2   -3.916256139427179E-2   -1.434577042448776E-2   -3.897857718913603E-2    4.598609683489668E-1   -2.242239502365177E-1
 6.529298778425000E9     5.541103335881343E-1   -9.341163168409461E-2   -1.359984560706221E-2   -3.937763230390419E-2   -1.450668810223170E-2   -3.914600852605409E-2    4.593734002249945E-1   -2.251388705622076E-1
 6.529309009100000E9     5.540841925444357E-1   -9.430759055828397E-2   -1.379265417311652E-2   -3.967240554741257E-2   -1.468126351743037E-2   -3.937256543044906E-2    4.587818833513090E-1   -2.261516321084019E-1
 6.529319239775000E9     5.538724783992038E-1   -9.522306491673345E-2   -1.387659507789841E-2   -3.991009780835147E-2   -1.492335760542458E-2   -3.954764972222868E-2    4.582418569679264E-1   -2.272234182493935E-1
 6.529329470450000E9     5.537901649065787E-1   -9.607717050233412E-2   -1.407929163761460E-2   -3.997465830548114E-2   -1.504604410224710E-2   -3.986571283192970E-2    4.575042069440290E-1   -2.282872190453443E-1
 6.529339701125000E9     5.535728019847767E-1   -9.698908729567475E-2   -1.431868273931224E-2   -4.041515557842656E-2   -1.530896534767036E-2   -4.007911593482003E-2    4.568326959560491E-1   -2.291179321199714E-1
 6.529349931800000E9     5.533851051522878E-1   -9.781890560717388E-2   -1.445044478924814E-2   -4.057893465977844E-2   -1.534212556833217E-2   -4.026344906591693E-2    4.565645183553391E-1   -2.302183991545138E-1
 6.529360162475000E9     5.531910624542963E-1   -9.869085951979051E-2   -1.459153092045309E-2   -4.090650081769631E-2   -1.546648592430738E-2   -4.051893985017122E-2    4.557696749718566E-1   -2.313490467712959E-1
 6.529370393150000E9     5.528873989507973E-1   -9.963814494372693E-2   -1.483383051990491E-2   -4.122255811933649E-2   -1.574294795377155E-2   -4.067580860858108E-2    4.553320658952107E-1   -2.322142248272172E-1
 6.529380623825000E9     5.529001304498653E-1   -1.004949680038386E-1   -1.499787873525060E-2   -4.136495951539505E-2   -1.602612645528322E-2   -4.098387293252496E-2    4.545111560530695E-1   -2.331913929173083E-1
 6.529390854500000E9     5.525345555739553E-1   -1.014729638038956E-1   -1.511819188658320E-2   -4.159437096920285E-2   -1.616358952977750E-2   -4.129777343484316E-2    4.539247228008178E-1   -2.342962956868906E-1
 6.529401085175000E9     5.524017782680460E-1   -1.023268606950074E-1   -1.548067630057687E-2   -4.195068903348161E-2   -1.641485485216817E-2   -4.154582862589221E-2    4.533609109021097E-1   -2.352865022999939E-1
 6.529411315850000E9     5.522157228414794E-1   -1.032751104354709E-1   -1.553079242246859E-2   -4.210059509092028E-2   -1.672979466227868E-2   -4.179789141117333E-2    4.527071394522847E-1   -2.364377868769137E-1
 6.529421546525000E9     5.519940414656077E-1   -1.041503147838115E-1   -1.587602537559232E-2   -4.236335399154360E-2   -1.681391035859140E-2   -4.200590159855074E-2    4.520377204899649E-1   -2.375734974653337E-1
 6.529431777200000E9     5.518620579331881E-1   -1.049242487894228E-1   -1.591200614307614E-2   -4.272285222375733E-2   -1.698851516825836E-2   -4.235090951636859E-2    4.514170769428151E-1   -2.384861402318970E-1
 6.529442007875000E9     5.516086450141613E-1   -1.058994814599937E-1   -1.618009737919619E-2   -4.289280717880697E-2   -1.733036040997090E-2   -4.247017910531050E-2    4.507826500570300E-1   -2.395250263931048E-1
 6.529452238550000E9     5.513978517457716E-1   -1.068525692149585E-1   -1.652498619347091E-2   -4.331385521155315E-2   -1.751793497127010E-2   -4.288116217582932E-2    4.501919491337503E-1   -2.405762179427631E-1
 6.529462469225000E9     5.510839903848097E-1   -1.077757777176989E-1   -1.668978011211982E-2   -4.331222493504040E-2   -1.774619956820099E-2   -4.312317455795442E-2    4.495880807372531E-1   -2.415279396089136E-1
 6.529472699900000E9     5.509088243498287E-1   -1.085535763909345E-1   -1.701303444683338E-2   -4.367584400155187E-2   -1.796738347469472E-2   -4.334541113491188E-2    4.487906303587684E-1   -2.424799572980785E-1
 6.529482930575000E9     5.507378763403731E-1   -1.096111459393791E-1   -1.722415805563823E-2   -4.403568043339492E-2   -1.825566019625712E-2   -4.373017433263274E-2    4.481351975951641E-1   -2.436866767584937E-1
 6.529493161250000E9     5.504332034888901E-1   -1.105014562322275E-1   -1.738546827726841E-2   -4.432235330262922E-2   -1.840733292897450E-2   -4.393861424424738E-2    4.476013345760934E-1   -2.448933797572969E-1
 6.529503391925000E9     5.502438264065226E-1   -1.114196599856036E-1   -1.765297944698560E-2   -4.442368699381278E-2   -1.872203906280606E-2   -4.416402991632689E-2    4.468129430259267E-1   -2.461426710937968E-1
 6.529513622600000E9     5.500222419338650E-1   -1.123185903736895E-1   -1.788261004395985E-2   -4.492415684382906E-2   -1.888397754125505E-2   -4.447370794461923E-2    4.459457219011437E-1   -2.471280159226250E-1
 6.529523853275000E9     5.497527830787893E-1   -1.131808589508029E-1   -1.799384570635778E-2   -4.511744215139125E-2   -1.914908224895922E-2   -4.484490229413923E-2    4.453789208221042E-1   -2.481057203425231E-1
 6.529534083950000E9     5.495835503826861E-1   -1.142073295538577E-1   -1.820068902069778E-2   -4.551338621075776E-2   -1.935090723737385E-2   -4.506492568273796E-2    4.445775863482498E-1   -2.492123093237890E-1
 6.529544314625000E9     5.493533955555201E-1   -1.150663067272067E-1   -1.866586202873451E-2   -4.570957072521024E-2   -1.979527138961337E-2   -4.537170881259901E-2    4.438175985593777E-1   -2.503585193568003E-1
 6.529554545300000E9     5.492128751687173E-1   -1.160641212251496E-1   -1.879936107670575E-2   -4.600787316985094E-2   -1.994873670873918E-2   -4.564742708617979E-2    4.431420968763944E-1   -2.512710402026480E-1
 6.529564775975000E9     5.488300906804813E-1   -1.169564992094170E-1   -1.906267422438416E-2   -4.653941173746769E-2   -2.030118754875054E-2   -4.596815506250115E-2    4.424531307035964E-1   -2.524922796143225E-1
 6.529575006650000E9     5.486331329053105E-1   -1.178803191484877E-1   -1.943111473153902E-2   -4.675036521788762E-2   -2.050125821263445E-2   -4.624905239855273E-2    4.415697093071284E-1   -2.535435392572021E-1
 6.529585237325000E9     5.483004750166758E-1   -1.188262259308685E-1   -1.975213705545998E-2   -4.708781639256676E-2   -2.080802985848069E-2   -4.662857014512103E-2    4.408245366354515E-1   -2.547667444778256E-1
 6.529595468000000E9     5.480360744037249E-1   -1.197218069226985E-1   -1.996668134342596E-2   -4.737372602728624E-2   -2.117770272105856E-2   -4.700738826605150E-2    4.401368675414789E-1   -2.560433243982381E-1
 6.529605698675000E9     5.478043574313176E-1   -1.206873276462161E-1   -2.028522149559867E-2   -4.768175296822919E-2   -2.142947304049393E-2   -4.722766648755442E-2    4.392531278083054E-1   -2.569640675343955E-1
 6.529615929350000E9     5.475724357895293E-1   -1.215582664838312E-1   -2.056674116332298E-2   -4.787267028551840E-2   -2.171546467399907E-2   -4.748284392568365E-2    4.383438943093833E-1   -2.580940681538433E-1
 6.529626160025000E9     5.473025300537555E-1   -1.225639291290676E-1   -2.093319199769580E-2   -4.829550988372219E-2   -2.206503135852783E-2   -4.789821000057018E-2    4.375875445926034E-1   -2.593025047207256E-1
 6.529636390700000E9     5.469998845569923E-1   -1.234968716434366E-1   -2.112741721235342E-2   -4.868643553076353E-2   -2.232727459041168E-2   -4.820602744425518E-2    4.368233090977943E-1   -2.604683214384032E-1
 6.529646621375000E9     5.467413359379263E-1   -1.245367681375343E-1   -2.151646538450711E-2   -4.902173700486279E-2   -2.275436515194778E-2   -4.863596548907970E-2    4.358625368428588E-1   -2.616128890398442E-1
 6.529656852050000E9     5.463445261196787E-1   -1.254924993368881E-1   -2.180983570129257E-2   -4.935093437203213E-2   -2.302220466426573E-2   -4.898388378386224E-2    4.350704639613312E-1   -2.628809983234758E-1
 6.529667082725000E9     5.461905141552349E-1   -1.264482064878251E-1   -2.209706554090091E-2   -4.961708577414124E-2   -2.334031922573044E-2   -4.922091212318079E-2    4.341035372965601E-1   -2.642066953416097E-1
 6.529677313400000E9     5.459010923490822E-1   -1.274070514650847E-1   -2.239589171898236E-2   -5.005286113118762E-2   -2.367397648102010E-2   -4.955570291412301E-2    4.332826895285770E-1   -2.653027373776891E-1
 6.529687544075000E9     5.455713294626029E-1   -1.282786816576003E-1   -2.270906332934367E-2   -5.045600661545872E-2   -2.388279525603134E-2   -5.002602108661939E-2    4.324015514195013E-1   -2.664003276705835E-1
 6.529697774750000E9     5.453128336012814E-1   -1.292693670829328E-1   -2.306078068790168E-2   -5.085863460331447E-2   -2.433711750193523E-2   -5.032040669840717E-2    4.314982017094401E-1   -2.675848571938472E-1
