#  HZ   S   RI   R     50.00 
! Rohde & Schwarz Vector Network Analyzer 
! Rohde-Schwarz,ZNB20-2Port,1311601062101988,3.16
! Created: UTC 3/21/2024, 12:58:45 AM
! freq[Hz]                re:S11                  im:S11                  re:S21                  im:S21                  re:S12                  im:S12                  re:S22                  im:S22
 6.528773864000000E9     5.605216296756256E-1   -4.993976185829618E-2   -7.205224034297276E-3   -3.043959072810204E-2   -7.919212726093083E-3   -3.030984155676859E-2    4.816730899015809E-1   -1.783121410910390E-1
 6.528784117425000E9     5.604128195234900E-1   -5.086528348510787E-2   -7.357084858501083E-3   -3.058665181943719E-2   -7.949721272904844E-3   -3.048150913206347E-2    4.813860380513091E-1   -1.792438464004444E-1
 6.528794370850000E9     5.602759929574488E-1   -5.161810915555682E-2   -7.425222414082176E-3   -3.059782345566716E-2   -8.062332592074062E-3   -3.053548758975017E-2    4.809791737060410E-1   -1.799348148435720E-1
 6.528804624275000E9     5.600980841883523E-1   -5.248197667527207E-2   -7.504931653753177E-3   -3.079510803103701E-2   -8.142695356480127E-3   -3.078260329284482E-2    4.807097482161650E-1   -1.807878476057604E-1
 6.528814877700000E9     5.602048466698066E-1   -5.321105318730390E-2   -7.642574740313873E-3   -3.083163988585799E-2   -8.322786085770573E-3   -3.090977073089416E-2    4.801549332264357E-1   -1.818350033389178E-1
 6.528825131125000E9     5.599868836482758E-1   -5.413493856062725E-2   -7.679370106126072E-3   -3.095505432545625E-2   -8.335124320415443E-3   -3.098396258403903E-2    4.801034292620355E-1   -1.825981290660423E-1
 6.528835384550000E9     5.599861853059077E-1   -5.495441643165908E-2   -7.736005229522425E-3   -3.125581609636096E-2   -8.410112505434416E-3   -3.110660837299250E-2    4.796096381329377E-1   -1.834270630080787E-1
 6.528845637975000E9     5.598534557739560E-1   -5.581856595965021E-2   -7.821735961403897E-3   -3.141158272224384E-2   -8.534384336640850E-3   -3.124522511527380E-2    4.791988630444896E-1   -1.843882529040119E-1
 6.528855891400000E9     5.597610248468704E-1   -5.663809975488478E-2   -7.939007464767419E-3   -3.174151301756346E-2   -8.634481689498470E-3   -3.140603813806315E-2    4.786858713673866E-1   -1.850202126348356E-1
 6.528866144825000E9     5.596807062185624E-1   -5.744317416999205E-2   -8.157335816883281E-3   -3.175009448051664E-2   -8.745243310595594E-3   -3.153333527951551E-2    4.784424470564294E-1   -1.861637318999403E-1
 6.528876398250000E9     5.595458626737213E-1   -5.828169204761476E-2   -8.151649747449717E-3   -3.189193443510240E-2   -8.869064018632329E-3   -3.180219875008614E-2    4.780826881737024E-1   -1.870328401685227E-1
 6.528886651675000E9     5.594615823383878E-1   -5.912603779401802E-2   -8.292799207559228E-3   -3.193830555232675E-2   -9.029638793422464E-3   -3.183913871749048E-2    4.777130420705504E-1   -1.880454931480439E-1
 6.528896905100000E9     5.593741828893971E-1   -5.989166188269207E-2   -8.358374836976637E-3   -3.219903243359585E-2   -9.069024212934275E-3   -3.203294863190976E-2    4.774096478911757E-1   -1.886603191177552E-1
 6.528907158525000E9     5.593679181958039E-1   -6.078744087840574E-2   -8.539974313568038E-3   -3.233643280450825E-2   -9.086657785529575E-3   -3.211659525210051E-2    4.770568436114290E-1   -1.896808453590188E-1
 6.528917411950000E9     5.591902414348969E-1   -6.163810630963986E-2   -8.501417509868391E-3   -3.232467274149008E-2   -9.293268051282678E-3   -3.235787923342826E-2    4.766649567248314E-1   -1.905626041646404E-1
 6.528927665375000E9     5.591735843588266E-1   -6.239094860792920E-2   -8.641406994516021E-3   -3.271788249518251E-2   -9.401646579786063E-3   -3.253883851769371E-2    4.762924312306150E-1   -1.913549116088904E-1
 6.528937918800000E9     5.589423356951954E-1   -6.322370566828786E-2   -8.672855742268592E-3   -3.276271823573391E-2   -9.473325874966750E-3   -3.259463751652136E-2    4.757614409922576E-1   -1.922076816108098E-1
 6.528948172225000E9     5.587890834138548E-1   -6.407970849273269E-2   -9.020401859316593E-3   -3.304623274166713E-2   -9.570238454876168E-3   -3.277406218065409E-2    4.752345015547247E-1   -1.931296431902701E-1
 6.528958425650000E9     5.588227726572408E-1   -6.499280860791826E-2   -9.021345191425762E-3   -3.318176937758370E-2   -9.784401824319954E-3   -3.298090371491618E-2    4.750717702178954E-1   -1.940327405307481E-1
 6.528968679075000E9     5.585946337259108E-1   -6.577068128480712E-2   -9.022928015164449E-3   -3.313525389728517E-2   -9.886082494871398E-3   -3.306951268999104E-2    4.746251635222755E-1   -1.950486222753922E-1
 6.528978932500000E9     5.585901694310361E-1   -6.660593903116156E-2   -9.212814982896105E-3   -3.335439985652482E-2   -1.000261365507591E-2   -3.323186283191498E-2    4.742495561784800E-1   -1.958892669913935E-1
 6.528989185925000E9     5.584068744024184E-1   -6.743383957460405E-2   -9.267842887693663E-3   -3.343285129253964E-2   -1.002498964603609E-2   -3.341971648517549E-2    4.739288098854019E-1   -1.968941883538178E-1
 6.528999439350000E9     5.582907395207211E-1   -6.831054496545651E-2   -9.513387395228888E-3   -3.369852411790535E-2   -1.016216307039214E-2   -3.360871607327540E-2    4.734380587828609E-1   -1.977147160347958E-1
 6.529009692775000E9     5.582131891772610E-1   -6.910463851957309E-2   -9.325513384118037E-3   -3.397633542460881E-2   -1.030280917066107E-2   -3.371330677533646E-2    4.730824494722149E-1   -1.985225290314249E-1
 6.529019946200000E9     5.581049791214323E-1   -7.000085541041427E-2   -9.687072854538334E-3   -3.401605702429372E-2   -1.043614635561299E-2   -3.390679078868932E-2    4.725899699131011E-1   -1.996022013032069E-1
 6.529030199625000E9     5.579801220031020E-1   -7.092104708849566E-2   -9.808132566822119E-3   -3.418560908527202E-2   -1.060063715455446E-2   -3.400259584177111E-2    4.721758236588429E-1   -2.003783609229699E-1
 6.529040453050000E9     5.579252863333781E-1   -7.163605768170588E-2   -9.970461290123050E-3   -3.446318092174615E-2   -1.069758308374112E-2   -3.420703921427295E-2    4.715746265423018E-1   -2.012419806152223E-1
 6.529050706475000E9     5.577657830860422E-1   -7.250347975984739E-2   -1.003053994027917E-2   -3.459600977458550E-2   -1.084976997421024E-2   -3.435941556358520E-2    4.713595164567790E-1   -2.022529272703722E-1
 6.529060959900000E9     5.575957719846762E-1   -7.335556542274894E-2   -1.010604618070923E-2   -3.475201797586537E-2   -1.090160330587634E-2   -3.460360505478944E-2    4.706695534668964E-1   -2.031987703503279E-1
 6.529071213325000E9     5.576032470431809E-1   -7.427393480568839E-2   -1.019588412078705E-2   -3.499040109668115E-2   -1.100077930893918E-2   -3.477776035635203E-2    4.704521884631327E-1   -2.040931149655048E-1
 6.529081466750000E9     5.573825311314199E-1   -7.502517231428246E-2   -1.028620807474466E-2   -3.512301807376360E-2   -1.120096166496949E-2   -3.489219615056847E-2    4.699952427219944E-1   -2.051053301498143E-1
 6.529091720175000E9     5.572256562506752E-1   -7.588358950380435E-2   -1.059534906397883E-2   -3.518433115110051E-2   -1.132420230880928E-2   -3.511216587780659E-2    4.695015511952817E-1   -2.060415125871857E-1
 6.529101973600000E9     5.572131550073284E-1   -7.683281002941529E-2   -1.050086491864704E-2   -3.550243116484106E-2   -1.140692377935467E-2   -3.529614445324365E-2    4.690618721374827E-1   -2.068969090226146E-1
 6.529112227025000E9     5.569444245574405E-1   -7.770069463452266E-2   -1.085835251438818E-2   -3.548106606959740E-2   -1.160015666962387E-2   -3.548086901341724E-2    4.686164082037502E-1   -2.078436691302152E-1
 6.529122480450000E9     5.568622343525533E-1   -7.856036656032762E-2   -1.091853602730621E-2   -3.599237137757165E-2   -1.171068761745388E-2   -3.566594992007582E-2    4.681232668875802E-1   -2.087960218222731E-1
 6.529132733875000E9     5.568169133292482E-1   -7.936704022132277E-2   -1.111769295646780E-2   -3.599030633737396E-2   -1.189906113965468E-2   -3.588906474467811E-2    4.677690987386047E-1   -2.097179106764869E-1
 6.529142987300000E9     5.566577476794213E-1   -8.019656362815436E-2   -1.116576171748795E-2   -3.619796335967427E-2   -1.209074632898685E-2   -3.604726084790081E-2    4.671321461400529E-1   -2.105740806946530E-1
 6.529153240725000E9     5.563138762465200E-1   -8.120105643506433E-2   -1.134327936119605E-2   -3.648063815819527E-2   -1.206773444345179E-2   -3.617519343654495E-2    4.667859793676415E-1   -2.116004636651440E-1
 6.529163494150000E9     5.562767298849113E-1   -8.186267535231605E-2   -1.147760792309704E-2   -3.663241114424887E-2   -1.229751003619073E-2   -3.641870079371553E-2    4.663409025069191E-1   -2.125578793905586E-1
 6.529173747575000E9     5.561187360564858E-1   -8.278548208696838E-2   -1.170112325029598E-2   -3.673641974804051E-2   -1.260222961776220E-2   -3.662993293706597E-2    4.656884979670322E-1   -2.134533238372908E-1
 6.529184001000000E9     5.558889289350230E-1   -8.365355714994109E-2   -1.181672626590674E-2   -3.692076573156881E-2   -1.261700557558119E-2   -3.678353307266272E-2    4.652599360164458E-1   -2.143736361078800E-1
 6.529194254425000E9     5.557877286351990E-1   -8.456002464348798E-2   -1.195642589595903E-2   -3.718011878105713E-2   -1.277353893375243E-2   -3.697107635338048E-2    4.647400433559123E-1   -2.155209601491246E-1
 6.529204507850000E9     5.556789806984446E-1   -8.530258853191716E-2   -1.214077476707586E-2   -3.743444743098191E-2   -1.293593077531685E-2   -3.724566566417391E-2    4.642561400318929E-1   -2.164836665592089E-1
 6.529214761275000E9     5.555963042640777E-1   -8.612650318836751E-2   -1.222614055928653E-2   -3.763784717713414E-2   -1.304203492798845E-2   -3.747456799642913E-2    4.638664659512481E-1   -2.173255774906430E-1
 6.529225014700000E9     5.554285232863166E-1   -8.703937066577297E-2   -1.231952480261766E-2   -3.784968989025672E-2   -1.324739743220775E-2   -3.763785477017415E-2    4.633674913813661E-1   -2.182469721893655E-1
 6.529235268125000E9     5.552568225767693E-1   -8.795752323043465E-2   -1.261999076042996E-2   -3.803964405893073E-2   -1.345104064592985E-2   -3.788643623461629E-2    4.628571360921778E-1   -2.193028927269855E-1
 6.529245521550000E9     5.549842956156247E-1   -8.888481955358557E-2   -1.272747443631183E-2   -3.822127621064334E-2   -1.353705734341793E-2   -3.800134927290540E-2    4.622399860146827E-1   -2.202556818824018E-1
 6.529255774975000E9     5.549624752039101E-1   -8.975705091084535E-2   -1.278813564709300E-2   -3.844841576692665E-2   -1.365043979400761E-2   -3.824423742772737E-2    4.617413995421423E-1   -2.211374416393183E-1
 6.529266028400000E9     5.547911692042823E-1   -9.057938307957947E-2   -1.306906269025453E-2   -3.870397938562183E-2   -1.399976280321238E-2   -3.854602653440948E-2    4.610994583119361E-1   -2.222526439421582E-1
 6.529276281825000E9     5.545530170269536E-1   -9.157049231737907E-2   -1.319498433124595E-2   -3.893483546138626E-2   -1.414221203484591E-2   -3.865768917007949E-2    4.606052270286073E-1   -2.231391782266055E-1
 6.529286535250000E9     5.544539702798347E-1   -9.228278350681536E-2   -1.329967526361399E-2   -3.911023535290088E-2   -1.437763779832271E-2   -3.886428378239856E-2    4.599961477982208E-1   -2.241884419700458E-1
 6.529296788675000E9     5.542087807669250E-1   -9.322722206843796E-2   -1.338947503590628E-2   -3.933254935445658E-2   -1.440390963376727E-2   -3.910521698764780E-2    4.595990510636455E-1   -2.252178323642833E-1
 6.529307042100000E9     5.540860281737360E-1   -9.411572925792466E-2   -1.372574741898365E-2   -3.961550889055137E-2   -1.461619071320408E-2   -3.928992360029296E-2    4.587607890978226E-1   -2.261909388688922E-1
 6.529317295525000E9     5.538858040993578E-1   -9.502686923615947E-2   -1.402753162813199E-2   -3.984036648630641E-2   -1.489055708568702E-2   -3.959073276475900E-2    4.584936621864525E-1   -2.270406722070574E-1
 6.529327548950000E9     5.537621108781769E-1   -9.591806839777804E-2   -1.404241645820353E-2   -4.014593924254867E-2   -1.505691877342956E-2   -3.973528063388761E-2    4.578318973820912E-1   -2.282255197582750E-1
 6.529337802375000E9     5.535054272754294E-1   -9.683877797217771E-2   -1.416768155608213E-2   -4.025161945448690E-2   -1.515468315150892E-2   -3.994704924840801E-2    4.572341242598860E-1   -2.293011691543996E-1
 6.529348055800000E9     5.534250260954234E-1   -9.765301734913986E-2   -1.442572307659686E-2   -4.042404307845699E-2   -1.535754536917761E-2   -4.023139188433725E-2    4.565549858821969E-1   -2.302596544171429E-1
 6.529358309225000E9     5.531978892145694E-1   -9.861480311341055E-2   -1.459875299283312E-2   -4.072016385835511E-2   -1.562090480569159E-2   -4.042188100566040E-2    4.560628194748285E-1   -2.312516506542145E-1
 6.529368562650000E9     5.530889109835144E-1   -9.960603820354094E-2   -1.472531266567479E-2   -4.101349328389019E-2   -1.580443517653999E-2   -4.076334839220417E-2    4.554663393437055E-1   -2.320302917292340E-1
 6.529378816075000E9     5.528152658184444E-1   -1.003008045051832E-1   -1.510232256916544E-2   -4.122622989761733E-2   -1.595084739579000E-2   -4.084994586031580E-2    4.549419147903502E-1   -2.331879925989509E-1
 6.529389069500000E9     5.526768549793778E-1   -1.012402778906136E-1   -1.516310157443139E-2   -4.136821091608524E-2   -1.607727707928249E-2   -4.122293611741985E-2    4.543026701733576E-1   -2.343896315775098E-1
 6.529399322925000E9     5.524636106227424E-1   -1.021190913795855E-1   -1.545812145466594E-2   -4.177882883938492E-2   -1.644917373673981E-2   -4.148729878601481E-2    4.537759392979331E-1   -2.352647709899643E-1
 6.529409576350000E9     5.522659261585482E-1   -1.029514050950871E-1   -1.559105458368952E-2   -4.206428755458601E-2   -1.662555659067740E-2   -4.167779990739232E-2    4.531028556477636E-1   -2.363553126797195E-1
 6.529419829775000E9     5.520438960128808E-1   -1.039348905795324E-1   -1.577706329637222E-2   -4.235522927126194E-2   -1.672815527687489E-2   -4.192564665760444E-2    4.524411538115714E-1   -2.372917863705331E-1
 6.529430083200000E9     5.517122327901391E-1   -1.047479507581816E-1   -1.607782302277523E-2   -4.258958110850568E-2   -1.702780228100781E-2   -4.218258274662760E-2    4.518458468993029E-1   -2.384288208095904E-1
 6.529440336625000E9     5.515529117326879E-1   -1.058281456084296E-1   -1.616256098011955E-2   -4.284010686028938E-2   -1.727343286852176E-2   -4.252136834659717E-2    4.510101794907538E-1   -2.393461568580541E-1
 6.529450590050000E9     5.514040386496251E-1   -1.066159220842885E-1   -1.650723050955210E-2   -4.310046362505433E-2   -1.751740646533873E-2   -4.277071168699515E-2    4.503640585116692E-1   -2.405813897528412E-1
 6.529460843475000E9     5.511658150231258E-1   -1.074982465375340E-1   -1.667428235711042E-2   -4.338960494402715E-2   -1.768532416322321E-2   -4.304498352474070E-2    4.497962185183295E-1   -2.415273576209459E-1
 6.529471096900000E9     5.509172818436284E-1   -1.084796189605592E-1   -1.690819471607070E-2   -4.361568486422768E-2   -1.793001702238408E-2   -4.325597214823862E-2    4.492790953497351E-1   -2.426730448290590E-1
 6.529481350325000E9     5.507416998524683E-1   -1.094070191123577E-1   -1.703241977400996E-2   -4.408478461682058E-2   -1.814616995011147E-2   -4.359161137149854E-2    4.483916080837156E-1   -2.436647506030208E-1
 6.529491603750000E9     5.504796420931445E-1   -1.102419678496901E-1   -1.731169820054895E-2   -4.406594851116537E-2   -1.841638263214966E-2   -4.382458357987697E-2    4.477803777340567E-1   -2.449211900141465E-1
 6.529501857175000E9     5.502930551746495E-1   -1.111582483240557E-1   -1.749062944068681E-2   -4.444354624918273E-2   -1.862944671024967E-2   -4.414531902916750E-2    4.468985585901277E-1   -2.458710969066814E-1
 6.529512110600000E9     5.500761039084979E-1   -1.120264541062209E-1   -1.785318335350422E-2   -4.474055606275216E-2   -1.893507123302814E-2   -4.446513591178428E-2    4.463175848024035E-1   -2.469730053217623E-1
 6.529522364025000E9     5.498571830982951E-1   -1.130234936100156E-1   -1.812252107444611E-2   -4.497960078502482E-2   -1.921937443953433E-2   -4.468056180066803E-2    4.456658034177993E-1   -2.481565868138506E-1
 6.529532617450000E9     5.495981347790708E-1   -1.138970897912574E-1   -1.837404823097169E-2   -4.536022609106926E-2   -1.936813414707051E-2   -4.501354473649521E-2    4.449829678277004E-1   -2.491353797920618E-1
 6.529542870875000E9     5.493986149285905E-1   -1.148139841169961E-1   -1.862186822925055E-2   -4.569154043077782E-2   -1.971165096251276E-2   -4.524656530031228E-2    4.441630024951991E-1   -2.502004473436719E-1
 6.529553124300000E9     5.491588847033001E-1   -1.158144110240825E-1   -1.880975116367921E-2   -4.599316096320989E-2   -2.002574693965299E-2   -4.556630702188107E-2    4.433969406771093E-1   -2.513825636722664E-1
 6.529563377725000E9     5.487806029346404E-1   -1.166697412008276E-1   -1.905235044516661E-2   -4.623514087082874E-2   -2.022591426955376E-2   -4.590990710063393E-2    4.426396294735487E-1   -2.526382487552061E-1
 6.529573631150000E9     5.486333432302943E-1   -1.176580742968443E-1   -1.929527525789859E-2   -4.654419868404528E-2   -2.042081014595026E-2   -4.615431871380272E-2    4.418735027535520E-1   -2.535454253331973E-1
 6.529583884575000E9     5.485130381790312E-1   -1.185433714924888E-1   -1.957176653308735E-2   -4.701723411661051E-2   -2.070129199241469E-2   -4.648445739206139E-2    4.409715034393364E-1   -2.547567894207926E-1
 6.529594138000000E9     5.482018453983237E-1   -1.195806197605742E-1   -1.970666179465891E-2   -4.726844291657744E-2   -2.110636009279144E-2   -4.677988018759029E-2    4.402129544286680E-1   -2.557995461719708E-1
 6.529604391425000E9     5.478353820522298E-1   -1.206915835648613E-1   -2.010214516971481E-2   -4.760716762951858E-2   -2.145089083438240E-2   -4.718131194219303E-2    4.395868764786613E-1   -2.570704341877321E-1
 6.529614644850000E9     5.475166741008547E-1   -1.213364157661485E-1   -2.035003180471709E-2   -4.800892768361055E-2   -2.176016623511693E-2   -4.748732456042278E-2    4.387536661329318E-1   -2.580936107241566E-1
 6.529624898275000E9     5.472808888933403E-1   -1.224338247325908E-1   -2.082500990561192E-2   -4.828630566383408E-2   -2.190085675740975E-2   -4.774368402373111E-2    4.378281994454348E-1   -2.592593836507955E-1
 6.529635151700000E9     5.470180306791322E-1   -1.234401004717762E-1   -2.098716732789530E-2   -4.858743223303772E-2   -2.220258246031350E-2   -4.816547077322003E-2    4.371677628256720E-1   -2.603496914542381E-1
 6.529645405125000E9     5.466560822113360E-1   -1.242560181280293E-1   -2.135014823477778E-2   -4.880469625329953E-2   -2.260636540738162E-2   -4.850704063846090E-2    4.363157387476054E-1   -2.616419995538208E-1
 6.529655658550000E9     5.464088531828086E-1   -1.251855437027151E-1   -2.158474009584432E-2   -4.918384351107438E-2   -2.289917168190855E-2   -4.878709140544365E-2    4.352503374060006E-1   -2.629480206062603E-1
 6.529665911975000E9     5.461472441526679E-1   -1.262196821547086E-1   -2.201120802351360E-2   -4.967208939886375E-2   -2.331718139837411E-2   -4.928914893791438E-2    4.344637251351380E-1   -2.639715981757020E-1
 6.529676165400000E9     5.458601574843744E-1   -1.272362988359361E-1   -2.229853667394748E-2   -4.995265778124733E-2   -2.366734082594577E-2   -4.948132618913858E-2    4.335439806645947E-1   -2.652320690418538E-1
 6.529686418825000E9     5.456248949025877E-1   -1.281174053626332E-1   -2.266207468330953E-2   -5.034627202893031E-2   -2.398951505633806E-2   -4.985734986466448E-2    4.328618655165529E-1   -2.663815188720119E-1
 6.529696672250000E9     5.453237130050747E-1   -1.291410363903066E-1   -2.293231748838725E-2   -5.074435131694390E-2   -2.425181482700017E-2   -5.020176413523819E-2    4.316981277060334E-1   -2.675060636474315E-1
