#  HZ   S   RI   R     50.00 
! Rohde & Schwarz Vector Network Analyzer 
! Rohde-Schwarz,ZNB20-2Port,1311601062101988,3.16
! Created: UTC 3/21/2024, 12:59:02 AM
! freq[Hz]                re:S11                  im:S11                  re:S21                  im:S21                  re:S12                  im:S12                  re:S22                  im:S22
 6.528774869000000E9     5.603113546591109E-1   -4.994770541741676E-2   -7.277963751098252E-3   -3.034740497647388E-2   -7.823646128233034E-3   -3.022891548528983E-2    4.817711194681838E-1   -1.777222595127236E-1
 6.528785143150000E9     5.602232432448057E-1   -5.069526644255543E-2   -7.323894776582332E-3   -3.054759883157902E-2   -7.975654631687690E-3   -3.040297882454054E-2    4.814043352691052E-1   -1.784098753711746E-1
 6.528795417300000E9     5.602063682895104E-1   -5.155205925117651E-2   -7.502766300953229E-3   -3.078383185923953E-2   -7.996543891276109E-3   -3.051929375671908E-2    4.810505781016642E-1   -1.793749540133789E-1
 6.528805691450000E9     5.602358588970782E-1   -5.240639522121755E-2   -7.491604768819320E-3   -3.074128154748492E-2   -8.202303644815208E-3   -3.063997391613916E-2    4.806952660087500E-1   -1.802480654339755E-1
 6.528815965600000E9     5.601111256268159E-1   -5.315255297201087E-2   -7.641566074667966E-3   -3.084635673032328E-2   -8.255690505105683E-3   -3.073219008352655E-2    4.803816630662781E-1   -1.811281080409505E-1
 6.528826239750000E9     5.600495527882341E-1   -5.404751407718307E-2   -7.676710402106190E-3   -3.112711997131391E-2   -8.338657782314353E-3   -3.090646004057000E-2    4.798933205999842E-1   -1.820939950978454E-1
 6.528836513900000E9     5.599849273132655E-1   -5.501661074870361E-2   -7.645867107250011E-3   -3.119582300909917E-2   -8.462035860567233E-3   -3.103394491132929E-2    4.795818872761175E-1   -1.827096821498924E-1
 6.528846788050000E9     5.597478904540556E-1   -5.571098719674732E-2   -7.888929733426525E-3   -3.126778855914909E-2   -8.600520090093157E-3   -3.126702742838081E-2    4.791820834422802E-1   -1.837372009711984E-1
 6.528857062200000E9     5.598184040691356E-1   -5.649009413373880E-2   -7.984756512870747E-3   -3.147975080026110E-2   -8.574416575088305E-3   -3.135796755361452E-2    4.788553228464618E-1   -1.846578881915870E-1
 6.528867336350000E9     5.596870329092847E-1   -5.734722654901550E-2   -8.020755715625716E-3   -3.170845871602017E-2   -8.734066935589849E-3   -3.150670558743456E-2    4.784378591376132E-1   -1.853879190106927E-1
 6.528877610500000E9     5.594684076969950E-1   -5.816869029882017E-2   -8.061345141250840E-3   -3.182746819619069E-2   -8.907874897356101E-3   -3.170410114881160E-2    4.781561070194360E-1   -1.862076489191643E-1
 6.528887884650000E9     5.594346452531178E-1   -5.905429745205122E-2   -8.300229887550610E-3   -3.194119181770811E-2   -8.918892626941595E-3   -3.180492473788166E-2    4.776237302038659E-1   -1.873000208667475E-1
 6.528898158800000E9     5.593300248471267E-1   -5.982182008031386E-2   -8.220593612185492E-3   -3.197752465895059E-2   -9.058436606012157E-3   -3.202905610103316E-2    4.772316465479757E-1   -1.881867386081769E-1
 6.528908432950000E9     5.593179236940450E-1   -6.065608757523621E-2   -8.544432908848040E-3   -3.223238323908444E-2   -9.157135807580350E-3   -3.203991101889109E-2    4.770610159666532E-1   -1.888175370405398E-1
 6.528918707100000E9     5.591339223263824E-1   -6.154726056977554E-2   -8.490118767634064E-3   -3.245454031425533E-2   -9.254730899085649E-3   -3.231100722257257E-2    4.764943655023851E-1   -1.898748842277012E-1
 6.528928981250000E9     5.590110913381823E-1   -6.216580164490807E-2   -8.704661435634484E-3   -3.253813125272460E-2   -9.404208410694006E-3   -3.244075770813876E-2    4.761631775444379E-1   -1.908315995447339E-1
 6.528939255400000E9     5.588766256700519E-1   -6.320498940385352E-2   -8.806835700512163E-3   -3.278103920748079E-2   -9.456968894751127E-3   -3.268936538207357E-2    4.756203007456196E-1   -1.916630431454623E-1
 6.528949529550000E9     5.589352943661279E-1   -6.400960914146855E-2   -8.868676869030501E-3   -3.293065933170875E-2   -9.627707290021607E-3   -3.271243780953383E-2    4.753956157413593E-1   -1.925879001554397E-1
 6.528959803700000E9     5.587593367206032E-1   -6.496541423779263E-2   -9.044361979292970E-3   -3.297327647959771E-2   -9.678901369233063E-3   -3.293661467046412E-2    4.751871203892812E-1   -1.935436435919888E-1
 6.528970077850000E9     5.586763549841592E-1   -6.567454355101882E-2   -8.991472728463276E-3   -3.332836964937045E-2   -9.840906246475833E-3   -3.307893250678634E-2    4.745442887556897E-1   -1.944799650983083E-1
 6.528980352000000E9     5.585588090620148E-1   -6.651271348875876E-2   -9.190535118708478E-3   -3.323584476838123E-2   -9.882993103420085E-3   -3.318610674287428E-2    4.743437539528244E-1   -1.951959103973192E-1
 6.528990626150000E9     5.583669169989739E-1   -6.743372595474770E-2   -9.392455200873603E-3   -3.355259579978251E-2   -1.010868952243774E-2   -3.318074439529396E-2    4.738867516907387E-1   -1.961795216092727E-1
 6.529000900300000E9     5.583005379758451E-1   -6.821133840927161E-2   -9.340729661907658E-3   -3.366644980723211E-2   -1.015956620177570E-2   -3.355301187486517E-2    4.732539077622631E-1   -1.970941211363045E-1
 6.529011174450000E9     5.581271715610430E-1   -6.910272917794276E-2   -9.469997148017406E-3   -3.386330727023710E-2   -1.029457701753158E-2   -3.367911819677227E-2    4.729718708433142E-1   -1.979647221901407E-1
 6.529021448600000E9     5.581278574727668E-1   -6.990204046115585E-2   -9.590013310437880E-3   -3.395684325678307E-2   -1.050420162068442E-2   -3.384479339720466E-2    4.725516185617664E-1   -1.988354230598681E-1
 6.529031722750000E9     5.579082416569877E-1   -7.079561584634166E-2   -9.716319637365889E-3   -3.417803878110114E-2   -1.056258968228724E-2   -3.410233123289957E-2    4.721838260599803E-1   -1.997712401303878E-1
 6.529041996900000E9     5.577496215378865E-1   -7.159689902019367E-2   -9.821413188866332E-3   -3.431764796277692E-2   -1.058026405225573E-2   -3.410563441530681E-2    4.718655040602378E-1   -2.007070080220324E-1
 6.529052271050000E9     5.578204039433705E-1   -7.245508359829513E-2   -1.002793030768682E-2   -3.443790956353387E-2   -1.072583123826933E-2   -3.430213075731189E-2    4.713490720301219E-1   -2.015941809021033E-1
 6.529062545200000E9     5.576837321655034E-1   -7.325934258177141E-2   -1.004966696573469E-2   -3.456515370296780E-2   -1.088822067117514E-2   -3.454507738111073E-2    4.709002521269512E-1   -2.025727941345496E-1
 6.529072819350000E9     5.574483361016566E-1   -7.423027520426854E-2   -1.024715250839529E-2   -3.492051838455539E-2   -1.106706172199871E-2   -3.458473706793654E-2    4.703443789848900E-1   -2.034951994052475E-1
 6.529083093500000E9     5.573129888745236E-1   -7.493577404732044E-2   -1.041109287814236E-2   -3.499908081679302E-2   -1.107120602604017E-2   -3.483403124458215E-2    4.699715809196610E-1   -2.044345395809130E-1
 6.529093367650000E9     5.571939248452470E-1   -7.594029382718173E-2   -1.042200611015980E-2   -3.512069911600055E-2   -1.125894129571313E-2   -3.507732480137377E-2    4.695469858379592E-1   -2.052091811405367E-1
 6.529103641800000E9     5.572344963317493E-1   -7.667636967337879E-2   -1.074896521928989E-2   -3.533876384855415E-2   -1.141209685672228E-2   -3.515752857409487E-2    4.689949822828988E-1   -2.063889545159679E-1
 6.529113915950000E9     5.569835935133491E-1   -7.761722272048424E-2   -1.083691776305978E-2   -3.558078039530044E-2   -1.162748099376369E-2   -3.541154959696805E-2    4.687995375464283E-1   -2.073181280614143E-1
 6.529124190100000E9     5.569242432424997E-1   -7.844935956551223E-2   -1.087180620702287E-2   -3.581255343437258E-2   -1.168187757629109E-2   -3.554008065839433E-2    4.681927685054552E-1   -2.081786166721666E-1
 6.529134464250000E9     5.566293992498547E-1   -7.943409843748866E-2   -1.097196182397221E-2   -3.588155694299752E-2   -1.176104932895493E-2   -3.568319672461717E-2    4.676757606388227E-1   -2.089731431616881E-1
 6.529144738400000E9     5.565405026338376E-1   -8.016910030198106E-2   -1.131920484234411E-2   -3.612970833163873E-2   -1.200177005111409E-2   -3.596501768395900E-2    4.672819026142072E-1   -2.100260606457213E-1
 6.529155012550000E9     5.565651908187873E-1   -8.098687382386673E-2   -1.122661515020506E-2   -3.633569195819561E-2   -1.220144822106093E-2   -3.616869528329635E-2    4.667907839431230E-1   -2.108993666162499E-1
 6.529165286700000E9     5.562368435955527E-1   -8.187184757796137E-2   -1.148740228016605E-2   -3.659753473527017E-2   -1.230777360875866E-2   -3.637133050500112E-2    4.661032982102118E-1   -2.119836892427255E-1
 6.529175560850000E9     5.561592533422693E-1   -8.271773798275533E-2   -1.149150897127878E-2   -3.666317271907042E-2   -1.237722129257244E-2   -3.650143216857111E-2    4.655985400320299E-1   -2.128526969474308E-1
 6.529185835000000E9     5.559144504450623E-1   -8.369099597746098E-2   -1.176334619316033E-2   -3.703637742413093E-2   -1.255851908280123E-2   -3.667934479069888E-2    4.652851557560926E-1   -2.138275978226556E-1
 6.529196109150000E9     5.558945689344583E-1   -8.451302239520689E-2   -1.184915525155386E-2   -3.705598101204245E-2   -1.258189384297461E-2   -3.697052244266784E-2    4.647975520499265E-1   -2.148418887898712E-1
 6.529206383300000E9     5.557088364782000E-1   -8.538621082109892E-2   -1.207582988176476E-2   -3.738141884053093E-2   -1.287374703873059E-2   -3.718190362715991E-2    4.642015642886069E-1   -2.157450615525033E-1
 6.529216657450000E9     5.555344230563061E-1   -8.624403714378602E-2   -1.208717381993498E-2   -3.768218457590287E-2   -1.309581424162272E-2   -3.734349991213763E-2    4.637946453495234E-1   -2.167411951572134E-1
 6.529226931600000E9     5.553495593507536E-1   -8.709053903757105E-2   -1.238685404766316E-2   -3.774488978134587E-2   -1.319254829466775E-2   -3.745351947685585E-2    4.632198653968478E-1   -2.176743243764822E-1
 6.529237205750000E9     5.552535235520416E-1   -8.796045562564325E-2   -1.251046589225019E-2   -3.801675797509998E-2   -1.335498034122679E-2   -3.768188155383490E-2    4.626594686574552E-1   -2.186835615590459E-1
 6.529247479900000E9     5.550703184257876E-1   -8.883580548869549E-2   -1.257181956501082E-2   -3.808778574209161E-2   -1.354080447435788E-2   -3.786892809027257E-2    4.622196634637307E-1   -2.195557283412410E-1
 6.529257754050000E9     5.549261233956607E-1   -8.969381835711455E-2   -1.296811055100263E-2   -3.836038234282365E-2   -1.368601601693171E-2   -3.808720037419503E-2    4.616784173062030E-1   -2.206085944838825E-1
 6.529268028200000E9     5.546901578586132E-1   -9.059566911140758E-2   -1.294512794943374E-2   -3.864316318647482E-2   -1.386278131155410E-2   -3.844621645102315E-2    4.612247541287702E-1   -2.215350444730533E-1
 6.529278302350000E9     5.546073177306460E-1   -9.141225810235583E-2   -1.319834094911675E-2   -3.875680177355344E-2   -1.404677751912662E-2   -3.857407899597327E-2    4.606011022248345E-1   -2.224887632089979E-1
 6.529288576500000E9     5.543352384207001E-1   -9.238528421305886E-2   -1.321216279181128E-2   -3.905590909959459E-2   -1.420570116609742E-2   -3.879026678649426E-2    4.600319555893434E-1   -2.236223108478188E-1
 6.529298850650000E9     5.542220560667686E-1   -9.319027943582357E-2   -1.333818120536147E-2   -3.927803820043962E-2   -1.439479668378960E-2   -3.907918853448360E-2    4.595817685091142E-1   -2.245754302393334E-1
 6.529309124800000E9     5.540370861978804E-1   -9.415055759262915E-2   -1.363803523568057E-2   -3.948395348879018E-2   -1.458541410339208E-2   -3.926356048822897E-2    4.591202575059978E-1   -2.255779996442890E-1
 6.529319398950000E9     5.538308285860852E-1   -9.502709119329139E-2   -1.375044675569375E-2   -3.976045595100970E-2   -1.484436618058608E-2   -3.949368656455920E-2    4.583042155010554E-1   -2.265627800435364E-1
 6.529329673100000E9     5.537724257062375E-1   -9.582897254269220E-2   -1.410923010891682E-2   -3.990161227321679E-2   -1.485884260791420E-2   -3.968584632561082E-2    4.579251440173378E-1   -2.276753639167391E-1
 6.529339947250000E9     5.534994082508516E-1   -9.669405882574965E-2   -1.410338686863729E-2   -4.010053452534817E-2   -1.514933130513037E-2   -3.990363152381982E-2    4.572990920171807E-1   -2.286211913024826E-1
 6.529350221400000E9     5.534712098619970E-1   -9.752723212903312E-2   -1.435258582045898E-2   -4.037581118162972E-2   -1.523126514533158E-2   -4.011275007397149E-2    4.566483529307910E-1   -2.294631608784955E-1
 6.529360495550000E9     5.530887401781750E-1   -9.850324675493019E-2   -1.460609126456621E-2   -4.055985886909863E-2   -1.563445833748641E-2   -4.033080122635714E-2    4.560193946018368E-1   -2.306538571987515E-1
 6.529370769700000E9     5.529899186039469E-1   -9.939632235337402E-2   -1.483541979739247E-2   -4.096367587926904E-2   -1.572131920513866E-2   -4.052871294429122E-2    4.555293135463043E-1   -2.315327205012765E-1
 6.529381043850000E9     5.528035267244783E-1   -1.003596340410812E-1   -1.484687185407436E-2   -4.124639852178739E-2   -1.587585357851615E-2   -4.087266413138735E-2    4.548232723196049E-1   -2.325233493276808E-1
 6.529391318000000E9     5.525937567237058E-1   -1.012727388199599E-1   -1.510967360192090E-2   -4.142658929072986E-2   -1.615356407402516E-2   -4.112747430397096E-2    4.542289888352331E-1   -2.338057119874121E-1
 6.529401592150000E9     5.523936883750087E-1   -1.020325110315422E-1   -1.529470058542455E-2   -4.175004058153252E-2   -1.628805107303182E-2   -4.145734578096913E-2    4.536361187385625E-1   -2.347016792768730E-1
 6.529411866300000E9     5.521206009197569E-1   -1.029418866618457E-1   -1.556701813812312E-2   -4.202739374228748E-2   -1.652683611717450E-2   -4.159559965797743E-2    4.530335575724065E-1   -2.356130948003300E-1
 6.529422140450000E9     5.520934908065532E-1   -1.039545090604285E-1   -1.566672174306625E-2   -4.219272735086652E-2   -1.673436629076453E-2   -4.187667236347109E-2    4.524206452793230E-1   -2.368943733373924E-1
 6.529432414600000E9     5.516991321878507E-1   -1.047554154212278E-1   -1.592405977979931E-2   -4.239904674305094E-2   -1.697408693074816E-2   -4.212497314031824E-2    4.517662639893787E-1   -2.378319232110993E-1
 6.529442688750000E9     5.514966275724055E-1   -1.056987510537060E-1   -1.616688845709132E-2   -4.275515539453151E-2   -1.712662380721718E-2   -4.245295306636167E-2    4.511659937437383E-1   -2.390135019679563E-1
 6.529452962900000E9     5.513361451215446E-1   -1.065079836861621E-1   -1.635797345413710E-2   -4.312151400099418E-2   -1.743203574518041E-2   -4.264483955737008E-2    4.505736262622165E-1   -2.399237189435888E-1
 6.529463237050000E9     5.512035927589308E-1   -1.074904242588525E-1   -1.654566228586978E-2   -4.327298410143242E-2   -1.764065385437890E-2   -4.297916399208247E-2    4.498746478401451E-1   -2.410753049578545E-1
 6.529473511200000E9     5.508792838055679E-1   -1.083980019568862E-1   -1.680356428789010E-2   -4.360713060367843E-2   -1.783554404122373E-2   -4.321268124863509E-2    4.493052113694153E-1   -2.419715427727936E-1
 6.529483785350000E9     5.506159434472460E-1   -1.093355104826384E-1   -1.704396493764906E-2   -4.388011323690148E-2   -1.813751099364264E-2   -4.343706031995618E-2    4.485717676248446E-1   -2.430134912290923E-1
 6.529494059500000E9     5.505194504013041E-1   -1.102565462213366E-1   -1.721162103797422E-2   -4.414784592877518E-2   -1.834521542363481E-2   -4.371758243461938E-2    4.477569304779105E-1   -2.441816593345392E-1
 6.529504333650000E9     5.503059880172759E-1   -1.110262352040051E-1   -1.746831116071798E-2   -4.454161399077842E-2   -1.869000288733994E-2   -4.402557670313114E-2    4.471696876367773E-1   -2.454092706039640E-1
 6.529514607800000E9     5.501185333818229E-1   -1.122174441902128E-1   -1.780845609309982E-2   -4.463705066938192E-2   -1.878542673854164E-2   -4.434818634637080E-2    4.465561970163038E-1   -2.463353316864341E-1
 6.529524881950000E9     5.498156540487710E-1   -1.129963126873026E-1   -1.796077008735080E-2   -4.498180101153119E-2   -1.911522897335958E-2   -4.466041772654555E-2    4.456314240741766E-1   -2.474959995772463E-1
 6.529535156100000E9     5.495080244090763E-1   -1.139964197201698E-1   -1.818395955856315E-2   -4.526170207926331E-2   -1.944553316840157E-2   -4.488804852034464E-2    4.449797640080961E-1   -2.483454234887746E-1
 6.529545430250000E9     5.493395838105164E-1   -1.148834869393648E-1   -1.853850162965032E-2   -4.571773911090891E-2   -1.959753435267192E-2   -4.518690141172203E-2    4.443475182711743E-1   -2.495686924181720E-1
 6.529555704400000E9     5.491359218213252E-1   -1.157856784077665E-1   -1.874264327366949E-2   -4.593131691829393E-2   -1.988537220784098E-2   -4.550353577570797E-2    4.436005658407193E-1   -2.507632518313415E-1
 6.529565978550000E9     5.489153620388610E-1   -1.166765122182274E-1   -1.911998174402039E-2   -4.624214161047640E-2   -2.018789206666527E-2   -4.571435612312379E-2    4.426431992346491E-1   -2.517948461926618E-1
 6.529576252700000E9     5.486423983066908E-1   -1.176337932707459E-1   -1.931372755271077E-2   -4.651000801709868E-2   -2.043191726588615E-2   -4.612062212228298E-2    4.419915502084603E-1   -2.530012561827080E-1
 6.529586526850000E9     5.481806702560583E-1   -1.186502792942689E-1   -1.964644081562014E-2   -4.684220233592525E-2   -2.076987308219933E-2   -4.646029949380708E-2    4.410924488197706E-1   -2.540666093184480E-1
 6.529596801000000E9     5.480583753399262E-1   -1.195667474046545E-1   -1.987702196627429E-2   -4.699667854209597E-2   -2.112281393938314E-2   -4.679257009175190E-2    4.405380375828410E-1   -2.553619705160892E-1
 6.529607075150000E9     5.478553271230236E-1   -1.205283491387635E-1   -2.015372604800717E-2   -4.739932701202403E-2   -2.125332369439592E-2   -4.707785179236329E-2    4.396078401564525E-1   -2.563710831606820E-1
 6.529617349300000E9     5.475895054739112E-1   -1.214474232911588E-1   -2.039982241230738E-2   -4.782985489464561E-2   -2.160142063367350E-2   -4.740295107406646E-2    4.387634742474004E-1   -2.576371370229474E-1
 6.529627623450000E9     5.473310296462406E-1   -1.223796127699645E-1   -2.076384966015895E-2   -4.805134576259222E-2   -2.199763477401712E-2   -4.758313821179171E-2    4.379504301701312E-1   -2.586984229341354E-1
 6.529637897600000E9     5.470705243644659E-1   -1.233502583146740E-1   -2.103644029206303E-2   -4.838664889905975E-2   -2.226450591039512E-2   -4.810627865729390E-2    4.370923955446425E-1   -2.599513482433602E-1
 6.529648171750000E9     5.467360223617141E-1   -1.244453750079400E-1   -2.123825444783536E-2   -4.881932724768737E-2   -2.259215756896231E-2   -4.844970886222914E-2    4.362974533448754E-1   -2.611429700836356E-1
 6.529658445900000E9     5.464802477228390E-1   -1.253026229637386E-1   -2.157632564249101E-2   -4.924986187311125E-2   -2.287226301135948E-2   -4.872762723312792E-2    4.353374781405094E-1   -2.623158351349834E-1
 6.529668720050000E9     5.460656502114334E-1   -1.262111199436162E-1   -2.203644315030075E-2   -4.959571107768919E-2   -2.325701228448251E-2   -4.905020988673791E-2    4.345959568719181E-1   -2.634508742495390E-1
 6.529678994200000E9     5.458381510091556E-1   -1.271535917609731E-1   -2.225405736957042E-2   -4.985927742276064E-2   -2.351857340444328E-2   -4.945692651919238E-2    4.337532778303071E-1   -2.645952433085541E-1
 6.529689268350000E9     5.455701796668967E-1   -1.282007555796015E-1   -2.275043963562385E-2   -5.017449361301645E-2   -2.392753625001556E-2   -4.975693894477613E-2    4.326636059590744E-1   -2.659078539164309E-1
 6.529699542500000E9     5.453235638349559E-1   -1.292090947226658E-1   -2.284291991911096E-2   -5.060413432365653E-2   -2.429614049885728E-2   -5.013633942535986E-2    4.316883222833507E-1   -2.670640963887896E-1
