#  HZ   S   RI   R     50.00 
! Rohde & Schwarz Vector Network Analyzer 
! Rohde-Schwarz,ZNB20-2Port,1311601062101988,3.16
! Created: UTC 3/21/2024, 12:59:04 AM
! freq[Hz]                re:S11                  im:S11                  re:S21                  im:S21                  re:S12                  im:S12                  re:S22                  im:S22
 6.528773097000000E9     5.604277830791163E-1   -4.986763316697974E-2   -7.052001911611032E-3   -3.019276875850966E-2   -7.829930040749450E-3   -3.022301312843321E-2    4.818000822271363E-1   -1.773349375103942E-1
 6.528783384550000E9     5.602443866333561E-1   -5.065324859402690E-2   -7.268570537858450E-3   -3.041399449243259E-2   -7.866908608668882E-3   -3.037861066007197E-2    4.813840726524245E-1   -1.783860097779288E-1
 6.528793672100000E9     5.603283478892307E-1   -5.146773578266940E-2   -7.309393901168184E-3   -3.075864430236389E-2   -8.067909411556084E-3   -3.046803861070446E-2    4.810340420265457E-1   -1.791169604971901E-1
 6.528803959650000E9     5.601719528358967E-1   -5.218562414221332E-2   -7.485380721372057E-3   -3.082870042825981E-2   -8.163714679105819E-3   -3.068054805776901E-2    4.808446471966526E-1   -1.800724272153889E-1
 6.528814247200000E9     5.601204662598778E-1   -5.292015505515778E-2   -7.627220312733091E-3   -3.086120760674098E-2   -8.263497740611768E-3   -3.069921735401892E-2    4.804875191692778E-1   -1.809151014890747E-1
 6.528824534750000E9     5.600146446195614E-1   -5.386746866477315E-2   -7.653857218035018E-3   -3.101888702048593E-2   -8.339145691408268E-3   -3.089937454559871E-2    4.799615257396066E-1   -1.818653082207572E-1
 6.528834822300000E9     5.598355421299221E-1   -5.476648450018885E-2   -7.753510378994455E-3   -3.111643065433674E-2   -8.309892882103286E-3   -3.107604547612938E-2    4.795780619601340E-1   -1.826319272101772E-1
 6.528845109850000E9     5.598849167863470E-1   -5.547905891474834E-2   -7.792224486813317E-3   -3.136928734207035E-2   -8.499480157402341E-3   -3.120853605023933E-2    4.791526908356724E-1   -1.833857715602481E-1
 6.528855397400000E9     5.596922248885817E-1   -5.633900209053379E-2   -7.946541442646728E-3   -3.135383513235459E-2   -8.552928978639440E-3   -3.142381614372151E-2    4.788751963574108E-1   -1.845467433767120E-1
 6.528865684950000E9     5.594237191054706E-1   -5.719057854449704E-2   -8.062731785763668E-3   -3.158811407373127E-2   -8.819582496723538E-3   -3.142420561393350E-2    4.784196167630516E-1   -1.851110608589008E-1
 6.528875972500000E9     5.595606320389283E-1   -5.805298647419294E-2   -8.142756434327067E-3   -3.166299138122863E-2   -8.802474971854761E-3   -3.159259654744509E-2    4.781829122639010E-1   -1.861351763608211E-1
 6.528886260050000E9     5.595033528631076E-1   -5.877647435088759E-2   -8.256878482284520E-3   -3.173473723439142E-2   -8.969296331082077E-3   -3.173803614352984E-2    4.779341393373208E-1   -1.870875749992112E-1
 6.528896547600000E9     5.593345376131036E-1   -5.970592560911473E-2   -8.235164070802239E-3   -3.218945416099287E-2   -9.022705598797151E-3   -3.188156101782512E-2    4.773507493173254E-1   -1.880354316490677E-1
 6.528906835150000E9     5.593246284909081E-1   -6.069473186112185E-2   -8.436652761339451E-3   -3.230824690455114E-2   -9.179966470128044E-3   -3.209612989365066E-2    4.769528923687605E-1   -1.890271921788506E-1
 6.528917122700000E9     5.593195929915488E-1   -6.141342114465389E-2   -8.473384160991006E-3   -3.223060626965984E-2   -9.190926441470246E-3   -3.212553316705093E-2    4.766724482248197E-1   -1.897647959256724E-1
 6.528927410250000E9     5.590320968832223E-1   -6.219435856320625E-2   -8.710952778812444E-3   -3.246707581713403E-2   -9.302640473766334E-3   -3.236298438027724E-2    4.763013164580102E-1   -1.906031649054919E-1
 6.528937697800000E9     5.589931455008805E-1   -6.310024306554406E-2   -8.642830193144725E-3   -3.269179464533507E-2   -9.414395377862459E-3   -3.262275331631125E-2    4.759725528434072E-1   -1.914743313567440E-1
 6.528947985350000E9     5.588430789668787E-1   -6.389943154777983E-2   -8.927868536339723E-3   -3.291791644190026E-2   -9.690813100576809E-3   -3.268140206418144E-2    4.753748991963269E-1   -1.925143130360983E-1
 6.528958272900000E9     5.587256091402969E-1   -6.472166168504666E-2   -8.882265067223161E-3   -3.304950839580834E-2   -9.677901573504248E-3   -3.280277306924664E-2    4.750262393213865E-1   -1.933327759764835E-1
 6.528968560450000E9     5.586036676231481E-1   -6.556105350556241E-2   -8.949369803322076E-3   -3.310662263977476E-2   -9.819393859828685E-3   -3.298375063967212E-2    4.747253135410547E-1   -1.942436290286567E-1
 6.528978848000000E9     5.584582482841253E-1   -6.650068972412376E-2   -9.258207612499521E-3   -3.333306215090770E-2   -9.862616215120709E-3   -3.310534115820440E-2    4.742533697309854E-1   -1.950158580999800E-1
 6.528989135550000E9     5.585000211037842E-1   -6.719598970996456E-2   -9.254646618821921E-3   -3.345809406887836E-2   -9.899561633927540E-3   -3.339172755521134E-2    4.739543706339789E-1   -1.960087169278029E-1
 6.528999423100000E9     5.582931069137990E-1   -6.812070891597755E-2   -9.396055222841445E-3   -3.360843246500173E-2   -1.015639824607932E-2   -3.350022603786802E-2    4.735260219606637E-1   -1.968544308169946E-1
 6.529009710650000E9     5.582016692664948E-1   -6.892546100363824E-2   -9.384594141922090E-3   -3.380328678004074E-2   -1.014826748587782E-2   -3.359339680422500E-2    4.729506195719868E-1   -1.977877341324932E-1
 6.529019998200000E9     5.581344056888190E-1   -6.974337172643601E-2   -9.578224941775432E-3   -3.374885095863504E-2   -1.044369787778739E-2   -3.371049728715080E-2    4.726976144529082E-1   -1.988409856223508E-1
 6.529030285750000E9     5.580484964106858E-1   -7.067744381981331E-2   -9.828033996281385E-3   -3.416422351222960E-2   -1.048002569194596E-2   -3.400425523321236E-2    4.723044680979406E-1   -1.997563244978537E-1
 6.529040573300000E9     5.579042859265899E-1   -7.150952231304128E-2   -9.698439895354093E-3   -3.440111459535967E-2   -1.067943202010412E-2   -3.412277819766614E-2    4.718181091666330E-1   -2.005031643109093E-1
 6.529050860850000E9     5.576313863165703E-1   -7.231351425678292E-2   -1.011780940172375E-2   -3.446253789281643E-2   -1.079235227421507E-2   -3.428504790924244E-2    4.714769676113656E-1   -2.014753395879145E-1
 6.529061148400000E9     5.575988229069615E-1   -7.313388682999343E-2   -1.012102853690041E-2   -3.463645681684289E-2   -1.090604625332118E-2   -3.450969810865383E-2    4.709676007598685E-1   -2.023300293852101E-1
 6.529071435950000E9     5.574620347583005E-1   -7.414015482133564E-2   -1.018332668632943E-2   -3.480746436815674E-2   -1.102132116435891E-2   -3.467672939576536E-2    4.703908227748892E-1   -2.033958104597953E-1
 6.529081723500000E9     5.573631494645623E-1   -7.487742864447260E-2   -1.030132518559385E-2   -3.512470833380765E-2   -1.112907359861747E-2   -3.480414411539122E-2    4.701899106740772E-1   -2.043511019799717E-1
 6.529092011050000E9     5.571664959569099E-1   -7.579476641244000E-2   -1.047467756294606E-2   -3.507121747721129E-2   -1.124781030826496E-2   -3.502365986326116E-2    4.696152240642436E-1   -2.052376760916790E-1
 6.529102298600000E9     5.571436509096847E-1   -7.655936652870708E-2   -1.059881205625936E-2   -3.540657937073894E-2   -1.145125923593917E-2   -3.518235417136117E-2    4.691053682151697E-1   -2.062586826468841E-1
 6.529112586150000E9     5.569242385229076E-1   -7.735096036755838E-2   -1.072767952537933E-2   -3.559610820952943E-2   -1.149615788156888E-2   -3.538761667766556E-2    4.685692960755987E-1   -2.071344492632706E-1
 6.529122873700000E9     5.569095259246978E-1   -7.818286916828052E-2   -1.089431848202638E-2   -3.563830934090768E-2   -1.166435868725925E-2   -3.551926058110053E-2    4.681710024234117E-1   -2.079887902397593E-1
 6.529133161250000E9     5.567542656227286E-1   -7.915398896198869E-2   -1.113879064194693E-2   -3.591664978872872E-2   -1.179818724441332E-2   -3.571695149043085E-2    4.678732493588504E-1   -2.088153328033776E-1
 6.529143448800000E9     5.566278465679138E-1   -8.009871157984640E-2   -1.126009376859217E-2   -3.611143841622124E-2   -1.191087458483843E-2   -3.601215779214767E-2    4.672375446425784E-1   -2.098835541055954E-1
 6.529153736350000E9     5.563687286412705E-1   -8.083308703937434E-2   -1.118925799826585E-2   -3.622870103611805E-2   -1.204610292029687E-2   -3.618801759986427E-2    4.667868543378011E-1   -2.109767781224470E-1
 6.529164023900000E9     5.563546999644383E-1   -8.170545413569637E-2   -1.139076556865196E-2   -3.650030138824642E-2   -1.224920958817691E-2   -3.634498168064337E-2    4.662326748943842E-1   -2.117710945182524E-1
 6.529174311450000E9     5.561384125420982E-1   -8.264814828607159E-2   -1.152217314008113E-2   -3.659803837852481E-2   -1.244123663972683E-2   -3.646177613759978E-2    4.658534630126849E-1   -2.126980238630045E-1
 6.529184599000000E9     5.559074255430068E-1   -8.342097220046546E-2   -1.171980805434125E-2   -3.686055035031131E-2   -1.255082684973207E-2   -3.664763006228961E-2    4.652036440627091E-1   -2.137555527413058E-1
 6.529194886550000E9     5.558502916330468E-1   -8.443489781551448E-2   -1.190078084361165E-2   -3.720028724834866E-2   -1.273159732304198E-2   -3.688976305003917E-2    4.649794560131846E-1   -2.145647204148210E-1
 6.529205174100000E9     5.556981685733844E-1   -8.524699938547765E-2   -1.199940558692256E-2   -3.722835191406391E-2   -1.289543788500981E-2   -3.706601185421467E-2    4.644179838191018E-1   -2.156148395054874E-1
 6.529215461650000E9     5.555643030019005E-1   -8.613580437198720E-2   -1.211124606766035E-2   -3.739653560971507E-2   -1.301309115154293E-2   -3.733406344036292E-2    4.639795294917048E-1   -2.163920463955821E-1
 6.529225749200000E9     5.553896378866530E-1   -8.696920443560190E-2   -1.241028259905759E-2   -3.779855148154461E-2   -1.316984487475054E-2   -3.752501628882048E-2    4.632317248799330E-1   -2.173647028718752E-1
 6.529236036750000E9     5.551590085542555E-1   -8.797293555914139E-2   -1.245274117111978E-2   -3.794033626572265E-2   -1.334206987410811E-2   -3.771736014978713E-2    4.628275056368381E-1   -2.184795506565791E-1
 6.529246324300000E9     5.550312089946184E-1   -8.868780374569621E-2   -1.260688544857749E-2   -3.808888116627181E-2   -1.347624119328360E-2   -3.789352210024265E-2    4.623930826268641E-1   -2.194237347347808E-1
 6.529256611850000E9     5.548572350774662E-1   -8.955352430772892E-2   -1.286882864411807E-2   -3.833667836430177E-2   -1.361949691313467E-2   -3.804292327107221E-2    4.616465203051303E-1   -2.205145237939205E-1
 6.529266899400000E9     5.548080120201239E-1   -9.058914949991093E-2   -1.296406414289164E-2   -3.856936838137318E-2   -1.384194741662838E-2   -3.836970814935806E-2    4.612408588039402E-1   -2.214902927095028E-1
 6.529277186950000E9     5.545876925926060E-1   -9.135338738996435E-2   -1.306793519113707E-2   -3.871424067616100E-2   -1.404824619170698E-2   -3.858442082073633E-2    4.606311182929956E-1   -2.225634347081210E-1
 6.529287474500000E9     5.544366777708289E-1   -9.222464872763132E-2   -1.323379701258653E-2   -3.898757927633160E-2   -1.427042929413671E-2   -3.882109678223165E-2    4.601082502416696E-1   -2.233583998259472E-1
 6.529297762050000E9     5.542226001433165E-1   -9.314835015987750E-2   -1.338226552858009E-2   -3.913302324265287E-2   -1.435833598949094E-2   -3.902510618377318E-2    4.596768566022404E-1   -2.243151551657901E-1
 6.529308049600000E9     5.539748182030216E-1   -9.388130117766237E-2   -1.374815308459000E-2   -3.937481448203682E-2   -1.465146967141606E-2   -3.921342931073763E-2    4.592167833171318E-1   -2.252902679314630E-1
 6.529318337150000E9     5.538528048221981E-1   -9.481964724590547E-2   -1.378189504462693E-2   -3.974708606194177E-2   -1.484571785239705E-2   -3.936260514121709E-2    4.584073920865758E-1   -2.262504301065290E-1
 6.529328624700000E9     5.537028465768103E-1   -9.581024614624477E-2   -1.399760448244447E-2   -3.992006539868900E-2   -1.489662109660329E-2   -3.963855658534659E-2    4.579840379530856E-1   -2.274220244143043E-1
 6.529338912250000E9     5.535351011725941E-1   -9.655435240646563E-2   -1.406931676044790E-2   -4.005849044757318E-2   -1.507487982627301E-2   -3.983396262933969E-2    4.572932238305019E-1   -2.283160529464866E-1
 6.529349199800000E9     5.533457740984643E-1   -9.744191991141098E-2   -1.450044395738789E-2   -4.039019887207149E-2   -1.536121999390109E-2   -4.014515072037342E-2    4.567754780037361E-1   -2.293735222878346E-1
 6.529359487350000E9     5.531730462455402E-1   -9.836493552009387E-2   -1.452393688602844E-2   -4.051286674934102E-2   -1.550402425624822E-2   -4.037093036992215E-2    4.562219429138932E-1   -2.304477198114766E-1
 6.529369774900000E9     5.530723558822914E-1   -9.933081237551288E-2   -1.470957140595346E-2   -4.089352818990183E-2   -1.578063053343060E-2   -4.058458886524471E-2    4.555952019987826E-1   -2.313293231922802E-1
 6.529380062450000E9     5.526298229436697E-1   -1.001251123992075E-1   -1.501803618199556E-2   -4.118030169281227E-2   -1.591959658644681E-2   -4.084038766023231E-2    4.549508435368861E-1   -2.325209508926580E-1
 6.529390350000000E9     5.525096874907378E-1   -1.010983428046632E-1   -1.520056549809309E-2   -4.141119738210810E-2   -1.613471079204157E-2   -4.109987725541419E-2    4.543735887939372E-1   -2.336140434174854E-1
 6.529400637550000E9     5.524152803740984E-1   -1.020600340362162E-1   -1.530394603862587E-2   -4.159315987285730E-2   -1.630644663971895E-2   -4.139834845521075E-2    4.539090097904643E-1   -2.344908205980020E-1
 6.529410925100000E9     5.522007859603200E-1   -1.028809863141674E-1   -1.549401925556062E-2   -4.202943558392963E-2   -1.653914526126058E-2   -4.155891730372287E-2    4.531896035509094E-1   -2.356259868224951E-1
 6.529421212650000E9     5.518721897582533E-1   -1.037649994617143E-1   -1.568650602167280E-2   -4.210328485666009E-2   -1.677028852622704E-2   -4.181235473062591E-2    4.525576982517983E-1   -2.366827624442333E-1
 6.529431500200000E9     5.518544155971716E-1   -1.046892159727741E-1   -1.586241718299274E-2   -4.250965863105120E-2   -1.698636591486462E-2   -4.202796613240904E-2    4.518526450408001E-1   -2.376677977892908E-1
 6.529441787750000E9     5.515178671196715E-1   -1.055167288284232E-1   -1.604373029603360E-2   -4.272821827922706E-2   -1.718559512361274E-2   -4.233375304730403E-2    4.512841565048584E-1   -2.387750665507074E-1
 6.529452075300000E9     5.514076387195921E-1   -1.064765672943696E-1   -1.637471712384942E-2   -4.290833042053433E-2   -1.733661258284708E-2   -4.265776613324897E-2    4.505662530330973E-1   -2.398008840332027E-1
 6.529462362850000E9     5.512383328790317E-1   -1.073999649517102E-1   -1.654917935344647E-2   -4.320542000807143E-2   -1.755795125367020E-2   -4.293350855046460E-2    4.500005655061742E-1   -2.408882333435106E-1
 6.529472650400000E9     5.509722446633001E-1   -1.082703677814168E-1   -1.695997602021375E-2   -4.350360938919337E-2   -1.791676973545506E-2   -4.316709501673721E-2    4.493354859623954E-1   -2.419465427770530E-1
 6.529482937950000E9     5.507824383518233E-1   -1.092746621112724E-1   -1.696299459475940E-2   -4.378070842125130E-2   -1.805577062240720E-2   -4.338232117040954E-2    4.485595964900121E-1   -2.428653393622580E-1
 6.529493225500000E9     5.505684162527748E-1   -1.101001643022861E-1   -1.724664161153296E-2   -4.408737497404637E-2   -1.833966986188575E-2   -4.376822072198184E-2    4.479407355935411E-1   -2.442080319616578E-1
 6.529503513050000E9     5.503633772865678E-1   -1.110908487343623E-1   -1.753447048233698E-2   -4.428209649592405E-2   -1.853138670801031E-2   -4.395350592826600E-2    4.473202907570227E-1   -2.450860258532526E-1
 6.529513800600000E9     5.500597796048740E-1   -1.120497866497683E-1   -1.773290001433108E-2   -4.465427078009657E-2   -1.871616233289574E-2   -4.435944691682830E-2    4.465978283688990E-1   -2.462085080874685E-1
 6.529524088150000E9     5.498525004555233E-1   -1.128810308811805E-1   -1.789649640980173E-2   -4.489867288502936E-2   -1.911679801799619E-2   -4.452651080577866E-2    4.458002747731166E-1   -2.472982890738006E-1
 6.529534375700000E9     5.496390421672687E-1   -1.137557244478493E-1   -1.823727687142464E-2   -4.526349014694460E-2   -1.940859702102301E-2   -4.482816882842574E-2    4.450354963565075E-1   -2.485556919386307E-1
 6.529544663250000E9     5.493134748801577E-1   -1.147342663255892E-1   -1.851057757636862E-2   -4.549054788646983E-2   -1.960954673873545E-2   -4.515731042695648E-2    4.443884026342814E-1   -2.494303980907008E-1
 6.529554950800000E9     5.491453915260238E-1   -1.157294038547055E-1   -1.876430479772523E-2   -4.578375090534618E-2   -1.991597590006528E-2   -4.542886006392265E-2    4.434581244016684E-1   -2.505629017836403E-1
 6.529565238350000E9     5.488688452809769E-1   -1.165636611815312E-1   -1.902145096720524E-2   -4.600014264334498E-2   -2.020290624888305E-2   -4.574793652580968E-2    4.428117169257788E-1   -2.518358070819431E-1
 6.529575525900000E9     5.486035822505181E-1   -1.175512990321137E-1   -1.932738242159128E-2   -4.640285018800293E-2   -2.030674726474552E-2   -4.597862756466733E-2    4.419390067619033E-1   -2.530112247726157E-1
 6.529585813450000E9     5.483442690564932E-1   -1.185748879057654E-1   -1.952441412354488E-2   -4.682809860204608E-2   -2.082023502859509E-2   -4.632803548745103E-2    4.411869185161295E-1   -2.541885345212618E-1
 6.529596101000000E9     5.480432662536743E-1   -1.194475679100332E-1   -1.983320412988225E-2   -4.717407769234008E-2   -2.096239643799206E-2   -4.663932005383561E-2    4.404905141071325E-1   -2.551624721961570E-1
 6.529606388550000E9     5.478379148629732E-1   -1.204080920852902E-1   -1.995481527953253E-2   -4.746349420590758E-2   -2.128516168727320E-2   -4.706978248260997E-2    4.396443198138900E-1   -2.562842949924926E-1
 6.529616676100000E9     5.475499880500134E-1   -1.213739737098725E-1   -2.050202706222171E-2   -4.776982657769027E-2   -2.159078160213397E-2   -4.739407465721863E-2    4.389379783286716E-1   -2.574567572815470E-1
 6.529626963650000E9     5.473256682594105E-1   -1.221965785415004E-1   -2.066899043691044E-2   -4.812150271108417E-2   -2.192164651429358E-2   -4.774327393973580E-2    4.379661123484080E-1   -2.585966435325494E-1
 6.529637251200000E9     5.471107157562544E-1   -1.232761353171850E-1   -2.103475908359556E-2   -4.843857012687074E-2   -2.218514057588153E-2   -4.791342597150180E-2    4.371444460827682E-1   -2.598576607845978E-1
 6.529647538750000E9     5.468593785794917E-1   -1.241266234943314E-1   -2.139350081745199E-2   -4.883820702101359E-2   -2.254941379525249E-2   -4.830293878852921E-2    4.363646668115244E-1   -2.610232498185468E-1
 6.529657826300000E9     5.463372149795367E-1   -1.251468193926347E-1   -2.152456598646799E-2   -4.915758686734478E-2   -2.278394601504813E-2   -4.872353196710426E-2    4.354612008939359E-1   -2.621763352125261E-1
 6.529668113850000E9     5.460350542599339E-1   -1.262726643758320E-1   -2.196417870776590E-2   -4.951213426956676E-2   -2.317903155223284E-2   -4.904584458275399E-2    4.346530148969066E-1   -2.632304284442548E-1
 6.529678401400000E9     5.458407828597315E-1   -1.270872861937424E-1   -2.212826764609119E-2   -4.977594164856892E-2   -2.352877326506756E-2   -4.936213128298832E-2    4.337547904431883E-1   -2.645472788242888E-1
 6.529688688950000E9     5.455419311883228E-1   -1.281206194986189E-1   -2.246647694187357E-2   -5.016095173548943E-2   -2.382087783166726E-2   -4.969921983035972E-2    4.329212927466005E-1   -2.656245212808597E-1
 6.529698976500000E9     5.452474036878664E-1   -1.290874482573993E-1   -2.296152265350502E-2   -5.061526271643513E-2   -2.419986788664568E-2   -5.006446980692723E-2    4.319627943428611E-1   -2.668718779404659E-1
