#  HZ   S   RI   R     50.00 
! Rohde & Schwarz Vector Network Analyzer 
! Rohde-Schwarz,ZNB20-2Port,1311601062101988,3.16
! Created: UTC 3/21/2024, 12:51:06 AM
! freq[Hz]                re:S11                  im:S11                  re:S21                  im:S21                  re:S12                  im:S12                  re:S22                  im:S22
 6.528814209000000E9     5.609316452975394E-1   -5.894640265539103E-2   -8.652125702864709E-3   -3.421391345797599E-2   -9.274905772471271E-3   -3.411654914935011E-2    4.823893810544836E-1   -1.919744892275028E-1
 6.528823290625000E9     5.608524169942418E-1   -5.968311581503259E-2   -8.609566279312074E-3   -3.438327120260855E-2   -9.410544013142506E-3   -3.424113944909071E-2    4.819153330594901E-1   -1.931227596998738E-1
 6.528832372250000E9     5.608315801045775E-1   -6.039186795739936E-2   -8.745882846167339E-3   -3.449440301592654E-2   -9.514967324172572E-3   -3.448465568255527E-2    4.816922950526378E-1   -1.938276949421895E-1
 6.528841453875000E9     5.607299831783514E-1   -6.113156982901698E-2   -8.899330345730988E-3   -3.487108530684559E-2   -9.583540558880698E-3   -3.457280192947048E-2    4.813785102686676E-1   -1.947072511597594E-1
 6.528850535500000E9     5.605653021683166E-1   -6.193554703595786E-2   -8.973835102699002E-3   -3.486669344330456E-2   -9.719875228174453E-3   -3.473637473613749E-2    4.809094108357101E-1   -1.954493713891608E-1
 6.528859617125000E9     5.604329352591382E-1   -6.257705375006738E-2   -9.125641808431799E-3   -3.497197913234013E-2   -9.780644024330850E-3   -3.480566519851779E-2    4.805645099819348E-1   -1.962145978945953E-1
 6.528868698750000E9     5.602945092435514E-1   -6.337970213923903E-2   -9.087701696578450E-3   -3.520603887164202E-2   -1.003736039215004E-2   -3.505290592754122E-2    4.801946572413408E-1   -1.971583069348636E-1
 6.528877780375000E9     5.603645194913758E-1   -6.418609099128651E-2   -9.278065760984838E-3   -3.539984481511155E-2   -9.995155316702368E-3   -3.528412250743544E-2    4.799244752237005E-1   -1.979557789459564E-1
 6.528886862000000E9     5.603758714137979E-1   -6.495084153313339E-2   -9.337972045602898E-3   -3.553016973591566E-2   -1.017066610332839E-2   -3.540939463250804E-2    4.794368412432379E-1   -1.986450893161989E-1
 6.528895943625000E9     5.601656233262702E-1   -6.573025227270049E-2   -9.443843078048478E-3   -3.575807876977119E-2   -1.026213487508278E-2   -3.556943806370790E-2    4.789712277365560E-1   -1.995885473240673E-1
 6.528905025250000E9     5.600999910855718E-1   -6.647165728531126E-2   -9.593179656284067E-3   -3.586512558497090E-2   -1.042401992815238E-2   -3.567936429212507E-2    4.787283224299829E-1   -2.003737283759199E-1
 6.528914106875000E9     5.599610249931177E-1   -6.721560669726234E-2   -9.695063261463632E-3   -3.597530296450552E-2   -1.056416318008703E-2   -3.596058008836767E-2    4.783630721251720E-1   -2.013450494511536E-1
 6.528923188500000E9     5.599075175473263E-1   -6.791054678667303E-2   -9.873224417524393E-3   -3.624486913618550E-2   -1.063022647255210E-2   -3.603560399009451E-2    4.779094775060456E-1   -2.021434029624803E-1
 6.528932270125000E9     5.597763976576056E-1   -6.877033866837885E-2   -9.928022987279966E-3   -3.642551125799146E-2   -1.070761557437861E-2   -3.619189590643603E-2    4.774972901514153E-1   -2.031510403660717E-1
 6.528941351750000E9     5.596348265338836E-1   -6.945519999138397E-2   -1.003361009495274E-2   -3.655071202218068E-2   -1.076669319066287E-2   -3.646115858576067E-2    4.770273109109920E-1   -2.038596841000603E-1
 6.528950433375000E9     5.595262025770015E-1   -7.020007579798508E-2   -1.006167094252890E-2   -3.691570553139969E-2   -1.099029868148289E-2   -3.650192482429289E-2    4.766673984828078E-1   -2.046927147199637E-1
 6.528959515000000E9     5.594486602106834E-1   -7.117558319426465E-2   -1.023745729508594E-2   -3.695197697189986E-2   -1.104624686151928E-2   -3.671609829817982E-2    4.762985999196988E-1   -2.057345098705601E-1
 6.528968596625000E9     5.593040791511488E-1   -7.175711059056655E-2   -1.034614188838182E-2   -3.719919699778314E-2   -1.123057268549535E-2   -3.689387243615320E-2    4.757995968155100E-1   -2.065595390420227E-1
 6.528977678250000E9     5.592291040663111E-1   -7.253187719142229E-2   -1.052710399028173E-2   -3.716404087258470E-2   -1.131317916173289E-2   -3.706770940909896E-2    4.754083970275380E-1   -2.072159012072318E-1
 6.528986759875000E9     5.592078293260092E-1   -7.339887438288333E-2   -1.072341892265465E-2   -3.745868602576889E-2   -1.155792841798566E-2   -3.715364622789488E-2    4.750521361189998E-1   -2.082133565866176E-1
 6.528995841500000E9     5.589924988236354E-1   -7.408680338123780E-2   -1.060329239432458E-2   -3.766658988062806E-2   -1.171116638608463E-2   -3.744110544581083E-2    4.747440066438254E-1   -2.091993185289377E-1
 6.529004923125000E9     5.589702035670970E-1   -7.485389215281245E-2   -1.081379880609756E-2   -3.784945495098450E-2   -1.172358969731762E-2   -3.759885958550478E-2    4.742868893349285E-1   -2.100104715293559E-1
 6.529014004750000E9     5.588284130231463E-1   -7.564583838822045E-2   -1.105140240149213E-2   -3.790719882658589E-2   -1.184545853495101E-2   -3.782411875704152E-2    4.737515267960145E-1   -2.108580529840308E-1
 6.529023086375000E9     5.586725937152925E-1   -7.638470005655731E-2   -1.110434848878930E-2   -3.830254031005693E-2   -1.192008091747664E-2   -3.813729795694026E-2    4.733077776914063E-1   -2.115143461997473E-1
 6.529032168000000E9     5.584029790487169E-1   -7.718915208734643E-2   -1.136284315500057E-2   -3.854404602349617E-2   -1.204606316071716E-2   -3.829582656399837E-2    4.732314936040266E-1   -2.125526599385490E-1
 6.529041249625000E9     5.583795049121251E-1   -7.813744797701187E-2   -1.140271041633618E-2   -3.854185897930084E-2   -1.222610039719545E-2   -3.837997865805690E-2    4.723728171055808E-1   -2.134824010164324E-1
 6.529050331250000E9     5.581449079478056E-1   -7.883981129646256E-2   -1.159124045329218E-2   -3.880657808142986E-2   -1.239682894493525E-2   -3.857730954871352E-2    4.721052675226505E-1   -2.142605460967079E-1
 6.529059412875000E9     5.581780436798175E-1   -7.952073414492797E-2   -1.157507383177750E-2   -3.911246703345497E-2   -1.249481887591413E-2   -3.885416441938491E-2    4.716363207948814E-1   -2.151924152463986E-1
 6.529068494500000E9     5.579274111301723E-1   -8.041137598262194E-2   -1.189727615515631E-2   -3.920459481818653E-2   -1.260288594458020E-2   -3.897093575236445E-2    4.713054071234618E-1   -2.160580500544060E-1
 6.529077576125000E9     5.579764424688287E-1   -8.116273377777670E-2   -1.184924625433233E-2   -3.928503091033309E-2   -1.283634629799393E-2   -3.916381728296445E-2    4.707924900386884E-1   -2.169661274820127E-1
 6.529086657750000E9     5.577167969649580E-1   -8.192411568499902E-2   -1.196261350170923E-2   -3.960517637509585E-2   -1.293143915085397E-2   -3.938159241231303E-2    4.703126437756743E-1   -2.178707473674680E-1
 6.529095739375000E9     5.575674134300980E-1   -8.265310376147951E-2   -1.223934607463706E-2   -3.983510968470758E-2   -1.303115339261257E-2   -3.963184460411799E-2    4.699128491102798E-1   -2.189265382442884E-1
 6.529104821000000E9     5.575310768547038E-1   -8.345267198152426E-2   -1.229939930516081E-2   -3.995349594210275E-2   -1.323130498223181E-2   -3.979101633025133E-2    4.694766943657935E-1   -2.196811836387757E-1
 6.529113902625000E9     5.572433332796238E-1   -8.423571584657348E-2   -1.242565540982190E-2   -4.033111392504649E-2   -1.348120401119623E-2   -3.996369618944636E-2    4.689555414127733E-1   -2.206644461596335E-1
 6.529122984250000E9     5.572883091244543E-1   -8.506490328748717E-2   -1.258856870623690E-2   -4.046774509519319E-2   -1.355591177025798E-2   -4.026680462233395E-2    4.685396382450430E-1   -2.214561613011934E-1
 6.529132065875000E9     5.570695192813209E-1   -8.585552158215090E-2   -1.280253882133061E-2   -4.054835095304511E-2   -1.365250610808507E-2   -4.038727051306869E-2    4.679217547989231E-1   -2.224631462326976E-1
 6.529141147500000E9     5.569297545024672E-1   -8.664965515032379E-2   -1.295469290242786E-2   -4.074517545056552E-2   -1.381714932677971E-2   -4.063055951482122E-2    4.675633728229276E-1   -2.233428965627739E-1
 6.529150229125000E9     5.567778394305657E-1   -8.733346686765033E-2   -1.315732606900976E-2   -4.108092560697932E-2   -1.386484524324016E-2   -4.080836677956712E-2    4.668377309246766E-1   -2.243008509460220E-1
 6.529159310750000E9     5.567645204503597E-1   -8.813976398621828E-2   -1.319615220017615E-2   -4.135998307774989E-2   -1.422109132944272E-2   -4.103446726934992E-2    4.666130858862361E-1   -2.254114133380637E-1
 6.529168392375000E9     5.564604276969570E-1   -8.893301251306944E-2   -1.339779350880895E-2   -4.151031776971440E-2   -1.440926834929759E-2   -4.125857563098869E-2    4.659432604771043E-1   -2.261205142361792E-1
 6.529177474000000E9     5.564381946265852E-1   -8.982575624498351E-2   -1.349200474961391E-2   -4.162977944244415E-2   -1.445579163337018E-2   -4.146755114435111E-2    4.654806947809179E-1   -2.270247128596299E-1
 6.529186555625000E9     5.562133640981053E-1   -9.061771780329157E-2   -1.358525232909286E-2   -4.211624033005067E-2   -1.468167599281932E-2   -4.166998017760765E-2    4.649702726145519E-1   -2.279690600713841E-1
 6.529195637250000E9     5.561036166723519E-1   -9.151859965638467E-2   -1.394894191427763E-2   -4.217354605182093E-2   -1.475901936556567E-2   -4.195107056531637E-2    4.644705591056503E-1   -2.290560212277758E-1
 6.529204718875000E9     5.559973018379636E-1   -9.212867908256930E-2   -1.394762865028366E-2   -4.242233528365434E-2   -1.502404137648352E-2   -4.217678866194786E-2    4.638900937491532E-1   -2.299861284379854E-1
 6.529213800500000E9     5.557317219235850E-1   -9.294326527081179E-2   -1.417237479819427E-2   -4.257976116185432E-2   -1.514362830023081E-2   -4.250616033059637E-2    4.634251165802953E-1   -2.309817580745245E-1
 6.529222882125000E9     5.555172377690862E-1   -9.371027461433218E-2   -1.427594448362854E-2   -4.277407608967953E-2   -1.537310859480906E-2   -4.268158423423439E-2    4.628066157166510E-1   -2.318125685185647E-1
 6.529231963750000E9     5.554093062160512E-1   -9.459947061322342E-2   -1.443133533700405E-2   -4.309696597304559E-2   -1.556612964794020E-2   -4.282995686659925E-2    4.623229706571618E-1   -2.328004552324789E-1
 6.529241045375000E9     5.553148383953849E-1   -9.548793409182586E-2   -1.466023034808941E-2   -4.335802885349625E-2   -1.585421713819851E-2   -4.308485239556182E-2    4.617667918887121E-1   -2.338145579785317E-1
 6.529250127000000E9     5.550850348745350E-1   -9.623913267894700E-2   -1.495073776737023E-2   -4.360640956417271E-2   -1.588689232197214E-2   -4.332235910238666E-2    4.611591353311505E-1   -2.346150131099457E-1
 6.529259208625000E9     5.549106076098802E-1   -9.699932640672639E-2   -1.508498377893598E-2   -4.384134283433049E-2   -1.607092725496715E-2   -4.367630976591676E-2    4.606456322930232E-1   -2.354727924415056E-1
 6.529268290250000E9     5.548453983181169E-1   -9.788845663067103E-2   -1.521918191939894E-2   -4.414225285900374E-2   -1.632588938012204E-2   -4.388613872398740E-2    4.600471820787025E-1   -2.366346435036144E-1
 6.529277371875000E9     5.545801358510052E-1   -9.860320800478543E-2   -1.560942310617005E-2   -4.440982486973359E-2   -1.654462652402966E-2   -4.407409696776820E-2    4.593770832168432E-1   -2.375089335568750E-1
 6.529286453500000E9     5.542593468086171E-1   -9.944225037170774E-2   -1.566259213125113E-2   -4.466228891176843E-2   -1.668688189204740E-2   -4.432879438593307E-2    4.589347195742184E-1   -2.386189638010403E-1
 6.529295535125000E9     5.542550637562969E-1   -1.002842763674950E-1   -1.594059575882461E-2   -4.492627764361690E-2   -1.692529558065914E-2   -4.463702133893554E-2    4.585169678731530E-1   -2.397019902629338E-1
 6.529304616750000E9     5.541918782674459E-1   -1.010514354993078E-1   -1.603915520443339E-2   -4.520519583221686E-2   -1.708119927786719E-2   -4.484762230034633E-2    4.578713612882155E-1   -2.406014021303331E-1
 6.529313698375000E9     5.539318420654074E-1   -1.019998914037314E-1   -1.634684775992831E-2   -4.546442629809211E-2   -1.734959535045615E-2   -4.509998166232817E-2    4.573304350160586E-1   -2.415747148561025E-1
 6.529322780000000E9     5.537105443930135E-1   -1.026940786002253E-1   -1.643782330420653E-2   -4.571077187035992E-2   -1.755281171351575E-2   -4.543437742315626E-2    4.566076802940902E-1   -2.426253401701785E-1
 6.529331861625000E9     5.534548688963228E-1   -1.034808726202740E-1   -1.655077000856839E-2   -4.596044537054100E-2   -1.774368423628124E-2   -4.580413937556688E-2    4.561421868972320E-1   -2.436115975339322E-1
 6.529340943250000E9     5.533870415247988E-1   -1.043584126123439E-1   -1.697277977395890E-2   -4.623977945835140E-2   -1.802410193818879E-2   -4.600229035881342E-2    4.553226069226615E-1   -2.446138233126514E-1
 6.529350024875000E9     5.530480691830709E-1   -1.052657666471043E-1   -1.707964362691940E-2   -4.664260782635524E-2   -1.820226793150249E-2   -4.624574828687564E-2    4.546915594689142E-1   -2.456791129648584E-1
 6.529359106500000E9     5.529483242754858E-1   -1.060432942093462E-1   -1.721181238746271E-2   -4.682772822311284E-2   -1.844713143765837E-2   -4.652363763307439E-2    4.542658243268417E-1   -2.466861802172394E-1
 6.529368188125000E9     5.527829260487949E-1   -1.068137027275249E-1   -1.738941946042567E-2   -4.709750926988494E-2   -1.858617751763973E-2   -4.673938696797213E-2    4.533528165672490E-1   -2.474979946252407E-1
 6.529377269750000E9     5.525395365437914E-1   -1.077303659069873E-1   -1.780357589407963E-2   -4.750017044538694E-2   -1.890511484319392E-2   -4.711032396591551E-2    4.527964402762137E-1   -2.487620783671791E-1
 6.529386351375000E9     5.523706484416385E-1   -1.085373109891524E-1   -1.796959065552452E-2   -4.783570152370135E-2   -1.910347514470368E-2   -4.736554601974031E-2    4.521736031798657E-1   -2.497872637738025E-1
 6.529395433000000E9     5.521272927804914E-1   -1.094757426984074E-1   -1.827073914140588E-2   -4.804279290411576E-2   -1.936245566019823E-2   -4.768084339843583E-2    4.515359120592346E-1   -2.508287287442352E-1
 6.529404514625000E9     5.518601173229839E-1   -1.102869148756726E-1   -1.838829251214050E-2   -4.827752914445174E-2   -1.966522500309267E-2   -4.792493342681514E-2    4.508074411968712E-1   -2.519477594745305E-1
 6.529413596250000E9     5.516994506227630E-1   -1.110684534962258E-1   -1.854752625190503E-2   -4.859633749876551E-2   -1.979743643402428E-2   -4.819204722113310E-2    4.501324941315345E-1   -2.528662990055331E-1
 6.529422677875000E9     5.514676224283414E-1   -1.120698404345487E-1   -1.894939499475088E-2   -4.896717071670623E-2   -2.005921936162936E-2   -4.861122507226469E-2    4.493427826985076E-1   -2.539518937242263E-1
 6.529431759500000E9     5.512896076296805E-1   -1.127442927377349E-1   -1.897867569560336E-2   -4.935487294821879E-2   -2.025298905766540E-2   -4.893921212147753E-2    4.486741719347202E-1   -2.549849511720363E-1
 6.529440841125000E9     5.511242265571029E-1   -1.136697088146070E-1   -1.943906009495055E-2   -4.954443908117267E-2   -2.063445735371779E-2   -4.918044275637157E-2    4.479583958658793E-1   -2.561717537223817E-1
 6.529449922750000E9     5.508444979108520E-1   -1.145459556560736E-1   -1.967088673030556E-2   -4.985526116187898E-2   -2.094927259596248E-2   -4.950020290847321E-2    4.472492209311194E-1   -2.570438724247751E-1
 6.529459004375000E9     5.506265626398016E-1   -1.154081059322714E-1   -1.990731072412992E-2   -5.032883117787273E-2   -2.114441893220173E-2   -4.991854899877724E-2    4.465891923283237E-1   -2.583309930198360E-1
 6.529468086000000E9     5.503132634209255E-1   -1.162747346780799E-1   -2.022689474125687E-2   -5.045019029073542E-2   -2.137899950399362E-2   -5.018897244134340E-2    4.457379147291399E-1   -2.592812815295789E-1
 6.529477167625000E9     5.502190656299444E-1   -1.170869060495753E-1   -2.051690353603986E-2   -5.092799543730616E-2   -2.166068108053749E-2   -5.054381046475134E-2    4.450579093404946E-1   -2.604198087453034E-1
 6.529486249250000E9     5.498296496441025E-1   -1.179657810309756E-1   -2.069828104785872E-2   -5.125409964779756E-2   -2.207167232053276E-2   -5.083924620718103E-2    4.443255152080107E-1   -2.617286522249293E-1
 6.529495330875000E9     5.496872669375928E-1   -1.187471148179467E-1   -2.095831283067409E-2   -5.163359770507388E-2   -2.230852863641517E-2   -5.115856492841653E-2    4.435534613071869E-1   -2.627049338394679E-1
 6.529504412500000E9     5.494584931970822E-1   -1.197610247792328E-1   -2.126168487050130E-2   -5.192888810687889E-2   -2.266779224118650E-2   -5.149369129689009E-2    4.425932039640623E-1   -2.636916762378963E-1
 6.529513494125000E9     5.491946682926070E-1   -1.205822349173806E-1   -2.144039770731416E-2   -5.230246799646109E-2   -2.288915939611133E-2   -5.188366054007856E-2    4.418848226169830E-1   -2.649422053855990E-1
 6.529522575750000E9     5.489527851061884E-1   -1.215616966323672E-1   -2.180309418525439E-2   -5.264089242154840E-2   -2.315850109577958E-2   -5.218700258400393E-2    4.412285703495997E-1   -2.658751794559979E-1
 6.529531657375000E9     5.486290591190152E-1   -1.224713612229166E-1   -2.219369745471227E-2   -5.305351438668925E-2   -2.347216664662468E-2   -5.257334062331104E-2    4.404029698567473E-1   -2.670705802697801E-1
 6.529540739000000E9     5.484808409256035E-1   -1.232184704277624E-1   -2.247980482137711E-2   -5.325739962527424E-2   -2.392538597088142E-2   -5.290540603419483E-2    4.395085564464206E-1   -2.682510882127819E-1
 6.529549820625000E9     5.481691781196519E-1   -1.241045545233095E-1   -2.284491922450472E-2   -5.386335895813216E-2   -2.409170412651317E-2   -5.324765463943363E-2    4.386725876665458E-1   -2.695708679082500E-1
 6.529558902250000E9     5.478864992757773E-1   -1.250458631936013E-1   -2.318512987447469E-2   -5.422785927124120E-2   -2.454718484947112E-2   -5.360911163151136E-2    4.378807917040718E-1   -2.707421183198832E-1
 6.529567983875000E9     5.476223904514719E-1   -1.259231010804547E-1   -2.346504247297143E-2   -5.442598953982210E-2   -2.488279592477287E-2   -5.403329829310403E-2    4.369517129973277E-1   -2.718403101488575E-1
 6.529577065500000E9     5.473742392157378E-1   -1.268379648746306E-1   -2.380457001504861E-2   -5.496530773742427E-2   -2.522103098007915E-2   -5.437679279992308E-2    4.359658909039834E-1   -2.728445348590119E-1
 6.529586147125000E9     5.470064426824830E-1   -1.276955002938708E-1   -2.406378166692852E-2   -5.530817468288531E-2   -2.557844381156862E-2   -5.480849577121059E-2    4.351578514044996E-1   -2.742827586372238E-1
 6.529595228750000E9     5.468207528032425E-1   -1.285173520111477E-1   -2.444627272686013E-2   -5.566783777264780E-2   -2.588095928575228E-2   -5.517174729470586E-2    4.344718786155664E-1   -2.754615657113308E-1
 6.529604310375000E9     5.463993204864160E-1   -1.295469237472475E-1   -2.489229591942305E-2   -5.610974691206606E-2   -2.629012332236554E-2   -5.552155398621083E-2    4.334191184524404E-1   -2.765775373812439E-1
 6.529613392000000E9     5.461962216506850E-1   -1.304773082973024E-1   -2.516385503301148E-2   -5.646976374698202E-2   -2.661945377197050E-2   -5.596867396195566E-2    4.324994958198504E-1   -2.776630366530550E-1
 6.529622473625000E9     5.459264684238648E-1   -1.312925200441814E-1   -2.562983802240829E-2   -5.696770014468362E-2   -2.707238909933158E-2   -5.642333248658818E-2    4.313947057061890E-1   -2.788221062745121E-1
 6.529631555250000E9     5.456027270946492E-1   -1.323071060948703E-1   -2.587571637551581E-2   -5.735633494224895E-2   -2.754538045233632E-2   -5.684255707378807E-2    4.306465141530583E-1   -2.801657615719580E-1
