#  HZ   S   RI   R     50.00 
! Rohde & Schwarz Vector Network Analyzer 
! Rohde-Schwarz,ZNB20-2Port,1311601062101988,3.16
! Created: UTC 3/21/2024, 12:59:19 AM
! freq[Hz]                re:S11                  im:S11                  re:S21                  im:S21                  re:S12                  im:S12                  re:S22                  im:S22
 6.528774868000000E9     5.603863899861805E-1   -4.966773610689662E-2   -7.197532528459722E-3   -3.038119801969570E-2   -7.840140086212448E-3   -3.012225958276652E-2    4.816872329727762E-1   -1.775547756426152E-1
 6.528785167575000E9     5.602995658199157E-1   -5.048493144961214E-2   -7.112139608637839E-3   -3.045465124528359E-2   -7.851241032689112E-3   -3.030477414861829E-2    4.814292235950083E-1   -1.786196423104436E-1
 6.528795467150000E9     5.603651567400066E-1   -5.139551239878301E-2   -7.321590121724168E-3   -3.065177815862834E-2   -7.955888818278587E-3   -3.046145391157379E-2    4.809360609359637E-1   -1.794664447798851E-1
 6.528805766725000E9     5.601242850259751E-1   -5.215402622221022E-2   -7.534655928093699E-3   -3.083121898996260E-2   -8.111953014155815E-3   -3.066691119391987E-2    4.804571339310593E-1   -1.803701995851039E-1
 6.528816066300000E9     5.600855056583324E-1   -5.314309246291813E-2   -7.512052399968626E-3   -3.081024867702390E-2   -8.200495028692478E-3   -3.076771747100582E-2    4.803733449301384E-1   -1.811491471032337E-1
 6.528826365875000E9     5.599186466082304E-1   -5.387319054835521E-2   -7.584880286962910E-3   -3.094634007013862E-2   -8.387733647136247E-3   -3.089194973754268E-2    4.797192538263738E-1   -1.820026225236967E-1
 6.528836665450000E9     5.599061673906373E-1   -5.481141532386856E-2   -7.697477545568368E-3   -3.103666125943892E-2   -8.326290997595706E-3   -3.106405754338863E-2    4.796689992205078E-1   -1.828348274078229E-1
 6.528846965025000E9     5.597318864711015E-1   -5.550172643466344E-2   -7.856217586975045E-3   -3.136935911196052E-2   -8.585323738842935E-3   -3.116768620999924E-2    4.791413819656843E-1   -1.838530347338570E-1
 6.528857264600000E9     5.597228686412801E-1   -5.645676397478369E-2   -8.083620898926043E-3   -3.146594286346302E-2   -8.612600377971596E-3   -3.122897767090236E-2    4.787710805846477E-1   -1.846721154876625E-1
 6.528867564175000E9     5.596426407981560E-1   -5.704683219494901E-2   -8.052962385654585E-3   -3.145513893032894E-2   -8.691170756745820E-3   -3.147592754362349E-2    4.784135421040805E-1   -1.854329438319652E-1
 6.528877863750000E9     5.595739745355373E-1   -5.808765703747602E-2   -8.197606146973811E-3   -3.163374857861807E-2   -8.908839492599886E-3   -3.157477632788633E-2    4.780516178794278E-1   -1.865386618017367E-1
 6.528888163325000E9     5.595183134707912E-1   -5.877055621928289E-2   -8.221732193156797E-3   -3.184494767961902E-2   -8.836836104483303E-3   -3.174411317916171E-2    4.777203555814054E-1   -1.872175570642620E-1
 6.528898462900000E9     5.591849015172233E-1   -5.960723259193455E-2   -8.342318899136242E-3   -3.210194568121284E-2   -9.050527838006106E-3   -3.191246170368650E-2    4.773113777528280E-1   -1.881287890123583E-1
 6.528908762475000E9     5.592986806432698E-1   -6.053339821084448E-2   -8.456308090768994E-3   -3.223849569928952E-2   -9.104192883980802E-3   -3.203541451555627E-2    4.768504176641418E-1   -1.891419669073641E-1
 6.528919062050000E9     5.592299520649663E-1   -6.143129873405939E-2   -8.451368965895281E-3   -3.233068241812674E-2   -9.252312911781998E-3   -3.225235679262554E-2    4.764864583452527E-1   -1.898843433661151E-1
 6.528929361625000E9     5.590019588634487E-1   -6.217190266797841E-2   -8.678858982982363E-3   -3.247510201560651E-2   -9.339333121256982E-3   -3.224162616857341E-2    4.761347315081801E-1   -1.908698980621331E-1
 6.528939661200000E9     5.589962386917026E-1   -6.301642983068532E-2   -8.699158381222514E-3   -3.277703036274251E-2   -9.480489236416962E-3   -3.243346665841560E-2    4.757541727210102E-1   -1.917558808640934E-1
 6.528949960775000E9     5.588567970893007E-1   -6.386085676943043E-2   -8.870196858555033E-3   -3.277278279281659E-2   -9.590726543843171E-3   -3.266010313376301E-2    4.753870749022474E-1   -1.925796882174501E-1
 6.528960260350000E9     5.587960697917667E-1   -6.464650454990270E-2   -8.966794930307106E-3   -3.296445466240731E-2   -9.665668862921311E-3   -3.285588732659146E-2    4.749709628133064E-1   -1.935040116306777E-1
 6.528970559925000E9     5.587281231006572E-1   -6.568987229041143E-2   -9.030126171611721E-3   -3.315973332496089E-2   -9.781380284967434E-3   -3.293621940115884E-2    4.746447106014310E-1   -1.944212117448856E-1
 6.528980859500000E9     5.584650174773165E-1   -6.633643712751232E-2   -9.278007621231271E-3   -3.324791835527671E-2   -9.967523199246004E-3   -3.314607887706682E-2    4.740764479592123E-1   -1.954152670648909E-1
 6.528991159075000E9     5.584304351174983E-1   -6.729964363689057E-2   -9.234207591650145E-3   -3.336940205546349E-2   -1.001726168082603E-2   -3.329018610376364E-2    4.737288252337337E-1   -1.962195376125151E-1
 6.529001458650000E9     5.583365298418527E-1   -6.810462577228031E-2   -9.337668184058574E-3   -3.362096367425736E-2   -1.015797036766673E-2   -3.339527317020631E-2    4.733286139255168E-1   -1.972897846071993E-1
 6.529011758225000E9     5.583179081173780E-1   -6.886683424959075E-2   -9.527756949286498E-3   -3.375185292126269E-2   -1.022269254074968E-2   -3.366393148004026E-2    4.729825061180762E-1   -1.982347743814452E-1
 6.529022057800000E9     5.581465977776205E-1   -6.973485904875062E-2   -9.725715979717765E-3   -3.376169603554373E-2   -1.040030500714664E-2   -3.375128169556481E-2    4.725181233549249E-1   -1.988524181713526E-1
 6.529032357375000E9     5.579188452582120E-1   -7.054650521132684E-2   -9.818444124470674E-3   -3.402108310112321E-2   -1.046274760675574E-2   -3.387808181742763E-2    4.721377501230125E-1   -1.999129834667420E-1
 6.529042656950000E9     5.578368470904361E-1   -7.149064564205099E-2   -9.865538984375338E-3   -3.429825019059053E-2   -1.056644366665021E-2   -3.407547270961128E-2    4.716991884154566E-1   -2.008669737899436E-1
 6.529052956525000E9     5.576410681051022E-1   -7.226535247808331E-2   -1.000726937769450E-2   -3.438823580086971E-2   -1.078671957052555E-2   -3.425987443385378E-2    4.713016000540606E-1   -2.017969890372901E-1
 6.529063256100000E9     5.576541333505690E-1   -7.323305309446565E-2   -1.021052990561977E-2   -3.457277961097412E-2   -1.083733321406622E-2   -3.440937098595072E-2    4.707495444743488E-1   -2.026240820474572E-1
 6.529073555675000E9     5.574430771337353E-1   -7.412818483108240E-2   -1.008233137778666E-2   -3.481514329027161E-2   -1.103147719856858E-2   -3.459932073651836E-2    4.703487647629265E-1   -2.035257291088921E-1
 6.529083855250000E9     5.574458118492941E-1   -7.484656379162956E-2   -1.054583367688500E-2   -3.483051562726744E-2   -1.107411617763591E-2   -3.480273729763373E-2    4.699217873617600E-1   -2.045121346495069E-1
 6.529094154825000E9     5.572551708866672E-1   -7.568235315800408E-2   -1.040063564087399E-2   -3.518406766656564E-2   -1.128983162899815E-2   -3.489977182501538E-2    4.694890633824272E-1   -2.052391905292060E-1
 6.529104454400000E9     5.570922244052476E-1   -7.649777152419888E-2   -1.060865285600375E-2   -3.538804351197212E-2   -1.144083552206922E-2   -3.514928179426630E-2    4.691016635292495E-1   -2.064363651746914E-1
 6.529114753975000E9     5.569716195029072E-1   -7.745098195009208E-2   -1.063988456652941E-2   -3.548377312075816E-2   -1.155277199192009E-2   -3.533739355363310E-2    4.686351997038307E-1   -2.071633502814745E-1
 6.529125053550000E9     5.567593772736285E-1   -7.842476233922055E-2   -1.076572775272686E-2   -3.572482876427979E-2   -1.166876210746830E-2   -3.548676558118814E-2    4.681237086860264E-1   -2.082382961381036E-1
 6.529135353125000E9     5.566610013635500E-1   -7.920748448549272E-2   -1.099755272960369E-2   -3.590845186559948E-2   -1.181703986465036E-2   -3.575096992515470E-2    4.677538910041787E-1   -2.092294977099112E-1
 6.529145652700000E9     5.565248303488488E-1   -8.006099211297593E-2   -1.132501219663472E-2   -3.609719336188411E-2   -1.198958883730875E-2   -3.585821503775202E-2    4.671250546900054E-1   -2.101276605922549E-1
 6.529155952275000E9     5.565194208445330E-1   -8.095049464688873E-2   -1.129433712295609E-2   -3.630746855352025E-2   -1.208286473202185E-2   -3.598940849518677E-2    4.668100098236008E-1   -2.110919975256446E-1
 6.529166251850000E9     5.561916023717470E-1   -8.174767865458923E-2   -1.147177654367741E-2   -3.644014749221185E-2   -1.220308900780676E-2   -3.619101133809282E-2    4.661825464437472E-1   -2.120335000345119E-1
 6.529176551425000E9     5.561259459983621E-1   -8.247968448597291E-2   -1.163256136210479E-2   -3.656759055028864E-2   -1.245858616358465E-2   -3.651618119442104E-2    4.657651170688187E-1   -2.128822418421294E-1
 6.529186851000000E9     5.558450766655886E-1   -8.347343695608611E-2   -1.172071067762835E-2   -3.694501339019172E-2   -1.266131537415672E-2   -3.661072821357805E-2    4.652980110154805E-1   -2.138698966245950E-1
 6.529197150575000E9     5.558541886850362E-1   -8.439313983030237E-2   -1.191093265017142E-2   -3.698811188931601E-2   -1.269073374773434E-2   -3.681603952774336E-2    4.647754654153770E-1   -2.148143370828273E-1
 6.529207450150000E9     5.556871741498896E-1   -8.527662254527187E-2   -1.202009087560239E-2   -3.723109008199488E-2   -1.292375201104461E-2   -3.699848329824974E-2    4.643295616143752E-1   -2.158734091147263E-1
 6.529217749725000E9     5.555609872318733E-1   -8.616110320884535E-2   -1.213575435488122E-2   -3.746101327718940E-2   -1.303694169096207E-2   -3.726802658654465E-2    4.637574778160998E-1   -2.168265970327524E-1
 6.529228049300000E9     5.554042487459264E-1   -8.689798403782811E-2   -1.225604801353560E-2   -3.767779103246150E-2   -1.320468820851618E-2   -3.754446450786947E-2    4.633454585597514E-1   -2.176538770949104E-1
 6.529238348875000E9     5.551769046939529E-1   -8.782548607373433E-2   -1.240289636312580E-2   -3.783596433092266E-2   -1.343505333504250E-2   -3.764122701533209E-2    4.628653267467732E-1   -2.186566047575240E-1
 6.529248648450000E9     5.550471735900810E-1   -8.879729555094784E-2   -1.258814183562527E-2   -3.824815608582413E-2   -1.356881936293152E-2   -3.787358951583716E-2    4.620138364323789E-1   -2.197591782189901E-1
 6.529258948025000E9     5.549121381206473E-1   -8.948616220304102E-2   -1.270537040265605E-2   -3.830734592720123E-2   -1.360680230419753E-2   -3.809889645888033E-2    4.617986097375475E-1   -2.206692115426317E-1
 6.529269247600000E9     5.546287664061812E-1   -9.041114391838347E-2   -1.303305936414124E-2   -3.852991672936747E-2   -1.382236256788338E-2   -3.822262232387243E-2    4.611198036268953E-1   -2.215963415064039E-1
 6.529279547175000E9     5.545540191118152E-1   -9.141490744354694E-2   -1.326908917547329E-2   -3.884002270332104E-2   -1.399334861267377E-2   -3.851466998070978E-2    4.605090503122660E-1   -2.226777198376474E-1
 6.529289846750000E9     5.543298574461504E-1   -9.219755020005975E-2   -1.323727549692675E-2   -3.895888306286270E-2   -1.419450259915809E-2   -3.869163354342769E-2    4.600864670908700E-1   -2.236670833732876E-1
 6.529300146325000E9     5.542762684333197E-1   -9.308638407737575E-2   -1.353937824705715E-2   -3.918763122639510E-2   -1.434279467256976E-2   -3.888735239510202E-2    4.594930611349444E-1   -2.247978286979074E-1
 6.529310445900000E9     5.540268865351208E-1   -9.392482505561053E-2   -1.363927006628651E-2   -3.956035671571889E-2   -1.450171796095287E-2   -3.921981872346255E-2    4.589146259855214E-1   -2.256308200636940E-1
 6.529320745475000E9     5.537658505342244E-1   -9.486654073028872E-2   -1.367342154995120E-2   -3.963674531431235E-2   -1.475761053988480E-2   -3.936718281930503E-2    4.583219568228871E-1   -2.266541167083564E-1
 6.529331045050000E9     5.537132863932831E-1   -9.574793358956070E-2   -1.397901201633907E-2   -3.983127562573611E-2   -1.494622948805166E-2   -3.959208433603788E-2    4.577338388625688E-1   -2.276112584759531E-1
 6.529341344625000E9     5.535399090087698E-1   -9.663233387936337E-2   -1.425201581817508E-2   -4.007367568211895E-2   -1.508561382811850E-2   -3.980442135094223E-2    4.572188311801857E-1   -2.287027397981311E-1
 6.529351644200000E9     5.533618397911233E-1   -9.748953116451536E-2   -1.442868042210085E-2   -4.027562946474093E-2   -1.529856770149888E-2   -4.009082836183787E-2    4.567113262165433E-1   -2.297597616639489E-1
 6.529361943775000E9     5.531608855092367E-1   -9.842150997556226E-2   -1.456978891655930E-2   -4.042581419986244E-2   -1.534287260182113E-2   -4.040136600025783E-2    4.561460520230616E-1   -2.306707535802807E-1
 6.529372243350000E9     5.528944436706961E-1   -9.930480689550211E-2   -1.469365245378644E-2   -4.088249476082850E-2   -1.581700916846699E-2   -4.052467345782560E-2    4.554352331979637E-1   -2.317734070409783E-1
 6.529382542925000E9     5.528764941255612E-1   -1.002484562084004E-1   -1.500106966338443E-2   -4.108567238198325E-2   -1.582274680350728E-2   -4.081635311043078E-2    4.548904829894421E-1   -2.327313818817333E-1
 6.529392842500000E9     5.526952556021437E-1   -1.011168609401132E-1   -1.512093764652374E-2   -4.126194672606751E-2   -1.610982978104160E-2   -4.105126915947195E-2    4.541205485367383E-1   -2.337444365272840E-1
 6.529403142075000E9     5.524775353774288E-1   -1.019690323113604E-1   -1.531185745454261E-2   -4.170701728705182E-2   -1.629167079066610E-2   -4.133570028532721E-2    4.536840731111487E-1   -2.347422936221577E-1
 6.529413441650000E9     5.522944363451140E-1   -1.028738025641338E-1   -1.552936914358439E-2   -4.189391955466868E-2   -1.651654292991664E-2   -4.148396636743699E-2    4.529643409457525E-1   -2.357821542962338E-1
 6.529423741225000E9     5.519840508162557E-1   -1.039551466257282E-1   -1.577678369199472E-2   -4.217145797818824E-2   -1.678249059959704E-2   -4.175388364277557E-2    4.521423671284039E-1   -2.368331733026536E-1
 6.529434040800000E9     5.518913181994816E-1   -1.047832963609677E-1   -1.590613201727723E-2   -4.239486743254402E-2   -1.702042338180196E-2   -4.204467288767728E-2    4.519370215032570E-1   -2.378652706079385E-1
 6.529444340375000E9     5.515444167355644E-1   -1.056465450463327E-1   -1.610880984248405E-2   -4.264697152364300E-2   -1.713480403049179E-2   -4.223631892303869E-2    4.509846044893878E-1   -2.388598910160926E-1
 6.529454639950000E9     5.513536297830779E-1   -1.065598488011367E-1   -1.629847432280740E-2   -4.303338702013267E-2   -1.740644877818035E-2   -4.250149438171429E-2    4.504561554021972E-1   -2.399756078403686E-1
 6.529464939525000E9     5.511990939611677E-1   -1.075182510495841E-1   -1.660230768726904E-2   -4.318333650550241E-2   -1.763283143251953E-2   -4.289003758344726E-2    4.496906019340388E-1   -2.411641985370024E-1
 6.529475239100000E9     5.509348679066545E-1   -1.083505799155633E-1   -1.680144027358448E-2   -4.336586866310998E-2   -1.783971185072448E-2   -4.317840677899087E-2    4.491378784891219E-1   -2.421575082371301E-1
 6.529485538675000E9     5.506807324177172E-1   -1.092587231931024E-1   -1.701243183607860E-2   -4.366981592999027E-2   -1.799849553884054E-2   -4.336504608024587E-2    4.484632177547346E-1   -2.432332470044646E-1
 6.529495838250000E9     5.505090854324506E-1   -1.101971776380496E-1   -1.727346973456371E-2   -4.400487562465896E-2   -1.830135664678059E-2   -4.366021893401962E-2    4.475064570726521E-1   -2.442574315494594E-1
 6.529506137825000E9     5.502103598088899E-1   -1.111966054324640E-1   -1.758339287468608E-2   -4.423225356520376E-2   -1.853767175240271E-2   -4.388963235910873E-2    4.471717683172116E-1   -2.453790708094848E-1
 6.529516437400000E9     5.500480078108977E-1   -1.120834616631217E-1   -1.776849951094671E-2   -4.454738881919001E-2   -1.886956743500218E-2   -4.432758797243751E-2    4.462783163767322E-1   -2.463932984010545E-1
 6.529526736975000E9     5.497064365155780E-1   -1.129644703264215E-1   -1.801380025966597E-2   -4.493814830067382E-2   -1.904875814924567E-2   -4.448657019361968E-2    4.456540381544737E-1   -2.476274019991443E-1
 6.529537036550000E9     5.495994328830315E-1   -1.138759357391652E-1   -1.819393035667430E-2   -4.522578512086103E-2   -1.926016321026629E-2   -4.479980965870640E-2    4.450137839694926E-1   -2.486708366906010E-1
 6.529547336125000E9     5.492458275495343E-1   -1.147883962367034E-1   -1.851318286754161E-2   -4.543104882040481E-2   -1.949127566987994E-2   -4.511687866021486E-2    4.442411696882030E-1   -2.496813953082938E-1
 6.529557635700000E9     5.490843765852501E-1   -1.158422938523269E-1   -1.877351468994411E-2   -4.565330692297632E-2   -1.990636512636509E-2   -4.535874730103924E-2    4.434313787003216E-1   -2.508640723517162E-1
 6.529567935275000E9     5.488175821797527E-1   -1.167720336084579E-1   -1.895714942363292E-2   -4.600087547992041E-2   -2.007582312398189E-2   -4.558347653029678E-2    4.425796906851213E-1   -2.521407744943616E-1
 6.529578234850000E9     5.485744251307338E-1   -1.176123934860240E-1   -1.932288316518345E-2   -4.637106904212556E-2   -2.046883160717885E-2   -4.611159895529354E-2    4.418296355857091E-1   -2.530268084256257E-1
 6.529588534425000E9     5.483142999970114E-1   -1.184516108059722E-1   -1.955653817847326E-2   -4.666084850065693E-2   -2.072964307086715E-2   -4.629357618702041E-2    4.410793499603272E-1   -2.542902747696091E-1
 6.529598834000000E9     5.480096261458802E-1   -1.194528562419092E-1   -1.983364016498970E-2   -4.713516689658912E-2   -2.096374524185853E-2   -4.674452960552955E-2    4.404725496604984E-1   -2.553255757455621E-1
 6.529609133575000E9     5.478145966593703E-1   -1.204356793768460E-1   -1.999965769459058E-2   -4.726484961399372E-2   -2.134901386727285E-2   -4.694635299590093E-2    4.393833212016742E-1   -2.564893465085631E-1
 6.529619433150000E9     5.475158368129901E-1   -1.212964130627371E-1   -2.045271798619890E-2   -4.765450940661397E-2   -2.159526874168021E-2   -4.726685256201728E-2    4.387348894609197E-1   -2.576346144543732E-1
 6.529629732725000E9     5.472755900191908E-1   -1.222637981279971E-1   -2.069831666025979E-2   -4.803365851896339E-2   -2.186271602752198E-2   -4.749658873798901E-2    4.378323921914876E-1   -2.589071583386524E-1
 6.529640032300000E9     5.469306731883600E-1   -1.232152497574577E-1   -2.105934780784122E-2   -4.833139427279198E-2   -2.232396429877060E-2   -4.783851303701082E-2    4.370289540081016E-1   -2.600052468524434E-1
 6.529650331875000E9     5.467424745018501E-1   -1.242644932451191E-1   -2.147894992857924E-2   -4.877679803560809E-2   -2.264018028127049E-2   -4.816391041376018E-2    4.361110584133369E-1   -2.611072604967353E-1
 6.529660631450000E9     5.464288873676879E-1   -1.252001603384749E-1   -2.171406629363627E-2   -4.905402374419420E-2   -2.288536851011775E-2   -4.856129424120787E-2    4.354454323876539E-1   -2.623494315258132E-1
 6.529670931025000E9     5.461949424213056E-1   -1.260943414613151E-1   -2.198243799150699E-2   -4.940133769822683E-2   -2.323844367896434E-2   -4.901815757374847E-2    4.344944551516156E-1   -2.635926081508462E-1
 6.529681230600000E9     5.458877239072399E-1   -1.270642555665461E-1   -2.232200058655965E-2   -4.970029454251747E-2   -2.351416090491637E-2   -4.939823185813291E-2    4.336406986407118E-1   -2.647691370570451E-1
 6.529691530175000E9     5.455886402206320E-1   -1.280189363878246E-1   -2.260040355496443E-2   -5.015690866961213E-2   -2.396492865600466E-2   -4.967096182325891E-2    4.327825041571731E-1   -2.661150400258083E-1
 6.529701829750000E9     5.452907454041171E-1   -1.291632627213813E-1   -2.290581258968153E-2   -5.045326673185455E-2   -2.417014788822834E-2   -5.003788409599080E-2    4.316919236435762E-1   -2.671653025467968E-1
