#  HZ   S   RI   R     50.00 
! Rohde & Schwarz Vector Network Analyzer 
! Rohde-Schwarz,ZNB20-2Port,1311601062101988,3.16
! Created: UTC 3/21/2024, 12:59:49 AM
! freq[Hz]                re:S11                  im:S11                  re:S21                  im:S21                  re:S12                  im:S12                  re:S22                  im:S22
 6.528772351000000E9     5.604402677172685E-1   -4.928377457114035E-2   -7.084010635699692E-3   -3.019398485663355E-2   -7.715945014202351E-3   -3.000412817487285E-2    4.817622400746857E-1   -1.753300268701529E-1
 6.528782707200000E9     5.602144724264277E-1   -5.007250980802415E-2   -7.010564260655091E-3   -3.026794765462194E-2   -7.827788281941679E-3   -3.009919508442485E-2    4.814681606044435E-1   -1.763266856428483E-1
 6.528793063400000E9     5.602093800155278E-1   -5.098092487950012E-2   -7.360599845777228E-3   -3.032824402655524E-2   -7.960746521229013E-3   -3.029460938532599E-2    4.812435820917109E-1   -1.772342128339093E-1
 6.528803419600000E9     5.600136190995677E-1   -5.168547044877857E-2   -7.438472079058735E-3   -3.067078134041205E-2   -8.125382074817129E-3   -3.048643474689532E-2    4.808413640852769E-1   -1.780900187082025E-1
 6.528813775800000E9     5.599902432755388E-1   -5.255667568245944E-2   -7.377863141046462E-3   -3.062555807653540E-2   -8.045467780410995E-3   -3.052369663013159E-2    4.804590127710319E-1   -1.787990899027750E-1
 6.528824132000000E9     5.598790745150665E-1   -5.332658029790327E-2   -7.507737165042285E-3   -3.090354289511689E-2   -8.173465525117614E-3   -3.070698255513964E-2    4.801003810614385E-1   -1.797366030309020E-1
 6.528834488200000E9     5.598529626228823E-1   -5.428027943206382E-2   -7.600600279163629E-3   -3.101569495733027E-2   -8.339384925213109E-3   -3.076050650216499E-2    4.796959229204291E-1   -1.806351666667638E-1
 6.528844844400000E9     5.596586699235586E-1   -5.508781370814921E-2   -7.821302273307783E-3   -3.105017485179640E-2   -8.379320771662127E-3   -3.103511940808022E-2    4.792169923255474E-1   -1.815104964877514E-1
 6.528855200600000E9     5.596428147797350E-1   -5.590635686269164E-2   -7.816786925220221E-3   -3.120857238685896E-2   -8.532104617116927E-3   -3.104871560064344E-2    4.791283445469194E-1   -1.822688402588875E-1
 6.528865556800000E9     5.595242468168844E-1   -5.677634908528691E-2   -7.899151200918842E-3   -3.151629150593308E-2   -8.608757467297513E-3   -3.126874128384555E-2    4.786442753926195E-1   -1.831917197527447E-1
 6.528875913000000E9     5.594662791241732E-1   -5.757717202879385E-2   -8.082719332356315E-3   -3.154232831267701E-2   -8.730692145564075E-3   -3.139591850398565E-2    4.782202532384125E-1   -1.842175257213644E-1
 6.528886269200000E9     5.593312456674798E-1   -5.841385448813590E-2   -8.082047582409844E-3   -3.163669327018506E-2   -8.793391113731465E-3   -3.165371018401412E-2    4.780028052189418E-1   -1.849635690425666E-1
 6.528896625400000E9     5.592080602824339E-1   -5.924503526623452E-2   -8.116526725135409E-3   -3.185513840529024E-2   -8.988483158692197E-3   -3.159655360206974E-2    4.774970313452769E-1   -1.860428048441244E-1
 6.528906981600000E9     5.592322442506384E-1   -6.010793136073372E-2   -8.273465789649652E-3   -3.197365727841578E-2   -9.034976152563589E-3   -3.185556925392837E-2    4.771815777113583E-1   -1.869386860898925E-1
 6.528917337800000E9     5.591629040717618E-1   -6.096061813847149E-2   -8.420031477466734E-3   -3.209084117645043E-2   -9.109127912242842E-3   -3.203701991364450E-2    4.767692381660300E-1   -1.875812123999847E-1
 6.528927694000000E9     5.590013347714469E-1   -6.175805596238225E-2   -8.515527451217473E-3   -3.221177457811535E-2   -9.248382831562063E-3   -3.213495515663450E-2    4.763766810078687E-1   -1.885276018947791E-1
 6.528938050200000E9     5.589445289698819E-1   -6.259865547461056E-2   -8.563377303888415E-3   -3.227967355248038E-2   -9.361451660553693E-3   -3.234764790590097E-2    4.759329019409872E-1   -1.895008284668750E-1
 6.528948406400000E9     5.588147722318665E-1   -6.340544771817969E-2   -8.795899551368402E-3   -3.257291779529387E-2   -9.433881978797761E-3   -3.251385614357273E-2    4.755525482375197E-1   -1.904598378752025E-1
 6.528958762600000E9     5.587501186999245E-1   -6.425088475645972E-2   -8.925002483991279E-3   -3.277199451755131E-2   -9.642643779100634E-3   -3.259345619943163E-2    4.751525596290769E-1   -1.914108016607100E-1
 6.528969118800000E9     5.585703768292714E-1   -6.504186603906746E-2   -8.938153888574012E-3   -3.297797468329992E-2   -9.713719135353476E-3   -3.279096804027268E-2    4.749987881543799E-1   -1.921526584940261E-1
 6.528979475000000E9     5.585589913498842E-1   -6.590765324168261E-2   -8.964817891478287E-3   -3.309025971285278E-2   -9.766313012263309E-3   -3.289553792544727E-2    4.745419003814508E-1   -1.930320752457537E-1
 6.528989831200000E9     5.583979971285223E-1   -6.685443591576222E-2   -9.139201100671193E-3   -3.316341880002496E-2   -9.903633896232269E-3   -3.311589512966093E-2    4.740629294806166E-1   -1.940394987989592E-1
 6.529000187400000E9     5.583044326823527E-1   -6.763555813941824E-2   -9.208548365777025E-3   -3.351797969426677E-2   -1.003676247915838E-2   -3.339843243279175E-2    4.736863254724695E-1   -1.949462150679803E-1
 6.529010543600000E9     5.581123364219115E-1   -6.855238694844622E-2   -9.415552101094519E-3   -3.356568888499233E-2   -1.022096546905476E-2   -3.343230260318024E-2    4.732120855889679E-1   -1.959651332971959E-1
 6.529020899800000E9     5.580057279965458E-1   -6.931572504899733E-2   -9.639076470258251E-3   -3.387065691050177E-2   -1.027029375512564E-2   -3.357048635784893E-2    4.728250351413775E-1   -1.966683228805898E-1
 6.529031256000000E9     5.579053473292626E-1   -7.019332656828992E-2   -9.544952384861137E-3   -3.381941891545872E-2   -1.040694708387581E-2   -3.373462960582573E-2    4.723074212999737E-1   -1.976305090757013E-1
 6.529041612200000E9     5.577685315537633E-1   -7.101224526861780E-2   -9.683451634743429E-3   -3.408936937654004E-2   -1.049631163960048E-2   -3.394946840633629E-2    4.718901474661399E-1   -1.986762906765620E-1
 6.529051968400000E9     5.576322089015520E-1   -7.192789769934757E-2   -9.905149419788888E-3   -3.428094601976099E-2   -1.059027016316493E-2   -3.411882540240539E-2    4.715776258161005E-1   -1.996118321224084E-1
 6.529062324600000E9     5.575600207017660E-1   -7.275784215278795E-2   -1.001428803053203E-2   -3.434619884574489E-2   -1.079619582461431E-2   -3.427922093566231E-2    4.709064156639089E-1   -2.005612606230009E-1
 6.529072680800000E9     5.574201664853692E-1   -7.369189576536249E-2   -1.016721268592389E-2   -3.455884656440068E-2   -1.089639189880627E-2   -3.437207951699369E-2    4.706070857145646E-1   -2.013237963264485E-1
 6.529083037000000E9     5.572749628554802E-1   -7.451199117390966E-2   -1.018372036429692E-2   -3.474473519088823E-2   -1.108518471311608E-2   -3.460302994224249E-2    4.702155462580513E-1   -2.023463946892080E-1
 6.529093393200000E9     5.572259199807692E-1   -7.529385991364315E-2   -1.030717506574833E-2   -3.492491641857789E-2   -1.116619467619263E-2   -3.481638881451463E-2    4.697441524307055E-1   -2.032782637712509E-1
 6.529103749400000E9     5.569757801478803E-1   -7.622952820126153E-2   -1.045768089337284E-2   -3.513270289708249E-2   -1.127866856620484E-2   -3.492112886651653E-2    4.694186625870450E-1   -2.041711955049870E-1
 6.529114105600000E9     5.568119991386438E-1   -7.707733225696331E-2   -1.059051280072610E-2   -3.533540384867576E-2   -1.141700421109199E-2   -3.517835846478851E-2    4.688112295611597E-1   -2.050038777313010E-1
 6.529124461800000E9     5.568546517545784E-1   -7.791186196610383E-2   -1.079529514739346E-2   -3.553126036628306E-2   -1.151956878373011E-2   -3.542363745370612E-2    4.684233605946300E-1   -2.059076446188847E-1
 6.529134818000000E9     5.566339468188805E-1   -7.870682806787865E-2   -1.091907891692774E-2   -3.577866558247526E-2   -1.172525185968264E-2   -3.563483349247586E-2    4.680368896418792E-1   -2.069260414511850E-1
 6.529145174200000E9     5.564759777232917E-1   -7.964844550815751E-2   -1.112942570199357E-2   -3.592689557629225E-2   -1.190110954485416E-2   -3.570342543628570E-2    4.675391603136090E-1   -2.078495200313224E-1
 6.529155530400000E9     5.563693028040623E-1   -8.052946748181616E-2   -1.107020890914675E-2   -3.621516808432283E-2   -1.199649365856032E-2   -3.583582780553524E-2    4.670099498737226E-1   -2.088147162696522E-1
 6.529165886600000E9     5.561955043677875E-1   -8.142625283756579E-2   -1.142217440945295E-2   -3.631430941793186E-2   -1.219429020961023E-2   -3.604979057680054E-2    4.666331849316244E-1   -2.097649528492225E-1
 6.529176242800000E9     5.559906383141889E-1   -8.224597962731338E-2   -1.133075107636924E-2   -3.643976178585049E-2   -1.225180812074399E-2   -3.625879360404655E-2    4.661033151624256E-1   -2.106677227674882E-1
 6.529186599000000E9     5.559538525924296E-1   -8.317653166995613E-2   -1.155213170389711E-2   -3.673387431231435E-2   -1.240914505068755E-2   -3.645295256542138E-2    4.655567350833272E-1   -2.116379096781036E-1
 6.529196955200000E9     5.557743397828623E-1   -8.395979882953244E-2   -1.155948823552733E-2   -3.689597417061116E-2   -1.263948172551148E-2   -3.663436670528495E-2    4.651423098103014E-1   -2.125805587869957E-1
 6.529207311400000E9     5.555571084326723E-1   -8.484564246495836E-2   -1.197495845425723E-2   -3.717008030041991E-2   -1.269112221895256E-2   -3.686408411613862E-2    4.647035761685407E-1   -2.136239985416080E-1
 6.529217667600000E9     5.554995318754226E-1   -8.560506399051537E-2   -1.196238980717536E-2   -3.710118050657064E-2   -1.288798731128471E-2   -3.707402706215601E-2    4.639756597233775E-1   -2.145522212298385E-1
 6.529228023800000E9     5.553858430079328E-1   -8.661270213080620E-2   -1.215697277098324E-2   -3.733578654186399E-2   -1.304110571257176E-2   -3.729394013609161E-2    4.635681773869231E-1   -2.154784939313104E-1
 6.529238380000000E9     5.552090256770997E-1   -8.744905573136266E-2   -1.226080455727783E-2   -3.769708017773041E-2   -1.312013118839672E-2   -3.742947267666718E-2    4.630459605199692E-1   -2.166433967438860E-1
 6.529248736200000E9     5.549862878024406E-1   -8.839403821334423E-2   -1.256928117063860E-2   -3.778991389104030E-2   -1.345402835254962E-2   -3.762095651246771E-2    4.625467843394119E-1   -2.175075360950630E-1
 6.529259092400000E9     5.548048862425383E-1   -8.914400960300514E-2   -1.267876763531106E-2   -3.816353658599478E-2   -1.352543699952632E-2   -3.785300265002395E-2    4.620989689971924E-1   -2.185667397213372E-1
 6.529269448600000E9     5.546611577412781E-1   -9.027664278144810E-2   -1.283725354904049E-2   -3.833735045052861E-2   -1.371061686352977E-2   -3.801614554757897E-2    4.613996426839774E-1   -2.193475778491919E-1
 6.529279804800000E9     5.545788786742291E-1   -9.095219099007268E-2   -1.296393497346672E-2   -3.848304861337947E-2   -1.398193781297600E-2   -3.831122969334226E-2    4.609873769942530E-1   -2.204349385302954E-1
 6.529290161000000E9     5.543522004844140E-1   -9.190978204248060E-2   -1.304903381734460E-2   -3.870383003042445E-2   -1.402251510980119E-2   -3.849404916760617E-2    4.603627495076613E-1   -2.214531801062127E-1
 6.529300517200000E9     5.541497976464961E-1   -9.283966189935997E-2   -1.335510391106307E-2   -3.904939576139756E-2   -1.422094889240122E-2   -3.879737826399818E-2    4.598729177628658E-1   -2.224495918721388E-1
 6.529310873400000E9     5.539980393360296E-1   -9.357871337988402E-2   -1.343231458619991E-2   -3.915701796357847E-2   -1.446795637778779E-2   -3.900013994492608E-2    4.592342351982239E-1   -2.234011687588225E-1
 6.529321229600000E9     5.538608011445225E-1   -9.452920461375558E-2   -1.366907751054047E-2   -3.944328507780710E-2   -1.458607538976086E-2   -3.914565763992853E-2    4.587649017276572E-1   -2.244970237228629E-1
 6.529331585800000E9     5.537299254462624E-1   -9.549363291520262E-2   -1.388282777586029E-2   -3.973314130094856E-2   -1.478942059138798E-2   -3.929682681826487E-2    4.581319497964145E-1   -2.255807530572262E-1
 6.529341942000000E9     5.534590243689019E-1   -9.644194769692163E-2   -1.408674600735487E-2   -3.983759107148763E-2   -1.503440551150480E-2   -3.959776605945058E-2    4.578385286020377E-1   -2.265274318197962E-1
 6.529352298200000E9     5.532939739983461E-1   -9.726131726029522E-2   -1.412005338091484E-2   -4.018642268847066E-2   -1.497116033730292E-2   -3.983277866689225E-2    4.571450766266512E-1   -2.273975730335971E-1
 6.529362654400000E9     5.531343294152713E-1   -9.819552648396931E-2   -1.451700265979411E-2   -4.028360536201139E-2   -1.534780627383585E-2   -4.007296048184032E-2    4.563295950802892E-1   -2.286089947773450E-1
 6.529373010600000E9     5.529494283483535E-1   -9.910034865012984E-2   -1.469364686622696E-2   -4.060869253393580E-2   -1.554044160285922E-2   -4.031316454491383E-2    4.559860217369281E-1   -2.295770775672987E-1
 6.529383366800000E9     5.527008862874210E-1   -9.987560607615238E-2   -1.478855488750385E-2   -4.082411032764920E-2   -1.571053710087629E-2   -4.060585844454698E-2    4.552145451808736E-1   -2.306829854864313E-1
 6.529393723000000E9     5.525449800132881E-1   -1.008355882127517E-1   -1.492899832122585E-2   -4.126778903422135E-2   -1.603086744452432E-2   -4.079704849226063E-2    4.547356201417743E-1   -2.316353735237915E-1
 6.529404079200000E9     5.524264755733421E-1   -1.017791126175016E-1   -1.522899811372664E-2   -4.137211336688596E-2   -1.612372113083864E-2   -4.104872906747026E-2    4.540825826085627E-1   -2.324898790142369E-1
 6.529414435400000E9     5.521271698884440E-1   -1.026629223984253E-1   -1.538939996343009E-2   -4.162742452909387E-2   -1.640164869741070E-2   -4.130542451786093E-2    4.534340146583576E-1   -2.337793537423572E-1
 6.529424791600000E9     5.520391783269781E-1   -1.034459429266157E-1   -1.554738495084983E-2   -4.175345616360746E-2   -1.668400681790680E-2   -4.162682387269206E-2    4.528233652036014E-1   -2.346956366955005E-1
 6.529435147800000E9     5.517464179566329E-1   -1.045100974344746E-1   -1.579394545908757E-2   -4.211095069191846E-2   -1.678538358369440E-2   -4.182602008849774E-2    4.523099163414740E-1   -2.357806875045251E-1
 6.529445504000000E9     5.515761295205981E-1   -1.053368782999926E-1   -1.596998072449887E-2   -4.235826313946482E-2   -1.707204274225019E-2   -4.209474063653328E-2    4.516890115285012E-1   -2.368157443654996E-1
 6.529455860200000E9     5.513582918208487E-1   -1.061654294229675E-1   -1.621494115342380E-2   -4.265179825730297E-2   -1.725272864844387E-2   -4.239749852973203E-2    4.508546226247221E-1   -2.379138171965184E-1
 6.529466216400000E9     5.509712071475673E-1   -1.072491852772234E-1   -1.650280434739197E-2   -4.295937739603908E-2   -1.745520001445186E-2   -4.259567703203869E-2    4.503511742771418E-1   -2.387340511113635E-1
 6.529476572600000E9     5.508990360256053E-1   -1.080687464523439E-1   -1.665697395981359E-2   -4.324619730943043E-2   -1.766719525359782E-2   -4.292970488423592E-2    4.495527934565255E-1   -2.401257092726611E-1
 6.529486928800000E9     5.507177408699213E-1   -1.090096471269212E-1   -1.687482079403980E-2   -4.352509438699558E-2   -1.795549599152722E-2   -4.319318738724727E-2    4.488414401209623E-1   -2.411830811901040E-1
 6.529497285000000E9     5.504201238000598E-1   -1.099080261394578E-1   -1.699846801340687E-2   -4.368923671591409E-2   -1.816993531455774E-2   -4.341175717901812E-2    4.481831402801389E-1   -2.422512917928867E-1
 6.529507641200000E9     5.502114155710175E-1   -1.108518889953100E-1   -1.737049902242589E-2   -4.418542044267293E-2   -1.841595826993007E-2   -4.368392373195011E-2    4.476369432196871E-1   -2.432344166134416E-1
 6.529517997400000E9     5.501244357709730E-1   -1.117965003671599E-1   -1.762426581510467E-2   -4.434351926620290E-2   -1.865194333635711E-2   -4.394295064632967E-2    4.468271954130412E-1   -2.443459001992442E-1
 6.529528353600000E9     5.497632291258125E-1   -1.126286321550982E-1   -1.787091929498745E-2   -4.477709807827511E-2   -1.887642332846442E-2   -4.424476527209082E-2    4.461470358406281E-1   -2.454501504958033E-1
 6.529538709800000E9     5.495026445869994E-1   -1.137021017156296E-1   -1.816737248130138E-2   -4.480898684795837E-2   -1.918562424703583E-2   -4.459956778759397E-2    4.453478862115192E-1   -2.465154155899441E-1
 6.529549066000000E9     5.492890001293735E-1   -1.144356054478921E-1   -1.821400815720685E-2   -4.521663950213475E-2   -1.945320514314697E-2   -4.478803754739336E-2    4.446514879309050E-1   -2.476230178811311E-1
 6.529559422200000E9     5.490391481858927E-1   -1.154497627405441E-1   -1.855450572393562E-2   -4.553919819036868E-2   -1.971059692825100E-2   -4.521479181572671E-2    4.438965767101844E-1   -2.486645707784711E-1
 6.529569778400000E9     5.487921549692305E-1   -1.165207936505759E-1   -1.884965474577245E-2   -4.588919320343756E-2   -1.997389880809549E-2   -4.551160095838948E-2    4.432911127665871E-1   -2.498038349997848E-1
 6.529580134600000E9     5.485184528174675E-1   -1.173129564680000E-1   -1.906931597715346E-2   -4.622412343419598E-2   -2.020834572288609E-2   -4.574230951380484E-2    4.423980449899889E-1   -2.511201195595197E-1
 6.529590490800000E9     5.481605141867284E-1   -1.182663594867825E-1   -1.944857756034474E-2   -4.648724125422556E-2   -2.055795638294989E-2   -4.608100369607397E-2    4.417463324556816E-1   -2.521245670490059E-1
 6.529600847000000E9     5.480286991991609E-1   -1.192770196144846E-1   -1.961940465635302E-2   -4.682820581876995E-2   -2.080093689232806E-2   -4.644791183527044E-2    4.408970180026293E-1   -2.531957220176042E-1
 6.529611203200000E9     5.477424216448991E-1   -1.201305497130726E-1   -2.000681704523647E-2   -4.711932588025722E-2   -2.107223678959524E-2   -4.676425967174399E-2    4.399009354402439E-1   -2.544417094185928E-1
 6.529621559400000E9     5.475258947643600E-1   -1.211449420865490E-1   -2.021878116196382E-2   -4.733671984152824E-2   -2.148460807078142E-2   -4.695441597263079E-2    4.393424077692449E-1   -2.555919890561872E-1
 6.529631915600000E9     5.472371634241653E-1   -1.219892931688041E-1   -2.047337263645085E-2   -4.772380096566035E-2   -2.170185632374651E-2   -4.739398537802411E-2    4.384093110644525E-1   -2.567754382777787E-1
 6.529642271800000E9     5.469808368183329E-1   -1.231282306674747E-1   -2.076305229855895E-2   -4.812909932577168E-2   -2.217535908293393E-2   -4.765808359629060E-2    4.375169787491601E-1   -2.579267153635135E-1
 6.529652628000000E9     5.467352804379028E-1   -1.240033026595950E-1   -2.110070605679129E-2   -4.845981614580283E-2   -2.240447225818684E-2   -4.805061933733719E-2    4.367061260270491E-1   -2.589855288439168E-1
 6.529662984200000E9     5.464321794248794E-1   -1.249419699306703E-1   -2.154284517392142E-2   -4.881400801570997E-2   -2.268307512521159E-2   -4.834216436369936E-2    4.359719287914153E-1   -2.603979706463563E-1
 6.529673340400000E9     5.461233134462544E-1   -1.258480170833544E-1   -2.173258853475311E-2   -4.919878111872292E-2   -2.298879965409714E-2   -4.858966814229069E-2    4.349856370922742E-1   -2.614098167798685E-1
 6.529683696600000E9     5.459198643259646E-1   -1.269463732226122E-1   -2.207768667316029E-2   -4.956476798399308E-2   -2.333385726811688E-2   -4.905113209033530E-2    4.340115178363198E-1   -2.626199477046134E-1
 6.529694052800000E9     5.455100369908746E-1   -1.279109466882422E-1   -2.234105069218136E-2   -4.990759512638451E-2   -2.373020742627306E-2   -4.937672130006487E-2    4.332681533778754E-1   -2.638610261972635E-1
 6.529704409000000E9     5.452050042273591E-1   -1.288214267392615E-1   -2.266460121808446E-2   -5.028339112369364E-2   -2.405275695509021E-2   -4.974522057254525E-2    4.323208365824447E-1   -2.650580850227179E-1
