#  HZ   S   RI   R     50.00 
! Rohde & Schwarz Vector Network Analyzer 
! Rohde-Schwarz,ZNB20-2Port,1311601062101988,3.16
! Created: UTC 3/21/2024, 12:59:57 AM
! freq[Hz]                re:S11                  im:S11                  re:S21                  im:S21                  re:S12                  im:S12                  re:S22                  im:S22
 6.528769101000000E9     5.602764657805945E-1   -4.894341198077550E-2   -6.891872677666840E-3   -3.010340780451884E-2   -7.775543553401837E-3   -2.996012513790527E-2    4.819994003823630E-1   -1.746212807201591E-1
 6.528779484150000E9     5.603105347759723E-1   -4.972168295857951E-2   -7.268293384183247E-3   -3.033991796231878E-2   -7.768427164118214E-3   -3.002977909462941E-2    4.814808279641764E-1   -1.753291565094494E-1
 6.528789867300000E9     5.601650556453052E-1   -5.056137703392344E-2   -7.288167403622895E-3   -3.042298924978609E-2   -7.896347870852171E-3   -3.017792562228740E-2    4.812208758345816E-1   -1.762036595193304E-1
 6.528800250450000E9     5.599637643126142E-1   -5.142471852601249E-2   -7.373558345672055E-3   -3.053486491254746E-2   -8.038084633512781E-3   -3.034642770773560E-2    4.810353151732215E-1   -1.772253849401021E-1
 6.528810633600000E9     5.600809608498156E-1   -5.225167419187762E-2   -7.387647406932229E-3   -3.046775888977091E-2   -8.082949462976430E-3   -3.054917502955713E-2    4.804683083118036E-1   -1.779591850917109E-1
 6.528821016750000E9     5.599476679253524E-1   -5.311156916041552E-2   -7.681729985706870E-3   -3.087950834534085E-2   -8.259140151387893E-3   -3.055860025418209E-2    4.802871828032635E-1   -1.789106679995511E-1
 6.528831399900000E9     5.596479239198967E-1   -5.386812442892198E-2   -7.555509405244389E-3   -3.095803629431987E-2   -8.172307185208333E-3   -3.080655044172206E-2    4.798374473598181E-1   -1.798609703884510E-1
 6.528841783050000E9     5.597658632519782E-1   -5.472428618963246E-2   -7.721331941287418E-3   -3.102143227412066E-2   -8.317412910888307E-3   -3.092245162633211E-2    4.795291412991625E-1   -1.805533304285814E-1
 6.528852166200000E9     5.597400060757008E-1   -5.554987311282433E-2   -7.805826770225588E-3   -3.113306233856231E-2   -8.428343602230796E-3   -3.105100557653409E-2    4.791625613131527E-1   -1.813461506842824E-1
 6.528862549350000E9     5.595645649660383E-1   -5.642446856942528E-2   -7.907069429065553E-3   -3.145841053358721E-2   -8.560157650886984E-3   -3.116068008568442E-2    4.787333569722405E-1   -1.823041416487564E-1
 6.528872932500000E9     5.594961428947191E-1   -5.726190144155518E-2   -8.017222542500750E-3   -3.136896133024832E-2   -8.696934927385613E-3   -3.131750604513316E-2    4.783486160470240E-1   -1.833867852641506E-1
 6.528883315650000E9     5.594574493845879E-1   -5.805887017791690E-2   -8.153517615437008E-3   -3.159146805639700E-2   -8.829922266367828E-3   -3.146334602155849E-2    4.781597640265813E-1   -1.842825481061293E-1
 6.528893698800000E9     5.593315435526945E-1   -5.907458426789650E-2   -8.118009066743020E-3   -3.179496679744061E-2   -8.926630558939885E-3   -3.166550289299352E-2    4.775717669249260E-1   -1.850540002388498E-1
 6.528904081950000E9     5.591841546149623E-1   -5.985436275610508E-2   -8.248478642750563E-3   -3.193542368212542E-2   -8.978668702439088E-3   -3.175575137609150E-2    4.772813581235288E-1   -1.858138492168962E-1
 6.528914465100000E9     5.590077430236252E-1   -6.062472694739067E-2   -8.472751992167590E-3   -3.215029357133171E-2   -9.109981912802084E-3   -3.194492848111718E-2    4.770260489504213E-1   -1.868470095614463E-1
 6.528924848250000E9     5.591136945317107E-1   -6.159612032545239E-2   -8.445730380493080E-3   -3.228163293808758E-2   -9.195609167630214E-3   -3.211370857405763E-2    4.764352251857630E-1   -1.878708071058036E-1
 6.528935231400000E9     5.588993153979849E-1   -6.231872555528713E-2   -8.626730390824932E-3   -3.239719131359892E-2   -9.314407454671939E-3   -3.225826422146780E-2    4.762026025508980E-1   -1.886528656179256E-1
 6.528945614550000E9     5.587818553773057E-1   -6.311375846847689E-2   -8.694931721806657E-3   -3.254478266744280E-2   -9.473076278606980E-3   -3.248120964156888E-2    4.757563425482810E-1   -1.894388684085088E-1
 6.528955997700000E9     5.587371155891467E-1   -6.410057879142587E-2   -8.943752611946285E-3   -3.272995780560159E-2   -9.489579514345170E-3   -3.253504639400968E-2    4.754011185866202E-1   -1.904795834829128E-1
 6.528966380850000E9     5.585685175083835E-1   -6.490522686275284E-2   -8.735144216613042E-3   -3.299843974111173E-2   -9.621758094703029E-3   -3.274121605822033E-2    4.749392743374163E-1   -1.912548405247788E-1
 6.528976764000000E9     5.585795078418561E-1   -6.573301411695340E-2   -9.010211913996913E-3   -3.313298309274177E-2   -9.713569678093831E-3   -3.282498644298503E-2    4.746776203170028E-1   -1.922712254117788E-1
 6.528987147150000E9     5.584826857075369E-1   -6.657725611458075E-2   -9.015970414264083E-3   -3.319725278026357E-2   -9.904152067289070E-3   -3.295219439424077E-2    4.742391894963762E-1   -1.932225015823761E-1
 6.528997530300000E9     5.581736724432452E-1   -6.727565252342181E-2   -9.276133380503366E-3   -3.339996018048160E-2   -9.881566304640861E-3   -3.318987039572795E-2    4.735968423701738E-1   -1.940751502078447E-1
 6.529007913450000E9     5.581810382276456E-1   -6.835652958297286E-2   -9.400601311892111E-3   -3.344691575447474E-2   -1.013329932228223E-2   -3.329890145472755E-2    4.734014253276470E-1   -1.951079473833977E-1
 6.529018296600000E9     5.580251372108077E-1   -6.913370368159062E-2   -9.411696869535151E-3   -3.366952829549570E-2   -1.023995102015266E-2   -3.354634219671898E-2    4.729544489997609E-1   -1.959729752179985E-1
 6.529028679750000E9     5.578656304958223E-1   -6.991008588426928E-2   -9.508899263745771E-3   -3.384305312732607E-2   -1.028188864647940E-2   -3.357636761568756E-2    4.726880248188802E-1   -1.968788615427784E-1
 6.529039062900000E9     5.577490742810689E-1   -7.091041123400806E-2   -9.771117342563040E-3   -3.402273815726158E-2   -1.048476091571791E-2   -3.383857070416815E-2    4.722076997614574E-1   -1.977744820071352E-1
 6.529049446050000E9     5.576524633643543E-1   -7.179132650670818E-2   -9.800396555150375E-3   -3.416639056176479E-2   -1.055379620694906E-2   -3.401165121173502E-2    4.717144308768728E-1   -1.986579409444238E-1
 6.529059829200000E9     5.575252401012450E-1   -7.244926229487708E-2   -9.899239253741065E-3   -3.427082999643596E-2   -1.072327823347604E-2   -3.410473481301751E-2    4.712420504663249E-1   -1.993821166964275E-1
 6.529070212350000E9     5.572719660113892E-1   -7.346607541553266E-2   -1.008779126377556E-2   -3.457288198425643E-2   -1.079249120754422E-2   -3.442644854494727E-2    4.708327197669115E-1   -2.005230083611849E-1
 6.529080595500000E9     5.573689594176515E-1   -7.417083194865705E-2   -1.023189962915640E-2   -3.468255044699392E-2   -1.098074199158060E-2   -3.457044427403259E-2    4.701881938526937E-1   -2.013777051395686E-1
 6.529090978650000E9     5.572086053757498E-1   -7.510075912658966E-2   -1.040196457725301E-2   -3.493470745936922E-2   -1.108758636046570E-2   -3.464785308626445E-2    4.699372432519145E-1   -2.023309555334208E-1
 6.529101361800000E9     5.570599413150510E-1   -7.597553949913897E-2   -1.043078362303594E-2   -3.503343718988884E-2   -1.111665799582014E-2   -3.488923082653488E-2    4.694087322970499E-1   -2.032343981760041E-1
 6.529111744950000E9     5.568498586153412E-1   -7.681401363578259E-2   -1.055606524859252E-2   -3.515705693447652E-2   -1.125682046717195E-2   -3.500240145615183E-2    4.689556682235112E-1   -2.042601700404723E-1
 6.529122128100000E9     5.568617989872139E-1   -7.780373955083281E-2   -1.062175529082534E-2   -3.546326038165930E-2   -1.152543409493990E-2   -3.520810836480106E-2    4.685835233768552E-1   -2.051161858748934E-1
 6.529132511250000E9     5.566130435808849E-1   -7.867556998916755E-2   -1.090075316443695E-2   -3.582773068751245E-2   -1.170550969390036E-2   -3.537874171973391E-2    4.680834362048062E-1   -2.062155670448137E-1
 6.529142894400000E9     5.566768624969421E-1   -7.944186533424964E-2   -1.092679311482452E-2   -3.573755774350876E-2   -1.177987706220061E-2   -3.566005157550808E-2    4.675574756633251E-1   -2.072591404955600E-1
 6.529153277550000E9     5.563738503078122E-1   -8.022832990462028E-2   -1.117106943226455E-2   -3.595825449804595E-2   -1.193106414278900E-2   -3.574505147186616E-2    4.671822933048169E-1   -2.079619605658334E-1
 6.529163660700000E9     5.562060524798224E-1   -8.118635060284686E-2   -1.125329394235433E-2   -3.611926643795248E-2   -1.204894714015144E-2   -3.600351382220091E-2    4.666742547973311E-1   -2.088722640984115E-1
 6.529174043850000E9     5.561224201322099E-1   -8.196632455704024E-2   -1.136204421663068E-2   -3.628627215788856E-2   -1.221558582210921E-2   -3.615021318253990E-2    4.661625537759801E-1   -2.099091532349725E-1
 6.529184427000000E9     5.559098074937013E-1   -8.293610530716353E-2   -1.157623281466914E-2   -3.658158100203217E-2   -1.234190488605781E-2   -3.642539775261909E-2    4.657897052912357E-1   -2.108383871353768E-1
 6.529194810150000E9     5.557361342306469E-1   -8.373476669840114E-2   -1.165076154253555E-2   -3.669231880576519E-2   -1.250692830783416E-2   -3.651351923407934E-2    4.652550192049063E-1   -2.116508995256366E-1
 6.529205193300000E9     5.556941257669955E-1   -8.464943354284864E-2   -1.185306140109573E-2   -3.700731060159891E-2   -1.277901995835109E-2   -3.675641929395291E-2    4.648148126413902E-1   -2.128599568804860E-1
 6.529215576450000E9     5.555460066433354E-1   -8.555348400124468E-2   -1.198064100686430E-2   -3.719316472816716E-2   -1.288559152477085E-2   -3.686824145363074E-2    4.641662384982242E-1   -2.138572823931741E-1
 6.529225959600000E9     5.553234580882753E-1   -8.643320506018994E-2   -1.220940393249234E-2   -3.754861952893909E-2   -1.307161079658464E-2   -3.704808890874762E-2    4.637130025417074E-1   -2.147542440576624E-1
 6.529236342750000E9     5.551356727892940E-1   -8.718142659032919E-2   -1.230271229920089E-2   -3.751049841823988E-2   -1.312322861147358E-2   -3.740580997232728E-2    4.633738885633114E-1   -2.158589418857378E-1
 6.529246725900000E9     5.549671014571472E-1   -8.814494090988508E-2   -1.235089516629641E-2   -3.784222567279432E-2   -1.329393470784624E-2   -3.759329892016702E-2    4.628233029547884E-1   -2.168136624586796E-1
 6.529257109050000E9     5.548933179237963E-1   -8.892820832360622E-2   -1.269433980610420E-2   -3.804629592969753E-2   -1.350998969120278E-2   -3.786716366782362E-2    4.621276557439984E-1   -2.176218339929024E-1
 6.529267492200000E9     5.547379453178738E-1   -8.989132600065920E-2   -1.273910386579717E-2   -3.822941813766415E-2   -1.367402748324119E-2   -3.792955908757886E-2    4.618511255862285E-1   -2.187425922138557E-1
 6.529277875350000E9     5.545949517247371E-1   -9.075486533948278E-2   -1.292994235851776E-2   -3.852519572095193E-2   -1.374282364445328E-2   -3.824130418030614E-2    4.610595594695352E-1   -2.196160685554210E-1
 6.529288258500000E9     5.544379704881499E-1   -9.177684716020197E-2   -1.321599553034205E-2   -3.866139371250068E-2   -1.401671298165283E-2   -3.848501855445981E-2    4.605945265777364E-1   -2.207103968448578E-1
 6.529298641650000E9     5.542972795993729E-1   -9.253180490523716E-2   -1.329592429377355E-2   -3.891887690761602E-2   -1.424155323287454E-2   -3.864921498836376E-2    4.600031013368113E-1   -2.216939582613456E-1
 6.529309024800000E9     5.541098122251846E-1   -9.349343811895423E-2   -1.344826499911816E-2   -3.928044359381080E-2   -1.430664588795782E-2   -3.885398614751561E-2    4.593543540028575E-1   -2.226439164782833E-1
 6.529319407950000E9     5.538326661188389E-1   -9.435277750063314E-2   -1.355774370344411E-2   -3.922099919755889E-2   -1.454525175974579E-2   -3.903618478471771E-2    4.590096231551768E-1   -2.236579439918151E-1
 6.529329791100000E9     5.537793610537541E-1   -9.525636848906274E-2   -1.377799477912602E-2   -3.977728314515175E-2   -1.475791362406540E-2   -3.936163823163575E-2    4.585103904974022E-1   -2.246934546267665E-1
 6.529340174250000E9     5.534867743908767E-1   -9.611830684260890E-2   -1.395805694231828E-2   -3.974164840599941E-2   -1.498399889190811E-2   -3.948588748857255E-2    4.577567822544776E-1   -2.256223940835362E-1
 6.529350557400000E9     5.532883740033016E-1   -9.700793322082045E-2   -1.422057701787593E-2   -3.990852431643765E-2   -1.511979024370907E-2   -3.980741365057399E-2    4.572099191302774E-1   -2.266373166185200E-1
 6.529360940550000E9     5.531378938872076E-1   -9.778630193784352E-2   -1.423164134306046E-2   -4.020369577738245E-2   -1.529638908211451E-2   -4.008287617033116E-2    4.568870551676856E-1   -2.277036144305509E-1
 6.529371323700000E9     5.528853400401608E-1   -9.877306572477330E-2   -1.432642377274119E-2   -4.052868534024500E-2   -1.544088921554502E-2   -4.018906514180633E-2    4.560820799424403E-1   -2.287858084087415E-1
 6.529381706850000E9     5.528227960473352E-1   -9.961666976637738E-2   -1.479337560219076E-2   -4.076388454391212E-2   -1.564664465585287E-2   -4.040696892602687E-2    4.555507786959344E-1   -2.298120747445341E-1
 6.529392090000000E9     5.524129515373768E-1   -1.005726295971973E-1   -1.485468470265661E-2   -4.106153776173694E-2   -1.585522394180753E-2   -4.072211383242838E-2    4.547576416265589E-1   -2.307911048813560E-1
 6.529402473150000E9     5.522919552131464E-1   -1.015722585360887E-1   -1.507220193192560E-2   -4.120137909563692E-2   -1.606468266929889E-2   -4.098150707990506E-2    4.541316992772986E-1   -2.318301027054720E-1
 6.529412856300000E9     5.522447901904509E-1   -1.023462198116602E-1   -1.533516286641571E-2   -4.159592800126728E-2   -1.628006054129798E-2   -4.113280824956776E-2    4.537359322114095E-1   -2.327511029467346E-1
 6.529423239450000E9     5.519946032579834E-1   -1.032783977450530E-1   -1.555919067631165E-2   -4.174638940487969E-2   -1.651969492817795E-2   -4.147131942474985E-2    4.529879043810159E-1   -2.339035883140548E-1
 6.529433622600000E9     5.518602633070551E-1   -1.042671793745318E-1   -1.570869873883836E-2   -4.209861646916954E-2   -1.666616565735960E-2   -4.166322459655776E-2    4.524061935476627E-1   -2.349939502434329E-1
 6.529444005750000E9     5.516007385481010E-1   -1.051250691030856E-1   -1.600373655026441E-2   -4.236016356583962E-2   -1.697726386820823E-2   -4.195822200311286E-2    4.517557225198869E-1   -2.360242668145410E-1
 6.529454388900000E9     5.513918118525778E-1   -1.060972329858610E-1   -1.611061840915293E-2   -4.253608588389184E-2   -1.717022692721943E-2   -4.227004862445598E-2    4.510406665690678E-1   -2.370124346239167E-1
 6.529464772050000E9     5.511439635879718E-1   -1.069556269275778E-1   -1.622934487765606E-2   -4.289029327506815E-2   -1.741505592041592E-2   -4.251851925826509E-2    4.504231695531435E-1   -2.382380464600158E-1
 6.529475155200000E9     5.510188244991449E-1   -1.079196714742464E-1   -1.661349388366444E-2   -4.318345830622538E-2   -1.758934583228560E-2   -4.282779758391635E-2    4.498075900775368E-1   -2.391562806019555E-1
 6.529485538350000E9     5.506251549084824E-1   -1.088322545696857E-1   -1.677188823056792E-2   -4.341139173646817E-2   -1.776874405227653E-2   -4.300468491555409E-2    4.490839666899108E-1   -2.401713641289056E-1
 6.529495921500000E9     5.505255720798085E-1   -1.096316299567111E-1   -1.702899748659174E-2   -4.369894248655024E-2   -1.810108729690115E-2   -4.320178663652389E-2    4.484657298871859E-1   -2.414099665503230E-1
 6.529506304650000E9     5.503628556989075E-1   -1.106206568343160E-1   -1.715409369753685E-2   -4.404325756745733E-2   -1.825417399525046E-2   -4.360407772978200E-2    4.477093186206896E-1   -2.424561619546073E-1
 6.529516687800000E9     5.500541611695521E-1   -1.115484692376575E-1   -1.758438864882060E-2   -4.424890248786258E-2   -1.848169346642621E-2   -4.394710480004677E-2    4.470239871873962E-1   -2.434807291320490E-1
 6.529527070950000E9     5.497715509199795E-1   -1.124213917854982E-1   -1.764543180972109E-2   -4.449074238323669E-2   -1.881743661102017E-2   -4.411299146343926E-2    4.463736647537823E-1   -2.446321629222541E-1
 6.529537454100000E9     5.495154395932177E-1   -1.133979575139418E-1   -1.800286235440492E-2   -4.474703961676364E-2   -1.917981598911408E-2   -4.442455426445507E-2    4.456333081109388E-1   -2.457318049978718E-1
 6.529547837250000E9     5.492671878199179E-1   -1.145120041960717E-1   -1.826413030672621E-2   -4.504935276974255E-2   -1.937262673114409E-2   -4.470123628315405E-2    4.448950278130150E-1   -2.468372662406166E-1
 6.529558220400000E9     5.491366264096214E-1   -1.152621393112811E-1   -1.861369340618120E-2   -4.552082800347380E-2   -1.964139142188788E-2   -4.504761597122178E-2    4.441700704956511E-1   -2.478699491962914E-1
 6.529568603550000E9     5.488000304858500E-1   -1.161956572215148E-1   -1.877647603797681E-2   -4.575409665847647E-2   -1.988741650855400E-2   -4.540664135219543E-2    4.434521069252792E-1   -2.491773245859189E-1
 6.529578986700000E9     5.485892128268144E-1   -1.171007590377861E-1   -1.907200292119272E-2   -4.601816305604577E-2   -2.017311538790575E-2   -4.564613869677137E-2    4.426169170780386E-1   -2.500900188884125E-1
 6.529589369850000E9     5.483713129630174E-1   -1.181429192276913E-1   -1.937225829795933E-2   -4.643733601103017E-2   -2.047424979480993E-2   -4.597941972007649E-2    4.418912417719414E-1   -2.513109232327849E-1
 6.529599753000000E9     5.480815681832124E-1   -1.191443766828093E-1   -1.966944689622882E-2   -4.664890778708095E-2   -2.076304052694585E-2   -4.625215199148140E-2    4.410528341591795E-1   -2.525647366578866E-1
 6.529610136150000E9     5.477330809501394E-1   -1.199470590685551E-1   -1.975063214047110E-2   -4.693059171224844E-2   -2.107147363560495E-2   -4.658184773843178E-2    4.403341065870751E-1   -2.535063593548872E-1
 6.529620519300000E9     5.475798689692080E-1   -1.210914030621189E-1   -2.025832714269168E-2   -4.730127241749874E-2   -2.136274173250688E-2   -4.694648001242449E-2    4.395614841111144E-1   -2.547237136972365E-1
 6.529630902450000E9     5.472433105960425E-1   -1.218975852755841E-1   -2.035019066359402E-2   -4.761140425517119E-2   -2.159923988089765E-2   -4.718832185559570E-2    4.387632624180007E-1   -2.557999046805990E-1
 6.529641285600000E9     5.470787090125073E-1   -1.229289220649889E-1   -2.076025373956516E-2   -4.793044235155432E-2   -2.193097678663384E-2   -4.760305383371506E-2    4.379262671899117E-1   -2.570203651190592E-1
 6.529651668750000E9     5.466860968608299E-1   -1.237950026908800E-1   -2.112991946385209E-2   -4.821388388491115E-2   -2.232680372206332E-2   -4.795142636776572E-2    4.369874097875551E-1   -2.583569753868957E-1
 6.529662051900000E9     5.464545170493507E-1   -1.247695078110044E-1   -2.126029068596736E-2   -4.866165139780548E-2   -2.246936006310574E-2   -4.816743837982597E-2    4.361653661966093E-1   -2.595017463569610E-1
 6.529672435050000E9     5.461931233725508E-1   -1.257103950761735E-1   -2.168971478829711E-2   -4.911691649187047E-2   -2.291392143712497E-2   -4.856307918632082E-2    4.352008469330356E-1   -2.605485328068290E-1
 6.529682818200000E9     5.457974674471271E-1   -1.267412418579359E-1   -2.201179450794842E-2   -4.932496695059092E-2   -2.323506421715828E-2   -4.891744308715278E-2    4.345209038746622E-1   -2.618446429898152E-1
 6.529693201350000E9     5.455717326294092E-1   -1.276591235352428E-1   -2.229393956878718E-2   -4.979547559243008E-2   -2.352154654080172E-2   -4.934338565181715E-2    4.334851414594507E-1   -2.630653330517380E-1
 6.529703584500000E9     5.452761884678559E-1   -1.287061000553205E-1   -2.259437731800796E-2   -5.017676797233454E-2   -2.393724016741268E-2   -4.966876353031976E-2    4.327430835523347E-1   -2.642722247068987E-1
