#  HZ   S   RI   R     50.00 
! Rohde & Schwarz Vector Network Analyzer 
! Rohde-Schwarz,ZNB20-2Port,1311601062101988,3.16
! Created: UTC 3/21/2024, 12:59:59 AM
! freq[Hz]                re:S11                  im:S11                  re:S21                  im:S21                  re:S12                  im:S12                  re:S22                  im:S22
 6.528769825000000E9     5.602936048686487E-1   -4.893062425016016E-2   -7.126296742422980E-3   -3.003324512335048E-2   -7.667548175937633E-3   -2.996079708438037E-2    4.820344225493541E-1   -1.740179660823701E-1
 6.528780207850000E9     5.602384822059393E-1   -4.982821522660758E-2   -7.134333539899503E-3   -3.016116300308636E-2   -7.768044236843311E-3   -3.015690068818369E-2    4.814995125963983E-1   -1.750379555636871E-1
 6.528790590700000E9     5.602420630003911E-1   -5.063232914523157E-2   -7.170116951406309E-3   -3.031176833271838E-2   -7.789561039794737E-3   -3.026273293365102E-2    4.812324087924783E-1   -1.757143871013474E-1
 6.528800973550000E9     5.600536721539057E-1   -5.156174240454197E-2   -7.294389525331371E-3   -3.043700487813249E-2   -7.921895609415598E-3   -3.032098329051836E-2    4.807682691328563E-1   -1.767055213320924E-1
 6.528811356400000E9     5.599055503913366E-1   -5.227774098749537E-2   -7.431479689421225E-3   -3.053674167066067E-2   -8.051293404620441E-3   -3.047431482005149E-2    4.806537290575955E-1   -1.775726253144176E-1
 6.528821739250000E9     5.599545027531944E-1   -5.317907156574896E-2   -7.650384944310890E-3   -3.075947014613962E-2   -8.139327747946500E-3   -3.063471526430595E-2    4.802073986489488E-1   -1.784898479512725E-1
 6.528832122100000E9     5.597227862126110E-1   -5.394903593250190E-2   -7.456023679980531E-3   -3.084019915459439E-2   -8.247037159298832E-3   -3.079377974864387E-2    4.798724811448151E-1   -1.794133026055964E-1
 6.528842504950000E9     5.597751572143244E-1   -5.482095597255381E-2   -7.630052906126274E-3   -3.106375079301416E-2   -8.199720223985029E-3   -3.095450156028641E-2    4.794465435171513E-1   -1.801709779528203E-1
 6.528852887800000E9     5.597006761869681E-1   -5.575042886999927E-2   -7.867833354126927E-3   -3.127551125639848E-2   -8.384816798073571E-3   -3.103006261589807E-2    4.791549666410285E-1   -1.810249910511783E-1
 6.528863270650000E9     5.594272738279176E-1   -5.646583438986405E-2   -7.962123411533446E-3   -3.132114399767576E-2   -8.551651269122020E-3   -3.129068699337944E-2    4.788169932175263E-1   -1.820571181848865E-1
 6.528873653500000E9     5.594613948333322E-1   -5.740884112974080E-2   -7.856211895597771E-3   -3.149731561555010E-2   -8.667855856038208E-3   -3.127181728871250E-2    4.782899411329771E-1   -1.827509446632401E-1
 6.528884036350000E9     5.593041190135162E-1   -5.815042061928717E-2   -8.011833410860680E-3   -3.163384059333132E-2   -8.621163546593461E-3   -3.144662846221975E-2    4.780208313195581E-1   -1.839525809951650E-1
 6.528894419200000E9     5.592450776826333E-1   -5.896122757517710E-2   -8.247331916221852E-3   -3.178860053227075E-2   -8.759836689108992E-3   -3.169488756102644E-2    4.777744843902216E-1   -1.844793976002198E-1
 6.528904802050000E9     5.591504682247507E-1   -5.980221288781224E-2   -8.231559992725389E-3   -3.202695828255761E-2   -8.903948488916492E-3   -3.172901627420950E-2    4.773453669168136E-1   -1.856273472363963E-1
 6.528915184900000E9     5.590431100779023E-1   -6.077263489752530E-2   -8.247365912071626E-3   -3.210623314081739E-2   -9.041076115477871E-3   -3.199393811097459E-2    4.768996510385793E-1   -1.864947820907560E-1
 6.528925567750000E9     5.590073398342013E-1   -6.151945513204876E-2   -8.566944518977576E-3   -3.224465989133615E-2   -9.183551829954390E-3   -3.199446165882821E-2    4.766628889416496E-1   -1.872505449868045E-1
 6.528935950600000E9     5.589278560533715E-1   -6.236648945944755E-2   -8.552897228693993E-3   -3.247096128492308E-2   -9.266461102943399E-3   -3.222479689309285E-2    4.761096390280790E-1   -1.881793203873733E-1
 6.528946333450000E9     5.588171506756106E-1   -6.320324906358979E-2   -8.772475654285962E-3   -3.264598802947435E-2   -9.378633173716400E-3   -3.250105001923940E-2    4.757214296229667E-1   -1.890496927621598E-1
 6.528956716300000E9     5.587368520967285E-1   -6.400001438423751E-2   -8.727094802588728E-3   -3.265110433997387E-2   -9.461540612119436E-3   -3.253089578735050E-2    4.753577223091023E-1   -1.900026576027191E-1
 6.528967099150000E9     5.586104102207163E-1   -6.493282704886880E-2   -8.887074685526563E-3   -3.285125810070347E-2   -9.605699397515651E-3   -3.260553963648071E-2    4.751350355013807E-1   -1.908196805766860E-1
 6.528977482000000E9     5.583682898718150E-1   -6.566993839776913E-2   -8.931097661224697E-3   -3.298893811925237E-2   -9.737076152700436E-3   -3.288356448702751E-2    4.745595793468435E-1   -1.917175960149068E-1
 6.528987864850000E9     5.583828234370334E-1   -6.663214250385256E-2   -9.087114469765928E-3   -3.321969818516865E-2   -9.887990423904036E-3   -3.303683977011881E-2    4.741380418695808E-1   -1.927259573761161E-1
 6.528998247700000E9     5.583353138458185E-1   -6.742245283701165E-2   -9.254520375760101E-3   -3.326983049769288E-2   -9.959022359923768E-3   -3.317386360102450E-2    4.737820551567765E-1   -1.936837455339920E-1
 6.529008630550000E9     5.581278396405224E-1   -6.825813129114623E-2   -9.326315881076087E-3   -3.350355325946019E-2   -1.002170719254644E-2   -3.336348459506096E-2    4.734996272094290E-1   -1.944791176857200E-1
 6.529019013400000E9     5.579533458734450E-1   -6.920266022045479E-2   -9.561539038348065E-3   -3.350548445363554E-2   -1.026239739364493E-2   -3.344619585767993E-2    4.728903261417441E-1   -1.953907109690351E-1
 6.529029396250000E9     5.579044826422417E-1   -6.997822747484189E-2   -9.570224240803848E-3   -3.364593987812024E-2   -1.022524710778283E-2   -3.371135597523844E-2    4.725418280504718E-1   -1.962149528555871E-1
 6.529039779100000E9     5.578625285658004E-1   -7.094196245568374E-2   -9.701669157708122E-3   -3.386532462745257E-2   -1.032610979389781E-2   -3.379461371577799E-2    4.722343621888241E-1   -1.973026656009429E-1
 6.529050161950000E9     5.577277135499605E-1   -7.174531955712349E-2   -9.823823280505109E-3   -3.410441379222894E-2   -1.050501951089819E-2   -3.400078373505250E-2    4.717563731898055E-1   -1.982686870750366E-1
 6.529060544800000E9     5.575179648853738E-1   -7.248390589513770E-2   -9.888690026248377E-3   -3.441556340950543E-2   -1.063666021027276E-2   -3.415280227031597E-2    4.711979164359264E-1   -1.991903917143336E-1
 6.529070927650000E9     5.574176185373519E-1   -7.342208240903964E-2   -1.004357526840010E-2   -3.456013432770893E-2   -1.075320034192563E-2   -3.424478188165912E-2    4.708562974927695E-1   -2.002043000367982E-1
 6.529081310500000E9     5.571974256252183E-1   -7.419295285951093E-2   -1.011842776955796E-2   -3.468743008075112E-2   -1.100066871323475E-2   -3.448729547887523E-2    4.704068758097804E-1   -2.010306906162345E-1
 6.529091693350000E9     5.571640102796691E-1   -7.515381686729984E-2   -1.029898968607753E-2   -3.494767229895500E-2   -1.100818850333706E-2   -3.469051203506749E-2    4.699386146549863E-1   -2.019614904393499E-1
 6.529102076200000E9     5.571379703351385E-1   -7.592647265471578E-2   -1.041806444034753E-2   -3.507846790985928E-2   -1.122966466870619E-2   -3.488588137036130E-2    4.696245958826295E-1   -2.027683531720360E-1
 6.529112459050000E9     5.570005419083022E-1   -7.681362654715244E-2   -1.067090768272107E-2   -3.518645893232362E-2   -1.137944838448831E-2   -3.507854836070733E-2    4.689577844903232E-1   -2.038017056363596E-1
 6.529122841900000E9     5.568097417354720E-1   -7.768957674498912E-2   -1.061420125010091E-2   -3.552206204482945E-2   -1.149736613054947E-2   -3.521868241282051E-2    4.684995379158653E-1   -2.046598741666031E-1
 6.529133224750000E9     5.566823300100094E-1   -7.853353717713722E-2   -1.084073172045315E-2   -3.564508169530013E-2   -1.165122309603331E-2   -3.544332695905319E-2    4.680972242117704E-1   -2.056438379542789E-1
 6.529143607600000E9     5.565092835204729E-1   -7.949488083396043E-2   -1.087149509119583E-2   -3.592700093388976E-2   -1.176794530522150E-2   -3.560107522072304E-2    4.676352796966369E-1   -2.066715963601372E-1
 6.529153990450000E9     5.564423778038503E-1   -8.026555995424059E-2   -1.108813943700402E-2   -3.601095518412094E-2   -1.193045197401667E-2   -3.582832897054269E-2    4.671868823990031E-1   -2.074529709503707E-1
 6.529164373300000E9     5.562256052260469E-1   -8.118007879612131E-2   -1.122681801672342E-2   -3.601868009935551E-2   -1.201979175520865E-2   -3.594032763137496E-2    4.668725605794308E-1   -2.084040179970808E-1
 6.529174756150000E9     5.561543839365956E-1   -8.203983557070839E-2   -1.135901692958976E-2   -3.647231829184074E-2   -1.230195054850966E-2   -3.613630252672415E-2    4.659986795935721E-1   -2.093759022578117E-1
 6.529185139000000E9     5.559099354143177E-1   -8.300329017984208E-2   -1.155739062727562E-2   -3.666060784455465E-2   -1.233241272576556E-2   -3.640105162391204E-2    4.658575928873815E-1   -2.104163563854698E-1
 6.529195521850000E9     5.558645640102390E-1   -8.384040651657886E-2   -1.165756710618709E-2   -3.676419309477535E-2   -1.254029087637488E-2   -3.650767022012844E-2    4.653307414777410E-1   -2.114480091073105E-1
 6.529205904700000E9     5.556161690925779E-1   -8.467378658605899E-2   -1.190193600495048E-2   -3.690230547434969E-2   -1.256966148001435E-2   -3.671507591396509E-2    4.647501636947770E-1   -2.122805923629798E-1
 6.529216287550000E9     5.554892007894436E-1   -8.552057086325414E-2   -1.196365645353087E-2   -3.710750187596763E-2   -1.279259310776444E-2   -3.692523413918413E-2    4.645094495936904E-1   -2.133720396950476E-1
 6.529226670400000E9     5.553584094276977E-1   -8.635991640882697E-2   -1.220419775298562E-2   -3.740614426148122E-2   -1.302369576859031E-2   -3.719288083187115E-2    4.639354064420463E-1   -2.142871622338916E-1
 6.529237053250000E9     5.550795188163784E-1   -8.723310511282549E-2   -1.230084163411207E-2   -3.745929151066604E-2   -1.318328067254046E-2   -3.728599415689952E-2    4.632243902612631E-1   -2.151672413934825E-1
 6.529247436100000E9     5.549820371034687E-1   -8.807537755847317E-2   -1.249023271251517E-2   -3.786770116810927E-2   -1.337209511097159E-2   -3.751400583796315E-2    4.627352483325622E-1   -2.162614926205507E-1
 6.529257818950000E9     5.549302636499319E-1   -8.910533803911996E-2   -1.257440572647397E-2   -3.805138017235157E-2   -1.348282380491762E-2   -3.779159205403725E-2    4.622508579466268E-1   -2.172316915430706E-1
 6.529268201800000E9     5.547073387449936E-1   -8.991056812436769E-2   -1.263285286463887E-2   -3.819913077331442E-2   -1.366236411930920E-2   -3.795545703122828E-2    4.617581347287224E-1   -2.182358131461005E-1
 6.529278584650000E9     5.545849021100653E-1   -9.078252907412378E-2   -1.290816720766422E-2   -3.851998135510733E-2   -1.376002258945520E-2   -3.819199904866750E-2    4.612044357192520E-1   -2.191967067805211E-1
 6.529288967500000E9     5.543707071486244E-1   -9.168365504870606E-2   -1.300674961981971E-2   -3.863139667617385E-2   -1.403923375461546E-2   -3.843176477553402E-2    4.605276864246635E-1   -2.198788114665078E-1
 6.529299350350000E9     5.541544108848363E-1   -9.256434582638194E-2   -1.320910243036808E-2   -3.894586466960581E-2   -1.412742203101592E-2   -3.865425033432411E-2    4.600077168826546E-1   -2.211323596802307E-1
 6.529309733200000E9     5.540067188469838E-1   -9.342068968642320E-2   -1.348335039725496E-2   -3.908042965197168E-2   -1.433913565647314E-2   -3.881154127328560E-2    4.594311781614567E-1   -2.221086252341676E-1
 6.529320116050000E9     5.538681507545000E-1   -9.436373233059456E-2   -1.362638977919183E-2   -3.933237526313423E-2   -1.449695192149215E-2   -3.901618725870618E-2    4.588616045001710E-1   -2.232968118069604E-1
 6.529330498900000E9     5.536502035756701E-1   -9.527017939424320E-2   -1.379279310392921E-2   -3.961173648701023E-2   -1.463744778607276E-2   -3.933324964258779E-2    4.583843677573019E-1   -2.241012594860523E-1
 6.529340881750000E9     5.535403706066641E-1   -9.606475976419007E-2   -1.389800499806603E-2   -3.985204973827875E-2   -1.491615050065505E-2   -3.955122294301120E-2    4.578707877511891E-1   -2.252157251794508E-1
 6.529351264600000E9     5.531806889840116E-1   -9.716036102054433E-2   -1.428401571741163E-2   -4.007875580055398E-2   -1.503276988812235E-2   -3.989825699407393E-2    4.571421512811177E-1   -2.261548228355647E-1
 6.529361647450000E9     5.531817655649902E-1   -9.797585913484649E-2   -1.423079032503723E-2   -4.014460975195432E-2   -1.519043784642967E-2   -4.009572628399291E-2    4.565198237550205E-1   -2.271955410769185E-1
 6.529372030300000E9     5.530003577397963E-1   -9.877429159263271E-2   -1.446328170534551E-2   -4.058456639212571E-2   -1.550553107392855E-2   -4.026893102947356E-2    4.560640261028538E-1   -2.282123174705044E-1
 6.529382413150000E9     5.527449748176929E-1   -9.978839075046499E-2   -1.475386223773734E-2   -4.085493063458261E-2   -1.568317382323798E-2   -4.053251866572762E-2    4.555539558040142E-1   -2.291626685343607E-1
 6.529392796000000E9     5.525559687044463E-1   -1.006033507526873E-1   -1.473846321985096E-2   -4.104929290850409E-2   -1.578070182713997E-2   -4.069622441856292E-2    4.549630383569086E-1   -2.303458199354655E-1
 6.529403178850000E9     5.523340942908515E-1   -1.016305843297957E-1   -1.516126749104646E-2   -4.127656831021958E-2   -1.605337337810796E-2   -4.102862571920819E-2    4.541758467048358E-1   -2.313356188738817E-1
 6.529413561700000E9     5.521665241610355E-1   -1.023459525082406E-1   -1.528628270270457E-2   -4.145905090765729E-2   -1.632944733930281E-2   -4.119704497975525E-2    4.536278706239638E-1   -2.325407362377003E-1
 6.529423944550000E9     5.519763318634647E-1   -1.033124307654253E-1   -1.539132047175653E-2   -4.174071509536516E-2   -1.644235632415544E-2   -4.143619347894534E-2    4.529795693790390E-1   -2.334296720306602E-1
 6.529434327400000E9     5.518127081746149E-1   -1.041810026998691E-1   -1.579720641339697E-2   -4.202167743655325E-2   -1.669037932651565E-2   -4.178504566424281E-2    4.524295313531649E-1   -2.344230361060378E-1
 6.529444710250000E9     5.515884411399702E-1   -1.051652165391006E-1   -1.591856615871499E-2   -4.232727258163140E-2   -1.693638057282395E-2   -4.194413611446447E-2    4.518766091962904E-1   -2.355789938054452E-1
 6.529455093100000E9     5.513134658808782E-1   -1.060995002888905E-1   -1.597879952531406E-2   -4.259438418595965E-2   -1.717005683596814E-2   -4.221114347548294E-2    4.509327729563200E-1   -2.368447177635168E-1
 6.529465475950000E9     5.511688475422525E-1   -1.070271686074867E-1   -1.632744524909057E-2   -4.284448684468167E-2   -1.735953775428125E-2   -4.252109345936562E-2    4.505691745130044E-1   -2.376796857585192E-1
 6.529475858800000E9     5.509319027917834E-1   -1.079055573078842E-1   -1.669466919651620E-2   -4.306249171611640E-2   -1.764759634858159E-2   -4.281245603119143E-2    4.498581451104179E-1   -2.387882942887996E-1
 6.529486241650000E9     5.507364788229983E-1   -1.087959527276429E-1   -1.677994083805849E-2   -4.329821157595665E-2   -1.789754113727272E-2   -4.301629953430230E-2    4.491999022830157E-1   -2.398749823448701E-1
 6.529496624500000E9     5.504452448386281E-1   -1.097175874360067E-1   -1.697757404766661E-2   -4.361036716992362E-2   -1.801276938286878E-2   -4.325190905497452E-2    4.484646996144166E-1   -2.408519339588850E-1
 6.529507007350000E9     5.501948496658766E-1   -1.106328245971956E-1   -1.721656748278138E-2   -4.391458818606677E-2   -1.827765539924020E-2   -4.357537539070890E-2    4.478520135839346E-1   -2.420264425101004E-1
 6.529517390200000E9     5.499833223805465E-1   -1.115377997999554E-1   -1.746043110943985E-2   -4.429853795193837E-2   -1.852976267539237E-2   -4.397932080507366E-2    4.470656182649906E-1   -2.430524390489751E-1
 6.529527773050000E9     5.497145814900645E-1   -1.125321972703102E-1   -1.768661115568885E-2   -4.461924125466661E-2   -1.881942730312621E-2   -4.415258434768030E-2    4.464658273257566E-1   -2.439788531811085E-1
 6.529538155900000E9     5.495655513078074E-1   -1.132652080736123E-1   -1.801855790083796E-2   -4.470299755211039E-2   -1.910468358387394E-2   -4.448094927070503E-2    4.457140697810673E-1   -2.453165564702094E-1
 6.529548538750000E9     5.492419470133639E-1   -1.144024410782999E-1   -1.818059310760627E-2   -4.507705572866798E-2   -1.930218946560246E-2   -4.474262670410422E-2    4.447953278321901E-1   -2.461826386027748E-1
 6.529558921600000E9     5.491324792597936E-1   -1.152887051396283E-1   -1.832509616066062E-2   -4.548988653999660E-2   -1.957474561738798E-2   -4.506816522705094E-2    4.442023332300583E-1   -2.474887593005118E-1
 6.529569304450000E9     5.488185336083424E-1   -1.162173047383948E-1   -1.883423571351129E-2   -4.581539485666674E-2   -1.991125263256723E-2   -4.533313155755756E-2    4.433976350407504E-1   -2.486723678018764E-1
 6.529579687300000E9     5.486353414023800E-1   -1.171880104658930E-1   -1.892795531405655E-2   -4.607940150239764E-2   -2.015149095415440E-2   -4.562160648958345E-2    4.425693090912520E-1   -2.497795459124153E-1
 6.529590070150000E9     5.482547842476345E-1   -1.181554324754452E-1   -1.915583715297774E-2   -4.652882015799558E-2   -2.042331838476667E-2   -4.592079127699056E-2    4.419137047705479E-1   -2.508479831784855E-1
 6.529600453000000E9     5.479906524181791E-1   -1.191260619107147E-1   -1.958995620543298E-2   -4.663171345843012E-2   -2.070240837639618E-2   -4.631060675180698E-2    4.412083762257099E-1   -2.520373208319600E-1
 6.529610835850000E9     5.477661583733177E-1   -1.200481422131528E-1   -1.985318163761580E-2   -4.701845980079147E-2   -2.099430431092568E-2   -4.656827871962996E-2    4.401992643036001E-1   -2.530518085122488E-1
 6.529621218700000E9     5.475455614962534E-1   -1.209954246872174E-1   -2.011122965690890E-2   -4.725892937686160E-2   -2.134768579545877E-2   -4.693323045821647E-2    4.394771626880010E-1   -2.543597702114906E-1
 6.529631601550000E9     5.472477402399450E-1   -1.219251930534658E-1   -2.051377003230994E-2   -4.775496778273233E-2   -2.169756020777169E-2   -4.725436818651391E-2    4.387295388239716E-1   -2.553820751371593E-1
 6.529641984400000E9     5.469544039953927E-1   -1.229812954915496E-1   -2.072226590737790E-2   -4.796000723905258E-2   -2.179193938100843E-2   -4.755134723639675E-2    4.379669585531094E-1   -2.566267049624208E-1
 6.529652367250000E9     5.468030801765372E-1   -1.239291555475922E-1   -2.090150405957526E-2   -4.844063147519399E-2   -2.230981867535407E-2   -4.781348425934257E-2    4.370728828405903E-1   -2.578307197150298E-1
 6.529662750100000E9     5.465384332233143E-1   -1.248165709121460E-1   -2.147528208086753E-2   -4.863863359587678E-2   -2.252608101445910E-2   -4.822872021319963E-2    4.362963367443831E-1   -2.590117600284383E-1
 6.529673132950000E9     5.462397905733783E-1   -1.258496559959812E-1   -2.155947271759190E-2   -4.891032547702891E-2   -2.286074528344954E-2   -4.853814569546956E-2    4.354968381204029E-1   -2.601218414895495E-1
 6.529683515800000E9     5.458351706799126E-1   -1.267623739587280E-1   -2.203426244566150E-2   -4.952484283351846E-2   -2.314996826734585E-2   -4.894074943935636E-2    4.345520770391337E-1   -2.613981903706632E-1
 6.529693898650000E9     5.456458320048034E-1   -1.278004661662467E-1   -2.223018590878245E-2   -4.977749857935192E-2   -2.359602393900923E-2   -4.933443026425054E-2    4.336231614524229E-1   -2.624809628728952E-1
 6.529704281500000E9     5.451569231358222E-1   -1.286554552623520E-1   -2.261374928552752E-2   -5.015366792648873E-2   -2.387158749218034E-2   -4.967907160474545E-2    4.328726755658001E-1   -2.637396844183977E-1
