#  HZ   S   RI   R     50.00 
! Rohde & Schwarz Vector Network Analyzer 
! Rohde-Schwarz,ZNB20-2Port,1311601062101988,3.16
! Created: UTC 3/21/2024, 1:00:14 AM
! freq[Hz]                re:S11                  im:S11                  re:S21                  im:S21                  re:S12                  im:S12                  re:S22                  im:S22
 6.528763719000000E9     5.602979074246215E-1   -4.825655930527275E-2   -6.988868118372522E-3   -3.003371283684027E-2   -7.621226580649372E-3   -2.986423465100220E-2    4.823872144714983E-1   -1.724984967938812E-1
 6.528774152925000E9     5.603008462188864E-1   -4.913391345777229E-2   -7.078349994743317E-3   -3.016626471262879E-2   -7.666316429014633E-3   -3.005228366631591E-2    4.820712145415028E-1   -1.731474927200477E-1
 6.528784586850000E9     5.601553342640654E-1   -4.989137349779462E-2   -7.154781116660529E-3   -3.028345166847602E-2   -7.707916923726768E-3   -3.022716221058539E-2    4.817133171029299E-1   -1.741473599954092E-1
 6.528795020775000E9     5.601122726694080E-1   -5.095212096690883E-2   -7.132695016225639E-3   -3.041906055338670E-2   -7.870723402812165E-3   -3.025937354984888E-2    4.813267670832047E-1   -1.751118611410360E-1
 6.528805454700000E9     5.600772928942602E-1   -5.167501328707307E-2   -7.226814421704976E-3   -3.050398457858379E-2   -7.942986187220087E-3   -3.035873172507333E-2    4.809638711252907E-1   -1.759839387603393E-1
 6.528815888625000E9     5.599907019840800E-1   -5.247227190592871E-2   -7.327803151190600E-3   -3.068500318597271E-2   -8.045533910578226E-3   -3.055658408027398E-2    4.806883796468290E-1   -1.767028359867832E-1
 6.528826322550000E9     5.598601882224818E-1   -5.336727517681165E-2   -7.598037141211361E-3   -3.087605443488022E-2   -8.141078313124510E-3   -3.058859390596969E-2    4.803693297743422E-1   -1.777264691795203E-1
 6.528836756475000E9     5.597101500736640E-1   -5.410215427850576E-2   -7.563659549842081E-3   -3.093621912102423E-2   -8.200648991331163E-3   -3.082853899223453E-2    4.798320358714707E-1   -1.785976433038987E-1
 6.528847190400000E9     5.598127116303303E-1   -5.492358545388326E-2   -7.693038616881973E-3   -3.111399993268439E-2   -8.314335653693116E-3   -3.085765527780618E-2    4.795078717140904E-1   -1.793629296217676E-1
 6.528857624325000E9     5.596425711442026E-1   -5.578689975085655E-2   -7.727081128147902E-3   -3.118798285222627E-2   -8.418799682424647E-3   -3.113026729574802E-2    4.792601014377270E-1   -1.803708748533943E-1
 6.528868058250000E9     5.595087137249647E-1   -5.682441831114989E-2   -7.822508697377236E-3   -3.120841698466531E-2   -8.572415607319065E-3   -3.116423990598948E-2    4.789487127185025E-1   -1.810861050845555E-1
 6.528878492175000E9     5.593738016363321E-1   -5.759675405469136E-2   -7.897139377781782E-3   -3.152123803247385E-2   -8.594849358115981E-3   -3.136965715459227E-2    4.785163719503111E-1   -1.819539356963617E-1
 6.528888926100000E9     5.593287276824318E-1   -5.838655824378296E-2   -8.093572409591160E-3   -3.159801034234253E-2   -8.685425915149477E-3   -3.149182147513502E-2    4.781750527056129E-1   -1.827483572050529E-1
 6.528899360025000E9     5.592288280000991E-1   -5.920770903275237E-2   -8.187453483138053E-3   -3.178445747600472E-2   -8.853167104377582E-3   -3.169804679256723E-2    4.778406941917026E-1   -1.838564631002943E-1
 6.528909793950000E9     5.590873044952358E-1   -5.999412872199936E-2   -8.154231074708326E-3   -3.201310326288719E-2   -8.993276954125625E-3   -3.178441253563234E-2    4.774320084624645E-1   -1.847455808321607E-1
 6.528920227875000E9     5.590012064899681E-1   -6.103379941578067E-2   -8.482113719543969E-3   -3.211746190307317E-2   -9.108791405487480E-3   -3.201455805306941E-2    4.768995615917944E-1   -1.857253955948800E-1
 6.528930661800000E9     5.589507340832169E-1   -6.181826225923541E-2   -8.557870158387269E-3   -3.217561915429107E-2   -9.189123503906133E-3   -3.212607859779993E-2    4.766274530943554E-1   -1.865916380479992E-1
 6.528941095725000E9     5.588585509712826E-1   -6.261144286971995E-2   -8.588261314026119E-3   -3.232839478790515E-2   -9.354513109312654E-3   -3.217638253904179E-2    4.762014483239129E-1   -1.874815158624051E-1
 6.528951529650000E9     5.586559891877417E-1   -6.348930817385519E-2   -8.668832150369184E-3   -3.266605890945545E-2   -9.456216114686748E-3   -3.235845479266724E-2    4.759697334388855E-1   -1.882319358935891E-1
 6.528961963575000E9     5.586644620552021E-1   -6.432434135680008E-2   -8.890532245845125E-3   -3.263871971766152E-2   -9.498910543555606E-3   -3.252098406315038E-2    4.754738202719662E-1   -1.892686889405858E-1
 6.528972397500000E9     5.585816812258534E-1   -6.522658292520883E-2   -9.018727932046154E-3   -3.283989526149564E-2   -9.649903494842137E-3   -3.273946858055978E-2    4.750004310912890E-1   -1.900582971041459E-1
 6.528982831425000E9     5.584864559222643E-1   -6.606346352748828E-2   -9.083525818574294E-3   -3.301573978200023E-2   -9.706390686374760E-3   -3.277951761131737E-2    4.746223603170147E-1   -1.910560139540483E-1
 6.528993265350000E9     5.583086060494455E-1   -6.684560395929817E-2   -9.167152518926811E-3   -3.315211890125903E-2   -9.856197953560382E-3   -3.300779841448159E-2    4.741539881568751E-1   -1.920337787569276E-1
 6.529003699275000E9     5.581717880279008E-1   -6.776192841675238E-2   -9.276822033089469E-3   -3.332837248646713E-2   -9.953181454821615E-3   -3.316102866775561E-2    4.739079035063174E-1   -1.928891895196838E-1
 6.529014133200000E9     5.580473841382957E-1   -6.857088464394220E-2   -9.403028820381886E-3   -3.360524812174952E-2   -1.015168023545380E-2   -3.338211429244708E-2    4.732956706531648E-1   -1.937878466592287E-1
 6.529024567125000E9     5.579899050196880E-1   -6.946236634592742E-2   -9.421761100968502E-3   -3.371570963007652E-2   -1.017472863457532E-2   -3.346463047679410E-2    4.731510186860658E-1   -1.945566707888656E-1
 6.529035001050000E9     5.577894149896186E-1   -7.030636455271753E-2   -9.511746336478451E-3   -3.380295437802029E-2   -1.028168686152543E-2   -3.366349161850347E-2    4.726014434534285E-1   -1.955550787428455E-1
 6.529045434975000E9     5.576609271954021E-1   -7.114429783513287E-2   -9.680335065890831E-3   -3.400444077772680E-2   -1.048872806508588E-2   -3.389946730758505E-2    4.722492809985765E-1   -1.965636023249328E-1
 6.529055868900000E9     5.574790441859457E-1   -7.216469824245270E-2   -9.815334564985578E-3   -3.420911892109470E-2   -1.051021361126102E-2   -3.404600132609673E-2    4.716729804834561E-1   -1.974661012002939E-1
 6.529066302825000E9     5.574991627477524E-1   -7.287442438411129E-2   -1.001308198965359E-2   -3.433373244970356E-2   -1.067493557705109E-2   -3.428487192607181E-2    4.713970099440402E-1   -1.981863634106120E-1
 6.529076736750000E9     5.572855714405412E-1   -7.364270290779383E-2   -1.006058150679612E-2   -3.452423405064671E-2   -1.083468564618796E-2   -3.438124564864736E-2    4.709299047419154E-1   -1.992905228892196E-1
 6.529087170675000E9     5.572741577853499E-1   -7.459794153178838E-2   -1.018774128624956E-2   -3.472034717424201E-2   -1.096330694998267E-2   -3.448521752433301E-2    4.704915641851821E-1   -2.002581649809776E-1
 6.529097604600000E9     5.571618665707786E-1   -7.549790617920354E-2   -1.041454117885049E-2   -3.489256609512174E-2   -1.114180896741797E-2   -3.477973256667780E-2    4.700991884899053E-1   -2.012167224139820E-1
 6.529108038525000E9     5.570531637500908E-1   -7.631288431834736E-2   -1.047421042662719E-2   -3.518785820467855E-2   -1.127572307453433E-2   -3.487180030923329E-2    4.695391561845796E-1   -2.021108526052740E-1
 6.529118472450000E9     5.567787938446994E-1   -7.719256794432976E-2   -1.056270186367045E-2   -3.527370487636424E-2   -1.145521216327681E-2   -3.505156681710788E-2    4.691176828446508E-1   -2.031552418274612E-1
 6.529128906375000E9     5.566277807936166E-1   -7.799285402803974E-2   -1.070241747418627E-2   -3.543920208958382E-2   -1.158035459025794E-2   -3.523863434117259E-2    4.685264597342390E-1   -2.040287769799106E-1
 6.529139340300000E9     5.564236518768769E-1   -7.890089284950254E-2   -1.089302579236730E-2   -3.567127315629549E-2   -1.173960848618167E-2   -3.543988042938922E-2    4.680682931843215E-1   -2.050284454133245E-1
 6.529149774225000E9     5.564316903234213E-1   -7.972689850538121E-2   -1.100606124707090E-2   -3.590759167783640E-2   -1.174696971656688E-2   -3.565210136022091E-2    4.677555903590626E-1   -2.059614561123982E-1
 6.529160208150000E9     5.562836919124357E-1   -8.061476910150142E-2   -1.108297867647160E-2   -3.598927475847030E-2   -1.190761178155726E-2   -3.582777454340509E-2    4.671747115617359E-1   -2.068683899344861E-1
 6.529170642075000E9     5.561064589035453E-1   -8.151485663275865E-2   -1.137766809927597E-2   -3.607709579783718E-2   -1.203256474692976E-2   -3.603303740077085E-2    4.667702134182261E-1   -2.078883325803575E-1
 6.529181076000000E9     5.559544573907736E-1   -8.249171765442127E-2   -1.142174927881085E-2   -3.631343033017616E-2   -1.224458783838609E-2   -3.622463697674744E-2    4.662927919215863E-1   -2.088962357680356E-1
 6.529191509925000E9     5.558835470705528E-1   -8.324972088467265E-2   -1.164346029326503E-2   -3.665898763465555E-2   -1.241366804729891E-2   -3.637601119487414E-2    4.657313910621308E-1   -2.097853082413721E-1
 6.529201943850000E9     5.556856852296517E-1   -8.420049652710383E-2   -1.173391153473586E-2   -3.687102238390907E-2   -1.245729717573345E-2   -3.661363163678930E-2    4.653824983311147E-1   -2.107393962330215E-1
 6.529212377775000E9     5.554912073173235E-1   -8.506555640537737E-2   -1.185857950058795E-2   -3.704589005136697E-2   -1.269651366722361E-2   -3.677649745541415E-2    4.647635026486380E-1   -2.116447723060376E-1
 6.529222811700000E9     5.553489124466042E-1   -8.592937842164583E-2   -1.209837905010972E-2   -3.730688968721879E-2   -1.280233208258388E-2   -3.695331478969383E-2    4.643393695746826E-1   -2.128543132130642E-1
 6.529233245625000E9     5.551436594655702E-1   -8.677896302878919E-2   -1.212800348771882E-2   -3.754633031470279E-2   -1.312388690561064E-2   -3.723304591396196E-2    4.638022044017334E-1   -2.137055881517885E-1
 6.529243679550000E9     5.550278375924069E-1   -8.763252490219478E-2   -1.225873955070139E-2   -3.758704635315308E-2   -1.315809184540623E-2   -3.737810523927922E-2    4.632808176948107E-1   -2.147626559074306E-1
 6.529254113475000E9     5.548777687947772E-1   -8.858408760863012E-2   -1.250719695610558E-2   -3.793273202168192E-2   -1.336272501148588E-2   -3.760268535510067E-2    4.627802333339948E-1   -2.156979528495790E-1
 6.529264547400000E9     5.547311633360156E-1   -8.945339004255565E-2   -1.273945556890070E-2   -3.815067328526143E-2   -1.353224010302648E-2   -3.778727354822740E-2    4.623163517516154E-1   -2.167173142926186E-1
 6.529274981325000E9     5.545845192554415E-1   -9.029247412463791E-2   -1.274618076297441E-2   -3.830858442430693E-2   -1.365948709900304E-2   -3.796842277142808E-2    4.617271352207780E-1   -2.177192423603426E-1
 6.529285415250000E9     5.543980472603153E-1   -9.126141728706019E-2   -1.290302403033555E-2   -3.843891222589340E-2   -1.382976700288583E-2   -3.825525260833217E-2    4.610772425692450E-1   -2.186329326173454E-1
 6.529295849175000E9     5.543090491465885E-1   -9.218008170974863E-2   -1.306412190690398E-2   -3.867862235169908E-2   -1.400359607597676E-2   -3.841708836626763E-2    4.606185948992895E-1   -2.195582216410060E-1
 6.529306283100000E9     5.540866146130294E-1   -9.287193415810854E-2   -1.331349293969745E-2   -3.912356013835397E-2   -1.413051411119214E-2   -3.865590433255986E-2    4.601487916855497E-1   -2.207497011818853E-1
 6.529316717025000E9     5.538239167137381E-1   -9.380214080826639E-2   -1.346526152815968E-2   -3.922901764034754E-2   -1.433990284169934E-2   -3.902792116826668E-2    4.596767045312927E-1   -2.215949498172537E-1
 6.529327150950000E9     5.536970000187952E-1   -9.477077205712869E-2   -1.360762311977967E-2   -3.941303392473316E-2   -1.463981893545500E-2   -3.911738403093491E-2    4.589903215415838E-1   -2.227270203741545E-1
 6.529337584875000E9     5.535556920605778E-1   -9.574166091007676E-2   -1.375770115182242E-2   -3.959803827826248E-2   -1.481878812241801E-2   -3.927131055262628E-2    4.583219366575380E-1   -2.234953182908037E-1
 6.529348018800000E9     5.533392921249481E-1   -9.661420138787526E-2   -1.398426122539435E-2   -3.993080582181154E-2   -1.489075708431983E-2   -3.951972637304952E-2    4.577667279668081E-1   -2.245546650923236E-1
 6.529358452725000E9     5.531019931896126E-1   -9.745010643383448E-2   -1.413170928837802E-2   -4.022623995012709E-2   -1.508614931132044E-2   -3.984199850951972E-2    4.573285037747108E-1   -2.256944173359194E-1
 6.529368886650000E9     5.529706168457090E-1   -9.831829697993297E-2   -1.432256984685424E-2   -4.027084603412753E-2   -1.525605528105168E-2   -4.012219490208236E-2    4.567648075780323E-1   -2.267102945679539E-1
 6.529379320575000E9     5.528163977414715E-1   -9.928057859892601E-2   -1.450148015092654E-2   -4.057092824675416E-2   -1.543613630692609E-2   -4.033442611344352E-2    4.561587645193140E-1   -2.276827468681069E-1
 6.529389754500000E9     5.526558303748494E-1   -1.002328120176761E-1   -1.474059416581468E-2   -4.082958671975881E-2   -1.576093281180755E-2   -4.051481289590725E-2    4.555355422563146E-1   -2.288414793244609E-1
 6.529400188425000E9     5.525681405482090E-1   -1.011238639364000E-1   -1.493247426148075E-2   -4.104230983355458E-2   -1.595055125479613E-2   -4.079788406641666E-2    4.550506105140328E-1   -2.298463275516359E-1
 6.529410622350000E9     5.521698611961871E-1   -1.021386961211711E-1   -1.514787033667982E-2   -4.129767493457254E-2   -1.606744458446245E-2   -4.106198665268242E-2    4.543155908579773E-1   -2.308093817712447E-1
 6.529421056275000E9     5.518804306004063E-1   -1.029491641995156E-1   -1.547719794580101E-2   -4.158446317267403E-2   -1.632311750498099E-2   -4.125505952262663E-2    4.537862484277358E-1   -2.318462972168107E-1
 6.529431490200000E9     5.518480041157369E-1   -1.038518479194052E-1   -1.563224321605021E-2   -4.188387445988261E-2   -1.658637233331192E-2   -4.154342217358610E-2    4.529739623671873E-1   -2.329374212029887E-1
 6.529441924125000E9     5.516868461932234E-1   -1.046055925072896E-1   -1.579234838517710E-2   -4.212477115377451E-2   -1.677511749128360E-2   -4.178986361234043E-2    4.523846277400451E-1   -2.340121337444726E-1
 6.529452358050000E9     5.514778684314329E-1   -1.055952784257348E-1   -1.603074868565401E-2   -4.227297918103493E-2   -1.697658432974202E-2   -4.207369217122258E-2    4.518490044080802E-1   -2.350401958940829E-1
 6.529462791975000E9     5.510928902433672E-1   -1.065526381452735E-1   -1.617049896106790E-2   -4.266742307026388E-2   -1.713873287172164E-2   -4.233097396674868E-2    4.511306346227582E-1   -2.360770270114390E-1
 6.529473225900000E9     5.509625885049156E-1   -1.074212816631044E-1   -1.645908119187766E-2   -4.294306683167270E-2   -1.742538141077484E-2   -4.254313613250205E-2    4.504116054901615E-1   -2.372017478280536E-1
 6.529483659825000E9     5.506271402943805E-1   -1.083106143382135E-1   -1.661568769619377E-2   -4.320646464311399E-2   -1.767000060901697E-2   -4.276896246049090E-2    4.497581246769996E-1   -2.383290504973295E-1
 6.529494093750000E9     5.505401499260891E-1   -1.093974270537230E-1   -1.696153531530986E-2   -4.349316149488503E-2   -1.800545713542370E-2   -4.304014668459801E-2    4.490374282846637E-1   -2.394289497618817E-1
 6.529504527675000E9     5.502694444760534E-1   -1.101976653262232E-1   -1.711202696369783E-2   -4.395656061482230E-2   -1.812114827673443E-2   -4.343089506433826E-2    4.485865630379304E-1   -2.404812867305733E-1
 6.529514961600000E9     5.500276364332258E-1   -1.112613363829151E-1   -1.727387338638247E-2   -4.390859286569692E-2   -1.854897252600693E-2   -4.363429264805132E-2    4.475369193630276E-1   -2.415763243395545E-1
 6.529525395525000E9     5.499385158085596E-1   -1.121344527890588E-1   -1.756636782492893E-2   -4.436980070459066E-2   -1.866833734685645E-2   -4.394792639779915E-2    4.470816126273883E-1   -2.428194529268386E-1
 6.529535829450000E9     5.496250347799754E-1   -1.131317594548885E-1   -1.783103272996880E-2   -4.450027750156375E-2   -1.886151270967781E-2   -4.431840120462645E-2    4.462373057769490E-1   -2.438096010992898E-1
 6.529546263375000E9     5.493909537771627E-1   -1.138875785583434E-1   -1.801986650167421E-2   -4.482075320576743E-2   -1.910823049215631E-2   -4.465030679157898E-2    4.455379854121526E-1   -2.448672758016487E-1
 6.529556697300000E9     5.489426079255781E-1   -1.149437374532392E-1   -1.830621928268960E-2   -4.528615349225118E-2   -1.948783128132535E-2   -4.491843458767553E-2    4.449427689222439E-1   -2.459310709994936E-1
 6.529567131225000E9     5.487825542919336E-1   -1.158443452236934E-1   -1.851442361132141E-2   -4.566346209286529E-2   -1.964880042043527E-2   -4.507993639649728E-2    4.441018040160883E-1   -2.470564530304364E-1
 6.529577565150000E9     5.485395265826847E-1   -1.169141698578176E-1   -1.879835867447592E-2   -4.577130126952553E-2   -2.004216871143196E-2   -4.546418625072113E-2    4.434300049412352E-1   -2.482130692664175E-1
 6.529587999075000E9     5.483215575560549E-1   -1.177888502518113E-1   -1.914289933902536E-2   -4.609891545206168E-2   -2.028185142303052E-2   -4.578373427860782E-2    4.424032927262413E-1   -2.492750814636128E-1
 6.529598433000000E9     5.480119450080989E-1   -1.188206036783726E-1   -1.956097461430386E-2   -4.644512474819105E-2   -2.056606798788587E-2   -4.605264588707730E-2    4.418129208843465E-1   -2.505217455633968E-1
 6.529608866925000E9     5.478164756648103E-1   -1.196786645331641E-1   -1.967817597990981E-2   -4.667956217715899E-2   -2.083230469340520E-2   -4.642977835634685E-2    4.409994659530916E-1   -2.516427706985214E-1
 6.529619300850000E9     5.476123571351067E-1   -1.206059886849459E-1   -1.991004624185874E-2   -4.718229354891879E-2   -2.114852177057150E-2   -4.668133089922451E-2    4.401724971292446E-1   -2.528629356511827E-1
 6.529629734775000E9     5.473293438210766E-1   -1.215127774383615E-1   -2.032948814748734E-2   -4.753857881847986E-2   -2.147829170506028E-2   -4.705973232575775E-2    4.392647962625407E-1   -2.540132617194091E-1
 6.529640168700000E9     5.469990892320498E-1   -1.224734682147685E-1   -2.054202414555115E-2   -4.776445578557978E-2   -2.164350110185568E-2   -4.749743492755110E-2    4.386440733406932E-1   -2.551698309414279E-1
 6.529650602625000E9     5.468116962240617E-1   -1.234449378264032E-1   -2.089766122695786E-2   -4.809002307893584E-2   -2.216119366216119E-2   -4.767583449597491E-2    4.376172801979150E-1   -2.562163993115716E-1
 6.529661036550000E9     5.464147241926082E-1   -1.244027953013967E-1   -2.131509344921782E-2   -4.853410815187015E-2   -2.238656156709701E-2   -4.804595437228455E-2    4.370090698524805E-1   -2.574099837993247E-1
 6.529671470475000E9     5.462301827994059E-1   -1.253614525575349E-1   -2.140205153948410E-2   -4.889225800779339E-2   -2.268436368485904E-2   -4.837265654011438E-2    4.361561659296155E-1   -2.587511710757285E-1
 6.529681904400000E9     5.459579400781263E-1   -1.263323502779352E-1   -2.172487991331627E-2   -4.932227141911356E-2   -2.301739542300734E-2   -4.866124342004345E-2    4.351386844504736E-1   -2.599325115191506E-1
 6.529692338325000E9     5.456367632737527E-1   -1.273237322421864E-1   -2.202205213751692E-2   -4.962418259218632E-2   -2.340691309128344E-2   -4.910139412298434E-2    4.343294695190026E-1   -2.611584959492428E-1
 6.529702772250000E9     5.453379915130011E-1   -1.283412372018668E-1   -2.250415854524699E-2   -4.997460908446890E-2   -2.370849341678728E-2   -4.951719027325491E-2    4.333690412156693E-1   -2.621822038845671E-1
