#  HZ   S   RI   R     50.00 
! Rohde & Schwarz Vector Network Analyzer 
! Rohde-Schwarz,ZNB20-2Port,1311601062101988,3.16
! Created: UTC 3/21/2024, 1:00:26 AM
! freq[Hz]                re:S11                  im:S11                  re:S21                  im:S21                  re:S12                  im:S12                  re:S22                  im:S22
 6.528762116000000E9     5.602947629334604E-1   -4.811478110957069E-2   -6.948932172814567E-3   -2.978244492121309E-2   -7.511978711978963E-3   -2.981557764168676E-2    4.825790460543870E-1   -1.711767166959667E-1
 6.528772574025000E9     5.602870406180064E-1   -4.884257147666914E-2   -7.031853738785948E-3   -3.003586936400535E-2   -7.645041015102614E-3   -2.992374293316817E-2    4.822735459140041E-1   -1.719937155855659E-1
 6.528783032050000E9     5.602931657949582E-1   -4.964892232652109E-2   -7.130303690987774E-3   -3.017006008286897E-2   -7.710866222067047E-3   -3.005695834002386E-2    4.819554952840658E-1   -1.729985618217499E-1
 6.528793490075000E9     5.600581774932636E-1   -5.056619147576408E-2   -7.130304844151277E-3   -3.027350041357595E-2   -7.808705892359928E-3   -3.012236217464432E-2    4.814915036091130E-1   -1.739121778533165E-1
 6.528803948100000E9     5.600780143029710E-1   -5.145630155410090E-2   -7.367183596944910E-3   -3.044251403936581E-2   -7.967339684220620E-3   -3.031734427176342E-2    4.812249058598722E-1   -1.748451506749159E-1
 6.528814406125000E9     5.599581973475399E-1   -5.218000558292030E-2   -7.386220709409438E-3   -3.055791755618336E-2   -8.038270162516922E-3   -3.043059715630535E-2    4.808821364225424E-1   -1.755707938880698E-1
 6.528824864150000E9     5.597682118752751E-1   -5.309034539524500E-2   -7.455939408366644E-3   -3.079597468343963E-2   -8.022572143748906E-3   -3.055526334547354E-2    4.805021696871757E-1   -1.767259803045620E-1
 6.528835322175000E9     5.597773310698323E-1   -5.394497732950158E-2   -7.498062504755210E-3   -3.090393161658377E-2   -8.158738740546392E-3   -3.069437437692061E-2    4.801784463549950E-1   -1.773363011224546E-1
 6.528845780200000E9     5.596541744228636E-1   -5.477089506911499E-2   -7.687877806962866E-3   -3.109028551742795E-2   -8.233062248591163E-3   -3.076782310865664E-2    4.797291438378631E-1   -1.782902462480219E-1
 6.528856238225000E9     5.595695634741993E-1   -5.564123371465067E-2   -7.675920223832553E-3   -3.116316887929527E-2   -8.276614990880787E-3   -3.099739333576374E-2    4.793764584126826E-1   -1.791839862275890E-1
 6.528866696250000E9     5.594932588359809E-1   -5.644164307355597E-2   -7.737401527956828E-3   -3.126867948946690E-2   -8.484855457718656E-3   -3.114278092973230E-2    4.789660758908731E-1   -1.800045053762089E-1
 6.528877154275000E9     5.593324983527970E-1   -5.729539831698538E-2   -7.905053709544276E-3   -3.130798393770205E-2   -8.572256679948060E-3   -3.129072519029184E-2    4.786601120449984E-1   -1.810119622804205E-1
 6.528887612300000E9     5.593437464165191E-1   -5.821257057574696E-2   -7.854802518040710E-3   -3.156926405887527E-2   -8.745096111777713E-3   -3.140818626126726E-2    4.782282175694786E-1   -1.818826795413016E-1
 6.528898070325000E9     5.592314266573711E-1   -5.908616093121922E-2   -8.156696484694251E-3   -3.168302698633481E-2   -8.892734686907048E-3   -3.155420207378173E-2    4.779123367586171E-1   -1.826633637277209E-1
 6.528908528350000E9     5.590844737962707E-1   -5.984523199980627E-2   -8.322521956782339E-3   -3.176322446813096E-2   -8.799307306834130E-3   -3.164343815379904E-2    4.776205274500182E-1   -1.835270374813467E-1
 6.528918986375000E9     5.590345611988201E-1   -6.069424843484048E-2   -8.411679024524792E-3   -3.199354214395841E-2   -8.973970771571365E-3   -3.183273368926991E-2    4.772703759106066E-1   -1.844498938292089E-1
 6.528929444400000E9     5.590114371962335E-1   -6.154287302593787E-2   -8.527943974741822E-3   -3.216163358274429E-2   -9.085513305298745E-3   -3.200748618835884E-2    4.768006469292526E-1   -1.853582871063137E-1
 6.528939902425000E9     5.588750636089594E-1   -6.236324890146198E-2   -8.606105928522251E-3   -3.224289022716600E-2   -9.219281674419010E-3   -3.215042766428443E-2    4.764994576705392E-1   -1.863383053935017E-1
 6.528950360450000E9     5.587333041625464E-1   -6.325067255960695E-2   -8.609562006631544E-3   -3.256835512102753E-2   -9.270063578733726E-3   -3.233596115033249E-2    4.760795926728650E-1   -1.872083062099573E-1
 6.528960818475000E9     5.586852589688934E-1   -6.412102504121471E-2   -8.656755648098976E-3   -3.270758613561708E-2   -9.511393723440028E-3   -3.246657474753646E-2    4.757389652366173E-1   -1.881436937187271E-1
 6.528971276500000E9     5.585110730996029E-1   -6.498824066371275E-2   -8.880226592595976E-3   -3.282907038676350E-2   -9.555167107420895E-3   -3.259457480495948E-2    4.753435835312478E-1   -1.889624883588958E-1
 6.528981734525000E9     5.585178721881487E-1   -6.587243962296607E-2   -8.901097507455486E-3   -3.302355697152359E-2   -9.637607373827031E-3   -3.274171188382291E-2    4.747451852228552E-1   -1.900330585313909E-1
 6.528992192550000E9     5.582665019745418E-1   -6.662770563884525E-2   -8.997030747591891E-3   -3.310154009228053E-2   -9.866240512107521E-3   -3.299381398464682E-2    4.744485497365162E-1   -1.909012300097116E-1
 6.529002650575000E9     5.580906770512226E-1   -6.756386474025207E-2   -9.071835411782192E-3   -3.323637431609226E-2   -9.860487134783727E-3   -3.308357502255319E-2    4.740234327501519E-1   -1.917251334612363E-1
 6.529013108600000E9     5.581071005667003E-1   -6.835824442963322E-2   -9.205981710613412E-3   -3.343959132842127E-2   -1.007384157601952E-2   -3.323774242268537E-2    4.735261721562285E-1   -1.926272128099513E-1
 6.529023566625000E9     5.579692903127661E-1   -6.915142079224955E-2   -9.268729651099525E-3   -3.361372835689350E-2   -1.024240844215100E-2   -3.351656227486961E-2    4.732327489400563E-1   -1.936061526100145E-1
 6.529034024650000E9     5.579031681489873E-1   -7.007711590877619E-2   -9.550729343121433E-3   -3.377920186692995E-2   -1.027085586107069E-2   -3.363779027429691E-2    4.727747501011643E-1   -1.946004644456687E-1
 6.529044482675000E9     5.577053858414526E-1   -7.098880948705731E-2   -9.657028593169349E-3   -3.396107834155297E-2   -1.037826877452801E-2   -3.390007930476504E-2    4.724832927105870E-1   -1.954386579456280E-1
 6.529054940700000E9     5.575800674141097E-1   -7.182851536012329E-2   -9.725651367846037E-3   -3.418237839839805E-2   -1.051432362067828E-2   -3.391521861081790E-2    4.720556334021218E-1   -1.963250992939180E-1
 6.529065398725000E9     5.574430999578428E-1   -7.265265235347020E-2   -9.896564527350896E-3   -3.445219666753496E-2   -1.059761684990535E-2   -3.410967141470399E-2    4.715437236131363E-1   -1.972558676178634E-1
 6.529075856750000E9     5.572736682619900E-1   -7.351667501075934E-2   -1.003816117865145E-2   -3.446307959471996E-2   -1.081391352620768E-2   -3.430681840364260E-2    4.711806038911827E-1   -1.982417836891084E-1
 6.529086314775000E9     5.571749954428814E-1   -7.432378062360397E-2   -1.002861740693496E-2   -3.477099553976189E-2   -1.091638076987045E-2   -3.446325571890115E-2    4.707117983849269E-1   -1.990367153664575E-1
 6.529096772800000E9     5.571840540160345E-1   -7.523753805658798E-2   -1.028473454742274E-2   -3.474798120562021E-2   -1.096648794091145E-2   -3.452542223985301E-2    4.702518952271914E-1   -2.002250276899489E-1
 6.529107230825000E9     5.568297703141222E-1   -7.614985357444787E-2   -1.025599072233619E-2   -3.490192005781468E-2   -1.122002023961924E-2   -3.490957604257709E-2    4.698530816542216E-1   -2.009805257998224E-1
 6.529117688850000E9     5.568852958938068E-1   -7.710473799556676E-2   -1.052591577905643E-2   -3.502074219690152E-2   -1.130164193331635E-2   -3.495150677360339E-2    4.693986108071777E-1   -2.020940131116208E-1
 6.529128146875000E9     5.567009069098633E-1   -7.785794546331537E-2   -1.057332001494381E-2   -3.540811751810652E-2   -1.136161115620380E-2   -3.519823359148758E-2    4.688692040780230E-1   -2.028312868959780E-1
 6.529138604900000E9     5.564948986925358E-1   -7.877218301061450E-2   -1.079897505913993E-2   -3.550799338255872E-2   -1.161233159629117E-2   -3.541444849029937E-2    4.684350634914588E-1   -2.038775348291566E-1
 6.529149062925000E9     5.564739718355485E-1   -7.966065117290431E-2   -1.100801827922016E-2   -3.572709753644814E-2   -1.170346032839144E-2   -3.551887222564337E-2    4.679589413458040E-1   -2.048183966221291E-1
 6.529159520950000E9     5.562930578828166E-1   -8.052619258620383E-2   -1.117888728934721E-2   -3.595404429241686E-2   -1.183092520967583E-2   -3.585666314998345E-2    4.675805854092966E-1   -2.056898961293459E-1
 6.529169978975000E9     5.561214940507833E-1   -8.128189920958649E-2   -1.124223293780100E-2   -3.619645171108631E-2   -1.196263559905743E-2   -3.602519136050336E-2    4.670184414168429E-1   -2.066634527891293E-1
 6.529180437000000E9     5.559932968140135E-1   -8.222153703572474E-2   -1.134097386670356E-2   -3.645724435996155E-2   -1.212324352259395E-2   -3.602471721783319E-2    4.664560267584126E-1   -2.076842416725652E-1
 6.529190895025000E9     5.559062860836717E-1   -8.313706019614854E-2   -1.153823714390578E-2   -3.660207305909148E-2   -1.238744053084757E-2   -3.635572035997509E-2    4.659905589581526E-1   -2.087765502839137E-1
 6.529201353050000E9     5.556502624691461E-1   -8.396832108209712E-2   -1.165876193969338E-2   -3.665917025200235E-2   -1.256488647691366E-2   -3.645752867288735E-2    4.654857528839531E-1   -2.097123033149126E-1
 6.529211811075000E9     5.555453054085446E-1   -8.483044153014882E-2   -1.190490466242092E-2   -3.694471972161461E-2   -1.256200569395603E-2   -3.662440478073035E-2    4.650051509333056E-1   -2.104767602059522E-1
 6.529222269100000E9     5.553966575112924E-1   -8.581231369605291E-2   -1.195903175676334E-2   -3.724310070854466E-2   -1.285120397165074E-2   -3.695830880056063E-2    4.645812653372399E-1   -2.116338976023567E-1
 6.529232727125000E9     5.551675182224484E-1   -8.658651351146941E-2   -1.214832543267830E-2   -3.735983148787384E-2   -1.284995412177995E-2   -3.712369819988155E-2    4.640707792858174E-1   -2.126705481537421E-1
 6.529243185150000E9     5.550846551651603E-1   -8.761278026298570E-2   -1.229793276885648E-2   -3.761573122989115E-2   -1.314856143972937E-2   -3.732355891409718E-2    4.635411600280083E-1   -2.134974568604172E-1
 6.529253643175000E9     5.549216698025573E-1   -8.843879767379455E-2   -1.220240586037347E-2   -3.780415314591919E-2   -1.328335035654466E-2   -3.750649364499556E-2    4.630504151643372E-1   -2.144263756906852E-1
 6.529264101200000E9     5.547965907144211E-1   -8.936585026960614E-2   -1.259748780080822E-2   -3.810156649306828E-2   -1.347760590390166E-2   -3.773311401003449E-2    4.624055010363561E-1   -2.154985789192336E-1
 6.529274559225000E9     5.545614175364716E-1   -9.020001081374639E-2   -1.276753186605990E-2   -3.823133087197635E-2   -1.364083579754260E-2   -3.789367520131085E-2    4.619937294677094E-1   -2.166199838347972E-1
 6.529285017250000E9     5.544287504994145E-1   -9.100709697397755E-2   -1.285038946101035E-2   -3.824256963733379E-2   -1.378632195791405E-2   -3.823981409545829E-2    4.614077244159771E-1   -2.174562231681400E-1
 6.529295475275000E9     5.542469639749321E-1   -9.187334340752536E-2   -1.314352383603271E-2   -3.867639634381707E-2   -1.392773853961408E-2   -3.832267949737363E-2    4.609123205315667E-1   -2.185735116887139E-1
 6.529305933300000E9     5.539309501519000E-1   -9.291128105063751E-2   -1.332223704506013E-2   -3.888583045988608E-2   -1.424062595147101E-2   -3.862195275105066E-2    4.603923380001551E-1   -2.195105138815125E-1
 6.529316391325000E9     5.539554574158689E-1   -9.365018453537771E-2   -1.343023358618627E-2   -3.905436762290004E-2   -1.423343569393250E-2   -3.882771644813794E-2    4.597616003325687E-1   -2.204733590143733E-1
 6.529326849350000E9     5.537606906711010E-1   -9.468485274411927E-2   -1.349051441172856E-2   -3.922891184133613E-2   -1.441144925962910E-2   -3.899428555060209E-2    4.591914175533194E-1   -2.214822190758692E-1
 6.529337307375000E9     5.535318015093833E-1   -9.546973840715885E-2   -1.374607460777098E-2   -3.953677365867131E-2   -1.468888149142552E-2   -3.921350393024876E-2    4.587244089880680E-1   -2.223844583857256E-1
 6.529347765400000E9     5.532628950360249E-1   -9.644740703803978E-2   -1.391813545290875E-2   -3.985411598731373E-2   -1.482536297433708E-2   -3.953089795852117E-2    4.580444358015147E-1   -2.234992832668211E-1
 6.529358223425000E9     5.531496044548790E-1   -9.735384438266706E-2   -1.407940139920216E-2   -4.000675319341490E-2   -1.509934717308469E-2   -3.967564992089583E-2    4.574537780569047E-1   -2.246014539559622E-1
 6.529368681450000E9     5.530050706830545E-1   -9.831289134914448E-2   -1.423961162942710E-2   -4.025845580318640E-2   -1.521414331754182E-2   -3.992978043021393E-2    4.568363214150258E-1   -2.255458696225506E-1
 6.529379139475000E9     5.528459258546130E-1   -9.917909594339440E-2   -1.452414847611876E-2   -4.041669438649478E-2   -1.546152811352890E-2   -4.020654686778313E-2    4.563167959944163E-1   -2.266504365470695E-1
 6.529389597500000E9     5.526756893537402E-1   -1.000439058005622E-1   -1.467664964646190E-2   -4.074627032076178E-2   -1.561243757118769E-2   -4.049496784116836E-2    4.557396012249805E-1   -2.276854334895523E-1
 6.529400055525000E9     5.523389500972454E-1   -1.009671412454720E-1   -1.485739195469775E-2   -4.110557252516862E-2   -1.581394978321366E-2   -4.075997250973711E-2    4.553481345203951E-1   -2.286338564572325E-1
 6.529410513550000E9     5.521804461023710E-1   -1.017962390896294E-1   -1.502306557918870E-2   -4.133943157376312E-2   -1.611965002185695E-2   -4.085570637326589E-2    4.546361309083295E-1   -2.298156690814042E-1
 6.529420971575000E9     5.519439221928925E-1   -1.026834411595670E-1   -1.518130387010935E-2   -4.148062344208722E-2   -1.620906687331432E-2   -4.120633491924540E-2    4.538076110805019E-1   -2.307541200567234E-1
 6.529431429600000E9     5.517404394266316E-1   -1.037667399318069E-1   -1.544981497055469E-2   -4.173644687958779E-2   -1.644291691634444E-2   -4.149009365434236E-2    4.532211225386025E-1   -2.317460873202687E-1
 6.529441887625000E9     5.515557480600942E-1   -1.045318272312639E-1   -1.572947971538538E-2   -4.200990735084463E-2   -1.664650710522651E-2   -4.163030659971261E-2    4.527258006324998E-1   -2.327824094368001E-1
 6.529452345650000E9     5.513107916764168E-1   -1.054627308667370E-1   -1.589968178267608E-2   -4.219811470379017E-2   -1.687317984535487E-2   -4.201389161281747E-2    4.521803573288987E-1   -2.340282473863640E-1
 6.529462803675000E9     5.511460726556230E-1   -1.063636110300043E-1   -1.613909739881501E-2   -4.258715373742301E-2   -1.703621220358782E-2   -4.209527505529504E-2    4.512666791924606E-1   -2.349738546179387E-1
 6.529473261700000E9     5.509631872279445E-1   -1.073715216261065E-1   -1.629589525286666E-2   -4.277170760325850E-2   -1.739701806471032E-2   -4.256235374088237E-2    4.507700855598959E-1   -2.361213771675868E-1
 6.529483719725000E9     5.507684773202405E-1   -1.083240582008041E-1   -1.650421955582048E-2   -4.307070857641673E-2   -1.762107432987335E-2   -4.280196715229598E-2    4.500806949204178E-1   -2.372454668474893E-1
 6.529494177750000E9     5.505588719128472E-1   -1.092240245877686E-1   -1.681898592433936E-2   -4.335015527799351E-2   -1.784181197632443E-2   -4.306984039861673E-2    4.494617378195405E-1   -2.381519380744889E-1
 6.529504635775000E9     5.503047748016699E-1   -1.102323043946254E-1   -1.700307151989623E-2   -4.367956070377581E-2   -1.812762194822390E-2   -4.326974111516005E-2    4.487557769191312E-1   -2.392790529697791E-1
 6.529515093800000E9     5.500267270993509E-1   -1.110587505096299E-1   -1.734904365194058E-2   -4.396362262999576E-2   -1.828265702451679E-2   -4.352785838812444E-2    4.479099195815761E-1   -2.404453653255681E-1
 6.529525551825000E9     5.499586608265463E-1   -1.119723601921813E-1   -1.747780731265508E-2   -4.428321082628848E-2   -1.859147325584804E-2   -4.387044817984038E-2    4.474254514212485E-1   -2.415752126946117E-1
 6.529536009850000E9     5.496987836536409E-1   -1.129269940386264E-1   -1.769535610476079E-2   -4.447896189751620E-2   -1.895854886255105E-2   -4.415947322890444E-2    4.467051008931673E-1   -2.425152440626635E-1
 6.529546467875000E9     5.493420689371579E-1   -1.138778044903066E-1   -1.792683163221693E-2   -4.474890372330664E-2   -1.898833987552266E-2   -4.450665725727114E-2    4.460423349844252E-1   -2.438597773032196E-1
 6.529556925900000E9     5.491426857309194E-1   -1.147828376205089E-1   -1.838662847156955E-2   -4.514731994938672E-2   -1.926611348074208E-2   -4.473325341393238E-2    4.451742929921544E-1   -2.448901427093137E-1
 6.529567383925000E9     5.489871845172465E-1   -1.156764046017237E-1   -1.849371426850644E-2   -4.546275014100828E-2   -1.961316644598669E-2   -4.510048911776944E-2    4.444722693123104E-1   -2.459868079316485E-1
 6.529577841950000E9     5.486044654320665E-1   -1.166992281891851E-1   -1.880524563115159E-2   -4.575401952733611E-2   -1.995825911001840E-2   -4.535924222159095E-2    4.435737637080375E-1   -2.471449028963652E-1
 6.529588299975000E9     5.484362915152050E-1   -1.175978036212689E-1   -1.897434018757619E-2   -4.603564442794471E-2   -2.013828282191695E-2   -4.569633162586025E-2    4.428975385829873E-1   -2.482186977076500E-1
 6.529598758000000E9     5.481136200864093E-1   -1.185479511178644E-1   -1.938899692042992E-2   -4.639123290243991E-2   -2.033466752085891E-2   -4.591784342608009E-2    4.421568289879442E-1   -2.493762108568990E-1
 6.529609216025000E9     5.479205881912934E-1   -1.196667402120005E-1   -1.967900019290836E-2   -4.673862169902444E-2   -2.075351952442875E-2   -4.632208624301495E-2    4.413635819860018E-1   -2.505320854890003E-1
 6.529619674050000E9     5.476335633635716E-1   -1.204208610323932E-1   -2.001800829806055E-2   -4.710853343521639E-2   -2.107407245831377E-2   -4.662848115473133E-2    4.405563773499186E-1   -2.517207431580979E-1
 6.529630132075000E9     5.472393386870694E-1   -1.215105810506280E-1   -2.010780320004443E-2   -4.735065325321284E-2   -2.137540343747101E-2   -4.699644084247995E-2    4.396987953101654E-1   -2.527663596305010E-1
 6.529640590100000E9     5.470485857296841E-1   -1.224277317255535E-1   -2.052774015244983E-2   -4.763865838792264E-2   -2.163205737053172E-2   -4.728830352783281E-2    4.389298565494670E-1   -2.540832177291269E-1
 6.529651048125000E9     5.467315368530874E-1   -1.233675058367521E-1   -2.086438695485237E-2   -4.813318033035444E-2   -2.193714856034765E-2   -4.753780063823088E-2    4.381198059065323E-1   -2.553189145885165E-1
 6.529661506150000E9     5.464005404745860E-1   -1.243052417285934E-1   -2.104209808023816E-2   -4.835446431687866E-2   -2.219055335053161E-2   -4.802220768838063E-2    4.372958761085944E-1   -2.563386957738795E-1
 6.529671964175000E9     5.462245562679313E-1   -1.252017215631721E-1   -2.142257480509118E-2   -4.874461436833886E-2   -2.266810199905768E-2   -4.826620370357423E-2    4.363772476700800E-1   -2.576484102553896E-1
 6.529682422200000E9     5.457877562628705E-1   -1.262970399125059E-1   -2.167254320061596E-2   -4.919083756845158E-2   -2.293595736463843E-2   -4.869113277576344E-2    4.356804682670922E-1   -2.587770383734939E-1
 6.529692880225000E9     5.456229934545535E-1   -1.273501886113966E-1   -2.202545160066070E-2   -4.949976156527438E-2   -2.328147813442871E-2   -4.893102618657036E-2    4.345851760144016E-1   -2.599998080562223E-1
 6.529703338250000E9     5.453199594507959E-1   -1.282497340735028E-1   -2.231639870305405E-2   -4.986245163221437E-2   -2.358865663837442E-2   -4.934300847791227E-2    4.337196318001547E-1   -2.613278991077982E-1
