#  HZ   S   RI   R     50.00 
! Rohde & Schwarz Vector Network Analyzer 
! Rohde-Schwarz,ZNB20-2Port,1311601062101988,3.16
! Created: UTC 3/21/2024, 1:00:28 AM
! freq[Hz]                re:S11                  im:S11                  re:S21                  im:S21                  re:S12                  im:S12                  re:S22                  im:S22
 6.528763404000000E9     5.603447553592310E-1   -4.814229660399133E-2   -6.941905118923589E-3   -2.984337548481334E-2   -7.474211562481606E-3   -2.980133912256128E-2    4.824903350781578E-1   -1.709814893236870E-1
 6.528773859400000E9     5.602587492259545E-1   -4.899942150755721E-2   -6.904046986428284E-3   -3.000944721609749E-2   -7.642445384022708E-3   -2.995054248276411E-2    4.821927379124488E-1   -1.719712786558120E-1
 6.528784314800000E9     5.602582854166527E-1   -4.978241896902433E-2   -6.971376999904087E-3   -3.013484695726984E-2   -7.743970132956544E-3   -2.992135984733075E-2    4.818630462531798E-1   -1.726839005498831E-1
 6.528794770200000E9     5.600017484340660E-1   -5.065124813947378E-2   -7.133426588437139E-3   -3.036285356305580E-2   -7.782305000080943E-3   -3.017993125432512E-2    4.815331579132274E-1   -1.735596195197786E-1
 6.528805225600000E9     5.601064380411067E-1   -5.159761989544309E-2   -7.241813105168682E-3   -3.048454205171503E-2   -7.788353308396983E-3   -3.024020594401012E-2    4.812175147674452E-1   -1.744967712856374E-1
 6.528815681000000E9     5.599364193631284E-1   -5.234057319289484E-2   -7.248203391599876E-3   -3.068531987675256E-2   -7.924720593492644E-3   -3.052826181156159E-2    4.808692544317236E-1   -1.753851008581784E-1
 6.528826136400000E9     5.598210810224032E-1   -5.320806491903283E-2   -7.455557927239884E-3   -3.063046696069792E-2   -8.116073461885360E-3   -3.058591855400813E-2    4.804523606791691E-1   -1.761864767373378E-1
 6.528836591800000E9     5.598297974761108E-1   -5.397578615236538E-2   -7.497018425671425E-3   -3.087971212354366E-2   -8.147283143952366E-3   -3.080045274371940E-2    4.801752190646383E-1   -1.771327391819486E-1
 6.528847047200000E9     5.596867873607688E-1   -5.486972741625486E-2   -7.586193452754158E-3   -3.097501319076042E-2   -8.297509951272259E-3   -3.098578543665520E-2    4.797825439004806E-1   -1.781267029426200E-1
 6.528857502600000E9     5.595317303712157E-1   -5.589749055277252E-2   -7.617518866901598E-3   -3.119161874462266E-2   -8.389310742559559E-3   -3.095714534196727E-2    4.793783031885684E-1   -1.788211186890366E-1
 6.528867958000000E9     5.594927498360780E-1   -5.651556173164059E-2   -7.762074347431382E-3   -3.131759079344274E-2   -8.497756781058980E-3   -3.104535404170929E-2    4.790410913413134E-1   -1.797941727686216E-1
 6.528878413400000E9     5.593560188351027E-1   -5.742471544265962E-2   -7.860068139643375E-3   -3.133241587679757E-2   -8.562515599368577E-3   -3.126534776466681E-2    4.788222497196413E-1   -1.807020009137269E-1
 6.528888868800000E9     5.592978808266161E-1   -5.821364959116673E-2   -7.983985780592368E-3   -3.152725079262766E-2   -8.624694782531321E-3   -3.149001866307208E-2    4.785344683824582E-1   -1.813443750852434E-1
 6.528899324200000E9     5.591214280985198E-1   -5.911910566944346E-2   -8.062586567591831E-3   -3.163872366736320E-2   -8.792197143360991E-3   -3.160726025384387E-2    4.780050955336652E-1   -1.823811747502151E-1
 6.528909779600000E9     5.590973392248779E-1   -5.989608734111186E-2   -8.210065793833361E-3   -3.177834817354493E-2   -8.911735747406625E-3   -3.171083555023892E-2    4.776403624247664E-1   -1.833616999751911E-1
 6.528920235000000E9     5.590619083121654E-1   -6.079306646951840E-2   -8.305787810855121E-3   -3.202862156117499E-2   -9.010661874985998E-3   -3.182552126101823E-2    4.773286309103593E-1   -1.840535753824175E-1
 6.528930690400000E9     5.589197358080643E-1   -6.161848494891130E-2   -8.357046731485946E-3   -3.213896176257670E-2   -9.094407842339489E-3   -3.195732276061605E-2    4.767338525597183E-1   -1.852062222594547E-1
 6.528941145800000E9     5.586970970500922E-1   -6.262673733903677E-2   -8.441676440314065E-3   -3.225940362141168E-2   -9.203219890104317E-3   -3.217684835541025E-2    4.764672006683903E-1   -1.861346602729001E-1
 6.528951601200000E9     5.587253334752678E-1   -6.328938889299279E-2   -8.634432671503581E-3   -3.234814384102878E-2   -9.304493343862113E-3   -3.239734916410366E-2    4.760280441334010E-1   -1.869125860244338E-1
 6.528962056600000E9     5.585387287546613E-1   -6.420576092469160E-2   -8.731460322316054E-3   -3.272783125777821E-2   -9.502226400789160E-3   -3.251795748368577E-2    4.756326181971097E-1   -1.878752845932231E-1
 6.528972512000000E9     5.585210085021606E-1   -6.494552068030554E-2   -8.815755208119279E-3   -3.286056635884163E-2   -9.527834612837478E-3   -3.265056533535938E-2    4.752955185464217E-1   -1.887284709664875E-1
 6.528982967400000E9     5.583191139193528E-1   -6.590016843173353E-2   -8.838865896682766E-3   -3.290497900851046E-2   -9.625342190122434E-3   -3.281370222217193E-2    4.747901877857451E-1   -1.896742687951931E-1
 6.528993422800000E9     5.581832010475550E-1   -6.662723808321802E-2   -9.135121516276859E-3   -3.309283629279796E-2   -9.759796677496962E-3   -3.301519679538630E-2    4.744438333047969E-1   -1.906109994985902E-1
 6.529003878200000E9     5.581436913485458E-1   -6.770145574011398E-2   -9.211641862804359E-3   -3.317814247422099E-2   -9.898616524478309E-3   -3.318056783432224E-2    4.742093700052981E-1   -1.914898850689875E-1
 6.529014333600000E9     5.580365928826072E-1   -6.846640452106230E-2   -9.365475558065483E-3   -3.344764849911361E-2   -9.977739695666650E-3   -3.340370357161854E-2    4.737032720227863E-1   -1.923292858890315E-1
 6.529024789000000E9     5.579493504507843E-1   -6.933866093867848E-2   -9.369766934053400E-3   -3.364219237549981E-2   -1.009638508785792E-2   -3.353246222446928E-2    4.731814336855359E-1   -1.933919754625816E-1
 6.529035244400000E9     5.579602462479726E-1   -7.011700839446398E-2   -9.551736217960936E-3   -3.378753986133274E-2   -1.031042798784181E-2   -3.362432701608013E-2    4.727250071786269E-1   -1.942192539161994E-1
 6.529045699800000E9     5.576360320596377E-1   -7.106094851881480E-2   -9.572710180005961E-3   -3.399668105141487E-2   -1.039656848701228E-2   -3.385881599598990E-2    4.724062998261376E-1   -1.951659169811349E-1
 6.529056155200000E9     5.575237269318594E-1   -7.196830676016068E-2   -9.880554599675464E-3   -3.416823833845912E-2   -1.049093681405878E-2   -3.392597754038374E-2    4.719815547845390E-1   -1.960882034141631E-1
 6.529066610600000E9     5.573819163370178E-1   -7.277475416657601E-2   -9.851149925983594E-3   -3.418889270775965E-2   -1.056096235208841E-2   -3.417138705300804E-2    4.715688225147333E-1   -1.971157621506387E-1
 6.529077066000000E9     5.573055877128111E-1   -7.362619730118260E-2   -9.984938255729702E-3   -3.457175411793567E-2   -1.079246438413214E-2   -3.433475944132867E-2    4.711801944133962E-1   -1.979293311005123E-1
 6.529087521400000E9     5.571981028526551E-1   -7.446697052778664E-2   -1.001540614361118E-2   -3.467419416868135E-2   -1.090613891502957E-2   -3.445586063506023E-2    4.706293551397369E-1   -1.988368574780539E-1
 6.529097976800000E9     5.571758935946070E-1   -7.546449676741995E-2   -1.025434423981943E-2   -3.487264429903827E-2   -1.110996550159404E-2   -3.466129988376976E-2    4.700709428512629E-1   -1.998726086644216E-1
 6.529108432200000E9     5.569498584265894E-1   -7.621364048260293E-2   -1.034725444984437E-2   -3.507578299191011E-2   -1.116165273262935E-2   -3.484510803925753E-2    4.698953723814338E-1   -2.009514490839219E-1
 6.529118887600000E9     5.567954300181520E-1   -7.712010115589740E-2   -1.054950508385630E-2   -3.528823289716911E-2   -1.133206069436016E-2   -3.507803112672886E-2    4.695678781493646E-1   -2.016182538172910E-1
 6.529129343000000E9     5.566714134811127E-1   -7.793584597544746E-2   -1.062793140877311E-2   -3.537325804717355E-2   -1.141863686439059E-2   -3.525442428055185E-2    4.689186655492332E-1   -2.026378035817030E-1
 6.529139798400000E9     5.564898829801441E-1   -7.880979995604960E-2   -1.079250187454332E-2   -3.554808776380641E-2   -1.157393678098424E-2   -3.542199760734514E-2    4.684706809269885E-1   -2.035909535356166E-1
 6.529150253800000E9     5.564042352244178E-1   -7.971978939451105E-2   -1.084013699489752E-2   -3.570045322554838E-2   -1.164753213842701E-2   -3.554791212043877E-2    4.679766119924935E-1   -2.047632869857006E-1
 6.529160709200000E9     5.562402433835368E-1   -8.056171219558736E-2   -1.101172814260881E-2   -3.603742278864442E-2   -1.190817343494901E-2   -3.575283475728634E-2    4.674097703131425E-1   -2.055695522250882E-1
 6.529171164600000E9     5.560790100214232E-1   -8.144983135084231E-2   -1.124119599738377E-2   -3.620109215902537E-2   -1.202290040840933E-2   -3.598794542223157E-2    4.671005048023472E-1   -2.063341489527447E-1
 6.529181620000000E9     5.560010629508765E-1   -8.228870783518162E-2   -1.129491839340682E-2   -3.628795364315566E-2   -1.214017054252812E-2   -3.622851480595935E-2    4.665141177183779E-1   -2.074744553872923E-1
 6.529192075400000E9     5.558497485360708E-1   -8.320474139120823E-2   -1.151953009949746E-2   -3.649057835846727E-2   -1.234101419921689E-2   -3.635646919115218E-2    4.660611948499143E-1   -2.083525929158838E-1
 6.529202530800000E9     5.556904201494416E-1   -8.411650948427661E-2   -1.156691915071254E-2   -3.677902106408935E-2   -1.245779906909077E-2   -3.655104393917476E-2    4.655842221527661E-1   -2.093605239361788E-1
 6.529212986200000E9     5.555317382410676E-1   -8.491679342807180E-2   -1.174439587474926E-2   -3.681431625128864E-2   -1.262059511609763E-2   -3.678525662743962E-2    4.651346327798066E-1   -2.104060496347534E-1
 6.529223441600000E9     5.553681646586092E-1   -8.581008933817907E-2   -1.200582373502603E-2   -3.715086403020294E-2   -1.275132792917015E-2   -3.692494067036678E-2    4.646801927334337E-1   -2.113759457270346E-1
 6.529233897000000E9     5.552334548783826E-1   -8.675882428474205E-2   -1.216160504002058E-2   -3.741600658557708E-2   -1.295374293044958E-2   -3.713941983984805E-2    4.642157483028909E-1   -2.122946043794424E-1
 6.529244352400000E9     5.550110304149691E-1   -8.753813449713385E-2   -1.228650828124277E-2   -3.759640877420021E-2   -1.311693523294028E-2   -3.732719922995473E-2    4.635843294068602E-1   -2.132509582165007E-1
 6.529254807800000E9     5.550833041198544E-1   -8.842803244178113E-2   -1.245888541703852E-2   -3.775499710312225E-2   -1.328200548548491E-2   -3.763214481314168E-2    4.631095019609526E-1   -2.142731257353229E-1
 6.529265263200000E9     5.546610347065432E-1   -8.938605286263349E-2   -1.259565074198586E-2   -3.810820895142873E-2   -1.343489925163579E-2   -3.769593941716539E-2    4.623431220364253E-1   -2.150302830717331E-1
 6.529275718600000E9     5.544804075552331E-1   -9.030101231245043E-2   -1.272117903772405E-2   -3.824376835884160E-2   -1.351748727228934E-2   -3.797310751667701E-2    4.620878904379386E-1   -2.160395042785160E-1
 6.529286174000000E9     5.544594904084005E-1   -9.117244930950637E-2   -1.288265688191511E-2   -3.848245628252399E-2   -1.388026448292473E-2   -3.823904229818788E-2    4.615446831093897E-1   -2.171799107789029E-1
 6.529296629400000E9     5.542000220969063E-1   -9.200316803876647E-2   -1.301479510911947E-2   -3.855038852801203E-2   -1.384358183119252E-2   -3.843498306654418E-2    4.609151442595880E-1   -2.184738310064855E-1
 6.529307084800000E9     5.540292954961269E-1   -9.295175226566406E-2   -1.307931955654756E-2   -3.884827972534999E-2   -1.411009726865195E-2   -3.859510849185951E-2    4.604802147974954E-1   -2.192557634592195E-1
 6.529317540200000E9     5.538253936633759E-1   -9.380898765290938E-2   -1.337693267590996E-2   -3.900732972628278E-2   -1.435710606110307E-2   -3.888122953157826E-2    4.598909320284125E-1   -2.201730228369509E-1
 6.529327995600000E9     5.536354787788955E-1   -9.475161325431716E-2   -1.349435375728627E-2   -3.931985662823186E-2   -1.451285715477336E-2   -3.898957642969059E-2    4.593838441395445E-1   -2.211589453596863E-1
 6.529338451000000E9     5.534815964606522E-1   -9.563045762160691E-2   -1.371888521205481E-2   -3.971848226593216E-2   -1.469727988584049E-2   -3.926907808633263E-2    4.586599563177507E-1   -2.221021740716997E-1
 6.529348906400000E9     5.533673462474069E-1   -9.649260311677042E-2   -1.389807438486189E-2   -3.982464632410131E-2   -1.480578212792473E-2   -3.962274003356685E-2    4.580736953028507E-1   -2.232297811978461E-1
 6.529359361800000E9     5.531343572745024E-1   -9.742940572201084E-2   -1.410847187232109E-2   -4.006118408682315E-2   -1.512382272036841E-2   -3.977786995704882E-2    4.575867035953939E-1   -2.242839076020640E-1
 6.529369817200000E9     5.529258318281847E-1   -9.822841251321371E-2   -1.431828782181573E-2   -4.027178740797752E-2   -1.516699132638117E-2   -4.002268410006766E-2    4.570688217383672E-1   -2.254458946085015E-1
 6.529380272600000E9     5.526769211841089E-1   -9.929785833533922E-2   -1.446002023379649E-2   -4.047772268266198E-2   -1.539498909232047E-2   -4.016369109809746E-2    4.564007952751706E-1   -2.263876903719768E-1
 6.529390728000000E9     5.526881348286548E-1   -1.001201608778852E-1   -1.463189547674869E-2   -4.076243266167384E-2   -1.565700737118842E-2   -4.055539266608243E-2    4.557725561368941E-1   -2.274276908449064E-1
 6.529401183400000E9     5.523659487271569E-1   -1.010526989976035E-1   -1.479278616396636E-2   -4.095681748126877E-2   -1.580227542097223E-2   -4.065390632153568E-2    4.553233741683535E-1   -2.283805709275240E-1
 6.529411638800000E9     5.521132288687763E-1   -1.019573414248348E-1   -1.511397872437559E-2   -4.126605472040387E-2   -1.604531496748635E-2   -4.100573685320015E-2    4.546145779315431E-1   -2.296572013078610E-1
 6.529422094200000E9     5.520607957759198E-1   -1.028185615849708E-1   -1.526813760712492E-2   -4.162403715022626E-2   -1.625557734191679E-2   -4.115450168714904E-2    4.540216859589454E-1   -2.304472668391008E-1
 6.529432549600000E9     5.518058038835684E-1   -1.037876421741887E-1   -1.550119899973613E-2   -4.184590717026861E-2   -1.646904353114433E-2   -4.151841998415776E-2    4.534410858327351E-1   -2.316626967952574E-1
 6.529443005000000E9     5.516310889278311E-1   -1.045827833570054E-1   -1.555027349269790E-2   -4.201350956012594E-2   -1.675529367419468E-2   -4.180481529788827E-2    4.528250677976414E-1   -2.326330692643422E-1
 6.529453460400000E9     5.513251679409358E-1   -1.056587136486154E-1   -1.588632308910897E-2   -4.220292178408986E-2   -1.697299655012576E-2   -4.196416118397320E-2    4.521473598929365E-1   -2.338520760507390E-1
 6.529463915800000E9     5.511557799733670E-1   -1.065202284319389E-1   -1.623295032004576E-2   -4.258075141123336E-2   -1.716587872304841E-2   -4.226458990388221E-2    4.515602576418610E-1   -2.347692683786163E-1
 6.529474371200000E9     5.509695665974373E-1   -1.074532541796244E-1   -1.638077246685384E-2   -4.280010145039601E-2   -1.731032011510466E-2   -4.249851958038323E-2    4.509464548260740E-1   -2.357885616549571E-1
 6.529484826600000E9     5.507996394936916E-1   -1.082856909191826E-1   -1.653363252876526E-2   -4.307478580075060E-2   -1.757222724842503E-2   -4.275296177526365E-2    4.501154857570920E-1   -2.368387549641534E-1
 6.529495282000000E9     5.504934143913777E-1   -1.092703106474489E-1   -1.668536367451657E-2   -4.338529285388104E-2   -1.787142914869401E-2   -4.302355257948873E-2    4.494035481851081E-1   -2.378001313832442E-1
 6.529505737400000E9     5.503139779466245E-1   -1.102423976500531E-1   -1.697439245295083E-2   -4.376576597497982E-2   -1.813004462353119E-2   -4.341218520330241E-2    4.486838614664163E-1   -2.390620890809127E-1
 6.529516192800000E9     5.499951691314530E-1   -1.110249536419111E-1   -1.724280014294909E-2   -4.397251875147133E-2   -1.835189497937604E-2   -4.361484887498245E-2    4.480958334663018E-1   -2.401707280641248E-1
 6.529526648200000E9     5.497175295810087E-1   -1.120142610666625E-1   -1.751338397942312E-2   -4.415502913814852E-2   -1.855626760966311E-2   -4.395174751179616E-2    4.473075194975568E-1   -2.413165107983753E-1
 6.529537103600000E9     5.495656407731910E-1   -1.128939269674111E-1   -1.779296006860991E-2   -4.461138216854769E-2   -1.883326937947975E-2   -4.427034007408347E-2    4.466057398276684E-1   -2.425223301020084E-1
 6.529547559000000E9     5.493509882659043E-1   -1.139988677902719E-1   -1.793684563463067E-2   -4.484879691512320E-2   -1.909402187661330E-2   -4.443797281882829E-2    4.460201864160805E-1   -2.434070279774793E-1
 6.529558014400000E9     5.491575557280047E-1   -1.148965140287298E-1   -1.820440128952892E-2   -4.509162696790681E-2   -1.932094797150306E-2   -4.474168706787070E-2    4.451586585956828E-1   -2.447675836908200E-1
 6.529568469800000E9     5.488717236127395E-1   -1.158606961973895E-1   -1.851587078575729E-2   -4.544586533843037E-2   -1.960910568466216E-2   -4.503831119814194E-2    4.445721958287037E-1   -2.457959184755710E-1
 6.529578925200000E9     5.484404787308272E-1   -1.167715963103801E-1   -1.888794976721400E-2   -4.566666588708205E-2   -1.994268356155654E-2   -4.543054118428213E-2    4.437931672758118E-1   -2.470107549010227E-1
 6.529589380600000E9     5.483306108937245E-1   -1.177918780575890E-1   -1.906786091442016E-2   -4.603046915407791E-2   -2.019259276991491E-2   -4.577038127304151E-2    4.429251751920185E-1   -2.480415369506205E-1
 6.529599836000000E9     5.481148717032567E-1   -1.186454511754694E-1   -1.933389220692367E-2   -4.642169312429795E-2   -2.049305476026040E-2   -4.598994413157707E-2    4.422055611443255E-1   -2.491048844452056E-1
 6.529610291400000E9     5.478428091913889E-1   -1.196229177883723E-1   -1.951892304911404E-2   -4.669223721148669E-2   -2.075784750054445E-2   -4.623312700350221E-2    4.413400434268934E-1   -2.502216427039561E-1
 6.529620746800000E9     5.475009058567192E-1   -1.206086850439931E-1   -1.986367380563465E-2   -4.701933817712829E-2   -2.111416492555653E-2   -4.665484850816527E-2    4.406634341173697E-1   -2.513319265650003E-1
 6.529631202200000E9     5.473568584793808E-1   -1.216029270650582E-1   -2.028555759893515E-2   -4.731139250970192E-2   -2.139406336028817E-2   -4.692740309810880E-2    4.396253050740926E-1   -2.525995075813427E-1
 6.529641657600000E9     5.469793623654443E-1   -1.224780406158848E-1   -2.046723800002001E-2   -4.766533443112136E-2   -2.168483401389375E-2   -4.730781757347972E-2    4.389856268648236E-1   -2.537214784668334E-1
 6.529652113000000E9     5.466788983024157E-1   -1.235326047399219E-1   -2.086053328475189E-2   -4.804628480264101E-2   -2.192476060590605E-2   -4.753129698309354E-2    4.382868491931002E-1   -2.549093760645122E-1
 6.529662568400000E9     5.465153650423883E-1   -1.244686393170158E-1   -2.105500707657719E-2   -4.837724035571578E-2   -2.219031414215000E-2   -4.797620294954105E-2    4.372379041186801E-1   -2.560393934172966E-1
 6.529673023800000E9     5.462275175597977E-1   -1.253717742784680E-1   -2.136315613983930E-2   -4.874437825856112E-2   -2.268997059451658E-2   -4.820601416255204E-2    4.363956875439197E-1   -2.573441519314155E-1
 6.529683479200000E9     5.458532085345404E-1   -1.264263676290623E-1   -2.165971682649608E-2   -4.901970017708235E-2   -2.288063606180668E-2   -4.872077414729681E-2    4.355687162039880E-1   -2.583822007040597E-1
 6.529693934600000E9     5.456476752488647E-1   -1.274378821572114E-1   -2.205993017833387E-2   -4.939880263944429E-2   -2.329454904082150E-2   -4.898986882943845E-2    4.347006920382013E-1   -2.597990149376343E-1
 6.529704390000000E9     5.452532061284000E-1   -1.284086540299734E-1   -2.243142641223934E-2   -4.984711927280334E-2   -2.365100198811119E-2   -4.929419899154151E-2    4.337970403324339E-1   -2.609861755229030E-1
