#  HZ   S   RI   R     50.00 
! Rohde & Schwarz Vector Network Analyzer 
! Rohde-Schwarz,ZNB20-2Port,1311601062101988,3.16
! Created: UTC 3/21/2024, 12:51:13 AM
! freq[Hz]                re:S11                  im:S11                  re:S21                  im:S21                  re:S12                  im:S12                  re:S22                  im:S22
 6.528815086000000E9     5.609502530895655E-1   -5.874866495604524E-2   -8.481945958755519E-3   -3.427916936849730E-2   -9.225916989066716E-3   -3.412191400722178E-2    4.822817526532625E-1   -1.919608662798962E-1
 6.528824189125000E9     5.607968176304687E-1   -5.955963916470972E-2   -8.660780107281489E-3   -3.443809147028622E-2   -9.460508119252843E-3   -3.420394855679114E-2    4.819967531312913E-1   -1.927760248950726E-1
 6.528833292250000E9     5.607572714423344E-1   -6.033584263600721E-2   -8.701861703351067E-3   -3.455398669780138E-2   -9.463456487081781E-3   -3.438190808641504E-2    4.815531177269112E-1   -1.934202760919106E-1
 6.528842395375000E9     5.606215739863551E-1   -6.109630271391025E-2   -8.929962702299905E-3   -3.467592897512117E-2   -9.572708426046706E-3   -3.460042977043825E-2    4.813103180516613E-1   -1.945828608887975E-1
 6.528851498500000E9     5.606955132667589E-1   -6.184747097337660E-2   -8.872239877153774E-3   -3.479975094014053E-2   -9.682433095057136E-3   -3.472206578330315E-2    4.809314561876335E-1   -1.952966697267927E-1
 6.528860601625000E9     5.603722008021995E-1   -6.248959170827781E-2   -8.942896021143440E-3   -3.502453630037582E-2   -9.840950384568869E-3   -3.477227475941077E-2    4.804070308352426E-1   -1.961441917197617E-1
 6.528869704750000E9     5.604387395808094E-1   -6.335430251902251E-2   -9.189101273981905E-3   -3.506180037552251E-2   -9.889775668073759E-3   -3.495145935276797E-2    4.801789578189304E-1   -1.970049220761373E-1
 6.528878807875000E9     5.602548602054310E-1   -6.404889298714517E-2   -9.184114230529162E-3   -3.537659967978924E-2   -9.942472072312645E-3   -3.514694425636124E-2    4.799281506555123E-1   -1.981016113719030E-1
 6.528887911000000E9     5.603325483568093E-1   -6.490339516207613E-2   -9.372050399059369E-3   -3.542427803934158E-2   -1.014791537903407E-2   -3.530571295360193E-2    4.794193638522749E-1   -1.987741896244743E-1
 6.528897014125000E9     5.601792925154254E-1   -6.562988237363118E-2   -9.453588363881042E-3   -3.567628649234859E-2   -1.020110121178918E-2   -3.546015382013355E-2    4.790862046270506E-1   -1.995920443381599E-1
 6.528906117250000E9     5.599762203078154E-1   -6.642219847670694E-2   -9.559404310448574E-3   -3.590752046306790E-2   -1.025565520020171E-2   -3.571240424373717E-2    4.786962181144098E-1   -2.003575651177710E-1
 6.528915220375000E9     5.599597686116193E-1   -6.718319054189753E-2   -9.638534263252552E-3   -3.595107098408943E-2   -1.052901395048602E-2   -3.584917654729389E-2    4.782999251375438E-1   -2.011508651137495E-1
 6.528924323500000E9     5.599263614263262E-1   -6.790163716912555E-2   -9.678035662015414E-3   -3.611825485586989E-2   -1.061446323595458E-2   -3.591451570610329E-2    4.778864855379883E-1   -2.020480285989349E-1
 6.528933426625000E9     5.596907981109061E-1   -6.863794765718259E-2   -9.893855611085472E-3   -3.639424902477992E-2   -1.078604045523297E-2   -3.613016420689889E-2    4.775103538363736E-1   -2.028526893717504E-1
 6.528942529750000E9     5.597456333615120E-1   -6.945532568199080E-2   -9.924132984881708E-3   -3.647205187606446E-2   -1.086778576703975E-2   -3.640627978752856E-2    4.771803509635105E-1   -2.038145046849375E-1
 6.528951632875000E9     5.595603504103591E-1   -7.018947847768749E-2   -1.004350669406049E-2   -3.662708207536326E-2   -1.094601344616613E-2   -3.652827683811837E-2    4.767464084812702E-1   -2.046505260913548E-1
 6.528960736000000E9     5.594456725140807E-1   -7.099224406503306E-2   -1.016758588202370E-2   -3.694632990721009E-2   -1.102092900089639E-2   -3.670404826045534E-2    4.762823077074397E-1   -2.056709687836943E-1
 6.528969839125000E9     5.594217822830380E-1   -7.177166689227847E-2   -1.034199280087776E-2   -3.712482316430771E-2   -1.117643922015637E-2   -3.679938810770824E-2    4.758781040402105E-1   -2.061397011547465E-1
 6.528978942250000E9     5.591660520791704E-1   -7.256254587365336E-2   -1.028419036877523E-2   -3.714248608906503E-2   -1.133745053909205E-2   -3.701831054087044E-2    4.756088019412957E-1   -2.072823993883727E-1
 6.528988045375000E9     5.591256315058619E-1   -7.328215421750876E-2   -1.058065622539306E-2   -3.739001527393775E-2   -1.149950741661694E-2   -3.720861871651213E-2    4.749604267474594E-1   -2.081035977030428E-1
 6.528997148500000E9     5.590310812058430E-1   -7.396593922799573E-2   -1.058107348383667E-2   -3.765406179897025E-2   -1.153017472199495E-2   -3.725730939932922E-2    4.745999789769770E-1   -2.091158648802630E-1
 6.529006251625000E9     5.588191531045250E-1   -7.497951319944524E-2   -1.086524004914050E-2   -3.777634604332092E-2   -1.163960200394700E-2   -3.749863475900165E-2    4.742088559902630E-1   -2.098676208760853E-1
 6.529015354750000E9     5.587158616412643E-1   -7.564662949408785E-2   -1.110412741526177E-2   -3.791007025913017E-2   -1.184157322956885E-2   -3.773277648192384E-2    4.739208456859590E-1   -2.105919115412429E-1
 6.529024457875000E9     5.586179316344018E-1   -7.644705005972205E-2   -1.111308260188949E-2   -3.815564836311384E-2   -1.195659372479370E-2   -3.791649417220650E-2    4.732946728647296E-1   -2.114725130022932E-1
 6.529033561000000E9     5.584151253498227E-1   -7.718930817169616E-2   -1.111166766237412E-2   -3.826245945877058E-2   -1.203018443530317E-2   -3.814428554391089E-2    4.728998635889780E-1   -2.126003355890417E-1
 6.529042664125000E9     5.584154101883153E-1   -7.798889266939153E-2   -1.116411084080694E-2   -3.844423130724160E-2   -1.218798654730204E-2   -3.824890650820515E-2    4.724514999280424E-1   -2.132620314214881E-1
 6.529051767250000E9     5.582267048342269E-1   -7.873679996713590E-2   -1.129442469248783E-2   -3.854696074137496E-2   -1.229792136690920E-2   -3.860997563854988E-2    4.720651226455021E-1   -2.141529474742978E-1
 6.529060870375000E9     5.582944904890820E-1   -7.945431921615904E-2   -1.163108403126367E-2   -3.895198252874252E-2   -1.249014359584694E-2   -3.874675735236822E-2    4.716106866648008E-1   -2.151978933571754E-1
 6.529069973500000E9     5.579521925880441E-1   -8.037923146862561E-2   -1.170898348442571E-2   -3.898207305690341E-2   -1.267056583655953E-2   -3.879750948217492E-2    4.711934726517143E-1   -2.159216856161534E-1
 6.529079076625000E9     5.578613150071620E-1   -8.107362292623235E-2   -1.191958417676583E-2   -3.925599559830284E-2   -1.281687189202613E-2   -3.908666961188460E-2    4.707569476391186E-1   -2.168672510925394E-1
 6.529088179750000E9     5.577796012739168E-1   -8.185653785508011E-2   -1.194398497705411E-2   -3.956321089709592E-2   -1.295478027045096E-2   -3.923369502134540E-2    4.702854395397672E-1   -2.177925967983136E-1
 6.529097282875000E9     5.575910002982915E-1   -8.273917232841767E-2   -1.218208250151755E-2   -3.970440035575582E-2   -1.312876905990536E-2   -3.953019913013386E-2    4.697360244174662E-1   -2.187189488090082E-1
 6.529106386000000E9     5.574535727622689E-1   -8.346819101523588E-2   -1.228686490377391E-2   -3.980583766907757E-2   -1.312370398039377E-2   -3.975047709074406E-2    4.694032789826276E-1   -2.196124206296600E-1
 6.529115489125000E9     5.574812094682104E-1   -8.418221750376677E-2   -1.247458872133046E-2   -4.012247989995759E-2   -1.336851458219731E-2   -3.987477632591552E-2    4.689072266278770E-1   -2.204485552417311E-1
 6.529124592250000E9     5.573193681128609E-1   -8.484188777806254E-2   -1.256917470218788E-2   -4.030378251107991E-2   -1.347115360364786E-2   -4.006438171227469E-2    4.683358871494936E-1   -2.214582942075454E-1
 6.529133695375000E9     5.572001130342452E-1   -8.583903348115038E-2   -1.275340964584959E-2   -4.058321312620787E-2   -1.368517967874646E-2   -4.029431716276824E-2    4.679604542061915E-1   -2.224440816828314E-1
 6.529142798500000E9     5.569374724422107E-1   -8.666553614721306E-2   -1.290564285315601E-2   -4.069904658853576E-2   -1.377597217658088E-2   -4.048328919439952E-2    4.675427201067677E-1   -2.231745594905537E-1
 6.529151901625000E9     5.568201525996980E-1   -8.735058195952093E-2   -1.303097090046999E-2   -4.099517668993358E-2   -1.408558177234414E-2   -4.076640574863069E-2    4.668280193232787E-1   -2.241767735774618E-1
 6.529161004750000E9     5.567175960208463E-1   -8.811551201935156E-2   -1.326411927074616E-2   -4.118868629221523E-2   -1.419702591100761E-2   -4.099576099928605E-2    4.665848989018158E-1   -2.252693578610458E-1
 6.529170107875000E9     5.565666332335991E-1   -8.898832865935234E-2   -1.327481444881893E-2   -4.138896580436419E-2   -1.430501002754015E-2   -4.125252528872220E-2    4.657395181888689E-1   -2.260360019016347E-1
 6.529179211000000E9     5.562886276542008E-1   -8.975970972400815E-2   -1.344232550927445E-2   -4.160110701374022E-2   -1.450016167076952E-2   -4.130858452435646E-2    4.654992526579317E-1   -2.270172630904605E-1
 6.529188314125000E9     5.562402069820117E-1   -9.064311247970777E-2   -1.357499729399818E-2   -4.186461058562216E-2   -1.463570746863250E-2   -4.164318118437667E-2    4.649663870532958E-1   -2.279151556245452E-1
 6.529197417250000E9     5.560717709262515E-1   -9.146734335778700E-2   -1.378383334627701E-2   -4.208954461195401E-2   -1.470631335626075E-2   -4.174664212666832E-2    4.644870544392823E-1   -2.288413609389080E-1
 6.529206520375000E9     5.559204576253610E-1   -9.222846240507869E-2   -1.391480296794599E-2   -4.234376008482561E-2   -1.491322363850644E-2   -4.202205389761360E-2    4.640082769452791E-1   -2.298229263723053E-1
 6.529215623500000E9     5.558282026745086E-1   -9.299975412500834E-2   -1.422112706101241E-2   -4.255187350303796E-2   -1.511883030375067E-2   -4.228645963770218E-2    4.633267687206148E-1   -2.306370289925672E-1
 6.529224726625000E9     5.555710504278800E-1   -9.376222669807069E-2   -1.428719870856835E-2   -4.268889831649152E-2   -1.539978474505826E-2   -4.260081201994902E-2    4.627510846924686E-1   -2.317924059782001E-1
 6.529233829750000E9     5.554340735610562E-1   -9.457599520728266E-2   -1.452609175593672E-2   -4.299188411360255E-2   -1.549969327257172E-2   -4.284565210476627E-2    4.623683584344171E-1   -2.326103970331646E-1
 6.529242932875000E9     5.552923396228127E-1   -9.549396101043008E-2   -1.470725219805674E-2   -4.324632284956332E-2   -1.565732283019854E-2   -4.298909372552578E-2    4.616972123676196E-1   -2.335275737551822E-1
 6.529252036000000E9     5.551010378445194E-1   -9.623811306240729E-2   -1.495939323876823E-2   -4.358566884222795E-2   -1.599317394879961E-2   -4.330749199223300E-2    4.610727194456685E-1   -2.346905347629577E-1
 6.529261139125000E9     5.550171197606832E-1   -9.709703894036223E-2   -1.507247918508834E-2   -4.383425674498082E-2   -1.614579572971440E-2   -4.353402469274586E-2    4.606121659995606E-1   -2.355474241393374E-1
 6.529270242250000E9     5.547225825495093E-1   -9.771214873676556E-2   -1.534725574707389E-2   -4.398869488458095E-2   -1.632749479309182E-2   -4.374038109739917E-2    4.600156052534358E-1   -2.366280191916169E-1
 6.529279345375000E9     5.546147868880063E-1   -9.865234446562872E-2   -1.538683100501372E-2   -4.446569194257430E-2   -1.647270634953053E-2   -4.402475372090064E-2    4.595949211167880E-1   -2.375520853438957E-1
 6.529288448500000E9     5.544687731863619E-1   -9.945593975435373E-2   -1.562802815846172E-2   -4.446508430261014E-2   -1.660956094984600E-2   -4.421736462521105E-2    4.589295036253971E-1   -2.384554594944266E-1
 6.529297551625000E9     5.543436820156332E-1   -1.002919259982248E-1   -1.579206408882602E-2   -4.483965214591051E-2   -1.680873886351747E-2   -4.451595253025600E-2    4.584062666780566E-1   -2.395476038342195E-1
 6.529306654750000E9     5.540718826365798E-1   -1.010683234301945E-1   -1.594516943915853E-2   -4.509055274217053E-2   -1.700682027375071E-2   -4.477304943474317E-2    4.578318298967101E-1   -2.404463179647182E-1
 6.529315757875000E9     5.539307834148637E-1   -1.018417012467727E-1   -1.611249046301605E-2   -4.531977736367990E-2   -1.732264323160043E-2   -4.498339456874911E-2    4.571585892016446E-1   -2.415599368121250E-1
 6.529324861000000E9     5.536221924243917E-1   -1.027832099271383E-1   -1.628386888819389E-2   -4.562609768973841E-2   -1.751468363495513E-2   -4.528036884245612E-2    4.566709262889623E-1   -2.424881822780526E-1
 6.529333964125000E9     5.535535897743071E-1   -1.036150279058646E-1   -1.669413898902984E-2   -4.588025161408111E-2   -1.768739730840599E-2   -4.560981224649350E-2    4.559627378526014E-1   -2.434716213621868E-1
 6.529343067250000E9     5.533059551689432E-1   -1.044901118972859E-1   -1.687258352150918E-2   -4.616272519913772E-2   -1.789661667406730E-2   -4.581749226656342E-2    4.552864062757800E-1   -2.445498026560272E-1
 6.529352170375000E9     5.531212537961618E-1   -1.052726545500418E-1   -1.695944496335408E-2   -4.637519839032636E-2   -1.814556883356129E-2   -4.616452750459193E-2    4.548965806174695E-1   -2.454498837617135E-1
 6.529361273500000E9     5.528581675006687E-1   -1.060908810224390E-1   -1.719245104153649E-2   -4.678293713538732E-2   -1.835732723416904E-2   -4.636854740354757E-2    4.540782977859233E-1   -2.463895397061381E-1
 6.529370376625000E9     5.528714724559934E-1   -1.068760512251609E-1   -1.756460599625315E-2   -4.707794329322905E-2   -1.861458262632514E-2   -4.660751799268109E-2    4.536256292529458E-1   -2.476307898513865E-1
 6.529379479750000E9     5.525227814107253E-1   -1.078702428201774E-1   -1.761355557967837E-2   -4.726170372776543E-2   -1.878169573916147E-2   -4.702318962616012E-2    4.527957091173274E-1   -2.488113784148953E-1
 6.529388582875000E9     5.523876041593675E-1   -1.085131726616767E-1   -1.788181595160662E-2   -4.745255737086932E-2   -1.905212282856073E-2   -4.739732122094683E-2    4.523238462282009E-1   -2.495579143236418E-1
 6.529397686000000E9     5.521991971294667E-1   -1.096179476229434E-1   -1.819371300247560E-2   -4.784108367896815E-2   -1.933468410145833E-2   -4.751408265599868E-2    4.515422295776983E-1   -2.505740799816783E-1
 6.529406789125000E9     5.520025942255785E-1   -1.103123772223348E-1   -1.831533399413436E-2   -4.822873345338520E-2   -1.955823403056148E-2   -4.779078721495256E-2    4.507288591373739E-1   -2.516848133437750E-1
 6.529415892250000E9     5.516965447843517E-1   -1.111695699214090E-1   -1.857114258842226E-2   -4.848088839414708E-2   -1.982769797082222E-2   -4.818037263630683E-2    4.501182359390387E-1   -2.526900078700465E-1
 6.529424995375000E9     5.514967275493839E-1   -1.120404429473377E-1   -1.880978038479430E-2   -4.879069354559225E-2   -2.006455571376106E-2   -4.837941704900334E-2    4.492739575758978E-1   -2.538665974089198E-1
 6.529434098500000E9     5.512931512173035E-1   -1.128542285466853E-1   -1.915170957977930E-2   -4.913701268282170E-2   -2.032642357022291E-2   -4.881062583403470E-2    4.487896915304695E-1   -2.549367160466151E-1
 6.529443201625000E9     5.511263815663591E-1   -1.136848642410121E-1   -1.944877857865944E-2   -4.942208902169704E-2   -2.057890103318052E-2   -4.910180352951440E-2    4.480644307033355E-1   -2.559284603855641E-1
 6.529452304750000E9     5.509026559074832E-1   -1.146875092980715E-1   -1.945390354986217E-2   -4.990586869002064E-2   -2.088253932844114E-2   -4.935495059478816E-2    4.473813889906848E-1   -2.570357367900582E-1
 6.529461407875000E9     5.506377255449851E-1   -1.153576869560294E-1   -1.989527250353274E-2   -4.993491671105527E-2   -2.115272950421562E-2   -4.975094225864820E-2    4.465534334774313E-1   -2.581036547667886E-1
 6.529470511000000E9     5.503068576549640E-1   -1.162189657120229E-1   -2.009688182305703E-2   -5.048242041439611E-2   -2.132978881808878E-2   -5.010585264177452E-2    4.459096472440842E-1   -2.593938314587733E-1
 6.529479614125000E9     5.501287449742250E-1   -1.171231285283900E-1   -2.042050691294988E-2   -5.070598442469291E-2   -2.170322411202209E-2   -5.030270383722212E-2    4.452784079170548E-1   -2.603500620789240E-1
 6.529488717250000E9     5.499428227958718E-1   -1.179341309335873E-1   -2.066202254308686E-2   -5.117626730645312E-2   -2.191369926594873E-2   -5.066219674821033E-2    4.443881491543449E-1   -2.614112384366241E-1
 6.529497820375000E9     5.496820938001836E-1   -1.188310749947570E-1   -2.098412624797522E-2   -5.141003638678743E-2   -2.220553744544176E-2   -5.099240643216964E-2    4.435096061043002E-1   -2.625206730292265E-1
 6.529506923500000E9     5.494832258396575E-1   -1.197918480568220E-1   -2.126395721456292E-2   -5.186994344427760E-2   -2.248909980683550E-2   -5.136974751373170E-2    4.427025463810684E-1   -2.637728257000511E-1
 6.529516026625000E9     5.490695208635756E-1   -1.206383209402007E-1   -2.154829402814394E-2   -5.212782480846992E-2   -2.289243127080913E-2   -5.174794169123088E-2    4.421082731834245E-1   -2.647804590009448E-1
 6.529525129750000E9     5.489261227026656E-1   -1.215717574663825E-1   -2.177403896766135E-2   -5.248415828303012E-2   -2.316017553776848E-2   -5.209032332960972E-2    4.412348907999483E-1   -2.658508762063159E-1
 6.529534232875000E9     5.486804550677762E-1   -1.223464542750612E-1   -2.205531856348775E-2   -5.276507977787082E-2   -2.354171258121007E-2   -5.253915231698793E-2    4.403156398510810E-1   -2.671649698335331E-1
 6.529543336000000E9     5.483532958064856E-1   -1.232546283703473E-1   -2.245624202565251E-2   -5.330165919651497E-2   -2.375936601285275E-2   -5.278279542775054E-2    4.394368079697191E-1   -2.683466837743418E-1
 6.529552439125000E9     5.481548195277720E-1   -1.241202841940404E-1   -2.278128817119533E-2   -5.359278578759352E-2   -2.416453050966615E-2   -5.320220033789425E-2    4.387135922992926E-1   -2.693712149254611E-1
 6.529561542250000E9     5.478560643709128E-1   -1.250022270880075E-1   -2.304668313578005E-2   -5.404360501736836E-2   -2.439116439498263E-2   -5.347639002900085E-2    4.377987574429243E-1   -2.705290451395311E-1
 6.529570645375000E9     5.476183986256307E-1   -1.261143963132969E-1   -2.354680064553537E-2   -5.441021650384224E-2   -2.476863057980619E-2   -5.392643167404843E-2    4.369990785574590E-1   -2.716795688531318E-1
 6.529579748500000E9     5.473565965893866E-1   -1.268739369839325E-1   -2.381278040312030E-2   -5.472261077822183E-2   -2.521252403863043E-2   -5.432346497708213E-2    4.359577928328951E-1   -2.728979246191648E-1
 6.529588851625000E9     5.470778157102920E-1   -1.278455909261753E-1   -2.402582706682683E-2   -5.520569016908454E-2   -2.549470290088933E-2   -5.463242703115880E-2    4.353158971961683E-1   -2.740366454609416E-1
 6.529597954750000E9     5.468309366531575E-1   -1.286962700480499E-1   -2.449146360742504E-2   -5.561235750982402E-2   -2.583985801426423E-2   -5.507615895024771E-2    4.342834807723301E-1   -2.751351701174571E-1
 6.529607057875000E9     5.465025248777323E-1   -1.296549914245120E-1   -2.479192761340542E-2   -5.595304959546195E-2   -2.634170617200592E-2   -5.548610876305459E-2    4.333399379637334E-1   -2.765516397993788E-1
 6.529616161000000E9     5.461965722399156E-1   -1.305375861652092E-1   -2.509024616513393E-2   -5.650046137282359E-2   -2.660142090969831E-2   -5.585241641049717E-2    4.326145761427723E-1   -2.776262241164269E-1
 6.529625264125000E9     5.459289980472171E-1   -1.314013933730071E-1   -2.541812261787218E-2   -5.693983234116119E-2   -2.702358103778271E-2   -5.624308834102474E-2    4.314344476622521E-1   -2.788690109385362E-1
 6.529634367250000E9     5.454746626770184E-1   -1.323881669734109E-1   -2.592430005803673E-2   -5.739480652198234E-2   -2.745925512967378E-2   -5.669273347317916E-2    4.304852328057936E-1   -2.801328781103620E-1
