#  HZ   S   RI   R     50.00 
! Rohde & Schwarz Vector Network Analyzer 
! Rohde-Schwarz,ZNB20-2Port,1311601062101988,3.16
! Created: UTC 3/21/2024, 1:00:39 AM
! freq[Hz]                re:S11                  im:S11                  re:S21                  im:S21                  re:S12                  im:S12                  re:S22                  im:S22
 6.528763137000000E9     5.602724336294697E-1   -4.790221094715114E-2   -6.944927341095156E-3   -2.988682962777137E-2   -7.504880274217248E-3   -2.959727922877807E-2    4.829184250354363E-1   -1.698599667053748E-1
 6.528773609075000E9     5.602441258335633E-1   -4.883832778405833E-2   -6.880755839428331E-3   -3.008908509666026E-2   -7.545270089564391E-3   -2.985039746150059E-2    4.825566204812783E-1   -1.707651851369404E-1
 6.528784081150000E9     5.601803036262106E-1   -4.971235795351839E-2   -7.097163811743554E-3   -3.014849250444739E-2   -7.723613012369640E-3   -2.998499247602849E-2    4.823269961343442E-1   -1.715447381063655E-1
 6.528794553225000E9     5.601611230284032E-1   -5.056433475725452E-2   -7.095143456826115E-3   -3.013659745665664E-2   -7.738342671904454E-3   -3.017423440802944E-2    4.819060293315789E-1   -1.724045478841359E-1
 6.528805025300000E9     5.599758041353201E-1   -5.136614507320512E-2   -7.140383006975403E-3   -3.044696258290133E-2   -7.994624192608079E-3   -3.035806072721815E-2    4.815934380730358E-1   -1.733838479770091E-1
 6.528815497375000E9     5.598633759129316E-1   -5.227266331455003E-2   -7.280261712216316E-3   -3.056169416146348E-2   -7.884995931501835E-3   -3.039375929439675E-2    4.810455076891366E-1   -1.741544736357868E-1
 6.528825969450000E9     5.597782869824161E-1   -5.297677425891444E-2   -7.253954319683832E-3   -3.060639958577006E-2   -8.090032538108347E-3   -3.055797655309323E-2    4.807711204807250E-1   -1.749743082789817E-1
 6.528836441525000E9     5.597044336933517E-1   -5.394302777362414E-2   -7.419924340468512E-3   -3.091681861835581E-2   -8.255005109310983E-3   -3.065494844295113E-2    4.803863664453416E-1   -1.759722612439225E-1
 6.528846913600000E9     5.596674834957716E-1   -5.477244068242912E-2   -7.488343055849049E-3   -3.103801977735954E-2   -8.284154255458127E-3   -3.081043067780785E-2    4.801172256290031E-1   -1.768758901480282E-1
 6.528857385675000E9     5.596058760793347E-1   -5.562253723496018E-2   -7.729910921431668E-3   -3.117135169457795E-2   -8.479533298699616E-3   -3.091129834029962E-2    4.798184903688878E-1   -1.777634555458642E-1
 6.528867857750000E9     5.594924446711320E-1   -5.643479469730425E-2   -7.804261079658845E-3   -3.131961313848547E-2   -8.524860904193113E-3   -3.114517218295567E-2    4.795160867998289E-1   -1.785725123725104E-1
 6.528878329825000E9     5.593985370014457E-1   -5.735054900743237E-2   -7.854278790890092E-3   -3.135768647765148E-2   -8.549604579500132E-3   -3.131962797925427E-2    4.791089553038169E-1   -1.794566039635337E-1
 6.528888801900000E9     5.592605560168258E-1   -5.814152444120438E-2   -7.942217882922003E-3   -3.152714692362694E-2   -8.648519100950228E-3   -3.130521614988121E-2    4.787123976585486E-1   -1.802853989919960E-1
 6.528899273975000E9     5.591294438056207E-1   -5.900439350239352E-2   -8.036467526454785E-3   -3.164600614463378E-2   -8.763590487421504E-3   -3.151384297791830E-2    4.782666019186654E-1   -1.810852052816729E-1
 6.528909746050000E9     5.591075863688436E-1   -5.983800263433885E-2   -8.229021199385666E-3   -3.178065901041634E-2   -8.898083670586537E-3   -3.167673657632716E-2    4.778003470716162E-1   -1.820879080528423E-1
 6.528920218125000E9     5.588676905247729E-1   -6.054696692058043E-2   -8.391786809046183E-3   -3.191859254776154E-2   -8.979984942479396E-3   -3.178578466212152E-2    4.774759894598133E-1   -1.831354115922892E-1
 6.528930690200000E9     5.589396331919682E-1   -6.153124719719150E-2   -8.453631674158819E-3   -3.209131473104040E-2   -9.086228191805117E-3   -3.204267931424239E-2    4.772731537386559E-1   -1.838674752364546E-1
 6.528941162275000E9     5.587746373471755E-1   -6.226715545671196E-2   -8.300301284338852E-3   -3.227849100692771E-2   -9.117775004126204E-3   -3.208446804330108E-2    4.767296929367494E-1   -1.848370530980527E-1
 6.528951634350000E9     5.587037676979965E-1   -6.322951623198203E-2   -8.537154495649391E-3   -3.252593059802182E-2   -9.263230406792024E-3   -3.229176431595494E-2    4.763469811118418E-1   -1.856678819018420E-1
 6.528962106425000E9     5.586275806689176E-1   -6.416128424228866E-2   -8.619270311356501E-3   -3.264725561623695E-2   -9.432120290449941E-3   -3.249400754406667E-2    4.759023161886295E-1   -1.865655096810865E-1
 6.528972578500000E9     5.583797145678727E-1   -6.495448622044055E-2   -8.735271189022996E-3   -3.268812241495481E-2   -9.529443760467987E-3   -3.253027114910079E-2    4.756223897505059E-1   -1.875720988558872E-1
 6.528983050575000E9     5.584050959791167E-1   -6.584400808532649E-2   -8.828838799612668E-3   -3.284490605871950E-2   -9.759465879990114E-3   -3.280355954810087E-2    4.752239308332662E-1   -1.884709068355261E-1
 6.528993522650000E9     5.583372043024395E-1   -6.653891643297015E-2   -9.014343151607577E-3   -3.295313707946678E-2   -9.752390531880043E-3   -3.298073086029611E-2    4.747599963897499E-1   -1.894391334262042E-1
 6.529003994725000E9     5.580306293935541E-1   -6.755563060755317E-2   -9.124714468177513E-3   -3.324621628913065E-2   -9.844670254463624E-3   -3.300464745510460E-2    4.745533426172177E-1   -1.904312971395074E-1
 6.529014466800000E9     5.580012396580899E-1   -6.832645456295618E-2   -9.198906840929135E-3   -3.336507666880667E-2   -9.877586704491346E-3   -3.326760488913464E-2    4.740804959977936E-1   -1.915056031253753E-1
 6.529024938875000E9     5.579246062280908E-1   -6.925125010238684E-2   -9.363181374010468E-3   -3.353376951162496E-2   -1.008198030363277E-2   -3.343677570201813E-2    4.736412087129781E-1   -1.921910155927748E-1
 6.529035410950000E9     5.577817246507155E-1   -7.008576529011480E-2   -9.591887931305276E-3   -3.369838908585266E-2   -1.028273052292803E-2   -3.358517083031249E-2    4.730640100389430E-1   -1.930273904595779E-1
 6.529045883025000E9     5.576337767039674E-1   -7.103756468085980E-2   -9.579493924220101E-3   -3.381755186810153E-2   -1.032770831396735E-2   -3.374320076721790E-2    4.725913084804329E-1   -1.941561343499889E-1
 6.529056355100000E9     5.575750115808291E-1   -7.182684500710476E-2   -9.713254941035117E-3   -3.416756560893605E-2   -1.053015485865181E-2   -3.391090487288292E-2    4.722800475638380E-1   -1.950539400488477E-1
 6.529066827175000E9     5.574738886812538E-1   -7.267615502044809E-2   -9.920064037736332E-3   -3.422923839041837E-2   -1.062559862247907E-2   -3.409913807088430E-2    4.719527844099150E-1   -1.959345386483587E-1
 6.529077299250000E9     5.573044594026884E-1   -7.354370066055883E-2   -9.913912505620754E-3   -3.452763416408115E-2   -1.067651484054657E-2   -3.425909282417874E-2    4.714916156674325E-1   -1.969169723719757E-1
 6.529087771325000E9     5.571175868596860E-1   -7.428959292098516E-2   -1.004968272759452E-2   -3.460197969138577E-2   -1.085850482592597E-2   -3.448616791645173E-2    4.710956156309565E-1   -1.979081538350310E-1
 6.529098243400000E9     5.570876691208151E-1   -7.519871194163333E-2   -1.016150370391850E-2   -3.482827569440010E-2   -1.086897305264441E-2   -3.455224467369190E-2    4.706863800397902E-1   -1.988007714773208E-1
 6.529108715475000E9     5.569194091211622E-1   -7.606194464112638E-2   -1.043960695201573E-2   -3.495422844974036E-2   -1.116184620382402E-2   -3.477643400210660E-2    4.702383952971505E-1   -1.997489816875833E-1
 6.529119187550000E9     5.569281931980520E-1   -7.700662784922890E-2   -1.049285030278198E-2   -3.518873882620078E-2   -1.123218035118739E-2   -3.502345435767267E-2    4.696559058671141E-1   -2.006485102784068E-1
 6.529129659625000E9     5.567273006500876E-1   -7.786982563168694E-2   -1.065894744757111E-2   -3.538602288993708E-2   -1.136901035804559E-2   -3.511938240683742E-2    4.693433297292170E-1   -2.013903826405311E-1
 6.529140131700000E9     5.564043649307927E-1   -7.880036839981520E-2   -1.081955423951516E-2   -3.558983087247764E-2   -1.155074886265364E-2   -3.519863162859494E-2    4.688426560329482E-1   -2.025007377973736E-1
 6.529150603775000E9     5.562356455602390E-1   -7.965320416234684E-2   -1.095902708378507E-2   -3.580483562882792E-2   -1.164749714559996E-2   -3.560258173818594E-2    4.683202338712757E-1   -2.034197795565134E-1
 6.529161075850000E9     5.562158887568754E-1   -8.050354018359569E-2   -1.092047234112924E-2   -3.595827540457041E-2   -1.183944536734582E-2   -3.574711557094776E-2    4.678106622065362E-1   -2.044946253787751E-1
 6.529171547925000E9     5.560918187215721E-1   -8.132665795947441E-2   -1.112154610424379E-2   -3.600276508956606E-2   -1.201994479104321E-2   -3.591762672611312E-2    4.674544474232261E-1   -2.053105404988906E-1
 6.529182020000000E9     5.559438548513380E-1   -8.243302859245398E-2   -1.133700866352783E-2   -3.645473013799132E-2   -1.217785625138454E-2   -3.614295578050868E-2    4.669773608056820E-1   -2.062798147203140E-1
 6.529192492075000E9     5.558429918062829E-1   -8.314371311762975E-2   -1.136333108864408E-2   -3.654679917803443E-2   -1.220565912591996E-2   -3.627076211318034E-2    4.664187079008158E-1   -2.072359909418048E-1
 6.529202964150000E9     5.557247924712824E-1   -8.387446767608453E-2   -1.168572916142434E-2   -3.677353828689625E-2   -1.235111874127682E-2   -3.650221664921197E-2    4.658635226452230E-1   -2.082682955412659E-1
 6.529213436225000E9     5.554935432381585E-1   -8.473465481717561E-2   -1.174241024825715E-2   -3.683937056187032E-2   -1.251548030017007E-2   -3.668898212357267E-2    4.655110322232451E-1   -2.091933755121561E-1
 6.529223908300000E9     5.553387242158488E-1   -8.575919761873775E-2   -1.171986196032270E-2   -3.706790160697639E-2   -1.266683586479079E-2   -3.693455833611775E-2    4.649555836057023E-1   -2.102339023705936E-1
 6.529234380375000E9     5.551650968836079E-1   -8.670283491909130E-2   -1.212240779807720E-2   -3.736700698539134E-2   -1.283247320297177E-2   -3.715575355131714E-2    4.643114822323438E-1   -2.111937733738678E-1
 6.529244852450000E9     5.549300269147625E-1   -8.753622147711403E-2   -1.231257682225870E-2   -3.747462203366274E-2   -1.308046916969818E-2   -3.728617582896832E-2    4.640130642830684E-1   -2.121419496241159E-1
 6.529255324525000E9     5.548971772680098E-1   -8.837872449290381E-2   -1.242390295135141E-2   -3.779834058148260E-2   -1.327267546371389E-2   -3.753824089200820E-2    4.634570507389372E-1   -2.133489440934012E-1
 6.529265796600000E9     5.547731683103485E-1   -8.924570312759969E-2   -1.238224978664848E-2   -3.809039783584567E-2   -1.335672456132269E-2   -3.777671129636300E-2    4.628462890394667E-1   -2.141517377602659E-1
 6.529276268675000E9     5.545432762021739E-1   -9.013285622357904E-2   -1.268596693660605E-2   -3.812963782950460E-2   -1.358089331881012E-2   -3.781774677190972E-2    4.623770296241278E-1   -2.150597471392250E-1
 6.529286740750000E9     5.543072743885531E-1   -9.107880689893237E-2   -1.282548349100305E-2   -3.834878272750786E-2   -1.371945060768596E-2   -3.809002177677497E-2    4.618251303569906E-1   -2.161492434035662E-1
 6.529297212825000E9     5.541802553811860E-1   -9.190805649275983E-2   -1.298670654628727E-2   -3.855586718504765E-2   -1.390686104326592E-2   -3.833446534631815E-2    4.612772874043972E-1   -2.172437522612715E-1
 6.529307684900000E9     5.539839690365019E-1   -9.285102412805205E-2   -1.325630136747239E-2   -3.871958091250928E-2   -1.410910666460169E-2   -3.855388325277773E-2    4.607941579872073E-1   -2.181613986708598E-1
 6.529318156975000E9     5.538085604444496E-1   -9.379986306572193E-2   -1.340975962374116E-2   -3.901021596377231E-2   -1.428114738974105E-2   -3.876627128716869E-2    4.603189746720324E-1   -2.192499575407117E-1
 6.529328629050000E9     5.537512844590610E-1   -9.459770369739816E-2   -1.364833722504125E-2   -3.926233966904133E-2   -1.452747814903523E-2   -3.896657319410046E-2    4.597429102052989E-1   -2.201400992331283E-1
 6.529339101125000E9     5.536149180531906E-1   -9.547150759460700E-2   -1.371383856898433E-2   -3.939842323086297E-2   -1.463447198379249E-2   -3.919512251628768E-2    4.590731999637157E-1   -2.211370850288029E-1
 6.529349573200000E9     5.533891999104037E-1   -9.644614780326605E-2   -1.389164020428893E-2   -3.975914030841741E-2   -1.478222465396109E-2   -3.939223806117079E-2    4.586067856340083E-1   -2.221549337640938E-1
 6.529360045275000E9     5.531925060042635E-1   -9.734086582974884E-2   -1.399024478449554E-2   -4.009295109155572E-2   -1.502024503741591E-2   -3.974174432642606E-2    4.579983920985434E-1   -2.232334157891900E-1
 6.529370517350000E9     5.529655005220939E-1   -9.813103589051322E-2   -1.426505654767732E-2   -4.019693369925594E-2   -1.521023900904777E-2   -3.995302877031797E-2    4.573006075315997E-1   -2.242220240598166E-1
 6.529380989425000E9     5.526778522120742E-1   -9.913483674330652E-2   -1.441414818197168E-2   -4.044597637980747E-2   -1.529236887597520E-2   -4.017634340238660E-2    4.568707402512825E-1   -2.252778673929941E-1
 6.529391461500000E9     5.525332909242825E-1   -1.000501681905663E-1   -1.460404528552294E-2   -4.074067792527322E-2   -1.552094891625827E-2   -4.033876719943551E-2    4.563600629254209E-1   -2.263368043300267E-1
 6.529401933575000E9     5.522734111257420E-1   -1.009451888644855E-1   -1.486525815765218E-2   -4.098931506282884E-2   -1.578990069363905E-2   -4.060047496001720E-2    4.556833785424375E-1   -2.274741543703210E-1
 6.529412405650000E9     5.521840169170968E-1   -1.017884832943480E-1   -1.500230349442691E-2   -4.121423482217383E-2   -1.598969816868924E-2   -4.080810212534627E-2    4.549766363088785E-1   -2.282811615919396E-1
 6.529422877725000E9     5.519121146535819E-1   -1.027754938578577E-1   -1.518270430275842E-2   -4.153260668800086E-2   -1.620258873712401E-2   -4.124764778627123E-2    4.544071611772360E-1   -2.294165340715121E-1
 6.529433349800000E9     5.517175330780217E-1   -1.036926985665362E-1   -1.543448961768341E-2   -4.166032606700786E-2   -1.646491293431644E-2   -4.140631316751909E-2    4.537959224999992E-1   -2.304363664360142E-1
 6.529443821875000E9     5.515476081561621E-1   -1.045895759690891E-1   -1.566457073281062E-2   -4.204310437541441E-2   -1.659765600017034E-2   -4.166092703386041E-2    4.531320328783394E-1   -2.315011450651139E-1
 6.529454293950000E9     5.513612809540761E-1   -1.054985891582385E-1   -1.575615792155278E-2   -4.218974715426151E-2   -1.674750880853802E-2   -4.192142943598458E-2    4.525311793469245E-1   -2.324506726038187E-1
 6.529464766025000E9     5.511116448016445E-1   -1.064863458497464E-1   -1.615343312973840E-2   -4.247295030159597E-2   -1.707081075101225E-2   -4.217410935916015E-2    4.518357729063359E-1   -2.337193203420057E-1
 6.529475238100000E9     5.508889436382841E-1   -1.073855822101956E-1   -1.635734224635364E-2   -4.277186309171323E-2   -1.733203423526094E-2   -4.249343482358808E-2    4.512598887930517E-1   -2.346925451405884E-1
 6.529485710175000E9     5.508092409875531E-1   -1.082643703195442E-1   -1.649867018072750E-2   -4.314080038745945E-2   -1.756526402918342E-2   -4.262890489661861E-2    4.504764749817439E-1   -2.358516300796701E-1
 6.529496182250000E9     5.504686255666056E-1   -1.092862031109554E-1   -1.678955515687233E-2   -4.318840469397467E-2   -1.783291616331726E-2   -4.297467880509505E-2    4.497644464428598E-1   -2.368870298231699E-1
 6.529506654325000E9     5.502972007322426E-1   -1.101808502555730E-1   -1.696407683538776E-2   -4.370950804444788E-2   -1.790991784252130E-2   -4.321776715881415E-2    4.491949416448000E-1   -2.380380319569131E-1
 6.529517126400000E9     5.500204022199867E-1   -1.111000287416198E-1   -1.720686442436033E-2   -4.381663581528328E-2   -1.830694340764631E-2   -4.351242100827026E-2    4.484974951568909E-1   -2.391653919876599E-1
 6.529527598475000E9     5.496474497729037E-1   -1.120286938746486E-1   -1.751225546163981E-2   -4.421109947572745E-2   -1.859047171040383E-2   -4.382644625478919E-2    4.477919168254497E-1   -2.402633001540511E-1
 6.529538070550000E9     5.495278232203948E-1   -1.129747221613229E-1   -1.770721700248503E-2   -4.445239784030112E-2   -1.873108489854733E-2   -4.403573556092062E-2    4.470753715035492E-1   -2.412561286732234E-1
 6.529548542625000E9     5.491994047872815E-1   -1.138660218844093E-1   -1.800491710868026E-2   -4.480283875433200E-2   -1.895449931277437E-2   -4.428674039287936E-2    4.464139756874336E-1   -2.423445730032184E-1
 6.529559014700000E9     5.491095689767155E-1   -1.149241166009461E-1   -1.819643578153623E-2   -4.493668188225047E-2   -1.918889251582900E-2   -4.459712390633807E-2    4.457096489841658E-1   -2.436348379658674E-1
 6.529569486775000E9     5.487916708964142E-1   -1.156224512324187E-1   -1.836278572148990E-2   -4.552941767510570E-2   -1.954457729807252E-2   -4.502683732157284E-2    4.450298480749599E-1   -2.447112419042650E-1
 6.529579958850000E9     5.484351002352844E-1   -1.166719918327477E-1   -1.874267940530710E-2   -4.573094476479109E-2   -1.985074951463942E-2   -4.527622762110012E-2    4.442329807590036E-1   -2.458977624270901E-1
 6.529590430925000E9     5.483630125557257E-1   -1.176032358868483E-1   -1.900761854383286E-2   -4.591423502597842E-2   -2.012188521517704E-2   -4.558987968652457E-2    4.431920511479451E-1   -2.469630748951626E-1
 6.529600903000000E9     5.481810483869661E-1   -1.186643254124724E-1   -1.927055129446658E-2   -4.626834974875178E-2   -2.039030634628169E-2   -4.583459609147802E-2    4.426582517171032E-1   -2.481626599678032E-1
 6.529611375075000E9     5.478555800046322E-1   -1.196052035650611E-1   -1.957885962978387E-2   -4.659930406873994E-2   -2.065699949627624E-2   -4.615828008876701E-2    4.419103530183395E-1   -2.492195978325300E-1
 6.529621847150000E9     5.474665054569591E-1   -1.205936144502635E-1   -1.985079762037955E-2   -4.698927286457810E-2   -2.102092598471834E-2   -4.650855188414272E-2    4.411486207061167E-1   -2.503295700901626E-1
 6.529632319225000E9     5.472336937784754E-1   -1.215541161131981E-1   -2.011602145396177E-2   -4.731937321296293E-2   -2.118416166271653E-2   -4.685823429072183E-2    4.401845024328037E-1   -2.515137965310803E-1
 6.529642791300000E9     5.468985507577904E-1   -1.224275879610672E-1   -2.041570619228768E-2   -4.771167628870698E-2   -2.157040587965434E-2   -4.719179508636782E-2    4.394556583709091E-1   -2.526774566255749E-1
 6.529653263375000E9     5.467108034559035E-1   -1.234783853194288E-1   -2.065350898544142E-2   -4.800487259343793E-2   -2.201383404990300E-2   -4.755963601093673E-2    4.385835087898954E-1   -2.539563292950968E-1
 6.529663735450000E9     5.464256144349841E-1   -1.242470204811826E-1   -2.101333250689245E-2   -4.840965869987920E-2   -2.224816756303002E-2   -4.781992893459239E-2    4.377437486143237E-1   -2.549725730012315E-1
 6.529674207525000E9     5.462170683586277E-1   -1.252829566476879E-1   -2.129882142894356E-2   -4.873941832417417E-2   -2.255229585099119E-2   -4.826473658962979E-2    4.369308831592393E-1   -2.562598156693038E-1
 6.529684679600000E9     5.458516412538995E-1   -1.263147890909703E-1   -2.170196637611582E-2   -4.912516384451765E-2   -2.284741661996601E-2   -4.848247043341962E-2    4.361060954399057E-1   -2.574415962625657E-1
 6.529695151675000E9     5.455080969313656E-1   -1.273948022670992E-1   -2.195349044549472E-2   -4.939986417557524E-2   -2.324576446115083E-2   -4.891721159526700E-2    4.352272373117947E-1   -2.586355427601796E-1
 6.529705623750000E9     5.452721995009644E-1   -1.283584987495376E-1   -2.238796120882138E-2   -4.962353247953733E-2   -2.360978912638356E-2   -4.925678307084624E-2    4.342776361427254E-1   -2.597976060130879E-1
