#  HZ   S   RI   R     50.00 
! Rohde & Schwarz Vector Network Analyzer 
! Rohde-Schwarz,ZNB20-2Port,1311601062101988,3.16
! Created: UTC 3/21/2024, 1:01:08 AM
! freq[Hz]                re:S11                  im:S11                  re:S21                  im:S21                  re:S12                  im:S12                  re:S22                  im:S22
 6.528758076000000E9     5.601059756100651E-1   -4.754383992298035E-2   -6.723574398636921E-3   -2.965924127337735E-2   -7.408708360945104E-3   -2.948479383056364E-2    4.833235631032848E-1   -1.678034343403247E-1
 6.528768614000000E9     5.601565119129621E-1   -4.830600094716494E-2   -6.895347864495228E-3   -2.984452486371732E-2   -7.469529175728126E-3   -2.971259579120246E-2    4.829862112581895E-1   -1.686343364246791E-1
 6.528779152000000E9     5.600363067792203E-1   -4.913359621974568E-2   -6.997473573391476E-3   -2.997079049449399E-2   -7.511480856391157E-3   -2.984637886587222E-2    4.826639852803964E-1   -1.696777524927608E-1
 6.528789690000000E9     5.599754540416215E-1   -5.003766075542358E-2   -7.007048310587914E-3   -3.018415796043465E-2   -7.659973139102333E-3   -2.993250304107792E-2    4.823234186504233E-1   -1.704175782326980E-1
 6.528800228000000E9     5.598607384821904E-1   -5.078171638411794E-2   -7.147698477584613E-3   -3.025122958673784E-2   -7.773804163464265E-3   -3.008176667748986E-2    4.820696780175763E-1   -1.713044111419874E-1
 6.528810766000000E9     5.598603881184201E-1   -5.174797606120120E-2   -7.211818973073372E-3   -3.043540024605406E-2   -7.821065573100248E-3   -3.022563611377276E-2    4.817206595180101E-1   -1.723277663782835E-1
 6.528821304000000E9     5.596455267742086E-1   -5.251058225272314E-2   -7.210219848460920E-3   -3.049784237442769E-2   -7.994070606065256E-3   -3.030972829639433E-2    4.810710796015097E-1   -1.730355640634535E-1
 6.528831842000000E9     5.596863871320782E-1   -5.344130368702194E-2   -7.364238312497304E-3   -3.065853533142228E-2   -8.056348415348582E-3   -3.052139629864317E-2    4.809979703035072E-1   -1.738049077799211E-1
 6.528842380000000E9     5.594804207494025E-1   -5.413548393900135E-2   -7.517718404503855E-3   -3.070288866938512E-2   -8.115866653136915E-3   -3.059456121063639E-2    4.805099987641043E-1   -1.747391655403502E-1
 6.528852918000000E9     5.595316427268896E-1   -5.500964594198203E-2   -7.552628545417907E-3   -3.093913479289637E-2   -8.163033183844004E-3   -3.074078737170984E-2    4.802569396638562E-1   -1.758088305175380E-1
 6.528863456000000E9     5.593901747899674E-1   -5.585470782329103E-2   -7.541875610584511E-3   -3.106094355480241E-2   -8.389939820384348E-3   -3.085503782071649E-2    4.800316916522216E-1   -1.767538564282534E-1
 6.528873994000000E9     5.593234797203682E-1   -5.675016830027250E-2   -7.683540226225298E-3   -3.117799019959826E-2   -8.473749792687555E-3   -3.104299409990052E-2    4.794998721091631E-1   -1.775155617685581E-1
 6.528884532000000E9     5.591826345746327E-1   -5.754350741436982E-2   -7.768848602942140E-3   -3.150107556695116E-2   -8.435397052828092E-3   -3.113054958389181E-2    4.791656308894961E-1   -1.784108848002862E-1
 6.528895070000000E9     5.590918489899711E-1   -5.847350932488639E-2   -8.061342285998158E-3   -3.147222133966316E-2   -8.716517679586817E-3   -3.137790453339678E-2    4.788886999427788E-1   -1.794160861632544E-1
 6.528905608000000E9     5.590471383130147E-1   -5.934563776507181E-2   -8.135556368241127E-3   -3.162699954793686E-2   -8.785952310019116E-3   -3.144957119118261E-2    4.783513404945489E-1   -1.802180546089550E-1
 6.528916146000000E9     5.588980332511246E-1   -6.024132640665864E-2   -8.091828004109103E-3   -3.183832195166914E-2   -8.799926605932342E-3   -3.164515275464973E-2    4.780962157628272E-1   -1.811442853107966E-1
 6.528926684000000E9     5.588042292160875E-1   -6.111966522267846E-2   -8.446727349579219E-3   -3.187589536733423E-2   -8.974581107171297E-3   -3.173748019008806E-2    4.776356025600079E-1   -1.821621793153173E-1
 6.528937222000000E9     5.587429466217655E-1   -6.190708228236173E-2   -8.234617506570075E-3   -3.215448301950737E-2   -9.052905546244973E-3   -3.197001455895359E-2    4.772149734590172E-1   -1.830278176836796E-1
 6.528947760000000E9     5.587317869215119E-1   -6.278993932899218E-2   -8.472285254956920E-3   -3.231070469341832E-2   -9.293807006411916E-3   -3.210032489434256E-2    4.768848184110828E-1   -1.838322730767439E-1
 6.528958298000000E9     5.584653726374171E-1   -6.357103448551871E-2   -8.505108954192408E-3   -3.238498261398042E-2   -9.181098498369964E-3   -3.231460482311047E-2    4.765306764044889E-1   -1.847798867158852E-1
 6.528968836000000E9     5.584014719542976E-1   -6.449873094050572E-2   -8.558131678385891E-3   -3.248201924500637E-2   -9.425638106474914E-3   -3.248839351490104E-2    4.759018704606951E-1   -1.856775791762678E-1
 6.528979374000000E9     5.582764972361485E-1   -6.529168790512475E-2   -8.916683164622271E-3   -3.270030129156808E-2   -9.570115911628095E-3   -3.257185608634545E-2    4.758346209001781E-1   -1.867101964313088E-1
 6.528989912000000E9     5.582434446883607E-1   -6.617059364429215E-2   -8.995261750634658E-3   -3.281536453326366E-2   -9.618212270000872E-3   -3.278348074381721E-2    4.752480488515585E-1   -1.872902773397004E-1
 6.529000450000000E9     5.580598390646553E-1   -6.704755541995698E-2   -9.070506186478295E-3   -3.294208573691034E-2   -9.749866376254954E-3   -3.290938094079299E-2    4.749289415196702E-1   -1.882375102052760E-1
 6.529010988000000E9     5.579721340434833E-1   -6.784725392117952E-2   -9.156299402080235E-3   -3.332648881391657E-2   -9.869109574813330E-3   -3.300991130009706E-2    4.745475732285333E-1   -1.893197491330096E-1
 6.529021526000000E9     5.578771471511538E-1   -6.877263722209172E-2   -9.301141972413010E-3   -3.334280885525933E-2   -9.969461405506469E-3   -3.309362004959401E-2    4.740948986316909E-1   -1.902797601886855E-1
 6.529032064000000E9     5.577636676642692E-1   -6.972782211036882E-2   -9.545215811032659E-3   -3.370306973301522E-2   -1.002671053430291E-2   -3.330560753949259E-2    4.737115863733312E-1   -1.912787232810392E-1
 6.529042602000000E9     5.576409024104191E-1   -7.049840533456374E-2   -9.469753289740420E-3   -3.373974108513377E-2   -1.023786478289093E-2   -3.357790298722563E-2    4.733815660259639E-1   -1.920755782979749E-1
 6.529053140000000E9     5.574520900740388E-1   -7.132907731255478E-2   -9.514981087831735E-3   -3.400286475372499E-2   -1.034759244105420E-2   -3.359074487618605E-2    4.728149069147413E-1   -1.931367782678029E-1
 6.529063678000000E9     5.572274669858401E-1   -7.225930340233747E-2   -9.792873162750104E-3   -3.406238460619453E-2   -1.048973072002038E-2   -3.377552882515526E-2    4.724201204114685E-1   -1.939885867305546E-1
 6.529074216000000E9     5.572794848560322E-1   -7.327014718712820E-2   -9.969951129457809E-3   -3.425498167632221E-2   -1.062695714840554E-2   -3.411986700137470E-2    4.720810735862592E-1   -1.948314928192609E-1
 6.529084754000000E9     5.571573196690358E-1   -7.390342870826916E-2   -9.911667882081466E-3   -3.441349608283005E-2   -1.075109993251353E-2   -3.420876516064618E-2    4.715345736726895E-1   -1.959015854456328E-1
 6.529095292000000E9     5.569928356146836E-1   -7.481375657482113E-2   -1.003938996104117E-2   -3.459729245105293E-2   -1.085299819716992E-2   -3.451062166394366E-2    4.712426786598174E-1   -1.966625349971854E-1
 6.529105830000000E9     5.568733951918790E-1   -7.574141871432918E-2   -1.027179619810679E-2   -3.476919570289847E-2   -1.093954630399841E-2   -3.453383134638041E-2    4.706051014616066E-1   -1.978351950157051E-1
 6.529116368000000E9     5.567702088293000E-1   -7.659043107184894E-2   -1.044423291720683E-2   -3.489166679678331E-2   -1.109697668913624E-2   -3.478002948581185E-2    4.703334400556468E-1   -1.986205134081105E-1
 6.529126906000000E9     5.565341494209116E-1   -7.745191079106706E-2   -1.045551949135166E-2   -3.502404671308994E-2   -1.127856036426782E-2   -3.494260513601099E-2    4.699901190873529E-1   -1.995537323566029E-1
 6.529137444000000E9     5.564294847312951E-1   -7.831778382298786E-2   -1.058521211728665E-2   -3.523508236753115E-2   -1.143739151323906E-2   -3.515471610419759E-2    4.692922928332686E-1   -2.006422486857977E-1
 6.529147982000000E9     5.563666775386066E-1   -7.914926318760629E-2   -1.071630306180308E-2   -3.550484740854615E-2   -1.152006538067465E-2   -3.536195523073780E-2    4.688210916959114E-1   -2.014616209160145E-1
 6.529158520000000E9     5.562512710666021E-1   -8.002942775980430E-2   -1.099514182390807E-2   -3.564356715604434E-2   -1.164363757045016E-2   -3.552343319094155E-2    4.683018888310074E-1   -2.025585284776591E-1
 6.529169058000000E9     5.560546803811537E-1   -8.092329531560817E-2   -1.095418682597356E-2   -3.586864643349466E-2   -1.179223173010965E-2   -3.567346413196457E-2    4.678931393874261E-1   -2.034096494998605E-1
 6.529179596000000E9     5.558827316810232E-1   -8.179842700665171E-2   -1.104817616266332E-2   -3.615120419052702E-2   -1.194105483528130E-2   -3.580912440002466E-2    4.676001717386222E-1   -2.043635119639006E-1
 6.529190134000000E9     5.557780012816717E-1   -8.270822651264260E-2   -1.142919243918268E-2   -3.629871335553714E-2   -1.221326229381195E-2   -3.598715911230402E-2    4.668927639803250E-1   -2.054125136207633E-1
 6.529200672000000E9     5.556578038037701E-1   -8.351228921748388E-2   -1.150343804493285E-2   -3.652319617189968E-2   -1.224718966708325E-2   -3.633351036039789E-2    4.664309625310062E-1   -2.063353387193771E-1
 6.529211210000000E9     5.555068603358605E-1   -8.452201169503158E-2   -1.174247646702053E-2   -3.660611348931977E-2   -1.247357022291858E-2   -3.642635774046044E-2    4.659986246202136E-1   -2.072098160158054E-1
 6.529221748000000E9     5.552798582490500E-1   -8.542377156331993E-2   -1.174270296302881E-2   -3.689224887106213E-2   -1.262776193457189E-2   -3.669723382104682E-2    4.654712438952705E-1   -2.082797518080721E-1
 6.529232286000000E9     5.551468060106456E-1   -8.617308739878417E-2   -1.200012065560173E-2   -3.721803820346385E-2   -1.279580907701246E-2   -3.683000400021551E-2    4.650860466043172E-1   -2.092898197456251E-1
 6.529242824000000E9     5.549643839875552E-1   -8.711294168971392E-2   -1.199777453172877E-2   -3.736997054002582E-2   -1.287488183925840E-2   -3.703190697776979E-2    4.644636590889170E-1   -2.103124890238254E-1
 6.529253362000000E9     5.548204850121176E-1   -8.807015075552861E-2   -1.233080525624472E-2   -3.762019166172749E-2   -1.310797748759765E-2   -3.722796831729342E-2    4.639519577911007E-1   -2.112579319222179E-1
 6.529263900000000E9     5.546026622063239E-1   -8.890466517206216E-2   -1.252906708561900E-2   -3.780234004267228E-2   -1.317255107305854E-2   -3.749157525246792E-2    4.635938987849174E-1   -2.120643627564604E-1
 6.529274438000000E9     5.544812147006924E-1   -8.978709443153254E-2   -1.244034941828348E-2   -3.786909735363814E-2   -1.345251473481462E-2   -3.772263209247114E-2    4.629058909269589E-1   -2.130882008560649E-1
 6.529284976000000E9     5.543131939773800E-1   -9.069388714314629E-2   -1.266894797756630E-2   -3.831446048876087E-2   -1.359694924543075E-2   -3.780695208834704E-2    4.623769203472675E-1   -2.142786731656757E-1
 6.529295514000000E9     5.542550491242920E-1   -9.153820043277028E-2   -1.281628235963059E-2   -3.845087326538670E-2   -1.373856929663029E-2   -3.814688281043425E-2    4.617684489070849E-1   -2.152317225914865E-1
 6.529306052000000E9     5.539698550934236E-1   -9.231308583329424E-2   -1.304197761180117E-2   -3.873666223062344E-2   -1.394869111538830E-2   -3.844470750665640E-2    4.613995416424320E-1   -2.162561806878847E-1
 6.529316590000000E9     5.538188242517745E-1   -9.345283931083265E-2   -1.318790905299625E-2   -3.875785279789988E-2   -1.413208058090129E-2   -3.854632817684302E-2    4.609317668455485E-1   -2.172794298951852E-1
 6.529327128000000E9     5.536063935890780E-1   -9.428242210965605E-2   -1.336888331214918E-2   -3.900551617438897E-2   -1.416457088772769E-2   -3.876714045820850E-2    4.601375720656991E-1   -2.181834848353227E-1
 6.529337666000000E9     5.533995834118164E-1   -9.513797153573443E-2   -1.353563281727175E-2   -3.923205602198292E-2   -1.440985015833127E-2   -3.908503386986845E-2    4.597807750424756E-1   -2.194791146785563E-1
 6.529348204000000E9     5.533491078663452E-1   -9.604634102513143E-2   -1.374016180023299E-2   -3.942777916992541E-2   -1.469210208092768E-2   -3.929910589291679E-2    4.590974377312158E-1   -2.205458063479913E-1
 6.529358742000000E9     5.531005697690545E-1   -9.698461957105414E-2   -1.387049121905444E-2   -3.970198770083444E-2   -1.489095966529799E-2   -3.948347493773902E-2    4.586784726268877E-1   -2.212636615827122E-1
 6.529369280000000E9     5.528515021301847E-1   -9.781585411195783E-2   -1.404672235111019E-2   -4.006327592322869E-2   -1.502658603483512E-2   -3.968093201161759E-2    4.582136593474239E-1   -2.224518639217539E-1
 6.529379818000000E9     5.527389982863908E-1   -9.878902678274758E-2   -1.426877371550278E-2   -4.014729211393336E-2   -1.521981171741557E-2   -3.987201819565329E-2    4.574078405288245E-1   -2.233647588173386E-1
 6.529390356000000E9     5.525792277893976E-1   -9.969148357183145E-2   -1.449907706233746E-2   -4.042811377839185E-2   -1.544035051215965E-2   -4.014340705076995E-2    4.566412372314897E-1   -2.243748898837579E-1
 6.529400894000000E9     5.523445127994410E-1   -1.006094715800353E-1   -1.462679327170045E-2   -4.075169274347775E-2   -1.555536471813746E-2   -4.036676100651911E-2    4.563864663159820E-1   -2.254630783701622E-1
 6.529411432000000E9     5.520963633001178E-1   -1.014700686300010E-1   -1.486321608170048E-2   -4.110388057116832E-2   -1.587863715598802E-2   -4.058804067488147E-2    4.556757958068302E-1   -2.265022748495424E-1
 6.529421970000000E9     5.518266326844985E-1   -1.024163515885578E-1   -1.509660071825335E-2   -4.125305909142266E-2   -1.600480529484123E-2   -4.099103595347275E-2    4.549305792616986E-1   -2.273996290203779E-1
 6.529432508000000E9     5.516870865522976E-1   -1.034726174614866E-1   -1.527967869279065E-2   -4.151830941620259E-2   -1.619478374912480E-2   -4.121198136401120E-2    4.545247638755679E-1   -2.286430904716532E-1
 6.529443046000000E9     5.515221713470813E-1   -1.043073178267545E-1   -1.556179643631286E-2   -4.172911893835148E-2   -1.647473424555321E-2   -4.144102564855561E-2    4.537763807688753E-1   -2.297189334645574E-1
 6.529453584000000E9     5.513237281430230E-1   -1.052511473957415E-1   -1.573464017272419E-2   -4.186025279961399E-2   -1.659523419904051E-2   -4.161881594236219E-2    4.531230557449931E-1   -2.306134919624044E-1
 6.529464122000000E9     5.511407991759288E-1   -1.061045166714936E-1   -1.589002671385048E-2   -4.230239264663511E-2   -1.684843215399985E-2   -4.195036388542363E-2    4.525347669224684E-1   -2.318266119041476E-1
 6.529474660000000E9     5.509602717195138E-1   -1.069970684756716E-1   -1.619260203315587E-2   -4.238824266640955E-2   -1.717857907761223E-2   -4.220969939750836E-2    4.518680757686276E-1   -2.329640484894519E-1
 6.529485198000000E9     5.505866535562511E-1   -1.080616709094349E-1   -1.634734452959118E-2   -4.285089068829377E-2   -1.735541638124898E-2   -4.249396984188538E-2    4.512415008955452E-1   -2.341226161972290E-1
 6.529495736000000E9     5.505348028833610E-1   -1.089503408133460E-1   -1.641076583918336E-2   -4.313704892405187E-2   -1.760790587571772E-2   -4.281958988438283E-2    4.505173743982506E-1   -2.350610669321057E-1
 6.529506274000000E9     5.501619152404912E-1   -1.098617603505177E-1   -1.674629977660125E-2   -4.338181346652675E-2   -1.785976913622382E-2   -4.285902440290092E-2    4.496910658082514E-1   -2.361583801217409E-1
 6.529516812000000E9     5.499733957062423E-1   -1.108293498883855E-1   -1.702369455419834E-2   -4.365305153209550E-2   -1.815421397939663E-2   -4.326875016304258E-2    4.489331098743290E-1   -2.373201129347518E-1
 6.529527350000000E9     5.497413199493622E-1   -1.116691391437001E-1   -1.727709232194685E-2   -4.398208393544308E-2   -1.828346975000056E-2   -4.357518290413556E-2    4.484578278884577E-1   -2.382731145986748E-1
 6.529537888000000E9     5.494969960513278E-1   -1.127130279225076E-1   -1.744068549704352E-2   -4.421838411182676E-2   -1.854904406834729E-2   -4.387657058303691E-2    4.477349012921668E-1   -2.393997352172492E-1
 6.529548426000000E9     5.494473209927452E-1   -1.135834081981727E-1   -1.782041796020179E-2   -4.447326006801384E-2   -1.892807017109775E-2   -4.427432571674060E-2    4.471457333207923E-1   -2.405217162094449E-1
 6.529558964000000E9     5.490300739313299E-1   -1.146089033401107E-1   -1.803891018909303E-2   -4.479289762676693E-2   -1.910174526644071E-2   -4.448245097605198E-2    4.463649218271572E-1   -2.416577279413493E-1
 6.529569502000000E9     5.487815037038261E-1   -1.155070429083881E-1   -1.828074255147497E-2   -4.518859606364546E-2   -1.946316796454056E-2   -4.476689806229748E-2    4.457129093437062E-1   -2.428474777077091E-1
 6.529580040000000E9     5.485835332522141E-1   -1.163523858735804E-1   -1.857025101322199E-2   -4.536621719378601E-2   -1.966157638025251E-2   -4.501881678050023E-2    4.447558682917109E-1   -2.440000438939910E-1
 6.529590578000000E9     5.482317466168614E-1   -1.174464130488092E-1   -1.876866935814224E-2   -4.561895427296578E-2   -1.987439244213424E-2   -4.525299537420675E-2    4.441100807344822E-1   -2.451378779496288E-1
 6.529601116000000E9     5.480353617372838E-1   -1.183375202039093E-1   -1.913501328147463E-2   -4.604977881566279E-2   -2.016454808487551E-2   -4.553698916237985E-2    4.433263543788754E-1   -2.464093668746334E-1
 6.529611654000000E9     5.477421241511004E-1   -1.193521313583248E-1   -1.929057916363782E-2   -4.636020574782102E-2   -2.055310139129411E-2   -4.601211669406692E-2    4.425894653743505E-1   -2.473336946543990E-1
 6.529622192000000E9     5.475375693585236E-1   -1.203697507784250E-1   -1.959297187193129E-2   -4.677261244489360E-2   -2.084080242771144E-2   -4.632613579914183E-2    4.417317775804943E-1   -2.485346412830691E-1
 6.529632730000000E9     5.471347834465335E-1   -1.212907587973839E-1   -1.994594886775368E-2   -4.703805935463936E-2   -2.110728205596579E-2   -4.666907706800706E-2    4.409802026881466E-1   -2.496734075065154E-1
 6.529643268000000E9     5.469328082521857E-1   -1.221590326927412E-1   -2.011771171100070E-2   -4.743744415944953E-2   -2.141069876956467E-2   -4.700016337119912E-2    4.401518003691277E-1   -2.510203725608703E-1
 6.529653806000000E9     5.466427512180466E-1   -1.232064978730753E-1   -2.053774939649083E-2   -4.764292860641085E-2   -2.159695594596250E-2   -4.723002377938516E-2    4.393228308899862E-1   -2.521617193692168E-1
 6.529664344000000E9     5.464843864603949E-1   -1.240869225867138E-1   -2.083101497197772E-2   -4.806749883116485E-2   -2.194081973301570E-2   -4.758352129555442E-2    4.384161533908181E-1   -2.532369168084563E-1
 6.529674882000000E9     5.461243738348247E-1   -1.250986801087091E-1   -2.109071555779884E-2   -4.841466264554304E-2   -2.231622715853833E-2   -4.792932417110207E-2    4.376475361963759E-1   -2.544504955740549E-1
 6.529685420000000E9     5.457014154586619E-1   -1.260133208127467E-1   -2.144381177651280E-2   -4.878409382939597E-2   -2.258455473510567E-2   -4.826523849551758E-2    4.367815074361364E-1   -2.556238278581588E-1
 6.529695958000000E9     5.455257489143978E-1   -1.270091337401720E-1   -2.185211007835261E-2   -4.905094052925552E-2   -2.297716399393444E-2   -4.856197900252484E-2    4.358637523069758E-1   -2.568932447525172E-1
 6.529706496000000E9     5.451912642381087E-1   -1.280008135942345E-1   -2.206510479335148E-2   -4.956279653679743E-2   -2.328511749187310E-2   -4.896700439633574E-2    4.351364042232404E-1   -2.580450604167545E-1
