#  HZ   S   RI   R     50.00 
! Rohde & Schwarz Vector Network Analyzer 
! Rohde-Schwarz,ZNB20-2Port,1311601062101988,3.16
! Created: UTC 3/21/2024, 1:01:11 AM
! freq[Hz]                re:S11                  im:S11                  re:S21                  im:S21                  re:S12                  im:S12                  re:S22                  im:S22
 6.528756969000000E9     5.602636245313419E-1   -4.730589031863410E-2   -6.718210021818551E-3   -2.971030825069184E-2   -7.284825163395803E-3   -2.952941072385053E-2    4.833486871296266E-1   -1.674006283745880E-1
 6.528767514650000E9     5.601683682259156E-1   -4.810216266404351E-2   -6.757538524150454E-3   -2.966662845196740E-2   -7.382370074099893E-3   -2.973243938792490E-2    4.831420015747032E-1   -1.683097093270548E-1
 6.528778060300000E9     5.601021931744939E-1   -4.899165361885456E-2   -6.862623396534802E-3   -2.984247530964517E-2   -7.650870588301498E-3   -2.974669580428677E-2    4.825623072955132E-1   -1.691361285076531E-1
 6.528788605950000E9     5.599930827575900E-1   -5.001508252352733E-2   -7.047015156218359E-3   -3.012264554950404E-2   -7.576471357133774E-3   -2.987534720485723E-2    4.822122332424471E-1   -1.700990771849010E-1
 6.528799151600000E9     5.599528140528914E-1   -5.063513959796927E-2   -7.065370337644462E-3   -3.005559194950395E-2   -7.749941147166905E-3   -3.009239889588514E-2    4.819150952902830E-1   -1.709508573635273E-1
 6.528809697250000E9     5.598502249474152E-1   -5.150842979198570E-2   -7.254737409169228E-3   -3.033996387258994E-2   -7.826591202447341E-3   -3.007918431980699E-2    4.815431308304797E-1   -1.717895057252733E-1
 6.528820242900000E9     5.597288871609096E-1   -5.242085867944739E-2   -7.175823573476877E-3   -3.035822106548226E-2   -7.811482603779371E-3   -3.034447133762297E-2    4.812956759382691E-1   -1.728053380493175E-1
 6.528830788550000E9     5.597314347357081E-1   -5.320945260066751E-2   -7.394632851694084E-3   -3.057156827128363E-2   -8.087030343499229E-3   -3.043774377539957E-2    4.809717657174093E-1   -1.736677459962499E-1
 6.528841334200000E9     5.595579792744712E-1   -5.405474501142855E-2   -7.419809374004923E-3   -3.073238679467958E-2   -8.095392358339840E-3   -3.064954393045674E-2    4.807369691528687E-1   -1.745019097844251E-1
 6.528851879850000E9     5.594358035431972E-1   -5.495295378165722E-2   -7.475475590442042E-3   -3.084354155254261E-2   -8.224161574132206E-3   -3.079410552876767E-2    4.802085935916452E-1   -1.753043023739430E-1
 6.528862425500000E9     5.594413335779180E-1   -5.582503202868454E-2   -7.589110825961242E-3   -3.103823392665630E-2   -8.288329834898389E-3   -3.090983087187571E-2    4.799659261866281E-1   -1.763775290681862E-1
 6.528872971150000E9     5.594001083711931E-1   -5.664234996799421E-2   -7.729427538131931E-3   -3.120257431568068E-2   -8.391350084032146E-3   -3.101019271879855E-2    4.794991815152592E-1   -1.774077117895430E-1
 6.528883516800000E9     5.591867433876685E-1   -5.751969257661352E-2   -7.821550433230550E-3   -3.122673146266046E-2   -8.510365261726811E-3   -3.115596021820484E-2    4.789641390984269E-1   -1.780221285161264E-1
 6.528894062450000E9     5.591085885453275E-1   -5.844770732061252E-2   -8.080761659163889E-3   -3.155280793929386E-2   -8.701440046937126E-3   -3.132138390520343E-2    4.788250677110886E-1   -1.790392166873551E-1
 6.528904608100000E9     5.590525724168912E-1   -5.922412971484563E-2   -7.987238526580478E-3   -3.167897778672654E-2   -8.713472291533375E-3   -3.150270011086905E-2    4.784281708612476E-1   -1.799198035900630E-1
 6.528915153750000E9     5.589476044905328E-1   -6.007355493983320E-2   -8.154662344735629E-3   -3.181045583343956E-2   -8.836306315989476E-3   -3.151717445854317E-2    4.779853201527237E-1   -1.807627433188069E-1
 6.528925699400000E9     5.588455428084775E-1   -6.095640878010837E-2   -8.179700621282541E-3   -3.188438275283569E-2   -9.007545596758320E-3   -3.170365804577027E-2    4.777384768978949E-1   -1.815520680499114E-1
 6.528936245050000E9     5.587458410270243E-1   -6.190860082189168E-2   -8.442227730142644E-3   -3.206770120647896E-2   -9.091102818524946E-3   -3.189449646164532E-2    4.772775679489308E-1   -1.826926117155719E-1
 6.528946790700000E9     5.586334114772379E-1   -6.248834905932880E-2   -8.477131085021832E-3   -3.230275087877663E-2   -9.196007058994980E-3   -3.207985101922683E-2    4.769572638606195E-1   -1.834809167345709E-1
 6.528957336350000E9     5.584756264048015E-1   -6.344257176016597E-2   -8.631707322071823E-3   -3.232025921086654E-2   -9.346937305640448E-3   -3.217646205516803E-2    4.765243746225521E-1   -1.844354838724473E-1
 6.528967882000000E9     5.583980970175043E-1   -6.427795183815416E-2   -8.722969502622420E-3   -3.249389066618481E-2   -9.386710500104357E-3   -3.242699960877749E-2    4.762097851124066E-1   -1.853252777910873E-1
 6.528978427650000E9     5.583070511162974E-1   -6.524521642263532E-2   -8.802244525122351E-3   -3.270733601870972E-2   -9.436585575005966E-3   -3.250722959264752E-2    4.758149488098255E-1   -1.860886312528698E-1
 6.528988973300000E9     5.582639731654881E-1   -6.604665121324364E-2   -8.848532497032361E-3   -3.280157220800131E-2   -9.585644445763188E-3   -3.270986527221194E-2    4.753657072170940E-1   -1.870076384441419E-1
 6.528999518950000E9     5.582027466234021E-1   -6.689916168753446E-2   -9.110201035149933E-3   -3.297522848374216E-2   -9.602821272201323E-3   -3.287268348444503E-2    4.749505482133105E-1   -1.880013735163633E-1
 6.529010064600000E9     5.580176662848765E-1   -6.772395047586210E-2   -9.059636114908530E-3   -3.302296256800148E-2   -9.933490011420873E-3   -3.298928403723259E-2    4.745293998871086E-1   -1.889621894206279E-1
 6.529020610250000E9     5.578608196002846E-1   -6.864764885342009E-2   -9.132167677787816E-3   -3.333922833538839E-2   -9.889533343666747E-3   -3.318723828934245E-2    4.740402878694018E-1   -1.900473958600712E-1
 6.529031155900000E9     5.578650022289164E-1   -6.947577487317083E-2   -9.274399142460692E-3   -3.347560113790907E-2   -1.015281468972784E-2   -3.327793571533431E-2    4.737429622445670E-1   -1.908484670383512E-1
 6.529041701550000E9     5.576890947626655E-1   -7.036209416064555E-2   -9.381852160240813E-3   -3.382055352854212E-2   -1.026628072362092E-2   -3.350309413800525E-2    4.732625235857458E-1   -1.918201067790549E-1
 6.529052247200000E9     5.574334905650483E-1   -7.126137783308360E-2   -9.561630069035680E-3   -3.391619980189611E-2   -1.047154732853080E-2   -3.377785226236377E-2    4.729003799993038E-1   -1.926648821754927E-1
 6.529062792850000E9     5.574027245471842E-1   -7.219103672235781E-2   -9.680646974842257E-3   -3.399653698211300E-2   -1.035883407738913E-2   -3.387915972085515E-2    4.724877155633753E-1   -1.937212647465298E-1
 6.529073338500000E9     5.572392205197237E-1   -7.297310499218553E-2   -9.849810725015940E-3   -3.434356667576628E-2   -1.068035105509250E-2   -3.406516107995733E-2    4.720225066715334E-1   -1.945553722709916E-1
 6.529083884150000E9     5.571507517082770E-1   -7.389523736561038E-2   -9.920712113758679E-3   -3.445885072448140E-2   -1.065966892608400E-2   -3.414069134982722E-2    4.716898822673490E-1   -1.954975541797782E-1
 6.529094429800000E9     5.571086695852255E-1   -7.467190601039368E-2   -9.995266943161352E-3   -3.457215819780118E-2   -1.084780646299222E-2   -3.436404243849631E-2    4.712329519410080E-1   -1.964006773812431E-1
 6.529104975450000E9     5.568258499662225E-1   -7.557539035554874E-2   -1.023660129787409E-2   -3.474124139177399E-2   -1.092076528531988E-2   -3.454759330458144E-2    4.707804525652196E-1   -1.973886293261616E-1
 6.529115521100000E9     5.566773944044027E-1   -7.639559918182240E-2   -1.040049256703297E-2   -3.486105589057983E-2   -1.111451456032655E-2   -3.473625578056076E-2    4.703501265262321E-1   -1.982870453332454E-1
 6.529126066750000E9     5.566745909422515E-1   -7.732137085404654E-2   -1.045627417908187E-2   -3.509382521362191E-2   -1.119814954681762E-2   -3.491196280706209E-2    4.699353243907301E-1   -1.992178228483292E-1
 6.529136612400000E9     5.564245749532015E-1   -7.829562551963362E-2   -1.052323671249134E-2   -3.522981621668259E-2   -1.134600376588930E-2   -3.512576171246030E-2    4.695054336274685E-1   -2.002307413274594E-1
 6.529147158050000E9     5.563308772188311E-1   -7.916191524337929E-2   -1.086510654837108E-2   -3.544337169486851E-2   -1.154626909371149E-2   -3.529498168917670E-2    4.689934878896365E-1   -2.012218581101652E-1
 6.529157703700000E9     5.561640955008259E-1   -8.004589070825083E-2   -1.098677175359731E-2   -3.548980400671833E-2   -1.172207893439616E-2   -3.551557371903741E-2    4.685350744408348E-1   -2.020159034052163E-1
 6.529168249350000E9     5.560870323650063E-1   -8.083143563684993E-2   -1.095432358362182E-2   -3.589403944381527E-2   -1.173870828719081E-2   -3.566153178723175E-2    4.680788942496696E-1   -2.032043410043249E-1
 6.529178795000000E9     5.558328784696818E-1   -8.173090243249215E-2   -1.115856429060729E-2   -3.606112843550916E-2   -1.193321816701279E-2   -3.584952751038607E-2    4.674781788335483E-1   -2.039905140559292E-1
 6.529189340650000E9     5.557841983122290E-1   -8.258413511836708E-2   -1.142922918903733E-2   -3.624930826671823E-2   -1.221163000725831E-2   -3.604061577961467E-2    4.670343789188772E-1   -2.050747332558186E-1
 6.529199886300000E9     5.556220091398680E-1   -8.349543576500756E-2   -1.148817613440968E-2   -3.671349494636009E-2   -1.228148616689102E-2   -3.637140690392174E-2    4.665087818731220E-1   -2.059053275856825E-1
 6.529210431950000E9     5.554246044838708E-1   -8.433271023358779E-2   -1.148661809751332E-2   -3.661095402657025E-2   -1.246169424956113E-2   -3.640348414716049E-2    4.660659898842698E-1   -2.069724348102098E-1
 6.529220977600000E9     5.553469411300717E-1   -8.524122612760336E-2   -1.174503839057483E-2   -3.678733352101159E-2   -1.251072712446488E-2   -3.673628137161073E-2    4.655842092120986E-1   -2.080160207716985E-1
 6.529231523250000E9     5.551102012380705E-1   -8.618706672699633E-2   -1.184900865188265E-2   -3.709328837298252E-2   -1.275583943217030E-2   -3.681183090535274E-2    4.650495903714217E-1   -2.089403541019213E-1
 6.529242068900000E9     5.549781221451600E-1   -8.702489298365951E-2   -1.197073422594020E-2   -3.704311212057206E-2   -1.286073097677608E-2   -3.706433904978505E-2    4.645181633872811E-1   -2.100699638004297E-1
 6.529252614550000E9     5.547589381015405E-1   -8.795719431498665E-2   -1.198923364714118E-2   -3.748368441780917E-2   -1.304913180607330E-2   -3.724381961221342E-2    4.640365182364307E-1   -2.109296766988318E-1
 6.529263160200000E9     5.546855257904413E-1   -8.888500512356727E-2   -1.231975490867640E-2   -3.770467350180347E-2   -1.314670685561638E-2   -3.745208846476651E-2    4.636725331531337E-1   -2.118631391929725E-1
 6.529273705850000E9     5.545057510505932E-1   -8.962891425932597E-2   -1.238543615194792E-2   -3.796376408413028E-2   -1.351023966316724E-2   -3.763423769755206E-2    4.630159135393697E-1   -2.129066189883681E-1
 6.529284251500000E9     5.544352363771361E-1   -9.063396536208942E-2   -1.264513771766320E-2   -3.820795284722608E-2   -1.352856012555143E-2   -3.785188798058659E-2    4.626232417182435E-1   -2.137131658336601E-1
 6.529294797150000E9     5.541925797435195E-1   -9.147576247368655E-2   -1.286861969444456E-2   -3.833600923722102E-2   -1.367566959426356E-2   -3.814570626149130E-2    4.620994470059326E-1   -2.149243579823734E-1
 6.529305342800000E9     5.540027758645588E-1   -9.238874309012853E-2   -1.305687192271359E-2   -3.843431874449302E-2   -1.400366687612591E-2   -3.822700486369558E-2    4.614834175839133E-1   -2.158421230019220E-1
 6.529315888450000E9     5.538875616797109E-1   -9.323914857173692E-2   -1.314225644220934E-2   -3.875701362311339E-2   -1.404433558537259E-2   -3.850674710753002E-2    4.607843972682751E-1   -2.169724947743642E-1
 6.529326434100000E9     5.536440418464739E-1   -9.429722333965429E-2   -1.340960751654485E-2   -3.890354475695091E-2   -1.420317932320222E-2   -3.873162172185377E-2    4.603310803368260E-1   -2.178999128440293E-1
 6.529336979750000E9     5.534568914341026E-1   -9.517002189154745E-2   -1.346261184906693E-2   -3.923407404497167E-2   -1.440199152039786E-2   -3.892108788632874E-2    4.598370108832212E-1   -2.189620514920804E-1
 6.529347525400000E9     5.533825865275173E-1   -9.595056478674312E-2   -1.362229597809882E-2   -3.950569115517591E-2   -1.467985184858926E-2   -3.914076008578547E-2    4.593522932881772E-1   -2.198988029634707E-1
 6.529358071050000E9     5.531411953089143E-1   -9.688717067948253E-2   -1.386486931648689E-2   -3.965336094290702E-2   -1.481984598210893E-2   -3.937204302305092E-2    4.585791259992725E-1   -2.211181280828188E-1
 6.529368616700000E9     5.528734889228685E-1   -9.781471701619644E-2   -1.403606098433900E-2   -3.987387882433135E-2   -1.497015793663596E-2   -3.961613635309968E-2    4.580955047901544E-1   -2.220680925137642E-1
 6.529379162350000E9     5.526841211233822E-1   -9.875155620229507E-2   -1.428408102787598E-2   -4.014941262849782E-2   -1.515937989662625E-2   -3.988691905362948E-2    4.574971215837675E-1   -2.232104953117600E-1
 6.529389708000000E9     5.525278002741465E-1   -9.960498216914025E-2   -1.439965954337516E-2   -4.049101774979862E-2   -1.535954465349775E-2   -4.018331686976915E-2    4.570182739138305E-1   -2.240646429141585E-1
 6.529400253650000E9     5.522832877924867E-1   -1.005353321951257E-1   -1.462761013722297E-2   -4.082701197070398E-2   -1.556673464764196E-2   -4.041733139663569E-2    4.563520306529343E-1   -2.251035832162156E-1
 6.529410799300000E9     5.521000975247302E-1   -1.014988234829038E-1   -1.482081964530518E-2   -4.098707795674005E-2   -1.575144628540424E-2   -4.071917567694971E-2    4.557651197500024E-1   -2.261752426022872E-1
 6.529421344950000E9     5.519846843607801E-1   -1.024294379701354E-1   -1.489920854225852E-2   -4.113362730397157E-2   -1.605724258458227E-2   -4.085997639491216E-2    4.551121882592271E-1   -2.272522677334976E-1
 6.529431890600000E9     5.517549608705946E-1   -1.032579739074625E-1   -1.519185453378898E-2   -4.146038303111241E-2   -1.626949029092510E-2   -4.111969126735859E-2    4.545220770822357E-1   -2.283218866377678E-1
 6.529442436250000E9     5.516489267134879E-1   -1.042430397594025E-1   -1.545299402085548E-2   -4.179927571354459E-2   -1.637383141545409E-2   -4.153695253329150E-2    4.539314827430538E-1   -2.294822923501676E-1
 6.529452981900000E9     5.512891824771136E-1   -1.050548123463446E-1   -1.572069413151471E-2   -4.190674893853724E-2   -1.670658684737172E-2   -4.162868348196398E-2    4.533410327157783E-1   -2.305257046479122E-1
 6.529463527550000E9     5.512195398131111E-1   -1.060169667683018E-1   -1.590926371845067E-2   -4.223795885758589E-2   -1.684430274871274E-2   -4.186972004584180E-2    4.527157172335218E-1   -2.315398014267027E-1
 6.529474073200000E9     5.508648583058764E-1   -1.070165071345257E-1   -1.624877585370613E-2   -4.248790633436096E-2   -1.715630953475282E-2   -4.218904936346879E-2    4.519452966321877E-1   -2.325669727851336E-1
 6.529484618850000E9     5.506697209794456E-1   -1.078154587943325E-1   -1.631507777058101E-2   -4.278392937821629E-2   -1.735639783926537E-2   -4.246479273124308E-2    4.511930404667415E-1   -2.336986531468696E-1
 6.529495164500000E9     5.505499887212684E-1   -1.088879503554193E-1   -1.656567565257982E-2   -4.298404064196820E-2   -1.752166074482709E-2   -4.268648595222408E-2    4.505365424933412E-1   -2.345678044275936E-1
 6.529505710150000E9     5.502584415820173E-1   -1.097467704928410E-1   -1.684915375260689E-2   -4.334418096169289E-2   -1.787407850123339E-2   -4.294254511616459E-2    4.499572776205203E-1   -2.358997387626685E-1
 6.529516255800000E9     5.499827161466578E-1   -1.106806283334416E-1   -1.703621525386851E-2   -4.360986755579967E-2   -1.808615886121463E-2   -4.327051382190429E-2    4.492581437259425E-1   -2.369591105239030E-1
 6.529526801450000E9     5.497623895256549E-1   -1.116594834077672E-1   -1.712416247620228E-2   -4.387846543169276E-2   -1.832546100793820E-2   -4.347438935386048E-2    4.484193642167136E-1   -2.380411419867462E-1
 6.529537347100000E9     5.495039391413488E-1   -1.127423822494592E-1   -1.745392554488856E-2   -4.426081955103143E-2   -1.860043188399478E-2   -4.382245001993874E-2    4.479048663854654E-1   -2.392305376962979E-1
 6.529547892750000E9     5.492822809805556E-1   -1.135930058054757E-1   -1.766850330711269E-2   -4.429498649112723E-2   -1.877577895199049E-2   -4.406837319688944E-2    4.471447904108697E-1   -2.401521271503176E-1
 6.529558438400000E9     5.490755924370945E-1   -1.144742602428846E-1   -1.795745010029702E-2   -4.474360606368691E-2   -1.905283519292136E-2   -4.433503941576949E-2    4.464517349102677E-1   -2.414027521309743E-1
 6.529568984050000E9     5.487453528329218E-1   -1.154359654894819E-1   -1.817024062120597E-2   -4.508611438347005E-2   -1.938877894697807E-2   -4.467288024196760E-2    4.456581324671572E-1   -2.425230415351534E-1
 6.529579529700000E9     5.486635700828650E-1   -1.164762532894215E-1   -1.857759684808055E-2   -4.537847832718336E-2   -1.965809093879363E-2   -4.500879911235746E-2    4.449537822622305E-1   -2.436570731221738E-1
 6.529590075350000E9     5.483273224182074E-1   -1.172756340492822E-1   -1.885419635174619E-2   -4.581327414622276E-2   -1.985115600966631E-2   -4.519892972391921E-2    4.443032914854099E-1   -2.447611498816813E-1
 6.529600621000000E9     5.480122148961263E-1   -1.184066966351704E-1   -1.896368490747680E-2   -4.607598562189628E-2   -2.012569320693324E-2   -4.557280677609449E-2    4.433362693800834E-1   -2.460123711463576E-1
 6.529611166650000E9     5.477179612614896E-1   -1.192751270674239E-1   -1.924233453204029E-2   -4.624484284256904E-2   -2.038744863662395E-2   -4.592245610832962E-2    4.427230963277981E-1   -2.470539651098452E-1
 6.529621712300000E9     5.474842577682533E-1   -1.202836230576470E-1   -1.966484970069445E-2   -4.665959448667509E-2   -2.068728814051265E-2   -4.624372484762070E-2    4.418000078207101E-1   -2.482169220783157E-1
 6.529632257950000E9     5.471848499041070E-1   -1.211457662537329E-1   -1.994958368415606E-2   -4.691495985286832E-2   -2.112472665657536E-2   -4.657769983947435E-2    4.411489403011009E-1   -2.494140986452651E-1
 6.529642803600000E9     5.470278559108878E-1   -1.220691843381536E-1   -2.011883741140777E-2   -4.743596194531285E-2   -2.132996321154441E-2   -4.690797858204639E-2    4.401775904386049E-1   -2.505057877280261E-1
 6.529653349250000E9     5.466605321346818E-1   -1.230552255150512E-1   -2.049753743210240E-2   -4.772651126089371E-2   -2.159496412884199E-2   -4.723267206711815E-2    4.393495783267595E-1   -2.517599369330591E-1
 6.529663894900000E9     5.463204305330509E-1   -1.240324243846931E-1   -2.078762172701142E-2   -4.793793044441544E-2   -2.191084807534585E-2   -4.760720313759732E-2    4.385292697953416E-1   -2.529866023758643E-1
 6.529674440550000E9     5.461577423252594E-1   -1.249605476056712E-1   -2.109302139699265E-2   -4.816524458283665E-2   -2.216873629337401E-2   -4.792454326289971E-2    4.376402312434580E-1   -2.540667327738777E-1
 6.529684986200000E9     5.458044310109038E-1   -1.260650437334518E-1   -2.144451048044185E-2   -4.876724514102558E-2   -2.267122028556106E-2   -4.822096494919147E-2    4.368655217583832E-1   -2.554991165613393E-1
 6.529695531850000E9     5.454875252192172E-1   -1.270157475963679E-1   -2.177499011426682E-2   -4.900612574088590E-2   -2.292932556621880E-2   -4.866016815763727E-2    4.360957790061233E-1   -2.565904468159601E-1
 6.529706077500000E9     5.452584091714756E-1   -1.280243421702237E-1   -2.216319711130801E-2   -4.937694015487334E-2   -2.321496957458101E-2   -4.900588846127317E-2    4.350555896094922E-1   -2.578239373811539E-1
