#  HZ   S   RI   R     50.00 
! Rohde & Schwarz Vector Network Analyzer 
! Rohde-Schwarz,ZNB20-2Port,1311601062101988,3.16
! Created: UTC 3/21/2024, 1:01:25 AM
! freq[Hz]                re:S11                  im:S11                  re:S21                  im:S21                  re:S12                  im:S12                  re:S22                  im:S22
 6.528754703000000E9     5.601886928020923E-1   -4.711328539011112E-2   -6.733250251215340E-3   -2.960375768914372E-2   -7.300559134235786E-3   -2.944299143250493E-2    4.832921350573828E-1   -1.670754959571948E-1
 6.528765280075000E9     5.600442364524635E-1   -4.791089068834722E-2   -6.729455704658180E-3   -2.970710078893067E-2   -7.315052471533573E-3   -2.955136900683213E-2    4.830941435414601E-1   -1.680459872881416E-1
 6.528775857150000E9     5.600914726018120E-1   -4.878407725875935E-2   -6.969372767034820E-3   -2.974390216258354E-2   -7.507025727048639E-3   -2.976222117194594E-2    4.826829506212543E-1   -1.688293964971286E-1
 6.528786434225000E9     5.600102159353746E-1   -4.958856160484429E-2   -6.982506411375974E-3   -2.996121396959850E-2   -7.555237765513392E-3   -2.987457274034518E-2    4.824198818415709E-1   -1.697245007910722E-1
 6.528797011300000E9     5.598511035616786E-1   -5.042219466077034E-2   -7.109865028880024E-3   -3.009874405548216E-2   -7.675743735354359E-3   -2.998177425361073E-2    4.821171846582756E-1   -1.707953661158965E-1
 6.528807588375000E9     5.597583342497724E-1   -5.118918512956782E-2   -7.023500325785437E-3   -3.021642935663499E-2   -7.909534577498328E-3   -3.013006369276989E-2    4.816730443558064E-1   -1.715739611142694E-1
 6.528818165450000E9     5.597467341351134E-1   -5.214025256326214E-2   -7.345309044028477E-3   -3.021737951774554E-2   -7.973804552916665E-3   -3.018096597587441E-2    4.814775341768363E-1   -1.724917062074339E-1
 6.528828742525000E9     5.596466948910321E-1   -5.296152012694586E-2   -7.328230469453187E-3   -3.056235004037377E-2   -7.966162415411019E-3   -3.026801580874995E-2    4.810786527779411E-1   -1.734427756051686E-1
 6.528839319600000E9     5.595334404549027E-1   -5.377814643327153E-2   -7.353637759371338E-3   -3.061240813305093E-2   -8.092200835151827E-3   -3.051797968928540E-2    4.806268768928106E-1   -1.742632096131007E-1
 6.528849896675000E9     5.596173625452813E-1   -5.464784506134041E-2   -7.562632024303922E-3   -3.077018487808603E-2   -8.277227464215131E-3   -3.065991077845494E-2    4.802192994693856E-1   -1.750350547343493E-1
 6.528860473750000E9     5.593883313671442E-1   -5.558653053400881E-2   -7.614427030007019E-3   -3.095161427384321E-2   -8.215720394314226E-3   -3.088709279444611E-2    4.800635429849683E-1   -1.760073060230512E-1
 6.528871050825000E9     5.592003189730782E-1   -5.641137570512898E-2   -7.719259075797811E-3   -3.106391955466706E-2   -8.261880380568099E-3   -3.091443906571984E-2    4.796691819552112E-1   -1.768594983638674E-1
 6.528881627900000E9     5.591876286533020E-1   -5.730725873085128E-2   -7.841226658763852E-3   -3.115754907138878E-2   -8.364678478835885E-3   -3.113204091552910E-2    4.792589710269897E-1   -1.777832850659692E-1
 6.528892204975000E9     5.590770143823847E-1   -5.806184986507663E-2   -7.763396395949116E-3   -3.141777012537745E-2   -8.569365470153455E-3   -3.124368564092187E-2    4.789642408368964E-1   -1.786416051527924E-1
 6.528902782050000E9     5.590438474920808E-1   -5.900515758541452E-2   -7.916578456007264E-3   -3.155246706403201E-2   -8.651471929913534E-3   -3.129917044942351E-2    4.784787058806464E-1   -1.795424220537407E-1
 6.528913359125000E9     5.589488626290037E-1   -5.975490551216917E-2   -8.098733359183898E-3   -3.165883649656077E-2   -8.807051884130045E-3   -3.146902727863989E-2    4.779979962836421E-1   -1.806164389968594E-1
 6.528923936200000E9     5.588556777700037E-1   -6.062800138830478E-2   -8.182348908368784E-3   -3.187727762080457E-2   -8.939020759310029E-3   -3.174470855985415E-2    4.776662885678141E-1   -1.815719603572984E-1
 6.528934513275000E9     5.586372395752583E-1   -6.155338529684254E-2   -8.252054854840431E-3   -3.207754751055595E-2   -9.012901113341810E-3   -3.188336507751611E-2    4.774391335351566E-1   -1.824132195572479E-1
 6.528945090350000E9     5.585568444324217E-1   -6.234876396266376E-2   -8.412262441515597E-3   -3.185293947128127E-2   -9.130054166585109E-3   -3.195030946053377E-2    4.770645440878643E-1   -1.833493923137279E-1
 6.528955667425000E9     5.584963916622497E-1   -6.322566096384254E-2   -8.556067319606142E-3   -3.227793545355422E-2   -9.201623607365178E-3   -3.220882330128125E-2    4.765712193861740E-1   -1.842015939957360E-1
 6.528966244500000E9     5.583451561932592E-1   -6.402107183308992E-2   -8.745397452963571E-3   -3.258722883590089E-2   -9.347698272961225E-3   -3.232352584675361E-2    4.762739633725763E-1   -1.851582189811768E-1
 6.528976821575000E9     5.582918719564479E-1   -6.485904478938102E-2   -8.725297778408837E-3   -3.258527805185145E-2   -9.399901358815629E-3   -3.249036432291009E-2    4.759474586752431E-1   -1.859082234470932E-1
 6.528987398650000E9     5.582704012558201E-1   -6.571539394110132E-2   -8.819348213179824E-3   -3.260212915865227E-2   -9.631762318087433E-3   -3.253217274741386E-2    4.754761188643113E-1   -1.870248590593225E-1
 6.528997975725000E9     5.580560878993277E-1   -6.666181415912600E-2   -9.017363424319056E-3   -3.296780320841753E-2   -9.698544470358002E-3   -3.275463765823120E-2    4.750724361852027E-1   -1.877418406170947E-1
 6.529008552800000E9     5.578644935815749E-1   -6.751036147270116E-2   -8.979049679995197E-3   -3.312157397025937E-2   -9.822390138171690E-3   -3.293123219691611E-2    4.745558365018209E-1   -1.888459619420624E-1
 6.529019129875000E9     5.578272443439198E-1   -6.839184129723500E-2   -9.143791626131719E-3   -3.327104584274897E-2   -9.915953683581171E-3   -3.307502549358712E-2    4.743192445794902E-1   -1.895149327071460E-1
 6.529029706950000E9     5.576662117355340E-1   -6.929902447235316E-2   -9.272732850029015E-3   -3.347145375744615E-2   -9.995943560653656E-3   -3.329974800889848E-2    4.738219518505114E-1   -1.906538825201618E-1
 6.529040284025000E9     5.575964057971129E-1   -7.015676502396720E-2   -9.357380662244156E-3   -3.360389923570956E-2   -1.017144486655008E-2   -3.349734647927995E-2    4.733932783143414E-1   -1.915552990750755E-1
 6.529050861100000E9     5.575159338962216E-1   -7.112367381295380E-2   -9.497589082429831E-3   -3.385013021700365E-2   -1.040524555247197E-2   -3.360494670633696E-2    4.730357965647156E-1   -1.925133954640145E-1
 6.529061438175000E9     5.573610198557649E-1   -7.183260599566904E-2   -9.687831560637657E-3   -3.387067176072452E-2   -1.036544894976536E-2   -3.377194921133174E-2    4.725981193194823E-1   -1.933621733706909E-1
 6.529072015250000E9     5.572673127540839E-1   -7.274129536638173E-2   -9.900426771818604E-3   -3.402896483473014E-2   -1.059982851325325E-2   -3.399098793784247E-2    4.721367181871954E-1   -1.943192563943446E-1
 6.529082592325000E9     5.572051919846606E-1   -7.369708097799006E-2   -9.917790145883889E-3   -3.440307967025823E-2   -1.071038460458794E-2   -3.402522192966188E-2    4.716032785110619E-1   -1.952835311077661E-1
 6.529093169400000E9     5.570020024853459E-1   -7.447648224815506E-2   -1.015606183420385E-2   -3.429526022889889E-2   -1.090676099761078E-2   -3.422099212452347E-2    4.713242098832406E-1   -1.962757423210768E-1
 6.529103746475000E9     5.567631531315961E-1   -7.537322053037293E-2   -1.003691381429741E-2   -3.461348666994842E-2   -1.096703946720653E-2   -3.443443152476552E-2    4.708007163099907E-1   -1.970444413171024E-1
 6.529114323550000E9     5.567526921800737E-1   -7.626120945169952E-2   -1.026549812088614E-2   -3.472228364409575E-2   -1.105562247557750E-2   -3.462642411462568E-2    4.705231435717124E-1   -1.980432938504197E-1
 6.529124900625000E9     5.565584337203863E-1   -7.711790610759162E-2   -1.043429513066839E-2   -3.503254677365897E-2   -1.117897561087795E-2   -3.476699702949796E-2    4.699742028060966E-1   -1.989138775066752E-1
 6.529135477700000E9     5.564899876520905E-1   -7.791615712608173E-2   -1.053763994562991E-2   -3.506285736238474E-2   -1.128750756484828E-2   -3.495255430738349E-2    4.692979043301282E-1   -2.000954636057382E-1
 6.529146054775000E9     5.562499056147804E-1   -7.884659110827762E-2   -1.072078385500205E-2   -3.544435277066559E-2   -1.145991537473711E-2   -3.517808604455476E-2    4.689931680866413E-1   -2.009907949093604E-1
 6.529156631850000E9     5.561589111945648E-1   -7.977813206136711E-2   -1.080383647736745E-2   -3.546034863127449E-2   -1.161998891216967E-2   -3.534852574172287E-2    4.686279915197338E-1   -2.019208842251253E-1
 6.529167208925000E9     5.560602816467952E-1   -8.052293963730611E-2   -1.102749971469329E-2   -3.585249209327092E-2   -1.171056318192733E-2   -3.555731590506445E-2    4.681308712658646E-1   -2.029450380768302E-1
 6.529177786000000E9     5.558647164218680E-1   -8.142197344174333E-2   -1.102593854939408E-2   -3.583280860289097E-2   -1.194908930300390E-2   -3.571764202293744E-2    4.676993066624277E-1   -2.040137754070324E-1
 6.529188363075000E9     5.556969125487503E-1   -8.238839205970884E-2   -1.134323473769388E-2   -3.604845188779705E-2   -1.211145414212230E-2   -3.597383397064055E-2    4.669812493464415E-1   -2.047125748088007E-1
 6.529198940150000E9     5.554995189713767E-1   -8.319469139463187E-2   -1.144052216430625E-2   -3.626845599566610E-2   -1.225304144983248E-2   -3.606509387795518E-2    4.665721317526039E-1   -2.056828162823638E-1
 6.529209517225000E9     5.554660634418597E-1   -8.418373059758634E-2   -1.156529910032626E-2   -3.650629398089311E-2   -1.243474067544051E-2   -3.635579019818814E-2    4.663272828068183E-1   -2.066836905714123E-1
 6.529220094300000E9     5.552921827482465E-1   -8.510911154896048E-2   -1.181493380550267E-2   -3.675585543097262E-2   -1.252392954192578E-2   -3.656295175718445E-2    4.657862470022486E-1   -2.078066486697937E-1
 6.529230671375000E9     5.551315611141714E-1   -8.588389105552399E-2   -1.192809668374446E-2   -3.682444693765697E-2   -1.271980161544310E-2   -3.665879879096030E-2    4.651446149503852E-1   -2.088724828946642E-1
 6.529241248450000E9     5.550469585096653E-1   -8.688764637124596E-2   -1.201995802604352E-2   -3.709799204621430E-2   -1.285611731163009E-2   -3.694931835343311E-2    4.646950637174293E-1   -2.097034285793359E-1
 6.529251825525000E9     5.548108007122374E-1   -8.773965231842594E-2   -1.215697731117079E-2   -3.742352943944850E-2   -1.310673915422106E-2   -3.726849611114765E-2    4.642896120516619E-1   -2.107097807032597E-1
 6.529262402600000E9     5.545728966740353E-1   -8.867676882980170E-2   -1.232355966859287E-2   -3.758325102662149E-2   -1.317465051152395E-2   -3.734283383303375E-2    4.636560100686870E-1   -2.116917291430288E-1
 6.529272979675000E9     5.544611917034348E-1   -8.949212292722146E-2   -1.255404997758370E-2   -3.783298166560801E-2   -1.328526107544267E-2   -3.750137606175985E-2    4.630570382851773E-1   -2.126899144651528E-1
 6.529283556750000E9     5.543252639013228E-1   -9.048508057225213E-2   -1.267790794889161E-2   -3.808085837979442E-2   -1.353982400813200E-2   -3.768773241320634E-2    4.626505893807973E-1   -2.137011653166819E-1
 6.529294133825000E9     5.541662455334748E-1   -9.138434273695345E-2   -1.280355046934322E-2   -3.826280505142093E-2   -1.370999951247958E-2   -3.799313345932503E-2    4.620924457842662E-1   -2.147304676272455E-1
 6.529304710900000E9     5.540449528712352E-1   -9.213228432796622E-2   -1.293439046671472E-2   -3.837251234777024E-2   -1.385804943416724E-2   -3.819119352994361E-2    4.615642987038913E-1   -2.156298231032888E-1
 6.529315287975000E9     5.537638161639387E-1   -9.312616705793614E-2   -1.308087431960796E-2   -3.872331299019331E-2   -1.411491457975133E-2   -3.836901333104623E-2    4.609769659431282E-1   -2.166858612843437E-1
 6.529325865050000E9     5.536602638115314E-1   -9.405741765545098E-2   -1.329716164364086E-2   -3.898895250676968E-2   -1.429287894431876E-2   -3.861947312149687E-2    4.604335436205840E-1   -2.177364758765978E-1
 6.529336442125000E9     5.534873258840152E-1   -9.489641368509216E-2   -1.344193292812881E-2   -3.907906944715343E-2   -1.440140360742751E-2   -3.894867295235082E-2    4.599042357690345E-1   -2.187865878497252E-1
 6.529347019200000E9     5.531419960250321E-1   -9.581213673470095E-2   -1.374635711983026E-2   -3.941527285405763E-2   -1.457672770557861E-2   -3.909702269440949E-2    4.594762666908368E-1   -2.198739504442748E-1
 6.529357596275000E9     5.531990460957682E-1   -9.670503405369019E-2   -1.392453684066718E-2   -3.969401053089011E-2   -1.469747918293332E-2   -3.936865932963677E-2    4.586682291492460E-1   -2.207918216863570E-1
 6.529368173350000E9     5.528412115524403E-1   -9.763178851538344E-2   -1.394954353438510E-2   -3.999624713872138E-2   -1.482656750556970E-2   -3.949288491796334E-2    4.580029294609771E-1   -2.217603814622937E-1
 6.529378750425000E9     5.527341930799422E-1   -9.845100343369455E-2   -1.416067426629680E-2   -4.020068233760008E-2   -1.507981594416718E-2   -3.981149075331114E-2    4.577092211071964E-1   -2.229899629502039E-1
 6.529389327500000E9     5.525825750407795E-1   -9.945636242494979E-2   -1.437785673312025E-2   -4.035498297659344E-2   -1.532913053566323E-2   -4.006028598064153E-2    4.570867222514960E-1   -2.239591344164291E-1
 6.529399904575000E9     5.521503628038800E-1   -1.003753176624026E-1   -1.468787163359961E-2   -4.037018907585437E-2   -1.551081507355968E-2   -4.023847950380177E-2    4.564525398207083E-1   -2.248288954561382E-1
 6.529410481650000E9     5.521903433764687E-1   -1.012813160879881E-1   -1.475272933961528E-2   -4.084056100813045E-2   -1.578974203039818E-2   -4.049945549986299E-2    4.559523322047357E-1   -2.258967999615521E-1
 6.529421058725000E9     5.518650628603025E-1   -1.023003388625895E-1   -1.492580855059580E-2   -4.103233999963211E-2   -1.593470705774878E-2   -4.075775879346259E-2    4.553134254800134E-1   -2.271066864568175E-1
 6.529431635800000E9     5.517271885317995E-1   -1.030482662390427E-1   -1.517050957307864E-2   -4.143732467670987E-2   -1.619019891838398E-2   -4.099096496125171E-2    4.545448529677068E-1   -2.281359890168436E-1
 6.529442212875000E9     5.515501114701719E-1   -1.040737027970227E-1   -1.550877606761324E-2   -4.151960392541100E-2   -1.636538708524431E-2   -4.132469515533017E-2    4.540070225906333E-1   -2.290700183385132E-1
 6.529452789950000E9     5.512979295768455E-1   -1.048790134370845E-1   -1.561446427909525E-2   -4.171683537516027E-2   -1.654635298778235E-2   -4.165609280448105E-2    4.534245178517853E-1   -2.302002567656039E-1
 6.529463367025000E9     5.510971960721368E-1   -1.059080859031636E-1   -1.583572986510013E-2   -4.213302807030501E-2   -1.684387228214468E-2   -4.176769720054672E-2    4.526606079324119E-1   -2.312792617542200E-1
 6.529473944100000E9     5.508571982007283E-1   -1.069002182591230E-1   -1.600606797914245E-2   -4.228652899393405E-2   -1.705763174582772E-2   -4.206591709351726E-2    4.520880611751771E-1   -2.322510514106975E-1
 6.529484521175000E9     5.506111954166635E-1   -1.078034483162032E-1   -1.631870708746511E-2   -4.268257137054546E-2   -1.727999350061089E-2   -4.231812999191913E-2    4.514600977824259E-1   -2.335444908752584E-1
 6.529495098250000E9     5.504587256840564E-1   -1.086715410166805E-1   -1.636879448836510E-2   -4.291962419835664E-2   -1.753402745412895E-2   -4.259508693413843E-2    4.507579809419871E-1   -2.345230193808817E-1
 6.529505675325000E9     5.502460930060451E-1   -1.095440011934316E-1   -1.678748183626284E-2   -4.327955949137734E-2   -1.773784404934502E-2   -4.292729424165396E-2    4.501847226809714E-1   -2.356041823175332E-1
 6.529516252400000E9     5.500063901085546E-1   -1.104318973909108E-1   -1.699247096731986E-2   -4.339663530806268E-2   -1.792873661213248E-2   -4.316866083684832E-2    4.494834640286480E-1   -2.368914092878502E-1
 6.529526829475000E9     5.497320040697291E-1   -1.115554141507612E-1   -1.722166448653987E-2   -4.374826080029899E-2   -1.828186194067504E-2   -4.343243023804240E-2    4.486166807411425E-1   -2.378832830996583E-1
 6.529537406550000E9     5.494917246067756E-1   -1.124239975526574E-1   -1.750103250982669E-2   -4.421420815683262E-2   -1.838301121705632E-2   -4.366966624590270E-2    4.479335131674951E-1   -2.390566620780318E-1
 6.529547983625000E9     5.493162453025081E-1   -1.133515898058856E-1   -1.768667865334526E-2   -4.426709192128600E-2   -1.881314743609613E-2   -4.402249781798404E-2    4.472389595023445E-1   -2.399887962748329E-1
 6.529558560700000E9     5.490639376039511E-1   -1.142618614809010E-1   -1.792526741124100E-2   -4.461061497842091E-2   -1.906157444239968E-2   -4.432192266552369E-2    4.465463745360607E-1   -2.411987367618190E-1
 6.529569137775000E9     5.487784211608646E-1   -1.152373086323835E-1   -1.832243309679728E-2   -4.491231644970939E-2   -1.933523791513000E-2   -4.459252009684779E-2    4.458117859907387E-1   -2.423517944362341E-1
 6.529579714850000E9     5.485406495847192E-1   -1.161866150481016E-1   -1.834666162368072E-2   -4.529317155046425E-2   -1.952395214013600E-2   -4.481778717534129E-2    4.451024038973757E-1   -2.434156949532216E-1
 6.529590291925000E9     5.483934654115334E-1   -1.170842892702523E-1   -1.860983036394053E-2   -4.555966404731172E-2   -1.978954000817984E-2   -4.518954750285484E-2    4.442535249600457E-1   -2.446983778557864E-1
 6.529600869000000E9     5.479742184376740E-1   -1.181122246399794E-1   -1.901927286335433E-2   -4.584328314735325E-2   -2.011045396139749E-2   -4.555117366670143E-2    4.434244435222786E-1   -2.455532059821197E-1
 6.529611446075000E9     5.477852632523907E-1   -1.190404356215704E-1   -1.917335792771323E-2   -4.619285025738396E-2   -2.044915174182851E-2   -4.574071759646116E-2    4.428051240858460E-1   -2.470052947137008E-1
 6.529622023150000E9     5.475106389684176E-1   -1.201914052104896E-1   -1.960027921221975E-2   -4.664547797460087E-2   -2.073824656692013E-2   -4.616655212605566E-2    4.419950406507328E-1   -2.480072268669679E-1
 6.529632600225000E9     5.472201415466280E-1   -1.209208855007215E-1   -1.979569585046819E-2   -4.682759163174725E-2   -2.094426886869313E-2   -4.642514459723317E-2    4.411877168727008E-1   -2.494090563502182E-1
 6.529643177300000E9     5.469539461953576E-1   -1.219651514973336E-1   -2.006387917793062E-2   -4.718412718119602E-2   -2.125905760848689E-2   -4.678462770925886E-2    4.404716021801540E-1   -2.503379216077026E-1
 6.529653754375000E9     5.467574920516327E-1   -1.229552365767785E-1   -2.044478698808844E-2   -4.755951489581182E-2   -2.159178084795775E-2   -4.698677571365820E-2    4.395491288109719E-1   -2.515699393610051E-1
 6.529664331450000E9     5.463362632235617E-1   -1.239491802829962E-1   -2.073305613909102E-2   -4.784216296661117E-2   -2.199166579628812E-2   -4.750548942945821E-2    4.387809280981684E-1   -2.527785038890673E-1
 6.529674908525000E9     5.461414922366332E-1   -1.249476719003448E-1   -2.108523523634992E-2   -4.812445458259865E-2   -2.223747177053961E-2   -4.776790101359341E-2    4.379412484067212E-1   -2.539573306779124E-1
 6.529685485600000E9     5.457156274150403E-1   -1.258402123180463E-1   -2.137779310272286E-2   -4.861204202851818E-2   -2.250813850724557E-2   -4.813088217688984E-2    4.370546119694252E-1   -2.551546799773840E-1
 6.529696062675000E9     5.455320944477942E-1   -1.269989409127769E-1   -2.164970884091540E-2   -4.881131017326034E-2   -2.287805031486960E-2   -4.848787748598880E-2    4.360708038602810E-1   -2.562439871654433E-1
 6.529706639750000E9     5.452515916584032E-1   -1.277436872976732E-1   -2.193132943221460E-2   -4.940333545026152E-2   -2.312076184253340E-2   -4.881429163350956E-2    4.352596210892541E-1   -2.574200640071822E-1
