#  HZ   S   RI   R     50.00 
! Rohde & Schwarz Vector Network Analyzer 
! Rohde-Schwarz,ZNB20-2Port,1311601062101988,3.16
! Created: UTC 3/21/2024, 1:01:28 AM
! freq[Hz]                re:S11                  im:S11                  re:S21                  im:S21                  re:S12                  im:S12                  re:S22                  im:S22
 6.528754038000000E9     5.602165582753956E-1   -4.694334010520264E-2   -6.633138614222300E-3   -2.947803744238949E-2   -7.341531364005719E-3   -2.947951551942674E-2    4.835132146950217E-1   -1.668371906779326E-1
 6.528764622625000E9     5.601665803495323E-1   -4.785498302420923E-2   -6.837180334380458E-3   -2.959808299262072E-2   -7.386567525144047E-3   -2.948256097765499E-2    4.831443877844555E-1   -1.678408144077764E-1
 6.528775207250000E9     5.601275474898216E-1   -4.868433304333252E-2   -6.965889522796464E-3   -2.968394308649022E-2   -7.470844827753581E-3   -2.972620498241913E-2    4.826027682043596E-1   -1.689123820963827E-1
 6.528785791875000E9     5.598859067999027E-1   -4.943917351133961E-2   -6.988523322146181E-3   -2.990361914644295E-2   -7.536856346669075E-3   -2.980467325849601E-2    4.823761080204940E-1   -1.696566927613282E-1
 6.528796376500000E9     5.598527575282283E-1   -5.050753395989990E-2   -7.152852759292762E-3   -3.014196298760113E-2   -7.760104625586875E-3   -3.003431239089261E-2    4.821044028145244E-1   -1.704796499339679E-1
 6.528806961125000E9     5.598255145940217E-1   -5.117462473414038E-2   -7.083919421641467E-3   -3.014712315913742E-2   -7.790637165399110E-3   -3.006744381925022E-2    4.817877207996910E-1   -1.713806697803453E-1
 6.528817545750000E9     5.597588462539221E-1   -5.202011451307362E-2   -7.394304833030748E-3   -3.049473546982752E-2   -7.852304167025301E-3   -3.027393551041393E-2    4.813717406915677E-1   -1.723414961285855E-1
 6.528828130375000E9     5.596181265255867E-1   -5.294306753046565E-2   -7.402720046141115E-3   -3.044236931488932E-2   -7.908499310301685E-3   -3.039369707673984E-2    4.811251895962597E-1   -1.730863633365683E-1
 6.528838715000000E9     5.595835935478105E-1   -5.383534124493473E-2   -7.419988507294984E-3   -3.060177694892863E-2   -8.004178918923696E-3   -3.056905353698198E-2    4.806997317506432E-1   -1.740717335081654E-1
 6.528849299625000E9     5.594495662314612E-1   -5.455347707605260E-2   -7.485086996873135E-3   -3.066701651174372E-2   -8.142055884998360E-3   -3.073998298324668E-2    4.803688969267425E-1   -1.749387246151918E-1
 6.528859884250000E9     5.593431913141391E-1   -5.549677865761113E-2   -7.521109185343026E-3   -3.093680346645501E-2   -8.251511428345957E-3   -3.073596791516806E-2    4.799600100906333E-1   -1.758323235337741E-1
 6.528870468875000E9     5.592445089932406E-1   -5.641476824079297E-2   -7.710296324522812E-3   -3.110023638946702E-2   -8.394471986337766E-3   -3.096287820484849E-2    4.796526747309998E-1   -1.768689326641509E-1
 6.528881053500000E9     5.591345853096600E-1   -5.712056032695437E-2   -7.826622032395160E-3   -3.124548717903885E-2   -8.517022573238144E-3   -3.105327481187272E-2    4.792089077059073E-1   -1.776164620738513E-1
 6.528891638125000E9     5.590798600108522E-1   -5.799805384503808E-2   -7.903423939521540E-3   -3.125192208252828E-2   -8.560387734356842E-3   -3.128828732896705E-2    4.788338034623414E-1   -1.784027795574911E-1
 6.528902222750000E9     5.589841585029250E-1   -5.884864185284422E-2   -8.024445806527801E-3   -3.141337192264487E-2   -8.708009586233514E-3   -3.138234824301847E-2    4.786543876306433E-1   -1.794546147068354E-1
 6.528912807375000E9     5.589632279378780E-1   -5.984800258506445E-2   -8.204454810980850E-3   -3.181094920109709E-2   -8.757800536270274E-3   -3.149780230897483E-2    4.780533285856237E-1   -1.804477771927090E-1
 6.528923392000000E9     5.587924692998369E-1   -6.047946535677301E-2   -8.109167102034576E-3   -3.182123811037173E-2   -8.969832536825607E-3   -3.162968859719897E-2    4.777648851179588E-1   -1.811561846603210E-1
 6.528933976625000E9     5.586332343106264E-1   -6.143881004246247E-2   -8.427632681216711E-3   -3.193284372492404E-2   -8.939383010590088E-3   -3.178261223188330E-2    4.774113675171393E-1   -1.822099271285995E-1
 6.528944561250000E9     5.586356353238300E-1   -6.241180406870154E-2   -8.312630549614680E-3   -3.218766916275652E-2   -9.095338615572135E-3   -3.205766044314231E-2    4.770046230696173E-1   -1.831110361121309E-1
 6.528955145875000E9     5.584924811041145E-1   -6.308225764409919E-2   -8.447148733188033E-3   -3.224353004281338E-2   -9.219501395772621E-3   -3.204501723141794E-2    4.765863769534869E-1   -1.840045595128586E-1
 6.528965730500000E9     5.584007537730500E-1   -6.402788004038508E-2   -8.445515280968534E-3   -3.238231830855622E-2   -9.391803241100458E-3   -3.227071795539480E-2    4.763324452973478E-1   -1.849630019857947E-1
 6.528976315125000E9     5.583699912115556E-1   -6.483969517684038E-2   -8.797741719164856E-3   -3.267990625874490E-2   -9.375465013049148E-3   -3.249048350616335E-2    4.760085112922275E-1   -1.857382778897220E-1
 6.528986899750000E9     5.582747197622684E-1   -6.571841464723044E-2   -8.937804245876632E-3   -3.266538419435866E-2   -9.558703406629591E-3   -3.260028985682043E-2    4.754624669109095E-1   -1.866705071667827E-1
 6.528997484375000E9     5.581070147934433E-1   -6.661979843124849E-2   -8.989623896104344E-3   -3.281428116267001E-2   -9.661031866777855E-3   -3.271983296884285E-2    4.749789428278891E-1   -1.875553214188067E-1
 6.529008069000000E9     5.579483203615297E-1   -6.746287389778730E-2   -9.137719875643708E-3   -3.317524501837586E-2   -9.863975463566425E-3   -3.294846431423575E-2    4.745606737351639E-1   -1.884835373735687E-1
 6.529018653625000E9     5.579078620188235E-1   -6.829256865880981E-2   -9.115080465108094E-3   -3.336684960851156E-2   -9.926323093636231E-3   -3.309059876510394E-2    4.740887704118003E-1   -1.896418408119760E-1
 6.529029238250000E9     5.577929586872379E-1   -6.923860825544569E-2   -9.366569976495315E-3   -3.339999388966591E-2   -9.964939963031197E-3   -3.334403897512473E-2    4.737299440870344E-1   -1.903658595152428E-1
 6.529039822875000E9     5.577033026793849E-1   -7.006634414659058E-2   -9.491876027886781E-3   -3.362674912153178E-2   -1.019216732452641E-2   -3.351777380776615E-2    4.733369277922517E-1   -1.913065262840385E-1
 6.529050407500000E9     5.573746424205556E-1   -7.090007659970633E-2   -9.419615747384626E-3   -3.378105575556993E-2   -1.029202194569297E-2   -3.370641054201425E-2    4.730954363650491E-1   -1.921812636550299E-1
 6.529060992125000E9     5.573441970171645E-1   -7.187347268725462E-2   -9.537237138582375E-3   -3.396563658012403E-2   -1.039911377750414E-2   -3.374975222560986E-2    4.726325419614283E-1   -1.932135603669181E-1
 6.529071576750000E9     5.571171071483189E-1   -7.270558871417750E-2   -9.806816352117564E-3   -3.392667716912898E-2   -1.053037397200155E-2   -3.389984392754874E-2    4.722387028411391E-1   -1.941128722084474E-1
 6.529082161375000E9     5.571375782692748E-1   -7.345913920234454E-2   -9.918398305024596E-3   -3.431491727796010E-2   -1.069012604059003E-2   -3.416585389095525E-2    4.717782862525012E-1   -1.950622095739230E-1
 6.529092746000000E9     5.570643063779726E-1   -7.451859189057436E-2   -1.013057209322140E-2   -3.447531117676220E-2   -1.079621452153021E-2   -3.432245656622387E-2    4.713863219358443E-1   -1.960416242245387E-1
 6.529103330625000E9     5.568938099875468E-1   -7.528281317751129E-2   -1.017674930264918E-2   -3.471171752790168E-2   -1.093856511177225E-2   -3.450821134871385E-2    4.708656746005851E-1   -1.969251243275624E-1
 6.529113915250000E9     5.566750204292608E-1   -7.622178470445840E-2   -1.028699996833846E-2   -3.477464084962070E-2   -1.097772072435438E-2   -3.467564643971729E-2    4.704979930967765E-1   -1.977320217304471E-1
 6.529124499875000E9     5.566641176054217E-1   -7.698963732324214E-2   -1.037087190219223E-2   -3.492395444426191E-2   -1.114317839994092E-2   -3.481999051523239E-2    4.699652725910421E-1   -1.988747425902488E-1
 6.529135084500000E9     5.564599715224492E-1   -7.801648741898269E-2   -1.059684281210022E-2   -3.514490085921757E-2   -1.133426631781425E-2   -3.497250010589852E-2    4.694872384532067E-1   -1.998084185251775E-1
 6.529145669125000E9     5.563467962652920E-1   -7.871242565130351E-2   -1.070308005474673E-2   -3.539464521286072E-2   -1.145393296768545E-2   -3.516256286575689E-2    4.691246981412475E-1   -2.008144698038189E-1
 6.529156253750000E9     5.562241886288368E-1   -7.977495343795778E-2   -1.095967674178723E-2   -3.555637679138101E-2   -1.155523094594172E-2   -3.539687768949969E-2    4.687000993527488E-1   -2.019090806944651E-1
 6.529166838375000E9     5.561017525044880E-1   -8.050726783714522E-2   -1.104988947386635E-2   -3.573059470963269E-2   -1.174463620073439E-2   -3.561452102739385E-2    4.680532417402369E-1   -2.028012433133166E-1
 6.529177423000000E9     5.558893833128830E-1   -8.141984800142535E-2   -1.114830552158673E-2   -3.597279373702345E-2   -1.192684435536993E-2   -3.574297931511137E-2    4.674568079190786E-1   -2.038295693271910E-1
 6.529188007625000E9     5.557672423298909E-1   -8.238763844373241E-2   -1.133725101951673E-2   -3.616316001938889E-2   -1.196500699551280E-2   -3.596683698452754E-2    4.671746646809905E-1   -2.045504056804481E-1
 6.529198592250000E9     5.555313037466508E-1   -8.312573146476014E-2   -1.134233439770564E-2   -3.625109196786144E-2   -1.218864132557434E-2   -3.607471648238676E-2    4.666727289295977E-1   -2.055756774115390E-1
 6.529209176875000E9     5.553971580948069E-1   -8.405547956916662E-2   -1.148864123361704E-2   -3.654990383246109E-2   -1.233623926432821E-2   -3.630890523505531E-2    4.662566107020498E-1   -2.067151181739781E-1
 6.529219761500000E9     5.553235346083479E-1   -8.506398093754752E-2   -1.173398383381792E-2   -3.680066941261428E-2   -1.250316121804871E-2   -3.650354601081767E-2    4.657428830295351E-1   -2.076169278107505E-1
 6.529230346125000E9     5.551787314131031E-1   -8.584079812494382E-2   -1.168906825225361E-2   -3.691299208588655E-2   -1.265223247279660E-2   -3.679321914101948E-2    4.652845560991198E-1   -2.084516281718809E-1
 6.529240930750000E9     5.550751217843516E-1   -8.674412654313624E-2   -1.196412640286861E-2   -3.711583645685911E-2   -1.275600404171662E-2   -3.692950541358656E-2    4.647190128287129E-1   -2.095680660829728E-1
 6.529251515375000E9     5.547449123858179E-1   -8.770855572491874E-2   -1.208057856767008E-2   -3.734193437388092E-2   -1.293870849943104E-2   -3.716342077595950E-2    4.642231766318315E-1   -2.105514927864401E-1
 6.529262100000000E9     5.545711946649378E-1   -8.844271232538227E-2   -1.241028414139638E-2   -3.751295417601971E-2   -1.313185618807798E-2   -3.733777376851893E-2    4.635533020202252E-1   -2.114895130838606E-1
 6.529272684625000E9     5.544514278308897E-1   -8.949531158809491E-2   -1.237539694161777E-2   -3.773996305945063E-2   -1.324916999000587E-2   -3.752446796857934E-2    4.631981422524641E-1   -2.125794037737006E-1
 6.529283269250000E9     5.542946656647223E-1   -9.039798710403721E-2   -1.270705928353669E-2   -3.796434852387529E-2   -1.335915829630672E-2   -3.776983936331117E-2    4.626765387714439E-1   -2.136606417455632E-1
 6.529293853875000E9     5.540177010947254E-1   -9.131907174127021E-2   -1.268865422885756E-2   -3.813473088731686E-2   -1.357435702961191E-2   -3.795316728656686E-2    4.621563460895939E-1   -2.145312195232708E-1
 6.529304438500000E9     5.539693102138274E-1   -9.211586921410980E-2   -1.295452101995602E-2   -3.843011682915894E-2   -1.385123814126902E-2   -3.826036679270426E-2    4.614622723937515E-1   -2.153988101242563E-1
 6.529315023125000E9     5.537060682404962E-1   -9.307790953587559E-2   -1.315318186032754E-2   -3.869293398368549E-2   -1.394194611212074E-2   -3.836758046782086E-2    4.610739681531660E-1   -2.166268634728608E-1
 6.529325607750000E9     5.535966530962101E-1   -9.388696160348392E-2   -1.321520322473740E-2   -3.878592919979083E-2   -1.419026288554334E-2   -3.856516833215358E-2    4.605632642616619E-1   -2.175197562233205E-1
 6.529336192375000E9     5.535085844956886E-1   -9.486324145244301E-2   -1.342880006532297E-2   -3.903773156972796E-2   -1.431914300806700E-2   -3.884498912930563E-2    4.597141626348060E-1   -2.185075359268211E-1
 6.529346777000000E9     5.533479545898317E-1   -9.588060594176114E-2   -1.363155270558932E-2   -3.940748434798772E-2   -1.456536671675360E-2   -3.904841896218158E-2    4.594833287019881E-1   -2.196300220812415E-1
 6.529357361625000E9     5.531626761757115E-1   -9.661653942108767E-2   -1.387522905049462E-2   -3.953527996904551E-2   -1.489526905030523E-2   -3.930323004306232E-2    4.589154186509905E-1   -2.205948859468538E-1
 6.529367946250000E9     5.529983266320916E-1   -9.756018018049128E-2   -1.393126940230761E-2   -3.982628540467715E-2   -1.498185265460311E-2   -3.962893973116823E-2    4.581832821398097E-1   -2.216385138600528E-1
 6.529378530875000E9     5.527453060394791E-1   -9.843018230140745E-2   -1.414354070900176E-2   -4.005274020706550E-2   -1.513710104525355E-2   -3.975025788144548E-2    4.578324760120976E-1   -2.225468234532192E-1
 6.529389115500000E9     5.526008879081532E-1   -9.941506190283292E-2   -1.453032162781147E-2   -4.023558886002618E-2   -1.538591438390292E-2   -4.004164866255846E-2    4.570751199212973E-1   -2.238006609683128E-1
 6.529399700125000E9     5.523198447665989E-1   -1.003382926686771E-1   -1.466040641395772E-2   -4.040143630770417E-2   -1.554039682433794E-2   -4.033154527189493E-2    4.565719206910498E-1   -2.247658479702502E-1
 6.529410284750000E9     5.522083444818439E-1   -1.011300780950130E-1   -1.471950430206182E-2   -4.088351891701262E-2   -1.578540306700634E-2   -4.049541261546944E-2    4.559036829168726E-1   -2.258075363994002E-1
 6.529420869375000E9     5.518018378276861E-1   -1.021449306865189E-1   -1.492225905733571E-2   -4.107270712949158E-2   -1.596049730638946E-2   -4.077149525989985E-2    4.551862806810627E-1   -2.269551507289243E-1
 6.529431454000000E9     5.516058270678714E-1   -1.031347665720633E-1   -1.523632973014864E-2   -4.131164210884945E-2   -1.615093525135321E-2   -4.100469871979652E-2    4.546649235065777E-1   -2.280680017503680E-1
 6.529442038625000E9     5.515254635770542E-1   -1.039588424218800E-1   -1.540235624871264E-2   -4.159230117983701E-2   -1.635038785724790E-2   -4.121558651005802E-2    4.541061315851141E-1   -2.290579578238132E-1
 6.529452623250000E9     5.511970978534267E-1   -1.048485544750994E-1   -1.572280348718393E-2   -4.184765710579243E-2   -1.656464815435826E-2   -4.149398212119251E-2    4.533652361777135E-1   -2.301900950613698E-1
 6.529463207875000E9     5.509792518248167E-1   -1.057636833595643E-1   -1.567159869447072E-2   -4.198405686811791E-2   -1.678895378676775E-2   -4.187799301292556E-2    4.527677162806596E-1   -2.312348793316415E-1
 6.529473792500000E9     5.508347340913217E-1   -1.067902270066198E-1   -1.615247649647204E-2   -4.243890357619879E-2   -1.707487979889414E-2   -4.206406080855739E-2    4.520628829449846E-1   -2.322784899548139E-1
 6.529484377125000E9     5.506374659613873E-1   -1.075792809618267E-1   -1.635953048388356E-2   -4.248346542169252E-2   -1.728327755062738E-2   -4.224195986678867E-2    4.514157552866162E-1   -2.332636917636998E-1
 6.529494961750000E9     5.504161168360344E-1   -1.086140479452601E-1   -1.652488623058080E-2   -4.288346959444742E-2   -1.748287345667713E-2   -4.262392868224486E-2    4.506995252507471E-1   -2.343202457957891E-1
 6.529505546375000E9     5.501583804131900E-1   -1.096029286264804E-1   -1.671933647936090E-2   -4.322693489386130E-2   -1.765489698079321E-2   -4.287100857670960E-2    4.500408235539570E-1   -2.352760494159769E-1
 6.529516131000000E9     5.499920356485105E-1   -1.105014869563264E-1   -1.694629919412827E-2   -4.349287738512608E-2   -1.801075314776536E-2   -4.318215740075726E-2    4.493098460677479E-1   -2.365655753378574E-1
 6.529526715625000E9     5.497417660258155E-1   -1.114002508400439E-1   -1.712760189633579E-2   -4.367824302507201E-2   -1.820369574431466E-2   -4.345131218365818E-2    4.488732857723369E-1   -2.378485255113727E-1
 6.529537300250000E9     5.496097654437423E-1   -1.123752856045206E-1   -1.741680394496188E-2   -4.402144881547328E-2   -1.839864569224183E-2   -4.369273832845099E-2    4.480011684565723E-1   -2.386956664931131E-1
 6.529547884875000E9     5.492641962921654E-1   -1.132811856353106E-1   -1.762114778729266E-2   -4.433327596638560E-2   -1.877155410155277E-2   -4.400819371174137E-2    4.472304831645453E-1   -2.398875932139696E-1
 6.529558469500000E9     5.490933783918864E-1   -1.142860687669081E-1   -1.796853454728733E-2   -4.469083865546685E-2   -1.900598625732958E-2   -4.425499939625744E-2    4.466267444420030E-1   -2.411423831800461E-1
 6.529569054125000E9     5.488407403355597E-1   -1.151649203548887E-1   -1.825486149069869E-2   -4.493891493122399E-2   -1.932590759455820E-2   -4.452074663440004E-2    4.458353737220372E-1   -2.421308011598849E-1
 6.529579638750000E9     5.485355336656326E-1   -1.162562083461641E-1   -1.846285282287632E-2   -4.529544765382679E-2   -1.943669428117258E-2   -4.494248888216620E-2    4.450886780158306E-1   -2.433521256621998E-1
 6.529590223375000E9     5.482726309301171E-1   -1.171267327316994E-1   -1.872762781516468E-2   -4.563309139001486E-2   -1.983749542324074E-2   -4.521398890085707E-2    4.443440078531933E-1   -2.444706570995812E-1
 6.529600808000000E9     5.480480190731386E-1   -1.180755402467304E-1   -1.892104522200676E-2   -4.594067841550795E-2   -2.010446273660147E-2   -4.542823948785656E-2    4.435875212539902E-1   -2.454982514189676E-1
 6.529611392625000E9     5.477674588846397E-1   -1.190084233508157E-1   -1.927177604185551E-2   -4.630888481798288E-2   -2.041251250873731E-2   -4.567281668130124E-2    4.428866817462509E-1   -2.467758246346765E-1
 6.529621977250000E9     5.475023804865303E-1   -1.199911029233896E-1   -1.957292526451378E-2   -4.641031036438866E-2   -2.068540402586428E-2   -4.604828672001785E-2    4.421272871876064E-1   -2.478466781813667E-1
 6.529632561875000E9     5.472972086191201E-1   -1.211239275337999E-1   -1.978477551728114E-2   -4.679960931249591E-2   -2.100394410405522E-2   -4.638115271603115E-2    4.412271963256507E-1   -2.489912468531204E-1
 6.529643146500000E9     5.469814851081717E-1   -1.218575861091598E-1   -2.023809446800317E-2   -4.723313361230420E-2   -2.134509535545685E-2   -4.674286795519507E-2    4.404291063170087E-1   -2.501865908414931E-1
 6.529653731125000E9     5.466455963823383E-1   -1.229162248622344E-1   -2.038731178401247E-2   -4.756650967423845E-2   -2.162541488870968E-2   -4.715180983514605E-2    4.395159400636743E-1   -2.515889118704104E-1
 6.529664315750000E9     5.464594459971323E-1   -1.238557574170835E-1   -2.060752497182365E-2   -4.791166972016816E-2   -2.185361930675588E-2   -4.736387252506225E-2    4.388153735598219E-1   -2.525844999895810E-1
 6.529674900375000E9     5.461368774924069E-1   -1.248134959502064E-1   -2.101459437987397E-2   -4.827532990395091E-2   -2.223443472795709E-2   -4.778049202023666E-2    4.378606742641369E-1   -2.536775548260191E-1
 6.529685485000000E9     5.458168249176490E-1   -1.259185325719611E-1   -2.126055022807324E-2   -4.861912591010855E-2   -2.258811802175784E-2   -4.809092253282097E-2    4.369984987082206E-1   -2.551246266355840E-1
 6.529696069625000E9     5.455077444165313E-1   -1.269390314636549E-1   -2.161246408027888E-2   -4.899927671006812E-2   -2.285236110803591E-2   -4.844147622302351E-2    4.361635622823038E-1   -2.561790338024063E-1
 6.529706654250000E9     5.452993243550278E-1   -1.278066308025290E-1   -2.196667620520255E-2   -4.933438815647501E-2   -2.330753172394957E-2   -4.872921162103076E-2    4.353285767431079E-1   -2.573282969577152E-1
