#  HZ   S   RI   R     50.00 
! Rohde & Schwarz Vector Network Analyzer 
! Rohde-Schwarz,ZNB20-2Port,1311601062101988,3.16
! Created: UTC 3/21/2024, 1:01:46 AM
! freq[Hz]                re:S11                  im:S11                  re:S21                  im:S21                  re:S12                  im:S12                  re:S22                  im:S22
 6.528754621000000E9     5.602177585481585E-1   -4.693659164393822E-2   -6.638937535129686E-3   -2.948677767997487E-2   -7.311936989701123E-3   -2.946599964208572E-2    4.836416376518436E-1   -1.657937697030321E-1
 6.528765226075000E9     5.601442832939717E-1   -4.770994626202359E-2   -6.852425004101471E-3   -2.958288057672023E-2   -7.345543404148600E-3   -2.951889838400207E-2    4.832523189135829E-1   -1.666565302168544E-1
 6.528775831150000E9     5.600381939896132E-1   -4.846673922706959E-2   -6.904503965810991E-3   -2.974454885177157E-2   -7.515465559014188E-3   -2.964203250295877E-2    4.829814525830696E-1   -1.675137194853362E-1
 6.528786436225000E9     5.599347633549606E-1   -4.947023319170703E-2   -6.974131477150122E-3   -2.979736666185101E-2   -7.483644150838561E-3   -2.983613219985542E-2    4.826796451646059E-1   -1.683680246716604E-1
 6.528797041300000E9     5.597531120531410E-1   -5.031162815835164E-2   -7.043124964879748E-3   -3.008119253204313E-2   -7.701008566320194E-3   -2.995892570609419E-2    4.823069630282820E-1   -1.693289582984726E-1
 6.528807646375000E9     5.597303848466089E-1   -5.110426493407498E-2   -7.206101490149923E-3   -3.018341210543894E-2   -7.791124292770890E-3   -3.001949092332611E-2    4.819691570545333E-1   -1.701517068160776E-1
 6.528818251450000E9     5.596921035842561E-1   -5.206546540700389E-2   -7.279934528573918E-3   -3.021770033194667E-2   -7.835313166504768E-3   -3.012253285569723E-2    4.815547485856704E-1   -1.710301921708328E-1
 6.528828856525000E9     5.596758012456825E-1   -5.288593235483195E-2   -7.297631102237502E-3   -3.053976063316454E-2   -7.938011584183660E-3   -3.037636706058582E-2    4.812804504868438E-1   -1.721341656711236E-1
 6.528839461600000E9     5.594747470451373E-1   -5.381051706339524E-2   -7.475056570779624E-3   -3.051732159996824E-2   -7.915533366106028E-3   -3.043364419307368E-2    4.810617791072127E-1   -1.728524253863740E-1
 6.528850066675000E9     5.593903910646291E-1   -5.454596595339869E-2   -7.496377936990703E-3   -3.069141132014867E-2   -8.164326493601557E-3   -3.054433514340172E-2    4.806388378572660E-1   -1.736229603072318E-1
 6.528860671750000E9     5.595207790855721E-1   -5.540410397042679E-2   -7.650503180707323E-3   -3.083530857924781E-2   -8.230039597419936E-3   -3.081729487531948E-2    4.802757928196068E-1   -1.744857469183288E-1
 6.528871276825000E9     5.592456334338907E-1   -5.632713132200291E-2   -7.636986632298856E-3   -3.103733082611075E-2   -8.280663324741320E-3   -3.091032881108561E-2    4.800487076482421E-1   -1.755476925540202E-1
 6.528881881900000E9     5.591922037853745E-1   -5.715128349492977E-2   -7.694019822739686E-3   -3.112706782399255E-2   -8.453693035950597E-3   -3.098448318159414E-2    4.795437260503510E-1   -1.763636813773018E-1
 6.528892486975000E9     5.590353618170827E-1   -5.800469068159661E-2   -7.893085212473271E-3   -3.126635335757976E-2   -8.559220809446280E-3   -3.123964573718116E-2    4.791158500588650E-1   -1.773119431078390E-1
 6.528903092050000E9     5.590470120596486E-1   -5.884356338034185E-2   -7.908710517014042E-3   -3.141629208869958E-2   -8.594888208987838E-3   -3.136595811434895E-2    4.786887950861345E-1   -1.783267868119066E-1
 6.528913697125000E9     5.588551299347539E-1   -5.971849290945726E-2   -8.089344856712560E-3   -3.161294951394453E-2   -8.748630154896648E-3   -3.144717489834583E-2    4.782817634191512E-1   -1.791285640026426E-1
 6.528924302200000E9     5.586484812874839E-1   -6.051966058916157E-2   -8.189572755232183E-3   -3.182823295998213E-2   -8.886223730760253E-3   -3.158982531892820E-2    4.780575611083794E-1   -1.799063161755379E-1
 6.528934907275000E9     5.587127559737921E-1   -6.138540989023437E-2   -8.323128366946412E-3   -3.194200927171677E-2   -8.880932228834647E-3   -3.173242624763546E-2    4.777388818681179E-1   -1.808299003654440E-1
 6.528945512350000E9     5.584335733597168E-1   -6.232812859073195E-2   -8.429955530103934E-3   -3.204403288892415E-2   -9.073012410251616E-3   -3.190913530657877E-2    4.772565577372599E-1   -1.817825927275776E-1
 6.528956117425000E9     5.584847074405931E-1   -6.319418576026850E-2   -8.499427806179674E-3   -3.213669864662994E-2   -9.143489243619386E-3   -3.196553817147419E-2    4.768395338286097E-1   -1.828734898851423E-1
 6.528966722500000E9     5.582935357822757E-1   -6.398564174273658E-2   -8.503076710995386E-3   -3.230680481874770E-2   -9.245155037560977E-3   -3.217216925412097E-2    4.764326687852891E-1   -1.837288983538774E-1
 6.528977327575000E9     5.583266849185561E-1   -6.468885374428578E-2   -8.668864078808595E-3   -3.245031767083575E-2   -9.359668613624444E-3   -3.228513711749120E-2    4.761166233985989E-1   -1.845760553804351E-1
 6.528987932650000E9     5.580919647958337E-1   -6.571056568242653E-2   -8.828069438000770E-3   -3.276277615628168E-2   -9.605571663767033E-3   -3.257322215561279E-2    4.756317479250455E-1   -1.854844701272540E-1
 6.528998537725000E9     5.580156905335470E-1   -6.649830329093945E-2   -8.936990068899616E-3   -3.297342109477312E-2   -9.659447397193235E-3   -3.262286326874451E-2    4.752302455959120E-1   -1.865197617040895E-1
 6.529009142800000E9     5.579183101058613E-1   -6.748418056547417E-2   -8.974919851841848E-3   -3.294339532209666E-2   -9.699639392911108E-3   -3.279716048257200E-2    4.748654217298712E-1   -1.874277710534736E-1
 6.529019747875000E9     5.577162846455319E-1   -6.831650513266227E-2   -9.133355614208569E-3   -3.331988521631234E-2   -9.859616089905982E-3   -3.295607147484313E-2    4.744366131087541E-1   -1.881374059629433E-1
 6.529030352950000E9     5.576617977913700E-1   -6.913103124810349E-2   -9.345605985944727E-3   -3.338786537963848E-2   -1.001684834357590E-2   -3.318297993442167E-2    4.740466609050821E-1   -1.891361502741348E-1
 6.529040958025000E9     5.575510877767287E-1   -7.013164703211487E-2   -9.339851826137141E-3   -3.365393720452948E-2   -1.018035405775829E-2   -3.338522359797526E-2    4.738059393428682E-1   -1.901292621471927E-1
 6.529051563100000E9     5.574359606142865E-1   -7.086991039398897E-2   -9.482349087141309E-3   -3.371032622408363E-2   -1.025142440068651E-2   -3.350210548563121E-2    4.732278688111473E-1   -1.911064919097941E-1
 6.529062168175000E9     5.572822373531172E-1   -7.179873445147794E-2   -9.643813454571959E-3   -3.382265621769736E-2   -1.041781083556033E-2   -3.368038755587215E-2    4.728478630006131E-1   -1.920481239867559E-1
 6.529072773250000E9     5.571685016925191E-1   -7.268153984932907E-2   -9.834167559848145E-3   -3.396979256304768E-2   -1.050660306724364E-2   -3.385758364846662E-2    4.724285833327329E-1   -1.929029243290149E-1
 6.529083378325000E9     5.570757502707760E-1   -7.342529256831593E-2   -9.879128182701815E-3   -3.418938665032333E-2   -1.067359188428628E-2   -3.409055232833988E-2    4.719311685793194E-1   -1.938928080486742E-1
 6.529093983400000E9     5.568759858772375E-1   -7.443395323566490E-2   -1.017394416248441E-2   -3.438983636795925E-2   -1.073149723709880E-2   -3.415525627785393E-2    4.717006726817896E-1   -1.946725891685476E-1
 6.529104588475000E9     5.568163394577917E-1   -7.533631571827573E-2   -1.012505634230130E-2   -3.465059973820533E-2   -1.084002375686809E-2   -3.440519017856170E-2    4.712443882394907E-1   -1.957627298994770E-1
 6.529115193550000E9     5.566633149142892E-1   -7.608002163217105E-2   -1.020505412356028E-2   -3.482129679240231E-2   -1.094184898229236E-2   -3.451058742971967E-2    4.706854129467061E-1   -1.966328665706199E-1
 6.529125798625000E9     5.565393168468571E-1   -7.703888446800747E-2   -1.040059274163687E-2   -3.491690215116072E-2   -1.109134109653222E-2   -3.466663008610978E-2    4.702832532023069E-1   -1.976458519588379E-1
 6.529136403700000E9     5.564394202407741E-1   -7.790497096782144E-2   -1.048799096459351E-2   -3.501215904110155E-2   -1.127424416697694E-2   -3.487654065991679E-2    4.697723633503637E-1   -1.986152791672968E-1
 6.529147008775000E9     5.561577758049461E-1   -7.869087985832378E-2   -1.064597506860121E-2   -3.521178803013477E-2   -1.135129716064600E-2   -3.522103281878698E-2    4.693056166546526E-1   -1.996094393808052E-1
 6.529157613850000E9     5.560747855577792E-1   -7.959582913690229E-2   -1.073156044115242E-2   -3.547914388213156E-2   -1.157927135513674E-2   -3.533585311423340E-2    4.688274512262381E-1   -2.004543800330940E-1
 6.529168218925000E9     5.560270129967501E-1   -8.060007292009536E-2   -1.093153619945657E-2   -3.567427300989989E-2   -1.176524191266731E-2   -3.545157035056682E-2    4.683328182040676E-1   -2.015653096667897E-1
 6.529178824000000E9     5.558542451215666E-1   -8.134505525281092E-2   -1.099469430340481E-2   -3.587239116916358E-2   -1.180871305202356E-2   -3.568353597541019E-2    4.679682732063288E-1   -2.024334443529001E-1
 6.529189429075000E9     5.556461071687659E-1   -8.243145866358752E-2   -1.132919319450432E-2   -3.613476218475192E-2   -1.204494089067740E-2   -3.579873972761289E-2    4.675255121323734E-1   -2.034201925904180E-1
 6.529200034150000E9     5.555739674657891E-1   -8.311400947742421E-2   -1.129651985892885E-2   -3.615591607639836E-2   -1.216914134034633E-2   -3.610898165028911E-2    4.668603210503398E-1   -2.044380191391868E-1
 6.529210639225000E9     5.554590976855210E-1   -8.407011604335206E-2   -1.144648417052116E-2   -3.637790287873052E-2   -1.230351392075560E-2   -3.620448622423482E-2    4.665608213920058E-1   -2.054405373222666E-1
 6.529221244300000E9     5.552251116995307E-1   -8.502600549569360E-2   -1.170774905721517E-2   -3.666037213759583E-2   -1.250606568452796E-2   -3.646710354468950E-2    4.661005107579710E-1   -2.064278432537635E-1
 6.529231849375000E9     5.550524564785851E-1   -8.591480607345479E-2   -1.183599710511513E-2   -3.692358932025638E-2   -1.255667533244911E-2   -3.662241693773648E-2    4.654449089195712E-1   -2.073412548766422E-1
 6.529242454450000E9     5.549813808214649E-1   -8.671857485410420E-2   -1.213858946264628E-2   -3.707097668383960E-2   -1.278487048350375E-2   -3.689273431166463E-2    4.651887661426901E-1   -2.085168730364834E-1
 6.529253059525000E9     5.547907529363523E-1   -8.763185569185014E-2   -1.211353638390280E-2   -3.718445309640620E-2   -1.302403825445689E-2   -3.701363619428976E-2    4.644730348446713E-1   -2.093551311330523E-1
 6.529263664600000E9     5.545214769299676E-1   -8.850362808367522E-2   -1.224983935574156E-2   -3.741250573467501E-2   -1.301437989241178E-2   -3.729863426604567E-2    4.640570752818733E-1   -2.102832535213737E-1
 6.529274269675000E9     5.544773131721384E-1   -8.942863654234622E-2   -1.239625042377863E-2   -3.773535890691369E-2   -1.325578203005592E-2   -3.755464111302073E-2    4.632793490864491E-1   -2.112694197792875E-1
 6.529284874750000E9     5.542781460425339E-1   -9.033274568579779E-2   -1.252182903878322E-2   -3.782126162368425E-2   -1.340277301657243E-2   -3.766837563587507E-2    4.630417349747331E-1   -2.123007400356066E-1
 6.529295479825000E9     5.541301785402084E-1   -9.132496885959700E-2   -1.262902075291679E-2   -3.810739507985399E-2   -1.362310921293714E-2   -3.784416283972753E-2    4.623607385932020E-1   -2.133886442801350E-1
 6.529306084900000E9     5.539622966767687E-1   -9.215994149806835E-2   -1.286305709353926E-2   -3.834087928952911E-2   -1.388767785020677E-2   -3.820373911827665E-2    4.619003751682282E-1   -2.142659222088263E-1
 6.529316689975000E9     5.538163851682308E-1   -9.306679208797018E-2   -1.311894079936698E-2   -3.865835831717535E-2   -1.394115624450965E-2   -3.837154660005051E-2    4.612636282704372E-1   -2.154622143197884E-1
 6.529327295050000E9     5.535834493450593E-1   -9.400294235016807E-2   -1.315067648563573E-2   -3.884365828707036E-2   -1.414382926997419E-2   -3.843948374568058E-2    4.608139064937408E-1   -2.164265506056020E-1
 6.529337900125000E9     5.534285252326389E-1   -9.489854133649704E-2   -1.347908732193550E-2   -3.905309700452306E-2   -1.428261971558217E-2   -3.882205840588716E-2    4.602628518220996E-1   -2.173921408867406E-1
 6.529348505200000E9     5.532554600827415E-1   -9.570316226116046E-2   -1.368295564846640E-2   -3.925338501699349E-2   -1.449769839034257E-2   -3.895150402750226E-2    4.597067352742487E-1   -2.183839864215006E-1
 6.529359110275000E9     5.530037718302876E-1   -9.673949688009066E-2   -1.373138565585934E-2   -3.947832261241516E-2   -1.459744228579936E-2   -3.923037726641194E-2    4.592374058473421E-1   -2.194189596862308E-1
 6.529369715350000E9     5.529799214677888E-1   -9.762697360172247E-2   -1.393543762267308E-2   -3.965547557707010E-2   -1.489932106882682E-2   -3.951093698609042E-2    4.584038056556818E-1   -2.205145224999730E-1
 6.529380320425000E9     5.526570324146269E-1   -9.854742919828503E-2   -1.414182741649675E-2   -3.995782420273377E-2   -1.511790423455387E-2   -3.960467440627619E-2    4.579116450755699E-1   -2.215110888670626E-1
 6.529390925500000E9     5.524228092422822E-1   -9.935791710402898E-2   -1.438851747388213E-2   -4.016340451160448E-2   -1.529565666904113E-2   -3.993966181473606E-2    4.573389879981177E-1   -2.224023845846284E-1
 6.529401530575000E9     5.521714107498965E-1   -1.003573519659868E-1   -1.456054581447350E-2   -4.040917831953952E-2   -1.535085843671088E-2   -4.010865227708612E-2    4.567448187173504E-1   -2.236320163270706E-1
 6.529412135650000E9     5.520035166914418E-1   -1.011611312408540E-1   -1.470445757129820E-2   -4.080565246052119E-2   -1.558001690350827E-2   -4.047055561214868E-2    4.561233009590130E-1   -2.245860207182192E-1
 6.529422740725000E9     5.517977777217706E-1   -1.022023576730090E-1   -1.479623661854060E-2   -4.108102524663709E-2   -1.586541165220441E-2   -4.076324984283837E-2    4.554617180588718E-1   -2.256831794001459E-1
 6.529433345800000E9     5.516794773410134E-1   -1.030325379976928E-1   -1.510756246117116E-2   -4.127842337691082E-2   -1.609975001921024E-2   -4.085905254496643E-2    4.549700254119114E-1   -2.266167717760498E-1
 6.529443950875000E9     5.514978054890055E-1   -1.039398875850300E-1   -1.532777203950721E-2   -4.155287040600445E-2   -1.633293218958369E-2   -4.119384676803404E-2    4.543620083766078E-1   -2.278762081144154E-1
 6.529454555950000E9     5.512399386315243E-1   -1.048820039077691E-1   -1.554259844936334E-2   -4.176652429136516E-2   -1.657536133586599E-2   -4.145382847846778E-2    4.537736635271388E-1   -2.289902158121921E-1
 6.529465161025000E9     5.509416285294382E-1   -1.058713434993525E-1   -1.588611572991940E-2   -4.211863425973911E-2   -1.667978704451397E-2   -4.161937481780913E-2    4.530634639431946E-1   -2.298947367875614E-1
 6.529475766100000E9     5.508290993678843E-1   -1.067849054006504E-1   -1.613381323062137E-2   -4.225327272894001E-2   -1.688538109037115E-2   -4.198648537548916E-2    4.523604626479262E-1   -2.310511704728633E-1
 6.529486371175000E9     5.507824520601100E-1   -1.078363098434025E-1   -1.615335384667922E-2   -4.251557718726086E-2   -1.713741088021282E-2   -4.228339152565185E-2    4.517433761921173E-1   -2.321674620745758E-1
 6.529496976250000E9     5.503775210437649E-1   -1.086600886532091E-1   -1.644727134522609E-2   -4.292755975524945E-2   -1.743783652751051E-2   -4.256199521919363E-2    4.512143656832859E-1   -2.331481513550457E-1
 6.529507581325000E9     5.502090469986550E-1   -1.095257708780752E-1   -1.657083255893515E-2   -4.312812404615779E-2   -1.774026346736137E-2   -4.279022281384829E-2    4.502827599409157E-1   -2.342048265019173E-1
 6.529518186400000E9     5.498463036282869E-1   -1.104071754786067E-1   -1.689862452062158E-2   -4.341186575242015E-2   -1.800581112317520E-2   -4.296737069232826E-2    4.497498886685007E-1   -2.353915078089347E-1
 6.529528791475000E9     5.495933920100847E-1   -1.115269533234937E-1   -1.712200034330151E-2   -4.367093262513168E-2   -1.811901015875757E-2   -4.327650584798944E-2    4.490816914099411E-1   -2.364296756608473E-1
 6.529539396550000E9     5.493301293589616E-1   -1.123856261341330E-1   -1.744546863856787E-2   -4.390692245497228E-2   -1.837456205177307E-2   -4.363444621785466E-2    4.483926449797076E-1   -2.375071808653637E-1
 6.529550001625000E9     5.491965766016947E-1   -1.133482782908999E-1   -1.752218572590046E-2   -4.424503435753161E-2   -1.873397733581952E-2   -4.386296651770198E-2    4.476347686276175E-1   -2.386357982100145E-1
 6.529560606700000E9     5.490110921221762E-1   -1.143699831892633E-1   -1.798271910557782E-2   -4.464107490050310E-2   -1.887995195933789E-2   -4.421096203998488E-2    4.469710305149310E-1   -2.398879106911625E-1
 6.529571211775000E9     5.488329133187899E-1   -1.152295777931010E-1   -1.802151059568760E-2   -4.478093401137433E-2   -1.915207454831044E-2   -4.455160646328105E-2    4.463809935160719E-1   -2.409996993879112E-1
 6.529581816850000E9     5.483535121762331E-1   -1.161931966985466E-1   -1.824011810494193E-2   -4.515855472597887E-2   -1.944272396652410E-2   -4.469773971367635E-2    4.454349016657542E-1   -2.422296772978122E-1
 6.529592421925000E9     5.481930667988101E-1   -1.171714120850821E-1   -1.876696231373913E-2   -4.544733752723995E-2   -1.980841498417710E-2   -4.513333871805539E-2    4.447738945660354E-1   -2.431695852754574E-1
 6.529603027000000E9     5.480264130488605E-1   -1.181185290910445E-1   -1.890161392389313E-2   -4.571068916124912E-2   -1.996679262799465E-2   -4.540042934472575E-2    4.441381181134096E-1   -2.444220618514510E-1
 6.529613632075000E9     5.477075336552991E-1   -1.190685208479466E-1   -1.932297845705402E-2   -4.600515574741849E-2   -2.027516014952095E-2   -4.558816712814176E-2    4.431982279824224E-1   -2.453653253071823E-1
 6.529624237150000E9     5.474365554576228E-1   -1.200916376601508E-1   -1.943019594472459E-2   -4.644116004573014E-2   -2.057607737373934E-2   -4.602147227737155E-2    4.424057785177605E-1   -2.467658837829662E-1
 6.529634842225000E9     5.471527959855688E-1   -1.210213714464551E-1   -1.954839664425376E-2   -4.680648218134148E-2   -2.078076907231451E-2   -4.630924743365201E-2    4.417617195569635E-1   -2.478708910541199E-1
 6.529645447300000E9     5.469107333275359E-1   -1.220294096353929E-1   -2.016451842903862E-2   -4.702460525636133E-2   -2.117339628894427E-2   -4.665730144459511E-2    4.407018221771746E-1   -2.490368144202358E-1
 6.529656052375000E9     5.466893287434522E-1   -1.230219154861096E-1   -2.029540311638010E-2   -4.731455893269391E-2   -2.142920047946061E-2   -4.700743477082604E-2    4.398282106313982E-1   -2.501401694340860E-1
 6.529666657450000E9     5.463366868258589E-1   -1.238884475376418E-1   -2.063912393448915E-2   -4.771010062883572E-2   -2.182913317891918E-2   -4.735707222109353E-2    4.390528083890395E-1   -2.515136959816545E-1
 6.529677262525000E9     5.460580595508350E-1   -1.249383302441330E-1   -2.107369218788596E-2   -4.797686099166269E-2   -2.202166609177905E-2   -4.762639559848639E-2    4.381448921663220E-1   -2.525818856456738E-1
 6.529687867600000E9     5.457279668896835E-1   -1.257790341585852E-1   -2.125963884453849E-2   -4.851097758698413E-2   -2.245784236186326E-2   -4.800681286856200E-2    4.374092095655938E-1   -2.538411542670562E-1
 6.529698472675000E9     5.455430296878772E-1   -1.268410887883633E-1   -2.160245399489535E-2   -4.883267108895050E-2   -2.268752311990924E-2   -4.830650999387332E-2    4.364702703158948E-1   -2.549598481837242E-1
 6.529709077750000E9     5.451515794554825E-1   -1.278048263475165E-1   -2.190046851185813E-2   -4.922777778944087E-2   -2.310435456885801E-2   -4.872263460033998E-2    4.357057778526229E-1   -2.562816761360104E-1
