#  HZ   S   RI   R     50.00 
! Rohde & Schwarz Vector Network Analyzer 
! Rohde-Schwarz,ZNB20-2Port,1311601062101988,3.16
! Created: UTC 3/21/2024, 1:01:53 AM
! freq[Hz]                re:S11                  im:S11                  re:S21                  im:S21                  re:S12                  im:S12                  re:S22                  im:S22
 6.528750728000000E9     5.601337304595149E-1   -4.649775208915457E-2   -6.643626745192256E-3   -2.951638070198107E-2   -7.229031068489674E-3   -2.938918374894776E-2    4.837498805623283E-1   -1.647007157501827E-1
 6.528761361450000E9     5.601241340972845E-1   -4.733876786714792E-2   -6.631258591836164E-3   -2.939802442300255E-2   -7.409585857647672E-3   -2.943404164976030E-2    4.834562740265830E-1   -1.655450896708263E-1
 6.528771994900000E9     5.600124754539150E-1   -4.825631684997091E-2   -6.778364717394457E-3   -2.964623044692488E-2   -7.475247848874498E-3   -2.953365107082440E-2    4.831510033630433E-1   -1.664488808612979E-1
 6.528782628350000E9     5.599652028349003E-1   -4.919867968521163E-2   -6.925641719613008E-3   -2.992484770152121E-2   -7.418716119531509E-3   -2.970629828093575E-2    4.827712558282555E-1   -1.672654344537090E-1
 6.528793261800000E9     5.598017324950479E-1   -4.998225389866304E-2   -6.990982747003907E-3   -2.993466789360305E-2   -7.584858280070966E-3   -2.984062580010014E-2    4.825786816698354E-1   -1.682352119775285E-1
 6.528803895250000E9     5.597825622720395E-1   -5.092346152083758E-2   -6.940873610352965E-3   -3.010569965992367E-2   -7.679378787780734E-3   -3.000125069013021E-2    4.820121621393711E-1   -1.691467681134699E-1
 6.528814528700000E9     5.596796704676004E-1   -5.164224659107983E-2   -7.104331008221825E-3   -3.017961324174549E-2   -7.796957538618926E-3   -3.013596014391388E-2    4.818539827216123E-1   -1.698777482324271E-1
 6.528825162150000E9     5.596612834500466E-1   -5.253111536452688E-2   -7.290655699333849E-3   -3.031030379982676E-2   -7.878160044850807E-3   -3.021728646451843E-2    4.815157964888293E-1   -1.707446067121361E-1
 6.528835795600000E9     5.595212663224397E-1   -5.328478880749508E-2   -7.301359261523816E-3   -3.048410481542681E-2   -8.010660505347846E-3   -3.041401255917793E-2    4.811725350360724E-1   -1.715265435818671E-1
 6.528846429050000E9     5.594561971885214E-1   -5.421102482079462E-2   -7.464711920199108E-3   -3.065002324261073E-2   -8.098545357083847E-3   -3.057897852009056E-2    4.808073835171304E-1   -1.725816515075866E-1
 6.528857062500000E9     5.593616055885857E-1   -5.504576839908914E-2   -7.457725926348463E-3   -3.079235016176282E-2   -8.213790945338478E-3   -3.062045878786028E-2    4.803673965914486E-1   -1.736323959392037E-1
 6.528867695950000E9     5.592171698169849E-1   -5.594365038837426E-2   -7.626723208097923E-3   -3.092591015202973E-2   -8.206915427611160E-3   -3.081230489575019E-2    4.800453115897930E-1   -1.743427582708267E-1
 6.528878329400000E9     5.591159234476649E-1   -5.677978358637420E-2   -7.764496330077407E-3   -3.119921445593924E-2   -8.403034421751348E-3   -3.094643568374925E-2    4.795993976511720E-1   -1.754241225242046E-1
 6.528888962850000E9     5.590858130375607E-1   -5.759711070735266E-2   -7.865726196108222E-3   -3.130151514651452E-2   -8.500876031233636E-3   -3.106613385519207E-2    4.790834659633557E-1   -1.760982186427425E-1
 6.528899596300000E9     5.589295192191838E-1   -5.841278463641148E-2   -7.861054259486777E-3   -3.127030620971000E-2   -8.535393353109723E-3   -3.120790892267543E-2    4.789614634224743E-1   -1.772017905761898E-1
 6.528910229750000E9     5.589027892239180E-1   -5.924912287444263E-2   -7.973608155691795E-3   -3.142733560226702E-2   -8.645879836471606E-3   -3.150174560448162E-2    4.786948311332606E-1   -1.780222705891825E-1
 6.528920863200000E9     5.587736069859955E-1   -6.023040787564898E-2   -8.099436209278318E-3   -3.178813127405603E-2   -8.861124042176321E-3   -3.145940898060657E-2    4.783241953844325E-1   -1.790443763712125E-1
 6.528931496650000E9     5.587322991245939E-1   -6.102962715487203E-2   -8.176133389231266E-3   -3.187723871087612E-2   -8.841275252203231E-3   -3.154158019536034E-2    4.779849512908899E-1   -1.799593024184627E-1
 6.528942130100000E9     5.584972876366072E-1   -6.199384673946878E-2   -8.438120179765182E-3   -3.206922697175605E-2   -8.947137566626410E-3   -3.179598175007223E-2    4.773930730971823E-1   -1.807872807785615E-1
 6.528952763550000E9     5.584854178212909E-1   -6.270961880318181E-2   -8.436660091918702E-3   -3.211813598077805E-2   -9.111996946031041E-3   -3.202474865821749E-2    4.771249525453378E-1   -1.816979374280463E-1
 6.528963397000000E9     5.583499721863445E-1   -6.379007283114858E-2   -8.636318623434504E-3   -3.224967248407933E-2   -9.215556646402218E-3   -3.214282472776846E-2    4.768029898036064E-1   -1.825825068154673E-1
 6.528974030450000E9     5.582615505597813E-1   -6.451229761797975E-2   -8.750846434128046E-3   -3.246665755242691E-2   -9.346196579986251E-3   -3.230387012185000E-2    4.762806424762316E-1   -1.834474862721148E-1
 6.528984663900000E9     5.582308688961317E-1   -6.544056803966328E-2   -8.824024957014003E-3   -3.264623590566310E-2   -9.534228319918866E-3   -3.250206781757600E-2    4.758791057615693E-1   -1.845798022333277E-1
 6.528995297350000E9     5.579668524797841E-1   -6.630584634706568E-2   -8.914376685945392E-3   -3.285244988324078E-2   -9.587758645295085E-3   -3.267652798224124E-2    4.754238839032490E-1   -1.853053688511295E-1
 6.529005930800000E9     5.578447642115532E-1   -6.707760280096325E-2   -9.016894748612354E-3   -3.284876118084699E-2   -9.762351854974689E-3   -3.282534121672556E-2    4.753126499663243E-1   -1.864567187442248E-1
 6.529016564250000E9     5.577194997458294E-1   -6.792409924494545E-2   -9.032047534496624E-3   -3.316674787721644E-2   -9.764912936021147E-3   -3.290056534561852E-2    4.746331682819416E-1   -1.871784529738957E-1
 6.529027197700000E9     5.577628143067886E-1   -6.890559294915882E-2   -9.167271389017812E-3   -3.307291538086282E-2   -9.929378717474398E-3   -3.309122281454292E-2    4.743402065766053E-1   -1.880617289877194E-1
 6.529037831150000E9     5.575023288098446E-1   -6.970158859034976E-2   -9.383901288579024E-3   -3.333976402899118E-2   -1.009354892991283E-2   -3.317958867912730E-2    4.739195033843264E-1   -1.891490817803141E-1
 6.529048464600000E9     5.574739144366184E-1   -7.064431545735879E-2   -9.386374836897821E-3   -3.352325320647809E-2   -1.020240975635162E-2   -3.345704629198758E-2    4.735798498688413E-1   -1.899899276051437E-1
 6.529059098050000E9     5.573949436966100E-1   -7.144471089449821E-2   -9.561434452610514E-3   -3.372447831665772E-2   -1.025500808762124E-2   -3.363174839953517E-2    4.729897625506680E-1   -1.909901941530456E-1
 6.529069731500000E9     5.571788468220292E-1   -7.247909071084106E-2   -9.752353248325123E-3   -3.398915405724322E-2   -1.046472277972035E-2   -3.374645376042617E-2    4.725941849425013E-1   -1.918100222722386E-1
 6.529080364950000E9     5.570287080265882E-1   -7.329552339980133E-2   -9.811121302734828E-3   -3.416081261880546E-2   -1.050906954146787E-2   -3.411006003939440E-2    4.722394920969004E-1   -1.928888411825997E-1
 6.529090998400000E9     5.569550469896027E-1   -7.410082216879127E-2   -9.841086423024214E-3   -3.431770254129865E-2   -1.065530828344139E-2   -3.419721322033525E-2    4.717813910037306E-1   -1.938323504856404E-1
 6.529101631850000E9     5.566955035240276E-1   -7.498772303338011E-2   -9.994489542519365E-3   -3.441251922932136E-2   -1.079594380437707E-2   -3.430750680627279E-2    4.715351570939421E-1   -1.947218093749505E-1
 6.529112265300000E9     5.567669151808399E-1   -7.589958032013053E-2   -1.020954283102083E-2   -3.460556785522204E-2   -1.096320720952807E-2   -3.441577462182535E-2    4.709728889134990E-1   -1.956112514465933E-1
 6.529122898750000E9     5.565524195740560E-1   -7.674335212451648E-2   -1.031366641644130E-2   -3.489483513983428E-2   -1.107202551263670E-2   -3.464213466727184E-2    4.705471755252216E-1   -1.966831485977070E-1
 6.529133532200000E9     5.564797899326530E-1   -7.763930245241839E-2   -1.050217718812798E-2   -3.502186881678847E-2   -1.115915407864010E-2   -3.488931606882013E-2    4.700929663819865E-1   -1.975300554714595E-1
 6.529144165650000E9     5.563512227920030E-1   -7.843771033922338E-2   -1.059466043816796E-2   -3.536306750375164E-2   -1.135375201638745E-2   -3.496031831037185E-2    4.697508741992059E-1   -1.984652028566214E-1
 6.529154799100000E9     5.561917575314834E-1   -7.948042696651815E-2   -1.072152686992955E-2   -3.542324757776272E-2   -1.147070191248231E-2   -3.521225470188638E-2    4.691433560413809E-1   -1.994976792762418E-1
 6.529165432550000E9     5.561086699929092E-1   -8.020045670057190E-2   -1.084857630295891E-2   -3.547970813059621E-2   -1.160807306686298E-2   -3.541310731189900E-2    4.688191701640944E-1   -2.004650721450514E-1
 6.529176066000000E9     5.559903464016062E-1   -8.117078341291876E-2   -1.103535715692123E-2   -3.578901459489172E-2   -1.179430134609629E-2   -3.562076413083842E-2    4.680394162902652E-1   -2.012965583899032E-1
 6.529186699450000E9     5.556499672666507E-1   -8.197338374390190E-2   -1.114711944713161E-2   -3.595770247594650E-2   -1.190426344880417E-2   -3.574432691597688E-2    4.678112829445992E-1   -2.025345057412660E-1
 6.529197332900000E9     5.556503745210787E-1   -8.300664343774980E-2   -1.141720806729096E-2   -3.618187696574594E-2   -1.205832321418813E-2   -3.601595296436456E-2    4.672443631916723E-1   -2.032961522950366E-1
 6.529207966350000E9     5.554637085518542E-1   -8.392621703230745E-2   -1.151257211293108E-2   -3.642172498843963E-2   -1.231944007918067E-2   -3.622011932697107E-2    4.667954740753150E-1   -2.043442164173783E-1
 6.529218599800000E9     5.552827109066538E-1   -8.479395284269066E-2   -1.153667700836442E-2   -3.664277208212077E-2   -1.234982190678099E-2   -3.635217329042215E-2    4.661911492209112E-1   -2.052650092031708E-1
 6.529229233250000E9     5.550978489067491E-1   -8.556066689375183E-2   -1.183793425859852E-2   -3.682455895630322E-2   -1.255486235754480E-2   -3.663917184624777E-2    4.657386501258469E-1   -2.063922900231829E-1
 6.529239866700000E9     5.550294633152293E-1   -8.654292532184897E-2   -1.196806076529231E-2   -3.695515639819098E-2   -1.270822239602938E-2   -3.684399511180981E-2    4.654019182569639E-1   -2.073259172378189E-1
 6.529250500150000E9     5.548019459696221E-1   -8.733183893744209E-2   -1.196260784369191E-2   -3.722403484052249E-2   -1.284113069226939E-2   -3.701420405631390E-2    4.648380017744906E-1   -2.082698228653092E-1
 6.529261133600000E9     5.546306130136194E-1   -8.824400850679374E-2   -1.234601381487222E-2   -3.740078900431680E-2   -1.300283543937483E-2   -3.715241697735950E-2    4.641489540967519E-1   -2.094190100883924E-1
 6.529271767050000E9     5.544999431662757E-1   -8.907880995422696E-2   -1.227434335463919E-2   -3.758903740591397E-2   -1.326142112703293E-2   -3.741108905461697E-2    4.636747408145807E-1   -2.102409190640462E-1
 6.529282400500000E9     5.542728486756776E-1   -9.001778955614877E-2   -1.237502349021675E-2   -3.790537790571078E-2   -1.331681833280842E-2   -3.757005968607355E-2    4.631702719074563E-1   -2.112928091741077E-1
 6.529293033950000E9     5.540891848782835E-1   -9.109140952113273E-2   -1.267112812311863E-2   -3.795265954179943E-2   -1.342305465311643E-2   -3.783113862043747E-2    4.627947987781406E-1   -2.122394167759976E-1
 6.529303667400000E9     5.539208945020730E-1   -9.184704059694011E-2   -1.271522133595724E-2   -3.828936621951988E-2   -1.374433381375921E-2   -3.801048482567930E-2    4.621721196661125E-1   -2.133173310623976E-1
 6.529314300850000E9     5.537800764999652E-1   -9.265900399216476E-2   -1.306700285587078E-2   -3.844566784238151E-2   -1.389240049272168E-2   -3.819631599742791E-2    4.615491414551607E-1   -2.143406544586478E-1
 6.529324934300000E9     5.536376023637863E-1   -9.371733369616082E-2   -1.320436895916656E-2   -3.878562188155346E-2   -1.412843751545709E-2   -3.842177153224625E-2    4.610008092565511E-1   -2.154718046493605E-1
 6.529335567750000E9     5.534269220077001E-1   -9.463016161422921E-2   -1.332547385287061E-2   -3.888624338461796E-2   -1.432279346274779E-2   -3.871975534228881E-2    4.604492015725223E-1   -2.163726527504264E-1
 6.529346201200000E9     5.531807717104613E-1   -9.545392070204937E-2   -1.349030905039371E-2   -3.932340142147261E-2   -1.441411741785811E-2   -3.893103846477008E-2    4.598930687213345E-1   -2.173791957150441E-1
 6.529356834650000E9     5.530690460623057E-1   -9.642734209944660E-2   -1.367442666335745E-2   -3.937972826558214E-2   -1.460979108855687E-2   -3.920165250978182E-2    4.594065474935475E-1   -2.184600920846751E-1
 6.529367468100000E9     5.530513514211365E-1   -9.729558960436585E-2   -1.396262388669712E-2   -3.973778508175631E-2   -1.476452690220885E-2   -3.938881272229895E-2    4.589125354331735E-1   -2.194365627574095E-1
 6.529378101550000E9     5.526623515156114E-1   -9.827502438496120E-2   -1.412740493471360E-2   -3.985907895626524E-2   -1.503321848003877E-2   -3.964245852710786E-2    4.584523756397894E-1   -2.205555450593193E-1
 6.529388735000000E9     5.525240577234933E-1   -9.924594272342636E-2   -1.426096992845638E-2   -4.013142542506242E-2   -1.516101456702844E-2   -3.983279055571076E-2    4.576882617764018E-1   -2.216069397953629E-1
 6.529399368450000E9     5.523933082624639E-1   -1.001123890901145E-1   -1.452872252951932E-2   -4.038868356259637E-2   -1.535551504449010E-2   -4.008467309355272E-2    4.570743227290972E-1   -2.226954934555652E-1
 6.529410001900000E9     5.520449105135612E-1   -1.009274957153639E-1   -1.463373405538168E-2   -4.073266815542538E-2   -1.557993582316338E-2   -4.032209053656786E-2    4.565917434961587E-1   -2.235261521292483E-1
 6.529420635350000E9     5.519230234056846E-1   -1.018309309385130E-1   -1.484765914865399E-2   -4.078726909158602E-2   -1.582199495293619E-2   -4.056689385800653E-2    4.559913155979438E-1   -2.246851743767572E-1
 6.529431268800000E9     5.516319235010984E-1   -1.027866132925873E-1   -1.494992573870433E-2   -4.113875538470140E-2   -1.606700106879012E-2   -4.073815554875000E-2    4.552986621780755E-1   -2.256369245291512E-1
 6.529441902250000E9     5.514830860100938E-1   -1.037303078849978E-1   -1.524105103053829E-2   -4.151180455889922E-2   -1.617898535531303E-2   -4.105775560529197E-2    4.546679454569517E-1   -2.268407293494413E-1
 6.529452535700000E9     5.513828988257562E-1   -1.047936066961884E-1   -1.541656679009369E-2   -4.162931324916719E-2   -1.652013768533810E-2   -4.127646375235158E-2    4.540428582003508E-1   -2.279091297318334E-1
 6.529463169150000E9     5.510317091290737E-1   -1.055826344939185E-1   -1.562735376490754E-2   -4.204004284678248E-2   -1.668072938351024E-2   -4.159542259384050E-2    4.534775592126075E-1   -2.288577481259883E-1
 6.529473802600000E9     5.508977601890582E-1   -1.065088624777214E-1   -1.589721237975436E-2   -4.207693402310255E-2   -1.687544499660801E-2   -4.171713328908307E-2    4.527162132030902E-1   -2.302148028412454E-1
 6.529484436050000E9     5.505957079428767E-1   -1.073983683586212E-1   -1.610277301030748E-2   -4.238721369160039E-2   -1.704533088731910E-2   -4.220579687091824E-2    4.521498008632437E-1   -2.311454608870829E-1
 6.529495069500000E9     5.505007425823979E-1   -1.083991521191091E-1   -1.634810408025932E-2   -4.274156300517699E-2   -1.738149850516958E-2   -4.241079263284776E-2    4.514171848251456E-1   -2.323391948760967E-1
 6.529505702950000E9     5.502543923690603E-1   -1.093317907313056E-1   -1.656632461434393E-2   -4.300280543613728E-2   -1.758962756106610E-2   -4.264617463313945E-2    4.509033651457086E-1   -2.332889688374631E-1
 6.529516336400000E9     5.500112362324430E-1   -1.102987219379599E-1   -1.693867184755880E-2   -4.331589168920907E-2   -1.786715813285598E-2   -4.299184798134900E-2    4.501571796329734E-1   -2.344686905713615E-1
 6.529526969850000E9     5.498005584527667E-1   -1.113094882006208E-1   -1.701540163089537E-2   -4.353175324241795E-2   -1.812888069068893E-2   -4.324654141380917E-2    4.492945992757406E-1   -2.355223762444096E-1
 6.529537603300000E9     5.495675914827184E-1   -1.121262857140608E-1   -1.732425751569489E-2   -4.388885821592107E-2   -1.825970961989659E-2   -4.351982475380749E-2    4.487165078266983E-1   -2.366170894669282E-1
 6.529548236750000E9     5.492650862507242E-1   -1.131196670412242E-1   -1.762233250045545E-2   -4.420944845483518E-2   -1.857817685832766E-2   -4.382411613550917E-2    4.479175457744198E-1   -2.377684339493916E-1
 6.529558870200000E9     5.490925572083297E-1   -1.140540732117785E-1   -1.784377507558960E-2   -4.425062205312731E-2   -1.876765102152079E-2   -4.403693713506458E-2    4.473172131023927E-1   -2.389082403333723E-1
 6.529569503650000E9     5.487854569887315E-1   -1.150244241666863E-1   -1.803114422369556E-2   -4.482967641726359E-2   -1.905427412807147E-2   -4.440006953311935E-2    4.465290904793558E-1   -2.400281447652108E-1
 6.529580137100000E9     5.484957085682103E-1   -1.159547148861950E-1   -1.829566688165164E-2   -4.509652002768411E-2   -1.927165089448251E-2   -4.461441850638207E-2    4.458282622696303E-1   -2.410787544216101E-1
 6.529590770550000E9     5.482152756105758E-1   -1.170549807567412E-1   -1.859850403868080E-2   -4.544453316360703E-2   -1.959850488981834E-2   -4.502320349132124E-2    4.449779330513322E-1   -2.423498142159413E-1
 6.529601404000000E9     5.480819169793233E-1   -1.178734829420434E-1   -1.877675664902708E-2   -4.572013331170467E-2   -1.995423141168704E-2   -4.530779751085507E-2    4.443722246543586E-1   -2.433658821014091E-1
 6.529612037450000E9     5.477288187201795E-1   -1.189127935722821E-1   -1.909849294303137E-2   -4.603778469156515E-2   -2.008192544120656E-2   -4.552388687683975E-2    4.435693275274149E-1   -2.445842944921215E-1
 6.529622670900000E9     5.474159700947624E-1   -1.198855054373126E-1   -1.933328935125497E-2   -4.618166605718998E-2   -2.038740678532214E-2   -4.589234705560842E-2    4.429754377747314E-1   -2.457287777603069E-1
 6.529633304350000E9     5.471546057962526E-1   -1.207617526150984E-1   -1.975201246282276E-2   -4.651202429643309E-2   -2.081530011838623E-2   -4.628408226181038E-2    4.420602133517272E-1   -2.469135201150343E-1
 6.529643937800000E9     5.470325762179546E-1   -1.217305876694032E-1   -2.007587807528083E-2   -4.701912365587897E-2   -2.104627214451798E-2   -4.649976154321270E-2    4.413410142739713E-1   -2.481018977998154E-1
 6.529654571250000E9     5.468352729346827E-1   -1.226436655438713E-1   -2.019897873392168E-2   -4.724204763548946E-2   -2.129497270335531E-2   -4.692572196034644E-2    4.404417786638398E-1   -2.492162877141758E-1
 6.529665204700000E9     5.464505089833375E-1   -1.237282092362147E-1   -2.067755523297354E-2   -4.753940384287156E-2   -2.174853340150252E-2   -4.717474892785832E-2    4.394354435078810E-1   -2.503567154303148E-1
 6.529675838150000E9     5.461535195544845E-1   -1.246233661945736E-1   -2.099674210289125E-2   -4.798599049422692E-2   -2.202665788807178E-2   -4.752643417730647E-2    4.386914213398974E-1   -2.515437352869554E-1
 6.529686471600000E9     5.457823297655724E-1   -1.256441622267347E-1   -2.123138107717951E-2   -4.851995594388329E-2   -2.237774025203418E-2   -4.796519768951676E-2    4.380029757633252E-1   -2.528373545950421E-1
 6.529697105050000E9     5.455432062420333E-1   -1.266675126896160E-1   -2.163086018105051E-2   -4.872023248098892E-2   -2.274213060364314E-2   -4.824334704912364E-2    4.369735307464450E-1   -2.540481321566728E-1
 6.529707738500000E9     5.452127417437141E-1   -1.277359513907309E-1   -2.190799255615637E-2   -4.917991125132608E-2   -2.299080269676404E-2   -4.852458789242561E-2    4.362504937043695E-1   -2.552544348089795E-1
