#  HZ   S   RI   R     50.00 
! Rohde & Schwarz Vector Network Analyzer 
! Rohde-Schwarz,ZNB20-2Port,1311601062101988,3.16
! Created: UTC 3/21/2024, 1:02:00 AM
! freq[Hz]                re:S11                  im:S11                  re:S21                  im:S21                  re:S12                  im:S12                  re:S22                  im:S22
 6.528750265000000E9     5.602056782394191E-1   -4.639214262455701E-2   -6.602040938024023E-3   -2.941958860557987E-2   -7.255615957631207E-3   -2.929481349452114E-2    4.840584120571185E-1   -1.639053510257308E-1
 6.528760910500000E9     5.599734990073560E-1   -4.736954490841173E-2   -6.740486358468675E-3   -2.957243581238523E-2   -7.259492394569939E-3   -2.938774758068183E-2    4.835669812630454E-1   -1.648266919945142E-1
 6.528771556000000E9     5.599951872192063E-1   -4.820426273517776E-2   -6.795499938870903E-3   -2.961082035374223E-2   -7.408686228719235E-3   -2.957766029310633E-2    4.831344808752403E-1   -1.658061539176942E-1
 6.528782201500000E9     5.599036571298784E-1   -4.905246442306330E-2   -6.961822660754050E-3   -2.975137157676608E-2   -7.521187209350002E-3   -2.960212027510049E-2    4.829225913392495E-1   -1.665972181818463E-1
 6.528792847000000E9     5.598219578575103E-1   -4.992277794557055E-2   -6.868413758845916E-3   -2.980377994917905E-2   -7.597031879487641E-3   -2.972792299007819E-2    4.826247800213254E-1   -1.675689478017867E-1
 6.528803492500000E9     5.597977998206470E-1   -5.063881834506108E-2   -6.946163221381754E-3   -2.994562077518708E-2   -7.692029915156048E-3   -3.000735232487950E-2    4.823012219153685E-1   -1.683026533912417E-1
 6.528814138000000E9     5.597435398879282E-1   -5.156456690946708E-2   -7.195684461329773E-3   -3.024738200406232E-2   -7.725053273409951E-3   -3.002903794107443E-2    4.819205255153682E-1   -1.692613512698420E-1
 6.528824783500000E9     5.595301365647691E-1   -5.243471490577525E-2   -7.267063908729626E-3   -3.048512433823891E-2   -7.899090345071275E-3   -3.016406899133157E-2    4.817379386255053E-1   -1.700683414385753E-1
 6.528835429000000E9     5.594942542716888E-1   -5.318675206601380E-2   -7.375778081700926E-3   -3.044122748275547E-2   -8.059802533162644E-3   -3.025077364789609E-2    4.811816463012314E-1   -1.710462856186300E-1
 6.528846074500000E9     5.593767918502520E-1   -5.417994299228535E-2   -7.358839160862949E-3   -3.054639196183264E-2   -8.061461368749023E-3   -3.053978292810525E-2    4.809328879668677E-1   -1.718958440329144E-1
 6.528856720000000E9     5.592774790705983E-1   -5.506368821331468E-2   -7.520032653365612E-3   -3.073212075928890E-2   -8.167092878848911E-3   -3.070011781036383E-2    4.806012159889190E-1   -1.727809814117131E-1
 6.528867365500000E9     5.592577982158555E-1   -5.588883179740937E-2   -7.534427047965812E-3   -3.089252067635414E-2   -8.233998085198778E-3   -3.076317509316515E-2    4.800979167323358E-1   -1.737887639380270E-1
 6.528878011000000E9     5.592667495501500E-1   -5.668574419121503E-2   -7.658409500163394E-3   -3.099373340892775E-2   -8.416530273118531E-3   -3.091666236683566E-2    4.797660946792146E-1   -1.746809021252991E-1
 6.528888656500000E9     5.590722125414933E-1   -5.773510668922165E-2   -7.752110058089255E-3   -3.121709910794355E-2   -8.444503754646660E-3   -3.102940070555161E-2    4.795047767717563E-1   -1.755150441352819E-1
 6.528899302000000E9     5.589353286203519E-1   -5.847802934162719E-2   -7.970325641942996E-3   -3.126370926344094E-2   -8.543192056749171E-3   -3.126032990645092E-2    4.791684522695814E-1   -1.765378563603962E-1
 6.528909947500000E9     5.589189392803818E-1   -5.934010692824252E-2   -8.034748776243272E-3   -3.147603144832255E-2   -8.650263770932120E-3   -3.134172567448160E-2    4.787809841287015E-1   -1.773327542160826E-1
 6.528920593000000E9     5.587974995415009E-1   -6.006172452297835E-2   -8.089429586503334E-3   -3.165356460060637E-2   -8.664744228594198E-3   -3.152360463760068E-2    4.784518777509262E-1   -1.782830024822485E-1
 6.528931238500000E9     5.585938055744624E-1   -6.105515661912595E-2   -8.087658022421488E-3   -3.187757115227537E-2   -8.880313050881826E-3   -3.155978553671435E-2    4.779400051618090E-1   -1.792540769167382E-1
 6.528941884000000E9     5.584702849472138E-1   -6.183334580256314E-2   -8.322203286839866E-3   -3.187250314285865E-2   -8.991922435282976E-3   -3.184770098867173E-2    4.775123710395816E-1   -1.800142679988433E-1
 6.528952529500000E9     5.585255022479356E-1   -6.275188910934625E-2   -8.436004881571459E-3   -3.208954752722654E-2   -9.089994380496924E-3   -3.192870242484330E-2    4.772753449021725E-1   -1.811385003957497E-1
 6.528963175000000E9     5.584052335064610E-1   -6.365754445888348E-2   -8.629066248853736E-3   -3.213960014200155E-2   -9.118278383309739E-3   -3.210419700520488E-2    4.768681648199223E-1   -1.818394672483877E-1
 6.528973820500000E9     5.583225585787719E-1   -6.445303980752776E-2   -8.709887949402620E-3   -3.238958106064074E-2   -9.180974934485662E-3   -3.221047100815169E-2    4.764117973127971E-1   -1.826299410081203E-1
 6.528984466000000E9     5.582393884259900E-1   -6.536305697168800E-2   -8.685629189591811E-3   -3.254325745075664E-2   -9.398325924894028E-3   -3.236039669583560E-2    4.760906704891170E-1   -1.836753259277029E-1
 6.528995111500000E9     5.580625562711828E-1   -6.615492807899775E-2   -8.683396660547406E-3   -3.279414284756521E-2   -9.579761215204844E-3   -3.261413258858831E-2    4.756859012421780E-1   -1.847226137686027E-1
 6.529005757000000E9     5.579619371662513E-1   -6.717694337189886E-2   -8.885756815119107E-3   -3.284851014739927E-2   -9.638474659496262E-3   -3.269464409748220E-2    4.753350081424895E-1   -1.856229418449723E-1
 6.529016402500000E9     5.578099228387985E-1   -6.789817089414113E-2   -9.042764283251062E-3   -3.306025432245143E-2   -9.737293003477554E-3   -3.273171520720691E-2    4.748442968258183E-1   -1.865384126213354E-1
 6.529027048000000E9     5.576651553842822E-1   -6.877300835260622E-2   -9.176616070868233E-3   -3.322198567501015E-2   -9.888657584596533E-3   -3.306028075526120E-2    4.744331879417718E-1   -1.874250451018565E-1
 6.529037693500000E9     5.576463334198770E-1   -6.969167284290431E-2   -9.341108965136366E-3   -3.326194161315724E-2   -1.005178162956204E-2   -3.315746880663548E-2    4.740961595587994E-1   -1.884104001486268E-1
 6.529048339000000E9     5.574119038145799E-1   -7.055640402239725E-2   -9.427551796888716E-3   -3.359352481679333E-2   -1.019467273785601E-2   -3.338217125332665E-2    4.736953546574541E-1   -1.895369120222655E-1
 6.529058984500000E9     5.573533469903110E-1   -7.155413397327792E-2   -9.598455713887731E-3   -3.382188179585382E-2   -1.017298799784609E-2   -3.351696910662334E-2    4.731208700913694E-1   -1.904453621569116E-1
 6.529069630000000E9     5.571433261447918E-1   -7.230728471916195E-2   -9.776862369664669E-3   -3.387367790829543E-2   -1.039360883687645E-2   -3.373953856347186E-2    4.728174421900004E-1   -1.910800799232317E-1
 6.529080275500000E9     5.570229113928160E-1   -7.312357336241217E-2   -9.789528095668174E-3   -3.419536010392802E-2   -1.047282588468845E-2   -3.386478883015551E-2    4.725268457925067E-1   -1.921389357075596E-1
 6.529090921000000E9     5.568992916412314E-1   -7.393415732546008E-2   -9.917470093325305E-3   -3.416376850952898E-2   -1.068633100632838E-2   -3.407012925041889E-2    4.719394742174341E-1   -1.931203607705217E-1
 6.529101566500000E9     5.568369220135002E-1   -7.489107134200979E-2   -1.012459328469992E-2   -3.453032647871675E-2   -1.081368578716051E-2   -3.429687453182859E-2    4.715105576507668E-1   -1.941171179031098E-1
 6.529112212000000E9     5.566813297817469E-1   -7.573562926117028E-2   -1.024833082719668E-2   -3.469048657133214E-2   -1.089951137084955E-2   -3.453847884335917E-2    4.712471969766049E-1   -1.949872462030570E-1
 6.529122857500000E9     5.565104048253902E-1   -7.676588865449026E-2   -1.038985577072312E-2   -3.488262155244603E-2   -1.111028087393735E-2   -3.460313199440286E-2    4.706342463074007E-1   -1.958876926721001E-1
 6.529133503000000E9     5.563789669706742E-1   -7.753864568268118E-2   -1.039209505990028E-2   -3.495887489135550E-2   -1.115840032878292E-2   -3.485160393587283E-2    4.701374627253959E-1   -1.970118106261569E-1
 6.529144148500000E9     5.561906171985432E-1   -7.841440791267451E-2   -1.043659266592904E-2   -3.505238793135199E-2   -1.143140889645768E-2   -3.492407736934663E-2    4.697636333947786E-1   -1.978932288757856E-1
 6.529154794000000E9     5.561065932430795E-1   -7.941011598418195E-2   -1.072041703310191E-2   -3.542367976569077E-2   -1.149846456307321E-2   -3.512791783605407E-2    4.693063866695993E-1   -1.987467299393460E-1
 6.529165439500000E9     5.558953282194375E-1   -8.036836152211156E-2   -1.074471705999933E-2   -3.564747983475672E-2   -1.161958940815798E-2   -3.534399632547316E-2    4.689215249818172E-1   -1.998657349496498E-1
 6.529176085000000E9     5.559194981369080E-1   -8.111491373055549E-2   -1.094588155425806E-2   -3.558471775088215E-2   -1.180475093632231E-2   -3.556406047436535E-2    4.685362451083994E-1   -2.006955900281364E-1
 6.529186730500000E9     5.557372013146447E-1   -8.196724605507061E-2   -1.113196620146918E-2   -3.604435768237248E-2   -1.190359113871592E-2   -3.568833787737590E-2    4.678317048240151E-1   -2.018242232662480E-1
 6.529197376000000E9     5.555598421175246E-1   -8.291086912033160E-2   -1.118694519347617E-2   -3.617741032276368E-2   -1.199049370540759E-2   -3.595696895577726E-2    4.673155623590399E-1   -2.027544240549271E-1
 6.529208021500000E9     5.553645023760150E-1   -8.381220300037898E-2   -1.138845644215082E-2   -3.632841055404488E-2   -1.221284256833757E-2   -3.617027561322535E-2    4.668645591756461E-1   -2.036762731694469E-1
 6.529218667000000E9     5.552738952504018E-1   -8.473652714197456E-2   -1.161118782171026E-2   -3.643248575542574E-2   -1.233356938070973E-2   -3.624380750833613E-2    4.663519286990835E-1   -2.047138573250875E-1
 6.529229312500000E9     5.551331610574345E-1   -8.555919866510371E-2   -1.169068645615521E-2   -3.641318495877425E-2   -1.257349096945461E-2   -3.649561449994597E-2    4.658428012659138E-1   -2.054743751278369E-1
 6.529239958000000E9     5.549311452572501E-1   -8.647978275053626E-2   -1.184844839406539E-2   -3.691641988353810E-2   -1.263719393646666E-2   -3.677042094611976E-2    4.653720108338883E-1   -2.066453993095559E-1
 6.529250603500000E9     5.547342841189543E-1   -8.740977830798534E-2   -1.200620051595424E-2   -3.714681460145189E-2   -1.286081764448340E-2   -3.685700926014903E-2    4.649894461558857E-1   -2.076595089255207E-1
 6.529261249000000E9     5.546979106937946E-1   -8.836799402134467E-2   -1.211504007713442E-2   -3.738183271796281E-2   -1.304748987874868E-2   -3.712314734382784E-2    4.643263462934982E-1   -2.086667461943617E-1
 6.529271894500000E9     5.545174667488711E-1   -8.919147276439748E-2   -1.239696362654715E-2   -3.755134312037258E-2   -1.316491127136610E-2   -3.731077548362859E-2    4.639767212837753E-1   -2.097596788611349E-1
 6.529282540000000E9     5.542590401942087E-1   -9.002539646158922E-2   -1.242619758055729E-2   -3.798211368211244E-2   -1.328805507961141E-2   -3.760311846396060E-2    4.633337782156072E-1   -2.106679450917228E-1
 6.529293185500000E9     5.540349503416577E-1   -9.085633153331535E-2   -1.268366514999196E-2   -3.802114299817982E-2   -1.345366059155841E-2   -3.779788156648838E-2    4.628661699431673E-1   -2.116138496641998E-1
 6.529303831000000E9     5.539285060973006E-1   -9.190666396210910E-2   -1.285696236670792E-2   -3.821818133890940E-2   -1.370727317284490E-2   -3.797790775187136E-2    4.624129638798384E-1   -2.125888642381078E-1
 6.529314476500000E9     5.537755932266341E-1   -9.268314471372628E-2   -1.290504334514663E-2   -3.852754182342227E-2   -1.381812091568629E-2   -3.814671178397434E-2    4.618204770508381E-1   -2.137455346599196E-1
 6.529325122000000E9     5.535330023744314E-1   -9.365629804448168E-2   -1.314377111697942E-2   -3.869541030165113E-2   -1.417885414922472E-2   -3.845438872088693E-2    4.611867724483524E-1   -2.147604135468591E-1
 6.529335767500000E9     5.534608543591192E-1   -9.448860774509775E-2   -1.332889934211054E-2   -3.889136653892911E-2   -1.425099654526570E-2   -3.868350990356388E-2    4.607445028562954E-1   -2.156295864140520E-1
 6.529346413000000E9     5.532203916139884E-1   -9.541674632732859E-2   -1.363526250998728E-2   -3.898606843487395E-2   -1.440775552888026E-2   -3.878211178805176E-2    4.602829513359870E-1   -2.167774878532736E-1
 6.529357058500000E9     5.530036166656213E-1   -9.640582428531681E-2   -1.360711892502076E-2   -3.946071872137209E-2   -1.456669453448270E-2   -3.915172977814929E-2    4.597235878807363E-1   -2.178700778850382E-1
 6.529367704000000E9     5.528671627789387E-1   -9.730157185874616E-2   -1.394292591584379E-2   -3.968713192141955E-2   -1.479477644011418E-2   -3.928959868594394E-2    4.591023085703015E-1   -2.188977912398182E-1
 6.529378349500000E9     5.525662440142020E-1   -9.817941944494253E-2   -1.412104504833673E-2   -3.992620168473104E-2   -1.488974344434363E-2   -3.959811552494219E-2    4.583941846175922E-1   -2.199074574184335E-1
 6.529388995000000E9     5.524440707089524E-1   -9.905336762340386E-2   -1.424653626878184E-2   -4.008764510740596E-2   -1.533064534979786E-2   -3.984320488162000E-2    4.577266053530514E-1   -2.208858346749552E-1
 6.529399640500000E9     5.523358090416446E-1   -1.000117633901126E-1   -1.450946600899562E-2   -4.035898914763453E-2   -1.536502116773975E-2   -4.006388873562809E-2    4.571339297027295E-1   -2.219391593561442E-1
 6.529410286000000E9     5.520917332280508E-1   -1.009517483691178E-1   -1.467867103262174E-2   -4.062104610468651E-2   -1.541936253111105E-2   -4.028385970310770E-2    4.566891278059205E-1   -2.230793511760710E-1
 6.529420931500000E9     5.518254383561665E-1   -1.019091246736078E-1   -1.473274476917430E-2   -4.077724663624044E-2   -1.580458667157216E-2   -4.063619089755193E-2    4.559758672341997E-1   -2.241640284494435E-1
 6.529431577000000E9     5.517044514060291E-1   -1.028109830599108E-1   -1.498166379117969E-2   -4.108790067476828E-2   -1.594310751735794E-2   -4.078270720352491E-2    4.555818030455008E-1   -2.251379973470293E-1
 6.529442222500000E9     5.515402440052403E-1   -1.037387184881782E-1   -1.515199345204382E-2   -4.138350667632819E-2   -1.625382141663299E-2   -4.105370842888396E-2    4.547818056238369E-1   -2.260926307643175E-1
 6.529452868000000E9     5.511871692681627E-1   -1.045758494286262E-1   -1.540841222500413E-2   -4.150937661008339E-2   -1.638668151712561E-2   -4.133078113582746E-2    4.543886149106587E-1   -2.272218300943936E-1
 6.529463513500000E9     5.509316614905857E-1   -1.055687532944551E-1   -1.567218968100016E-2   -4.180733348126976E-2   -1.663607662879486E-2   -4.154943860934206E-2    4.535975274083018E-1   -2.284687395688440E-1
 6.529474159000000E9     5.507810929067982E-1   -1.066244174204989E-1   -1.578438866493117E-2   -4.212387676935302E-2   -1.671616817209411E-2   -4.178835254004597E-2    4.529218608181921E-1   -2.294117558008315E-1
 6.529484804500000E9     5.506737895970080E-1   -1.074796997736490E-1   -1.599962626161838E-2   -4.243020692009262E-2   -1.713313033981017E-2   -4.207176407044829E-2    4.522949788627488E-1   -2.304619774175930E-1
 6.529495450000000E9     5.504183603270211E-1   -1.083279318076460E-1   -1.634054517183605E-2   -4.258009840748588E-2   -1.729566189840664E-2   -4.231303890963212E-2    4.516174761424581E-1   -2.314870630452538E-1
 6.529506095500000E9     5.501767208222238E-1   -1.092929777083468E-1   -1.656883285976905E-2   -4.288212509675413E-2   -1.744855476783450E-2   -4.260481867492332E-2    4.509519267888774E-1   -2.326328086598139E-1
 6.529516741000000E9     5.498634759978908E-1   -1.102929814234365E-1   -1.682959188946159E-2   -4.322275377675862E-2   -1.772074558967281E-2   -4.292280918253147E-2    4.502202600071325E-1   -2.336880910256405E-1
 6.529527386500000E9     5.497358690776269E-1   -1.112492017150499E-1   -1.701800125655703E-2   -4.351960733810131E-2   -1.807412708867662E-2   -4.323145195051834E-2    4.494624076363511E-1   -2.349184718748538E-1
 6.529538032000000E9     5.495177143348072E-1   -1.121234222950685E-1   -1.728136674862290E-2   -4.391698573557182E-2   -1.824942608277142E-2   -4.352912632705820E-2    4.489428052573873E-1   -2.359423605734023E-1
 6.529548677500000E9     5.493133033361537E-1   -1.131200687276076E-1   -1.739082063757466E-2   -4.409334219081038E-2   -1.845566115729064E-2   -4.365679654692086E-2    4.481484449797519E-1   -2.370781913859092E-1
 6.529559323000000E9     5.489652046230464E-1   -1.140451374407799E-1   -1.769918700120139E-2   -4.439082703970110E-2   -1.883351497547282E-2   -4.399592776007058E-2    4.473403922996179E-1   -2.382188433233509E-1
 6.529569968500000E9     5.487199752052163E-1   -1.150344973029769E-1   -1.791106393846624E-2   -4.482377623015522E-2   -1.911295664103721E-2   -4.439254058183571E-2    4.467591862574683E-1   -2.392966406036449E-1
 6.529580614000000E9     5.484624323886418E-1   -1.159602623191230E-1   -1.826960674975034E-2   -4.509144513812448E-2   -1.930510660509841E-2   -4.467245410335494E-2    4.459946257178282E-1   -2.405665284399242E-1
 6.529591259500000E9     5.483080559895473E-1   -1.169160736449659E-1   -1.838916394240773E-2   -4.535086180301502E-2   -1.964200000455544E-2   -4.496004707669270E-2    4.453496262913464E-1   -2.416859948065348E-1
 6.529601905000000E9     5.479571383804770E-1   -1.178450790383404E-1   -1.887793258183498E-2   -4.570441912640037E-2   -1.992942175257476E-2   -4.519217288833923E-2    4.444335382195014E-1   -2.427771095522505E-1
 6.529612550500000E9     5.476935438993960E-1   -1.188811363257169E-1   -1.898911323929992E-2   -4.595927383666182E-2   -2.010848508131495E-2   -4.554001623409189E-2    4.437703255944241E-1   -2.438667442046639E-1
 6.529623196000000E9     5.473382210488515E-1   -1.198326609030225E-1   -1.930144716637577E-2   -4.638691296867816E-2   -2.043749318416760E-2   -4.579894743852581E-2    4.428944205691075E-1   -2.450074164812731E-1
 6.529633841500000E9     5.471931637701969E-1   -1.208356870253911E-1   -1.965400668999460E-2   -4.670694575997841E-2   -2.075092091489771E-2   -4.626328962091571E-2    4.421724394719384E-1   -2.461007432898243E-1
 6.529644487000000E9     5.468221687222170E-1   -1.216455181030055E-1   -1.984811723783639E-2   -4.694962057930006E-2   -2.102164420237537E-2   -4.652034513409457E-2    4.412838254532325E-1   -2.474853073532587E-1
 6.529655132500000E9     5.466868450346594E-1   -1.226955159562576E-1   -2.026272668546024E-2   -4.727130110762353E-2   -2.144588600140954E-2   -4.679287360209233E-2    4.406635407435195E-1   -2.487458676751060E-1
 6.529665778000000E9     5.463776288209434E-1   -1.236589912612034E-1   -2.058669751450544E-2   -4.757030585749237E-2   -2.165186402068992E-2   -4.718088799654036E-2    4.397519535110839E-1   -2.497606699458482E-1
 6.529676423500000E9     5.460476751931682E-1   -1.246074149175345E-1   -2.086756062041157E-2   -4.790796898926511E-2   -2.197868721888557E-2   -4.751549603052745E-2    4.389542832595812E-1   -2.509402602573081E-1
 6.529687069000000E9     5.456679103504285E-1   -1.254929436495179E-1   -2.116004201860497E-2   -4.822010759943560E-2   -2.236946057604726E-2   -4.789538560046035E-2    4.380796151114854E-1   -2.522794211215655E-1
 6.529697714500000E9     5.454894862493708E-1   -1.266357306122068E-1   -2.143420961241782E-2   -4.858495195880624E-2   -2.262125782278038E-2   -4.820358161226417E-2    4.373454850709884E-1   -2.532543142681827E-1
 6.529708360000000E9     5.451214344486084E-1   -1.275869745832806E-1   -2.189950246777942E-2   -4.892386130621189E-2   -2.294658701146001E-2   -4.847824595918464E-2    4.362194119885339E-1   -2.545558671877836E-1
