#  HZ   S   RI   R     50.00 
! Rohde & Schwarz Vector Network Analyzer 
! Rohde-Schwarz,ZNB20-2Port,1311601062101988,3.16
! Created: UTC 3/21/2024, 1:02:08 AM
! freq[Hz]                re:S11                  im:S11                  re:S21                  im:S21                  re:S12                  im:S12                  re:S22                  im:S22
 6.528752889000000E9     5.601035457332456E-1   -4.664199595422208E-2   -6.700049768685922E-3   -2.927027793000057E-2   -7.220235715038028E-3   -2.927157300362925E-2    4.840947468489426E-1   -1.636964622380463E-1
 6.528763529725000E9     5.599718114521997E-1   -4.745761237769704E-2   -6.668438688626778E-3   -2.966691765519922E-2   -7.253063353491443E-3   -2.945051580101308E-2    4.836237668953407E-1   -1.646362183672772E-1
 6.528774170450000E9     5.599934518842627E-1   -4.835395256663989E-2   -6.818064854010523E-3   -2.967953372909270E-2   -7.412948306668905E-3   -2.951010301583986E-2    4.832778175619901E-1   -1.653655354410727E-1
 6.528784811175000E9     5.597977445207208E-1   -4.915305496906380E-2   -6.986563743562181E-3   -3.002368456413693E-2   -7.520266127239503E-3   -2.970766424836157E-2    4.829483486825299E-1   -1.663181204165859E-1
 6.528795451900000E9     5.597429279733426E-1   -4.994012292162802E-2   -6.983135352507725E-3   -2.983252045520020E-2   -7.572636787656151E-3   -2.976842729489113E-2    4.826000271357149E-1   -1.672856728316783E-1
 6.528806092625000E9     5.597450572918011E-1   -5.086946648477524E-2   -6.997728206818988E-3   -3.001246781720067E-2   -7.593717412393733E-3   -2.985510010365184E-2    4.821898752984052E-1   -1.681979988854936E-1
 6.528816733350000E9     5.596309808701924E-1   -5.175991535239095E-2   -7.096550591833059E-3   -3.037405837525807E-2   -7.792041098214375E-3   -3.004099124740990E-2    4.819032888443449E-1   -1.689829511001923E-1
 6.528827374075000E9     5.596726164703133E-1   -5.274553280268893E-2   -7.273359672416320E-3   -3.023397665575973E-2   -7.852368875788338E-3   -3.014391459892659E-2    4.816046629595592E-1   -1.697411588084624E-1
 6.528838014800000E9     5.594443088116479E-1   -5.339394915451928E-2   -7.253332037871721E-3   -3.054787353204014E-2   -7.912615196701925E-3   -3.029849048277659E-2    4.811175893683537E-1   -1.706962256903974E-1
 6.528848655525000E9     5.594102098822128E-1   -5.420099325148860E-2   -7.365245247990991E-3   -3.065296642232922E-2   -8.120524054126263E-3   -3.054237991731759E-2    4.808734883565543E-1   -1.717826768611092E-1
 6.528859296250000E9     5.592909186296163E-1   -5.511963632852782E-2   -7.506880301762772E-3   -3.080066818227411E-2   -8.108518673377004E-3   -3.060642164154687E-2    4.805047853411362E-1   -1.725462656591411E-1
 6.528869936975000E9     5.592192800957028E-1   -5.604781292437436E-2   -7.542736745779921E-3   -3.083392159059375E-2   -8.356950227863501E-3   -3.080453956189817E-2    4.803031463040972E-1   -1.733540589265131E-1
 6.528880577700000E9     5.591456129731845E-1   -5.682077404775490E-2   -7.705395902106446E-3   -3.086271721549957E-2   -8.417517092533022E-3   -3.091161988586970E-2    4.798304367358098E-1   -1.743852976896605E-1
 6.528891218425000E9     5.590017352528426E-1   -5.774974292925551E-2   -7.872837848178882E-3   -3.121374543617097E-2   -8.540959773622538E-3   -3.104120901408636E-2    4.795633367514943E-1   -1.751906428898235E-1
 6.528901859150000E9     5.589878771756270E-1   -5.855228572565610E-2   -7.889559731838160E-3   -3.132051435799776E-2   -8.580726287216749E-3   -3.117774979957630E-2    4.791073916145427E-1   -1.762751706071607E-1
 6.528912499875000E9     5.588407646358516E-1   -5.949710563231785E-2   -7.963871108802999E-3   -3.153070354659995E-2   -8.616156869607211E-3   -3.135146414387125E-2    4.788397649781437E-1   -1.770561276550490E-1
 6.528923140600000E9     5.587886479173382E-1   -6.032024397203138E-2   -8.158927272024118E-3   -3.165454547750218E-2   -8.774983697315763E-3   -3.145255899474469E-2    4.785085749004682E-1   -1.780082942868701E-1
 6.528933781325000E9     5.586771789889938E-1   -6.121603384152400E-2   -8.130603944013205E-3   -3.176714674112485E-2   -9.007504674665165E-3   -3.171678615765782E-2    4.779389360198512E-1   -1.788437265386160E-1
 6.528944422050000E9     5.585189054044196E-1   -6.191525512353221E-2   -8.202761002308673E-3   -3.194897936264739E-2   -8.927594925058378E-3   -3.171618931161999E-2    4.775145712882800E-1   -1.796919756730570E-1
 6.528955062775000E9     5.585265141134550E-1   -6.296894203330457E-2   -8.382416469938314E-3   -3.211116395199166E-2   -9.034839502116591E-3   -3.193400501752316E-2    4.772578740388819E-1   -1.806452729704944E-1
 6.528965703500000E9     5.583795195107273E-1   -6.369280003251514E-2   -8.587343090399933E-3   -3.232039683166720E-2   -9.180775579069373E-3   -3.214482957265231E-2    4.767434306715339E-1   -1.816810413837776E-1
 6.528976344225000E9     5.581898439348707E-1   -6.459634669132924E-2   -8.599675141043645E-3   -3.241616218868844E-2   -9.362823931005102E-3   -3.225421167484254E-2    4.764663260763977E-1   -1.823640886475211E-1
 6.528986984950000E9     5.580890201763404E-1   -6.556359622782222E-2   -8.634498989677030E-3   -3.260917790004877E-2   -9.455000551073086E-3   -3.244202956949203E-2    4.761681980282563E-1   -1.834918240747412E-1
 6.528997625675000E9     5.579852863859605E-1   -6.636840103838218E-2   -8.768197373057890E-3   -3.280536349946410E-2   -9.575685271750579E-3   -3.268094069237120E-2    4.757217963502536E-1   -1.843771265328768E-1
 6.529008266400000E9     5.578538637652943E-1   -6.719041388409663E-2   -8.950580797471784E-3   -3.292835609435014E-2   -9.702744647768484E-3   -3.269853125948152E-2    4.754267298591870E-1   -1.854130625661478E-1
 6.529018907125000E9     5.577952850965555E-1   -6.801974131579082E-2   -9.117126043114595E-3   -3.307502512682309E-2   -9.786357076205818E-3   -3.293747882970891E-2    4.748542135476470E-1   -1.862609475992156E-1
 6.529029547850000E9     5.576020260527736E-1   -6.894559629668498E-2   -9.258869762992627E-3   -3.330852123922348E-2   -9.982367123817431E-3   -3.307131102724274E-2    4.746037556022292E-1   -1.871318595128660E-1
 6.529040188575000E9     5.574231981824268E-1   -6.981332918691957E-2   -9.286483107569696E-3   -3.338341349315708E-2   -1.005433433126622E-2   -3.325098395131613E-2    4.739359882919729E-1   -1.882078134997394E-1
 6.529050829300000E9     5.573853853960240E-1   -7.063955894225570E-2   -9.362312454857831E-3   -3.359210380844979E-2   -1.013405786742703E-2   -3.335976289111228E-2    4.736635684310548E-1   -1.891791559392985E-1
 6.529061470025000E9     5.572328163415109E-1   -7.151059422840887E-2   -9.325275984204875E-3   -3.374876884411077E-2   -1.031837327117033E-2   -3.349141016933896E-2    4.732232867703463E-1   -1.899815281898239E-1
 6.529072110750000E9     5.571469791668834E-1   -7.252719376074962E-2   -9.557400366879517E-3   -3.388385801088990E-2   -1.044530828745882E-2   -3.376545440810966E-2    4.727296384722970E-1   -1.908796203220330E-1
 6.529082751475000E9     5.570299050607597E-1   -7.327424842320794E-2   -9.814524600054463E-3   -3.404213035281940E-2   -1.049172799885959E-2   -3.383975180079168E-2    4.723485966068001E-1   -1.919036566779663E-1
 6.529093392200000E9     5.569245578959175E-1   -7.410764358404009E-2   -1.000603208178420E-2   -3.420060087142093E-2   -1.057930390297241E-2   -3.407729138862309E-2    4.719411771474903E-1   -1.927455113651047E-1
 6.529104032925000E9     5.567162343179742E-1   -7.507968918314281E-2   -1.012794756456618E-2   -3.442047611998131E-2   -1.067941500430113E-2   -3.438457411076301E-2    4.714509992747114E-1   -1.938006074126642E-1
 6.529114673650000E9     5.566662016011489E-1   -7.588929025514754E-2   -1.013617391215813E-2   -3.461136323656369E-2   -1.094786142843539E-2   -3.446323614997153E-2    4.709272587180614E-1   -1.946442084190702E-1
 6.529125314375000E9     5.565095709837026E-1   -7.702598910874642E-2   -1.031127477413698E-2   -3.473969345434651E-2   -1.106335431287488E-2   -3.463815527076387E-2    4.707513275304556E-1   -1.957228127606454E-1
 6.529135955100000E9     5.563936558365543E-1   -7.775247107854166E-2   -1.031601119237405E-2   -3.495378129890954E-2   -1.125396569775436E-2   -3.485960316441663E-2    4.702601457037126E-1   -1.965974011203840E-1
 6.529146595825000E9     5.562396858440275E-1   -7.860531733320476E-2   -1.053776102202624E-2   -3.521170990477535E-2   -1.135852170919950E-2   -3.497407015904704E-2    4.697144929218173E-1   -1.975194846553425E-1
 6.529157236550000E9     5.560184707866392E-1   -7.942853546475827E-2   -1.071403230850640E-2   -3.529195323877388E-2   -1.149196984266447E-2   -3.515022568776937E-2    4.692335213378824E-1   -1.985253594012222E-1
 6.529167877275000E9     5.560755912123122E-1   -8.044580749223844E-2   -1.075864485932629E-2   -3.557445219697014E-2   -1.162584589866342E-2   -3.534689214128713E-2    4.687843689226286E-1   -1.993433090303141E-1
 6.529178518000000E9     5.557388762239497E-1   -8.123727104391992E-2   -1.093101084117089E-2   -3.580075110552478E-2   -1.176440626797924E-2   -3.563426101131065E-2    4.683790748373408E-1   -2.004100875775127E-1
 6.529189158725000E9     5.556223774593878E-1   -8.227312486253714E-2   -1.108174200954179E-2   -3.600040277550685E-2   -1.192397994724434E-2   -3.579208806437133E-2    4.677201578563662E-1   -2.014996799997909E-1
 6.529199799450000E9     5.555618771733538E-1   -8.298081191923591E-2   -1.124529521997931E-2   -3.618128355973846E-2   -1.215527240846384E-2   -3.589622675946507E-2    4.673215359503212E-1   -2.024768977953602E-1
 6.529210440175000E9     5.553842085563649E-1   -8.391478940125154E-2   -1.136956416868754E-2   -3.631704753221786E-2   -1.219804998352561E-2   -3.610574380128679E-2    4.670891202734115E-1   -2.035898228671013E-1
 6.529221080900000E9     5.552161698664082E-1   -8.496860219787926E-2   -1.148353110187869E-2   -3.657233219850593E-2   -1.233826959904684E-2   -3.631157911454711E-2    4.663825433454787E-1   -2.043412063530052E-1
 6.529231721625000E9     5.551172107167982E-1   -8.572627025351448E-2   -1.165878249501309E-2   -3.671473464446281E-2   -1.258963739485215E-2   -3.652612871955917E-2    4.660004432961340E-1   -2.052977575355930E-1
 6.529242362350000E9     5.547753488067240E-1   -8.652301816896227E-2   -1.179812867707029E-2   -3.681806403335892E-2   -1.274170416628569E-2   -3.674315500641761E-2    4.653832518782918E-1   -2.064383846954577E-1
 6.529253003075000E9     5.547483926852933E-1   -8.749069899592414E-2   -1.198329429811063E-2   -3.722336859179647E-2   -1.282898296834977E-2   -3.696370470260361E-2    4.648115832023561E-1   -2.073657205839318E-1
 6.529263643800000E9     5.544138613670775E-1   -8.832902443534354E-2   -1.211320078580640E-2   -3.727699011368753E-2   -1.303149162738476E-2   -3.710590142685338E-2    4.644840176827527E-1   -2.083988764633639E-1
 6.529274284525000E9     5.543625051821020E-1   -8.927551717443621E-2   -1.217527393267830E-2   -3.761956186412480E-2   -1.311916108233551E-2   -3.739377030313536E-2    4.637273982771654E-1   -2.093057717060521E-1
 6.529284925250000E9     5.542122801462213E-1   -9.017082966426090E-2   -1.235646704393922E-2   -3.778552860261268E-2   -1.328232144398429E-2   -3.749026350003035E-2    4.633481906360188E-1   -2.103010837916503E-1
 6.529295565975000E9     5.540450987808168E-1   -9.112378910624910E-2   -1.267913632817710E-2   -3.805250983068683E-2   -1.346989956929637E-2   -3.790617364660885E-2    4.629365688493471E-1   -2.113963883140318E-1
 6.529306206700000E9     5.538783339677381E-1   -9.193731737038414E-2   -1.275846924571353E-2   -3.833063180295575E-2   -1.361459323495347E-2   -3.793307988874085E-2    4.622841364553789E-1   -2.123466012907748E-1
 6.529316847425000E9     5.536659030822583E-1   -9.283792116244187E-2   -1.297107340950030E-2   -3.852251737207124E-2   -1.388037087131959E-2   -3.815066784970466E-2    4.617559126474094E-1   -2.135057096674410E-1
 6.529327488150000E9     5.535209097754525E-1   -9.370804335962939E-2   -1.312600881846413E-2   -3.865280070575181E-2   -1.399995408964660E-2   -3.849410725173041E-2    4.613981627692259E-1   -2.143909680365733E-1
 6.529338128875000E9     5.533816873974600E-1   -9.462324992387382E-2   -1.338987157566744E-2   -3.900843495815966E-2   -1.407509680069626E-2   -3.859839634090218E-2    4.607385868588651E-1   -2.153093197010170E-1
 6.529348769600000E9     5.531309530460221E-1   -9.572577777517477E-2   -1.355021694358279E-2   -3.910799018013485E-2   -1.441239958170313E-2   -3.882013779119405E-2    4.601557347244937E-1   -2.164865295457400E-1
 6.529359410325000E9     5.528832085352123E-1   -9.643119697865499E-2   -1.372782353306177E-2   -3.930898126337765E-2   -1.450465435236895E-2   -3.907467942921654E-2    4.596457381205031E-1   -2.174116830044134E-1
 6.529370051050000E9     5.529310675598159E-1   -9.744571801711253E-2   -1.389225408869986E-2   -3.949049915125773E-2   -1.480704407166875E-2   -3.929168304106684E-2    4.590807591805905E-1   -2.184748423137871E-1
 6.529380691775000E9     5.526598355425288E-1   -9.846482717898498E-2   -1.411301366813960E-2   -3.983176261023286E-2   -1.491083775741031E-2   -3.957493434120040E-2    4.584669794216955E-1   -2.194731466018207E-1
 6.529391332500000E9     5.525291804253510E-1   -9.916383259836879E-2   -1.421633154148984E-2   -3.999238779727279E-2   -1.519496560586896E-2   -3.981186917604481E-2    4.577120718367192E-1   -2.205399267650391E-1
 6.529401973225000E9     5.522740182950674E-1   -1.000770792360526E-1   -1.426731520089201E-2   -4.029416752655181E-2   -1.536305164047114E-2   -4.014555150169041E-2    4.572892908700689E-1   -2.216730951227483E-1
 6.529412613950000E9     5.520348590541545E-1   -1.010556491535173E-1   -1.465069671159755E-2   -4.066958272010004E-2   -1.546772799759949E-2   -4.026807367075033E-2    4.565663488657740E-1   -2.227635286123450E-1
 6.529423254675000E9     5.518985286441835E-1   -1.020338614011635E-1   -1.490641668110079E-2   -4.085634015394455E-2   -1.575561805682415E-2   -4.053804645075779E-2    4.560992052472377E-1   -2.236699990535622E-1
 6.529433895400000E9     5.516613425171472E-1   -1.029013525263790E-1   -1.497667382194035E-2   -4.113969790219470E-2   -1.598432459012923E-2   -4.087028980533793E-2    4.555895434614180E-1   -2.246794721523017E-1
 6.529444536125000E9     5.514188714258637E-1   -1.039257908907342E-1   -1.524252663383891E-2   -4.140912419773685E-2   -1.616634343071402E-2   -4.103789971094376E-2    4.548644601014956E-1   -2.258003300160433E-1
 6.529455176850000E9     5.512796987037594E-1   -1.048043577066149E-1   -1.547147602860712E-2   -4.168644591013810E-2   -1.646051173062530E-2   -4.136081836715244E-2    4.541610168822638E-1   -2.270514022572192E-1
 6.529465817575000E9     5.511253702776454E-1   -1.058301343296281E-1   -1.577397408613207E-2   -4.185463750383558E-2   -1.667672644471753E-2   -4.160678809965079E-2    4.535259818297082E-1   -2.279528885759391E-1
 6.529476458300000E9     5.508237282513052E-1   -1.066195563253751E-1   -1.579682104187532E-2   -4.221848576834652E-2   -1.688608055661924E-2   -4.180817607993871E-2    4.529201860687393E-1   -2.288742180568917E-1
 6.529487099025000E9     5.506986505416082E-1   -1.075085162487306E-1   -1.603641649286932E-2   -4.246034751145986E-2   -1.709857010466461E-2   -4.206872695876902E-2    4.522747769356570E-1   -2.300876797963761E-1
 6.529497739750000E9     5.504794421244933E-1   -1.085246234498777E-1   -1.629044016390791E-2   -4.255985324965920E-2   -1.734330183655364E-2   -4.227369565525216E-2    4.516703455691223E-1   -2.312341456351292E-1
 6.529508380475000E9     5.501246191358382E-1   -1.094513364999922E-1   -1.658788097665109E-2   -4.297018927612078E-2   -1.749511644410953E-2   -4.261032437694887E-2    4.508997833692157E-1   -2.324416866866454E-1
 6.529519021200000E9     5.499699211850064E-1   -1.105133783147027E-1   -1.685313364509326E-2   -4.324013031124040E-2   -1.784281008576223E-2   -4.283692878497428E-2    4.502299722478703E-1   -2.335582243576779E-1
 6.529529661925000E9     5.497338478868060E-1   -1.113049234219898E-1   -1.707601441331531E-2   -4.360604003762973E-2   -1.807997772908410E-2   -4.320256607129953E-2    4.496362636187681E-1   -2.344978059375181E-1
 6.529540302650000E9     5.494824420917550E-1   -1.122826121967775E-1   -1.725785053732216E-2   -4.379166677948172E-2   -1.826164536744032E-2   -4.358179560684140E-2    4.488582267855049E-1   -2.356179450408956E-1
 6.529550943375000E9     5.492562356851499E-1   -1.132540557593981E-1   -1.744259609525020E-2   -4.418706184573914E-2   -1.850571839993794E-2   -4.368645455785180E-2    4.480586153381645E-1   -2.368787315137343E-1
 6.529561584100000E9     5.489919837933288E-1   -1.141428678477009E-1   -1.784408745234811E-2   -4.435414910415927E-2   -1.880235166260506E-2   -4.412016880589593E-2    4.475443422962392E-1   -2.378531229221541E-1
 6.529572224825000E9     5.486665664239766E-1   -1.150722091847851E-1   -1.802038467462157E-2   -4.486159675149336E-2   -1.897806716103030E-2   -4.437465444352300E-2    4.467462655634692E-1   -2.389978603203194E-1
 6.529582865550000E9     5.483576430464353E-1   -1.161721344523840E-1   -1.822275141082624E-2   -4.505524411415546E-2   -1.929324789688382E-2   -4.457413706360892E-2    4.459353123417754E-1   -2.401061707363062E-1
 6.529593506275000E9     5.481508995405280E-1   -1.169500662696019E-1   -1.843425615925061E-2   -4.527383623328781E-2   -1.958348694787520E-2   -4.492068927196140E-2    4.453497280807640E-1   -2.413276875783263E-1
 6.529604147000000E9     5.479784675325130E-1   -1.179459263252978E-1   -1.887093030450271E-2   -4.561841205466236E-2   -1.991736512390653E-2   -4.518451946856566E-2    4.445589395258228E-1   -2.423622919662947E-1
 6.529614787725000E9     5.476396259341544E-1   -1.190140929865478E-1   -1.912154989103112E-2   -4.591487089747612E-2   -2.026437670936289E-2   -4.557751524212453E-2    4.437875510242595E-1   -2.437452349293074E-1
 6.529625428450000E9     5.474013050218952E-1   -1.198182031325979E-1   -1.937351882338285E-2   -4.649426584941072E-2   -2.044917249028708E-2   -4.588551999663583E-2    4.429971431707614E-1   -2.446563544101068E-1
 6.529636069175000E9     5.471382311280065E-1   -1.209063991423359E-1   -1.962649601067805E-2   -4.656860749869474E-2   -2.078217530065738E-2   -4.617395209975784E-2    4.421162162651389E-1   -2.459562903799424E-1
 6.529646709900000E9     5.469143668341606E-1   -1.218837092248653E-1   -1.988742860913747E-2   -4.698119105054266E-2   -2.105806898326507E-2   -4.657771737445849E-2    4.415085508001208E-1   -2.471814536832310E-1
 6.529657350625000E9     5.465210173232806E-1   -1.228398028638271E-1   -2.029303713187362E-2   -4.735744108512614E-2   -2.129195423970208E-2   -4.675365252789263E-2    4.406000533030849E-1   -2.481626038324531E-1
 6.529667991350000E9     5.463171538800112E-1   -1.238915231191256E-1   -2.044770729876972E-2   -4.771264603958097E-2   -2.173510002584506E-2   -4.711184338060657E-2    4.396818794089200E-1   -2.495233102257173E-1
 6.529678632075000E9     5.460174425244293E-1   -1.248257499016513E-1   -2.098991629507263E-2   -4.797648047570635E-2   -2.198657569052763E-2   -4.751515247374307E-2    4.390323272633391E-1   -2.506800941480579E-1
 6.529689272800000E9     5.457647212829436E-1   -1.257310968386502E-1   -2.100690455587976E-2   -4.834600382493517E-2   -2.225749555511377E-2   -4.787066956753658E-2    4.380438030848676E-1   -2.517991164314235E-1
 6.529699913525000E9     5.453782025814881E-1   -1.268361164519852E-1   -2.146565110407608E-2   -4.862901980211985E-2   -2.275938855811293E-2   -4.812220752713423E-2    4.371030415226576E-1   -2.530260021788953E-1
 6.529710554250000E9     5.450733684186641E-1   -1.276976645684591E-1   -2.182164019180497E-2   -4.897062374317505E-2   -2.295380390821487E-2   -4.860985439827998E-2    4.364131155171707E-1   -2.542811016815806E-1
