#  HZ   S   RI   R     50.00 
! Rohde & Schwarz Vector Network Analyzer 
! Rohde-Schwarz,ZNB20-2Port,1311601062101988,3.16
! Created: UTC 3/21/2024, 1:02:15 AM
! freq[Hz]                re:S11                  im:S11                  re:S21                  im:S21                  re:S12                  im:S12                  re:S22                  im:S22
 6.528749494000000E9     5.602608256050809E-1   -4.636654536933104E-2   -6.694803452193381E-3   -2.936602488729732E-2   -7.185493991659077E-3   -2.909869413643811E-2    4.839100164963867E-1   -1.626386181394816E-1
 6.528760160325000E9     5.600578509714477E-1   -4.721260313937700E-2   -6.682787210096843E-3   -2.951869166505406E-2   -7.258094738844016E-3   -2.944148660939506E-2    4.838367220119563E-1   -1.634793821830854E-1
 6.528770826650000E9     5.599274187922305E-1   -4.809409993954656E-2   -6.804306721514801E-3   -2.945006480195353E-2   -7.328640682408033E-3   -2.945055281164970E-2    4.833492546758327E-1   -1.643235143475492E-1
 6.528781492975000E9     5.599450607963331E-1   -4.896188102676695E-2   -6.957793720033373E-3   -2.965082280558719E-2   -7.398885884926686E-3   -2.967574804923725E-2    4.832063374220238E-1   -1.651770970995010E-1
 6.528792159300000E9     5.597153110568345E-1   -4.965780615781203E-2   -6.922620935617772E-3   -2.990195331833071E-2   -7.552990520822672E-3   -2.973438795377846E-2    4.826042730083294E-1   -1.661195496325914E-1
 6.528802825625000E9     5.597697138350578E-1   -5.055460515419085E-2   -6.970314323920624E-3   -3.000304242934460E-2   -7.587335229228902E-3   -2.987839809248044E-2    4.824717992418439E-1   -1.670329697600269E-1
 6.528813491950000E9     5.595896015944060E-1   -5.148428972145367E-2   -7.150697585446781E-3   -3.004532285301986E-2   -7.695812592935988E-3   -3.006369823260057E-2    4.821418906279925E-1   -1.679136769131671E-1
 6.528824158275000E9     5.596639752215667E-1   -5.236339512521322E-2   -7.124586006060920E-3   -3.023067585351704E-2   -7.871785597833532E-3   -3.016766145891753E-2    4.817612760732114E-1   -1.688352097048413E-1
 6.528834824600000E9     5.594502897760121E-1   -5.312060375152321E-2   -7.371795743469987E-3   -3.038554612284941E-2   -7.956562636428001E-3   -3.031229486534459E-2    4.813516467517618E-1   -1.698316093592458E-1
 6.528845490925000E9     5.593937218061246E-1   -5.392962354383569E-2   -7.314621264622910E-3   -3.051770222292204E-2   -8.002262073654186E-3   -3.044094310419604E-2    4.811241023902051E-1   -1.706023206025742E-1
 6.528856157250000E9     5.593914998776934E-1   -5.478565178577258E-2   -7.397857848116474E-3   -3.064507555202910E-2   -8.086715101241855E-3   -3.048701048556065E-2    4.806255060415356E-1   -1.714126006187465E-1
 6.528866823575000E9     5.592023308748372E-1   -5.568697422900716E-2   -7.648838923106987E-3   -3.083540574083500E-2   -8.217131501761187E-3   -3.078337466494250E-2    4.802311126736342E-1   -1.724864179475137E-1
 6.528877489900000E9     5.591985699536368E-1   -5.660496611597578E-2   -7.528723901259297E-3   -3.092251394732167E-2   -8.257053541917537E-3   -3.081109456171935E-2    4.800132463295902E-1   -1.732654794796943E-1
 6.528888156225000E9     5.589998775403552E-1   -5.741547566381789E-2   -7.868004339837515E-3   -3.106227156318722E-2   -8.340876936391656E-3   -3.094759879072865E-2    4.795828401941415E-1   -1.742534683861031E-1
 6.528898822550000E9     5.589913258184556E-1   -5.832419073480789E-2   -7.863522689268545E-3   -3.122556668926745E-2   -8.421528017120006E-3   -3.112687949705118E-2    4.792746797407254E-1   -1.752098053059555E-1
 6.528909488875000E9     5.588847865970061E-1   -5.902646638977748E-2   -7.891873990960257E-3   -3.149070267468895E-2   -8.606665651438075E-3   -3.118139419726894E-2    4.788676768597168E-1   -1.759147894121183E-1
 6.528920155200000E9     5.586935325332446E-1   -6.002264980040467E-2   -8.007462193368176E-3   -3.143572197360205E-2   -8.715192044484798E-3   -3.138666797498133E-2    4.785738658407391E-1   -1.768669785835268E-1
 6.528930821525000E9     5.586730923351958E-1   -6.091043230100161E-2   -8.163202927005866E-3   -3.184966836889741E-2   -8.714537175270628E-3   -3.159222781970855E-2    4.780557254404106E-1   -1.777767951626046E-1
 6.528941487850000E9     5.584482050960863E-1   -6.173543116497227E-2   -8.078157956763565E-3   -3.169267697957742E-2   -8.884341445155678E-3   -3.172048564932075E-2    4.776811881732730E-1   -1.787425156402432E-1
 6.528952154175000E9     5.583769071330619E-1   -6.257084393166013E-2   -8.394028488496481E-3   -3.201183260365243E-2   -9.020423057505120E-3   -3.180034420436358E-2    4.773185302669584E-1   -1.796627869497660E-1
 6.528962820500000E9     5.583317097863528E-1   -6.351636587789218E-2   -8.469640514693292E-3   -3.213472947798635E-2   -9.069571500175979E-3   -3.198152307592724E-2    4.769243936297598E-1   -1.805589730834637E-1
 6.528973486825000E9     5.582115574418817E-1   -6.441487312618975E-2   -8.513586910876643E-3   -3.236857614741828E-2   -9.307257555875048E-3   -3.214685886889090E-2    4.766484669874051E-1   -1.816594753707083E-1
 6.528984153150000E9     5.580970734995367E-1   -6.507387304346283E-2   -8.751042219875174E-3   -3.245298634465318E-2   -9.416755336158798E-3   -3.238568120915802E-2    4.763551445168593E-1   -1.824225792532021E-1
 6.528994819475000E9     5.579256215499855E-1   -6.608087823643330E-2   -8.693483847279738E-3   -3.256066474989829E-2   -9.501807124689900E-3   -3.248883847237193E-2    4.757330871474855E-1   -1.832988264752611E-1
 6.529005485800000E9     5.579201324266541E-1   -6.698918412022556E-2   -9.001892829880365E-3   -3.292602252302632E-2   -9.628768515723161E-3   -3.274727468660233E-2    4.752560886514955E-1   -1.843060653516826E-1
 6.529016152125000E9     5.577976929827049E-1   -6.784978638221145E-2   -9.059779472750220E-3   -3.293550790541255E-2   -9.669169356769732E-3   -3.282132537731471E-2    4.750983338062396E-1   -1.852859576862159E-1
 6.529026818450000E9     5.576012675363298E-1   -6.856433396715501E-2   -9.155130895153123E-3   -3.314776347571324E-2   -9.796814103450123E-3   -3.294934555705713E-2    4.745733286721095E-1   -1.862418595397595E-1
 6.529037484775000E9     5.575703522047432E-1   -6.948047687248712E-2   -9.233762516783796E-3   -3.323847264507337E-2   -9.980323633993288E-3   -3.316441737417647E-2    4.742074585306909E-1   -1.870226726280810E-1
 6.529048151100000E9     5.573869569815622E-1   -7.046725735020012E-2   -9.327253778997598E-3   -3.358460310232612E-2   -1.018748502689846E-2   -3.332325910833917E-2    4.737997827523017E-1   -1.879953277437235E-1
 6.529058817425000E9     5.572523692173750E-1   -7.130070906226027E-2   -9.540372668123165E-3   -3.358955848958408E-2   -1.024157996133930E-2   -3.341653316459472E-2    4.733179947236425E-1   -1.890650622008914E-1
 6.529069483750000E9     5.572409002925980E-1   -7.225142661317815E-2   -9.598600646720058E-3   -3.376868502937903E-2   -1.031639004490380E-2   -3.371851951030980E-2    4.728473463838222E-1   -1.898885921541522E-1
 6.529080150075000E9     5.570461166703666E-1   -7.309823498878409E-2   -9.802619841869172E-3   -3.404810136389320E-2   -1.049501765232079E-2   -3.396176331563953E-2    4.724470757060551E-1   -1.909162133890146E-1
 6.529090816400000E9     5.569431933099358E-1   -7.388680226215291E-2   -9.815299934617426E-3   -3.422327582132331E-2   -1.071777244462196E-2   -3.392163754707739E-2    4.721175921961228E-1   -1.917572677699055E-1
 6.529101482725000E9     5.568483958410467E-1   -7.483018268543709E-2   -1.003232054968454E-2   -3.434400459298267E-2   -1.069863878063368E-2   -3.425169792927495E-2    4.718126602805581E-1   -1.925959017036906E-1
 6.529112149050000E9     5.566556785526698E-1   -7.569343896837237E-2   -1.016236525520588E-2   -3.456353487292928E-2   -1.094756729202240E-2   -3.436723801971187E-2    4.712090246609210E-1   -1.936070022218526E-1
 6.529122815375000E9     5.564280033036265E-1   -7.657951687030541E-2   -1.023983377343439E-2   -3.475256101263856E-2   -1.105118596803791E-2   -3.452541934316958E-2    4.708598472320622E-1   -1.945395654283745E-1
 6.529133481700000E9     5.563275641036891E-1   -7.732872070989945E-2   -1.039900266894342E-2   -3.480437429406317E-2   -1.117538363149458E-2   -3.473504358102836E-2    4.704037809187347E-1   -1.956664331164312E-1
 6.529144148025000E9     5.562226837028941E-1   -7.823876956833675E-2   -1.060612822852669E-2   -3.509810476985382E-2   -1.130914735076308E-2   -3.485869020213592E-2    4.698970486101108E-1   -1.966152761155839E-1
 6.529154814350000E9     5.561552579842741E-1   -7.912623951178402E-2   -1.063713035178774E-2   -3.534680092581734E-2   -1.139280427063157E-2   -3.505226921782656E-2    4.695437145228836E-1   -1.974544206508509E-1
 6.529165480675000E9     5.559018515815533E-1   -8.011734991658308E-2   -1.077247599915961E-2   -3.554838161541739E-2   -1.161463899956158E-2   -3.528633289524796E-2    4.688469287458400E-1   -1.985696626962469E-1
 6.529176147000000E9     5.557520543080904E-1   -8.105111614991194E-2   -1.085580862830881E-2   -3.584675917775561E-2   -1.171531227780672E-2   -3.546942413494633E-2    4.687428108025141E-1   -1.994407093194280E-1
 6.529186813325000E9     5.556637926143357E-1   -8.185071041580545E-2   -1.096960311499921E-2   -3.586391139190527E-2   -1.188765414647967E-2   -3.562668701411648E-2    4.679683807465123E-1   -2.003852283832365E-1
 6.529197479650000E9     5.555290622649088E-1   -8.281872504320933E-2   -1.112207078422377E-2   -3.599434453108769E-2   -1.193047933348539E-2   -3.583834237980250E-2    4.676756474994859E-1   -2.013467512810623E-1
 6.529208145975000E9     5.554858285490415E-1   -8.364683466475022E-2   -1.128673998148952E-2   -3.621616052260955E-2   -1.216976592815369E-2   -3.606005046688888E-2    4.671680270061588E-1   -2.023812571955790E-1
 6.529218812300000E9     5.551220402430544E-1   -8.454194299068929E-2   -1.140492554904027E-2   -3.649590366894138E-2   -1.222357321114827E-2   -3.624881408796179E-2    4.664868488004257E-1   -2.034090408682845E-1
 6.529229478625000E9     5.550864989396052E-1   -8.550859838410874E-2   -1.152644426161336E-2   -3.664871124637710E-2   -1.249125184037907E-2   -3.648553537402870E-2    4.660876617057630E-1   -2.042626118352507E-1
 6.529240144950000E9     5.549023288429127E-1   -8.632081332421566E-2   -1.167713335263146E-2   -3.684078612746580E-2   -1.257865080957070E-2   -3.661546511567081E-2    4.656671756882358E-1   -2.051622552793654E-1
 6.529250811275000E9     5.547414760562182E-1   -8.715703198803912E-2   -1.181426038135409E-2   -3.716507386043907E-2   -1.271448099251355E-2   -3.685534801477404E-2    4.651757088468988E-1   -2.063734937540596E-1
 6.529261477600000E9     5.546704351214184E-1   -8.819262642848705E-2   -1.212791121950044E-2   -3.731419793089606E-2   -1.287670376590992E-2   -3.697512288250068E-2    4.646449897000554E-1   -2.074897397924375E-1
 6.529272143925000E9     5.543943000942438E-1   -8.898519053727834E-2   -1.230018356392634E-2   -3.767515398482069E-2   -1.321812240332079E-2   -3.731317973071294E-2    4.641321531636592E-1   -2.083467090183266E-1
 6.529282810250000E9     5.542023790389664E-1   -8.998792221096838E-2   -1.245739714703210E-2   -3.767111958219232E-2   -1.326730009953962E-2   -3.753459998804131E-2    4.634747513457013E-1   -2.093759212344610E-1
 6.529293476575000E9     5.540710559676062E-1   -9.077651258407420E-2   -1.254032590116336E-2   -3.788419407516775E-2   -1.336553889990576E-2   -3.766005296938143E-2    4.630811119723636E-1   -2.103289623241241E-1
 6.529304142900000E9     5.539603383728384E-1   -9.165718670304297E-2   -1.261878722736589E-2   -3.811709875226419E-2   -1.361028690583372E-2   -3.799600582538726E-2    4.625664665235160E-1   -2.114915692702442E-1
 6.529314809225000E9     5.538218819828638E-1   -9.259777360664437E-2   -1.295469309529572E-2   -3.819643116504231E-2   -1.377027913445973E-2   -3.817026311052119E-2    4.620277795470587E-1   -2.124638678153935E-1
 6.529325475550000E9     5.535634798283339E-1   -9.354777213190092E-2   -1.300117736077386E-2   -3.867379996026180E-2   -1.396788306568679E-2   -3.829527746404580E-2    4.614921520795393E-1   -2.133689209481966E-1
 6.529336141875000E9     5.534184048368017E-1   -9.448936984853479E-2   -1.324928958999500E-2   -3.878102965385920E-2   -1.415963990481676E-2   -3.853045302967398E-2    4.610842367036367E-1   -2.145033301580545E-1
 6.529346808200000E9     5.530966901463378E-1   -9.537330246370486E-2   -1.338336700098307E-2   -3.906255533761905E-2   -1.426923869806442E-2   -3.878300324463779E-2    4.602094120399692E-1   -2.154051022468821E-1
 6.529357474525000E9     5.530064622194869E-1   -9.632019310590749E-2   -1.357034399782027E-2   -3.926873023036542E-2   -1.445354628175726E-2   -3.892502877373832E-2    4.597760207115982E-1   -2.164256173054900E-1
 6.529368140850000E9     5.528674646472613E-1   -9.712028962708007E-2   -1.388667625325858E-2   -3.949857310567133E-2   -1.470127059738920E-2   -3.924078289986063E-2    4.593247536462886E-1   -2.174749867018831E-1
 6.529378807175000E9     5.526278095333379E-1   -9.806180379311544E-2   -1.389628956434670E-2   -3.980947844794895E-2   -1.494152947558259E-2   -3.947635290885779E-2    4.586655398097890E-1   -2.186698243716143E-1
 6.529389473500000E9     5.525119440962442E-1   -9.902177772612158E-2   -1.421766570858640E-2   -3.994365695109649E-2   -1.513317740405633E-2   -3.970516444187702E-2    4.579868655021516E-1   -2.196644789412459E-1
 6.529400139825000E9     5.523081675891073E-1   -1.000520518676066E-1   -1.440206372435003E-2   -4.029913031259726E-2   -1.525344760573631E-2   -4.000855602465185E-2    4.574452905767897E-1   -2.207842371082219E-1
 6.529410806150000E9     5.521242247773626E-1   -1.008212277394457E-1   -1.458771274101474E-2   -4.050494130246197E-2   -1.550411401160760E-2   -4.022019380575708E-2    4.569063707308460E-1   -2.216159389844719E-1
 6.529421472475000E9     5.519839374191727E-1   -1.017857467730898E-1   -1.477306450348742E-2   -4.081999783984722E-2   -1.566974598083960E-2   -4.031194891500005E-2    4.562714053631452E-1   -2.227795447835170E-1
 6.529432138800000E9     5.515053168170208E-1   -1.027745175266170E-1   -1.495842851574113E-2   -4.101469034754291E-2   -1.587808075736008E-2   -4.078243877919347E-2    4.556393613738008E-1   -2.238309955090226E-1
 6.529442805125000E9     5.514886640909251E-1   -1.036185024426022E-1   -1.519118651375011E-2   -4.128440397061914E-2   -1.611258413299455E-2   -4.092702132052369E-2    4.551719914033694E-1   -2.249390119777166E-1
 6.529453471450000E9     5.513770126431674E-1   -1.045334153829544E-1   -1.533330046556556E-2   -4.156807347540913E-2   -1.634081151282376E-2   -4.123535360447786E-2    4.544539501186122E-1   -2.258429988605245E-1
 6.529464137775000E9     5.509920897128909E-1   -1.055429594208879E-1   -1.561660346076582E-2   -4.174914046842074E-2   -1.658950926583127E-2   -4.144454144285390E-2    4.538450410230950E-1   -2.271210743849671E-1
 6.529474804100000E9     5.508451479811713E-1   -1.064129894676693E-1   -1.574238790360981E-2   -4.208984661856201E-2   -1.682021512406022E-2   -4.167316407331286E-2    4.531681616297593E-1   -2.281728551807794E-1
 6.529485470425000E9     5.505841645787944E-1   -1.073649168933569E-1   -1.602862975838831E-2   -4.237864561635399E-2   -1.703455963896179E-2   -4.200660168747750E-2    4.526117730331062E-1   -2.292124207219667E-1
 6.529496136750000E9     5.504071283891923E-1   -1.081661745715247E-1   -1.626804828291026E-2   -4.263998120015056E-2   -1.726637932482871E-2   -4.223804861560232E-2    4.519581953411910E-1   -2.301876638770232E-1
 6.529506803075000E9     5.500279766811510E-1   -1.092209600051820E-1   -1.644971389435232E-2   -4.273793830206292E-2   -1.749981612851534E-2   -4.256234845647097E-2    4.511405332113990E-1   -2.312426467929189E-1
 6.529517469400000E9     5.498692676557188E-1   -1.101298395907361E-1   -1.664980754745895E-2   -4.319485739345000E-2   -1.772592064523724E-2   -4.282503999328417E-2    4.505491893667340E-1   -2.323928314507920E-1
 6.529528135725000E9     5.498185849341679E-1   -1.111222683476486E-1   -1.691935046293353E-2   -4.339953478774187E-2   -1.785586418491356E-2   -4.307145711566384E-2    4.497836957720795E-1   -2.334883983260476E-1
 6.529538802050000E9     5.494843106721895E-1   -1.120639762596516E-1   -1.714628254922750E-2   -4.369305909451802E-2   -1.819597043714342E-2   -4.335071618828531E-2    4.491886232985269E-1   -2.346916370895099E-1
 6.529549468375000E9     5.491790091345612E-1   -1.130300597266600E-1   -1.738773581950134E-2   -4.406430181746623E-2   -1.849128982328417E-2   -4.375106564964308E-2    4.484672202752461E-1   -2.357922832452313E-1
 6.529560134700000E9     5.490527382627418E-1   -1.139652805436688E-1   -1.771542842239499E-2   -4.435473186210739E-2   -1.867411529016606E-2   -4.401447961381755E-2    4.477179033533520E-1   -2.368354986714317E-1
 6.529570801025000E9     5.487584513246867E-1   -1.149475335197971E-1   -1.803331770738715E-2   -4.464762934101208E-2   -1.902229179107464E-2   -4.423874210040646E-2    4.468877820456085E-1   -2.379611030727440E-1
 6.529581467350000E9     5.485022534371502E-1   -1.157001541519367E-1   -1.825224887753571E-2   -4.507521031541283E-2   -1.919486691087537E-2   -4.453532084321941E-2    4.462307037070102E-1   -2.391720659015544E-1
 6.529592133675000E9     5.482205491498359E-1   -1.169358367664302E-1   -1.849400153893328E-2   -4.523047941822584E-2   -1.953167025626835E-2   -4.491005895885848E-2    4.456624861295495E-1   -2.402835787376357E-1
 6.529602800000000E9     5.479137477434789E-1   -1.178858528692814E-1   -1.870005619944288E-2   -4.561343645864543E-2   -1.986909283205551E-2   -4.517791463260146E-2    4.447712847510960E-1   -2.413272729804710E-1
 6.529613466325000E9     5.476481291643370E-1   -1.188030406375357E-1   -1.900723483505429E-2   -4.585537721772751E-2   -2.005275053290602E-2   -4.552203448319838E-2    4.439186295980694E-1   -2.425959518099439E-1
 6.529624132650000E9     5.473413141123018E-1   -1.198208940852550E-1   -1.917787630418114E-2   -4.615239093492250E-2   -2.037861186325863E-2   -4.578268486555678E-2    4.432777011260746E-1   -2.438053953931481E-1
 6.529634798975000E9     5.472587081512009E-1   -1.207071963457055E-1   -1.959814336316881E-2   -4.651613567495382E-2   -2.067202522697238E-2   -4.614263009705006E-2    4.424944358792440E-1   -2.449350414149760E-1
 6.529645465300000E9     5.469333738811736E-1   -1.217558201664084E-1   -1.990523296541905E-2   -4.679027515414449E-2   -2.092899926875839E-2   -4.644002929897481E-2    4.416988041163893E-1   -2.461654329470722E-1
 6.529656131625000E9     5.465369764681216E-1   -1.224917427778238E-1   -2.009189371151023E-2   -4.709821931916489E-2   -2.133084926844744E-2   -4.673573482522263E-2    4.406941651091378E-1   -2.473781218760777E-1
 6.529666797950000E9     5.463872299528146E-1   -1.236649881646578E-1   -2.054380622154880E-2   -4.746578388876240E-2   -2.168950324092953E-2   -4.703712508476410E-2    4.400280866776598E-1   -2.485278221053137E-1
 6.529677464275000E9     5.460052133369070E-1   -1.245810312902543E-1   -2.069817188686582E-2   -4.791201899561232E-2   -2.192976931440029E-2   -4.737637620040157E-2    4.390659450558390E-1   -2.497301853844447E-1
 6.529688130600000E9     5.456657312916724E-1   -1.255974725736898E-1   -2.098766867749335E-2   -4.831099175621895E-2   -2.222729913391193E-2   -4.779562896522459E-2    4.383612542966012E-1   -2.509161674363906E-1
 6.529698796925000E9     5.453762517798328E-1   -1.266893276553234E-1   -2.133029456537965E-2   -4.850187132720706E-2   -2.260379658417244E-2   -4.810066010083335E-2    4.373796824145048E-1   -2.519555693922356E-1
 6.529709463250000E9     5.451433178177448E-1   -1.274768037913165E-1   -2.162308707353660E-2   -4.888776374342090E-2   -2.279908044608513E-2   -4.845645266012270E-2    4.365064356060000E-1   -2.532592698749866E-1
