#  HZ   S   RI   R     50.00 
! Rohde & Schwarz Vector Network Analyzer 
! Rohde-Schwarz,ZNB20-2Port,1311601062101988,3.16
! Created: UTC 3/21/2024, 1:02:17 AM
! freq[Hz]                re:S11                  im:S11                  re:S21                  im:S21                  re:S12                  im:S12                  re:S22                  im:S22
 6.528748330000000E9     5.602365917108412E-1   -4.618460919130227E-2   -6.597583386218969E-3   -2.932890684369978E-2   -7.016560397161105E-3   -2.924467224191372E-2    4.840672564969354E-1   -1.624518889363817E-1
 6.528759004675000E9     5.600600465364469E-1   -4.710810767242413E-2   -6.497151363848499E-3   -2.941001673512287E-2   -7.194433831808493E-3   -2.933219252402117E-2    4.837591644072494E-1   -1.632941882697843E-1
 6.528769679350000E9     5.600742408285051E-1   -4.785039986962707E-2   -6.741170010853317E-3   -2.952903729359411E-2   -7.356562767205876E-3   -2.951345560293671E-2    4.835409946305851E-1   -1.643131646411220E-1
 6.528780354025000E9     5.600729065126665E-1   -4.861050888994142E-2   -6.871425196818394E-3   -2.970237096919389E-2   -7.330792625443930E-3   -2.964235483931513E-2    4.832870002196776E-1   -1.649820125318636E-1
 6.528791028700000E9     5.598037322861800E-1   -4.954509498321449E-2   -6.804267011791633E-3   -2.987530289824914E-2   -7.475824735153764E-3   -2.975349061060913E-2    4.829685082312984E-1   -1.658980919219527E-1
 6.528801703375000E9     5.597357787655717E-1   -5.052656896571409E-2   -7.040018329174514E-3   -3.002648741176510E-2   -7.556000232699191E-3   -2.986435076170169E-2    4.824905953226214E-1   -1.666466303325385E-1
 6.528812378050000E9     5.597104838875483E-1   -5.127559826929098E-2   -7.201042161771789E-3   -3.019680523951052E-2   -7.674938024645561E-3   -2.999294897533112E-2    4.821991898761548E-1   -1.676994841337676E-1
 6.528823052725000E9     5.594775934316865E-1   -5.223836434045066E-2   -7.176985942664657E-3   -3.019163133746746E-2   -7.824570527944339E-3   -3.020666686409956E-2    4.816739369921272E-1   -1.686062764367249E-1
 6.528833727400000E9     5.594794365294153E-1   -5.305855606589539E-2   -7.188339948294065E-3   -3.032104788596244E-2   -7.880312515938881E-3   -3.033655364453289E-2    4.815824863960133E-1   -1.694658277505128E-1
 6.528844402075000E9     5.595149412585013E-1   -5.385556601238664E-2   -7.348252915269851E-3   -3.055008154321219E-2   -8.062767216327604E-3   -3.031282674229682E-2    4.809566729104582E-1   -1.702690518644995E-1
 6.528855076750000E9     5.592904299005629E-1   -5.467176167421581E-2   -7.383309587225825E-3   -3.061337762985406E-2   -8.064619760253047E-3   -3.051884904965668E-2    4.808492180563755E-1   -1.714791432149429E-1
 6.528865751425000E9     5.592718484654412E-1   -5.571576040816992E-2   -7.562044120083954E-3   -3.074952113068585E-2   -8.107851695324736E-3   -3.069170863552594E-2    4.804661591429312E-1   -1.720583665961959E-1
 6.528876426100000E9     5.592508498985181E-1   -5.641439554533220E-2   -7.568341013415868E-3   -3.103188108140575E-2   -8.333280082620511E-3   -3.076851442820611E-2    4.800452958832838E-1   -1.731364301522376E-1
 6.528887100775000E9     5.590348004784280E-1   -5.736919298672377E-2   -7.716195181075231E-3   -3.120822037427881E-2   -8.377690595599464E-3   -3.099901409978606E-2    4.797360647537652E-1   -1.739492276568032E-1
 6.528897775450000E9     5.588447533422157E-1   -5.826946710277335E-2   -7.968364071959619E-3   -3.127997882793097E-2   -8.434696590087538E-3   -3.109216824128284E-2    4.793985035727601E-1   -1.749400552239905E-1
 6.528908450125000E9     5.588139495108829E-1   -5.919943603107448E-2   -7.897261317275917E-3   -3.142853157584535E-2   -8.545310996703753E-3   -3.123378793509978E-2    4.790129706941562E-1   -1.758340998597577E-1
 6.528919124800000E9     5.587144045365182E-1   -5.996404717464946E-2   -7.953182889550927E-3   -3.145782143249690E-2   -8.678486568353523E-3   -3.139869901397306E-2    4.787510823571602E-1   -1.766827027670234E-1
 6.528929799475000E9     5.586971211584931E-1   -6.070193539673530E-2   -7.947633773997254E-3   -3.177617022087770E-2   -8.805365950944263E-3   -3.162669409924691E-2    4.782197953349117E-1   -1.777484221771026E-1
 6.528940474150000E9     5.586029068695433E-1   -6.166022902918078E-2   -8.112190382873214E-3   -3.189540421449238E-2   -8.885539707332316E-3   -3.176273958562136E-2    4.777509890907919E-1   -1.785986123277775E-1
 6.528951148825000E9     5.584889613401044E-1   -6.255323385562699E-2   -8.425248296683157E-3   -3.197982400344558E-2   -9.035457687892930E-3   -3.180389871963199E-2    4.774414277549460E-1   -1.794166487540154E-1
 6.528961823500000E9     5.583387894060751E-1   -6.341785035966681E-2   -8.317874789659145E-3   -3.225473980946499E-2   -9.109771566150773E-3   -3.198850788086765E-2    4.771943754704169E-1   -1.804598790246235E-1
 6.528972498175000E9     5.582073193575677E-1   -6.419052087101913E-2   -8.591215425500599E-3   -3.237625540476431E-2   -9.218781283778245E-3   -3.218399834136929E-2    4.767853759927917E-1   -1.812428591128479E-1
 6.528983172850000E9     5.580381383445050E-1   -6.500630790195643E-2   -8.781530198821750E-3   -3.239357810247999E-2   -9.422962757015723E-3   -3.225776022035725E-2    4.763752179022332E-1   -1.821623391771924E-1
 6.528993847525000E9     5.580562820856838E-1   -6.584796953245819E-2   -8.739627818888691E-3   -3.264041924962147E-2   -9.488651829796180E-3   -3.250799889635260E-2    4.760255211586824E-1   -1.830775120895778E-1
 6.529004522200000E9     5.579277120691734E-1   -6.691257581528139E-2   -8.872221866246630E-3   -3.266908952810062E-2   -9.532619250855492E-3   -3.267505047892333E-2    4.755927534434217E-1   -1.840845193674528E-1
 6.529015196875000E9     5.578364722788225E-1   -6.761168059994020E-2   -8.877419991062558E-3   -3.296126179457398E-2   -9.656967289777798E-3   -3.281253811569673E-2    4.751086702769856E-1   -1.850345634134329E-1
 6.529025871550000E9     5.576792414327864E-1   -6.858731085288070E-2   -9.113075473538504E-3   -3.304249838492471E-2   -9.844444789903813E-3   -3.289273234264799E-2    4.747491118669441E-1   -1.858942243786404E-1
 6.529036546225000E9     5.575546212143699E-1   -6.933518206650735E-2   -9.179649704461472E-3   -3.336211223512715E-2   -1.003522161932295E-2   -3.316462821378316E-2    4.742733409577873E-1   -1.868788531414741E-1
 6.529047220900000E9     5.574004628490077E-1   -7.027256401674208E-2   -9.428358576795645E-3   -3.346458847252094E-2   -1.002791621069851E-2   -3.325201941838597E-2    4.739125490761671E-1   -1.878726315171649E-1
 6.529057895575000E9     5.573341237015492E-1   -7.122615713526832E-2   -9.492950314289589E-3   -3.357352959932242E-2   -1.019253615784785E-2   -3.350863913392549E-2    4.736275279147069E-1   -1.887640894140417E-1
 6.529068570250000E9     5.572494735025046E-1   -7.203918937229119E-2   -9.711593589185321E-3   -3.372863390932769E-2   -1.038012257850094E-2   -3.358326137624330E-2    4.730777620718746E-1   -1.896738001727838E-1
 6.529079244925000E9     5.569958956752676E-1   -7.293779871351584E-2   -9.695779529108663E-3   -3.401897891147485E-2   -1.041627592963502E-2   -3.373395207838271E-2    4.726705095583557E-1   -1.906870187584094E-1
 6.529089919600000E9     5.569746937402723E-1   -7.381065621224885E-2   -1.007804588897535E-2   -3.424330267360148E-2   -1.052400737146369E-2   -3.401198137195902E-2    4.722375360477675E-1   -1.915744087792553E-1
 6.529100594275000E9     5.567750341584891E-1   -7.473128226683867E-2   -9.929660746836683E-3   -3.433360508090320E-2   -1.076513709601993E-2   -3.428319544300086E-2    4.717641065355276E-1   -1.925018091446016E-1
 6.529111268950000E9     5.566557563863241E-1   -7.563748309844541E-2   -1.013378299366848E-2   -3.458233029174707E-2   -1.080015908995649E-2   -3.431234497653526E-2    4.714070702233837E-1   -1.935121359877710E-1
 6.529121943625000E9     5.564869562699321E-1   -7.648695671088483E-2   -1.004563803715080E-2   -3.460214067944881E-2   -1.097770900500290E-2   -3.458381908024936E-2    4.708884500364716E-1   -1.943616959079594E-1
 6.529132618300000E9     5.562695408925437E-1   -7.733223605921420E-2   -1.021858630373528E-2   -3.484785057329366E-2   -1.115939743987396E-2   -3.474929932262136E-2    4.705131890493198E-1   -1.953936972230904E-1
 6.529143292975000E9     5.563185390197404E-1   -7.815364671415535E-2   -1.049110198757646E-2   -3.500860785298913E-2   -1.125853821366090E-2   -3.499332066469998E-2    4.699964939805681E-1   -1.962608481778971E-1
 6.529153967650000E9     5.560821210006335E-1   -7.916196135161373E-2   -1.069067479360494E-2   -3.521121130636867E-2   -1.142605025962541E-2   -3.515626430984697E-2    4.693987751838058E-1   -1.973926936915754E-1
 6.529164642325000E9     5.559856648895024E-1   -8.005066018116211E-2   -1.076096237559023E-2   -3.533112388906803E-2   -1.153503394235782E-2   -3.513245565453765E-2    4.690531921024757E-1   -1.981067877678976E-1
 6.529175317000000E9     5.558075900925503E-1   -8.082876417851000E-2   -1.087197504772228E-2   -3.568267830952031E-2   -1.159587375036112E-2   -3.542188044948674E-2    4.685689116350815E-1   -1.990355809546304E-1
 6.529185991675000E9     5.557504943770971E-1   -8.179397161302580E-2   -1.118074515872533E-2   -3.589284892214897E-2   -1.189834862279822E-2   -3.557186676314382E-2    4.682021004906252E-1   -2.002925349402746E-1
 6.529196666350000E9     5.555571353964195E-1   -8.269605244130773E-2   -1.126350797173874E-2   -3.594770152485632E-2   -1.200900963885023E-2   -3.585044327557671E-2    4.677503484037163E-1   -2.012767779257391E-1
 6.529207341025000E9     5.553526666331438E-1   -8.357514568368329E-2   -1.127400221940291E-2   -3.612191428949129E-2   -1.221987699948453E-2   -3.605043217490141E-2    4.671885769384663E-1   -2.021793049473990E-1
 6.529218015700000E9     5.551660539105642E-1   -8.456706638358485E-2   -1.142699343936535E-2   -3.654010426038362E-2   -1.228232955261725E-2   -3.612148681772599E-2    4.667297474468349E-1   -2.032080291917740E-1
 6.529228690375000E9     5.552207575385122E-1   -8.528990767672689E-2   -1.161772913413445E-2   -3.674438277867073E-2   -1.235344861346114E-2   -3.638353622893910E-2    4.662390096685874E-1   -2.042931708329408E-1
 6.529239365050000E9     5.550045982141493E-1   -8.625106507991892E-2   -1.173442046462174E-2   -3.681736777655045E-2   -1.254355510358278E-2   -3.660409579269784E-2    4.657496511667302E-1   -2.051167242850333E-1
 6.529250039725000E9     5.547024954556100E-1   -8.709300999854394E-2   -1.184240344679436E-2   -3.699167358901964E-2   -1.268999199891547E-2   -3.684326305264872E-2    4.651242004343975E-1   -2.060558761558265E-1
 6.529260714400000E9     5.545773431486941E-1   -8.799828971606802E-2   -1.200294355444429E-2   -3.712719360386107E-2   -1.300442480556861E-2   -3.707440071883199E-2    4.646874870164492E-1   -2.070611902221357E-1
 6.529271389075000E9     5.544682704672684E-1   -8.900190312065542E-2   -1.221113370728689E-2   -3.750533615561711E-2   -1.307248917809597E-2   -3.724706426050534E-2    4.641647167430958E-1   -2.081806363294050E-1
 6.529282063750000E9     5.542890137600878E-1   -8.983033575335307E-2   -1.232577868710954E-2   -3.761122968899963E-2   -1.328099698535941E-2   -3.744765525852235E-2    4.636619681259964E-1   -2.091766348331914E-1
 6.529292738425000E9     5.541396476109245E-1   -9.078559699929624E-2   -1.253061278734654E-2   -3.787807434594569E-2   -1.340828778834923E-2   -3.754153115165561E-2    4.631619657521792E-1   -2.101080782803491E-1
 6.529303413100000E9     5.539991770338770E-1   -9.171418141393269E-2   -1.276913054450861E-2   -3.802846903379135E-2   -1.358581992794036E-2   -3.780357828627483E-2    4.625782502878271E-1   -2.109784152987534E-1
 6.529314087775000E9     5.536839326626160E-1   -9.253295474279465E-2   -1.286587392929153E-2   -3.830423272002446E-2   -1.377412928031246E-2   -3.814601128243326E-2    4.620649436647992E-1   -2.121146860793457E-1
 6.529324762450000E9     5.535857595952619E-1   -9.351937348265700E-2   -1.313138879091439E-2   -3.848248476662070E-2   -1.397226466743112E-2   -3.835734288487556E-2    4.615534366012419E-1   -2.131539496333547E-1
 6.529335437125000E9     5.534482707623001E-1   -9.443283292524493E-2   -1.323866537349216E-2   -3.870996709560464E-2   -1.409267220188801E-2   -3.861491781341558E-2    4.610592460715785E-1   -2.142318624515842E-1
 6.529346111800000E9     5.533351758746200E-1   -9.528314566941412E-2   -1.336721321881752E-2   -3.889757639422242E-2   -1.431928784105912E-2   -3.873147679753102E-2    4.604810426497086E-1   -2.153061454167870E-1
 6.529356786475000E9     5.530583597925384E-1   -9.621097806500108E-2   -1.363693766471723E-2   -3.918514663068587E-2   -1.447012011488177E-2   -3.906211677362547E-2    4.599227677607194E-1   -2.162951706978968E-1
 6.529367461150000E9     5.527793058268832E-1   -9.713332693698239E-2   -1.401034590654209E-2   -3.946756902576144E-2   -1.466550948626205E-2   -3.923549225303068E-2    4.593608420827032E-1   -2.173658637736025E-1
 6.529378135825000E9     5.527744065064181E-1   -9.806657581769418E-2   -1.392740673430210E-2   -3.974530129247626E-2   -1.479229606286185E-2   -3.947831355035451E-2    4.588785577435174E-1   -2.182646268145168E-1
 6.529388810500000E9     5.524485107512859E-1   -9.893112291186468E-2   -1.410396506354586E-2   -4.004864412246125E-2   -1.508712938127061E-2   -3.967690932508467E-2    4.582089503643260E-1   -2.194717838708301E-1
 6.529399485175000E9     5.523173939124747E-1   -9.990606520450460E-2   -1.435232451796667E-2   -4.014891751402369E-2   -1.521527374191734E-2   -3.995137077363031E-2    4.577293349560833E-1   -2.205540455863418E-1
 6.529410159850000E9     5.520232435892333E-1   -1.007281473145171E-1   -1.451395482282390E-2   -4.042531319566312E-2   -1.550872066136557E-2   -4.024635311778511E-2    4.570435105662937E-1   -2.214715648302492E-1
 6.529420834525000E9     5.519126683666089E-1   -1.015300514378746E-1   -1.476819434504336E-2   -4.064664700925372E-2   -1.570288617022891E-2   -4.039783955810858E-2    4.564184989142308E-1   -2.226001227846854E-1
 6.529431509200000E9     5.515663236418200E-1   -1.026186811701379E-1   -1.498667476193691E-2   -4.093515057074329E-2   -1.591269525919705E-2   -4.056958405243546E-2    4.558776703622330E-1   -2.234992401917927E-1
 6.529442183875000E9     5.513886773020128E-1   -1.036044947105464E-1   -1.514610431279996E-2   -4.129292118559807E-2   -1.612328466232253E-2   -4.090279059993707E-2    4.552404601972032E-1   -2.245410821423325E-1
 6.529452858550000E9     5.512582784066873E-1   -1.045083203793126E-1   -1.545019223939939E-2   -4.143301518948027E-2   -1.612254060822254E-2   -4.111015150999001E-2    4.544167819226162E-1   -2.256687604127357E-1
 6.529463533225000E9     5.510694437782192E-1   -1.054167945514621E-1   -1.554410305797556E-2   -4.158351970629064E-2   -1.656605134779084E-2   -4.144687699831338E-2    4.540516800862222E-1   -2.267019407882568E-1
 6.529474207900000E9     5.507760067940823E-1   -1.063700942437673E-1   -1.576379026625605E-2   -4.191292201667270E-2   -1.669543433187333E-2   -4.173382882477464E-2    4.531946758803723E-1   -2.278820473166939E-1
 6.529484882575000E9     5.506275391063290E-1   -1.071968689216598E-1   -1.607655876898958E-2   -4.234468587306908E-2   -1.691679896128494E-2   -4.197863330627108E-2    4.526477845930920E-1   -2.289687084164879E-1
 6.529495557250000E9     5.504107862228347E-1   -1.081648811857773E-1   -1.624163415990767E-2   -4.250219247891480E-2   -1.716844107250824E-2   -4.222360497902252E-2    4.520243193658857E-1   -2.300801150393577E-1
 6.529506231925000E9     5.501170157801242E-1   -1.091698828046802E-1   -1.653046015767092E-2   -4.302109951429666E-2   -1.746643102513832E-2   -4.249680319301962E-2    4.513121180611391E-1   -2.311483519704866E-1
 6.529516906600000E9     5.499393550974967E-1   -1.100566473689424E-1   -1.674222510998386E-2   -4.313225250151489E-2   -1.764386957455991E-2   -4.266475709105171E-2    4.506031619739284E-1   -2.323561416568150E-1
 6.529527581275000E9     5.498069627550771E-1   -1.109998197015267E-1   -1.697846618534593E-2   -4.334280378345981E-2   -1.790558044696317E-2   -4.296044044478076E-2    4.499527083935663E-1   -2.333778930125048E-1
 6.529538255950000E9     5.494797949293108E-1   -1.120287666415807E-1   -1.703066775645217E-2   -4.372386868720934E-2   -1.818650295689087E-2   -4.327364044487243E-2    4.492481010626324E-1   -2.346851619796599E-1
 6.529548930625000E9     5.493161915954248E-1   -1.129036509088165E-1   -1.741548985671986E-2   -4.393890953271173E-2   -1.832630655387367E-2   -4.366265449809211E-2    4.487368320574695E-1   -2.356548110631966E-1
 6.529559605300000E9     5.490054457930932E-1   -1.138979338396827E-1   -1.767594901787114E-2   -4.418867066733496E-2   -1.872810313144225E-2   -4.394152515705874E-2    4.478861696039771E-1   -2.368474162029172E-1
 6.529570279975000E9     5.487016776957530E-1   -1.148544037475108E-1   -1.796099139866639E-2   -4.455743559201008E-2   -1.892840166176581E-2   -4.422050951079441E-2    4.470983312780477E-1   -2.378252071697505E-1
 6.529580954650000E9     5.485064643911499E-1   -1.158548220304743E-1   -1.808909317041090E-2   -4.489270716286887E-2   -1.921371460899859E-2   -4.445487055067805E-2    4.466216032777073E-1   -2.391210880880605E-1
 6.529591629325000E9     5.482653672821417E-1   -1.167172690672807E-1   -1.848286012605134E-2   -4.524152476204506E-2   -1.957167638995524E-2   -4.476613228622073E-2    4.455664697175171E-1   -2.403340083871646E-1
 6.529602304000000E9     5.480638040348357E-1   -1.177752947926626E-1   -1.861248209852747E-2   -4.542052686863375E-2   -1.980093790756160E-2   -4.513716982502772E-2    4.448746241853176E-1   -2.412162654658892E-1
 6.529612978675000E9     5.476888857300461E-1   -1.186996792370790E-1   -1.889984049144813E-2   -4.597491211432207E-2   -2.014145674878545E-2   -4.540867835617350E-2    4.441535284940273E-1   -2.424739699746320E-1
 6.529623653350000E9     5.473483865024238E-1   -1.196420035140199E-1   -1.916806382673528E-2   -4.617980276711948E-2   -2.033221823779975E-2   -4.565980922185980E-2    4.432579679895421E-1   -2.436247441031708E-1
 6.529634328025000E9     5.470861665631112E-1   -1.206407209804566E-1   -1.943308660937695E-2   -4.649028064513468E-2   -2.054300033321353E-2   -4.603210549895611E-2    4.425174639235223E-1   -2.447466857911962E-1
 6.529645002700000E9     5.469027135600284E-1   -1.215610966633726E-1   -1.971486915029618E-2   -4.680000135123341E-2   -2.088404334248936E-2   -4.635558395162767E-2    4.416453627941533E-1   -2.459222751826884E-1
 6.529655677375000E9     5.466794401837169E-1   -1.225604385726728E-1   -2.012661374890485E-2   -4.713267786425158E-2   -2.119639970315155E-2   -4.670985887034559E-2    4.410690870947772E-1   -2.472161781235990E-1
 6.529666352050000E9     5.463970817059690E-1   -1.235245075577903E-1   -2.035455222426169E-2   -4.743255860609756E-2   -2.144954619941641E-2   -4.704829268156541E-2    4.401559185231538E-1   -2.481783376705126E-1
 6.529677026725000E9     5.461466784806911E-1   -1.244709327111662E-1   -2.074999819410045E-2   -4.777819852415431E-2   -2.185626642145387E-2   -4.734303321157021E-2    4.392895536078606E-1   -2.495731708196602E-1
 6.529687701400000E9     5.458597209603360E-1   -1.254200098397024E-1   -2.090879921787664E-2   -4.820321375133462E-2   -2.219627101832431E-2   -4.771078232389341E-2    4.384544887383360E-1   -2.507704007567911E-1
 6.529698376075000E9     5.455236181507033E-1   -1.265215513083516E-1   -2.137772909603877E-2   -4.849800395621652E-2   -2.258202429524933E-2   -4.806626273931964E-2    4.376190592094842E-1   -2.518740498709587E-1
 6.529709050750000E9     5.452875745271057E-1   -1.274818011833623E-1   -2.153019873827087E-2   -4.894615040606052E-2   -2.291161615369613E-2   -4.832228642227338E-2    4.366672331968467E-1   -2.531289632535190E-1
