#  HZ   S   RI   R     50.00 
! Rohde & Schwarz Vector Network Analyzer 
! Rohde-Schwarz,ZNB20-2Port,1311601062101988,3.16
! Created: UTC 3/21/2024, 12:51:23 AM
! freq[Hz]                re:S11                  im:S11                  re:S21                  im:S21                  re:S12                  im:S12                  re:S22                  im:S22
 6.528817801000000E9     5.609435934523723E-1   -5.892187136630495E-2   -8.499438890570065E-3   -3.412404006268439E-2   -9.297565661465463E-3   -3.402483666591111E-2    4.822283222181630E-1   -1.920677035046366E-1
 6.528826917150000E9     5.608363406656723E-1   -5.970469933997168E-2   -8.674801414595425E-3   -3.423807196050958E-2   -9.405995687574338E-3   -3.414855842076595E-2    4.818629164257204E-1   -1.930075059797110E-1
 6.528836033300000E9     5.606769697510982E-1   -6.034385840869335E-2   -8.615560386228257E-3   -3.449164684678192E-2   -9.419681159496061E-3   -3.433865429708675E-2    4.814373518433613E-1   -1.938974276169463E-1
 6.528845149450000E9     5.606529335893016E-1   -6.119017817675232E-2   -8.810912328789673E-3   -3.458351399777270E-2   -9.517840424493228E-3   -3.451150689707309E-2    4.811008042461156E-1   -1.944775594853441E-1
 6.528854265600000E9     5.605894888126879E-1   -6.191123856417816E-2   -8.968711359676137E-3   -3.491003885216975E-2   -9.654448680736626E-3   -3.463111289097239E-2    4.809885166338208E-1   -1.952543503078590E-1
 6.528863381750000E9     5.604532526149145E-1   -6.269741016006580E-2   -9.006183807111323E-3   -3.493340823138923E-2   -9.710882172563847E-3   -3.476539033867351E-2    4.804994302436678E-1   -1.961929417407591E-1
 6.528872497900000E9     5.604019808392566E-1   -6.350045682295229E-2   -9.076198216737911E-3   -3.520466149384920E-2   -9.769808866182630E-3   -3.489442524866777E-2    4.798749029739217E-1   -1.970388779727711E-1
 6.528881614050000E9     5.602869078376967E-1   -6.411389629525892E-2   -9.201893075439102E-3   -3.523902036678664E-2   -1.012231811744470E-2   -3.507893652546130E-2    4.795652830211327E-1   -1.977543059944406E-1
 6.528890730200000E9     5.602354474336914E-1   -6.503237875839364E-2   -9.500789317064679E-3   -3.541862901106532E-2   -1.014430200975375E-2   -3.524950279810220E-2    4.794198569547980E-1   -1.987331732730598E-1
 6.528899846350000E9     5.600351065907383E-1   -6.580171356786917E-2   -9.410277802806588E-3   -3.560221012625161E-2   -1.013279777386109E-2   -3.540957456949462E-2    4.787693095900358E-1   -1.994918686014252E-1
 6.528908962500000E9     5.598815402307314E-1   -6.651987397779145E-2   -9.650939866915459E-3   -3.583368796138067E-2   -1.027948907413001E-2   -3.559974344703859E-2    4.784500247753551E-1   -2.002496690955380E-1
 6.528918078650000E9     5.599913513987862E-1   -6.733397994856322E-2   -9.691879081170040E-3   -3.592695146796525E-2   -1.047569019231198E-2   -3.576254690461813E-2    4.780002372500189E-1   -2.012034426433981E-1
 6.528927194800000E9     5.597600238924575E-1   -6.798576571402121E-2   -9.975843757924468E-3   -3.617396533225716E-2   -1.057820983048628E-2   -3.591553205447309E-2    4.777541987498978E-1   -2.021446045877599E-1
 6.528936310950000E9     5.597225578153410E-1   -6.874092707190456E-2   -9.852822040816736E-3   -3.633053476595229E-2   -1.069525201882872E-2   -3.604723013984764E-2    4.772567771958422E-1   -2.027897330686032E-1
 6.528945427100000E9     5.595693335993114E-1   -6.959383889679158E-2   -1.001800204211223E-2   -3.634899298341810E-2   -1.092189022291469E-2   -3.620887357052192E-2    4.769916860724579E-1   -2.036437208766289E-1
 6.528954543250000E9     5.595113732565495E-1   -7.027449924603732E-2   -1.014159354595668E-2   -3.650570993488185E-2   -1.098546051480938E-2   -3.641950101123571E-2    4.764803691792228E-1   -2.046790264284584E-1
 6.528963659400000E9     5.594142280663027E-1   -7.111324220548712E-2   -1.018725851041808E-2   -3.685111611697230E-2   -1.105997574729133E-2   -3.659460037865243E-2    4.761797956069319E-1   -2.054283065490038E-1
 6.528972775550000E9     5.593093537131942E-1   -7.186541017323426E-2   -1.038489170739998E-2   -3.687701862262430E-2   -1.115875488274533E-2   -3.667640477161925E-2    4.758388978609782E-1   -2.063819059488573E-1
 6.528981891700000E9     5.591262915307570E-1   -7.264792342860871E-2   -1.048770467189828E-2   -3.717028495934675E-2   -1.137035950870496E-2   -3.693311734084798E-2    4.754962260811829E-1   -2.073013725455098E-1
 6.528991007850000E9     5.591037640779094E-1   -7.333756758393839E-2   -1.050613529157183E-2   -3.730438448144496E-2   -1.147701992449337E-2   -3.713221255338417E-2    4.749916672376269E-1   -2.081516672011584E-1
 6.529000124000000E9     5.589243794151636E-1   -7.409180259002378E-2   -1.070224209313709E-2   -3.742926121062033E-2   -1.141941922886517E-2   -3.733551300733893E-2    4.745957685798952E-1   -2.090667742889758E-1
 6.529009240150000E9     5.588716113367240E-1   -7.485856797875851E-2   -1.090467953357696E-2   -3.759198698780188E-2   -1.166738603805465E-2   -3.746032412058922E-2    4.740272126347078E-1   -2.099601339460419E-1
 6.529018356300000E9     5.587323792237917E-1   -7.585217580646929E-2   -1.093551202186457E-2   -3.786925503601295E-2   -1.176160666415704E-2   -3.771519019910664E-2    4.736302712920379E-1   -2.106587889473599E-1
 6.529027472450000E9     5.585832380348675E-1   -7.651282188406677E-2   -1.105994652449022E-2   -3.813618279790150E-2   -1.194466230285620E-2   -3.787081475126194E-2    4.732488296393637E-1   -2.115746488236203E-1
 6.529036588600000E9     5.583804338170599E-1   -7.722864441575128E-2   -1.112909076943609E-2   -3.835491972316020E-2   -1.208494263046472E-2   -3.803644918207438E-2    4.729853953557065E-1   -2.124249547797189E-1
 6.529045704750000E9     5.583591237267567E-1   -7.821115447966565E-2   -1.147851085031949E-2   -3.852358384209875E-2   -1.227270882248544E-2   -3.817526150938563E-2    4.723473833159745E-1   -2.133480041129642E-1
 6.529054820900000E9     5.582341010063612E-1   -7.887644718831018E-2   -1.146954316367171E-2   -3.857680622787921E-2   -1.229386808094329E-2   -3.849627053758948E-2    4.721051584282940E-1   -2.143029036604664E-1
 6.529063937050000E9     5.580629648184285E-1   -7.962788688739672E-2   -1.157646363797300E-2   -3.879961010868397E-2   -1.247405175091616E-2   -3.855087894763844E-2    4.715123249296427E-1   -2.151132810072056E-1
 6.529073053200000E9     5.579826517862020E-1   -8.036711671747868E-2   -1.193846582530589E-2   -3.899584728934440E-2   -1.254298556381540E-2   -3.875840769217754E-2    4.711134930545997E-1   -2.160240635333245E-1
 6.529082169350000E9     5.578150797690014E-1   -8.113862230215572E-2   -1.193196721306555E-2   -3.923678879113508E-2   -1.276804562093798E-2   -3.893695491141915E-2    4.706846000715378E-1   -2.168557653212329E-1
 6.529091285500000E9     5.576544341083928E-1   -8.198065588636838E-2   -1.199178332212992E-2   -3.939242260989823E-2   -1.288719580729509E-2   -3.922950661461432E-2    4.701116648986507E-1   -2.178562538606135E-1
 6.529100401650000E9     5.575280539517814E-1   -8.271199505973179E-2   -1.210144084565740E-2   -3.954952143651066E-2   -1.306256578173115E-2   -3.938734767563722E-2    4.698266943137598E-1   -2.188129525624805E-1
 6.529109517800000E9     5.574633235937108E-1   -8.365725486662569E-2   -1.227700562653453E-2   -3.980855645098541E-2   -1.320839249558495E-2   -3.961655036854991E-2    4.691508930495036E-1   -2.195428646090535E-1
 6.529118633950000E9     5.572850918890608E-1   -8.438738865559384E-2   -1.248425553081627E-2   -4.003495773678243E-2   -1.333605421531236E-2   -3.983806073632878E-2    4.686738245582396E-1   -2.204552763767053E-1
 6.529127750100000E9     5.571633045151820E-1   -8.516992089180725E-2   -1.253082441199499E-2   -4.013491222148407E-2   -1.348064948138594E-2   -4.009184617061584E-2    4.683528526971792E-1   -2.213581625358324E-1
 6.529136866250000E9     5.569771194637163E-1   -8.595222430664999E-2   -1.276489724686209E-2   -4.046458930365776E-2   -1.366105445180391E-2   -4.015986421334114E-2    4.679675227264972E-1   -2.222908832483666E-1
 6.529145982400000E9     5.569207630036855E-1   -8.674060626978816E-2   -1.282052130277905E-2   -4.076920684048534E-2   -1.392118243470878E-2   -4.045054228359975E-2    4.673621889025703E-1   -2.232921883643146E-1
 6.529155098550000E9     5.566638950631396E-1   -8.743226421897606E-2   -1.298881203959150E-2   -4.088055800129019E-2   -1.391339955972152E-2   -4.060614142138243E-2    4.667913587977899E-1   -2.242524554050059E-1
 6.529164214700000E9     5.565648471044606E-1   -8.836089089320995E-2   -1.316424313553569E-2   -4.110570065268721E-2   -1.418474402116250E-2   -4.084278070425936E-2    4.662155866134133E-1   -2.250321642966624E-1
 6.529173330850000E9     5.564292819023291E-1   -8.908811542599500E-2   -1.342965124177754E-2   -4.125355230635832E-2   -1.437327398142482E-2   -4.107211459073430E-2    4.659131209870058E-1   -2.261113322600958E-1
 6.529182447000000E9     5.563014144227336E-1   -8.985296063026339E-2   -1.353494268492589E-2   -4.156010965231048E-2   -1.451501593522897E-2   -4.132510882013646E-2    4.653265560773543E-1   -2.270493836636338E-1
 6.529191563150000E9     5.562261435801134E-1   -9.064210647612438E-2   -1.359212026620067E-2   -4.183904570826161E-2   -1.463308776625922E-2   -4.151669421376935E-2    4.648609121934055E-1   -2.278920383165164E-1
 6.529200679300000E9     5.559215296843019E-1   -9.147151342428406E-2   -1.384990462934092E-2   -4.212968262243696E-2   -1.482359664664964E-2   -4.175892829116069E-2    4.641256875188361E-1   -2.287418943350032E-1
 6.529209795450000E9     5.558823956871686E-1   -9.229505820203984E-2   -1.399481824411898E-2   -4.231674433764479E-2   -1.496608115458468E-2   -4.194459470945365E-2    4.638027634157830E-1   -2.297996921531650E-1
 6.529218911600000E9     5.556623610972828E-1   -9.300820417533211E-2   -1.417926799805584E-2   -4.240993204779261E-2   -1.508464789882719E-2   -4.228897108762122E-2    4.632713794975459E-1   -2.307981694036862E-1
 6.529228027750000E9     5.555499869914564E-1   -9.386142443695975E-2   -1.432566780981972E-2   -4.278133466638959E-2   -1.533466423775217E-2   -4.248454748410095E-2    4.626728193810021E-1   -2.317002435035980E-1
 6.529237143900000E9     5.552353320662262E-1   -9.462410332367310E-2   -1.442491312618571E-2   -4.304135926428091E-2   -1.549164910452076E-2   -4.269605176143030E-2    4.621087987022067E-1   -2.326374925092889E-1
 6.529246260050000E9     5.552644115820224E-1   -9.557755309521286E-2   -1.457731812664348E-2   -4.328636397082975E-2   -1.577057551271602E-2   -4.310317978920726E-2    4.616172020771447E-1   -2.336173846237985E-1
 6.529255376200000E9     5.549413313267052E-1   -9.643328095607689E-2   -1.494158895766025E-2   -4.348441541547624E-2   -1.593392283083837E-2   -4.322655417393948E-2    4.610412389030725E-1   -2.346666366958740E-1
 6.529264492350000E9     5.548988351732750E-1   -9.722303011285822E-2   -1.497545564602567E-2   -4.361787494708295E-2   -1.609821073817489E-2   -4.344825762781011E-2    4.603703398044195E-1   -2.354537748690628E-1
 6.529273608500000E9     5.546534542540853E-1   -9.806353463282051E-2   -1.521714857718919E-2   -4.387317243014766E-2   -1.630010492141790E-2   -4.369967177855522E-2    4.597704267665155E-1   -2.363767463537732E-1
 6.529282724650000E9     5.545252874885221E-1   -9.872855679282197E-2   -1.535056895468248E-2   -4.422451007399247E-2   -1.652153528046461E-2   -4.389166530477404E-2    4.593426652909114E-1   -2.376250460182457E-1
 6.529291840800000E9     5.544564615142860E-1   -9.968643811832792E-2   -1.561106934310475E-2   -4.446540900104083E-2   -1.665537913604120E-2   -4.414207495223139E-2    4.587105476589067E-1   -2.385552127298017E-1
 6.529300956950000E9     5.541837642895007E-1   -1.004142231285197E-1   -1.582527647730900E-2   -4.465739251562067E-2   -1.679203421024429E-2   -4.441753019993634E-2    4.582305350831979E-1   -2.396051402521392E-1
 6.529310073100000E9     5.539919669322976E-1   -1.013138082149909E-1   -1.588586189784930E-2   -4.498589328758920E-2   -1.705246656100102E-2   -4.478189408745838E-2    4.576214963692706E-1   -2.404988599957963E-1
 6.529319189250000E9     5.539186258228540E-1   -1.021387842608002E-1   -1.608785886235688E-2   -4.525126776654873E-2   -1.729043643244425E-2   -4.486533433073900E-2    4.570646466560468E-1   -2.413872456029951E-1
 6.529328305400000E9     5.536994126529582E-1   -1.028787375903926E-1   -1.647537101226945E-2   -4.558163042996537E-2   -1.753826739630576E-2   -4.523245307587235E-2    4.563134735787172E-1   -2.424998502706311E-1
 6.529337421550000E9     5.534688715865999E-1   -1.037423821454632E-1   -1.669931965098262E-2   -4.592165291209614E-2   -1.770506025103995E-2   -4.559912638917405E-2    4.556807719094552E-1   -2.436032169646865E-1
 6.529346537700000E9     5.532244380191262E-1   -1.045351472195853E-1   -1.681041580746951E-2   -4.608027743561844E-2   -1.787626515525133E-2   -4.575761622030929E-2    4.552214017850051E-1   -2.445658904199766E-1
 6.529355653850000E9     5.531075909616960E-1   -1.054453776243189E-1   -1.693031792755494E-2   -4.638578750059157E-2   -1.818596154400436E-2   -4.603018265673641E-2    4.545907181661712E-1   -2.455658600423892E-1
 6.529364770000000E9     5.529512949418244E-1   -1.062395928763718E-1   -1.722679916343282E-2   -4.651507048447095E-2   -1.841430175659315E-2   -4.629499428929872E-2    4.539328479390833E-1   -2.464794413335599E-1
 6.529373886150000E9     5.526426293466508E-1   -1.071038586285363E-1   -1.749536152669143E-2   -4.690436910189508E-2   -1.865011387020485E-2   -4.667597328905168E-2    4.532333258204209E-1   -2.474778498071572E-1
 6.529383002300000E9     5.524727890012228E-1   -1.079173241923491E-1   -1.768892326056482E-2   -4.730098744042044E-2   -1.880771191141708E-2   -4.688261577154559E-2    4.526924091828300E-1   -2.485669336098894E-1
 6.529392118450000E9     5.522954930587879E-1   -1.087245131141595E-1   -1.785929024637711E-2   -4.766082825672343E-2   -1.911270254921046E-2   -4.719712892396591E-2    4.518351453667531E-1   -2.495186362151809E-1
 6.529401234600000E9     5.520663035482919E-1   -1.095676624586070E-1   -1.812902888045030E-2   -4.780986367188410E-2   -1.943716176267117E-2   -4.739723879116717E-2    4.513273130612987E-1   -2.506320955348786E-1
 6.529410350750000E9     5.518520296941107E-1   -1.104560537209003E-1   -1.826359451073755E-2   -4.811195700731034E-2   -1.960308896600864E-2   -4.773790771170704E-2    4.507454388868058E-1   -2.516688244127822E-1
 6.529419466900000E9     5.517124534018994E-1   -1.113327886336976E-1   -1.863905130869527E-2   -4.846507042078790E-2   -1.979211383915458E-2   -4.811086584677668E-2    4.499119161843796E-1   -2.529111299186790E-1
 6.529428583050000E9     5.513940058647261E-1   -1.121149986780937E-1   -1.884463824505186E-2   -4.875475686767337E-2   -2.010687384497606E-2   -4.838426335816070E-2    4.492662710334808E-1   -2.538223839266674E-1
 6.529437699200000E9     5.511812643125641E-1   -1.130378512257920E-1   -1.908329650019026E-2   -4.896708148591641E-2   -2.030686728567184E-2   -4.870464013004794E-2    4.485443113181566E-1   -2.549461080437815E-1
 6.529446815350000E9     5.510862009390243E-1   -1.137583745709822E-1   -1.926367130748540E-2   -4.937932076678246E-2   -2.056332960890821E-2   -4.905524761042705E-2    4.480172925833119E-1   -2.558926087162868E-1
 6.529455931500000E9     5.507126391310979E-1   -1.146869183018292E-1   -1.962177308039242E-2   -4.954240175016156E-2   -2.077415924601707E-2   -4.932367554926168E-2    4.470474644478334E-1   -2.569901642088284E-1
 6.529465047650000E9     5.506671401163077E-1   -1.155891058829390E-1   -1.997247642633689E-2   -4.996413857099710E-2   -2.107656049128947E-2   -4.964470152472758E-2    4.464040750120885E-1   -2.581211421221769E-1
 6.529474163800000E9     5.503276550731471E-1   -1.163788535515166E-1   -2.008924067955322E-2   -5.035968961869147E-2   -2.132723238965735E-2   -4.993484683724293E-2    4.457362916900535E-1   -2.591446791021206E-1
 6.529483279950000E9     5.501552442925596E-1   -1.172832538274686E-1   -2.037194815955530E-2   -5.063670718772576E-2   -2.168121029212678E-2   -5.032693254499109E-2    4.449226593895948E-1   -2.604023056762447E-1
 6.529492396100000E9     5.497374043297770E-1   -1.181787692208710E-1   -2.071714003485681E-2   -5.093916443259464E-2   -2.190072335248278E-2   -5.060638575404769E-2    4.440095325016809E-1   -2.614726379055450E-1
 6.529501512250000E9     5.496579439287418E-1   -1.191149491192302E-1   -2.079799727847893E-2   -5.140182793780084E-2   -2.233874731689325E-2   -5.090528042215949E-2    4.435118699172356E-1   -2.626540198287830E-1
 6.529510628400000E9     5.492689942858886E-1   -1.199630847366128E-1   -2.111227177144121E-2   -5.170762200690313E-2   -2.250600703721758E-2   -5.135604285978201E-2    4.427300385162302E-1   -2.635962054046407E-1
 6.529519744550000E9     5.490232354095693E-1   -1.206480437514503E-1   -2.141001035844697E-2   -5.191568301834618E-2   -2.280403591562147E-2   -5.169871769424582E-2    4.420543738433718E-1   -2.648267721418397E-1
 6.529528860700000E9     5.488466626404790E-1   -1.217364948807260E-1   -2.189682621694080E-2   -5.248913977907292E-2   -2.317367696630874E-2   -5.205876545067182E-2    4.410457656080486E-1   -2.658239813658304E-1
 6.529537976850000E9     5.486766457653803E-1   -1.224657501480249E-1   -2.214173443253177E-2   -5.280606725056013E-2   -2.348656772289436E-2   -5.233548336104194E-2    4.401636968099554E-1   -2.669683975056825E-1
 6.529547093000000E9     5.482456780407196E-1   -1.232840727306444E-1   -2.230834486605617E-2   -5.314841822687323E-2   -2.370843611159858E-2   -5.282966467046998E-2    4.394037115140346E-1   -2.683021056816452E-1
 6.529556209150000E9     5.480028899625079E-1   -1.242176955315942E-1   -2.273615732850666E-2   -5.342448143026610E-2   -2.407707882478448E-2   -5.316539984086899E-2    4.385567052247289E-1   -2.693362068615884E-1
 6.529565325300000E9     5.478052900441598E-1   -1.252195545962388E-1   -2.311124596209760E-2   -5.388483755306571E-2   -2.444170155853330E-2   -5.340371037513030E-2    4.375820696970020E-1   -2.705253436155458E-1
 6.529574441450000E9     5.475240778448227E-1   -1.261451233316393E-1   -2.341535277613732E-2   -5.435001500869426E-2   -2.475721316111367E-2   -5.374738354626270E-2    4.368835772835356E-1   -2.717331395472500E-1
 6.529583557600000E9     5.471180211772201E-1   -1.270789738200655E-1   -2.373088645060681E-2   -5.476628076455240E-2   -2.515156579559192E-2   -5.417382785185728E-2    4.359421930533995E-1   -2.728143040892006E-1
 6.529592673750000E9     5.469941252654349E-1   -1.278609665983475E-1   -2.422093196254121E-2   -5.509727574437006E-2   -2.551134970528164E-2   -5.452001468346401E-2    4.349175159645310E-1   -2.740843463426074E-1
 6.529601789900000E9     5.468774373409657E-1   -1.288326873507453E-1   -2.442087918364191E-2   -5.549251406838281E-2   -2.583126010203877E-2   -5.496035833158294E-2    4.341507562395282E-1   -2.753667690944142E-1
 6.529610906050000E9     5.463964227776429E-1   -1.297668502437793E-1   -2.475680372513173E-2   -5.591979671004195E-2   -2.625517392913888E-2   -5.531545365647293E-2    4.332630701451695E-1   -2.765968718919545E-1
 6.529620022200000E9     5.461400403888264E-1   -1.305521844542100E-1   -2.514429554901426E-2   -5.637600772179264E-2   -2.662379194409249E-2   -5.588273812359842E-2    4.323188479260097E-1   -2.775109776384458E-1
 6.529629138350000E9     5.458446101870124E-1   -1.316821552273782E-1   -2.536801105923010E-2   -5.665416496903849E-2   -2.691860753689604E-2   -5.608095289088821E-2    4.313556666141927E-1   -2.787669697890796E-1
 6.529638254500000E9     5.455528020694836E-1   -1.325877652150977E-1   -2.597355576274666E-2   -5.712253211154817E-2   -2.729567292624771E-2   -5.657702731208163E-2    4.302920026916880E-1   -2.800689367048192E-1
