#  HZ   S   RI   R     50.00 
! Rohde & Schwarz Vector Network Analyzer 
! Rohde-Schwarz,ZNB20-2Port,1311601062101988,3.16
! Created: UTC 3/21/2024, 1:02:45 AM
! freq[Hz]                re:S11                  im:S11                  re:S21                  im:S21                  re:S12                  im:S12                  re:S22                  im:S22
 6.528745210000000E9     5.601029764576057E-1   -4.563682076792867E-2   -6.437556860092525E-3   -2.924963214114964E-2   -7.088982546462572E-3   -2.905807331567534E-2    4.851563095098722E-1   -1.591723181739294E-1
 6.528755933150000E9     5.600386243376669E-1   -4.661183309133717E-2   -6.453190470639800E-3   -2.942547466209540E-2   -7.186943014490289E-3   -2.928659596482183E-2    4.848342485787738E-1   -1.600864280301590E-1
 6.528766656300000E9     5.598464259407979E-1   -4.749689961122118E-2   -6.568473863236502E-3   -2.947081209672932E-2   -7.249805064835019E-3   -2.938126416614983E-2    4.847460794379864E-1   -1.607650327009794E-1
 6.528777379450000E9     5.598765860880782E-1   -4.827420876987650E-2   -6.647637312725998E-3   -2.978133526738796E-2   -7.253262948666725E-3   -2.946253095887152E-2    4.844292835297823E-1   -1.616894217499413E-1
 6.528788102600000E9     5.597314296335912E-1   -4.924595391955692E-2   -6.847565173239412E-3   -2.988129033353328E-2   -7.334500591031934E-3   -2.969692606183582E-2    4.839283457392451E-1   -1.626749763087892E-1
 6.528798825750000E9     5.597755482367375E-1   -4.992951544351384E-2   -6.885485468480418E-3   -2.976318282427044E-2   -7.506053115476588E-3   -2.978153956023953E-2    4.835946504842775E-1   -1.634721218926221E-1
 6.528809548900000E9     5.596506109450350E-1   -5.081881139914525E-2   -6.953274438333224E-3   -2.999098547745739E-2   -7.585178597159015E-3   -2.993646492196833E-2    4.833038207986363E-1   -1.645427409310296E-1
 6.528820272050000E9     5.595347779214327E-1   -5.171638140655786E-2   -6.966473801054664E-3   -3.013712305624567E-2   -7.723850297704496E-3   -3.005449781863158E-2    4.829407529253857E-1   -1.654681305579206E-1
 6.528830995200000E9     5.594432980147137E-1   -5.243647910474873E-2   -7.100490647539780E-3   -3.021495143177104E-2   -7.728278614225590E-3   -3.013555107151166E-2    4.826008169113245E-1   -1.661286445852087E-1
 6.528841718350000E9     5.592891395079872E-1   -5.355390961881977E-2   -7.082822914044383E-3   -3.031412045725742E-2   -7.900389251303951E-3   -3.029441240273469E-2    4.822027462297181E-1   -1.671066171696981E-1
 6.528852441500000E9     5.593790156201832E-1   -5.435605760091555E-2   -7.307658333728225E-3   -3.057022839064563E-2   -7.862408130882360E-3   -3.037342807625554E-2    4.820078924331174E-1   -1.679119340500188E-1
 6.528863164650000E9     5.591664118659315E-1   -5.518968435610626E-2   -7.394576129898425E-3   -3.069249071559113E-2   -8.064486099665201E-3   -3.054858813351230E-2    4.816594402969229E-1   -1.688414777184654E-1
 6.528873887800000E9     5.591013676022127E-1   -5.595868518131557E-2   -7.486143727669758E-3   -3.081504410457251E-2   -8.125179976812995E-3   -3.075846481350775E-2    4.812939499081826E-1   -1.699272957240360E-1
 6.528884610950000E9     5.590064741960248E-1   -5.674862469948871E-2   -7.755172962728927E-3   -3.091492244129712E-2   -8.311858034215492E-3   -3.086106766198244E-2    4.808736719002014E-1   -1.707165057649004E-1
 6.528895334100000E9     5.588571017459140E-1   -5.775102248119113E-2   -7.712109642410510E-3   -3.119670841521048E-2   -8.384073533669842E-3   -3.096229830820601E-2    4.804351075268690E-1   -1.717113826727856E-1
 6.528906057250000E9     5.587461483572909E-1   -5.861387467201878E-2   -7.933752678553061E-3   -3.133003360103204E-2   -8.364990675823962E-3   -3.111287081079949E-2    4.801862565631117E-1   -1.724990286045146E-1
 6.528916780400000E9     5.587859138997665E-1   -5.948286428256613E-2   -7.828287995357444E-3   -3.140160984042728E-2   -8.552917374325522E-3   -3.121741122605315E-2    4.799460133568098E-1   -1.734228345115916E-1
 6.528927503550000E9     5.586505018543630E-1   -6.021927229366485E-2   -8.007745961477776E-3   -3.157947427285494E-2   -8.716900013564151E-3   -3.145557342226875E-2    4.793433229801600E-1   -1.743598273310119E-1
 6.528938226700000E9     5.584461995797575E-1   -6.128384527829105E-2   -8.026486806182204E-3   -3.167733871259337E-2   -8.762323935220334E-3   -3.161565593445990E-2    4.790628538424758E-1   -1.751943981421649E-1
 6.528948949850000E9     5.584520978002486E-1   -6.198278949812298E-2   -8.226408104868589E-3   -3.193882078988834E-2   -8.906961133832407E-3   -3.174076809575389E-2    4.786824021588792E-1   -1.762725230368887E-1
 6.528959673000000E9     5.584130797414351E-1   -6.293443538536629E-2   -8.339770458152941E-3   -3.208558696066060E-2   -9.049518826753642E-3   -3.193807107096025E-2    4.783449781860900E-1   -1.772728762978748E-1
 6.528970396150000E9     5.581946832771647E-1   -6.377593691429358E-2   -8.467524626448472E-3   -3.217114822934744E-2   -9.018185141268774E-3   -3.194171444209689E-2    4.778936715072949E-1   -1.781656294828281E-1
 6.528981119300000E9     5.580565837823379E-1   -6.465931671352843E-2   -8.476050484154356E-3   -3.231398681290280E-2   -9.171718228244422E-3   -3.212277583937497E-2    4.775558123945391E-1   -1.790393081511339E-1
 6.528991842450000E9     5.579932373113592E-1   -6.556348548087296E-2   -8.580320211258707E-3   -3.254677188059932E-2   -9.325799904048967E-3   -3.245495626890806E-2    4.769142989715299E-1   -1.799530409123859E-1
 6.529002565600000E9     5.578642709004995E-1   -6.642505478425394E-2   -8.812924324032585E-3   -3.264857575118088E-2   -9.423520280190077E-3   -3.259924829862769E-2    4.767332606155208E-1   -1.809306669374861E-1
 6.529013288750000E9     5.578439493423304E-1   -6.726908120678018E-2   -8.887508342900759E-3   -3.289689641849993E-2   -9.606342538358551E-3   -3.278771118561432E-2    4.762650065109573E-1   -1.817596854156355E-1
 6.529024011900000E9     5.577320808399863E-1   -6.816402320769888E-2   -9.139113543141245E-3   -3.310207390102679E-2   -9.776346312211951E-3   -3.280118105004720E-2    4.759805446077960E-1   -1.827192150222526E-1
 6.529034735050000E9     5.575975350441310E-1   -6.902846189768325E-2   -9.265361917893929E-3   -3.304913525488822E-2   -9.815764316646452E-3   -3.306623786392019E-2    4.754804915901186E-1   -1.835646395327715E-1
 6.529045458200000E9     5.574026792209891E-1   -6.983032933355732E-2   -9.137548443240008E-3   -3.332272239645701E-2   -9.945928390067279E-3   -3.319615306207004E-2    4.751352387951927E-1   -1.846317082520760E-1
 6.529056181350000E9     5.572514337062620E-1   -7.076764248955833E-2   -9.346513379022255E-3   -3.347399433559421E-2   -1.002323372641289E-2   -3.329334648516492E-2    4.747614697777118E-1   -1.855442629253722E-1
 6.529066904500000E9     5.571799897740732E-1   -7.169933601692602E-2   -9.413033381321732E-3   -3.374192489282582E-2   -1.008936610957411E-2   -3.352514491093366E-2    4.742934017684238E-1   -1.864814165282618E-1
 6.529077627650000E9     5.571029701847204E-1   -7.252668660598036E-2   -9.541757805234445E-3   -3.393165669071636E-2   -1.029349368762837E-2   -3.362479880131559E-2    4.739326445891613E-1   -1.873682267512641E-1
 6.529088350800000E9     5.569741165465339E-1   -7.341584380244284E-2   -9.656655301058404E-3   -3.418687164778803E-2   -1.037071353650777E-2   -3.385860865085161E-2    4.734493864485013E-1   -1.883659500510574E-1
 6.529099073950000E9     5.567460987236367E-1   -7.428886785782668E-2   -9.887186317910281E-3   -3.413919327251855E-2   -1.051260737139276E-2   -3.403556492830573E-2    4.731393693798603E-1   -1.893318773946941E-1
 6.529109797100000E9     5.567184199893958E-1   -7.517531078717377E-2   -9.883829138968727E-3   -3.423643147839373E-2   -1.067046525593193E-2   -3.420597634109671E-2    4.725351707607586E-1   -1.902740463059253E-1
 6.529120520250000E9     5.564705431684424E-1   -7.616053797048640E-2   -9.899457726055105E-3   -3.455229639861951E-2   -1.080211252195026E-2   -3.439535361051622E-2    4.721717811876909E-1   -1.912188689302596E-1
 6.529131243400000E9     5.563807322891227E-1   -7.702842165275769E-2   -1.023492348554893E-2   -3.484408766362238E-2   -1.103738325174958E-2   -3.461328438647342E-2    4.716799478316216E-1   -1.921813019836223E-1
 6.529141966550000E9     5.562852184616847E-1   -7.782652937814835E-2   -1.029595192762368E-2   -3.493572930947116E-2   -1.111875383783655E-2   -3.476088089764916E-2    4.712662405247826E-1   -1.932661189666544E-1
 6.529152689700000E9     5.561435641221836E-1   -7.868461683605715E-2   -1.024054373431353E-2   -3.510580113544344E-2   -1.128613512965440E-2   -3.493726809126598E-2    4.710644831833831E-1   -1.940516916387040E-1
 6.529163412850000E9     5.559635411936441E-1   -7.968016939683761E-2   -1.062962515221504E-2   -3.523824999919528E-2   -1.146389832863902E-2   -3.513283661868433E-2    4.701955976372418E-1   -1.950511513036572E-1
 6.529174136000000E9     5.558560161219919E-1   -8.045793534077776E-2   -1.077679104374760E-2   -3.558592109727707E-2   -1.154454747224076E-2   -3.526454898333036E-2    4.698461991425166E-1   -1.960531367992419E-1
 6.529184859150000E9     5.556577632792569E-1   -8.140895598081796E-2   -1.085673482824725E-2   -3.566950901538232E-2   -1.163719044511244E-2   -3.557548134841048E-2    4.694610077465847E-1   -1.970484788916898E-1
 6.529195582300000E9     5.554958788201148E-1   -8.230821638269493E-2   -1.103952629387170E-2   -3.581224949201629E-2   -1.182330720697468E-2   -3.562084437966158E-2    4.690339202280962E-1   -1.980583837406131E-1
 6.529206305450000E9     5.553586826483522E-1   -8.321805714575117E-2   -1.115591770698960E-2   -3.610644542747922E-2   -1.190842491739522E-2   -3.580310626789932E-2    4.684055938243419E-1   -1.991043650496394E-1
 6.529217028600000E9     5.552019679921898E-1   -8.406608327551857E-2   -1.131414655962496E-2   -3.620566852638313E-2   -1.213743754989279E-2   -3.610523864143989E-2    4.680858643981916E-1   -2.001484303829521E-1
 6.529227751750000E9     5.549781043343466E-1   -8.499749989323810E-2   -1.143462921256610E-2   -3.650791052834693E-2   -1.230496588599089E-2   -3.628427664909933E-2    4.676552409845129E-1   -2.010292490837573E-1
 6.529238474900000E9     5.549768372549053E-1   -8.592033417106171E-2   -1.177852844286783E-2   -3.673653891721835E-2   -1.244526066186027E-2   -3.642021090807302E-2    4.672093944747871E-1   -2.020806807114507E-1
 6.529249198050000E9     5.547793180124739E-1   -8.681754772904525E-2   -1.170677466823311E-2   -3.676404732300249E-2   -1.258357249961544E-2   -3.673798742292485E-2    4.665697070138810E-1   -2.029925058122719E-1
 6.529259921200000E9     5.546139516165275E-1   -8.772752149504791E-2   -1.187574099225416E-2   -3.718032633989398E-2   -1.275685773451740E-2   -3.691952061853690E-2    4.660674697776979E-1   -2.039807159012721E-1
 6.529270644350000E9     5.544274585761513E-1   -8.865253308907296E-2   -1.194526903569338E-2   -3.720793924877914E-2   -1.292235721374488E-2   -3.712351445603927E-2    4.656579781639874E-1   -2.050139502953887E-1
 6.529281367500000E9     5.542030997536392E-1   -8.955988276454988E-2   -1.232901391911885E-2   -3.767400844836574E-2   -1.305603378175934E-2   -3.725322477688008E-2    4.650313442602640E-1   -2.059519782999483E-1
 6.529292090650000E9     5.540463369995817E-1   -9.040654923280210E-2   -1.235888505635749E-2   -3.776565136096354E-2   -1.321375808508802E-2   -3.748315823637593E-2    4.644949267267475E-1   -2.070475235102454E-1
 6.529302813800000E9     5.539468693020696E-1   -9.137071401140412E-2   -1.275511654314104E-2   -3.796975703318400E-2   -1.337329988068788E-2   -3.768767610576968E-2    4.641820588763207E-1   -2.079507754686767E-1
 6.529313536950000E9     5.537572958313878E-1   -9.224961086703400E-2   -1.274648008400902E-2   -3.823978170921540E-2   -1.358865122971115E-2   -3.796168348129183E-2    4.634543953695114E-1   -2.090487832822250E-1
 6.529324260100000E9     5.536105963399364E-1   -9.302504435186537E-2   -1.308339687607103E-2   -3.832723283820230E-2   -1.384196171937280E-2   -3.814981300568083E-2    4.630268389286834E-1   -2.100926831495069E-1
 6.529334983250000E9     5.534562909779759E-1   -9.403258559181914E-2   -1.305900719310610E-2   -3.857845333581974E-2   -1.394268744053253E-2   -3.832614982856550E-2    4.625112065705616E-1   -2.111577189965226E-1
 6.529345706400000E9     5.532933995487508E-1   -9.500609106762997E-2   -1.337544718018539E-2   -3.895565553014298E-2   -1.420901258487104E-2   -3.865706476925417E-2    4.620156809345787E-1   -2.121648105574440E-1
 6.529356429550000E9     5.530560882018613E-1   -9.596049031520926E-2   -1.333098834054378E-2   -3.909157525376140E-2   -1.430255103204785E-2   -3.896450573944157E-2    4.612022792410316E-1   -2.131424806503345E-1
 6.529367152700000E9     5.527529571566133E-1   -9.686013778228425E-2   -1.358105847710979E-2   -3.948658448494432E-2   -1.454760139626850E-2   -3.913159709455408E-2    4.609565444982371E-1   -2.142426257106060E-1
 6.529377875850000E9     5.526484338758799E-1   -9.776049590311885E-2   -1.376060114120842E-2   -3.964406345768250E-2   -1.470372927233719E-2   -3.933468279682025E-2    4.602201976042473E-1   -2.151544439052443E-1
 6.529388599000000E9     5.524806955699478E-1   -9.858163272903195E-2   -1.392004065930030E-2   -3.977623181552297E-2   -1.490025296937571E-2   -3.953404883502757E-2    4.596913659236524E-1   -2.162692213596952E-1
 6.529399322150000E9     5.524264308551059E-1   -9.957844585022735E-2   -1.412802103174496E-2   -4.015301276117807E-2   -1.508167324808665E-2   -3.982473734081315E-2    4.591210646028159E-1   -2.174213723175070E-1
 6.529410045300000E9     5.520630555611938E-1   -1.004727824703112E-1   -1.430011434175199E-2   -4.028852803602505E-2   -1.523308577362081E-2   -4.004585824631952E-2    4.583987646648419E-1   -2.184741880956826E-1
 6.529420768450000E9     5.519292729481707E-1   -1.014313718482491E-1   -1.448205776909371E-2   -4.051474076559165E-2   -1.550886870273508E-2   -4.030814864361984E-2    4.579744311871468E-1   -2.194203219828935E-1
 6.529431491600000E9     5.517320294176064E-1   -1.022615825383119E-1   -1.481904896919273E-2   -4.074616256661309E-2   -1.568744450431433E-2   -4.049682637884552E-2    4.573046623825884E-1   -2.204911162599194E-1
 6.529442214750000E9     5.514708041234246E-1   -1.033325751683791E-1   -1.509415496918208E-2   -4.118276544200448E-2   -1.594989700489281E-2   -4.071405977986854E-2    4.566612443092283E-1   -2.215088579242285E-1
 6.529452937900000E9     5.513133793352248E-1   -1.042418481174673E-1   -1.524573782255983E-2   -4.127554260712798E-2   -1.604843437781440E-2   -4.102594924115972E-2    4.560876588734260E-1   -2.226979000283817E-1
 6.529463661050000E9     5.510397905121344E-1   -1.049784027374947E-1   -1.545564286572428E-2   -4.158284898467288E-2   -1.642968630335785E-2   -4.129194434707954E-2    4.554508621385936E-1   -2.235760575122226E-1
 6.529474384200000E9     5.509244164704293E-1   -1.060121832198443E-1   -1.569825499271340E-2   -4.186644044490550E-2   -1.659206492384727E-2   -4.156770537590858E-2    4.547481211015301E-1   -2.249268022256376E-1
 6.529485107350000E9     5.506339399817911E-1   -1.068619055092817E-1   -1.575198332981554E-2   -4.214517492586787E-2   -1.683532162523895E-2   -4.175892172391385E-2    4.542022814636434E-1   -2.258404515427698E-1
 6.529495830500000E9     5.504224504855417E-1   -1.079546647495917E-1   -1.611286460830391E-2   -4.240922985582761E-2   -1.704346826182190E-2   -4.212232779012189E-2    4.534825533634598E-1   -2.269393180743396E-1
 6.529506553650000E9     5.502166515289730E-1   -1.089636948333382E-1   -1.635555664675309E-2   -4.279235411668150E-2   -1.724680427372318E-2   -4.240858633946721E-2    4.527913801173264E-1   -2.281216738582863E-1
 6.529517276800000E9     5.499244523120136E-1   -1.097529102161639E-1   -1.650167843826495E-2   -4.295155355229381E-2   -1.746827123356783E-2   -4.264724045219370E-2    4.523017605528968E-1   -2.291538672236728E-1
 6.529527999950000E9     5.496282948231171E-1   -1.107864166891756E-1   -1.678691017566241E-2   -4.313891121137931E-2   -1.768515871803306E-2   -4.281784487512895E-2    4.514317579901559E-1   -2.302804848829161E-1
 6.529538723100000E9     5.494931993495109E-1   -1.117960620454167E-1   -1.688675320666907E-2   -4.355139905054353E-2   -1.799589082859166E-2   -4.317227157943571E-2    4.507850463984986E-1   -2.315131275328509E-1
 6.529549446250000E9     5.491739184107338E-1   -1.127172879644770E-1   -1.722342698829686E-2   -4.366983036496683E-2   -1.821966358911905E-2   -4.350447322705926E-2    4.502192457850193E-1   -2.326143486775254E-1
 6.529560169400000E9     5.489642893651395E-1   -1.136073269036459E-1   -1.752268609466528E-2   -4.402351005290001E-2   -1.852357628905956E-2   -4.376163658900675E-2    4.493541372744295E-1   -2.338104692186913E-1
 6.529570892550000E9     5.487371468621847E-1   -1.145817026189520E-1   -1.762232787393231E-2   -4.435278085879012E-2   -1.879395612252583E-2   -4.408857289524466E-2    4.486851249055784E-1   -2.349254323750983E-1
 6.529581615700000E9     5.484715077807246E-1   -1.155464577431452E-1   -1.797066040492682E-2   -4.472731830806721E-2   -1.903621989969054E-2   -4.437044191058608E-2    4.478518408521404E-1   -2.359357322094661E-1
 6.529592338850000E9     5.482816891477869E-1   -1.163920982653511E-1   -1.819975272656770E-2   -4.499346998615992E-2   -1.922063331430722E-2   -4.470127454050503E-2    4.472626303236421E-1   -2.372702407988380E-1
 6.529603062000000E9     5.480071815221852E-1   -1.175487410087301E-1   -1.845999703642329E-2   -4.532121306824908E-2   -1.956130430725584E-2   -4.500841949046551E-2    4.464342806557739E-1   -2.383220959253005E-1
 6.529613785150000E9     5.477394977965290E-1   -1.184765475957600E-1   -1.873115473270199E-2   -4.564875298507436E-2   -1.976581127468628E-2   -4.522788670564309E-2    4.457418662774684E-1   -2.392311020025211E-1
 6.529624508300000E9     5.474225625010711E-1   -1.193536343350926E-1   -1.924688820275339E-2   -4.600601099207096E-2   -2.009708587929550E-2   -4.555095462016838E-2    4.449864501559313E-1   -2.407036933171817E-1
 6.529635231450000E9     5.471887904794734E-1   -1.205121982378162E-1   -1.931840345939638E-2   -4.634176168775660E-2   -2.048984086407383E-2   -4.587409962834309E-2    4.441269788332916E-1   -2.417926002545296E-1
 6.529645954600000E9     5.469166964860239E-1   -1.212910957595836E-1   -1.963147928772224E-2   -4.665174413543902E-2   -2.074620971399213E-2   -4.624874986705370E-2    4.432724245329377E-1   -2.429003251249484E-1
 6.529656677750000E9     5.466561990141663E-1   -1.223071298704115E-1   -1.997327648005976E-2   -4.679608403489805E-2   -2.103864475902379E-2   -4.658091480838012E-2    4.425495432772338E-1   -2.441551482296217E-1
 6.529667400900000E9     5.464040566116799E-1   -1.232029158149579E-1   -2.017910760055082E-2   -4.712398100972445E-2   -2.131381070798701E-2   -4.690388649287399E-2    4.417488280719026E-1   -2.454096903074184E-1
 6.529678124050000E9     5.460082163727418E-1   -1.243316068017181E-1   -2.058975134460581E-2   -4.770114894530988E-2   -2.161548942631598E-2   -4.723561036844571E-2    4.408819721430683E-1   -2.465820756677730E-1
 6.529688847200000E9     5.458927021974520E-1   -1.252672618592424E-1   -2.077428006423981E-2   -4.793828654752167E-2   -2.200392213065938E-2   -4.756600228927629E-2    4.400453499112691E-1   -2.477580136056192E-1
 6.529699570350000E9     5.455269705315060E-1   -1.263441771096677E-1   -2.112224658820696E-2   -4.825970079411316E-2   -2.235491234026948E-2   -4.795817967308967E-2    4.391933030517826E-1   -2.489422703531767E-1
 6.529710293500000E9     5.451819128072301E-1   -1.273478880163455E-1   -2.144080204503857E-2   -4.873969869533676E-2   -2.268304962032895E-2   -4.832526176597862E-2    4.383945307162031E-1   -2.502569454827183E-1
