#  HZ   S   RI   R     50.00 
! Rohde & Schwarz Vector Network Analyzer 
! Rohde-Schwarz,ZNB20-2Port,1311601062101988,3.16
! Created: UTC 3/21/2024, 1:03:00 AM
! freq[Hz]                re:S11                  im:S11                  re:S21                  im:S21                  re:S12                  im:S12                  re:S22                  im:S22
 6.528742537000000E9     5.600716397135409E-1   -4.549448358862308E-2   -6.373132665208686E-3   -2.909200999801574E-2   -7.004321265228764E-3   -2.908271809894020E-2    4.859695398132923E-1   -1.573189688809070E-1
 6.528753289850000E9     5.600449371909348E-1   -4.623170351762784E-2   -6.596157968844246E-3   -2.934499469691134E-2   -6.991419088774249E-3   -2.926900642917446E-2    4.857195258564201E-1   -1.583922517080883E-1
 6.528764042700000E9     5.599105940578156E-1   -4.707139915156398E-2   -6.600033966839324E-3   -2.949076324863322E-2   -7.090244475085218E-3   -2.932865314610234E-2    4.851427125734400E-1   -1.591735981985675E-1
 6.528774795550000E9     5.599147812254849E-1   -4.794493342554774E-2   -6.684068618804271E-3   -2.942953158324110E-2   -7.252370370563843E-3   -2.935197136778933E-2    4.850745986879479E-1   -1.602093189579381E-1
 6.528785548400000E9     5.596298533701727E-1   -4.877440317092151E-2   -6.769164891324955E-3   -2.965785442034717E-2   -7.311148230238458E-3   -2.947192304097742E-2    4.846794446997560E-1   -1.610276406077358E-1
 6.528796301250000E9     5.596538018871492E-1   -4.963875768909694E-2   -6.852245475951962E-3   -2.984307104645881E-2   -7.399820628877637E-3   -2.977685118656362E-2    4.843170937393645E-1   -1.617918806422640E-1
 6.528807054100000E9     5.596064288302161E-1   -5.039649134775015E-2   -6.966579365096913E-3   -2.984539778875860E-2   -7.504876298539485E-3   -2.977113584701302E-2    4.840271645771739E-1   -1.628173952852975E-1
 6.528817806950000E9     5.595615059253406E-1   -5.140916118982097E-2   -6.964284957961568E-3   -3.011801832311611E-2   -7.594978052085036E-3   -2.985443010668269E-2    4.836202821232830E-1   -1.637753379580179E-1
 6.528828559800000E9     5.594212573095400E-1   -5.220429028011083E-2   -7.140321819901652E-3   -3.025210309415183E-2   -7.708385272494919E-3   -3.005432626841219E-2    4.833469747397021E-1   -1.646170276226318E-1
 6.528839312650000E9     5.593595555142800E-1   -5.308083227748708E-2   -7.145852470140306E-3   -3.032208240570219E-2   -7.756408991187904E-3   -3.020072405189879E-2    4.830331026237297E-1   -1.654475517367160E-1
 6.528850065500000E9     5.593329496593042E-1   -5.390612378898554E-2   -7.375318748736133E-3   -3.049468252826240E-2   -7.851236141263065E-3   -3.032977500830784E-2    4.826417736225795E-1   -1.663447046647571E-1
 6.528860818350000E9     5.592269059250463E-1   -5.476463180176994E-2   -7.337937217876538E-3   -3.065342665289923E-2   -7.985230508893125E-3   -3.045157659029650E-2    4.822350107339513E-1   -1.672919217121949E-1
 6.528871571200000E9     5.591603498908381E-1   -5.577771342250790E-2   -7.387453360095906E-3   -3.069856977062481E-2   -8.078453179406022E-3   -3.070893265280271E-2    4.819891345921060E-1   -1.682930793365597E-1
 6.528882324050000E9     5.590363315192254E-1   -5.656826740750495E-2   -7.474186622700906E-3   -3.096510977537049E-2   -8.236746194427345E-3   -3.090659304600374E-2    4.815880733794898E-1   -1.691551814903774E-1
 6.528893076900000E9     5.588784801613910E-1   -5.746993588496553E-2   -7.603020474334205E-3   -3.105395452101384E-2   -8.301730960046844E-3   -3.086776193448797E-2    4.811615393449934E-1   -1.699308342469666E-1
 6.528903829750000E9     5.588654067961497E-1   -5.827478430690523E-2   -7.770899703458632E-3   -3.108574096039753E-2   -8.410612793081165E-3   -3.110688300527817E-2    4.808824271205441E-1   -1.708644026925751E-1
 6.528914582600000E9     5.586880167048411E-1   -5.917581771268945E-2   -7.728035787357954E-3   -3.136607412807797E-2   -8.496532555229024E-3   -3.118312395777613E-2    4.805594700245603E-1   -1.718188829166434E-1
 6.528925335450000E9     5.586247775702221E-1   -5.995261392448328E-2   -7.943748851236221E-3   -3.145587096473765E-2   -8.606045816366316E-3   -3.139716703830993E-2    4.801668941805153E-1   -1.728695098317455E-1
 6.528936088300000E9     5.584771828437060E-1   -6.087843487355286E-2   -8.113540194667306E-3   -3.164892859276579E-2   -8.647974792828915E-3   -3.155377722377239E-2    4.798073562211119E-1   -1.736680815057165E-1
 6.528946841150000E9     5.584489091811404E-1   -6.177570958865410E-2   -8.087289902886619E-3   -3.192134671266861E-2   -8.858554057024917E-3   -3.163086605788232E-2    4.794005981935578E-1   -1.746547034755469E-1
 6.528957594000000E9     5.582340676548303E-1   -6.260262781223072E-2   -8.227249081666782E-3   -3.205987552869091E-2   -8.968254541608394E-3   -3.186479617940613E-2    4.792047286911635E-1   -1.755755312808640E-1
 6.528968346850000E9     5.581343626474893E-1   -6.351500205663950E-2   -8.281697758017275E-3   -3.218205328756234E-2   -9.074295074389836E-3   -3.195793762674250E-2    4.788356252473491E-1   -1.764317388881510E-1
 6.528979099700000E9     5.580927976242620E-1   -6.432393315117693E-2   -8.418975355998884E-3   -3.221175722585660E-2   -9.155252829948545E-3   -3.211677120952631E-2    4.780883829727927E-1   -1.775110089644144E-1
 6.528989852550000E9     5.580579613494727E-1   -6.529398271996639E-2   -8.548950727208220E-3   -3.254076146367275E-2   -9.208663782523753E-3   -3.219981309902455E-2    4.777647594706010E-1   -1.783071488223872E-1
 6.529000605400000E9     5.578258961578975E-1   -6.600515877379481E-2   -8.727805985436595E-3   -3.250686504970039E-2   -9.403662321837225E-3   -3.251525184069413E-2    4.775453428833508E-1   -1.793249517541141E-1
 6.529011358250000E9     5.577621490458056E-1   -6.697015759340415E-2   -8.941639117369745E-3   -3.275265297306670E-2   -9.515174384005624E-3   -3.256575039135097E-2    4.770340972472367E-1   -1.802029631544307E-1
 6.529022111100000E9     5.575876148648312E-1   -6.788242043438246E-2   -8.888172348170756E-3   -3.294493749963708E-2   -9.603100887358182E-3   -3.265265754735712E-2    4.767685562673728E-1   -1.813427156506951E-1
 6.529032863950000E9     5.574947317152805E-1   -6.865900456125897E-2   -8.958583873914145E-3   -3.316650089563645E-2   -9.746892233686138E-3   -3.292425540471221E-2    4.764389780992824E-1   -1.822617204103858E-1
 6.529043616800000E9     5.574530228268307E-1   -6.963705190909027E-2   -9.034605252329018E-3   -3.349717838122751E-2   -9.904317153314210E-3   -3.316059102893684E-2    4.758079264606185E-1   -1.830317751913524E-1
 6.529054369650000E9     5.573663977583534E-1   -7.056500895767838E-2   -9.206418881468632E-3   -3.349091580684461E-2   -9.877210705987152E-3   -3.331695732251053E-2    4.755444678959828E-1   -1.840663749814862E-1
 6.529065122500000E9     5.571120341780855E-1   -7.141252191961210E-2   -9.304342864515106E-3   -3.367452966794472E-2   -1.010977297188392E-2   -3.348985931668850E-2    4.749602054880596E-1   -1.851467019368692E-1
 6.529075875350000E9     5.570590917141562E-1   -7.236183371977252E-2   -9.566567905923298E-3   -3.372248462997631E-2   -1.020485526612451E-2   -3.362587110758394E-2    4.746082345495916E-1   -1.859116728542044E-1
 6.529086628200000E9     5.568976799974381E-1   -7.322986365859054E-2   -9.737623768415393E-3   -3.403971447500516E-2   -1.030070237348734E-2   -3.374725309836688E-2    4.742638491501395E-1   -1.867198928486068E-1
 6.529097381050000E9     5.568390918283962E-1   -7.413002480780689E-2   -9.782736345298346E-3   -3.416784836726225E-2   -1.044661338187571E-2   -3.400660199395367E-2    4.737211699516085E-1   -1.878130053255285E-1
 6.529108133900000E9     5.566409262101836E-1   -7.494537230319877E-2   -9.784094778502025E-3   -3.438091404589784E-2   -1.054587906767849E-2   -3.419341063364142E-2    4.733648193525791E-1   -1.887296402086855E-1
 6.529118886750000E9     5.565885780716169E-1   -7.581415989420831E-2   -1.000860127456595E-2   -3.453148610069573E-2   -1.081127770700295E-2   -3.430874444247033E-2    4.730624172877066E-1   -1.896362666657125E-1
 6.529129639600000E9     5.563993879455494E-1   -7.670408039141743E-2   -1.010566385218515E-2   -3.465667192558413E-2   -1.096169785990229E-2   -3.439364622860933E-2    4.725604340251337E-1   -1.905691253180478E-1
 6.529140392450000E9     5.562625383702168E-1   -7.759112735588851E-2   -1.020198591097432E-2   -3.483430326715009E-2   -1.102288241445605E-2   -3.469563473041996E-2    4.721507604718868E-1   -1.916106195728913E-1
 6.529151145300000E9     5.560826158225555E-1   -7.844052502663228E-2   -1.040608791844792E-2   -3.513648469430229E-2   -1.121928729478364E-2   -3.488283612136259E-2    4.717309510304950E-1   -1.925910367510575E-1
 6.529161898150000E9     5.558918198143236E-1   -7.936891531999968E-2   -1.055875602629238E-2   -3.521290480180281E-2   -1.121723987217823E-2   -3.510022049634699E-2    4.712316428554027E-1   -1.934848658325239E-1
 6.529172651000000E9     5.558385947210909E-1   -8.026119245549937E-2   -1.063464906473527E-2   -3.531350475208098E-2   -1.147809988754406E-2   -3.526711692286091E-2    4.707276521062114E-1   -1.944897554520261E-1
 6.529183403850000E9     5.557434578214360E-1   -8.106281218921178E-2   -1.082350755337180E-2   -3.562453094876174E-2   -1.161227787487616E-2   -3.543748285282406E-2    4.702640756836980E-1   -1.956677459050100E-1
 6.529194156700000E9     5.554903723913486E-1   -8.197175482373498E-2   -1.098611414583822E-2   -3.581465775612534E-2   -1.181960136962684E-2   -3.553103285627493E-2    4.698946154221749E-1   -1.964898539168064E-1
 6.529204909550000E9     5.554178784669490E-1   -8.285981249005224E-2   -1.116238396003433E-2   -3.603357547206842E-2   -1.193525474414974E-2   -3.578525015750842E-2    4.694221935993385E-1   -1.974614677062681E-1
 6.529215662400000E9     5.553218403851053E-1   -8.386260033206866E-2   -1.112317566715567E-2   -3.617157951351325E-2   -1.203259425620009E-2   -3.605552381747733E-2    4.688709581375575E-1   -1.985303034488353E-1
 6.529226415250000E9     5.550641982651707E-1   -8.476340082228358E-2   -1.132965915790285E-2   -3.646355501010988E-2   -1.217174116736993E-2   -3.619319728343089E-2    4.683151104223094E-1   -1.994633064436312E-1
 6.529237168100000E9     5.549304824017897E-1   -8.571924496337992E-2   -1.151907313184220E-2   -3.654689942183926E-2   -1.227422469519793E-2   -3.638763987913454E-2    4.677627097612069E-1   -2.004054780130183E-1
 6.529247920950000E9     5.547998873138481E-1   -8.645987648524255E-2   -1.171318724603759E-2   -3.693129995842172E-2   -1.245522754208042E-2   -3.663111729439610E-2    4.673532531108097E-1   -2.014909873626317E-1
 6.529258673800000E9     5.545308791744132E-1   -8.744012908470424E-2   -1.190678531480164E-2   -3.699904998208933E-2   -1.272473734107581E-2   -3.683957865683536E-2    4.669455083766094E-1   -2.024963465778335E-1
 6.529269426650000E9     5.544214209817845E-1   -8.832751233570380E-2   -1.201384264909406E-2   -3.725367043878753E-2   -1.275149782456594E-2   -3.698684879060105E-2    4.664007430562020E-1   -2.035249413384046E-1
 6.529280179500000E9     5.542101812317286E-1   -8.934702653786894E-2   -1.225391371210987E-2   -3.752280451110666E-2   -1.305421139142042E-2   -3.721783368475333E-2    4.658859994196774E-1   -2.044691512947986E-1
 6.529290932350000E9     5.540450329796677E-1   -9.014904714577854E-2   -1.238661894286695E-2   -3.775853316866880E-2   -1.321777668798616E-2   -3.749174684916189E-2    4.653063053233268E-1   -2.056050305885887E-1
 6.529301685200000E9     5.539388635128338E-1   -9.108905261341525E-2   -1.245640248044217E-2   -3.780238516219483E-2   -1.329288484917741E-2   -3.769844199984766E-2    4.647744204958336E-1   -2.065030490055652E-1
 6.529312438050000E9     5.537447949763044E-1   -9.195215952352338E-2   -1.283641140326281E-2   -3.801371466528273E-2   -1.355039967815952E-2   -3.785646073041168E-2    4.643333222248960E-1   -2.075510905017107E-1
 6.529323190900000E9     5.536572643912704E-1   -9.290986399283620E-2   -1.274876352895184E-2   -3.836605537143434E-2   -1.372899220854791E-2   -3.809338221330826E-2    4.639603153347119E-1   -2.085490393454745E-1
 6.529333943750000E9     5.534238399789532E-1   -9.387143081309716E-2   -1.300458626826272E-2   -3.848414854030863E-2   -1.384047779207824E-2   -3.833862209194541E-2    4.633417232434817E-1   -2.097744481819672E-1
 6.529344696600000E9     5.531932102369287E-1   -9.471229011604983E-2   -1.312488941912092E-2   -3.874177276047827E-2   -1.402923308922479E-2   -3.850308383362701E-2    4.628514229484623E-1   -2.105391946630442E-1
 6.529355449450000E9     5.531160871858912E-1   -9.562630430185062E-2   -1.335710420986472E-2   -3.903279686023427E-2   -1.416073507501983E-2   -3.879208476490650E-2    4.622005827579298E-1   -2.116440317556768E-1
 6.529366202300000E9     5.527429378315325E-1   -9.665572679729040E-2   -1.360688430951864E-2   -3.927206186075024E-2   -1.438133033193098E-2   -3.899375076554119E-2    4.617035044901851E-1   -2.126835100124292E-1
 6.529376955150000E9     5.527087970815284E-1   -9.741455490818676E-2   -1.378555356450302E-2   -3.960908635610342E-2   -1.466853793258284E-2   -3.922713780495182E-2    4.611269903166255E-1   -2.136642306731176E-1
 6.529387708000000E9     5.525100092006993E-1   -9.840856089122017E-2   -1.375068646581746E-2   -3.980516235174317E-2   -1.473777683963182E-2   -3.954534538539230E-2    4.604626287532739E-1   -2.147634214049379E-1
 6.529398460850000E9     5.522583342078040E-1   -9.930510967133088E-2   -1.418021007054856E-2   -3.979310730434685E-2   -1.506436443139862E-2   -3.971558835054578E-2    4.598417851811193E-1   -2.158974698115929E-1
 6.529409213700000E9     5.521227574060059E-1   -1.002692856052003E-1   -1.429534955385203E-2   -4.029374578308779E-2   -1.516957109397617E-2   -3.990228191617729E-2    4.593358804856180E-1   -2.168545888334981E-1
 6.529419966550000E9     5.518472598833695E-1   -1.011432663174566E-1   -1.448981222593806E-2   -4.054922974717648E-2   -1.550860828907767E-2   -4.027154361583288E-2    4.586918474504771E-1   -2.179573687066016E-1
 6.529430719400000E9     5.516226473254191E-1   -1.021244788234420E-1   -1.470498653783150E-2   -4.081233536606536E-2   -1.568414442437487E-2   -4.054952937165913E-2    4.582252652744545E-1   -2.189447822580451E-1
 6.529441472250000E9     5.514230582489044E-1   -1.029655709192768E-1   -1.476327110515693E-2   -4.101248815294953E-2   -1.581754211850658E-2   -4.070833733457542E-2    4.576235588596562E-1   -2.201873299181692E-1
 6.529452225100000E9     5.512706574184811E-1   -1.040385930944045E-1   -1.507190124496128E-2   -4.121986613759303E-2   -1.609996599541726E-2   -4.099100271973470E-2    4.569442610865921E-1   -2.210425820344966E-1
 6.529462977950000E9     5.510694561527468E-1   -1.049209383748098E-1   -1.537681479076575E-2   -4.147029085458036E-2   -1.629358936125946E-2   -4.124628702232948E-2    4.562665644009139E-1   -2.222841879135861E-1
 6.529473730800000E9     5.507734139113617E-1   -1.059077296599454E-1   -1.545982698434281E-2   -4.172472314074415E-2   -1.646352990781559E-2   -4.149468699175993E-2    4.556200705291860E-1   -2.233791343127189E-1
 6.529484483650000E9     5.505635751183384E-1   -1.068107067200166E-1   -1.573671830769878E-2   -4.205838809475747E-2   -1.662875693382609E-2   -4.176421591194719E-2    4.551578296090425E-1   -2.244825214001648E-1
 6.529495236500000E9     5.503660987724501E-1   -1.078032124957737E-1   -1.603280827583928E-2   -4.233180798722199E-2   -1.691783521385413E-2   -4.204825777712859E-2    4.545585094135756E-1   -2.257127977819522E-1
 6.529505989350000E9     5.502698283574604E-1   -1.086317644758624E-1   -1.609133743855517E-2   -4.264660623583825E-2   -1.712907371277626E-2   -4.235277477597183E-2    4.535920439532619E-1   -2.266304004999340E-1
 6.529516742200000E9     5.499626357527393E-1   -1.096108439630812E-1   -1.636022774453952E-2   -4.301036349824088E-2   -1.743686899262337E-2   -4.261283584750556E-2    4.530512073281689E-1   -2.278075068903975E-1
 6.529527495050000E9     5.496210598005924E-1   -1.105166521374713E-1   -1.676376125560093E-2   -4.305599733200965E-2   -1.763553281172638E-2   -4.275290877353543E-2    4.522971028119056E-1   -2.288168001169983E-1
 6.529538247900000E9     5.495458915521692E-1   -1.115450698123389E-1   -1.686007670955349E-2   -4.351366019670337E-2   -1.781866725384198E-2   -4.315770769513064E-2    4.516639345384206E-1   -2.300122670147575E-1
 6.529549000750000E9     5.493013630877842E-1   -1.125977835999578E-1   -1.719127361631636E-2   -4.374101182131322E-2   -1.812114289940422E-2   -4.345644423115121E-2    4.510486940983090E-1   -2.310980455053707E-1
 6.529559753600000E9     5.489727167584539E-1   -1.134765215276458E-1   -1.747940576727439E-2   -4.414465393834150E-2   -1.837116114220864E-2   -4.359618340400304E-2    4.501516134353075E-1   -2.320569863442798E-1
 6.529570506450000E9     5.487259105382439E-1   -1.143084346448840E-1   -1.757899558243812E-2   -4.427380457341207E-2   -1.865663859928544E-2   -4.395729500227876E-2    4.494925463440868E-1   -2.334040084851798E-1
 6.529581259300000E9     5.485972476675703E-1   -1.152817444031952E-1   -1.773156998358067E-2   -4.459441033102379E-2   -1.891111728208044E-2   -4.425313199932269E-2    4.489109906961455E-1   -2.344942780789420E-1
 6.529592012150000E9     5.482428202518130E-1   -1.163460080293472E-1   -1.822978105227336E-2   -4.502454394917732E-2   -1.920106835822310E-2   -4.456718379869328E-2    4.480843707194219E-1   -2.356831128921891E-1
 6.529602765000000E9     5.479856769219080E-1   -1.172268648799273E-1   -1.840140257558604E-2   -4.532274375649425E-2   -1.943898644510198E-2   -4.479484856722628E-2    4.473871483364246E-1   -2.366964244445491E-1
 6.529613517850000E9     5.477388400431925E-1   -1.183036057044150E-1   -1.864697393517759E-2   -4.550139104445570E-2   -1.975506891235553E-2   -4.516501822125488E-2    4.466616548017011E-1   -2.380981945443003E-1
 6.529624270700000E9     5.475179999065125E-1   -1.192010433428854E-1   -1.899632423344569E-2   -4.583047744587722E-2   -2.008892537601166E-2   -4.553989224673343E-2    4.458893535380085E-1   -2.392320379275438E-1
 6.529635023550000E9     5.471428079209516E-1   -1.201167676291889E-1   -1.915415327258814E-2   -4.626641916696330E-2   -2.041845780204977E-2   -4.577278892457863E-2    4.449600379485383E-1   -2.402904545112608E-1
 6.529645776400000E9     5.470634952029675E-1   -1.211152509131120E-1   -1.948762812590052E-2   -4.653104040275131E-2   -2.053184190544347E-2   -4.608716435525806E-2    4.442876435066080E-1   -2.414821698230950E-1
 6.529656529250000E9     5.468040282481047E-1   -1.222024038897367E-1   -1.972723940661737E-2   -4.676590947586729E-2   -2.087313402529343E-2   -4.642168978463410E-2    4.434205050129462E-1   -2.425728411073015E-1
 6.529667282100000E9     5.464310079403997E-1   -1.230129853486110E-1   -2.008063522089530E-2   -4.722892445235059E-2   -2.127870486296069E-2   -4.670855223272437E-2    4.425316247574229E-1   -2.437680555973910E-1
 6.529678034950000E9     5.460966874684010E-1   -1.240977737340753E-1   -2.041268987138270E-2   -4.740352776707810E-2   -2.155035145706446E-2   -4.713746165095202E-2    4.418023222581584E-1   -2.450755572778049E-1
 6.529688787800000E9     5.456288772884684E-1   -1.251521977770206E-1   -2.071800854312205E-2   -4.796807794653422E-2   -2.182238841489624E-2   -4.742867309059082E-2    4.410007951099742E-1   -2.461625069940654E-1
 6.529699540650000E9     5.454540390067003E-1   -1.260875999903147E-1   -2.119766182136291E-2   -4.816776662380126E-2   -2.224275954340707E-2   -4.773477989591871E-2    4.401345071988619E-1   -2.475575507761166E-1
 6.529710293500000E9     5.452744928836796E-1   -1.270992079167161E-1   -2.129824857145366E-2   -4.854947185491026E-2   -2.252911047587968E-2   -4.801706351874811E-2    4.394746237708582E-1   -2.487221326705930E-1
