#  HZ   S   RI   R     50.00 
! Rohde & Schwarz Vector Network Analyzer 
! Rohde-Schwarz,ZNB20-2Port,1311601062101988,3.16
! Created: UTC 3/21/2024, 1:03:07 AM
! freq[Hz]                re:S11                  im:S11                  re:S21                  im:S21                  re:S12                  im:S12                  re:S22                  im:S22
 6.528739976000000E9     5.601900270458227E-1   -4.510127016455967E-2   -6.325018121896796E-3   -2.906226740494057E-2   -6.870466340109574E-3   -2.907549752453886E-2    4.864907577459875E-1   -1.567737051210995E-1
 6.528750750800000E9     5.598826257423835E-1   -4.599475082343724E-2   -6.411205829993162E-3   -2.921011294654435E-2   -7.026971967307084E-3   -2.915651917962619E-2    4.861825743756956E-1   -1.577246012894295E-1
 6.528761525600000E9     5.600039795296665E-1   -4.682847627140468E-2   -6.583211730671512E-3   -2.931853204129650E-2   -7.104939578415466E-3   -2.927047947234668E-2    4.858698908672481E-1   -1.586507879631165E-1
 6.528772300400000E9     5.598789766175956E-1   -4.776051511134699E-2   -6.556954407332691E-3   -2.952090384439690E-2   -7.189659287709861E-3   -2.940930619120962E-2    4.854482408028996E-1   -1.594160180119539E-1
 6.528783075200000E9     5.597331281766252E-1   -4.851819208729365E-2   -6.692280394000871E-3   -2.963957414767678E-2   -7.190603036646919E-3   -2.946782370352905E-2    4.851929604920406E-1   -1.605193557039581E-1
 6.528793850000000E9     5.596688646272806E-1   -4.937295618822893E-2   -6.651531523371438E-3   -2.972300942632076E-2   -7.285792616770409E-3   -2.965659424474860E-2    4.849174017197070E-1   -1.613704689245671E-1
 6.528804624800000E9     5.596611717975127E-1   -5.026123905168123E-2   -6.722306920244743E-3   -2.979533384553483E-2   -7.452656166760712E-3   -2.970460209349283E-2    4.846844025508599E-1   -1.622043455493907E-1
 6.528815399600000E9     5.595795187476275E-1   -5.117384704145670E-2   -6.944651729106705E-3   -3.009863201045439E-2   -7.570236639910175E-3   -2.995979302555080E-2    4.842481035633739E-1   -1.631035076379493E-1
 6.528826174400000E9     5.593760879365148E-1   -5.201398834308463E-2   -7.166250622745855E-3   -3.011956461697859E-2   -7.672459859108422E-3   -3.000137205282541E-2    4.838880590365962E-1   -1.640081321463641E-1
 6.528836949200000E9     5.593986220292089E-1   -5.295365949027932E-2   -7.098279227317904E-3   -3.030256911591998E-2   -7.777793309511203E-3   -3.016850706161160E-2    4.834587246993476E-1   -1.649027059795317E-1
 6.528847724000000E9     5.591212822511381E-1   -5.364493501645143E-2   -7.224708444037714E-3   -3.054125594774328E-2   -7.825644411531361E-3   -3.033302390639202E-2    4.833197929353223E-1   -1.658182509437178E-1
 6.528858498800000E9     5.591623536490783E-1   -5.457850624488524E-2   -7.320172304572163E-3   -3.050441595841250E-2   -8.017027357155683E-3   -3.051537444228748E-2    4.827923669561041E-1   -1.667201096033983E-1
 6.528869273600000E9     5.591040765608922E-1   -5.545404272380808E-2   -7.360148626452873E-3   -3.073377433055475E-2   -8.084547979933184E-3   -3.058465841571172E-2    4.824645116960261E-1   -1.675251538258043E-1
 6.528880048400000E9     5.589974085838482E-1   -5.640963015628967E-2   -7.391241966451238E-3   -3.078303328530232E-2   -8.156852836429026E-3   -3.083011604348830E-2    4.821179106439910E-1   -1.685568196725754E-1
 6.528890823200000E9     5.589358478964560E-1   -5.727981606356207E-2   -7.650449595018522E-3   -3.096467654450894E-2   -8.207974996607243E-3   -3.083966428852519E-2    4.818798455393319E-1   -1.693970810035394E-1
 6.528901598000000E9     5.589287849903637E-1   -5.811569715305992E-2   -7.649978742243936E-3   -3.112249461030340E-2   -8.448058448493596E-3   -3.105477483340494E-2    4.813702774534789E-1   -1.703618101636430E-1
 6.528912372800000E9     5.587607344734852E-1   -5.897734411602115E-2   -7.865822889672174E-3   -3.133062233902825E-2   -8.527548362649575E-3   -3.116189148800331E-2    4.811937295571351E-1   -1.712493741294286E-1
 6.528923147600000E9     5.586654235201064E-1   -5.984920074463619E-2   -7.841860099756902E-3   -3.143022996169954E-2   -8.529008138472793E-3   -3.136330209757646E-2    4.807649794600731E-1   -1.721796523417662E-1
 6.528933922400000E9     5.586242448348566E-1   -6.061853453551987E-2   -7.995686360673205E-3   -3.166895832921130E-2   -8.729949072104171E-3   -3.149532231738340E-2    4.802836957605494E-1   -1.731455114010216E-1
 6.528944697200000E9     5.584635280410306E-1   -6.151119574097778E-2   -8.133777782615115E-3   -3.168514375462961E-2   -8.784992413961693E-3   -3.167002247729428E-2    4.800573703815648E-1   -1.740449641510498E-1
 6.528955472000000E9     5.583119742049080E-1   -6.247368097762053E-2   -8.279500430957378E-3   -3.188782673816568E-2   -8.924296219087717E-3   -3.178532912128364E-2    4.796221473600111E-1   -1.748956795346633E-1
 6.528966246800000E9     5.581042801494857E-1   -6.324058713962484E-2   -8.335015686716319E-3   -3.213015862099623E-2   -8.941736676069841E-3   -3.196305734601385E-2    4.792878550466567E-1   -1.759193897902847E-1
 6.528977021600000E9     5.580454022032610E-1   -6.411558716027513E-2   -8.420899749766005E-3   -3.224532209503837E-2   -9.113115233478557E-3   -3.222725211252958E-2    4.788022741624913E-1   -1.769268450084175E-1
 6.528987796400000E9     5.580511569125998E-1   -6.506279398380643E-2   -8.507625681764584E-3   -3.233301428161748E-2   -9.227413283660611E-3   -3.227012607477683E-2    4.783141449895698E-1   -1.777720337689343E-1
 6.528998571200000E9     5.577947434435409E-1   -6.597177839311301E-2   -8.619149149722500E-3   -3.251190932592374E-2   -9.332150927937445E-3   -3.249335092330341E-2    4.781411679327336E-1   -1.787175743782327E-1
 6.529009346000000E9     5.576837281091530E-1   -6.674092427058922E-2   -8.787938701825872E-3   -3.265241545700732E-2   -9.449167779822420E-3   -3.253608823649407E-2    4.776638090036014E-1   -1.796271215596406E-1
 6.529020120800000E9     5.576189383813380E-1   -6.766364787786218E-2   -8.892200977902330E-3   -3.287790044414208E-2   -9.527968847328124E-3   -3.273007466966306E-2    4.772023851728852E-1   -1.805337063831468E-1
 6.529030895600000E9     5.574590129555327E-1   -6.852354869653464E-2   -8.978724439992753E-3   -3.290398954750710E-2   -9.623920490120863E-3   -3.286606864470299E-2    4.769468154287264E-1   -1.814705895266181E-1
 6.529041670400000E9     5.574525201834325E-1   -6.937977399352258E-2   -9.151403349095887E-3   -3.322620433776923E-2   -9.773650566165354E-3   -3.308630817049070E-2    4.763613453181547E-1   -1.824293871466472E-1
 6.529052445200000E9     5.572832335474117E-1   -7.033353900919066E-2   -9.088392737415409E-3   -3.340696538986383E-2   -9.893562695043078E-3   -3.327974725511864E-2    4.760610532100724E-1   -1.834163685685964E-1
 6.529063220000000E9     5.571194357780543E-1   -7.114004184932145E-2   -9.332437882266474E-3   -3.349768569361371E-2   -9.995498352791083E-3   -3.333533900943965E-2    4.756976152576006E-1   -1.842810194286475E-1
 6.529073994800000E9     5.569594024532908E-1   -7.212052750221980E-2   -9.585569374248013E-3   -3.376559107493229E-2   -1.012301993903273E-2   -3.355536300262164E-2    4.753726743460386E-1   -1.853214627168038E-1
 6.529084769600000E9     5.569889963266537E-1   -7.290340534230640E-2   -9.518422981461591E-3   -3.399978094242340E-2   -1.034383215967468E-2   -3.367724091134309E-2    4.748833086478275E-1   -1.861925770746964E-1
 6.529095544400000E9     5.568168832457376E-1   -7.375780527181396E-2   -9.766338564554184E-3   -3.412100807344050E-2   -1.038423388641757E-2   -3.383340830596002E-2    4.743974751750620E-1   -1.871854728854302E-1
 6.529106319200000E9     5.567159972585858E-1   -7.474774098073596E-2   -9.830075671029320E-3   -3.430552081255657E-2   -1.059843812892589E-2   -3.413553325062045E-2    4.740746605217723E-1   -1.883751362079508E-1
 6.529117094000000E9     5.564688274683069E-1   -7.561353912447150E-2   -9.882765609019243E-3   -3.448937348113441E-2   -1.078475303669743E-2   -3.431134893210881E-2    4.735701555820820E-1   -1.891964217766978E-1
 6.529127868800000E9     5.565237653802307E-1   -7.650206471557003E-2   -1.015483152432616E-2   -3.447386870826833E-2   -1.083161214690230E-2   -3.444768074939904E-2    4.732231855547204E-1   -1.901891966166894E-1
 6.529138643600000E9     5.562421633671321E-1   -7.741097893298533E-2   -1.016383363049628E-2   -3.492823796793235E-2   -1.088850733142366E-2   -3.470994457021624E-2    4.726740717751538E-1   -1.909260740512631E-1
 6.529149418400000E9     5.561635123360132E-1   -7.818158524422605E-2   -1.016159703843146E-2   -3.496152081722499E-2   -1.109973193292583E-2   -3.485031428594833E-2    4.722081359736814E-1   -1.920210676988512E-1
 6.529160193200000E9     5.560180362575621E-1   -7.922836218529510E-2   -1.054730092052496E-2   -3.511864442583985E-2   -1.119532825491159E-2   -3.501239971558308E-2    4.718749187440445E-1   -1.930707918779590E-1
 6.529170968000000E9     5.557487193938749E-1   -8.005163946591813E-2   -1.074920881596797E-2   -3.542483279204620E-2   -1.141709750708684E-2   -3.521816621979001E-2    4.712369673252131E-1   -1.940113716822732E-1
 6.529181742800000E9     5.556904629722975E-1   -8.100069113019449E-2   -1.076145494321705E-2   -3.548641468235274E-2   -1.148822822432010E-2   -3.543000242165172E-2    4.708062903538695E-1   -1.950472757663586E-1
 6.529192517600000E9     5.554996162456743E-1   -8.177686774768429E-2   -1.094586115148795E-2   -3.581661793942604E-2   -1.165355340584112E-2   -3.556023723186047E-2    4.702715033932329E-1   -1.959512794118590E-1
 6.529203292400000E9     5.553035324023425E-1   -8.286190209546375E-2   -1.105555140202742E-2   -3.594543926459694E-2   -1.175433444495147E-2   -3.577935339603983E-2    4.698666572902666E-1   -1.969831110133256E-1
 6.529214067200000E9     5.552234327512928E-1   -8.363941730955005E-2   -1.123022377572329E-2   -3.617944357515447E-2   -1.193989070657639E-2   -3.595380245770237E-2    4.693555218852708E-1   -1.980609377892465E-1
 6.529224842000000E9     5.550325314727900E-1   -8.455034626964542E-2   -1.129738085818303E-2   -3.642491187983522E-2   -1.212003023486458E-2   -3.615979825896149E-2    4.688767905538972E-1   -1.988940306916415E-1
 6.529235616800000E9     5.549578305594690E-1   -8.544353054521990E-2   -1.141108334175247E-2   -3.655701975593893E-2   -1.224378236664854E-2   -3.637953515832008E-2    4.685522398751431E-1   -1.999124082661271E-1
 6.529246391600000E9     5.547428219013993E-1   -8.639423241366880E-2   -1.170268165891300E-2   -3.683700940701615E-2   -1.240764635042515E-2   -3.658105073706755E-2    4.681307583290344E-1   -2.008756450909804E-1
 6.529257166400000E9     5.546620423477482E-1   -8.720494055243759E-2   -1.196100855155588E-2   -3.702963589783405E-2   -1.264749010177553E-2   -3.673878567521795E-2    4.674801074714182E-1   -2.019236752794300E-1
 6.529267941200000E9     5.543435641843284E-1   -8.825208572071151E-2   -1.187782132517482E-2   -3.724992846984613E-2   -1.281555450069762E-2   -3.689155074956193E-2    4.670164549038208E-1   -2.029713939487731E-1
 6.529278716000000E9     5.541735779652460E-1   -8.907605167544419E-2   -1.217878062568854E-2   -3.730894947208292E-2   -1.292163671250995E-2   -3.715428258549328E-2    4.665424100467480E-1   -2.039122772705083E-1
 6.529289490800000E9     5.539944308162730E-1   -9.001019005345268E-2   -1.235093705025077E-2   -3.763264273953518E-2   -1.310770841400860E-2   -3.728375896457121E-2    4.659920531942529E-1   -2.049767661324797E-1
 6.529300265600000E9     5.538881143944387E-1   -9.080597157129371E-2   -1.239962568667487E-2   -3.788397455082886E-2   -1.322803221508977E-2   -3.761270974002141E-2    4.654170651178698E-1   -2.061002525756754E-1
 6.529311040400000E9     5.538314466173162E-1   -9.180345437825987E-2   -1.255288642693272E-2   -3.791337924950324E-2   -1.349531722262332E-2   -3.788489845846614E-2    4.650316165624668E-1   -2.071529274047534E-1
 6.529321815200000E9     5.535084089934159E-1   -9.267024582534655E-2   -1.284490329515328E-2   -3.820398051442767E-2   -1.361465457270493E-2   -3.806466370701778E-2    4.642993077830193E-1   -2.080939545715802E-1
 6.529332590000000E9     5.533471329930788E-1   -9.363035262242983E-2   -1.297815685008066E-2   -3.854298975538211E-2   -1.383746345623358E-2   -3.824454276215351E-2    4.637771101844733E-1   -2.090079986970195E-1
 6.529343364800000E9     5.532708598761065E-1   -9.453577625197244E-2   -1.306941287086815E-2   -3.879375930195829E-2   -1.397084931408672E-2   -3.846957600191885E-2    4.634337700446272E-1   -2.101484354220212E-1
 6.529354139600000E9     5.531047743821876E-1   -9.544775143509497E-2   -1.316935142016548E-2   -3.893754012128248E-2   -1.421044501841691E-2   -3.861644925896683E-2    4.627550215606561E-1   -2.111504683078651E-1
 6.529364914400000E9     5.528285820413610E-1   -9.636557981424991E-2   -1.355263504938117E-2   -3.934770543751292E-2   -1.436072560640181E-2   -3.896399974180184E-2    4.622203421408114E-1   -2.122859911789665E-1
 6.529375689200000E9     5.526629493598079E-1   -9.728078034916753E-2   -1.355574236114600E-2   -3.950358378138817E-2   -1.450137014829555E-2   -3.922174330205050E-2    4.616288727049878E-1   -2.131721585839914E-1
 6.529386464000000E9     5.523629913490139E-1   -9.815311792351190E-2   -1.380985767023209E-2   -3.961256604246852E-2   -1.466643590525561E-2   -3.939951410503290E-2    4.610805774849143E-1   -2.141551218594272E-1
 6.529397238800000E9     5.523043155497673E-1   -9.931469454524770E-2   -1.391797100437810E-2   -3.984914848798497E-2   -1.485169854294730E-2   -3.973670714607339E-2    4.606415838911676E-1   -2.153002694461753E-1
 6.529408013600000E9     5.520903612518171E-1   -1.001204427448864E-1   -1.426797971126796E-2   -4.010460392309743E-2   -1.517383200888032E-2   -3.986043170898612E-2    4.600423567685525E-1   -2.163707443551847E-1
 6.529418788400000E9     5.519287784940148E-1   -1.009504054210447E-1   -1.438366490106607E-2   -4.040773155821280E-2   -1.531724073675510E-2   -4.016296725321930E-2    4.593651729190570E-1   -2.175276350252374E-1
 6.529429563200000E9     5.517524857338847E-1   -1.019225258740103E-1   -1.454935057024546E-2   -4.063491665436222E-2   -1.555757395992673E-2   -4.041903169825810E-2    4.586709424202116E-1   -2.185927778728414E-1
 6.529440338000000E9     5.515082796946917E-1   -1.028679417135602E-1   -1.491494399102237E-2   -4.098730277649706E-2   -1.582243421677390E-2   -4.064173468454010E-2    4.581340688035494E-1   -2.195369271853157E-1
 6.529451112800000E9     5.512742968825884E-1   -1.037678760170526E-1   -1.500426739634225E-2   -4.111780253935709E-2   -1.595172479579150E-2   -4.085944140967148E-2    4.573499188599316E-1   -2.207406879521269E-1
 6.529461887600000E9     5.510453909820361E-1   -1.048076329844341E-1   -1.525677674483102E-2   -4.144451514220420E-2   -1.621651584947673E-2   -4.115022775956288E-2    4.567259760240593E-1   -2.217938904401426E-1
 6.529472662400000E9     5.508527177460558E-1   -1.057515184670937E-1   -1.545348246932761E-2   -4.165036818256951E-2   -1.640665183126791E-2   -4.141336671849048E-2    4.562020922708167E-1   -2.228334896156603E-1
 6.529483437200000E9     5.506307415455356E-1   -1.066066784011205E-1   -1.564865155705120E-2   -4.186366093047542E-2   -1.658295858924985E-2   -4.158569169114640E-2    4.555986387978295E-1   -2.241000850491054E-1
 6.529494212000000E9     5.504601840907989E-1   -1.076065736057450E-1   -1.598628607516133E-2   -4.234238018068825E-2   -1.687218684980858E-2   -4.196452060189673E-2    4.550442224094059E-1   -2.250381240528931E-1
 6.529504986800000E9     5.501550244828330E-1   -1.086334183167136E-1   -1.615249984251016E-2   -4.250138732442574E-2   -1.705104810173000E-2   -4.227905218038165E-2    4.543527717573451E-1   -2.261414555797000E-1
 6.529515761600000E9     5.499247414127105E-1   -1.094331365349629E-1   -1.632980634849850E-2   -4.285669465417932E-2   -1.735819887568425E-2   -4.245256217126382E-2    4.537720083677976E-1   -2.273202822992903E-1
 6.529526536400000E9     5.497663916186645E-1   -1.103993408933607E-1   -1.658462944296109E-2   -4.312770392213222E-2   -1.751091588822646E-2   -4.280738447888502E-2    4.529198728494116E-1   -2.283635020408628E-1
 6.529537311200000E9     5.494177038471318E-1   -1.113575850703130E-1   -1.693933514781677E-2   -4.329180353537687E-2   -1.781787201075334E-2   -4.300016848609976E-2    4.523711183727004E-1   -2.295629401263073E-1
 6.529548086000000E9     5.492382299435301E-1   -1.123279353558792E-1   -1.691901800154670E-2   -4.366507587291079E-2   -1.806045345766759E-2   -4.321923146070341E-2    4.515741066986625E-1   -2.305451343295379E-1
 6.529558860800000E9     5.490697573167761E-1   -1.132657913069766E-1   -1.730854907013017E-2   -4.399883676315855E-2   -1.831967769016550E-2   -4.365444861888210E-2    4.509498275070428E-1   -2.316701276428206E-1
 6.529569635600000E9     5.487921369916848E-1   -1.142968145662839E-1   -1.747194053241949E-2   -4.425247570352805E-2   -1.861514520215349E-2   -4.392392885533650E-2    4.501061803574870E-1   -2.329440582405919E-1
 6.529580410400000E9     5.485792887204626E-1   -1.153034585254308E-1   -1.776506385083384E-2   -4.445161995983142E-2   -1.888151083917639E-2   -4.433184478618129E-2    4.496513833986499E-1   -2.341289539016033E-1
 6.529591185200000E9     5.481814496135899E-1   -1.160478460139411E-1   -1.816535723411247E-2   -4.495212061145536E-2   -1.904320196760153E-2   -4.450346385251485E-2    4.487635129806482E-1   -2.352370392235486E-1
 6.529601960000000E9     5.480440311415546E-1   -1.171299236016688E-1   -1.838380088663048E-2   -4.533446215470092E-2   -1.940076266162595E-2   -4.486317222553287E-2    4.481223693922372E-1   -2.364006067374120E-1
 6.529612734800000E9     5.477213396470122E-1   -1.180384213851915E-1   -1.845873369544932E-2   -4.546418275333584E-2   -1.964171137985611E-2   -4.508836197214140E-2    4.472249682970627E-1   -2.374409103158117E-1
 6.529623509600000E9     5.474643086180674E-1   -1.190869811506801E-1   -1.872936390680612E-2   -4.578851303271077E-2   -1.998682617679923E-2   -4.538335366468953E-2    4.464979838158679E-1   -2.388108409476494E-1
 6.529634284400000E9     5.472055914015098E-1   -1.200320439921683E-1   -1.894756226245238E-2   -4.624798317957705E-2   -2.030620889612262E-2   -4.574166182080063E-2    4.457248519180234E-1   -2.397044200265529E-1
 6.529645059200000E9     5.469800073185006E-1   -1.210007564697814E-1   -1.941849282428394E-2   -4.646289334887767E-2   -2.058964260065974E-2   -4.609939723555539E-2    4.449484652467011E-1   -2.410797512723912E-1
 6.529655834000000E9     5.466171465957507E-1   -1.221138523246050E-1   -1.974473194985901E-2   -4.690914907716981E-2   -2.085321867013814E-2   -4.636040033711725E-2    4.441339778369648E-1   -2.423794891494648E-1
 6.529666608800000E9     5.464026472542739E-1   -1.229461930930376E-1   -2.012965178638361E-2   -4.713829889342136E-2   -2.112951898712529E-2   -4.673340106281122E-2    4.432978728343578E-1   -2.433468709732857E-1
 6.529677383600000E9     5.461888595683428E-1   -1.239707279056676E-1   -2.035142225611711E-2   -4.761234162424228E-2   -2.152020394200341E-2   -4.697947806153428E-2    4.424248688142926E-1   -2.446021291523376E-1
 6.529688158400000E9     5.458455796436592E-1   -1.250620804653229E-1   -2.069057537963806E-2   -4.776478827428886E-2   -2.170476070428114E-2   -4.747898341531485E-2    4.417482037713836E-1   -2.458723033789232E-1
 6.529698933200000E9     5.454944115367987E-1   -1.258297803158271E-1   -2.090645759376413E-2   -4.819514853461732E-2   -2.224383586521006E-2   -4.771736019406694E-2    4.407809069029662E-1   -2.470477900682148E-1
 6.529709708000000E9     5.451718271290177E-1   -1.269443848927976E-1   -2.146125788372108E-2   -4.850098990528716E-2   -2.242129413515774E-2   -4.801690715783166E-2    4.399729748200600E-1   -2.481897841112650E-1
