#  HZ   S   RI   R     50.00 
! Rohde & Schwarz Vector Network Analyzer 
! Rohde-Schwarz,ZNB20-2Port,1311601062101988,3.16
! Created: UTC 3/21/2024, 1:04:02 AM
! freq[Hz]                re:S11                  im:S11                  re:S21                  im:S21                  re:S12                  im:S12                  re:S22                  im:S22
 6.528727109000000E9     5.599590294388005E-1   -4.368500850616543E-2   -6.059836314781183E-3   -2.884588992979866E-2   -6.631679347214983E-3   -2.887228505495290E-2    4.949294475767140E-1   -1.496810971116130E-1
 6.528738003850000E9     5.599508768564668E-1   -4.464221272123114E-2   -6.038320275988358E-3   -2.904171250047842E-2   -6.745238384527754E-3   -2.901381100761085E-2    4.946574374393392E-1   -1.503327356288376E-1
 6.528748898700000E9     5.597877657575452E-1   -4.552904781351581E-2   -6.183588057460160E-3   -2.920813695638459E-2   -6.724654449548232E-3   -2.906867194922091E-2    4.944715531552029E-1   -1.513773530814566E-1
 6.528759793550000E9     5.597572537312762E-1   -4.627169541841652E-2   -6.375450335822377E-3   -2.929726309546055E-2   -6.946971694517024E-3   -2.926522626635769E-2    4.942509790517863E-1   -1.522259440631649E-1
 6.528770688400000E9     5.596830470499232E-1   -4.710670460946733E-2   -6.210881947171400E-3   -2.946633462808772E-2   -6.920768119942173E-3   -2.935811281148856E-2    4.938745706860361E-1   -1.533172018535234E-1
 6.528781583250000E9     5.596965903948258E-1   -4.800723956499264E-2   -6.440484555042822E-3   -2.963629069898079E-2   -7.009678597999778E-3   -2.950859684455593E-2    4.936104313239459E-1   -1.540499619259094E-1
 6.528792478100000E9     5.596159426589933E-1   -4.890524607192830E-2   -6.451543763632523E-3   -2.966970912684606E-2   -7.217159880582382E-3   -2.965718300793006E-2    4.931263148958929E-1   -1.550292412095768E-1
 6.528803372950000E9     5.594074467397675E-1   -4.980362309479017E-2   -6.679058880767870E-3   -2.996182200691853E-2   -7.176087125286686E-3   -2.978376874824758E-2    4.927618017373580E-1   -1.559456425010591E-1
 6.528814267800000E9     5.593832851019237E-1   -5.057811846169478E-2   -6.775568745957926E-3   -2.992148746148900E-2   -7.305265760664603E-3   -2.989446224196529E-2    4.925468115603966E-1   -1.567965088940790E-1
 6.528825162650000E9     5.593431487914193E-1   -5.151005872285055E-2   -6.847879130832183E-3   -3.017722933122101E-2   -7.506286771098366E-3   -3.006878981755045E-2    4.922160589775636E-1   -1.576961725517367E-1
 6.528836057500000E9     5.592161673066605E-1   -5.241067363780911E-2   -6.762398127361862E-3   -3.031359173504912E-2   -7.497276780383325E-3   -3.011602391543829E-2    4.917511797350314E-1   -1.587868498740730E-1
 6.528846952350000E9     5.592283349770873E-1   -5.321692919210798E-2   -7.027171862525250E-3   -3.049217141587433E-2   -7.561611738127150E-3   -3.037708118603487E-2    4.915165809555813E-1   -1.596430940372828E-1
 6.528857847200000E9     5.590200329036713E-1   -5.418856011194514E-2   -7.016445350468183E-3   -3.056868012808791E-2   -7.629741935080175E-3   -3.043988265063401E-2    4.911818918707491E-1   -1.605421136069851E-1
 6.528868742050000E9     5.590077533971701E-1   -5.506155890308969E-2   -7.306049195701139E-3   -3.073169698016637E-2   -7.826817985026881E-3   -3.066219193749961E-2    4.909637900611769E-1   -1.614334160960072E-1
 6.528879636900000E9     5.587404368590919E-1   -5.600577883449730E-2   -7.332190730814781E-3   -3.084243330806286E-2   -7.841338610482026E-3   -3.081396878075746E-2    4.904947888870735E-1   -1.623569945195219E-1
 6.528890531750000E9     5.587952075637539E-1   -5.679200790288975E-2   -7.387300114261597E-3   -3.098592335051916E-2   -7.992117146008183E-3   -3.091823605974696E-2    4.902596464977550E-1   -1.634851492131432E-1
 6.528901426600000E9     5.587637257222456E-1   -5.766908690361411E-2   -7.591489880785736E-3   -3.108072635922248E-2   -8.100621497817701E-3   -3.113085454405681E-2    4.899361927440283E-1   -1.643891248879228E-1
 6.528912321450000E9     5.585273357733820E-1   -5.849609570248181E-2   -7.660507330221136E-3   -3.131105688092249E-2   -8.252088199006025E-3   -3.115063177852758E-2    4.894595134332593E-1   -1.653212726400062E-1
 6.528923216300000E9     5.584841628970123E-1   -5.934665663065376E-2   -7.682106287816886E-3   -3.139336869994081E-2   -8.318871324574872E-3   -3.146719275958586E-2    4.890169229084976E-1   -1.661679714032263E-1
 6.528934111150000E9     5.583667213675273E-1   -6.025550148528856E-2   -7.808841936074738E-3   -3.154918122909119E-2   -8.418851409275618E-3   -3.152308251233518E-2    4.888528804423566E-1   -1.671885638657958E-1
 6.528945006000000E9     5.583573685199362E-1   -6.113715079403486E-2   -8.021577846632880E-3   -3.183129319061930E-2   -8.582222998101284E-3   -3.164113203887552E-2    4.884142720443607E-1   -1.681008401696075E-1
 6.528955900850000E9     5.580906424609405E-1   -6.200950383873351E-2   -7.941496958352667E-3   -3.190243273452608E-2   -8.620714323727449E-3   -3.177343528388383E-2    4.880575893823291E-1   -1.689769574955744E-1
 6.528966795700000E9     5.580817035480528E-1   -6.292997952564880E-2   -8.064625368370104E-3   -3.196938542088491E-2   -8.823257397889145E-3   -3.192036847567523E-2    4.875502385914830E-1   -1.699442922703008E-1
 6.528977690550000E9     5.579865775872975E-1   -6.370455485830084E-2   -8.210805859902600E-3   -3.222095607623023E-2   -8.821976210266919E-3   -3.212408980229283E-2    4.872601133139999E-1   -1.708823254281309E-1
 6.528988585400000E9     5.577592040012529E-1   -6.454523691530188E-2   -8.310865216548084E-3   -3.231919095962323E-2   -8.976060086452721E-3   -3.223532886646235E-2    4.870276690042141E-1   -1.718960701444966E-1
 6.528999480250000E9     5.576492910889045E-1   -6.554271138127661E-2   -8.523283118483776E-3   -3.261735445745867E-2   -9.100239071741845E-3   -3.239839575606869E-2    4.864635161311951E-1   -1.728441016851801E-1
 6.529010375100000E9     5.575023929507688E-1   -6.638392444504242E-2   -8.410842846854212E-3   -3.278686356752225E-2   -9.154734442996474E-3   -3.253048901124581E-2    4.861444193386218E-1   -1.737595035528256E-1
 6.529021269950000E9     5.574986017200442E-1   -6.734235766847817E-2   -8.633624547428727E-3   -3.292759222678802E-2   -9.308838221905438E-3   -3.274597976738943E-2    4.858130289800243E-1   -1.747407068829536E-1
 6.529032164800000E9     5.574590473841989E-1   -6.818050467771229E-2   -8.716658202075678E-3   -3.297368497153193E-2   -9.503674102389923E-3   -3.285627653229476E-2    4.853315522115534E-1   -1.757640795291165E-1
 6.529043059650000E9     5.572048057679435E-1   -6.910777733902558E-2   -8.875561896993877E-3   -3.316864634378809E-2   -9.522129148549214E-3   -3.305385754718838E-2    4.851077635657877E-1   -1.767075870223485E-1
 6.529053954500000E9     5.571924836706217E-1   -7.001246117744554E-2   -9.008685081088571E-3   -3.328765379437235E-2   -9.738810889363124E-3   -3.322823297551131E-2    4.847283212295373E-1   -1.776368576486378E-1
 6.529064849350000E9     5.570042289367242E-1   -7.085740329234720E-2   -9.135165528347276E-3   -3.349653404117021E-2   -9.890190797186756E-3   -3.340694497120445E-2    4.842544417444057E-1   -1.786487139000080E-1
 6.529075744200000E9     5.569372885337119E-1   -7.176440487864615E-2   -9.313408856142565E-3   -3.375028389805312E-2   -1.001898622547342E-2   -3.355874651375469E-2    4.838853132693425E-1   -1.796348602098166E-1
 6.529086639050000E9     5.567977481829389E-1   -7.253215433832007E-2   -9.374701239386019E-3   -3.377105842994557E-2   -1.005207344674998E-2   -3.368258098681993E-2    4.831843729136442E-1   -1.804381459197906E-1
 6.529097533900000E9     5.566366415026692E-1   -7.368294966881345E-2   -9.476878916688187E-3   -3.420997948806333E-2   -1.009571806698317E-2   -3.388883284049463E-2    4.828788263728002E-1   -1.816724403465420E-1
 6.529108428750000E9     5.564855720046527E-1   -7.440466634548756E-2   -9.498024816145733E-3   -3.424489044350509E-2   -1.029166824154244E-2   -3.419905279866786E-2    4.826713923211989E-1   -1.826178298913133E-1
 6.529119323600000E9     5.563727350036310E-1   -7.525484325128094E-2   -9.693830172262075E-3   -3.441492691511655E-2   -1.047156040077291E-2   -3.433200040151139E-2    4.821030331799245E-1   -1.835235136738025E-1
 6.529130218450000E9     5.562257731218491E-1   -7.626841764223075E-2   -9.957634947693982E-3   -3.452899362500920E-2   -1.065278140845752E-2   -3.443458662876685E-2    4.815954870919231E-1   -1.845946546609225E-1
 6.529141113300000E9     5.561442813616767E-1   -7.715267579175937E-2   -1.005018433380546E-2   -3.482141437973605E-2   -1.060398643138829E-2   -3.476226349307114E-2    4.813564695242293E-1   -1.854186939570301E-1
 6.529152008150000E9     5.560104724227860E-1   -7.797741979244911E-2   -1.008442101552195E-2   -3.492245542415593E-2   -1.086585282778834E-2   -3.492516194595410E-2    4.808228808180752E-1   -1.863980017160425E-1
 6.529162903000000E9     5.557590812584715E-1   -7.904919564168644E-2   -1.016665180635943E-2   -3.530277968590390E-2   -1.110348889961033E-2   -3.509196874888929E-2    4.803734490141496E-1   -1.875771666843710E-1
 6.529173797850000E9     5.557171204831038E-1   -7.981004932878083E-2   -1.045408478368790E-2   -3.526056593892934E-2   -1.113228910494660E-2   -3.523902539563090E-2    4.798851721705329E-1   -1.885924596394136E-1
 6.529184692700000E9     5.554748943573015E-1   -8.080412674253024E-2   -1.048435902175341E-2   -3.554978609526314E-2   -1.130883018496605E-2   -3.543701471358581E-2    4.795503965745636E-1   -1.895932505182027E-1
 6.529195587550000E9     5.553247972023913E-1   -8.169887706889124E-2   -1.077069418045351E-2   -3.574645196827088E-2   -1.144266462910147E-2   -3.564780662240915E-2    4.789346731201418E-1   -1.904587353664359E-1
 6.529206482400000E9     5.551281122996838E-1   -8.251384071973396E-2   -1.073800462358152E-2   -3.598216184400051E-2   -1.164105175279648E-2   -3.576158144621121E-2    4.785492966798848E-1   -1.914880075770387E-1
 6.529217377250000E9     5.550590528967181E-1   -8.347336831542396E-2   -1.097919362954358E-2   -3.619940568995666E-2   -1.164934867563861E-2   -3.600670813789292E-2    4.781684219058029E-1   -1.925414771077175E-1
 6.529228272100000E9     5.549827838418421E-1   -8.431512646437332E-2   -1.114339548303018E-2   -3.640534786627989E-2   -1.189116456322502E-2   -3.621032528526614E-2    4.775837077074724E-1   -1.935791788191890E-1
 6.529239166950000E9     5.547805816446310E-1   -8.531815302918092E-2   -1.124550495945499E-2   -3.661750798510317E-2   -1.202187014651775E-2   -3.639770905258218E-2    4.771270436647752E-1   -1.945296707747755E-1
 6.529250061800000E9     5.545374639540745E-1   -8.617280173459757E-2   -1.141874127334220E-2   -3.699538493056138E-2   -1.226311954682911E-2   -3.666133780495589E-2    4.766269452010071E-1   -1.955227806212023E-1
 6.529260956650000E9     5.545213389977190E-1   -8.720184596421175E-2   -1.164946751185810E-2   -3.709829505194744E-2   -1.229241705908910E-2   -3.681487723311454E-2    4.760753405531710E-1   -1.967479272023477E-1
 6.529271851500000E9     5.541835810841274E-1   -8.803388958718270E-2   -1.175196304568341E-2   -3.721653193725320E-2   -1.256677169451458E-2   -3.702622386197800E-2    4.755792887968369E-1   -1.975808014692212E-1
 6.529282746350000E9     5.541729885990457E-1   -8.897042707140934E-2   -1.191318604272283E-2   -3.741218524516672E-2   -1.274241942804794E-2   -3.719341705530275E-2    4.751814019749769E-1   -1.988300017077167E-1
 6.529293641200000E9     5.540569568645811E-1   -8.987124156914120E-2   -1.218152596498622E-2   -3.769738592229897E-2   -1.284558310525707E-2   -3.747547090397792E-2    4.747593163982877E-1   -1.997602912964871E-1
 6.529304536050000E9     5.537169644224558E-1   -9.065177375379850E-2   -1.219727199251103E-2   -3.787717864422210E-2   -1.306553121521200E-2   -3.771559682649740E-2    4.741093152643952E-1   -2.007262089305264E-1
 6.529315430900000E9     5.535988929222144E-1   -9.167498658323678E-2   -1.247326352689302E-2   -3.815291170902711E-2   -1.317731354742254E-2   -3.785065891820937E-2    4.736988704547403E-1   -2.018861821391970E-1
 6.529326325750000E9     5.533852329189353E-1   -9.260448538230104E-2   -1.258257201678257E-2   -3.835444186767372E-2   -1.336130457799291E-2   -3.799729789021146E-2    4.730293076844922E-1   -2.028386667467297E-1
 6.529337220600000E9     5.532103876694745E-1   -9.345051022330196E-2   -1.269555841022589E-2   -3.854790215119747E-2   -1.359412606681226E-2   -3.840084865203094E-2    4.725544224943551E-1   -2.039256970402927E-1
 6.529348115450000E9     5.529882121071131E-1   -9.448023095617032E-2   -1.298758126732112E-2   -3.880770925856431E-2   -1.372836933589073E-2   -3.860497781403723E-2    4.720207362271380E-1   -2.048082165772935E-1
 6.529359010300000E9     5.528411796048822E-1   -9.544434356308490E-2   -1.318792656504570E-2   -3.888313172720954E-2   -1.394226506867788E-2   -3.868532074733028E-2    4.715819476758361E-1   -2.059932204235512E-1
 6.529369905150000E9     5.526002175736077E-1   -9.631035365882577E-2   -1.320827208938831E-2   -3.932279984329427E-2   -1.412770925490934E-2   -3.900156691348840E-2    4.709928736989870E-1   -2.071482268709069E-1
 6.529380800000000E9     5.524569963448301E-1   -9.724634383503185E-2   -1.345120883225769E-2   -3.947561181188722E-2   -1.429071010944190E-2   -3.924281373504563E-2    4.704620292839958E-1   -2.082425125381156E-1
 6.529391694850000E9     5.523370433652556E-1   -9.817439582190089E-2   -1.349543544901123E-2   -3.961095123079980E-2   -1.453318230742015E-2   -3.955167885219583E-2    4.696136920410929E-1   -2.092764728971012E-1
 6.529402589700000E9     5.520359004371620E-1   -9.900713852177265E-2   -1.390814144220042E-2   -4.010202361751951E-2   -1.468222831686067E-2   -3.973581973452069E-2    4.692869973149465E-1   -2.103444729653914E-1
 6.529413484550000E9     5.518865363633734E-1   -1.000512789043997E-1   -1.403032037209318E-2   -4.012551888930662E-2   -1.494568376700712E-2   -4.001063443058077E-2    4.686517264958070E-1   -2.114789146870940E-1
 6.529424379400000E9     5.516392753556719E-1   -1.010080427242645E-1   -1.432263594565313E-2   -4.052955901694055E-2   -1.514174190549622E-2   -4.025528664079087E-2    4.680697300276708E-1   -2.125301795380254E-1
 6.529435274250000E9     5.514663574622677E-1   -1.019736510112220E-1   -1.440150894976952E-2   -4.070237442183049E-2   -1.527842661196134E-2   -4.042513538518536E-2    4.674688605451108E-1   -2.136846903888037E-1
 6.529446169100000E9     5.513056057208245E-1   -1.028413546423647E-1   -1.455482145415905E-2   -4.095962603883933E-2   -1.552198704966350E-2   -4.070379838032066E-2    4.668944747008733E-1   -2.147169436490681E-1
 6.529457063950000E9     5.511115675385159E-1   -1.037445795551612E-1   -1.472041731398455E-2   -4.122296719647036E-2   -1.571721557475424E-2   -4.098789068542159E-2    4.662761939823671E-1   -2.157679238779545E-1
 6.529467958800000E9     5.509132815873331E-1   -1.046771682758272E-1   -1.507331926376622E-2   -4.155715854792832E-2   -1.591132817167811E-2   -4.126233283635772E-2    4.655156794225377E-1   -2.170489112598152E-1
 6.529478853650000E9     5.507325256616563E-1   -1.057115286407529E-1   -1.524687913900705E-2   -4.183011175091304E-2   -1.622589927684672E-2   -4.148899907405636E-2    4.649663985114065E-1   -2.181654690823862E-1
 6.529489748500000E9     5.503644669278004E-1   -1.066027082877740E-1   -1.544976429222726E-2   -4.195387057896905E-2   -1.644779562246321E-2   -4.176996014587901E-2    4.644933489619545E-1   -2.194210970780983E-1
 6.529500643350000E9     5.502785563194399E-1   -1.076263499150949E-1   -1.563122943741783E-2   -4.229201947985704E-2   -1.663617953948940E-2   -4.216453380081825E-2    4.637793991342595E-1   -2.202891460581806E-1
 6.529511538200000E9     5.500348179788819E-1   -1.084876798957353E-1   -1.595375309420073E-2   -4.253232905910958E-2   -1.676772448380430E-2   -4.227268937342386E-2    4.632955519408224E-1   -2.214102947847111E-1
 6.529522433050000E9     5.497123606260694E-1   -1.095138207271663E-1   -1.612299155863927E-2   -4.286147932586200E-2   -1.703814929306621E-2   -4.263363817804148E-2    4.624259436534573E-1   -2.225755494275115E-1
 6.529533327900000E9     5.494313503827579E-1   -1.104041726364980E-1   -1.642735188370168E-2   -4.315658157181324E-2   -1.737400212988455E-2   -4.294007146888191E-2    4.618098313514151E-1   -2.236236011270939E-1
 6.529544222750000E9     5.492229826332869E-1   -1.113626482054623E-1   -1.669825827926946E-2   -4.347382820908823E-2   -1.756366297133740E-2   -4.313895123906537E-2    4.612135994975852E-1   -2.248885225980471E-1
 6.529555117600000E9     5.490768070366374E-1   -1.123820242916081E-1   -1.693560298767856E-2   -4.377292450527751E-2   -1.784551196368645E-2   -4.346109816344616E-2    4.602748665316595E-1   -2.259040318856191E-1
 6.529566012450000E9     5.487441915528564E-1   -1.133871396685459E-1   -1.711261097972872E-2   -4.410991418818815E-2   -1.805299775990514E-2   -4.379931962799508E-2    4.597434077924847E-1   -2.272355687500623E-1
 6.529576907300000E9     5.485225134625580E-1   -1.143262614918073E-1   -1.743299252254674E-2   -4.439734713822809E-2   -1.832750674730382E-2   -4.406825198229927E-2    4.588679680754912E-1   -2.283343730020011E-1
 6.529587802150000E9     5.482457684969524E-1   -1.153202894281863E-1   -1.760591591689793E-2   -4.470446417469695E-2   -1.861685041589115E-2   -4.428382187580968E-2    4.583616853963439E-1   -2.295812174002472E-1
 6.529598697000000E9     5.479514260677359E-1   -1.162239962164347E-1   -1.784854688872320E-2   -4.494345032835616E-2   -1.886574769201523E-2   -4.467708265302692E-2    4.574284597564064E-1   -2.308015419390399E-1
 6.529609591850000E9     5.478361238275385E-1   -1.172515856273862E-1   -1.818673161915695E-2   -4.541959989239099E-2   -1.911560698909351E-2   -4.490153909839258E-2    4.568611151615031E-1   -2.319208677882291E-1
 6.529620486700000E9     5.475541641700363E-1   -1.181578423697768E-1   -1.846067402210599E-2   -4.562929296731802E-2   -1.951381904923330E-2   -4.518716278429212E-2    4.560851271514695E-1   -2.328890075104183E-1
 6.529631381550000E9     5.471322343883696E-1   -1.191844059922914E-1   -1.867901141367037E-2   -4.592441567567265E-2   -1.983566998914018E-2   -4.560189444968655E-2    4.554517902587905E-1   -2.343964836447830E-1
 6.529642276400000E9     5.470033527247538E-1   -1.202050479728379E-1   -1.904995122177147E-2   -4.640495867122237E-2   -1.996184097344856E-2   -4.587883854975339E-2    4.545159529172200E-1   -2.355390934214099E-1
 6.529653171250000E9     5.467585344537828E-1   -1.211920481412793E-1   -1.927647947554044E-2   -4.668391334076145E-2   -2.029065129745369E-2   -4.621873327262144E-2    4.536507326029589E-1   -2.366630666372335E-1
 6.529664066100000E9     5.463643557380792E-1   -1.221128337201965E-1   -1.952431294976739E-2   -4.679984967614736E-2   -2.056597812057089E-2   -4.661994376705842E-2    4.529070202611782E-1   -2.379875985126416E-1
 6.529674960950000E9     5.461720827872413E-1   -1.231839387489918E-1   -1.998172669171030E-2   -4.733456295588244E-2   -2.090511965174961E-2   -4.684205996048388E-2    4.521921511105591E-1   -2.392055346630036E-1
 6.529685855800000E9     5.458303015837839E-1   -1.241169559830095E-1   -2.004779839575579E-2   -4.761407080006962E-2   -2.124036256558585E-2   -4.719996590124808E-2    4.511971364956230E-1   -2.404099971653049E-1
 6.529696750650000E9     5.455632062048495E-1   -1.251679025860743E-1   -2.040685979842525E-2   -4.795068418769859E-2   -2.156627647154704E-2   -4.757774462681685E-2    4.503485687914208E-1   -2.416286305283114E-1
 6.529707645500000E9     5.452380775051008E-1   -1.261230018152927E-1   -2.079476789499464E-2   -4.827556827747895E-2   -2.190454915249005E-2   -4.788381980605327E-2    4.496943616238523E-1   -2.429755711361179E-1
