#  HZ   S   RI   R     50.00 
! Rohde & Schwarz Vector Network Analyzer 
! Rohde-Schwarz,ZNB20-2Port,1311601062101988,3.16
! Created: UTC 3/21/2024, 1:04:26 AM
! freq[Hz]                re:S11                  im:S11                  re:S21                  im:S21                  re:S12                  im:S12                  re:S22                  im:S22
 6.528721354000000E9     5.600655952933766E-1   -4.302598996325497E-2   -5.942531373696046E-3   -2.893147806929447E-2   -6.401127911670568E-3   -2.882345004968373E-2    4.983150658012784E-1   -1.478561470163780E-1
 6.528732302600000E9     5.600379502379633E-1   -4.384927225729032E-2   -6.194305445103181E-3   -2.907490335269952E-2   -6.551844218116750E-3   -2.886703813860288E-2    4.980038224832669E-1   -1.487945890686888E-1
 6.528743251200000E9     5.599024666855064E-1   -4.483461044541519E-2   -6.064225195334416E-3   -2.915040862810055E-2   -6.729632191007934E-3   -2.909764856965714E-2    4.975583409151616E-1   -1.496852811810526E-1
 6.528754199800000E9     5.597925434413147E-1   -4.554661522334174E-2   -6.047186850755065E-3   -2.929027169378511E-2   -6.805682784818239E-3   -2.913604342936192E-2    4.973930084113994E-1   -1.506906646824867E-1
 6.528765148400000E9     5.596435053887251E-1   -4.652219758496644E-2   -6.215901675369437E-3   -2.939268248318044E-2   -6.749433433504350E-3   -2.928228554390101E-2    4.970652826625598E-1   -1.513982880989831E-1
 6.528776097000000E9     5.596339576784447E-1   -4.738576783316167E-2   -6.421048630314454E-3   -2.955383742253265E-2   -6.970084051913105E-3   -2.938902286924255E-2    4.967141632736677E-1   -1.524281880482591E-1
 6.528787045600000E9     5.595876526100050E-1   -4.829010496389016E-2   -6.303535458587647E-3   -2.965469611022649E-2   -6.929532663414029E-3   -2.947557151311249E-2    4.964982460768345E-1   -1.533423512903019E-1
 6.528797994200000E9     5.594506141568633E-1   -4.908814422072896E-2   -6.568075278863176E-3   -2.973006538832181E-2   -7.173466717413791E-3   -2.971757600744206E-2    4.959685484906797E-1   -1.544107298463339E-1
 6.528808942800000E9     5.593270951948597E-1   -5.003916608585530E-2   -6.580593640138344E-3   -2.998396175205432E-2   -7.282145869754666E-3   -2.982942152935632E-2    4.957446872228430E-1   -1.551601981148607E-1
 6.528819891400000E9     5.592397640978218E-1   -5.086827238746618E-2   -6.813711517866497E-3   -3.001386530426154E-2   -7.287219342271227E-3   -2.996962139786667E-2    4.955811169662685E-1   -1.561365439699561E-1
 6.528830840000000E9     5.592016422588501E-1   -5.171660099492458E-2   -6.818252631394277E-3   -3.026435170924670E-2   -7.389587799478312E-3   -3.009280482414771E-2    4.950306147794183E-1   -1.571252414814342E-1
 6.528841788600000E9     5.591588793852814E-1   -5.260477165890166E-2   -6.963016136502453E-3   -3.028946148200679E-2   -7.549712256669870E-3   -3.028569735875622E-2    4.948855359869286E-1   -1.580859266846843E-1
 6.528852737200000E9     5.591491172191988E-1   -5.342453882202816E-2   -6.934617074887918E-3   -3.055182180967420E-2   -7.659366133980878E-3   -3.032764549373696E-2    4.944070638494871E-1   -1.590279612721141E-1
 6.528863685800000E9     5.589452141838881E-1   -5.438383243176696E-2   -7.082066252105512E-3   -3.068212784702706E-2   -7.634396156740884E-3   -3.058835208956998E-2    4.940976358927690E-1   -1.600070134136199E-1
 6.528874634400000E9     5.588623821955994E-1   -5.522339654701207E-2   -7.186276868521912E-3   -3.064458798390863E-2   -7.739668923033777E-3   -3.064930591679561E-2    4.937390846789096E-1   -1.608438851894662E-1
 6.528885583000000E9     5.587642372685896E-1   -5.615655663093837E-2   -7.279293280323871E-3   -3.093782276978823E-2   -7.861446325326586E-3   -3.079852008009337E-2    4.934596652956637E-1   -1.617240464153790E-1
 6.528896531600000E9     5.586470628048926E-1   -5.703684305218812E-2   -7.352197392462974E-3   -3.118798289952035E-2   -8.015232969259694E-3   -3.101721410202014E-2    4.931823939647179E-1   -1.626105246169557E-1
 6.528907480200000E9     5.586199698144357E-1   -5.781270237426676E-2   -7.515250297631861E-3   -3.123426978263671E-2   -7.995743202792727E-3   -3.115903001736173E-2    4.929630671388019E-1   -1.638899191212727E-1
 6.528918428800000E9     5.585473338689356E-1   -5.872722599932612E-2   -7.549130575399168E-3   -3.133436583445169E-2   -8.160900459047151E-3   -3.127092916952649E-2    4.922550130570125E-1   -1.646953290943139E-1
 6.528929377400000E9     5.583791526419845E-1   -5.970888324965835E-2   -7.644079828025336E-3   -3.159076196263984E-2   -8.274502450890737E-3   -3.140241568530241E-2    4.921014278443543E-1   -1.656150983194178E-1
 6.528940326000000E9     5.582569749934385E-1   -6.043415181430115E-2   -7.704646380525529E-3   -3.172390663240982E-2   -8.416333869980816E-3   -3.158202666290077E-2    4.916025377246669E-1   -1.663949381527422E-1
 6.528951274600000E9     5.581269955772437E-1   -6.144802194722878E-2   -7.942302695260875E-3   -3.183187753856227E-2   -8.412153868361420E-3   -3.176386785204362E-2    4.914556153342509E-1   -1.675364101068318E-1
 6.528962223200000E9     5.580747360507063E-1   -6.217642519387345E-2   -7.874571705328516E-3   -3.217846143623987E-2   -8.576478269702309E-3   -3.188388667369572E-2    4.911514803114981E-1   -1.684667722160328E-1
 6.528973171800000E9     5.580027358383326E-1   -6.322077684207011E-2   -8.100658106051192E-3   -3.217064664346098E-2   -8.784114017046513E-3   -3.200663239790491E-2    4.906435706834112E-1   -1.695388264463159E-1
 6.528984120400000E9     5.578089587764739E-1   -6.408823231724624E-2   -8.182488469075586E-3   -3.234674944685025E-2   -8.915039679483101E-3   -3.218942877919365E-2    4.902094531087631E-1   -1.704290216057687E-1
 6.528995069000000E9     5.576174687905894E-1   -6.496991490308666E-2   -8.323944566597177E-3   -3.246472414682190E-2   -8.877149194127165E-3   -3.231060663109860E-2    4.900009337715822E-1   -1.713332393693537E-1
 6.529006017600000E9     5.576490930876706E-1   -6.581636937886021E-2   -8.374512959566961E-3   -3.250091753175995E-2   -9.090374070339174E-3   -3.251576515359596E-2    4.894704505329461E-1   -1.722326181899673E-1
 6.529016966200000E9     5.576085693998291E-1   -6.673903794866447E-2   -8.434956379390303E-3   -3.280916127805659E-2   -9.152744395712982E-3   -3.270679167894513E-2    4.890886367230698E-1   -1.732961586970969E-1
 6.529027914800000E9     5.575049158954838E-1   -6.763247803771845E-2   -8.794444198629802E-3   -3.298730644873874E-2   -9.347464278598724E-3   -3.292456458921927E-2    4.887176953458348E-1   -1.742978851043086E-1
 6.529038863400000E9     5.573675236118451E-1   -6.859526153678495E-2   -8.842991352998972E-3   -3.314166419315030E-2   -9.502941770330944E-3   -3.306881465584022E-2    4.884936767601185E-1   -1.752988101396226E-1
 6.529049812000000E9     5.572002053958307E-1   -6.950322649249410E-2   -8.826048466416363E-3   -3.336707708728412E-2   -9.549350094973584E-3   -3.318863043040925E-2    4.880094651562163E-1   -1.761207063039386E-1
 6.529060760600000E9     5.571080060208896E-1   -7.037062688618964E-2   -8.993484840640628E-3   -3.353777505123968E-2   -9.750305387251738E-3   -3.336282328889317E-2    4.874975348955146E-1   -1.772686002087888E-1
 6.529071709200000E9     5.568898348049308E-1   -7.120428383423395E-2   -9.096147235725268E-3   -3.364444600411538E-2   -9.822571996061649E-3   -3.351747710291383E-2    4.871526903228112E-1   -1.780970257630932E-1
 6.529082657800000E9     5.569686009196307E-1   -7.214695014670547E-2   -9.275166186865481E-3   -3.384346874899996E-2   -9.919912793061883E-3   -3.372989034807389E-2    4.866799420134582E-1   -1.790716835440929E-1
 6.529093606400000E9     5.566638342350881E-1   -7.308472657258946E-2   -9.464851943835678E-3   -3.404163284848129E-2   -9.922788170868538E-3   -3.383892841543251E-2    4.864158650576279E-1   -1.801192892363444E-1
 6.529104555000000E9     5.565118149028738E-1   -7.387972459399644E-2   -9.413000535445472E-3   -3.423674498152068E-2   -1.014153517530628E-2   -3.412467193700694E-2    4.858240056275552E-1   -1.810688844342420E-1
 6.529115503600000E9     5.563715363439452E-1   -7.486994937884961E-2   -9.621678974400361E-3   -3.434543661937789E-2   -1.034517636370536E-2   -3.417500284914320E-2    4.855114253118786E-1   -1.821402452054517E-1
 6.529126452200000E9     5.562147083528982E-1   -7.571779080826450E-2   -9.721959490906767E-3   -3.448089365774254E-2   -1.036344961660303E-2   -3.447055024620149E-2    4.850082118464981E-1   -1.830486489009016E-1
 6.529137400800000E9     5.560589425804053E-1   -7.667167566336575E-2   -9.896759229176646E-3   -3.470546865046053E-2   -1.063287763569262E-2   -3.446723359985181E-2    4.846193166737657E-1   -1.840636942898136E-1
 6.529148349400000E9     5.559779783241514E-1   -7.747929539571315E-2   -9.962941505910507E-3   -3.499550824899727E-2   -1.079391482590717E-2   -3.476795836944797E-2    4.842185555582698E-1   -1.851849866557037E-1
 6.529159298000000E9     5.558293043391741E-1   -7.840649349953074E-2   -1.017744473294815E-2   -3.515829145533820E-2   -1.086877188043483E-2   -3.505575253519304E-2    4.837825040010488E-1   -1.861941520795088E-1
 6.529170246600000E9     5.555982346636543E-1   -7.933330734151395E-2   -1.033625442682363E-2   -3.539937125167001E-2   -1.109184207032749E-2   -3.523359660818704E-2    4.833631196029123E-1   -1.871449368473259E-1
 6.529181195200000E9     5.556348932718506E-1   -8.022424411452060E-2   -1.049922924516094E-2   -3.561215479573682E-2   -1.125053729935661E-2   -3.543766544978866E-2    4.829816746198258E-1   -1.880938679604233E-1
 6.529192143800000E9     5.554037371941908E-1   -8.111336534953778E-2   -1.052742743223259E-2   -3.573893659858648E-2   -1.135431430562831E-2   -3.555918364632164E-2    4.824640190362961E-1   -1.891510140806024E-1
 6.529203092400000E9     5.552206489747520E-1   -8.210371897849097E-2   -1.086426531587424E-2   -3.590930297102726E-2   -1.155389599203533E-2   -3.576000842242303E-2    4.819071333661208E-1   -1.902809084325787E-1
 6.529214041000000E9     5.551777188104541E-1   -8.292027714664155E-2   -1.094527911634015E-2   -3.611786347984969E-2   -1.171474831918194E-2   -3.595246698552202E-2    4.815275836519229E-1   -1.912963807852377E-1
 6.529224989600000E9     5.549946967029122E-1   -8.385077933129960E-2   -1.100299457504920E-2   -3.626695309260982E-2   -1.179320410555450E-2   -3.608448477973895E-2    4.810363892343963E-1   -1.921692411477701E-1
 6.529235938200000E9     5.547696484180974E-1   -8.489860404338508E-2   -1.115986506387526E-2   -3.646443256889845E-2   -1.188801165967630E-2   -3.636100308919762E-2    4.805025910176299E-1   -1.932632018084759E-1
 6.529246886800000E9     5.547548400957157E-1   -8.569371080961966E-2   -1.136557794082322E-2   -3.673238859768184E-2   -1.199880402594331E-2   -3.656573487854801E-2    4.799971779274895E-1   -1.943580466571843E-1
 6.529257835400000E9     5.545988019155608E-1   -8.660843124682564E-2   -1.146208236868455E-2   -3.711171516023423E-2   -1.224263727311941E-2   -3.671670881333557E-2    4.795997688225055E-1   -1.953961375963784E-1
 6.529268784000000E9     5.542597125081458E-1   -8.746778478256520E-2   -1.167877303211151E-2   -3.717736055231123E-2   -1.241972889470649E-2   -3.698202448862759E-2    4.791116296346431E-1   -1.963652523066733E-1
 6.529279732600000E9     5.541348766728530E-1   -8.843362704236468E-2   -1.181097557728948E-2   -3.731788550468032E-2   -1.259795470443531E-2   -3.720766480088821E-2    4.785832136673693E-1   -1.973669321024274E-1
 6.529290681200000E9     5.540064222187034E-1   -8.933975509218403E-2   -1.205763809333479E-2   -3.755586263422783E-2   -1.276702742600436E-2   -3.748335765434063E-2    4.780715353549788E-1   -1.983451241340903E-1
 6.529301629800000E9     5.537513837002819E-1   -9.032030209650929E-2   -1.210572856837145E-2   -3.782892316291112E-2   -1.299647854574193E-2   -3.759278133970941E-2    4.774392994420258E-1   -1.996285848176250E-1
 6.529312578400000E9     5.535919911794104E-1   -9.105737245002848E-2   -1.226804269502253E-2   -3.804885296100591E-2   -1.310927589103018E-2   -3.781234879482915E-2    4.770139601760353E-1   -2.005473641892901E-1
 6.529323527000000E9     5.534134826377938E-1   -9.208458008754912E-2   -1.242908502803061E-2   -3.812888675792142E-2   -1.334500724846152E-2   -3.810519834702380E-2    4.764273733896882E-1   -2.014502193707218E-1
 6.529334475600000E9     5.531674314365238E-1   -9.310096562035559E-2   -1.267938304901746E-2   -3.855128621354496E-2   -1.350405295300795E-2   -3.830333041214538E-2    4.758637222218758E-1   -2.027549160159047E-1
 6.529345424200000E9     5.530497539148231E-1   -9.410842504112460E-2   -1.271626143532366E-2   -3.876096725148926E-2   -1.356550083668200E-2   -3.846787254496185E-2    4.755319663938399E-1   -2.038123477552820E-1
 6.529356372800000E9     5.527909825545865E-1   -9.496782733007988E-2   -1.306859260541625E-2   -3.882983703705544E-2   -1.380491527103530E-2   -3.879021454565439E-2    4.749516826017429E-1   -2.048731885897253E-1
 6.529367321400000E9     5.528044530833698E-1   -9.581636358955606E-2   -1.314810964866334E-2   -3.925658898331968E-2   -1.394702909925610E-2   -3.896108970991219E-2    4.743576812930572E-1   -2.058608874103788E-1
 6.529378270000000E9     5.524284663552971E-1   -9.686011216086138E-2   -1.332984878643836E-2   -3.945693522441567E-2   -1.422746591997678E-2   -3.919575138453481E-2    4.738407836352214E-1   -2.070126068836979E-1
 6.529389218600000E9     5.522941485586288E-1   -9.775055502409410E-2   -1.354194560745249E-2   -3.967049624705004E-2   -1.441634973384354E-2   -3.946739044069651E-2    4.732444303987221E-1   -2.081101287046716E-1
 6.529400167200000E9     5.521229599040149E-1   -9.871035938635402E-2   -1.373819814264486E-2   -3.992282446804888E-2   -1.457193170877421E-2   -3.970567187450694E-2    4.728082014312908E-1   -2.092264094622248E-1
 6.529411115800000E9     5.519424797722733E-1   -9.964195940457324E-2   -1.391147324624584E-2   -4.012431675299986E-2   -1.471771553799155E-2   -4.001683328018218E-2    4.720924794644403E-1   -2.103049638321442E-1
 6.529422064400000E9     5.517471795520817E-1   -1.005706328301454E-1   -1.409150087429952E-2   -4.039632174648295E-2   -1.502067517147248E-2   -4.022495607611895E-2    4.715490950648080E-1   -2.113697188244890E-1
 6.529433013000000E9     5.515247800162266E-1   -1.014377746984431E-1   -1.435311517210097E-2   -4.062748745029281E-2   -1.520098357775127E-2   -4.041415131672525E-2    4.708827898182145E-1   -2.124654123533878E-1
 6.529443961600000E9     5.512844940852036E-1   -1.023957505321638E-1   -1.452074050593155E-2   -4.088220519068669E-2   -1.541874303550808E-2   -4.071376819178922E-2    4.702346818957915E-1   -2.135115588272952E-1
 6.529454910200000E9     5.510588392754068E-1   -1.034196064890285E-1   -1.479281494179622E-2   -4.128780976577495E-2   -1.553554729090151E-2   -4.095896890330226E-2    4.699329403572455E-1   -2.148473901896530E-1
 6.529465858800000E9     5.509153884206025E-1   -1.042724917679455E-1   -1.474567908821608E-2   -4.148420557705036E-2   -1.581118005690866E-2   -4.122510891298731E-2    4.690383045158256E-1   -2.159088327364896E-1
 6.529476807400000E9     5.506570043680838E-1   -1.053332168649767E-1   -1.516762005272413E-2   -4.173822980375015E-2   -1.590185476232446E-2   -4.142178704040817E-2    4.684895791123944E-1   -2.169689922074950E-1
 6.529487756000000E9     5.504827935870581E-1   -1.062153899626926E-1   -1.527296256377307E-2   -4.200557924088972E-2   -1.621352097295816E-2   -4.166165812752345E-2    4.678845050039319E-1   -2.181413197889580E-1
 6.529498704600000E9     5.501349073458487E-1   -1.072303467142004E-1   -1.557451438066615E-2   -4.225340752027053E-2   -1.653660845082652E-2   -4.195036512480464E-2    4.672742605522195E-1   -2.191245393290185E-1
 6.529509653200000E9     5.500438440557307E-1   -1.081514983846509E-1   -1.573807286245898E-2   -4.249208456694805E-2   -1.674126639497447E-2   -4.225118160891523E-2    4.666780245703191E-1   -2.203206625918078E-1
 6.529520601800000E9     5.498268278571417E-1   -1.090585592556634E-1   -1.589002743679606E-2   -4.282872879395016E-2   -1.693331514234809E-2   -4.250108063441160E-2    4.659628761435527E-1   -2.214757495853141E-1
 6.529531550400000E9     5.495218902679290E-1   -1.101546362748695E-1   -1.617226977751867E-2   -4.322690156263614E-2   -1.720220960273717E-2   -4.278581528503871E-2    4.654590755208501E-1   -2.227031111244676E-1
 6.529542499000000E9     5.492402626567295E-1   -1.111243062015726E-1   -1.647049612975305E-2   -4.333856706718257E-2   -1.740569004933062E-2   -4.303642076290309E-2    4.645057159599420E-1   -2.237869923311737E-1
 6.529553447600000E9     5.490844788640447E-1   -1.119478448901374E-1   -1.679523519743187E-2   -4.377738957650021E-2   -1.769818492140477E-2   -4.334498212037680E-2    4.639837573880115E-1   -2.249618280182758E-1
 6.529564396200000E9     5.488289447251091E-1   -1.130041999632206E-1   -1.691651687683881E-2   -4.397158823743590E-2   -1.808433995118581E-2   -4.361773712155673E-2    4.631827755277951E-1   -2.260224672309326E-1
 6.529575344800000E9     5.486656581958239E-1   -1.139311561342010E-1   -1.732227945401888E-2   -4.432933670887269E-2   -1.820330081315848E-2   -4.404088027850035E-2    4.625277878132396E-1   -2.274376520810011E-1
 6.529586293400000E9     5.484401632252937E-1   -1.148858521430819E-1   -1.750149667575362E-2   -4.448252646782267E-2   -1.845109513400358E-2   -4.420638742445671E-2    4.616749540604585E-1   -2.282396941774170E-1
 6.529597242000000E9     5.480626386464120E-1   -1.159161324901573E-1   -1.789846697467720E-2   -4.492080488970183E-2   -1.876427733930865E-2   -4.451885087900151E-2    4.610260742426799E-1   -2.296757393809677E-1
 6.529608190600000E9     5.477328302416673E-1   -1.168375187778231E-1   -1.793511449851558E-2   -4.508984851614795E-2   -1.898117384959842E-2   -4.488516848618234E-2    4.604704788605545E-1   -2.309553170318167E-1
 6.529619139200000E9     5.476083892507824E-1   -1.179051512878908E-1   -1.829108001542020E-2   -4.549855405036087E-2   -1.921395981161500E-2   -4.522171543070842E-2    4.594939348628906E-1   -2.321460524192843E-1
 6.529630087800000E9     5.472552011087276E-1   -1.188675366206031E-1   -1.848476336255145E-2   -4.589452400121285E-2   -1.956303410549622E-2   -4.553932342360229E-2    4.587538177229176E-1   -2.333056840780987E-1
 6.529641036400000E9     5.469365165603003E-1   -1.197570361065737E-1   -1.876268408695883E-2   -4.627315136167687E-2   -1.987708782173453E-2   -4.580753177618060E-2    4.580141417409904E-1   -2.345139578446347E-1
 6.529651985000000E9     5.466602714594656E-1   -1.207125204984504E-1   -1.915289143095918E-2   -4.653828759495545E-2   -2.023008981401673E-2   -4.617271908940217E-2    4.572862367973659E-1   -2.358808682070691E-1
 6.529662933600000E9     5.463606593178131E-1   -1.217607134333867E-1   -1.940807963331866E-2   -4.681842559357310E-2   -2.054534293584967E-2   -4.650359676034981E-2    4.565288545325982E-1   -2.368670147203448E-1
 6.529673882200000E9     5.461743024097543E-1   -1.228371501347576E-1   -1.967174653106545E-2   -4.704058519892775E-2   -2.073405562248866E-2   -4.680419941774625E-2    4.556975119872941E-1   -2.382341518149433E-1
 6.529684830800000E9     5.458519907737239E-1   -1.237468625193782E-1   -1.996867765841156E-2   -4.746769951898784E-2   -2.108865581752374E-2   -4.716768310143059E-2    4.548862447175188E-1   -2.394873536513273E-1
 6.529695779400000E9     5.456276045460621E-1   -1.248175455747418E-1   -2.034797616209643E-2   -4.787856910074096E-2   -2.138123079960763E-2   -4.748011059881260E-2    4.540415751996024E-1   -2.406020966046145E-1
 6.529706728000000E9     5.453496118033473E-1   -1.257482915289181E-1   -2.059320081555369E-2   -4.827273751372007E-2   -2.183605465172012E-2   -4.785411362292034E-2    4.531740955735585E-1   -2.420950511729253E-1
