#  HZ   S   RI   R     50.00 
! Rohde & Schwarz Vector Network Analyzer 
! Rohde-Schwarz,ZNB20-2Port,1311601062101988,3.16
! Created: UTC 3/21/2024, 1:04:28 AM
! freq[Hz]                re:S11                  im:S11                  re:S21                  im:S21                  re:S12                  im:S12                  re:S22                  im:S22
 6.528715720000000E9     5.600531875125221E-1   -4.259614420354962E-2   -5.804110705105514E-3   -2.877155529409013E-2   -6.407666465623617E-3   -2.873598393649988E-2    4.986560163955409E-1   -1.471838985720867E-1
 6.528726699175000E9     5.599643265392731E-1   -4.354572259910908E-2   -5.927007638963336E-3   -2.897740081809088E-2   -6.567525598608130E-3   -2.889691164075277E-2    4.982309675694157E-1   -1.482888164700379E-1
 6.528737678350000E9     5.598879378513286E-1   -4.429701253385868E-2   -6.025957331480866E-3   -2.916524606844511E-2   -6.639810460266709E-3   -2.910047689909106E-2    4.980139083369729E-1   -1.492104168883268E-1
 6.528748657525000E9     5.598639226208196E-1   -4.519435246562130E-2   -6.167505050779802E-3   -2.923956737424151E-2   -6.765332194957809E-3   -2.911852795032205E-2    4.976496201851335E-1   -1.499965233869769E-1
 6.528759636700000E9     5.597874393770091E-1   -4.605473423965652E-2   -6.154821084345197E-3   -2.930519766635160E-2   -6.773916633025203E-3   -2.921382128805108E-2    4.973325348887860E-1   -1.509441447506747E-1
 6.528770615875000E9     5.597052942658542E-1   -4.678434182282454E-2   -6.170415562086950E-3   -2.945890274903535E-2   -6.923344970813121E-3   -2.933720730779195E-2    4.970532675933436E-1   -1.519340109474413E-1
 6.528781595050000E9     5.596205837119826E-1   -4.786306434194407E-2   -6.443750957044858E-3   -2.959098897917319E-2   -7.030523693560724E-3   -2.943030964507710E-2    4.968855345194050E-1   -1.527981031192568E-1
 6.528792574225000E9     5.594087564294618E-1   -4.878699322979669E-2   -6.605541028102238E-3   -2.973399684169447E-2   -7.015194445588006E-3   -2.973234907468391E-2    4.962924942111247E-1   -1.536809599669351E-1
 6.528803553400000E9     5.594828776218093E-1   -4.946447077806215E-2   -6.522508236133708E-3   -2.982888397498436E-2   -7.127460185616678E-3   -2.984071760768205E-2    4.962099309127981E-1   -1.547429396813419E-1
 6.528814532575000E9     5.594503336541714E-1   -5.043558011267946E-2   -6.661492568423817E-3   -3.004224158648418E-2   -7.295253102481500E-3   -2.988977527867588E-2    4.959741295737424E-1   -1.555685263809235E-1
 6.528825511750000E9     5.592942413159656E-1   -5.127132386743452E-2   -6.813457862108067E-3   -3.025631243549025E-2   -7.387818862688309E-3   -3.008561255373018E-2    4.955782905452050E-1   -1.563732349807367E-1
 6.528836490925000E9     5.591139744159453E-1   -5.219473929080782E-2   -6.926550377557771E-3   -3.025349232158548E-2   -7.471983966373387E-3   -3.016704755675633E-2    4.951807853607979E-1   -1.574748164751682E-1
 6.528847470100000E9     5.591459995494467E-1   -5.301981551905343E-2   -7.026482601541034E-3   -3.047554309873399E-2   -7.498045451327660E-3   -3.032241232265636E-2    4.949564371479123E-1   -1.583822243073085E-1
 6.528858449275000E9     5.590852719917309E-1   -5.390681206343902E-2   -7.033848256636529E-3   -3.062041095138365E-2   -7.595262912312639E-3   -3.050165772292476E-2    4.945726625612069E-1   -1.592383970400276E-1
 6.528869428450000E9     5.588862343010627E-1   -5.484096011487737E-2   -7.218930467284867E-3   -3.069940071417464E-2   -7.743690130272888E-3   -3.065530186689063E-2    4.941824003715040E-1   -1.602953163964920E-1
 6.528880407625000E9     5.586829234544158E-1   -5.564402661903665E-2   -7.189912576630507E-3   -3.091301388768454E-2   -7.965490707007907E-3   -3.073640768550295E-2    4.938770176408938E-1   -1.612010976535732E-1
 6.528891386800000E9     5.587036223882949E-1   -5.646916355993942E-2   -7.291939914651274E-3   -3.097183562381862E-2   -7.977383522428636E-3   -3.085280731829905E-2    4.935213965437576E-1   -1.622484389235456E-1
 6.528902365975000E9     5.585857058535967E-1   -5.744616311901422E-2   -7.399198702220220E-3   -3.111973530991482E-2   -8.046900399849932E-3   -3.103058599772973E-2    4.930956618978269E-1   -1.630670093949118E-1
 6.528913345150000E9     5.586131195252110E-1   -5.834016685727417E-2   -7.502975615712722E-3   -3.139108740699990E-2   -8.110237954286996E-3   -3.124185305699119E-2    4.928016490602045E-1   -1.642319512103873E-1
 6.528924324325000E9     5.584654695625383E-1   -5.921819151498829E-2   -7.704874422350925E-3   -3.148478386894837E-2   -8.275330150140803E-3   -3.129254927625257E-2    4.923788313680653E-1   -1.651222674070777E-1
 6.528935303500000E9     5.583536526294371E-1   -6.008433264849733E-2   -7.687562056373552E-3   -3.159899778742192E-2   -8.374284523637450E-3   -3.154552532397450E-2    4.921037689155041E-1   -1.658475943221708E-1
 6.528946282675000E9     5.581971635871099E-1   -6.091168215574110E-2   -7.898139284681839E-3   -3.174186051437596E-2   -8.484623564120462E-3   -3.168317639691886E-2    4.917236594808181E-1   -1.668844708576610E-1
 6.528957261850000E9     5.581150158909277E-1   -6.184811205134023E-2   -8.017232036494947E-3   -3.198034799164096E-2   -8.582582405159488E-3   -3.179829821339791E-2    4.913305601525959E-1   -1.679889167340066E-1
 6.528968241025000E9     5.581253626916115E-1   -6.268742931152685E-2   -8.014431387703034E-3   -3.211087957377730E-2   -8.749040942077473E-3   -3.193601287221198E-2    4.911093418726298E-1   -1.688724220056836E-1
 6.528979220200000E9     5.580121101056797E-1   -6.372463512162231E-2   -8.177454889120120E-3   -3.229597078933558E-2   -8.795055559759719E-3   -3.203224475510664E-2    4.906219445616982E-1   -1.697892803671140E-1
 6.528990199375000E9     5.577637675831300E-1   -6.444569094048591E-2   -8.258636784037618E-3   -3.239342397532107E-2   -8.893163769431490E-3   -3.232430262540176E-2    4.902548414057344E-1   -1.708553851273171E-1
 6.529001178550000E9     5.576914276934614E-1   -6.541095459013324E-2   -8.351420704143032E-3   -3.255378758410915E-2   -9.058368270948466E-3   -3.241416528002765E-2    4.898036905298317E-1   -1.718547939738405E-1
 6.529012157725000E9     5.575365779170204E-1   -6.638256874956493E-2   -8.395289182446223E-3   -3.281995746045874E-2   -9.184801290753507E-3   -3.264194031766290E-2    4.895540941075762E-1   -1.727783082135985E-1
 6.529023136900000E9     5.574681683330674E-1   -6.728682358717228E-2   -8.583407131350673E-3   -3.292829702771550E-2   -9.241434442181770E-3   -3.284842579359046E-2    4.891049417719110E-1   -1.736287029761915E-1
 6.529034116075000E9     5.573266208767569E-1   -6.806188619018291E-2   -8.638079050925583E-3   -3.308036636035475E-2   -9.388054488826687E-3   -3.294559552355401E-2    4.888077562459338E-1   -1.746906040039177E-1
 6.529045095250000E9     5.572028998491007E-1   -6.891215317686794E-2   -8.830029299322433E-3   -3.316664371177230E-2   -9.560046558114915E-3   -3.319936818091935E-2    4.882871267790845E-1   -1.757096318219027E-1
 6.529056074425000E9     5.570016436939269E-1   -6.992464243080665E-2   -8.891221816382060E-3   -3.336092729100270E-2   -9.645529475031637E-3   -3.321066792806432E-2    4.877795816905879E-1   -1.766904527630879E-1
 6.529067053600000E9     5.568739610551405E-1   -7.075912240970073E-2   -8.879181765587720E-3   -3.373585685344153E-2   -9.783728933205589E-3   -3.343112189727324E-2    4.875621785564688E-1   -1.776818392163630E-1
 6.529078032775000E9     5.568647483981864E-1   -7.174292232349831E-2   -9.305827028932805E-3   -3.384547232068081E-2   -9.811274539347849E-3   -3.364928482236711E-2    4.871604658514961E-1   -1.785671363989189E-1
 6.529089011950000E9     5.566415488716663E-1   -7.257907606635577E-2   -9.328352800383142E-3   -3.389093670712486E-2   -1.003357947810624E-2   -3.382073904793754E-2    4.866304431880265E-1   -1.796475789743982E-1
 6.529099991125000E9     5.564988059563031E-1   -7.340774076686579E-2   -9.540829516878367E-3   -3.419108314572583E-2   -1.020319568405904E-2   -3.397019588307384E-2    4.863224150017596E-1   -1.804119577911281E-1
 6.529110970300000E9     5.564365254649241E-1   -7.429147310674071E-2   -9.505176291929613E-3   -3.418139978742111E-2   -1.041718355754048E-2   -3.415073728519979E-2    4.858074927635330E-1   -1.814924988220322E-1
 6.529121949475000E9     5.563034157466842E-1   -7.535161589013339E-2   -9.747014100008602E-3   -3.451819680386627E-2   -1.036944174902985E-2   -3.426803417400971E-2    4.854605947734142E-1   -1.825562639338170E-1
 6.529132928650000E9     5.561923905921332E-1   -7.617613862842301E-2   -9.848290954898840E-3   -3.466358009442448E-2   -1.048434578854220E-2   -3.449986185031211E-2    4.849093562911076E-1   -1.837102167856602E-1
 6.529143907825000E9     5.560060052458226E-1   -7.711119638062532E-2   -1.002341915047202E-2   -3.486631135175119E-2   -1.069492771337644E-2   -3.471094154497802E-2    4.845839901394110E-1   -1.846657645687376E-1
 6.529154887000000E9     5.557872517970868E-1   -7.801751302298721E-2   -1.012254755056391E-2   -3.500913651413637E-2   -1.082522617352134E-2   -3.497353280986471E-2    4.840921667655227E-1   -1.855401991704123E-1
 6.529165866175000E9     5.556575567640221E-1   -7.896165480557864E-2   -1.015352160045080E-2   -3.525631622322047E-2   -1.093848418151161E-2   -3.502460133585673E-2    4.836816241000769E-1   -1.865767276323018E-1
 6.529176845350000E9     5.556082668735398E-1   -7.980431560740658E-2   -1.038358868364649E-2   -3.546572884663139E-2   -1.103365851294459E-2   -3.528397925440696E-2    4.830920763393885E-1   -1.877031325618947E-1
 6.529187824525000E9     5.554297301902488E-1   -8.068983363616866E-2   -1.051604959281466E-2   -3.564244214714980E-2   -1.118673649663846E-2   -3.549400804914329E-2    4.827718524737302E-1   -1.886115674644121E-1
 6.529198803700000E9     5.553542358946031E-1   -8.152065225688092E-2   -1.075588812032443E-2   -3.578697580206446E-2   -1.140798477168712E-2   -3.567677687485114E-2    4.821647978511049E-1   -1.896573153124627E-1
 6.529209782875000E9     5.550511935819912E-1   -8.257679439825730E-2   -1.081856877282983E-2   -3.615910037065589E-2   -1.148912169094627E-2   -3.578536132708253E-2    4.819424992899851E-1   -1.906928443100966E-1
 6.529220762050000E9     5.551128712671539E-1   -8.347801075044235E-2   -1.082793388104722E-2   -3.610083538191184E-2   -1.170082917796113E-2   -3.607824067057877E-2    4.814646250779067E-1   -1.915813930020355E-1
 6.529231741225000E9     5.548161237289243E-1   -8.437104981221073E-2   -1.107429061425680E-2   -3.647239247457698E-2   -1.189556339044685E-2   -3.626725162164548E-2    4.808971132992050E-1   -1.926449135149623E-1
 6.529242720400000E9     5.548038439593034E-1   -8.527919968996106E-2   -1.131823096682713E-2   -3.674027457625600E-2   -1.204108169025685E-2   -3.643939209328315E-2    4.803221354511311E-1   -1.937845221313169E-1
 6.529253699575000E9     5.545842991558306E-1   -8.623936815280632E-2   -1.139723630742313E-2   -3.687423526850400E-2   -1.222596757292869E-2   -3.670916695463043E-2    4.799056771405183E-1   -1.948721217317245E-1
 6.529264678750000E9     5.543827521140030E-1   -8.707044866459798E-2   -1.157022908253531E-2   -3.706444048044464E-2   -1.236177394206984E-2   -3.681822962857127E-2    4.794650846600761E-1   -1.958712097698317E-1
 6.529275657925000E9     5.541524995537457E-1   -8.807469417465272E-2   -1.164865182673834E-2   -3.733937890365588E-2   -1.246364423088736E-2   -3.717480512554741E-2    4.788408614950416E-1   -1.969407718106335E-1
 6.529286637100000E9     5.539992186233583E-1   -8.899730979329427E-2   -1.184042810869586E-2   -3.753466201274400E-2   -1.273052588117204E-2   -3.739238850532092E-2    4.785891735878860E-1   -1.980289858735668E-1
 6.529297616275000E9     5.538604185954035E-1   -8.992029696702100E-2   -1.191695206047172E-2   -3.776033454854093E-2   -1.286793559551886E-2   -3.745850038301338E-2    4.778827979856244E-1   -1.990230483702905E-1
 6.529308595450000E9     5.536359910019583E-1   -9.083670551723937E-2   -1.222216207255726E-2   -3.790940681292736E-2   -1.305244161684540E-2   -3.782315684805318E-2    4.774304738135045E-1   -2.000675410705959E-1
 6.529319574625000E9     5.534852094324527E-1   -9.175700936879751E-2   -1.241462505373581E-2   -3.813486396958338E-2   -1.318181652376126E-2   -3.796304441306023E-2    4.769918924082431E-1   -2.012323090736781E-1
 6.529330553800000E9     5.534109045137524E-1   -9.270008884732918E-2   -1.256220384388804E-2   -3.837736315787143E-2   -1.344839569111053E-2   -3.819699127049628E-2    4.763270747770122E-1   -2.021805252677973E-1
 6.529341532975000E9     5.531983348070714E-1   -9.360496223444013E-2   -1.270013918265242E-2   -3.851039966092112E-2   -1.361328303957650E-2   -3.837056730156745E-2    4.758711739171944E-1   -2.032223671938988E-1
 6.529352512150000E9     5.530192435180561E-1   -9.458751432650453E-2   -1.291228311081353E-2   -3.890854936501592E-2   -1.377493128393353E-2   -3.867960244884228E-2    4.754360187368712E-1   -2.042494904442725E-1
 6.529363491325000E9     5.527592342872927E-1   -9.551474468178717E-2   -1.309455648559522E-2   -3.899645510147810E-2   -1.387261428486939E-2   -3.890537341788031E-2    4.749541478644043E-1   -2.053365305140345E-1
 6.529374470500000E9     5.526421972349549E-1   -9.638593210779726E-2   -1.329089185432885E-2   -3.929529730397629E-2   -1.408461711984990E-2   -3.908278634479011E-2    4.741401593444288E-1   -2.065395932693611E-1
 6.529385449675000E9     5.523771689541470E-1   -9.726274268120909E-2   -1.324986467954350E-2   -3.959915676750467E-2   -1.422148027679910E-2   -3.933345964615221E-2    4.736923605163939E-1   -2.077035936057932E-1
 6.529396428850000E9     5.521668719525648E-1   -9.839955737578794E-2   -1.360352181956398E-2   -3.994024348644305E-2   -1.438651481428162E-2   -3.961807398827542E-2    4.730805600461256E-1   -2.088137176088088E-1
 6.529407408025000E9     5.519781784049703E-1   -9.925723647417094E-2   -1.380418897667048E-2   -4.017979528267530E-2   -1.468243271195792E-2   -3.990965307193950E-2    4.725088875904084E-1   -2.096443533515818E-1
 6.529418387200000E9     5.518287703222891E-1   -1.002280077545961E-1   -1.417429267759209E-2   -4.034476639684776E-2   -1.491906373823108E-2   -4.019900268396665E-2    4.719306316500101E-1   -2.110568605771091E-1
 6.529429366375000E9     5.515385296830017E-1   -1.011119816683461E-1   -1.423790238713360E-2   -4.067735260341503E-2   -1.513971776532166E-2   -4.029436354869888E-2    4.712632183892398E-1   -2.119823019131220E-1
 6.529440345550000E9     5.513530911494793E-1   -1.020642521177422E-1   -1.449991587338042E-2   -4.091833478722222E-2   -1.539113756729155E-2   -4.046430917301923E-2    4.707680552389213E-1   -2.131580087020303E-1
 6.529451324725000E9     5.511917688710086E-1   -1.030134969731583E-1   -1.459779474794339E-2   -4.110552427188203E-2   -1.548854700032311E-2   -4.082420950422100E-2    4.699813789946831E-1   -2.141884500364730E-1
 6.529462303900000E9     5.510360278393116E-1   -1.039991633601715E-1   -1.479494898924011E-2   -4.127292755193333E-2   -1.565476401875683E-2   -4.104694575141117E-2    4.695944899074664E-1   -2.153269110340757E-1
 6.529473283075000E9     5.507088518391943E-1   -1.048899689571513E-1   -1.492698477543841E-2   -4.161075400138861E-2   -1.595130693458180E-2   -4.134093094381631E-2    4.688188847075014E-1   -2.164584345687153E-1
 6.529484262250000E9     5.505250289141148E-1   -1.058478100945704E-1   -1.530677556795650E-2   -4.173793480657161E-2   -1.618449571320505E-2   -4.152434652945580E-2    4.684041527286900E-1   -2.176128905620741E-1
 6.529495241425000E9     5.502243070576469E-1   -1.067850398370636E-1   -1.547775438026990E-2   -4.213357274387445E-2   -1.640243504745463E-2   -4.188015764546293E-2    4.677789076687051E-1   -2.187783266842458E-1
 6.529506220600000E9     5.501548010351667E-1   -1.077767149560472E-1   -1.571398312881668E-2   -4.251919335781249E-2   -1.663620634161507E-2   -4.216146276224463E-2    4.669953747566565E-1   -2.197372066995602E-1
 6.529517199775000E9     5.498600759116103E-1   -1.088282187897167E-1   -1.586654592110350E-2   -4.272464394123641E-2   -1.679023241786580E-2   -4.244209855157027E-2    4.662980163126941E-1   -2.210452184544903E-1
 6.529528178950000E9     5.496683805308067E-1   -1.097710904555087E-1   -1.614531570794317E-2   -4.292080639017780E-2   -1.707301933461642E-2   -4.268177015369339E-2    4.655944922956239E-1   -2.221747665393979E-1
 6.529539158125000E9     5.493378476352397E-1   -1.106249346533594E-1   -1.629829492653937E-2   -4.331955212762224E-2   -1.733952742502265E-2   -4.306400657104974E-2    4.650084307516051E-1   -2.232791123012740E-1
 6.529550137300000E9     5.490999913153595E-1   -1.116907702682249E-1   -1.678743572896649E-2   -4.362453496381587E-2   -1.753116606359828E-2   -4.336525762742739E-2    4.643070572161241E-1   -2.245656785793390E-1
 6.529561116475000E9     5.488717063611180E-1   -1.126224476503108E-1   -1.689993462059221E-2   -4.393194389960760E-2   -1.781660272378580E-2   -4.356962598827297E-2    4.637355413743361E-1   -2.257112145523043E-1
 6.529572095650000E9     5.486173963315162E-1   -1.136536248631006E-1   -1.707790537772804E-2   -4.420617458200924E-2   -1.808673255376673E-2   -4.386037574762402E-2    4.630691958620997E-1   -2.270173700163222E-1
 6.529583074825000E9     5.484585011133576E-1   -1.145988219630863E-1   -1.736418546286555E-2   -4.441614773341821E-2   -1.835379159258481E-2   -4.412705076220870E-2    4.622977214826163E-1   -2.281119550985580E-1
 6.529594054000000E9     5.480399254071854E-1   -1.155972505451619E-1   -1.768553260983501E-2   -4.478033591940517E-2   -1.862218633073335E-2   -4.451290571107862E-2    4.615189302557129E-1   -2.292879808709030E-1
 6.529605033175000E9     5.479374101767073E-1   -1.165084318620617E-1   -1.794269519347252E-2   -4.528535414870236E-2   -1.887421250831820E-2   -4.480883281841015E-2    4.607328935414395E-1   -2.303875972538363E-1
 6.529616012350000E9     5.475904912442889E-1   -1.175526862378621E-1   -1.808791326380876E-2   -4.550112337288982E-2   -1.923082689230570E-2   -4.503042583486766E-2    4.599225880710294E-1   -2.316691183443288E-1
 6.529626991525000E9     5.473454308913452E-1   -1.184575585212308E-1   -1.833793520265779E-2   -4.579543232956199E-2   -1.948727392213789E-2   -4.544396487530511E-2    4.593882510186493E-1   -2.328168924384087E-1
 6.529637970700000E9     5.470469985826850E-1   -1.195392175751444E-1   -1.873001917907308E-2   -4.612773770490748E-2   -1.975612170567762E-2   -4.586130496632013E-2    4.584303838267632E-1   -2.340272237025535E-1
 6.529648949875000E9     5.467467083661484E-1   -1.203925269840963E-1   -1.907601284153034E-2   -4.636814003932963E-2   -2.010448017820795E-2   -4.605802144213939E-2    4.577633320527101E-1   -2.353389018393256E-1
 6.529659929050000E9     5.466539243633634E-1   -1.214502540576725E-1   -1.932389569897601E-2   -4.665214638632048E-2   -2.041607560861958E-2   -4.635435376829011E-2    4.568745728272944E-1   -2.365604858367573E-1
 6.529670908225000E9     5.461024616575213E-1   -1.225704351141514E-1   -1.963502246862723E-2   -4.717797120798137E-2   -2.074193980735864E-2   -4.672831552844033E-2    4.559769197578056E-1   -2.375758427922546E-1
 6.529681887400000E9     5.459522006486727E-1   -1.234320422845014E-1   -1.988547523911502E-2   -4.732472797198101E-2   -2.098786579415305E-2   -4.708745662342978E-2    4.553249566864933E-1   -2.389710887402522E-1
 6.529692866575000E9     5.455864214898404E-1   -1.244972200793926E-1   -2.027106103947436E-2   -4.773395211739297E-2   -2.126768220529774E-2   -4.738584007186818E-2    4.544809514603314E-1   -2.402913258470450E-1
 6.529703845750000E9     5.453177276356632E-1   -1.253706660258044E-1   -2.054454561366799E-2   -4.809073759080708E-2   -2.163656514459706E-2   -4.758760165976551E-2    4.536886971814609E-1   -2.415042069762512E-1
