#  HZ   S   RI   R     50.00 
! Rohde & Schwarz Vector Network Analyzer 
! Rohde-Schwarz,ZNB20-2Port,1311601062101988,3.16
! Created: UTC 3/21/2024, 1:04:37 AM
! freq[Hz]                re:S11                  im:S11                  re:S21                  im:S21                  re:S12                  im:S12                  re:S22                  im:S22
 6.528714119000000E9     5.600877374222704E-1   -4.237015300342787E-2   -5.933439841397496E-3   -2.859505418208429E-2   -6.480544647319357E-3   -2.859004085884567E-2    4.991331941569688E-1   -1.468417276181286E-1
 6.528725114475000E9     5.600719108642087E-1   -4.326275027000965E-2   -5.950539219553508E-3   -2.882108131265441E-2   -6.458450417627143E-3   -2.882660950958970E-2    4.989500881181690E-1   -1.478164160964677E-1
 6.528736109950000E9     5.599758122060959E-1   -4.425229991825068E-2   -6.105515031291931E-3   -2.894833282166493E-2   -6.549697415379081E-3   -2.896777477216773E-2    4.985821167126273E-1   -1.487010470395095E-1
 6.528747105425000E9     5.597455698994092E-1   -4.504036643049617E-2   -6.070776527340158E-3   -2.923035234971418E-2   -6.660430095642820E-3   -2.917750875578547E-2    4.983761812624444E-1   -1.497450972586387E-1
 6.528758100900000E9     5.597353548938608E-1   -4.594101099897133E-2   -6.151550114541807E-3   -2.925863722346579E-2   -6.787192559180591E-3   -2.926796831239634E-2    4.978575104331943E-1   -1.504641653987067E-1
 6.528769096375000E9     5.596434100250554E-1   -4.665563845885084E-2   -6.309824707191459E-3   -2.952734601615896E-2   -6.881043744909336E-3   -2.931737994871213E-2    4.976989056964468E-1   -1.516574712974613E-1
 6.528780091850000E9     5.595892990669633E-1   -4.756091483434054E-2   -6.374858690636798E-3   -2.965277810159034E-2   -7.018892830586596E-3   -2.950434087534683E-2    4.973535868556858E-1   -1.522912090409057E-1
 6.528791087325000E9     5.594722592211695E-1   -4.844698370273636E-2   -6.518706072816306E-3   -2.971792295498490E-2   -7.053224581813994E-3   -2.950569520464999E-2    4.969251002839277E-1   -1.533149510192864E-1
 6.528802082800000E9     5.594355529632125E-1   -4.938947325634033E-2   -6.688016935799580E-3   -2.960764798183723E-2   -7.211568114785833E-3   -2.978121549909903E-2    4.966273679167633E-1   -1.541108740657011E-1
 6.528813078275000E9     5.593567094398914E-1   -5.027346157645839E-2   -6.618474061147421E-3   -2.985790518058343E-2   -7.188031876281639E-3   -2.992944611461717E-2    4.962479829608719E-1   -1.551786407191532E-1
 6.528824073750000E9     5.592250391864901E-1   -5.112488832855405E-2   -6.799398015910126E-3   -3.011956483917136E-2   -7.388999175518348E-3   -3.000771741220292E-2    4.960862095243505E-1   -1.560595561633879E-1
 6.528835069225000E9     5.592352235486692E-1   -5.200670261468100E-2   -7.046867699263811E-3   -3.024160743875096E-2   -7.451192492606677E-3   -3.017614544868592E-2    4.956101310369984E-1   -1.571678412800443E-1
 6.528846064700000E9     5.590629676125661E-1   -5.288820514865940E-2   -6.883129951514281E-3   -3.032312339873397E-2   -7.509037169125194E-3   -3.031202545498017E-2    4.955037789452229E-1   -1.579833938210005E-1
 6.528857060175000E9     5.589899089516323E-1   -5.375283124196562E-2   -7.027212603558980E-3   -3.059586351934779E-2   -7.588405208814543E-3   -3.042675285263028E-2    4.951030837622351E-1   -1.589408054360742E-1
 6.528868055650000E9     5.589235801174524E-1   -5.464939388837238E-2   -7.149669915103899E-3   -3.071768289142327E-2   -7.756518835421782E-3   -3.057666529776445E-2    4.947980684763683E-1   -1.599689713462056E-1
 6.528879051125000E9     5.587162562603986E-1   -5.553928673475485E-2   -7.184632889906668E-3   -3.084144949545447E-2   -7.731937476275551E-3   -3.072574520864156E-2    4.944456214578581E-1   -1.609413473741442E-1
 6.528890046600000E9     5.587828358416633E-1   -5.641966102708065E-2   -7.276766148084540E-3   -3.102756357252254E-2   -7.950657261161962E-3   -3.101036022263677E-2    4.940307062432918E-1   -1.617505652858197E-1
 6.528901042075000E9     5.586364417140424E-1   -5.726721580878686E-2   -7.463504462522389E-3   -3.106948009446009E-2   -8.079480102581346E-3   -3.102926512065268E-2    4.937880537980393E-1   -1.628891137583824E-1
 6.528912037550000E9     5.585632689637947E-1   -5.821380541985711E-2   -7.408581515956948E-3   -3.128541050090551E-2   -8.076889921836253E-3   -3.123921276151115E-2    4.934701592529263E-1   -1.637879615430743E-1
 6.528923033025000E9     5.584809151870903E-1   -5.914709111917603E-2   -7.615187636451690E-3   -3.135831137366269E-2   -8.234868810255619E-3   -3.139938430641108E-2    4.930057232455589E-1   -1.645292799846089E-1
 6.528934028500000E9     5.583837388908222E-1   -5.998623867226991E-2   -7.888705963278404E-3   -3.169831663142075E-2   -8.344138095606498E-3   -3.135087245907765E-2    4.926766255505106E-1   -1.654630326440260E-1
 6.528945023975000E9     5.582409486572815E-1   -6.084993703172312E-2   -7.804112272996201E-3   -3.169858813718574E-2   -8.550649907886470E-3   -3.159619656329545E-2    4.921247929574116E-1   -1.665301526303472E-1
 6.528956019450000E9     5.580553362253940E-1   -6.165424370136077E-2   -8.025390933230783E-3   -3.180716834135203E-2   -8.616966071422275E-3   -3.173456508662278E-2    4.918792774944820E-1   -1.675850941600731E-1
 6.528967014925000E9     5.579785092138612E-1   -6.272591479755954E-2   -8.002812798018200E-3   -3.215584869826833E-2   -8.676363093978052E-3   -3.192787154677337E-2    4.914863492756131E-1   -1.684553850059264E-1
 6.528978010400000E9     5.579396387695567E-1   -6.347188486406573E-2   -8.001195127231102E-3   -3.211959689994593E-2   -8.772347240817898E-3   -3.209059264764189E-2    4.913101648770716E-1   -1.693976566870158E-1
 6.528989005875000E9     5.577176573953065E-1   -6.442027592496252E-2   -8.345437438096084E-3   -3.231338229212696E-2   -8.887676946909773E-3   -3.224806346860627E-2    4.907978089399473E-1   -1.704920137920303E-1
 6.529000001350000E9     5.576728687989282E-1   -6.533233895951605E-2   -8.371434115782473E-3   -3.257702282618002E-2   -9.031760911813890E-3   -3.240715032196360E-2    4.902617468810064E-1   -1.714996540078468E-1
 6.529010996825000E9     5.575413383416107E-1   -6.617528596765121E-2   -8.461500534225464E-3   -3.272745015846808E-2   -9.172230553129535E-3   -3.257576640667485E-2    4.899720105441062E-1   -1.722976128253090E-1
 6.529021992300000E9     5.575341471009865E-1   -6.701433979160420E-2   -8.613707312280701E-3   -3.273395678851213E-2   -9.194549072907081E-3   -3.281806265093980E-2    4.897034939881675E-1   -1.733337811600686E-1
 6.529032987775000E9     5.573058270066771E-1   -6.804941599952977E-2   -8.790303823683676E-3   -3.304471826849158E-2   -9.306559806550815E-3   -3.280086159187987E-2    4.892373876845725E-1   -1.742411758637746E-1
 6.529043983250000E9     5.571652979713286E-1   -6.882316442445115E-2   -8.973954468883022E-3   -3.318072760090902E-2   -9.492988263930701E-3   -3.301820281930996E-2    4.888027064293827E-1   -1.753598379310903E-1
 6.529054978725000E9     5.571211154982781E-1   -6.975789158563502E-2   -8.894499923286781E-3   -3.329332923153094E-2   -9.670516069920134E-3   -3.325998455572548E-2    4.884936111590094E-1   -1.763145634122628E-1
 6.529065974200000E9     5.569921847916047E-1   -7.067720456122545E-2   -8.889335881725420E-3   -3.359332363770485E-2   -9.737416807253199E-3   -3.346268106254643E-2    4.879887310533257E-1   -1.772734642400191E-1
 6.529076969675000E9     5.570260535751486E-1   -7.152426745803447E-2   -9.101270100804019E-3   -3.376090894249779E-2   -9.806127209286619E-3   -3.361825134489460E-2    4.876058434052885E-1   -1.783185538215415E-1
 6.529087965150000E9     5.567317975259045E-1   -7.234168194992704E-2   -9.398895353247021E-3   -3.403022490607525E-2   -1.005463101689631E-2   -3.361988133285154E-2    4.870899236790600E-1   -1.792808791352064E-1
 6.529098960625000E9     5.565544704523104E-1   -7.346449912883490E-2   -9.589278459943370E-3   -3.408723836504434E-2   -1.005338915962547E-2   -3.389625490106522E-2    4.867923568565247E-1   -1.801727526394273E-1
 6.529109956100000E9     5.564560200781410E-1   -7.426735895990406E-2   -9.619735909335353E-3   -3.432904457991821E-2   -1.020387226429092E-2   -3.417608864697912E-2    4.863178637618044E-1   -1.810856618629403E-1
 6.529120951575000E9     5.563025620685393E-1   -7.521228708169268E-2   -9.656805221780671E-3   -3.443009521683036E-2   -1.038093290931068E-2   -3.434283108596735E-2    4.859355709589137E-1   -1.822204668001161E-1
 6.529131947050000E9     5.562054843542358E-1   -7.623106421024417E-2   -9.946937790272063E-3   -3.453733425122829E-2   -1.051865981356459E-2   -3.448899774860156E-2    4.855887959345355E-1   -1.831650266039454E-1
 6.529142942525000E9     5.559755821020868E-1   -7.697271602809129E-2   -9.862203672733709E-3   -3.489314561921679E-2   -1.066867759974457E-2   -3.463332036776452E-2    4.850047468388353E-1   -1.842360672264302E-1
 6.529153938000000E9     5.559782574761961E-1   -7.785508938442727E-2   -9.996512034980315E-3   -3.503895570495489E-2   -1.073068957614577E-2   -3.481017576255029E-2    4.847021670499577E-1   -1.851130416085057E-1
 6.529164933475000E9     5.558291035947337E-1   -7.879382983122012E-2   -1.019519139132366E-2   -3.526338314025589E-2   -1.089733965731736E-2   -3.501276397888208E-2    4.843180930393309E-1   -1.863919658646684E-1
 6.529175928950000E9     5.555710097339346E-1   -7.976195215179016E-2   -1.038166786430109E-2   -3.531451409259698E-2   -1.109646523158625E-2   -3.526454455466227E-2    4.837872067336385E-1   -1.871987295868543E-1
 6.529186924425000E9     5.555415326665435E-1   -8.061649781595893E-2   -1.055801336855769E-2   -3.563526320750730E-2   -1.119606216358878E-2   -3.532183672099500E-2    4.832561035602836E-1   -1.882850139152162E-1
 6.529197919900000E9     5.553178368573124E-1   -8.148803620088720E-2   -1.073499144711833E-2   -3.584355596957303E-2   -1.132272962030380E-2   -3.567869597890237E-2    4.828279370867328E-1   -1.893584010080066E-1
 6.529208915375000E9     5.551360582010461E-1   -8.245466239541131E-2   -1.082593194735872E-2   -3.591878333415932E-2   -1.153459983086093E-2   -3.580595019445736E-2    4.824029601654070E-1   -1.902754273398460E-1
 6.529219910850000E9     5.550558421514121E-1   -8.326385211491687E-2   -1.098278805166486E-2   -3.626155471885049E-2   -1.167752359421705E-2   -3.596858179906695E-2    4.818887317706251E-1   -1.914514946475598E-1
 6.529230906325000E9     5.547481606135559E-1   -8.427853167243000E-2   -1.096478498475274E-2   -3.643440005731126E-2   -1.181758460237812E-2   -3.630279813211752E-2    4.813798715237276E-1   -1.925000343599453E-1
 6.529241901800000E9     5.547283858814479E-1   -8.519516809632124E-2   -1.124536510996249E-2   -3.651046563668386E-2   -1.205215929213207E-2   -3.647406778264251E-2    4.810329213613742E-1   -1.934280172824821E-1
 6.529252897275000E9     5.544337411184626E-1   -8.600482317340871E-2   -1.143213922659729E-2   -3.674627897538658E-2   -1.217156271450858E-2   -3.661930720533822E-2    4.804812262654220E-1   -1.945253669577789E-1
 6.529263892750000E9     5.543322511312524E-1   -8.696229502415243E-2   -1.160029447835991E-2   -3.701745108650343E-2   -1.233377233719915E-2   -3.680569568038974E-2    4.799525152395741E-1   -1.954707356970344E-1
 6.529274888225000E9     5.541585530079868E-1   -8.792794362098789E-2   -1.183199024631158E-2   -3.711875705305873E-2   -1.244758669065047E-2   -3.704565810468641E-2    4.796708490366055E-1   -1.965870238487597E-1
 6.529285883700000E9     5.540332944551258E-1   -8.882557960793538E-2   -1.185089767136666E-2   -3.735416767276913E-2   -1.262347955244910E-2   -3.723137844304444E-2    4.791021371670278E-1   -1.975665439224315E-1
 6.529296879175000E9     5.537308850562165E-1   -8.987797901525264E-2   -1.195884524308330E-2   -3.774139683295173E-2   -1.280379395654841E-2   -3.739374954545003E-2    4.785296680189510E-1   -1.986083439702683E-1
 6.529307874650000E9     5.537144757766074E-1   -9.061914073843605E-2   -1.218267625900592E-2   -3.787156818523196E-2   -1.287777611975225E-2   -3.778650879214167E-2    4.779917750268604E-1   -1.996705194593428E-1
 6.529318870125000E9     5.534799791483234E-1   -9.177581913120983E-2   -1.230377022219703E-2   -3.811537563490156E-2   -1.306515376639748E-2   -3.787954742515018E-2    4.774809869075267E-1   -2.007732531062560E-1
 6.529329865600000E9     5.533122000558737E-1   -9.249185494585362E-2   -1.252042451847410E-2   -3.831224263088931E-2   -1.345842273101358E-2   -3.816579039622155E-2    4.769264111121528E-1   -2.017895185925675E-1
 6.529340861075000E9     5.531891801850813E-1   -9.353868003640753E-2   -1.265243542850733E-2   -3.841842735461605E-2   -1.338681277073231E-2   -3.842808955722325E-2    4.766304585109791E-1   -2.029294063571389E-1
 6.529351856550000E9     5.529575788703799E-1   -9.440200941274178E-2   -1.293753486141244E-2   -3.880914641761012E-2   -1.366105621935412E-2   -3.855588418567785E-2    4.760351648037665E-1   -2.039552850405750E-1
 6.529362852025000E9     5.528013167138732E-1   -9.538647440116396E-2   -1.292269953832321E-2   -3.900828075573530E-2   -1.383911907654241E-2   -3.885114165222669E-2    4.754276605639171E-1   -2.052193727256972E-1
 6.529373847500000E9     5.527104413055700E-1   -9.622758190881539E-2   -1.323813737762239E-2   -3.932627728477910E-2   -1.409503559306762E-2   -3.907709276143516E-2    4.748173297567408E-1   -2.061009261745439E-1
 6.529384842975000E9     5.523724849028616E-1   -9.732787127954035E-2   -1.336460787701763E-2   -3.954883896844137E-2   -1.424762060012324E-2   -3.935660760598013E-2    4.743932936243956E-1   -2.071348500479431E-1
 6.529395838450000E9     5.521716939826231E-1   -9.809079992803411E-2   -1.359443670238499E-2   -3.973628773304890E-2   -1.442969236554804E-2   -3.959233116700724E-2    4.737238780605100E-1   -2.083032209298762E-1
 6.529406833925000E9     5.519356540330759E-1   -9.910636409750447E-2   -1.381266753349578E-2   -3.994282207344353E-2   -1.474223083142525E-2   -3.976926676930397E-2    4.730753311255050E-1   -2.094353669485646E-1
 6.529417829400000E9     5.516930441761252E-1   -1.001485986071420E-1   -1.405958145770172E-2   -4.021077721764791E-2   -1.477489162761553E-2   -4.003382859236913E-2    4.725777548468612E-1   -2.105000822224352E-1
 6.529428824875000E9     5.515907254176200E-1   -1.010381086511879E-1   -1.414452350281277E-2   -4.040750280282383E-2   -1.499731486804468E-2   -4.026567575875026E-2    4.719469506974379E-1   -2.116682236949665E-1
 6.529439820350000E9     5.513669325653253E-1   -1.018935737888491E-1   -1.441919205864466E-2   -4.071215975441769E-2   -1.516555763040030E-2   -4.047848097123294E-2    4.712954299486643E-1   -2.128112510413660E-1
 6.529450815825000E9     5.511253221176579E-1   -1.030630125695789E-1   -1.461305825658848E-2   -4.101690376926677E-2   -1.549433668808066E-2   -4.080139611134835E-2    4.707385251725645E-1   -2.138709460909000E-1
 6.529461811300000E9     5.509700510258579E-1   -1.038085206401851E-1   -1.475367569288745E-2   -4.117900436701892E-2   -1.569638637437292E-2   -4.094511665786151E-2    4.700816154242419E-1   -2.150367960635778E-1
 6.529472806775000E9     5.507867781791318E-1   -1.048172786526080E-1   -1.496876580002619E-2   -4.166995934202182E-2   -1.590034150366981E-2   -4.128426814720550E-2    4.695405864967850E-1   -2.161548211410003E-1
 6.529483802250000E9     5.505513930703997E-1   -1.057638814834094E-1   -1.516244391269752E-2   -4.192729203115633E-2   -1.612645557810936E-2   -4.161489939636060E-2    4.689256257045392E-1   -2.172354827430887E-1
 6.529494797725000E9     5.502343951126238E-1   -1.068176094870363E-1   -1.548053261221467E-2   -4.206166300523505E-2   -1.635763368717403E-2   -4.184654054718145E-2    4.682583544370309E-1   -2.183418166925574E-1
 6.529505793200000E9     5.500589227659890E-1   -1.077003875455962E-1   -1.568174011453593E-2   -4.236091903832408E-2   -1.659139464717875E-2   -4.206061313298730E-2    4.675918553396493E-1   -2.195937856387585E-1
 6.529516788675000E9     5.498109335665230E-1   -1.087203743416448E-1   -1.588519890773980E-2   -4.281803890069462E-2   -1.683454308360594E-2   -4.243461420190065E-2    4.669634408292705E-1   -2.207544928105299E-1
 6.529527784150000E9     5.496088620793200E-1   -1.096565181702007E-1   -1.608185281542995E-2   -4.291439265511053E-2   -1.714653137192862E-2   -4.266256614212903E-2    4.661046509953350E-1   -2.219163003719339E-1
 6.529538779625000E9     5.494429220737921E-1   -1.105800522660705E-1   -1.643310139674492E-2   -4.323535052721001E-2   -1.731544714465386E-2   -4.293051204658731E-2    4.656380186273503E-1   -2.230376305930881E-1
 6.529549775100000E9     5.491685679923513E-1   -1.114449924244417E-1   -1.665816705799998E-2   -4.347267103849711E-2   -1.753515445777699E-2   -4.323803639348273E-2    4.648911039490153E-1   -2.243334776344660E-1
 6.529560770575000E9     5.489516442767629E-1   -1.125819800664272E-1   -1.672633900612653E-2   -4.388149881198778E-2   -1.778564453573352E-2   -4.344117277265206E-2    4.642212010429888E-1   -2.253471841249383E-1
 6.529571766050000E9     5.486557431044671E-1   -1.133952895215562E-1   -1.708440512434313E-2   -4.412390451593142E-2   -1.811457472023100E-2   -4.380240901684953E-2    4.634871265199971E-1   -2.265836902894990E-1
 6.529582761525000E9     5.483551197315432E-1   -1.144844829108333E-1   -1.740523751955421E-2   -4.443238368371401E-2   -1.839848008482665E-2   -4.413308942223864E-2    4.627884955776854E-1   -2.278283030145791E-1
 6.529593757000000E9     5.481142405423685E-1   -1.155045897168837E-1   -1.766644505695955E-2   -4.477818474688498E-2   -1.861085769374735E-2   -4.441945386478045E-2    4.620647472284156E-1   -2.288840924806422E-1
 6.529604752475000E9     5.478031775788431E-1   -1.164296291054860E-1   -1.786683169272145E-2   -4.508532653924134E-2   -1.885540337084782E-2   -4.479905304504905E-2    4.613207032760032E-1   -2.300730200996247E-1
 6.529615747950000E9     5.476276554932290E-1   -1.173114206294553E-1   -1.817564985214050E-2   -4.536487690192807E-2   -1.912688608792040E-2   -4.505946919006545E-2    4.605260317714810E-1   -2.311118483155870E-1
 6.529626743425000E9     5.472589004579441E-1   -1.184131858075707E-1   -1.834862879749580E-2   -4.566350022331574E-2   -1.948081104870687E-2   -4.534138594735192E-2    4.599335645562461E-1   -2.324022408357106E-1
 6.529637738900000E9     5.471551449991099E-1   -1.193339393842250E-1   -1.866684074559688E-2   -4.581991806981073E-2   -1.975883271486783E-2   -4.570788896155799E-2    4.590820901687044E-1   -2.336470225306452E-1
 6.529648734375000E9     5.467453402314197E-1   -1.204047054793891E-1   -1.897924986609414E-2   -4.631691269669044E-2   -1.988679992138161E-2   -4.602763305763918E-2    4.582887872231221E-1   -2.349229987193762E-1
 6.529659729850000E9     5.464492590484087E-1   -1.212951813074536E-1   -1.925285066322967E-2   -4.669947117512138E-2   -2.026194094175778E-2   -4.634462804494238E-2    4.576092702168981E-1   -2.360804986213679E-1
 6.529670725325000E9     5.461556771459243E-1   -1.224041652774727E-1   -1.946905167954790E-2   -4.708284128379803E-2   -2.056528986933831E-2   -4.670790258745262E-2    4.566257061212871E-1   -2.375392428395563E-1
 6.529681720800000E9     5.459021001487805E-1   -1.233630396357097E-1   -1.979572650633608E-2   -4.749320074809955E-2   -2.093709569447901E-2   -4.694853206435513E-2    4.557435486719111E-1   -2.387933781804236E-1
 6.529692716275000E9     5.456905630407901E-1   -1.243309403222972E-1   -2.018431314689140E-2   -4.772560275705925E-2   -2.124083296168938E-2   -4.737057679056241E-2    4.549986315686928E-1   -2.399616708482385E-1
 6.529703711750000E9     5.454279343687111E-1   -1.253118624624191E-1   -2.053433913060912E-2   -4.823263785627758E-2   -2.154520803105639E-2   -4.766438880918408E-2    4.542234493407795E-1   -2.411998544616395E-1
