#  HZ   S   RI   R     50.00 
! Rohde & Schwarz Vector Network Analyzer 
! Rohde-Schwarz,ZNB20-2Port,1311601062101988,3.16
! Created: UTC 3/21/2024, 1:04:42 AM
! freq[Hz]                re:S11                  im:S11                  re:S21                  im:S21                  re:S12                  im:S12                  re:S22                  im:S22
 6.528714733000000E9     5.600604628636910E-1   -4.236558039243483E-2   -5.828141150836320E-3   -2.881523813593717E-2   -6.368472733635493E-3   -2.874073538120131E-2    4.991574998651734E-1   -1.466334873936470E-1
 6.528725730175000E9     5.599606089305346E-1   -4.325681318401978E-2   -5.970160614420682E-3   -2.899991183972736E-2   -6.541357662624861E-3   -2.882932946373920E-2    4.988481593621433E-1   -1.473683815068494E-1
 6.528736727350000E9     5.599193814899223E-1   -4.411098151029858E-2   -6.038391381776545E-3   -2.898449852638085E-2   -6.669019084476652E-3   -2.889777269282559E-2    4.985469782260034E-1   -1.484804221182571E-1
 6.528747724525000E9     5.599522217817476E-1   -4.494373294424223E-2   -6.258748860438780E-3   -2.917668431469797E-2   -6.673868116545586E-3   -2.900584676043707E-2    4.982623953656630E-1   -1.493925018321380E-1
 6.528758721700000E9     5.597149220452650E-1   -4.577640691490451E-2   -6.143370437384013E-3   -2.928717915526092E-2   -6.749626539208701E-3   -2.911844123793324E-2    4.980328233876878E-1   -1.503315014043038E-1
 6.528769718875000E9     5.597944218441947E-1   -4.674203111720410E-2   -6.419914941136209E-3   -2.939295131716601E-2   -6.869929271365884E-3   -2.939563801168328E-2    4.977070045564274E-1   -1.511104165655031E-1
 6.528780716050000E9     5.595168662002526E-1   -4.750113009812257E-2   -6.291984602104727E-3   -2.951156877768980E-2   -6.899943585725488E-3   -2.945618673238832E-2    4.973758405004222E-1   -1.521315475833653E-1
 6.528791713225000E9     5.595914849057375E-1   -4.860594583040723E-2   -6.411508627357508E-3   -2.965095455397548E-2   -7.114692079585618E-3   -2.960373430844921E-2    4.970535381752673E-1   -1.529947900007992E-1
 6.528802710400000E9     5.594426730975686E-1   -4.932945790442850E-2   -6.729475616999496E-3   -2.994864877303225E-2   -7.095798277945343E-3   -2.968440025601066E-2    4.966043371289765E-1   -1.539613804154448E-1
 6.528813707575000E9     5.593889935097770E-1   -5.028061182964399E-2   -6.616792234573201E-3   -2.995412296008258E-2   -7.265971822770704E-3   -2.983617804922491E-2    4.964346779952747E-1   -1.549009648393758E-1
 6.528824704750000E9     5.592518527668497E-1   -5.114991279346483E-2   -6.737686921397284E-3   -3.020496356188528E-2   -7.401750305843143E-3   -2.999866422493537E-2    4.960838102479568E-1   -1.558327068031506E-1
 6.528835701925000E9     5.591559319194815E-1   -5.191330047702883E-2   -6.832399178951824E-3   -3.023748364644078E-2   -7.377930981247702E-3   -3.007234154449051E-2    4.956368307078582E-1   -1.568612682638205E-1
 6.528846699100000E9     5.591020029169379E-1   -5.297509859909859E-2   -6.982871671555690E-3   -3.043923759848118E-2   -7.571894302038696E-3   -3.034136326783248E-2    4.952853498133067E-1   -1.577460485215670E-1
 6.528857696275000E9     5.590321959115139E-1   -5.372762492898231E-2   -7.090770160401691E-3   -3.046769088571257E-2   -7.666341657679984E-3   -3.031629202194745E-2    4.951766993783229E-1   -1.585936153741129E-1
 6.528868693450000E9     5.589436546119583E-1   -5.460604342973874E-2   -7.202448138624100E-3   -3.082329029379106E-2   -7.687167557845959E-3   -3.059007468832164E-2    4.948388222920693E-1   -1.596281219093059E-1
 6.528879690625000E9     5.588937851202512E-1   -5.556979975903193E-2   -7.189099377335432E-3   -3.083747919097899E-2   -7.792291927045412E-3   -3.071121352565844E-2    4.945283049271956E-1   -1.605267552418880E-1
 6.528890687800000E9     5.586509379722002E-1   -5.631951358747365E-2   -7.297143508755405E-3   -3.094866901898588E-2   -7.910923191666053E-3   -3.095836981444072E-2    4.941194726411020E-1   -1.613690225123141E-1
 6.528901684975000E9     5.585656018559012E-1   -5.735279515324214E-2   -7.482596759789952E-3   -3.121622841706909E-2   -8.040889346736356E-3   -3.105363401619885E-2    4.936361749074743E-1   -1.625189372709533E-1
 6.528912682150000E9     5.585905222440514E-1   -5.820430808918543E-2   -7.424591251774615E-3   -3.115720348891868E-2   -8.161389750959893E-3   -3.112591003755882E-2    4.933066666241330E-1   -1.632114915339312E-1
 6.528923679325000E9     5.583978163663276E-1   -5.895445311537546E-2   -7.700959021259478E-3   -3.147130207812010E-2   -8.279579107893380E-3   -3.128173134105856E-2    4.928889439567472E-1   -1.643188600584057E-1
 6.528934676500000E9     5.583066878415767E-1   -5.999972962576649E-2   -7.716995195047595E-3   -3.160566884044760E-2   -8.223800451693481E-3   -3.140431965350259E-2    4.926003689208161E-1   -1.654255998620658E-1
 6.528945673675000E9     5.582195168712264E-1   -6.082010165404746E-2   -7.807854282724562E-3   -3.176366883020627E-2   -8.433554292334854E-3   -3.161938393139731E-2    4.921049052364381E-1   -1.663598521055467E-1
 6.528956670850000E9     5.580978321996254E-1   -6.170075230268118E-2   -7.901956300102099E-3   -3.202619743761870E-2   -8.562867916335025E-3   -3.180718722870756E-2    4.918633594348421E-1   -1.672835450356370E-1
 6.528967668025000E9     5.580413136038417E-1   -6.268808261338010E-2   -8.013410758683455E-3   -3.201937076005346E-2   -8.694711874492528E-3   -3.190093849733681E-2    4.916053787600136E-1   -1.682121305019298E-1
 6.528978665200000E9     5.579449273222653E-1   -6.359408312390756E-2   -8.098378823922087E-3   -3.207772703666362E-2   -8.762086979108250E-3   -3.201127917593276E-2    4.910792177297593E-1   -1.691033643095569E-1
 6.528989662375000E9     5.577302927332820E-1   -6.439455561838571E-2   -8.205004126757025E-3   -3.228835822843810E-2   -8.926423596122357E-3   -3.216699876828110E-2    4.907591378373416E-1   -1.701007078731564E-1
 6.529000659550000E9     5.577885410570639E-1   -6.524158777080163E-2   -8.403734231785122E-3   -3.253596349770425E-2   -9.046201523084187E-3   -3.247601466563526E-2    4.904372378365437E-1   -1.710648989611213E-1
 6.529011656725000E9     5.576865084304101E-1   -6.615239569710094E-2   -8.393488179185844E-3   -3.260272318391175E-2   -9.146695963534957E-3   -3.263009135332472E-2    4.900111684391966E-1   -1.720442358957485E-1
 6.529022653900000E9     5.575179164805736E-1   -6.708798108947404E-2   -8.506049635747687E-3   -3.291104877793631E-2   -9.268015030012410E-3   -3.278761021817968E-2    4.897179078132175E-1   -1.728487878278481E-1
 6.529033651075000E9     5.573436009229296E-1   -6.801359279331008E-2   -8.663607842225295E-3   -3.297833040517169E-2   -9.347609703917716E-3   -3.282023834081519E-2    4.891957935324482E-1   -1.738783869404890E-1
 6.529044648250000E9     5.572034291056615E-1   -6.888524228734039E-2   -8.830006605689144E-3   -3.319556602275468E-2   -9.570876353782953E-3   -3.307839841380045E-2    4.889959035716562E-1   -1.750364843156990E-1
 6.529055645425000E9     5.571736498906209E-1   -6.983928808316039E-2   -8.883552991784225E-3   -3.334821742519646E-2   -9.634241545171396E-3   -3.327094593907974E-2    4.883963874430076E-1   -1.759018778678982E-1
 6.529066642600000E9     5.570387795631634E-1   -7.063608878070964E-2   -9.044576163993999E-3   -3.364253978491456E-2   -9.700732452663311E-3   -3.335106144047694E-2    4.879670285876460E-1   -1.771187471971345E-1
 6.529077639775000E9     5.567964850276981E-1   -7.152529865729422E-2   -9.229925910710122E-3   -3.366963181054573E-2   -9.780115026150558E-3   -3.358483692339150E-2    4.877790820543633E-1   -1.779655676236040E-1
 6.529088636950000E9     5.567388901524823E-1   -7.247276496662830E-2   -9.372865994304829E-3   -3.408677814449070E-2   -9.955097808331492E-3   -3.380534283351903E-2    4.872327165803391E-1   -1.789034629281610E-1
 6.529099634125000E9     5.565590155116216E-1   -7.322615373824130E-2   -9.509879119670921E-3   -3.405622189350503E-2   -1.011481029097794E-2   -3.389091999213067E-2    4.868373471396463E-1   -1.798214673550266E-1
 6.529110631300000E9     5.564890245334574E-1   -7.430102235503458E-2   -9.502210285227521E-3   -3.419418040462052E-2   -1.023866246835358E-2   -3.417803272445784E-2    4.861891536157608E-1   -1.810930627102996E-1
 6.529121628475000E9     5.562800354930479E-1   -7.508772358971122E-2   -9.630470422772900E-3   -3.442784733265859E-2   -1.040573145689588E-2   -3.434395487275948E-2    4.858341807617621E-1   -1.819002659155679E-1
 6.529132625650000E9     5.562267745186382E-1   -7.603648996815920E-2   -9.868497187452141E-3   -3.469360221424277E-2   -1.043181174590661E-2   -3.455097177044738E-2    4.855714388362853E-1   -1.828858707525245E-1
 6.529143622825000E9     5.559364036981330E-1   -7.702211579116218E-2   -1.005621239307334E-2   -3.485243159587043E-2   -1.073965865676837E-2   -3.463852127785232E-2    4.852234713635404E-1   -1.839794755697910E-1
 6.529154620000000E9     5.559881593705892E-1   -7.788470681773961E-2   -1.011322157548857E-2   -3.503345947064954E-2   -1.066216727367433E-2   -3.480332964637355E-2    4.846405080175203E-1   -1.849661204123094E-1
 6.529165617175000E9     5.558620019846257E-1   -7.882548315956230E-2   -1.033444074614065E-2   -3.528676304525871E-2   -1.084179255372490E-2   -3.494902980878765E-2    4.842052345421408E-1   -1.860517566352251E-1
 6.529176614350000E9     5.556563442977056E-1   -7.957927769348251E-2   -1.023631104919512E-2   -3.540702857343079E-2   -1.104182726755776E-2   -3.513082969196456E-2    4.837971394291236E-1   -1.870642675524389E-1
 6.529187611525000E9     5.554189888876092E-1   -8.069090932430296E-2   -1.046686487757815E-2   -3.563719969506289E-2   -1.117117706366091E-2   -3.546997806088960E-2    4.833135145163427E-1   -1.881210248948067E-1
 6.529198608700000E9     5.552085396526704E-1   -8.149433530054719E-2   -1.060694060509714E-2   -3.574672672086292E-2   -1.142711280904261E-2   -3.559529531909558E-2    4.829432925073169E-1   -1.891262746702087E-1
 6.529209605875000E9     5.551299494697272E-1   -8.250381544499044E-2   -1.085553808549714E-2   -3.601370086905929E-2   -1.148679818982213E-2   -3.584656384533600E-2    4.824445341151389E-1   -1.900983784033626E-1
 6.529220603050000E9     5.549696582152672E-1   -8.334888418047166E-2   -1.090398706995345E-2   -3.623728895980551E-2   -1.170692524631483E-2   -3.602760888119141E-2    4.819940372792606E-1   -1.910900535637977E-1
 6.529231600225000E9     5.549222685329043E-1   -8.425257738801660E-2   -1.111023526012347E-2   -3.644826110719757E-2   -1.194299440599626E-2   -3.617474159953336E-2    4.813835514893735E-1   -1.920172713408425E-1
 6.529242597400000E9     5.547920042542168E-1   -8.523218465480135E-2   -1.125054916355651E-2   -3.650678564136827E-2   -1.197517510618288E-2   -3.651275451373462E-2    4.809803946710115E-1   -1.931884126023152E-1
 6.529253594575000E9     5.545143652784610E-1   -8.603189606688799E-2   -1.150072883157414E-2   -3.672570268628291E-2   -1.215032536550242E-2   -3.670665785607907E-2    4.805252024119077E-1   -1.941229993280578E-1
 6.529264591750000E9     5.542980242440795E-1   -8.699942375537177E-2   -1.147634876353129E-2   -3.691263108793445E-2   -1.223669460324859E-2   -3.686458804352404E-2    4.801255005420610E-1   -1.952393381356121E-1
 6.529275588925000E9     5.542337387982168E-1   -8.792965518031966E-2   -1.165338569547825E-2   -3.725331990478627E-2   -1.246015458362318E-2   -3.711824944538487E-2    4.795659903354844E-1   -1.964206675179608E-1
 6.529286586100000E9     5.540900905389268E-1   -8.882725384730497E-2   -1.177119533604695E-2   -3.750605770457623E-2   -1.267276316723161E-2   -3.722016507113587E-2    4.790119391056170E-1   -1.974218192762374E-1
 6.529297583275000E9     5.538318603139285E-1   -8.985639415821627E-2   -1.203361599983831E-2   -3.770970673329258E-2   -1.283720867802675E-2   -3.748687152389046E-2    4.784937035518000E-1   -1.983995669652432E-1
 6.529308580450000E9     5.536936974802934E-1   -9.071401185187226E-2   -1.220329130677991E-2   -3.786759104168042E-2   -1.298827941951079E-2   -3.769926344549786E-2    4.780980284362080E-1   -1.993049429713166E-1
 6.529319577625000E9     5.534815095952755E-1   -9.177373318654808E-2   -1.237871120508460E-2   -3.804039595905818E-2   -1.317015431617945E-2   -3.795587718216689E-2    4.775264796770351E-1   -2.005022662324004E-1
 6.529330574800000E9     5.533461606834064E-1   -9.255376439289438E-2   -1.245008022227941E-2   -3.823889605223032E-2   -1.336821082703995E-2   -3.817952831519909E-2    4.769661055771457E-1   -2.016393984576214E-1
 6.529341571975000E9     5.531468860849061E-1   -9.346117513042108E-2   -1.275604904860829E-2   -3.853225066624184E-2   -1.349829137699634E-2   -3.834052379313129E-2    4.762779864083493E-1   -2.027039252512656E-1
 6.529352569150000E9     5.529535858938185E-1   -9.446527257358994E-2   -1.284917692002615E-2   -3.883972991962634E-2   -1.370343455028046E-2   -3.861386027463311E-2    4.758681676876925E-1   -2.037974774154623E-1
 6.529363566325000E9     5.526733779470283E-1   -9.535264265191230E-2   -1.304026175557330E-2   -3.908161603324160E-2   -1.385778386399121E-2   -3.884853300364966E-2    4.753460470494545E-1   -2.049980752375522E-1
 6.529374563500000E9     5.526987309297432E-1   -9.620169082525536E-2   -1.317171202762081E-2   -3.918086044354485E-2   -1.406253521974764E-2   -3.898762579954398E-2    4.748201320080955E-1   -2.059129015905345E-1
 6.529385560675000E9     5.524097199365474E-1   -9.721225521861429E-2   -1.346087881301553E-2   -3.951355642904789E-2   -1.423718594889722E-2   -3.941037403182192E-2    4.743728825762417E-1   -2.068789715427008E-1
 6.529396557850000E9     5.522309144094756E-1   -9.815105105538219E-2   -1.353101440485114E-2   -3.972315582115508E-2   -1.443839067793053E-2   -3.953657721454144E-2    4.737270542208470E-1   -2.080506115895026E-1
 6.529407555025000E9     5.519987088407982E-1   -9.933016779053737E-2   -1.383629808201403E-2   -4.009928076033058E-2   -1.459414988212609E-2   -3.981400757401270E-2    4.731813405687600E-1   -2.093327816410997E-1
 6.529418552200000E9     5.516919165983141E-1   -1.001856867335778E-1   -1.389737401568154E-2   -4.022132540722027E-2   -1.482277123951913E-2   -3.999734164774158E-2    4.725317279372410E-1   -2.103846173756751E-1
 6.529429549375000E9     5.515390233861286E-1   -1.009745648638201E-1   -1.430493901572266E-2   -4.041783212123215E-2   -1.506777791849862E-2   -4.024921091203174E-2    4.718610989006666E-1   -2.113723944213281E-1
 6.529440546550000E9     5.513555212178846E-1   -1.019130044861260E-1   -1.424858759838720E-2   -4.083435969484788E-2   -1.522545542445108E-2   -4.058423617477615E-2    4.712297556591623E-1   -2.126566473335718E-1
 6.529451543725000E9     5.511462169657034E-1   -1.029649698312493E-1   -1.453953059355892E-2   -4.114716970705260E-2   -1.546372549794673E-2   -4.078713540030871E-2    4.705852912973332E-1   -2.136268553953562E-1
 6.529462540900000E9     5.508621913415169E-1   -1.038705504930288E-1   -1.478224117835576E-2   -4.126823294106738E-2   -1.562338088739983E-2   -4.101688801183715E-2    4.702609044353222E-1   -2.148280128281377E-1
 6.529473538075000E9     5.507039219834139E-1   -1.049074386100919E-1   -1.500378009260795E-2   -4.152669256385283E-2   -1.593843767394649E-2   -4.113001183252157E-2    4.695994159107078E-1   -2.159380443162330E-1
 6.529484535250000E9     5.506206414910182E-1   -1.058143580726182E-1   -1.509851153085139E-2   -4.178344219498534E-2   -1.617895687590981E-2   -4.156745115134824E-2    4.688286813803944E-1   -2.171286323872784E-1
 6.529495532425000E9     5.503416041562919E-1   -1.067667491809272E-1   -1.549188963585410E-2   -4.218615381761893E-2   -1.638102500591320E-2   -4.187586882633563E-2    4.681031506594637E-1   -2.181309912288450E-1
 6.529506529600000E9     5.501419635572761E-1   -1.077167718837281E-1   -1.557355483445172E-2   -4.234074589578385E-2   -1.667759618056574E-2   -4.218208719038825E-2    4.674798974427909E-1   -2.192605198113467E-1
 6.529517526775000E9     5.498265958429226E-1   -1.086633559298618E-1   -1.589401215037052E-2   -4.266233535120482E-2   -1.687436076953516E-2   -4.232050367528715E-2    4.670535723652710E-1   -2.204215547884733E-1
 6.529528523950000E9     5.496433958876041E-1   -1.097132445375996E-1   -1.607018024918358E-2   -4.285952752888370E-2   -1.705523644872489E-2   -4.269736106206350E-2    4.662878548865919E-1   -2.215042312174648E-1
 6.529539521125000E9     5.494141719444281E-1   -1.106966033275033E-1   -1.631355038492790E-2   -4.322930891558788E-2   -1.729162870203429E-2   -4.288805063005859E-2    4.656424023611138E-1   -2.228653516378307E-1
 6.529550518300000E9     5.490397019215250E-1   -1.115916354407168E-1   -1.672032884000080E-2   -4.358089361542289E-2   -1.760591891758119E-2   -4.325737730903911E-2    4.651122416164247E-1   -2.239954734746695E-1
 6.529561515475000E9     5.488249466340348E-1   -1.125860617464562E-1   -1.691263810979332E-2   -4.384053812065674E-2   -1.780634847624697E-2   -4.347885799027315E-2    4.641256035088085E-1   -2.250522552379415E-1
 6.529572512650000E9     5.486246769313857E-1   -1.135657131968808E-1   -1.711900918442797E-2   -4.414662424106187E-2   -1.803135025243064E-2   -4.390867278723849E-2    4.635201435481915E-1   -2.263199592437525E-1
 6.529583509825000E9     5.484053210405881E-1   -1.145599802044067E-1   -1.731559027224712E-2   -4.429852561837538E-2   -1.829746200546033E-2   -4.412508796360781E-2    4.629740695359510E-1   -2.274067507417436E-1
 6.529594507000000E9     5.480941030380709E-1   -1.154132928782033E-1   -1.762567990985958E-2   -4.472794099170747E-2   -1.858952415969769E-2   -4.443917137701279E-2    4.620661147217838E-1   -2.286999373254820E-1
 6.529605504175000E9     5.478352839544295E-1   -1.163896640409399E-1   -1.786029464995382E-2   -4.507629571490906E-2   -1.891975317109903E-2   -4.471007276064892E-2    4.614197238691168E-1   -2.298011756953072E-1
 6.529616501350000E9     5.475990060763476E-1   -1.174280623399116E-1   -1.822214745167699E-2   -4.535479759293428E-2   -1.914613644894520E-2   -4.507322740995193E-2    4.607039408041259E-1   -2.308898379826667E-1
 6.529627498525000E9     5.473006959542042E-1   -1.184100008084890E-1   -1.839093802639607E-2   -4.561278318487657E-2   -1.942835858197164E-2   -4.531244827604093E-2    4.597621274114990E-1   -2.321357205300916E-1
 6.529638495700000E9     5.469642142767047E-1   -1.193323201261066E-1   -1.861513983576530E-2   -4.612573580871725E-2   -1.967194287374611E-2   -4.571841776913636E-2    4.591595045207803E-1   -2.335037087079501E-1
 6.529649492875000E9     5.467415536694702E-1   -1.203485143962387E-1   -1.884911550880591E-2   -4.628883011532188E-2   -1.998611810712629E-2   -4.592743881263477E-2    4.584460950842727E-1   -2.347808807215868E-1
 6.529660490050000E9     5.465102565133002E-1   -1.213130327396385E-1   -1.930619936159682E-2   -4.676934859244182E-2   -2.038625843524407E-2   -4.623585506102711E-2    4.574753090983451E-1   -2.359138584595615E-1
 6.529671487225000E9     5.461983475090156E-1   -1.224041813501826E-1   -1.958572501600404E-2   -4.710425844630366E-2   -2.064909787236296E-2   -4.657385378815069E-2    4.567567380306579E-1   -2.372710476366064E-1
 6.529682484400000E9     5.459487355731960E-1   -1.233235787836225E-1   -1.982918611562057E-2   -4.725037253052585E-2   -2.085996751805421E-2   -4.701677785336316E-2    4.558437894895390E-1   -2.384279301359333E-1
 6.529693481575000E9     5.456440440044819E-1   -1.242528992408331E-1   -2.014359830900151E-2   -4.773627044486364E-2   -2.125147548272699E-2   -4.741663533627219E-2    4.552936587954800E-1   -2.396290254105831E-1
 6.529704478750000E9     5.453353220319058E-1   -1.254400171494423E-1   -2.039047312623414E-2   -4.799036695522152E-2   -2.172315422939854E-2   -4.767709260296886E-2    4.543459178410880E-1   -2.408764977428559E-1
