#  HZ   S   RI   R     50.00 
! Rohde & Schwarz Vector Network Analyzer 
! Rohde-Schwarz,ZNB20-2Port,1311601062101988,3.16
! Created: UTC 3/21/2024, 1:04:54 AM
! freq[Hz]                re:S11                  im:S11                  re:S21                  im:S21                  re:S12                  im:S12                  re:S22                  im:S22
 6.528709787000000E9     5.600485895472155E-1   -4.196671222469466E-2   -5.843616374854848E-3   -2.865407631208951E-2   -6.356619366329572E-3   -2.860828868013617E-2    4.996651275785877E-1   -1.461357373026352E-1
 6.528720821675000E9     5.599067567076090E-1   -4.276198889781593E-2   -5.904432808380953E-3   -2.878786316501771E-2   -6.472622256217817E-3   -2.874069555516576E-2    4.993108254644937E-1   -1.469586488587340E-1
 6.528731856350000E9     5.598914877223253E-1   -4.378997697598163E-2   -6.175276354818571E-3   -2.904067137733539E-2   -6.592314226261995E-3   -2.883267173812184E-2    4.991403773316377E-1   -1.480157833467912E-1
 6.528742891025000E9     5.595773293594875E-1   -4.453354347285406E-2   -6.060909715573344E-3   -2.910258104243782E-2   -6.708140033752438E-3   -2.894931792689439E-2    4.988001113153807E-1   -1.488029913085743E-1
 6.528753925700000E9     5.597031883075618E-1   -4.540053258557759E-2   -6.178452204516405E-3   -2.931606598440074E-2   -6.724753670034761E-3   -2.908017317088592E-2    4.984060362290731E-1   -1.496881566690502E-1
 6.528764960375000E9     5.596237251530110E-1   -4.631358507304010E-2   -6.350069505262798E-3   -2.922170200570823E-2   -6.771777402365052E-3   -2.926620205420432E-2    4.981619852125669E-1   -1.507677762770745E-1
 6.528775995050000E9     5.594289162914959E-1   -4.729924870706324E-2   -6.328650430973289E-3   -2.946126096109158E-2   -6.975881841165339E-3   -2.939188527372077E-2    4.979207644347098E-1   -1.515484541681986E-1
 6.528787029725000E9     5.595430876091261E-1   -4.812563803852667E-2   -6.276652194567414E-3   -2.952741880564390E-2   -6.952855756884553E-3   -2.955717056024307E-2    4.974911104812964E-1   -1.524860251139544E-1
 6.528798064400000E9     5.593805220134713E-1   -4.896610558567806E-2   -6.524379461724739E-3   -2.980735547250544E-2   -7.077329380329365E-3   -2.968878531321453E-2    4.973712929031908E-1   -1.535518406367965E-1
 6.528809099075000E9     5.594267654627197E-1   -4.987433031717952E-2   -6.671595148620220E-3   -2.984422129475012E-2   -7.200432366065735E-3   -2.978516842370237E-2    4.969272028812867E-1   -1.544678429566379E-1
 6.528820133750000E9     5.592485700775646E-1   -5.065825533074057E-2   -6.614137407794471E-3   -2.998828611466794E-2   -7.240171125501161E-3   -2.996813827784468E-2    4.966246937703810E-1   -1.554961958577745E-1
 6.528831168425000E9     5.590712541583768E-1   -5.162921712771251E-2   -6.813287044967814E-3   -3.014993466726842E-2   -7.411401695318820E-3   -3.008570515393073E-2    4.962659246472619E-1   -1.563355043283614E-1
 6.528842203100000E9     5.590916907623262E-1   -5.254951840946395E-2   -6.912740235351773E-3   -3.037174282273779E-2   -7.464873904163533E-3   -3.027577117534390E-2    4.959336737109094E-1   -1.572415510882740E-1
 6.528853237775000E9     5.589472639249327E-1   -5.332717242281378E-2   -6.915329045073095E-3   -3.053121287625728E-2   -7.575827196799566E-3   -3.032707894024448E-2    4.956886608700994E-1   -1.581328626280196E-1
 6.528864272450000E9     5.589117849342744E-1   -5.417223075618863E-2   -7.102821515562072E-3   -3.051510678377341E-2   -7.724514208995181E-3   -3.039316133344569E-2    4.952799720559951E-1   -1.591138166526832E-1
 6.528875307125000E9     5.588930133402673E-1   -5.511738500752106E-2   -7.241636603253819E-3   -3.075942130183106E-2   -7.807941224303526E-3   -3.064332847907218E-2    4.950389049445562E-1   -1.600713849153717E-1
 6.528886341800000E9     5.588059945319258E-1   -5.611577568214819E-2   -7.330303118858377E-3   -3.092735490707660E-2   -7.854620011661708E-3   -3.076934583925253E-2    4.945368780131179E-1   -1.609936251373075E-1
 6.528897376475000E9     5.587139941293625E-1   -5.698436389529375E-2   -7.332664715243884E-3   -3.102626993794718E-2   -7.995284999661621E-3   -3.087612539653563E-2    4.942490072512487E-1   -1.619808207000235E-1
 6.528908411150000E9     5.583903465053002E-1   -5.773143055078463E-2   -7.579109854617406E-3   -3.117092457604300E-2   -8.041953770486011E-3   -3.123068948009311E-2    4.939216621347031E-1   -1.627838884625885E-1
 6.528919445825000E9     5.583986996475858E-1   -5.865197339567309E-2   -7.609838425064968E-3   -3.129429465756193E-2   -8.085476480765954E-3   -3.120153413737192E-2    4.937170231124328E-1   -1.639503882542581E-1
 6.528930480500000E9     5.582048975956242E-1   -5.968344232676553E-2   -7.630801767862445E-3   -3.146464075440345E-2   -8.377302913032660E-3   -3.139547766787767E-2    4.932702736753071E-1   -1.650211632788335E-1
 6.528941515175000E9     5.581840665725165E-1   -6.050832408082518E-2   -7.756771046123300E-3   -3.168119101442306E-2   -8.422499119679357E-3   -3.152298875299151E-2    4.927820566368432E-1   -1.658164478458589E-1
 6.528952549850000E9     5.580811111767273E-1   -6.130491534116916E-2   -7.985139092296936E-3   -3.177466527452186E-2   -8.471832573807566E-3   -3.163935514730854E-2    4.926909862656893E-1   -1.667639300584596E-1
 6.528963584525000E9     5.578818307817857E-1   -6.220471420564223E-2   -8.011832042279454E-3   -3.189952847373487E-2   -8.679000363819805E-3   -3.185430372417408E-2    4.922345595037421E-1   -1.677293474472979E-1
 6.528974619200000E9     5.578840518480905E-1   -6.314084173977241E-2   -8.060356267864792E-3   -3.208615778435537E-2   -8.728108131631015E-3   -3.207940457647974E-2    4.919594331589430E-1   -1.686371550648195E-1
 6.528985653875000E9     5.576356987094343E-1   -6.396041925525640E-2   -8.266390222067942E-3   -3.228973453774574E-2   -8.852005584834439E-3   -3.211176493307601E-2    4.913179455113169E-1   -1.696376774250209E-1
 6.528996688550000E9     5.575202440435912E-1   -6.498756645830012E-2   -8.306671214681659E-3   -3.243168165322618E-2   -9.030658950245645E-3   -3.230207826707311E-2    4.911045795635494E-1   -1.706817191633639E-1
 6.529007723225000E9     5.574612709778904E-1   -6.577919978241879E-2   -8.483959366538344E-3   -3.252218224457190E-2   -9.118125833648936E-3   -3.251208803690488E-2    4.906844373035956E-1   -1.716307365932488E-1
 6.529018757900000E9     5.573435124641746E-1   -6.675519298224653E-2   -8.501755002526650E-3   -3.264508098711815E-2   -9.215360898935118E-3   -3.258468614020085E-2    4.901625117591042E-1   -1.726482948655096E-1
 6.529029792575000E9     5.572947706847173E-1   -6.768717009009075E-2   -8.562759020421352E-3   -3.292998253125796E-2   -9.369505780862881E-3   -3.275034654262134E-2    4.897542188267628E-1   -1.737499140249013E-1
 6.529040827250000E9     5.570814724171758E-1   -6.846291282556512E-2   -8.808439452254329E-3   -3.312253156476295E-2   -9.415251416628781E-3   -3.301445067428449E-2    4.894350101779122E-1   -1.745864596373549E-1
 6.529051861925000E9     5.570644277292830E-1   -6.937766588891013E-2   -8.712722378705887E-3   -3.333900339134867E-2   -9.525806157924749E-3   -3.312052127249463E-2    4.889192045127169E-1   -1.755531928843033E-1
 6.529062896600000E9     5.569011218593978E-1   -7.039830850796967E-2   -9.051866878756172E-3   -3.352434615890510E-2   -9.672618532421233E-3   -3.343320336339478E-2    4.888442589810853E-1   -1.766815610632826E-1
 6.529073931275000E9     5.568940569420300E-1   -7.134986419247709E-2   -9.098008935387191E-3   -3.365007492701389E-2   -9.787144609259599E-3   -3.347502206841026E-2    4.883300148243157E-1   -1.777814979343982E-1
 6.529084965950000E9     5.566777769343297E-1   -7.207243617392890E-2   -9.183305707976888E-3   -3.390192407609377E-2   -9.950386827938532E-3   -3.375596748520215E-2    4.877888842766127E-1   -1.785231989549919E-1
 6.529096000625000E9     5.565354296693170E-1   -7.303160371860706E-2   -9.289614216716105E-3   -3.398786164940250E-2   -1.014422164443958E-2   -3.379287474200528E-2    4.874150092245556E-1   -1.794298093767466E-1
 6.529107035300000E9     5.563327555049102E-1   -7.380782912027042E-2   -9.449812773378417E-3   -3.423085689162172E-2   -1.017374064191226E-2   -3.399170573901477E-2    4.868897697156557E-1   -1.804812232857884E-1
 6.529118069975000E9     5.563197444272056E-1   -7.484255705018224E-2   -9.645137480673556E-3   -3.426295588140853E-2   -1.036808321199998E-2   -3.421767860115302E-2    4.866138330086728E-1   -1.815604794456811E-1
 6.529129104650000E9     5.561319057453049E-1   -7.574842589196577E-2   -9.893529063752739E-3   -3.442607085566673E-2   -1.050714056016285E-2   -3.437089992927161E-2    4.861689323791895E-1   -1.824755521999687E-1
 6.529140139325000E9     5.559421114992354E-1   -7.670842031501829E-2   -9.881609516053085E-3   -3.455200601438956E-2   -1.061256455703898E-2   -3.452727653233785E-2    4.858339048590639E-1   -1.836689447525748E-1
 6.529151174000000E9     5.557244216369013E-1   -7.763401365461794E-2   -9.872430997190143E-3   -3.492579828429818E-2   -1.076984579842811E-2   -3.474412993603743E-2    4.854797637928595E-1   -1.845567296645629E-1
 6.529162208675000E9     5.557534390820876E-1   -7.852701979850403E-2   -1.023355289407331E-2   -3.511520848110643E-2   -1.096435958771405E-2   -3.499095572860787E-2    4.850131448566711E-1   -1.855980519684663E-1
 6.529173243350000E9     5.556656979624128E-1   -7.937230342015476E-2   -1.024607872907562E-2   -3.534608400528127E-2   -1.100525609374569E-2   -3.505470743025115E-2    4.843399115887391E-1   -1.867610820106837E-1
 6.529184278025000E9     5.553051370173568E-1   -8.039680748588740E-2   -1.033953964414628E-2   -3.552255861084958E-2   -1.118540818286664E-2   -3.529910867298561E-2    4.838849580360970E-1   -1.876035601223658E-1
 6.529195312700000E9     5.551504926402642E-1   -8.119506574868003E-2   -1.063191618676356E-2   -3.566397067818127E-2   -1.131677525542045E-2   -3.547838406409037E-2    4.834191189169963E-1   -1.887151250287618E-1
 6.529206347375000E9     5.551598253999549E-1   -8.219108823768057E-2   -1.063073827333045E-2   -3.584283791104983E-2   -1.146399835996031E-2   -3.566643361955036E-2    4.830543344433871E-1   -1.897222929882118E-1
 6.529217382050000E9     5.548511422079951E-1   -8.306196056518379E-2   -1.085799109041801E-2   -3.610035335475544E-2   -1.156130698744208E-2   -3.586998470286261E-2    4.825656803520629E-1   -1.907199103503297E-1
 6.529228416725000E9     5.548312769830385E-1   -8.403363383255096E-2   -1.101374904216891E-2   -3.620289022432162E-2   -1.176770948662309E-2   -3.614435137370949E-2    4.820319406616944E-1   -1.917200032674603E-1
 6.529239451400000E9     5.546403537067548E-1   -8.495846474348853E-2   -1.117034584278310E-2   -3.648803219944461E-2   -1.185814483924836E-2   -3.633284745899157E-2    4.816654735990268E-1   -1.928327241126386E-1
 6.529250486075000E9     5.544185734587508E-1   -8.576651513397261E-2   -1.150980528860365E-2   -3.674027876408895E-2   -1.200756631387764E-2   -3.647924523443912E-2    4.809975081468739E-1   -1.937865730129947E-1
 6.529261520750000E9     5.544208010938491E-1   -8.681229793200879E-2   -1.135779546537843E-2   -3.692387005832340E-2   -1.228782389968969E-2   -3.677838070380087E-2    4.807155271462317E-1   -1.948112784473465E-1
 6.529272555425000E9     5.542100518193038E-1   -8.763735249353302E-2   -1.170429923625251E-2   -3.711293533734821E-2   -1.246404335364652E-2   -3.693211344768212E-2    4.800612726162749E-1   -1.958274462396438E-1
 6.529283590100000E9     5.539275079810759E-1   -8.858807945599305E-2   -1.185106026411856E-2   -3.727489071529705E-2   -1.256521443478891E-2   -3.715263137785377E-2    4.796964497512705E-1   -1.969113560932365E-1
 6.529294624775000E9     5.538415078066652E-1   -8.951205925757928E-2   -1.202683576709966E-2   -3.754579925711034E-2   -1.277592262144377E-2   -3.732476058771443E-2    4.791178050215268E-1   -1.980838322911500E-1
 6.529305659450000E9     5.536509572029611E-1   -9.039588236512981E-2   -1.213826643442913E-2   -3.779887639901332E-2   -1.286253962024084E-2   -3.765738617274014E-2    4.787085057615058E-1   -1.989924108299350E-1
 6.529316694125000E9     5.534799316832334E-1   -9.139841638615118E-2   -1.213135778291421E-2   -3.796230096811806E-2   -1.311476728895765E-2   -3.789008871724702E-2    4.780713189212008E-1   -2.001856463781989E-1
 6.529327728800000E9     5.533977271077950E-1   -9.235217299793927E-2   -1.235960379481506E-2   -3.828003263437653E-2   -1.328928167536588E-2   -3.803103529454166E-2    4.775920605375434E-1   -2.013065849277881E-1
 6.529338763475000E9     5.530575389213277E-1   -9.321878646644638E-2   -1.266268945002196E-2   -3.849222561501708E-2   -1.341876378370191E-2   -3.819722304539697E-2    4.770678560498082E-1   -2.023422449188874E-1
 6.529349798150000E9     5.528542645707032E-1   -9.426668641485203E-2   -1.288589888947468E-2   -3.874114897640801E-2   -1.365717254349658E-2   -3.842971158067254E-2    4.764721153250662E-1   -2.032891490822814E-1
 6.529360832825000E9     5.528763018930920E-1   -9.500850363442032E-2   -1.294380283757732E-2   -3.893887960032220E-2   -1.381492809299788E-2   -3.885813935661432E-2    4.759563626227655E-1   -2.045263967915972E-1
 6.529371867500000E9     5.524774224016678E-1   -9.595944790141862E-2   -1.306853415698980E-2   -3.919453090133063E-2   -1.401976349975072E-2   -3.891182049277906E-2    4.753650432345827E-1   -2.055074859108289E-1
 6.529382902175000E9     5.523854062961707E-1   -9.694263234378671E-2   -1.336927847591755E-2   -3.951366969778187E-2   -1.414937978853986E-2   -3.915724426010516E-2    4.747754466828976E-1   -2.066544613410202E-1
 6.529393936850000E9     5.521769285297990E-1   -9.795838324246973E-2   -1.347756548476176E-2   -3.984899949027430E-2   -1.443981104714182E-2   -3.934193786599737E-2    4.740656860996332E-1   -2.077788738285500E-1
 6.529404971525000E9     5.520098490539274E-1   -9.892670700884797E-2   -1.370633613520963E-2   -3.976213609902730E-2   -1.455014909012305E-2   -3.966116895114456E-2    4.736086548087933E-1   -2.087380046774481E-1
 6.529416006200000E9     5.517895178658474E-1   -9.971316391280043E-2   -1.398225929377560E-2   -4.031012009418766E-2   -1.471094837944662E-2   -3.988114361509990E-2    4.730330341146557E-1   -2.099883158615219E-1
 6.529427040875000E9     5.516210538980804E-1   -1.007963867470267E-1   -1.398659441840872E-2   -4.042683679926307E-2   -1.498904343364174E-2   -4.017266503422622E-2    4.725216222508135E-1   -2.111623180787541E-1
 6.529438075550000E9     5.513462969186842E-1   -1.017738674874750E-1   -1.435513960047728E-2   -4.075508195811553E-2   -1.522054493664778E-2   -4.045586166794692E-2    4.719344915230686E-1   -2.122289478128387E-1
 6.529449110225000E9     5.511917938837630E-1   -1.026480054411287E-1   -1.450334040344193E-2   -4.099533445793749E-2   -1.534682852789954E-2   -4.065437555397319E-2    4.713988034124656E-1   -2.133037225579099E-1
 6.529460144900000E9     5.509339266541100E-1   -1.037220999619559E-1   -1.477572485307022E-2   -4.123999696696489E-2   -1.563406751988345E-2   -4.093108347341266E-2    4.706590973495920E-1   -2.143487494315287E-1
 6.529471179575000E9     5.506643894719807E-1   -1.045557853686038E-1   -1.489826663951970E-2   -4.144279053623974E-2   -1.578872793077619E-2   -4.113039597686136E-2    4.701191294996973E-1   -2.156348445974941E-1
 6.529482214250000E9     5.505469232986459E-1   -1.056114282905508E-1   -1.517739015914752E-2   -4.173056498610053E-2   -1.614691572764669E-2   -4.135719997454673E-2    4.694700894385051E-1   -2.167671624323142E-1
 6.529493248925000E9     5.503246637084287E-1   -1.066667198761703E-1   -1.528198096072778E-2   -4.199292237747626E-2   -1.624804466391904E-2   -4.181119729078866E-2    4.688205499737569E-1   -2.177156327976311E-1
 6.529504283600000E9     5.501010198981442E-1   -1.074104985265362E-1   -1.563618591285913E-2   -4.220317883257381E-2   -1.655499043771392E-2   -4.199768119203583E-2    4.681121484790661E-1   -2.189605201955598E-1
 6.529515318275000E9     5.498242535863541E-1   -1.083823513019042E-1   -1.579962389891898E-2   -4.254147045615089E-2   -1.677099039289185E-2   -4.231114349879283E-2    4.676019339745887E-1   -2.201500297166092E-1
 6.529526352950000E9     5.494855557832120E-1   -1.093704948924192E-1   -1.603111556780697E-2   -4.282618843622008E-2   -1.690876936924080E-2   -4.263910377654865E-2    4.668285394251842E-1   -2.212431216123720E-1
 6.529537387625000E9     5.495088827735274E-1   -1.103453806765267E-1   -1.623781892068258E-2   -4.313069329493549E-2   -1.723445894376336E-2   -4.285167175790222E-2    4.663337319230798E-1   -2.224721499255501E-1
 6.529548422300000E9     5.490511366216938E-1   -1.113011249990949E-1   -1.647075630532138E-2   -4.351432639969511E-2   -1.737081991575677E-2   -4.308510005193732E-2    4.653442678578881E-1   -2.235194143038297E-1
 6.529559456975000E9     5.487920155324946E-1   -1.122759224501854E-1   -1.685014027183514E-2   -4.368732141051283E-2   -1.783967143245662E-2   -4.337229269818542E-2    4.646463298001098E-1   -2.247793376684825E-1
 6.529570491650000E9     5.486944025930912E-1   -1.132306060216205E-1   -1.706490617467225E-2   -4.399730174203044E-2   -1.799520942259260E-2   -4.365811352899615E-2    4.641260948136183E-1   -2.259225337574005E-1
 6.529581526325000E9     5.484156059326899E-1   -1.142531165456763E-1   -1.733114629761444E-2   -4.429286867258041E-2   -1.827342015399956E-2   -4.404782930295683E-2    4.634201850529050E-1   -2.271285609715618E-1
 6.529592561000000E9     5.480358812898148E-1   -1.152411188569600E-1   -1.741964521055858E-2   -4.452840136228935E-2   -1.855374068548066E-2   -4.419489829810280E-2    4.627295487563582E-1   -2.283275520640264E-1
 6.529603595675000E9     5.479246578607032E-1   -1.162422603616368E-1   -1.777373768588180E-2   -4.480395456272101E-2   -1.889038449777177E-2   -4.457076403928160E-2    4.620384242340294E-1   -2.295631516263091E-1
 6.529614630350000E9     5.476299395615954E-1   -1.171546769194071E-1   -1.814449221839957E-2   -4.519601754757325E-2   -1.908057281757024E-2   -4.484475140379138E-2    4.612179233995644E-1   -2.306589661544806E-1
 6.529625665025000E9     5.472756010929917E-1   -1.180925828330888E-1   -1.842231325386242E-2   -4.556742340511141E-2   -1.937558756825110E-2   -4.521364577622003E-2    4.603590502856191E-1   -2.318896634869245E-1
 6.529636699700000E9     5.471116112623432E-1   -1.191290563886031E-1   -1.850072508127702E-2   -4.576479112292472E-2   -1.972402681395762E-2   -4.553758192699293E-2    4.599622892725975E-1   -2.331575804355790E-1
 6.529647734375000E9     5.467508464816428E-1   -1.201509588725186E-1   -1.888648715113870E-2   -4.625748524081740E-2   -1.993438097259623E-2   -4.584973311576129E-2    4.589038176795755E-1   -2.344523480245737E-1
 6.529658769050000E9     5.465427693750654E-1   -1.212005209628666E-1   -1.923840155016907E-2   -4.654624342784806E-2   -2.023160645280216E-2   -4.613952293637881E-2    4.581638577952737E-1   -2.356874108976525E-1
 6.529669803725000E9     5.463116074485656E-1   -1.221627204115480E-1   -1.934711983464511E-2   -4.685930455646580E-2   -2.056794810602453E-2   -4.651242130585672E-2    4.574908099086893E-1   -2.368374827492311E-1
 6.529680838400000E9     5.459634342493799E-1   -1.231741717990737E-1   -1.984609543901771E-2   -4.717880397201059E-2   -2.088684361042204E-2   -4.685847614569476E-2    4.566041125079728E-1   -2.381358900750383E-1
 6.529691873075000E9     5.456696721104496E-1   -1.240991738773373E-1   -2.011593613258420E-2   -4.732453403252437E-2   -2.119810743484767E-2   -4.722719279194765E-2    4.557192531345403E-1   -2.394390314500194E-1
 6.529702907750000E9     5.452746718703417E-1   -1.252612757974705E-1   -2.043085233229378E-2   -4.780193609915762E-2   -2.147822084077834E-2   -4.755222841379397E-2    4.548333863377393E-1   -2.407236595567982E-1
