#  HZ   S   RI   R     50.00 
! Rohde & Schwarz Vector Network Analyzer 
! Rohde-Schwarz,ZNB20-2Port,1311601062101988,3.16
! Created: UTC 3/21/2024, 1:04:56 AM
! freq[Hz]                re:S11                  im:S11                  re:S21                  im:S21                  re:S12                  im:S12                  re:S22                  im:S22
 6.528712924000000E9     5.600004533317156E-1   -4.226791777230137E-2   -5.837811853696777E-3   -2.863972834494160E-2   -6.408097804866167E-3   -2.868570347035113E-2    5.000579694400172E-1   -1.465774778829487E-1
 6.528723944575000E9     5.600080525485102E-1   -4.308394097927517E-2   -5.971659396191454E-3   -2.887857945145462E-2   -6.487670968916220E-3   -2.879773492622529E-2    4.995411458551856E-1   -1.474807772053780E-1
 6.528734965150000E9     5.597788264454998E-1   -4.397831479975651E-2   -6.006244397595611E-3   -2.896985677321123E-2   -6.663330316768476E-3   -2.895614388855180E-2    4.994404841548813E-1   -1.483953771241611E-1
 6.528745985725000E9     5.597070386950141E-1   -4.489710045883778E-2   -6.133665572228362E-3   -2.913131623112740E-2   -6.767578292345310E-3   -2.901474088901359E-2    4.990809779659063E-1   -1.492751297049248E-1
 6.528757006300000E9     5.595794164476841E-1   -4.555201494092095E-2   -6.117606589373282E-3   -2.918278795229586E-2   -6.678180282620335E-3   -2.920730640268793E-2    4.988000163640032E-1   -1.503254482699823E-1
 6.528768026875000E9     5.596246814872901E-1   -4.662646806873599E-2   -6.312463465950597E-3   -2.933439770056039E-2   -6.837678699410561E-3   -2.931374126203895E-2    4.983543258523638E-1   -1.513510222051523E-1
 6.528779047450000E9     5.594969167474739E-1   -4.744380582900021E-2   -6.365753183555278E-3   -2.941708873299297E-2   -6.854753746163946E-3   -2.940523672718006E-2    4.979214174264561E-1   -1.522573773936657E-1
 6.528790068025000E9     5.593877801817578E-1   -4.827835650500917E-2   -6.483462763958381E-3   -2.960814223425263E-2   -6.964343178741164E-3   -2.955328709833304E-2    4.976813298958808E-1   -1.531602997747554E-1
 6.528801088600000E9     5.593717887472146E-1   -4.912824286000994E-2   -6.438181086589705E-3   -2.979318816985101E-2   -7.133021807615316E-3   -2.974937184609018E-2    4.975204624187916E-1   -1.540720068747120E-1
 6.528812109175000E9     5.592908262319497E-1   -5.010295022670217E-2   -6.554812616228433E-3   -3.008309158125212E-2   -7.278372702009451E-3   -2.986284032482393E-2    4.971010795782819E-1   -1.549539643674706E-1
 6.528823129750000E9     5.592952977470567E-1   -5.103984946595011E-2   -6.842362964726047E-3   -3.010307339182279E-2   -7.261191939369313E-3   -2.996591757481774E-2    4.968848322001443E-1   -1.559047714968342E-1
 6.528834150325000E9     5.591563929014818E-1   -5.181398050697082E-2   -6.776843511793276E-3   -3.030418265333532E-2   -7.453422043204950E-3   -3.007749060615456E-2    4.965057589588107E-1   -1.568655285961947E-1
 6.528845170900000E9     5.590800914710032E-1   -5.274671845521984E-2   -6.861402062444087E-3   -3.034021429047274E-2   -7.482367752101094E-3   -3.016434540470111E-2    4.961453071142819E-1   -1.577447658598511E-1
 6.528856191475000E9     5.589030685547332E-1   -5.356328856024985E-2   -6.933399860387816E-3   -3.057152825188058E-2   -7.643282800535825E-3   -3.042135711701409E-2    4.958559874306582E-1   -1.587822950189937E-1
 6.528867212050000E9     5.587986922016005E-1   -5.448061511161695E-2   -7.062295444248049E-3   -3.059838836197646E-2   -7.799777975342587E-3   -3.050630482084849E-2    4.954385721195598E-1   -1.596433042108386E-1
 6.528878232625000E9     5.586638725633211E-1   -5.543346220268626E-2   -7.091617104477898E-3   -3.078661892010402E-2   -7.782403519052764E-3   -3.066798328637673E-2    4.950615013857414E-1   -1.605848605370406E-1
 6.528889253200000E9     5.586747691651657E-1   -5.608180573245797E-2   -7.353669533925438E-3   -3.084663687906245E-2   -7.909727708286497E-3   -3.077267517962183E-2    4.949063866438118E-1   -1.615886996728209E-1
 6.528900273775000E9     5.585850589227392E-1   -5.712821036605489E-2   -7.359380845694199E-3   -3.096858146671670E-2   -7.990505969415723E-3   -3.092437421667021E-2    4.943990353614389E-1   -1.624707948310468E-1
 6.528911294350000E9     5.585696811597846E-1   -5.813531248214626E-2   -7.470707140297471E-3   -3.111640112684888E-2   -8.176660565448222E-3   -3.110986700241482E-2    4.941675905184762E-1   -1.635142262469345E-1
 6.528922314925000E9     5.583747249309258E-1   -5.890461451785993E-2   -7.642791811610559E-3   -3.138462209905036E-2   -8.242838275225378E-3   -3.131433718811233E-2    4.936369267359659E-1   -1.644063576751494E-1
 6.528933335500000E9     5.581214265848733E-1   -5.979928869128240E-2   -7.766731932480138E-3   -3.159358320392232E-2   -8.311938026941152E-3   -3.128981498734131E-2    4.932400707456047E-1   -1.653735661239011E-1
 6.528944356075000E9     5.580772213824962E-1   -6.075140391683415E-2   -7.808165506216541E-3   -3.166271194120202E-2   -8.491475643066945E-3   -3.154391124068282E-2    4.931155987572834E-1   -1.663973695540210E-1
 6.528955376650000E9     5.580084990178553E-1   -6.153054952249545E-2   -7.944676057659946E-3   -3.176639392633477E-2   -8.545845863063024E-3   -3.165766840688064E-2    4.928036671187958E-1   -1.672756569631923E-1
 6.528966397225000E9     5.579347335773045E-1   -6.242009587654812E-2   -7.937605444295380E-3   -3.210230809901247E-2   -8.705533331419381E-3   -3.182172455572801E-2    4.923676751084554E-1   -1.682652126165881E-1
 6.528977417800000E9     5.577961542029154E-1   -6.336027106975051E-2   -8.109186664498705E-3   -3.208645922427451E-2   -8.751700925997549E-3   -3.205914962155545E-2    4.919695506515753E-1   -1.691243000220284E-1
 6.528988438375000E9     5.577646082730140E-1   -6.432168882029166E-2   -8.191785245644491E-3   -3.224522645597828E-2   -8.926898043783214E-3   -3.221862073329302E-2    4.915732622571721E-1   -1.701530290228755E-1
 6.528999458950000E9     5.577381885978167E-1   -6.511567572017590E-2   -8.306971126960237E-3   -3.238586716218931E-2   -8.986149942942013E-3   -3.228301337836953E-2    4.911608989936801E-1   -1.710854329516554E-1
 6.529010479525000E9     5.575629079398629E-1   -6.605343189957472E-2   -8.520363502316882E-3   -3.263805315042565E-2   -9.022495700087492E-3   -3.255239228291785E-2    4.906814974767471E-1   -1.722599934552289E-1
 6.529021500100000E9     5.573761877072331E-1   -6.695880020519888E-2   -8.484709515481815E-3   -3.268892721585012E-2   -9.243767532618298E-3   -3.273379218873636E-2    4.905955934417263E-1   -1.731381596618352E-1
 6.529032520675000E9     5.571585261837929E-1   -6.791112638686750E-2   -8.589544207145371E-3   -3.288935219351324E-2   -9.370517711806369E-3   -3.281561647559846E-2    4.901599657623881E-1   -1.741932299812904E-1
 6.529043541250000E9     5.572388950618373E-1   -6.877169504843053E-2   -8.687984675585462E-3   -3.313722607643139E-2   -9.446206207323503E-3   -3.302562029635100E-2    4.894654699148591E-1   -1.751953444000120E-1
 6.529054561825000E9     5.569788220249836E-1   -6.957592743754507E-2   -8.894130476936610E-3   -3.331987882965837E-2   -9.527241506742390E-3   -3.315186711664036E-2    4.894214456689323E-1   -1.760060472329839E-1
 6.529065582400000E9     5.569637335262495E-1   -7.062476711970411E-2   -8.899832560813840E-3   -3.349723767925122E-2   -9.724205279659398E-3   -3.338212358834731E-2    4.889178625574744E-1   -1.770193436681343E-1
 6.529076602975000E9     5.567592495695948E-1   -7.142018993173689E-2   -9.148697124401077E-3   -3.371640836376248E-2   -9.902229714975121E-3   -3.353483183939183E-2    4.881622210628679E-1   -1.780577346451783E-1
 6.529087623550000E9     5.566709862706782E-1   -7.237440148402725E-2   -9.266277041095290E-3   -3.373580293252811E-2   -9.961650778792987E-3   -3.372872630052559E-2    4.878099045470708E-1   -1.790917029878851E-1
 6.529098644125000E9     5.565293453103453E-1   -7.326864748054013E-2   -9.452176455387120E-3   -3.404600717379966E-2   -1.004062798823451E-2   -3.382763685371306E-2    4.876399104396842E-1   -1.799822182756612E-1
 6.529109664700000E9     5.563836977533211E-1   -7.410712329525053E-2   -9.496705128616671E-3   -3.431240622245391E-2   -1.024703909622242E-2   -3.406832806870867E-2    4.871656761532667E-1   -1.808896321035829E-1
 6.529120685275000E9     5.562785306582988E-1   -7.516151761807513E-2   -9.655299902521975E-3   -3.438901820446746E-2   -1.035701673014010E-2   -3.429587869341056E-2    4.867056526729223E-1   -1.819439008911625E-1
 6.529131705850000E9     5.559618634897722E-1   -7.600402488880800E-2   -9.688398907423679E-3   -3.448831068225210E-2   -1.042402566461986E-2   -3.434227425368861E-2    4.863060353585653E-1   -1.831202108435995E-1
 6.529142726425000E9     5.559352680781873E-1   -7.687325097894024E-2   -9.902803713287249E-3   -3.482121501767181E-2   -1.072045938583585E-2   -3.461168400537355E-2    4.857903846332597E-1   -1.841696560148112E-1
 6.529153747000000E9     5.558749746224920E-1   -7.773349082491308E-2   -1.018028075420387E-2   -3.508201729164020E-2   -1.076893848539994E-2   -3.478192004796515E-2    4.854753220023171E-1   -1.849241587368379E-1
 6.529164767575000E9     5.557363345335699E-1   -7.868262276084194E-2   -1.019065712211669E-2   -3.510657199104664E-2   -1.096911870946835E-2   -3.502200950697702E-2    4.850603355145492E-1   -1.860326889706578E-1
 6.529175788150000E9     5.555899453187608E-1   -7.963876715817930E-2   -1.023651390528381E-2   -3.535566448544407E-2   -1.103226228193157E-2   -3.517398196445486E-2    4.845885962702591E-1   -1.869971548259425E-1
 6.529186808725000E9     5.553705015549096E-1   -8.063034031590335E-2   -1.048388141390715E-2   -3.547143050816962E-2   -1.113346477178152E-2   -3.537169035573196E-2    4.841087869648947E-1   -1.881770178676541E-1
 6.529197829300000E9     5.551939369833533E-1   -8.145681818883484E-2   -1.052925655109927E-2   -3.577006466570723E-2   -1.134559995105083E-2   -3.562473503697819E-2    4.837530569351948E-1   -1.890883151257529E-1
 6.529208849875000E9     5.551272394664650E-1   -8.244433024441608E-2   -1.070234321707953E-2   -3.590136338117970E-2   -1.148920440592776E-2   -3.575183831007583E-2    4.832298249245781E-1   -1.901827783595911E-1
 6.529219870450000E9     5.550174976241059E-1   -8.314106327074998E-2   -1.081536408075792E-2   -3.619416181859945E-2   -1.156827957213705E-2   -3.611360264631509E-2    4.826790302550813E-1   -1.913392144857455E-1
 6.529230891025000E9     5.548816795593778E-1   -8.417189597808376E-2   -1.115343502079962E-2   -3.617053690898958E-2   -1.188821270302241E-2   -3.623363701538928E-2    4.821865761121640E-1   -1.921787836015604E-1
 6.529241911600000E9     5.545465737120280E-1   -8.506463962003777E-2   -1.110238773605574E-2   -3.651735843988160E-2   -1.190918756285977E-2   -3.641098290407962E-2    4.816472949153363E-1   -1.932894327308552E-1
 6.529252932175000E9     5.544303096129780E-1   -8.588778593987137E-2   -1.132448902098350E-2   -3.690604646686019E-2   -1.217918725038604E-2   -3.658859700265436E-2    4.811874356758551E-1   -1.943812986596298E-1
 6.529263952750000E9     5.542251972692349E-1   -8.695634795500444E-2   -1.156145132671492E-2   -3.696963987287942E-2   -1.225893497622711E-2   -3.677395914779690E-2    4.806976259855291E-1   -1.953709114445954E-1
 6.529274973325000E9     5.541847892453861E-1   -8.782079453104548E-2   -1.166284782760107E-2   -3.711789407729467E-2   -1.242814753371968E-2   -3.709264599076711E-2    4.801751559530604E-1   -1.963824665772270E-1
 6.529285993900000E9     5.539884014631714E-1   -8.882949114861666E-2   -1.187571625411719E-2   -3.751266680475355E-2   -1.262404622171991E-2   -3.722887352176044E-2    4.798756146266372E-1   -1.973205357038691E-1
 6.529297014475000E9     5.536693647613093E-1   -8.966277807380907E-2   -1.192462484826098E-2   -3.751026753997375E-2   -1.273410609237499E-2   -3.735478297576936E-2    4.793772686495434E-1   -1.985699459350742E-1
 6.529308035050000E9     5.536314025046466E-1   -9.058198589195672E-2   -1.226781149318758E-2   -3.784185190385453E-2   -1.298183526167907E-2   -3.769285274170275E-2    4.786769578789942E-1   -1.996784505604791E-1
 6.529319055625000E9     5.534389031086935E-1   -9.162854540349996E-2   -1.220792763020593E-2   -3.807033862465121E-2   -1.312033598446339E-2   -3.788021082272441E-2    4.781035593658155E-1   -2.005772750007429E-1
 6.529330076200000E9     5.531718547231999E-1   -9.255472211596127E-2   -1.252295365198397E-2   -3.820965623025553E-2   -1.330064262280606E-2   -3.797528526481590E-2    4.777377763076607E-1   -2.015296725348465E-1
 6.529341096775000E9     5.530669865000192E-1   -9.341258784163618E-2   -1.269699640376173E-2   -3.861132415269226E-2   -1.339636209276777E-2   -3.834678278829639E-2    4.772489582378005E-1   -2.028526456711535E-1
 6.529352117350000E9     5.530269053167717E-1   -9.436348532434276E-2   -1.286525643129837E-2   -3.877454108572120E-2   -1.368769937149341E-2   -3.844326628398657E-2    4.767873515066859E-1   -2.039887501651030E-1
 6.529363137925000E9     5.526823253146094E-1   -9.521068194515737E-2   -1.308552345205133E-2   -3.891720750400616E-2   -1.393108524994720E-2   -3.867935321459121E-2    4.761402940031375E-1   -2.049456772525300E-1
 6.529374158500000E9     5.524352027841712E-1   -9.613524643597407E-2   -1.328710745421161E-2   -3.910627243298283E-2   -1.407044620018429E-2   -3.907275486764161E-2    4.755379951361352E-1   -2.060753553981517E-1
 6.529385179075000E9     5.523476511211585E-1   -9.725873759463989E-2   -1.334371806513586E-2   -3.927401471921484E-2   -1.421345258778042E-2   -3.924242370118322E-2    4.750671223969029E-1   -2.072576916127758E-1
 6.529396199650000E9     5.520673004569309E-1   -9.814461059714806E-2   -1.367782536482305E-2   -3.977169970946499E-2   -1.452478755417964E-2   -3.944852524335682E-2    4.744105635174026E-1   -2.082059203411429E-1
 6.529407220225000E9     5.519825474743050E-1   -9.905779413077694E-2   -1.382372540970224E-2   -4.002612229915559E-2   -1.458231951174448E-2   -3.959578579706114E-2    4.738094613000365E-1   -2.092217974039907E-1
 6.529418240800000E9     5.516926872834116E-1   -9.999594826560539E-2   -1.392298318082736E-2   -4.029386787808423E-2   -1.480123725773233E-2   -3.990530356732657E-2    4.732193860554958E-1   -2.105530711106335E-1
 6.529429261375000E9     5.515696402350827E-1   -1.009199998719585E-1   -1.399616790098256E-2   -4.064589745904086E-2   -1.496052682509206E-2   -4.021696750734004E-2    4.726469341316271E-1   -2.116101018684051E-1
 6.529440281950000E9     5.513647753151901E-1   -1.019500806423152E-1   -1.415235137763650E-2   -4.067468085007973E-2   -1.529775099569852E-2   -4.041315267837249E-2    4.721111528755462E-1   -2.126387287910250E-1
 6.529451302525000E9     5.511285587992684E-1   -1.028248125657932E-1   -1.452794559377542E-2   -4.091971119903181E-2   -1.541098432066892E-2   -4.077671171938479E-2    4.714313037407053E-1   -2.139049493679632E-1
 6.529462323100000E9     5.508840015581569E-1   -1.038570386092284E-1   -1.471896653075988E-2   -4.114641378500728E-2   -1.564044474535967E-2   -4.104607606684081E-2    4.709137485999143E-1   -2.148120578155614E-1
 6.529473343675000E9     5.506356223002162E-1   -1.048074591267113E-1   -1.511977825072276E-2   -4.145562666480741E-2   -1.589231483217543E-2   -4.122573232678619E-2    4.702754294638678E-1   -2.159671074014928E-1
 6.529484364250000E9     5.504668287870170E-1   -1.056918486398667E-1   -1.518248115132784E-2   -4.176298998114192E-2   -1.616008101851696E-2   -4.155799623474092E-2    4.696611709163744E-1   -2.172465213321127E-1
 6.529495384825000E9     5.502080444020034E-1   -1.066145232737290E-1   -1.543926588261590E-2   -4.201970844190719E-2   -1.634488496452205E-2   -4.188511501788444E-2    4.689313937821440E-1   -2.183603196120026E-1
 6.529506405400000E9     5.500071593834185E-1   -1.075872284015001E-1   -1.562637397733618E-2   -4.220791499161265E-2   -1.669900425863107E-2   -4.208042309344993E-2    4.684590667912942E-1   -2.193879769517247E-1
 6.529517425975000E9     5.497184442070834E-1   -1.086323145950168E-1   -1.581049744041280E-2   -4.254953460149342E-2   -1.679538194247537E-2   -4.232195916418757E-2    4.676575728985747E-1   -2.205808143770676E-1
 6.529528446550000E9     5.495388355983553E-1   -1.095295416137004E-1   -1.614938038974509E-2   -4.298843624864456E-2   -1.702851214700212E-2   -4.266132232902216E-2    4.670388681300180E-1   -2.217604786822270E-1
 6.529539467125000E9     5.492147509357870E-1   -1.104284137088978E-1   -1.626615554236429E-2   -4.312404649710350E-2   -1.727984869126158E-2   -4.283283391287793E-2    4.663917499609388E-1   -2.229243895646363E-1
 6.529550487700000E9     5.490717541036665E-1   -1.114927460265428E-1   -1.653802322267986E-2   -4.339923190865694E-2   -1.749929892034053E-2   -4.317864941433691E-2    4.657135973708210E-1   -2.241563907766286E-1
 6.529561508275000E9     5.488626968177099E-1   -1.123556869191050E-1   -1.674730657672557E-2   -4.393340249459696E-2   -1.774813467400778E-2   -4.345168368482061E-2    4.651636682065690E-1   -2.253450510906888E-1
 6.529572528850000E9     5.484540446318242E-1   -1.133930845590914E-1   -1.705288497043780E-2   -4.403860441312080E-2   -1.803747100368246E-2   -4.370906384449315E-2    4.643929669023730E-1   -2.265135013822987E-1
 6.529583549425000E9     5.483309568260851E-1   -1.144382200384094E-1   -1.736803281925416E-2   -4.439997039743038E-2   -1.822792634121798E-2   -4.403929067983593E-2    4.636270030677489E-1   -2.275345664739357E-1
 6.529594570000000E9     5.480352998243735E-1   -1.154238531656825E-1   -1.748797455218400E-2   -4.474082535722464E-2   -1.858667454979154E-2   -4.438769665343357E-2    4.628898322462841E-1   -2.288410680170016E-1
 6.529605590575000E9     5.478226598092397E-1   -1.164234590424356E-1   -1.788200770945895E-2   -4.498850424823975E-2   -1.899898215035841E-2   -4.467103682800638E-2    4.621353875793774E-1   -2.300331274472034E-1
 6.529616611150000E9     5.474868584362377E-1   -1.173296315845659E-1   -1.805856910510067E-2   -4.524193758066283E-2   -1.923787141206262E-2   -4.495435340339308E-2    4.614315184316771E-1   -2.311458076621298E-1
 6.529627631725000E9     5.473286250827135E-1   -1.183842001404002E-1   -1.833791464700599E-2   -4.561277571082035E-2   -1.951194970441462E-2   -4.526414112007048E-2    4.607500709671242E-1   -2.323054086393295E-1
 6.529638652300000E9     5.469731336737621E-1   -1.193644937377424E-1   -1.856360408418558E-2   -4.595749504861377E-2   -1.975635063825373E-2   -4.561220412950566E-2    4.599665988288715E-1   -2.335131422913161E-1
 6.529649672875000E9     5.466967776277224E-1   -1.203460663380350E-1   -1.896106126500767E-2   -4.628694080736696E-2   -1.995392727404688E-2   -4.594887668256478E-2    4.590022311212148E-1   -2.350216584589963E-1
 6.529660693450000E9     5.463956959661811E-1   -1.213551833367061E-1   -1.931089777916641E-2   -4.656614237151422E-2   -2.024209973673946E-2   -4.636880847231932E-2    4.582779766592742E-1   -2.359734349981803E-1
 6.529671714025000E9     5.461371815411123E-1   -1.222362140237955E-1   -1.962942861603209E-2   -4.698117028045429E-2   -2.054619270562383E-2   -4.661543801940699E-2    4.573863590529441E-1   -2.373602397949840E-1
 6.529682734600000E9     5.459340341627179E-1   -1.233001439551368E-1   -1.978552561559252E-2   -4.733394687189849E-2   -2.095637440213528E-2   -4.688720021487555E-2    4.565382479487200E-1   -2.385007319773598E-1
 6.529693755175000E9     5.456110553576689E-1   -1.243583653262660E-1   -2.014779460414633E-2   -4.763428245284698E-2   -2.140549856358609E-2   -4.722334837481011E-2    4.556777813218990E-1   -2.397675144522537E-1
 6.529704775750000E9     5.452505382377786E-1   -1.254138392835382E-1   -2.046639186548118E-2   -4.805399731428013E-2   -2.165202700153932E-2   -4.760630001185099E-2    4.550414493934979E-1   -2.411926084371618E-1
