#  HZ   S   RI   R     50.00 
! Rohde & Schwarz Vector Network Analyzer 
! Rohde-Schwarz,ZNB20-2Port,1311601062101988,3.16
! Created: UTC 3/21/2024, 1:05:20 AM
! freq[Hz]                re:S11                  im:S11                  re:S21                  im:S21                  re:S12                  im:S12                  re:S22                  im:S22
 6.528706592000000E9     5.599357804684576E-1   -4.153236558835757E-2   -5.837208194133989E-3   -2.858925965387133E-2   -6.361134762210865E-3   -2.853835907957055E-2    5.004779504647837E-1   -1.459867193688800E-1
 6.528717668125000E9     5.599135532825451E-1   -4.239196089706648E-2   -5.993783585522369E-3   -2.880025456225341E-2   -6.428695467248094E-3   -2.857053172832989E-2    5.002193942813551E-1   -1.467787481047624E-1
 6.528728744250000E9     5.597227463861275E-1   -4.331598634169292E-2   -6.005001529776908E-3   -2.876592596723829E-2   -6.544661155780351E-3   -2.874361792532459E-2    4.997403927094078E-1   -1.475743791388595E-1
 6.528739820375000E9     5.597559904065151E-1   -4.409144279763900E-2   -6.101119006687637E-3   -2.894109388234027E-2   -6.504150307867188E-3   -2.882758961429684E-2    4.995889715009360E-1   -1.485797903234895E-1
 6.528750896500000E9     5.595303124159473E-1   -4.501753512253185E-2   -6.171379000274800E-3   -2.918401295600159E-2   -6.749771456675634E-3   -2.905325589184190E-2    4.993976969803187E-1   -1.494685668411910E-1
 6.528761972625000E9     5.596552503792381E-1   -4.598753501974281E-2   -6.228939045351063E-3   -2.920786781529547E-2   -6.802673714950230E-3   -2.919237275618613E-2    4.991684922077462E-1   -1.503332328738945E-1
 6.528773048750000E9     5.594055545499709E-1   -4.674313273765413E-2   -6.308105182694348E-3   -2.940622931193661E-2   -6.893055433752016E-3   -2.932546577368323E-2    4.986078628940505E-1   -1.514173105991956E-1
 6.528784124875000E9     5.594372736292189E-1   -4.763815841097604E-2   -6.441729599018452E-3   -2.942201815042033E-2   -7.006356417334724E-3   -2.946047480285635E-2    4.985324679451894E-1   -1.524196591517770E-1
 6.528795201000000E9     5.593454765567744E-1   -4.865427922365221E-2   -6.369163794470506E-3   -2.946854274047107E-2   -6.999057214445880E-3   -2.960466945412983E-2    4.980113415873291E-1   -1.534106110667064E-1
 6.528806277125000E9     5.593284509895043E-1   -4.945239525246990E-2   -6.420251707955550E-3   -2.975881894328913E-2   -7.242416151803042E-3   -2.968952874861589E-2    4.977649816873886E-1   -1.542854328370352E-1
 6.528817353250000E9     5.591847785919664E-1   -5.029155008855835E-2   -6.659635981361428E-3   -3.002794935248113E-2   -7.241442386302669E-3   -2.979610549026787E-2    4.972923345941019E-1   -1.551696984235855E-1
 6.528828429375000E9     5.590633119327792E-1   -5.117660603050263E-2   -6.731893250274826E-3   -3.003472881844466E-2   -7.253466863814086E-3   -2.989963581770715E-2    4.971277361609651E-1   -1.559506927473872E-1
 6.528839505500000E9     5.590920228893655E-1   -5.206352654654531E-2   -6.817860042015604E-3   -3.013955743224112E-2   -7.483320913206796E-3   -3.013990306296092E-2    4.968065499643278E-1   -1.571063547915337E-1
 6.528850581625000E9     5.589193005041102E-1   -5.310536673393889E-2   -6.994940409265181E-3   -3.032234297110884E-2   -7.469939333520853E-3   -3.036413825196045E-2    4.963623692914225E-1   -1.578660301729689E-1
 6.528861657750000E9     5.588614556212886E-1   -5.383519016232785E-2   -6.966245557451916E-3   -3.049831392801857E-2   -7.664579534070856E-3   -3.035810866550821E-2    4.958282149218483E-1   -1.589005963098410E-1
 6.528872733875000E9     5.587936744198654E-1   -5.473768161713605E-2   -7.226692000741758E-3   -3.072630652846001E-2   -7.741900888265770E-3   -3.045030406872853E-2    4.957802381174796E-1   -1.598183213792667E-1
 6.528883810000000E9     5.585805360227697E-1   -5.565415966456013E-2   -7.231132567263121E-3   -3.083469806486801E-2   -7.796213585267626E-3   -3.065932743773594E-2    4.953147701750326E-1   -1.609874779507346E-1
 6.528894886125000E9     5.585973311830704E-1   -5.648657455782229E-2   -7.356081653269797E-3   -3.096619077641202E-2   -7.935497310144977E-3   -3.082968159694166E-2    4.951233057918511E-1   -1.618552337206499E-1
 6.528905962250000E9     5.584358863846731E-1   -5.744002209818850E-2   -7.439385932065717E-3   -3.112454382332080E-2   -8.067730904974427E-3   -3.099125285394972E-2    4.947287933699784E-1   -1.627816356144172E-1
 6.528917038375000E9     5.583877508903917E-1   -5.823021573843030E-2   -7.537922021052218E-3   -3.127503010047852E-2   -8.209423486721339E-3   -3.114201282910153E-2    4.942463956154901E-1   -1.637695671982098E-1
 6.528928114500000E9     5.582870940862623E-1   -5.907978578110632E-2   -7.556034958178939E-3   -3.146810892500339E-2   -8.272532785970193E-3   -3.126039718276630E-2    4.939604799937454E-1   -1.646307952367511E-1
 6.528939190625000E9     5.581306031684697E-1   -6.017884664027385E-2   -7.892855764119681E-3   -3.155852054233060E-2   -8.361773781379089E-3   -3.148808801680471E-2    4.935647520185790E-1   -1.656548596786626E-1
 6.528950266750000E9     5.580802154591488E-1   -6.100218388993119E-2   -7.866467435290372E-3   -3.170744666696493E-2   -8.521786966824142E-3   -3.161755476232631E-2    4.932188440645671E-1   -1.665889913691781E-1
 6.528961342875000E9     5.579370852594066E-1   -6.204611827246367E-2   -7.939376418796157E-3   -3.184168312679436E-2   -8.648826219532677E-3   -3.171705543347401E-2    4.930041761005948E-1   -1.676770449569183E-1
 6.528972419000000E9     5.578862031186479E-1   -6.280579111144963E-2   -8.061002396710875E-3   -3.194565315255645E-2   -8.632584852770893E-3   -3.190701811427085E-2    4.926011057920596E-1   -1.685531118781235E-1
 6.528983495125000E9     5.578235622024731E-1   -6.369280874950047E-2   -8.172157379022710E-3   -3.217412923891055E-2   -8.807185191043376E-3   -3.204240982700290E-2    4.923417016760359E-1   -1.696127857359708E-1
 6.528994571250000E9     5.576150693975936E-1   -6.453032108236845E-2   -8.257772456014244E-3   -3.232438541484202E-2   -8.896444222851241E-3   -3.228352682757854E-2    4.917629752700680E-1   -1.704776152350450E-1
 6.529005647375000E9     5.575089396060414E-1   -6.540874958711994E-2   -8.500544889322831E-3   -3.248106044840433E-2   -9.103605200628037E-3   -3.236398984485893E-2    4.914364696924262E-1   -1.713952685777405E-1
 6.529016723500000E9     5.573544620875283E-1   -6.631389877449144E-2   -8.569986424569459E-3   -3.266683249424106E-2   -9.108215294532212E-3   -3.249862089719305E-2    4.908155713598018E-1   -1.724460228364344E-1
 6.529027799625000E9     5.573532128734073E-1   -6.721104217074352E-2   -8.671816765674915E-3   -3.284058059642284E-2   -9.212654485088933E-3   -3.272029593739196E-2    4.906585955449452E-1   -1.733466982993901E-1
 6.529038875750000E9     5.572446949971951E-1   -6.813063685806306E-2   -8.725888197495580E-3   -3.301809258480747E-2   -9.493453159924422E-3   -3.288674635439738E-2    4.904066624792899E-1   -1.744630228721804E-1
 6.529049951875000E9     5.570127863001623E-1   -6.906747077232626E-2   -8.733208529421367E-3   -3.312481663347244E-2   -9.444816359518946E-3   -3.298939761839817E-2    4.898930559327290E-1   -1.754413782505937E-1
 6.529061028000000E9     5.569156483578023E-1   -7.004939182911656E-2   -8.940072143866525E-3   -3.324234950856916E-2   -9.667519827930966E-3   -3.332297023703755E-2    4.894457037127691E-1   -1.763528113172564E-1
 6.529072104125000E9     5.568366311499116E-1   -7.095550370962744E-2   -9.043565487547690E-3   -3.363706114145029E-2   -9.776127682093213E-3   -3.342793029898068E-2    4.889113206950868E-1   -1.774995674482141E-1
 6.529083180250000E9     5.566621343862403E-1   -7.174141169821319E-2   -9.127229417260480E-3   -3.365149361129653E-2   -9.921484551967737E-3   -3.358969253727183E-2    4.885630380940014E-1   -1.784105312569449E-1
 6.529094256375000E9     5.565326214386886E-1   -7.273284691481260E-2   -9.229499418861675E-3   -3.389635729948694E-2   -9.973838068899980E-3   -3.382432686781731E-2    4.881669383681218E-1   -1.793534393429497E-1
 6.529105332500000E9     5.563915146025709E-1   -7.351035788892665E-2   -9.475617806602317E-3   -3.417626573806262E-2   -1.010669953722203E-2   -3.392596612788698E-2    4.877715610849123E-1   -1.804054891023273E-1
 6.529116408625000E9     5.562632490658982E-1   -7.454084628185116E-2   -9.667908545126291E-3   -3.425671629993832E-2   -1.026367384592175E-2   -3.405583714148514E-2    4.873491443464685E-1   -1.814417048347493E-1
 6.529127484750000E9     5.561232600716701E-1   -7.538404424681158E-2   -9.671933712106399E-3   -3.442884581261995E-2   -1.033880732564124E-2   -3.418634244261805E-2    4.869885012648915E-1   -1.824056601505932E-1
 6.529138560875000E9     5.560403736832655E-1   -7.630285815738208E-2   -9.879932043913436E-3   -3.457142631326712E-2   -1.052004058070110E-2   -3.443466089377636E-2    4.862984349530578E-1   -1.835875146873983E-1
 6.529149637000000E9     5.558938087406851E-1   -7.729802341978068E-2   -1.007810167197649E-2   -3.484042894202424E-2   -1.068821908004978E-2   -3.474254182761258E-2    4.859552082550890E-1   -1.843557100412911E-1
 6.529160713125000E9     5.557347223442813E-1   -7.821903699355176E-2   -1.016369860499950E-2   -3.502383358837479E-2   -1.078009428561333E-2   -3.483600175672046E-2    4.857874096716320E-1   -1.854698653897903E-1
 6.529171789250000E9     5.556576226332768E-1   -7.909046800039070E-2   -1.031651775054180E-2   -3.526228922419088E-2   -1.105029985455180E-2   -3.500822660483069E-2    4.851830761572667E-1   -1.864859501527514E-1
 6.529182865375000E9     5.555004702517664E-1   -7.993411942827734E-2   -1.034411052018835E-2   -3.544786956519567E-2   -1.110926369771392E-2   -3.527186085385765E-2    4.848737842562812E-1   -1.875906390524755E-1
 6.529193941500000E9     5.552282354836874E-1   -8.094728107749886E-2   -1.056536416148355E-2   -3.566442058903577E-2   -1.130214048072042E-2   -3.540556812898665E-2    4.843397678555854E-1   -1.886404731114787E-1
 6.529205017625000E9     5.551067654005685E-1   -8.170419347367287E-2   -1.074333234808604E-2   -3.588556797793026E-2   -1.137651927380668E-2   -3.556441868625568E-2    4.836105021832534E-1   -1.895816586962252E-1
 6.529216093750000E9     5.548495343127322E-1   -8.276800291380774E-2   -1.079226714487938E-2   -3.607557425322069E-2   -1.159623420961273E-2   -3.578681455545444E-2    4.832632572785716E-1   -1.905869730816878E-1
 6.529227169875000E9     5.547749318867126E-1   -8.377977510299583E-2   -1.105470926318370E-2   -3.626959524963698E-2   -1.175505116110800E-2   -3.595648788361012E-2    4.828365606546477E-1   -1.916230053201401E-1
 6.529238246000000E9     5.546189989774232E-1   -8.460157061180064E-2   -1.118362613760381E-2   -3.640002847786811E-2   -1.186794876217151E-2   -3.619951327277290E-2    4.823566214067425E-1   -1.924988050693537E-1
 6.529249322125000E9     5.545693924217400E-1   -8.546560606023974E-2   -1.129289475206209E-2   -3.662171412366849E-2   -1.211243610706504E-2   -3.643003166374582E-2    4.818661694355479E-1   -1.938157586212365E-1
 6.529260398250000E9     5.542852477892518E-1   -8.652048409572539E-2   -1.147031193486417E-2   -3.680273340389772E-2   -1.218105980425191E-2   -3.659654155964689E-2    4.813246247728521E-1   -1.947618367166226E-1
 6.529271474375000E9     5.541249790371174E-1   -8.737708239152721E-2   -1.155738040525015E-2   -3.699587971918687E-2   -1.241702148473639E-2   -3.686435431454505E-2    4.809340050878456E-1   -1.958608572041690E-1
 6.529282550500000E9     5.540118126230853E-1   -8.821805182960873E-2   -1.173434860995836E-2   -3.719793967543428E-2   -1.256852677502365E-2   -3.705099303001718E-2    4.804943403699103E-1   -1.968093888721209E-1
 6.529293626625000E9     5.538189526802263E-1   -8.923189203296018E-2   -1.200547711794411E-2   -3.741832081303596E-2   -1.273218260227659E-2   -3.732028194180156E-2    4.797899400778254E-1   -1.981392819325575E-1
 6.529304702750000E9     5.535843969887798E-1   -9.021070268596895E-2   -1.200048252862288E-2   -3.779050182961083E-2   -1.278644996815231E-2   -3.742819313384421E-2    4.794218071572474E-1   -1.990590963443636E-1
 6.529315778875000E9     5.535384765885333E-1   -9.110837440499876E-2   -1.239595464720960E-2   -3.799156877942148E-2   -1.307419679963834E-2   -3.766031343289131E-2    4.789479236148054E-1   -2.001197404587572E-1
 6.529326855000000E9     5.533003746995825E-1   -9.200475373256842E-2   -1.236473263506259E-2   -3.817932565168217E-2   -1.324606815306899E-2   -3.795282398338660E-2    4.782574363495876E-1   -2.011614243485803E-1
 6.529337931125000E9     5.530869855347695E-1   -9.294977914689706E-2   -1.269786615743042E-2   -3.837311853416855E-2   -1.349595086492473E-2   -3.814699302943388E-2    4.777155484710207E-1   -2.022699171001977E-1
 6.529349007250000E9     5.529182969507487E-1   -9.392599159736301E-2   -1.276502761587673E-2   -3.858794345137721E-2   -1.356015887188178E-2   -3.845102768060033E-2    4.772323421467582E-1   -2.031816770714061E-1
 6.529360083375000E9     5.526775093718558E-1   -9.479750286730200E-2   -1.291474806922937E-2   -3.875813083507808E-2   -1.375813077236912E-2   -3.861443406755274E-2    4.767890923950016E-1   -2.043974708336032E-1
 6.529371159500000E9     5.524720366436729E-1   -9.577284853823984E-2   -1.316164018035124E-2   -3.901098619264790E-2   -1.392481944851798E-2   -3.894373127531446E-2    4.761835522132794E-1   -2.055143791353401E-1
 6.529382235625000E9     5.522893072145421E-1   -9.667481105585499E-2   -1.335739392167574E-2   -3.932470067681860E-2   -1.411779299343106E-2   -3.909424074062070E-2    4.756354053768430E-1   -2.067308279223324E-1
 6.529393311750000E9     5.521652785048883E-1   -9.764428224390391E-2   -1.345296349168864E-2   -3.951407224153180E-2   -1.428953712375395E-2   -3.931674269883918E-2    4.751254421276876E-1   -2.076937108228693E-1
 6.529404387875000E9     5.519678736963275E-1   -9.862589651748496E-2   -1.378192274204650E-2   -3.970893020832125E-2   -1.451408251214755E-2   -3.949550125157166E-2    4.744797936417325E-1   -2.088753486097519E-1
 6.529415464000000E9     5.517970326724821E-1   -9.963096523087628E-2   -1.387526941068269E-2   -4.008798136176450E-2   -1.477771648710896E-2   -3.977323600902719E-2    4.739326777554762E-1   -2.098215177724629E-1
 6.529426540125000E9     5.515702078685129E-1   -1.006302825120823E-1   -1.407329061388088E-2   -4.036197516204310E-2   -1.495642387456960E-2   -4.008861144060542E-2    4.733741416870271E-1   -2.111148837659860E-1
 6.529437616250000E9     5.513951824341001E-1   -1.015568879920356E-1   -1.432818374938300E-2   -4.053482665313292E-2   -1.510791774895807E-2   -4.033222055618438E-2    4.726861098073799E-1   -2.122057402571292E-1
 6.529448692375000E9     5.511404167336801E-1   -1.024386508968182E-1   -1.443955614099067E-2   -4.080766184654001E-2   -1.542160530853694E-2   -4.056553565414232E-2    4.721206904846086E-1   -2.131937878474423E-1
 6.529459768500000E9     5.510400880681360E-1   -1.033487018004781E-1   -1.486967974764107E-2   -4.109819534178536E-2   -1.559071342282920E-2   -4.080873006272198E-2    4.713723430531079E-1   -2.143953927159923E-1
 6.529470844625000E9     5.506883435535999E-1   -1.042600847571945E-1   -1.485893260855487E-2   -4.129050421843253E-2   -1.586435050490298E-2   -4.106806848619578E-2    4.708767741591198E-1   -2.155109836918327E-1
 6.529481920750000E9     5.505171100127048E-1   -1.052431039138881E-1   -1.497407044024391E-2   -4.166984741216970E-2   -1.596017133849979E-2   -4.122801908184256E-2    4.702138796719294E-1   -2.166606276811918E-1
 6.529492996875000E9     5.502824149041977E-1   -1.061589239021448E-1   -1.529242982278787E-2   -4.186024172751777E-2   -1.622139454512040E-2   -4.164802857451223E-2    4.696948241817158E-1   -2.175789306410585E-1
 6.529504073000000E9     5.500157223353003E-1   -1.072301706450831E-1   -1.550905954099097E-2   -4.207122119612274E-2   -1.650130246630606E-2   -4.183454252340445E-2    4.689675239933685E-1   -2.189565109659891E-1
 6.529515149125000E9     5.497942443030247E-1   -1.081001738757618E-1   -1.564033460504405E-2   -4.250669517785850E-2   -1.669110887094943E-2   -4.213118212007825E-2    4.683258208530613E-1   -2.200084161846025E-1
 6.529526225250000E9     5.496085325876110E-1   -1.090822887472559E-1   -1.584993099342527E-2   -4.268042629486771E-2   -1.688453410311677E-2   -4.233000328682778E-2    4.676433364635191E-1   -2.212129643917608E-1
 6.529537301375000E9     5.493224359728027E-1   -1.100793340915452E-1   -1.617142499268468E-2   -4.292811997186956E-2   -1.714129790942652E-2   -4.272644123742744E-2    4.668947920546904E-1   -2.223080343802684E-1
 6.529548377500000E9     5.491796661775512E-1   -1.111371254379790E-1   -1.653089196755369E-2   -4.312261139435122E-2   -1.739176460439914E-2   -4.296320413565387E-2    4.662782195175813E-1   -2.236394926716662E-1
 6.529559453625000E9     5.488898555527688E-1   -1.119416476942300E-1   -1.657027990247442E-2   -4.356389954828904E-2   -1.769052153251771E-2   -4.331184385603806E-2    4.655578093277873E-1   -2.248434721440564E-1
 6.529570529750000E9     5.486369601674780E-1   -1.129383025375885E-1   -1.689124652672619E-2   -4.394406550028325E-2   -1.798089176636809E-2   -4.361755313273526E-2    4.647636753714692E-1   -2.259470763180751E-1
 6.529581605875000E9     5.483924761368243E-1   -1.139619993483969E-1   -1.728646157045121E-2   -4.424629177084785E-2   -1.811352723833248E-2   -4.390515904602359E-2    4.640813889954384E-1   -2.271245548892032E-1
 6.529592682000000E9     5.482523807316927E-1   -1.150181252966942E-1   -1.741624970208484E-2   -4.446470501968283E-2   -1.848352687496177E-2   -4.423777513887700E-2    4.634471113707253E-1   -2.282589561858741E-1
 6.529603758125000E9     5.478925173400815E-1   -1.159126492933294E-1   -1.784660348009831E-2   -4.466154544620578E-2   -1.872734396671965E-2   -4.447835047527365E-2    4.628544256373262E-1   -2.295546254903374E-1
 6.529614834250000E9     5.476539017588141E-1   -1.169813962197859E-1   -1.778827047578123E-2   -4.510500212904885E-2   -1.903359180705423E-2   -4.475360865065522E-2    4.620410432732016E-1   -2.307550445101633E-1
 6.529625910375000E9     5.473877550373570E-1   -1.178900270404708E-1   -1.831706101330994E-2   -4.540294372660988E-2   -1.933705605269188E-2   -4.514877600085816E-2    4.612264500926989E-1   -2.319687565816263E-1
 6.529636986500000E9     5.470526767152085E-1   -1.189694881798074E-1   -1.865632021699647E-2   -4.573604746713825E-2   -1.969645397885208E-2   -4.552724913864355E-2    4.604994598365578E-1   -2.332567248259688E-1
 6.529648062625000E9     5.469265585555051E-1   -1.199157414513164E-1   -1.876793648071431E-2   -4.608404626133685E-2   -1.981272220654210E-2   -4.573787336203682E-2    4.596614455865290E-1   -2.346071238740218E-1
 6.529659138750000E9     5.465616410687145E-1   -1.209000792905869E-1   -1.907803292853225E-2   -4.637888055535071E-2   -2.013541932037101E-2   -4.603669448076023E-2    4.587925157924370E-1   -2.356599434180590E-1
 6.529670214875000E9     5.461453894890301E-1   -1.219367170314482E-1   -1.947100366864489E-2   -4.680524243078146E-2   -2.046359271813639E-2   -4.634080220672054E-2    4.580271132232046E-1   -2.370084320892279E-1
 6.529681291000000E9     5.459827599395848E-1   -1.229658352628796E-1   -1.974991137362475E-2   -4.725402636698919E-2   -2.076674266278006E-2   -4.667206123433314E-2    4.573143840398821E-1   -2.380200956387161E-1
 6.529692367125000E9     5.456595803400714E-1   -1.240091946503367E-1   -2.017384993551416E-2   -4.729580367117892E-2   -2.116652123388278E-2   -4.710888782869233E-2    4.564095095610017E-1   -2.394029686458251E-1
 6.529703443250000E9     5.452980644581195E-1   -1.250961080587889E-1   -2.035564728011364E-2   -4.768162918569190E-2   -2.141678112406429E-2   -4.739161874582167E-2    4.555530553431588E-1   -2.407697076885743E-1
