#  HZ   S   RI   R     50.00 
! Rohde & Schwarz Vector Network Analyzer 
! Rohde-Schwarz,ZNB20-2Port,1311601062101988,3.16
! Created: UTC 3/21/2024, 1:05:36 AM
! freq[Hz]                re:S11                  im:S11                  re:S21                  im:S21                  re:S12                  im:S12                  re:S22                  im:S22
 6.528704605000000E9     5.597447589175512E-1   -4.143319718463279E-2   -5.879441384382661E-3   -2.850046026457906E-2   -6.208732206428247E-3   -2.844246905703659E-2    5.002759210688554E-1   -1.449405463866559E-1
 6.528715699675000E9     5.597235487065192E-1   -4.219005621449210E-2   -5.908204297478854E-3   -2.858198480908954E-2   -6.349138746044500E-3   -2.870564241076181E-2    4.999639803925060E-1   -1.459105047521654E-1
 6.528726794350000E9     5.595666994177205E-1   -4.321106737457717E-2   -5.974972226937985E-3   -2.882173286018930E-2   -6.502493216871562E-3   -2.878428778740165E-2    4.996352813766612E-1   -1.470107138598432E-1
 6.528737889025000E9     5.596353391465525E-1   -4.406307685876810E-2   -5.976689172667805E-3   -2.903264831419469E-2   -6.444344192753839E-3   -2.877052633725233E-2    4.993233484873748E-1   -1.477621144817376E-1
 6.528748983700000E9     5.596424290943615E-1   -4.494229151595895E-2   -6.118309265351036E-3   -2.909827121908742E-2   -6.645968248409824E-3   -2.897397533608211E-2    4.992345658475784E-1   -1.487810682365837E-1
 6.528760078375000E9     5.594864022328753E-1   -4.580481121864903E-2   -6.192223471721573E-3   -2.916525138864941E-2   -6.723486020264390E-3   -2.917127742170467E-2    4.987936866630081E-1   -1.494904100529155E-1
 6.528771173050000E9     5.594727592717366E-1   -4.672876698561855E-2   -6.375866115920780E-3   -2.938823027476113E-2   -6.802943197090088E-3   -2.923335759715455E-2    4.984729621989413E-1   -1.506021898708425E-1
 6.528782267725000E9     5.593176986940713E-1   -4.753383644417872E-2   -6.416291381840626E-3   -2.949131007208903E-2   -6.923546236898708E-3   -2.937614221188737E-2    4.982257423524994E-1   -1.515822427226747E-1
 6.528793362400000E9     5.591416489918076E-1   -4.835144047047495E-2   -6.521194511603152E-3   -2.959564073168162E-2   -7.046340230796532E-3   -2.955767243485427E-2    4.979020372700124E-1   -1.524888310933016E-1
 6.528804457075000E9     5.591467979612772E-1   -4.938779888165076E-2   -6.505586431865810E-3   -2.975946937045150E-2   -7.140071543532650E-3   -2.964552411346989E-2    4.976038282774196E-1   -1.534085249014827E-1
 6.528815551750000E9     5.590251012471822E-1   -5.008959338135988E-2   -6.625366250915648E-3   -2.991104303108385E-2   -7.219618371060304E-3   -2.980253313085555E-2    4.973049019951737E-1   -1.541289474374475E-1
 6.528826646425000E9     5.590183822211012E-1   -5.113531831391342E-2   -6.823456528660294E-3   -2.990353684914684E-2   -7.305297890591424E-3   -2.992603553570431E-2    4.968844212092788E-1   -1.552693835012563E-1
 6.528837741100000E9     5.588885321779835E-1   -5.187775512904381E-2   -6.759799085858911E-3   -3.008078089850705E-2   -7.405975064437902E-3   -3.005818631801417E-2    4.963885003447330E-1   -1.563201876589741E-1
 6.528848835775000E9     5.588682627276871E-1   -5.281964558928878E-2   -6.879955107242121E-3   -3.030924182291133E-2   -7.571744298096707E-3   -3.027463996660253E-2    4.961519997962756E-1   -1.569612089448039E-1
 6.528859930450000E9     5.588020444551735E-1   -5.376337321498361E-2   -6.978246568630217E-3   -3.041386129047982E-2   -7.578510335233301E-3   -3.032032747972950E-2    4.959740201888955E-1   -1.582249706670956E-1
 6.528871025125000E9     5.586417858799956E-1   -5.464985926684916E-2   -7.088428740699339E-3   -3.066305251623693E-2   -7.662668546359858E-3   -3.048471672841689E-2    4.954873128052640E-1   -1.591415637109201E-1
 6.528882119800000E9     5.586099075572275E-1   -5.554075860722889E-2   -7.175400184725729E-3   -3.078198931707043E-2   -7.843754956430823E-3   -3.061019236781037E-2    4.952451396543477E-1   -1.600233074139736E-1
 6.528893214475000E9     5.584361182043507E-1   -5.652884600610025E-2   -7.374679240819362E-3   -3.089325170116021E-2   -7.878135944088101E-3   -3.067093537230429E-2    4.948404145744583E-1   -1.609824324799543E-1
 6.528904309150000E9     5.583584989505114E-1   -5.728006786947058E-2   -7.370218346261118E-3   -3.100725228088109E-2   -8.102866340874442E-3   -3.084999165830954E-2    4.944628164665656E-1   -1.619518920444497E-1
 6.528915403825000E9     5.583967047014782E-1   -5.819225453973061E-2   -7.476393522922012E-3   -3.117203697423545E-2   -8.104536223038264E-3   -3.110010919689299E-2    4.941878563540456E-1   -1.630366573800447E-1
 6.528926498500000E9     5.581159183651554E-1   -5.922065560891111E-2   -7.545241331040024E-3   -3.136046199934470E-2   -8.215375976346022E-3   -3.115157202541101E-2    4.938791737859528E-1   -1.638482579378419E-1
 6.528937593175000E9     5.580973728015335E-1   -6.009735882537347E-2   -7.660949041874363E-3   -3.143962032384168E-2   -8.292665850623890E-3   -3.134335383511177E-2    4.934574972701893E-1   -1.646342332610645E-1
 6.528948687850000E9     5.580494949931345E-1   -6.083080682228077E-2   -7.789465666334537E-3   -3.158462466273440E-2   -8.441613120118943E-3   -3.153006111556014E-2    4.930493655072321E-1   -1.656020534685789E-1
 6.528959782525000E9     5.577985650712208E-1   -6.180702791963873E-2   -7.919970509921544E-3   -3.179040490022243E-2   -8.589568831578943E-3   -3.162244188906970E-2    4.927495940144831E-1   -1.668094795436504E-1
 6.528970877200000E9     5.576409060628000E-1   -6.268380140127765E-2   -8.008216838263795E-3   -3.198897756158383E-2   -8.551116547600292E-3   -3.177924415410281E-2    4.921672077252396E-1   -1.675688384352843E-1
 6.528981971875000E9     5.576465655989471E-1   -6.368477714131153E-2   -8.207917487313506E-3   -3.218800827300165E-2   -8.729585472255620E-3   -3.196931314503495E-2    4.920520750956328E-1   -1.687116784890285E-1
 6.528993066550000E9     5.574431264167612E-1   -6.446738145323268E-2   -8.288676899521135E-3   -3.223242450249093E-2   -8.930790865309297E-3   -3.225596483794314E-2    4.915224473918551E-1   -1.698628632994589E-1
 6.529004161225000E9     5.574623023822769E-1   -6.539653466355358E-2   -8.288050612726167E-3   -3.239540712801250E-2   -8.954743986597291E-3   -3.235844624921040E-2    4.912800300019134E-1   -1.706310357286624E-1
 6.529015255900000E9     5.573293872800326E-1   -6.628620564887137E-2   -8.520443304708889E-3   -3.267788309793388E-2   -9.108194407767414E-3   -3.243171718099076E-2    4.909074320344346E-1   -1.715858953372707E-1
 6.529026350575000E9     5.572570439995002E-1   -6.714945470514190E-2   -8.647355419954062E-3   -3.266803636889778E-2   -9.273037429342799E-3   -3.270032942854414E-2    4.904200625028823E-1   -1.727349332130228E-1
 6.529037445250000E9     5.570180519258611E-1   -6.807000630343583E-2   -8.829854779703649E-3   -3.288865594573881E-2   -9.376810673602217E-3   -3.279441955115557E-2    4.899503490105275E-1   -1.736127093750514E-1
 6.529048539925000E9     5.569301316383835E-1   -6.890036545455884E-2   -8.899277359522817E-3   -3.317166065779854E-2   -9.481152834058459E-3   -3.294837550413135E-2    4.896943062421208E-1   -1.747245999007426E-1
 6.529059634600000E9     5.568469411499869E-1   -6.988946236028863E-2   -9.029878095233378E-3   -3.331958906605680E-2   -9.688009515011352E-3   -3.320736887242164E-2    4.892721410033412E-1   -1.755883592140460E-1
 6.529070729275000E9     5.566857648646562E-1   -7.073084965071462E-2   -9.094688700028282E-3   -3.338883927585863E-2   -9.716902520114236E-3   -3.329366692555370E-2    4.887793193896803E-1   -1.765379510226192E-1
 6.529081823950000E9     5.566635126275031E-1   -7.158727365506858E-2   -9.232873887461267E-3   -3.356597307621046E-2   -9.814937258381349E-3   -3.350681935252701E-2    4.884573730322945E-1   -1.775083934300613E-1
 6.529092918625000E9     5.564180182377951E-1   -7.258030123025068E-2   -9.318045983020150E-3   -3.377910470746184E-2   -9.931305510761854E-3   -3.369571982079097E-2    4.880063683641937E-1   -1.786864027977214E-1
 6.529104013300000E9     5.562545120093787E-1   -7.342893363669857E-2   -9.446499936733122E-3   -3.393289502287888E-2   -1.013260992226580E-2   -3.383429330748269E-2    4.875305362694491E-1   -1.795821373151352E-1
 6.529115107975000E9     5.561448981188289E-1   -7.444955934495251E-2   -9.516647202784426E-3   -3.405402637198104E-2   -1.026809357338739E-2   -3.396886000319952E-2    4.872505587743673E-1   -1.804726563916418E-1
 6.529126202650000E9     5.560342123626708E-1   -7.529170281704121E-2   -9.671938000037747E-3   -3.438247769751778E-2   -1.039178381118251E-2   -3.418524103137163E-2    4.868286216151302E-1   -1.815742343311805E-1
 6.529137297325000E9     5.559596727839698E-1   -7.625190986982272E-2   -9.765284239399185E-3   -3.464985305064711E-2   -1.054722836482369E-2   -3.433032406489049E-2    4.863420026620132E-1   -1.823566306349075E-1
 6.529148392000000E9     5.558104870476516E-1   -7.702977896779727E-2   -9.832812248377039E-3   -3.467842558411941E-2   -1.064386205745351E-2   -3.448439465930060E-2    4.858421195640578E-1   -1.835303676942838E-1
 6.529159486675000E9     5.555694165947079E-1   -7.815765712984034E-2   -1.012303085299380E-2   -3.488393731499604E-2   -1.085329975163161E-2   -3.473992822484492E-2    4.855898986745559E-1   -1.845500437662382E-1
 6.529170581350000E9     5.555007194968966E-1   -7.896809344795451E-2   -1.038265479251977E-2   -3.506811408801623E-2   -1.090645092237564E-2   -3.493214154065259E-2    4.850228984781609E-1   -1.856205585222559E-1
 6.529181676025000E9     5.553813006966414E-1   -7.992346018026542E-2   -1.040943069060338E-2   -3.520277641973688E-2   -1.106666198075720E-2   -3.517259815044819E-2    4.845893868801254E-1   -1.867013774314355E-1
 6.529192770700000E9     5.551746901816511E-1   -8.081666668584948E-2   -1.046742497972477E-2   -3.547616296475687E-2   -1.128504975779834E-2   -3.541276882136670E-2    4.841259357485631E-1   -1.876578754096508E-1
 6.529203865375000E9     5.551813557987375E-1   -8.161990695833848E-2   -1.074209806152558E-2   -3.566794310619900E-2   -1.130361368834729E-2   -3.548830395089875E-2    4.838043683694426E-1   -1.886392697640500E-1
 6.529214960050000E9     5.548753495643609E-1   -8.255185147224120E-2   -1.093353186213299E-2   -3.585511339242429E-2   -1.153282257247451E-2   -3.579070000553299E-2    4.832189656903137E-1   -1.896862136228692E-1
 6.529226054725000E9     5.547330814913358E-1   -8.348273591644784E-2   -1.085147179392700E-2   -3.607638999160495E-2   -1.172791686450709E-2   -3.592464031334255E-2    4.827863185808121E-1   -1.909169788836906E-1
 6.529237149400000E9     5.544964321549533E-1   -8.450138674813092E-2   -1.100722388595847E-2   -3.630326023569577E-2   -1.187924960154333E-2   -3.608839278648562E-2    4.822030892463325E-1   -1.917025632585096E-1
 6.529248244075000E9     5.544846077158935E-1   -8.546992526467703E-2   -1.123955904072680E-2   -3.660410640192176E-2   -1.199843148337832E-2   -3.643167060892934E-2    4.818359408458671E-1   -1.928387277078641E-1
 6.529259338750000E9     5.543456351525446E-1   -8.637903584606588E-2   -1.142252447854638E-2   -3.661851526482716E-2   -1.216580797265402E-2   -3.651218380851279E-2    4.812455200046324E-1   -1.939710940840227E-1
 6.529270433425000E9     5.541347562250953E-1   -8.723054758202604E-2   -1.160244294268232E-2   -3.687095554116530E-2   -1.233057739323986E-2   -3.670228925814402E-2    4.806690859786131E-1   -1.949925912804519E-1
 6.529281528100000E9     5.539631237560306E-1   -8.819704187745533E-2   -1.172264143033460E-2   -3.698211844160558E-2   -1.242446569897587E-2   -3.697884140048799E-2    4.801151319131934E-1   -1.961786724586301E-1
 6.529292622775000E9     5.538198953407204E-1   -8.911990503436235E-2   -1.176125249689309E-2   -3.731450984378847E-2   -1.259670483748017E-2   -3.723503557003657E-2    4.797111967738359E-1   -1.971448920922085E-1
 6.529303717450000E9     5.536532326069382E-1   -9.001930761104228E-2   -1.193514941244486E-2   -3.757600397056711E-2   -1.283563262479431E-2   -3.735329105332350E-2    4.793259603407932E-1   -1.980555663050999E-1
 6.529314812125000E9     5.533184546862321E-1   -9.090554444447532E-2   -1.232586009227466E-2   -3.785943678692225E-2   -1.294438794999878E-2   -3.758489704790098E-2    4.788145351465136E-1   -1.992469936121052E-1
 6.529325906800000E9     5.531687139111556E-1   -9.198432249052209E-2   -1.240627614057010E-2   -3.803962090576733E-2   -1.312970045640142E-2   -3.782546366330138E-2    4.782362285286347E-1   -2.002432093507630E-1
 6.529337001475000E9     5.531352027825138E-1   -9.280829195629749E-2   -1.255117943154054E-2   -3.826104784402583E-2   -1.339880324653777E-2   -3.803118745641915E-2    4.778127394078478E-1   -2.014669478406681E-1
 6.529348096150000E9     5.530050715065632E-1   -9.390084687008521E-2   -1.273861271899797E-2   -3.839550644735845E-2   -1.366208662584263E-2   -3.831501855258063E-2    4.771845060925367E-1   -2.024539886917944E-1
 6.529359190825000E9     5.525882526041712E-1   -9.471929031500746E-2   -1.294726102210930E-2   -3.888811501890832E-2   -1.371322862965551E-2   -3.849906956403801E-2    4.766225159435025E-1   -2.035533087107764E-1
 6.529370285500000E9     5.524078129401934E-1   -9.575582416894918E-2   -1.301699320139621E-2   -3.888659032332120E-2   -1.382273391483192E-2   -3.871900236415012E-2    4.760429679289188E-1   -2.045930318230821E-1
 6.529381380175000E9     5.523014178084389E-1   -9.662174481185601E-2   -1.332136007978310E-2   -3.916916301616177E-2   -1.412492447351606E-2   -3.888840210147208E-2    4.756082302611877E-1   -2.057660365455115E-1
 6.529392474850000E9     5.521791080108016E-1   -9.763192858706805E-2   -1.346555791948731E-2   -3.931769344989137E-2   -1.428916594304263E-2   -3.919728223436952E-2    4.749111945592350E-1   -2.067354973031450E-1
 6.529403569525000E9     5.518109243119853E-1   -9.855618620409753E-2   -1.353487171572716E-2   -3.953860761972140E-2   -1.446960549982636E-2   -3.941399304992385E-2    4.745870445791001E-1   -2.079691607929009E-1
 6.529414664200000E9     5.516228225433374E-1   -9.950180100524100E-2   -1.382824154273236E-2   -3.991172499052147E-2   -1.461139015542458E-2   -3.973305520546794E-2    4.737391335749058E-1   -2.088751265743540E-1
 6.529425758875000E9     5.513872781494744E-1   -1.003385688775732E-1   -1.402425739774100E-2   -4.030323456107510E-2   -1.490063672410779E-2   -3.998691627229101E-2    4.731770368556822E-1   -2.101851834033919E-1
 6.529436853550000E9     5.513454729055326E-1   -1.013185249485179E-1   -1.420457846011692E-2   -4.043013184521154E-2   -1.508860176250233E-2   -4.022623732847824E-2    4.725402951766241E-1   -2.113125314922766E-1
 6.529447948225000E9     5.510705876286355E-1   -1.024407989677167E-1   -1.440801448258424E-2   -4.069511705385928E-2   -1.538174349858332E-2   -4.049585735738004E-2    4.719743217902347E-1   -2.124654548630937E-1
 6.529459042900000E9     5.507885169076822E-1   -1.032176698132457E-1   -1.450894856022591E-2   -4.079664822349052E-2   -1.552254734545339E-2   -4.074264787046858E-2    4.714643573493247E-1   -2.135364478281318E-1
 6.529470137575000E9     5.506510973845390E-1   -1.041807242165113E-1   -1.488664917636211E-2   -4.122370949097655E-2   -1.577340264399969E-2   -4.094100180104925E-2    4.707034063917523E-1   -2.145414297712699E-1
 6.529481232250000E9     5.504088679936414E-1   -1.050707455955862E-1   -1.503178947368998E-2   -4.153913122702478E-2   -1.594527447856449E-2   -4.128597074822908E-2    4.701246045514434E-1   -2.157583905016439E-1
 6.529492326925000E9     5.502187196820998E-1   -1.061866853683370E-1   -1.516128570540632E-2   -4.166392133874276E-2   -1.616428945072057E-2   -4.157597365542930E-2    4.695572485422934E-1   -2.169957507709661E-1
 6.529503421600000E9     5.498967574641495E-1   -1.070316208053607E-1   -1.545810021652644E-2   -4.184826315487150E-2   -1.634577455910338E-2   -4.185324426711588E-2    4.688759919652722E-1   -2.180369763093820E-1
 6.529514516275000E9     5.497950158919561E-1   -1.080738219439774E-1   -1.570485126142190E-2   -4.234270097277214E-2   -1.671168391210754E-2   -4.208751969614789E-2    4.681424299232297E-1   -2.192181614142545E-1
 6.529525610950000E9     5.495255683402690E-1   -1.090377584627816E-1   -1.602332624289987E-2   -4.249548647267695E-2   -1.689752794831120E-2   -4.232620776199700E-2    4.675349504392463E-1   -2.204400694609976E-1
 6.529536705625000E9     5.493546883816963E-1   -1.100230051530034E-1   -1.627613016498348E-2   -4.290704822675893E-2   -1.716123191151156E-2   -4.259389022569200E-2    4.668802720258603E-1   -2.214415118128227E-1
 6.529547800300000E9     5.490453928800767E-1   -1.110155491005161E-1   -1.640467281437195E-2   -4.317427927660158E-2   -1.736385577350839E-2   -4.281469705751440E-2    4.660513764255639E-1   -2.225696628343422E-1
 6.529558894975000E9     5.488629876784652E-1   -1.119596352173723E-1   -1.671044401934082E-2   -4.342783553477666E-2   -1.765195575498672E-2   -4.317483841612540E-2    4.656442989813562E-1   -2.238872165614385E-1
 6.529569989650000E9     5.485141710157559E-1   -1.129629763460814E-1   -1.677404091722550E-2   -4.371877265119872E-2   -1.785791802590336E-2   -4.343086590175506E-2    4.647895283812428E-1   -2.250650924678426E-1
 6.529581084325000E9     5.483140196694793E-1   -1.138042301691539E-1   -1.724237151487101E-2   -4.397034222148956E-2   -1.817024180666379E-2   -4.371294523384846E-2    4.640716995848057E-1   -2.262293543400265E-1
 6.529592179000000E9     5.479775916393598E-1   -1.148908237501176E-1   -1.729796546511424E-2   -4.436703293117553E-2   -1.840960884311798E-2   -4.400639720677819E-2    4.634706428905422E-1   -2.274244107020189E-1
 6.529603273675000E9     5.478525770636129E-1   -1.159335700751678E-1   -1.761170894554246E-2   -4.463265236833898E-2   -1.869963524406575E-2   -4.443763189416078E-2    4.627420309460246E-1   -2.285971670211588E-1
 6.529614368350000E9     5.475563098658628E-1   -1.169259396161881E-1   -1.813638385823737E-2   -4.493587870236012E-2   -1.895280953609454E-2   -4.464163915025048E-2    4.620550915447252E-1   -2.298511487661493E-1
 6.529625463025000E9     5.472967764845957E-1   -1.179414088967900E-1   -1.813983254534898E-2   -4.528849041041068E-2   -1.925871003333417E-2   -4.504152389589822E-2    4.613152602923546E-1   -2.310746279564181E-1
 6.529636557700000E9     5.469535473691770E-1   -1.188987585043556E-1   -1.859907719442878E-2   -4.570678500775199E-2   -1.950382834348634E-2   -4.538974808946560E-2    4.603074251518259E-1   -2.322920548884133E-1
 6.529647652375000E9     5.467394073327674E-1   -1.198110128286607E-1   -1.878633914703047E-2   -4.602636721615410E-2   -1.981193553031342E-2   -4.573400946220323E-2    4.596482402400837E-1   -2.334615217061882E-1
 6.529658747050000E9     5.463673072206283E-1   -1.208611567709156E-1   -1.895511120092894E-2   -4.621503755579166E-2   -2.011210808274829E-2   -4.586800332278228E-2    4.589333524880591E-1   -2.348057437584086E-1
 6.529669841725000E9     5.462158880340270E-1   -1.217492944694374E-1   -1.932910587840624E-2   -4.664987812539119E-2   -2.033985369608531E-2   -4.630655462188479E-2    4.580143620329812E-1   -2.359125096463298E-1
 6.529680936400000E9     5.458638576530196E-1   -1.228412781199309E-1   -1.960851443685634E-2   -4.702379652133924E-2   -2.075519622553858E-2   -4.661645143700760E-2    4.573400326690636E-1   -2.372640185908798E-1
 6.529692031075000E9     5.455803357918972E-1   -1.238667609663486E-1   -1.977618097277735E-2   -4.732752619447071E-2   -2.105165641069662E-2   -4.694161578555178E-2    4.564333792338308E-1   -2.384922384144352E-1
 6.529703125750000E9     5.452107290434103E-1   -1.248305043500063E-1   -2.024966257113429E-2   -4.770265608934564E-2   -2.138765301444603E-2   -4.739224563343806E-2    4.556347343543157E-1   -2.395712761441930E-1
