#  HZ   S   RI   R     50.00 
! Rohde & Schwarz Vector Network Analyzer 
! Rohde-Schwarz,ZNB20-2Port,1311601062101988,3.16
! Created: UTC 3/21/2024, 1:06:17 AM
! freq[Hz]                re:S11                  im:S11                  re:S21                  im:S21                  re:S12                  im:S12                  re:S22                  im:S22
 6.528731804000000E9     5.597526137409715E-1   -4.285520864755261E-2   -5.795932980031955E-3   -2.869660100490913E-2   -6.367001063335999E-3   -2.850930076274020E-2    4.998884588136227E-1   -1.462647128228053E-1
 6.528742857350000E9     5.597845914990631E-1   -4.373336873228894E-2   -6.028054028971031E-3   -2.886629974477938E-2   -6.467463504574793E-3   -2.871314719792038E-2    4.997502724587428E-1   -1.469590656170101E-1
 6.528753910700000E9     5.596883036054803E-1   -4.458003886560932E-2   -6.210399214185129E-3   -2.891029715319732E-2   -6.567976583425676E-3   -2.879660896976549E-2    4.994020791659203E-1   -1.479917852774988E-1
 6.528764964050000E9     5.595406816602985E-1   -4.548847522485721E-2   -6.228459626698657E-3   -2.889500866326689E-2   -6.611911812460859E-3   -2.888079719936345E-2    4.991502175169410E-1   -1.487563386762915E-1
 6.528776017400000E9     5.595102045631957E-1   -4.633093671923216E-2   -6.287746092341506E-3   -2.916468673109451E-2   -6.766210677725303E-3   -2.915776095493177E-2    4.988592039117788E-1   -1.497188904242254E-1
 6.528787070750000E9     5.593829143379561E-1   -4.733033358897819E-2   -6.282066120952385E-3   -2.926648307066307E-2   -6.749696888415038E-3   -2.924619877289102E-2    4.983499418408207E-1   -1.506341914351730E-1
 6.528798124100000E9     5.592715017508467E-1   -4.816400071888770E-2   -6.467869171289015E-3   -2.935745907575492E-2   -6.932714773866771E-3   -2.933022443706329E-2    4.981805907346915E-1   -1.516576970023664E-1
 6.528809177450000E9     5.591608822701825E-1   -4.919796624537360E-2   -6.517010249663911E-3   -2.971574299641905E-2   -7.006158897026067E-3   -2.944429834245582E-2    4.979047757756910E-1   -1.526323634702482E-1
 6.528820230800000E9     5.592407387847487E-1   -4.994399706208074E-2   -6.493659376579084E-3   -2.960447372111873E-2   -7.125741747987222E-3   -2.949869408329962E-2    4.975790378455281E-1   -1.534021082051586E-1
 6.528831284150000E9     5.590507618822469E-1   -5.088743694161121E-2   -6.729720024638293E-3   -2.982877744405168E-2   -7.149175479306395E-3   -2.973285276707796E-2    4.971705931319231E-1   -1.544078227515701E-1
 6.528842337500000E9     5.589764237856977E-1   -5.157692843586704E-2   -6.753688014654406E-3   -3.000495375346444E-2   -7.268092051037142E-3   -2.988951513508209E-2    4.968788359220520E-1   -1.552750272897473E-1
 6.528853390850000E9     5.588769452970667E-1   -5.254240676767966E-2   -6.742625652586058E-3   -3.002351974660607E-2   -7.384443178933967E-3   -3.007256400715575E-2    4.965215983445703E-1   -1.562686615728880E-1
 6.528864444200000E9     5.588746952600800E-1   -5.343185798182704E-2   -7.106648268610716E-3   -3.027777341452877E-2   -7.471834125496990E-3   -3.015061643740659E-2    4.963138564465688E-1   -1.573701091819399E-1
 6.528875497550000E9     5.588095583526079E-1   -5.419292018128020E-2   -7.134010877115178E-3   -3.043840431296333E-2   -7.525127678616890E-3   -3.039763969578974E-2    4.958818142090498E-1   -1.582812321352742E-1
 6.528886550900000E9     5.586386964473854E-1   -5.508737613414906E-2   -7.083272876237261E-3   -3.045290615325424E-2   -7.619432483870057E-3   -3.038023232613571E-2    4.954860210118771E-1   -1.590504666615717E-1
 6.528897604250000E9     5.586450456105679E-1   -5.601674655076330E-2   -7.234742322184763E-3   -3.071165070616707E-2   -7.788678115657263E-3   -3.051441767543214E-2    4.951898345444219E-1   -1.601790265876527E-1
 6.528908657600000E9     5.584393148434584E-1   -5.704726787325436E-2   -7.201113679230325E-3   -3.079352950103946E-2   -7.870871180157118E-3   -3.073244822810181E-2    4.949921565898932E-1   -1.611198967318615E-1
 6.528919710950000E9     5.583171676125100E-1   -5.796301551652142E-2   -7.493502915880498E-3   -3.105898400771146E-2   -7.982097770371160E-3   -3.079753501240013E-2    4.945838111043185E-1   -1.620180872244945E-1
 6.528930764300000E9     5.582477038284407E-1   -5.883449525189958E-2   -7.511388647566341E-3   -3.109006089143839E-2   -8.028304493047556E-3   -3.097834215311665E-2    4.941058020682010E-1   -1.629462205731161E-1
 6.528941817650000E9     5.582146633226518E-1   -5.958612462990141E-2   -7.614874493639978E-3   -3.129964436895937E-2   -8.182237558662694E-3   -3.115448534956859E-2    4.937399658664391E-1   -1.639491452618671E-1
 6.528952871000000E9     5.580010339554375E-1   -6.061038938018014E-2   -7.608692982750429E-3   -3.137757979236912E-2   -8.350683264888985E-3   -3.141575335388712E-2    4.935046132876312E-1   -1.649390388050974E-1
 6.528963924350000E9     5.580277976717877E-1   -6.137810412540020E-2   -7.782178582355833E-3   -3.152098675397611E-2   -8.397979296029121E-3   -3.141189155662141E-2    4.930661879387554E-1   -1.657971024227640E-1
 6.528974977700000E9     5.578336547057624E-1   -6.222462060231614E-2   -7.958824505377318E-3   -3.179887231549788E-2   -8.511963183825647E-3   -3.170330057912019E-2    4.927304056327798E-1   -1.668025543180686E-1
 6.528986031050000E9     5.578380937571407E-1   -6.309555831325679E-2   -8.040032928564509E-3   -3.184293852815422E-2   -8.690579275272933E-3   -3.174776980695004E-2    4.924288312486311E-1   -1.678120448254700E-1
 6.528997084400000E9     5.575951236017261E-1   -6.415505635571668E-2   -8.112723033867331E-3   -3.204097427587131E-2   -8.800183846486075E-3   -3.185456421628186E-2    4.920059040698108E-1   -1.688967351472050E-1
 6.529008137750000E9     5.574818621549782E-1   -6.493275167441762E-2   -8.145839739462110E-3   -3.227037204826579E-2   -8.860603202425776E-3   -3.205207367788249E-2    4.915558285722029E-1   -1.697003872207482E-1
 6.529019191100000E9     5.573317309689840E-1   -6.595292606107653E-2   -8.384492863495914E-3   -3.242466679336811E-2   -9.022424161511387E-3   -3.220441003712162E-2    4.912795447287643E-1   -1.707742496554668E-1
 6.529030244450000E9     5.572657223707589E-1   -6.678887628583965E-2   -8.469121397184193E-3   -3.255854315532926E-2   -9.077737835312566E-3   -3.241109819981242E-2    4.909512203164241E-1   -1.716515734712804E-1
 6.529041297800000E9     5.571669112155287E-1   -6.760218632938647E-2   -8.530786214805052E-3   -3.275074712875479E-2   -9.272235754394224E-3   -3.257908241493776E-2    4.904962796491451E-1   -1.727219772301525E-1
 6.529052351150000E9     5.569991813361601E-1   -6.855093440655388E-2   -8.692514515370809E-3   -3.274272455349136E-2   -9.351313875125677E-3   -3.280070179799763E-2    4.901195472698063E-1   -1.735595248828331E-1
 6.529063404500000E9     5.568220322309158E-1   -6.947151840634387E-2   -8.815163464023463E-3   -3.307313814923354E-2   -9.567339328882577E-3   -3.287439415998456E-2    4.897738627786895E-1   -1.747091022306570E-1
 6.529074457850000E9     5.567163137876345E-1   -7.036798920782583E-2   -8.940006819543560E-3   -3.325737856391158E-2   -9.488280198802476E-3   -3.307096531742949E-2    4.893068534669458E-1   -1.754795337744232E-1
 6.529085511200000E9     5.566731214742181E-1   -7.120999006655752E-2   -9.085679994603798E-3   -3.333853578598730E-2   -9.683519540734578E-3   -3.325886946525609E-2    4.888536749266187E-1   -1.767592408762313E-1
 6.529096564550000E9     5.566434530500175E-1   -7.220506931647308E-2   -9.113691443489322E-3   -3.341224822665152E-2   -9.725352026275164E-3   -3.341550357630493E-2    4.883679422079757E-1   -1.775325263095549E-1
 6.529107617900000E9     5.564076098213867E-1   -7.310960671296610E-2   -9.248425738590091E-3   -3.372958105445045E-2   -9.865383348840571E-3   -3.362759139924597E-2    4.882612695629815E-1   -1.787784955047511E-1
 6.529118671250000E9     5.561649475906874E-1   -7.399273464239077E-2   -9.462773924143398E-3   -3.396097737146520E-2   -9.985910619679263E-3   -3.384478007452790E-2    4.876426887501570E-1   -1.795760718378727E-1
 6.529129724600000E9     5.560974508485849E-1   -7.481142032386308E-2   -9.599589121133179E-3   -3.410196948377703E-2   -1.025434556656898E-2   -3.394557490358400E-2    4.873842952970103E-1   -1.805876778570633E-1
 6.529140777950000E9     5.560424549703152E-1   -7.569136123993508E-2   -9.759815931641479E-3   -3.429843715558904E-2   -1.033754705283976E-2   -3.410260192767690E-2    4.867802754714798E-1   -1.817098402676703E-1
 6.529151831300000E9     5.558863730598150E-1   -7.677037388864451E-2   -9.761746032172816E-3   -3.444229115289708E-2   -1.054087925778167E-2   -3.433467941955148E-2    4.865014642939434E-1   -1.825504974028553E-1
 6.529162884650000E9     5.556625892849419E-1   -7.752692129992624E-2   -9.868701672928009E-3   -3.480203375601318E-2   -1.064586233943215E-2   -3.450775811327415E-2    4.859485187238463E-1   -1.836203210593759E-1
 6.529173938000000E9     5.555609902483502E-1   -7.844852976555576E-2   -1.009737325271998E-2   -3.487808883991423E-2   -1.077928408167702E-2   -3.471796525694746E-2    4.855907931297816E-1   -1.844706412798287E-1
 6.529184991350000E9     5.553324035971375E-1   -7.948835775513791E-2   -1.020436606533915E-2   -3.500154532342267E-2   -1.091358812459307E-2   -3.487931198454156E-2    4.851232833338883E-1   -1.855042635592884E-1
 6.529196044700000E9     5.552133286453678E-1   -8.020152973603356E-2   -1.031950454504495E-2   -3.523366473717676E-2   -1.095809741327218E-2   -3.508523171773371E-2    4.847272476630037E-1   -1.865767903703986E-1
 6.529207098050000E9     5.551330273122300E-1   -8.124953179046823E-2   -1.045423792595352E-2   -3.533849649300375E-2   -1.112220952312888E-2   -3.530131440528875E-2    4.842962474219931E-1   -1.876683319776866E-1
 6.529218151400000E9     5.550727515517220E-1   -8.203023672290524E-2   -1.058237263268655E-2   -3.569260189056457E-2   -1.128443212454660E-2   -3.542214792169713E-2    4.836721025613281E-1   -1.887196808309787E-1
 6.529229204750000E9     5.549217798252499E-1   -8.303214987076492E-2   -1.074258101836285E-2   -3.601079856954695E-2   -1.154386125988807E-2   -3.558937302542674E-2    4.832760055293790E-1   -1.897689960502635E-1
 6.529240258100000E9     5.547408669525096E-1   -8.404196063458809E-2   -1.074641032416944E-2   -3.595990927042185E-2   -1.156366130267491E-2   -3.586871455600154E-2    4.826355632457590E-1   -1.907980492888295E-1
 6.529251311450000E9     5.544924931644074E-1   -8.483235502716992E-2   -1.106569628028624E-2   -3.618235929872896E-2   -1.189441129087377E-2   -3.598136115541530E-2    4.822735874175180E-1   -1.918189151294249E-1
 6.529262364800000E9     5.543655130975462E-1   -8.577705323532248E-2   -1.124897704339259E-2   -3.647667594176759E-2   -1.192158307212257E-2   -3.624624062732376E-2    4.817014699392831E-1   -1.927958009344081E-1
 6.529273418150000E9     5.541264806525700E-1   -8.674531474331644E-2   -1.137567305766862E-2   -3.667763798321192E-2   -1.207234616631481E-2   -3.641021650367150E-2    4.813746192306628E-1   -1.937996980715152E-1
 6.529284471500000E9     5.540698117559787E-1   -8.772786721647631E-2   -1.153855744978695E-2   -3.680454513277798E-2   -1.224624662445177E-2   -3.666235826334265E-2    4.808023442294993E-1   -1.949705386507989E-1
 6.529295524850000E9     5.538286391020205E-1   -8.864333937344585E-2   -1.172846320173258E-2   -3.702845520338346E-2   -1.241606048842064E-2   -3.692741791719895E-2    4.804310007330351E-1   -1.959454727079051E-1
 6.529306578200000E9     5.537593453642891E-1   -8.953867468359195E-2   -1.176782898844162E-2   -3.727719943756717E-2   -1.257278477022905E-2   -3.715849543972275E-2    4.799977734118731E-1   -1.971502427546937E-1
 6.529317631550000E9     5.535737125881443E-1   -9.047462405666307E-2   -1.187267631619544E-2   -3.741736410042702E-2   -1.279065846775779E-2   -3.724171074723254E-2    4.794321613915726E-1   -1.981059645459736E-1
 6.529328684900000E9     5.533165405234916E-1   -9.143893230554044E-2   -1.205934081344092E-2   -3.769860296589931E-2   -1.289645300781971E-2   -3.764661448155762E-2    4.788827748282627E-1   -1.990644768633946E-1
 6.529339738250000E9     5.531560340713121E-1   -9.239553069824223E-2   -1.231954479342259E-2   -3.800418429973204E-2   -1.311050311713205E-2   -3.760688130120232E-2    4.783221581708397E-1   -2.001791293724962E-1
 6.529350791600000E9     5.530035004041929E-1   -9.324225707927064E-2   -1.253866175817716E-2   -3.812418970240332E-2   -1.321591666739142E-2   -3.790361046026105E-2    4.777852257574554E-1   -2.013758139216509E-1
 6.529361844950000E9     5.528060745769530E-1   -9.418538921330487E-2   -1.262142609222191E-2   -3.843140059632907E-2   -1.356344303616040E-2   -3.816105479627097E-2    4.774392733569005E-1   -2.023091947763195E-1
 6.529372898300000E9     5.526977874328601E-1   -9.508907938054578E-2   -1.267980833444417E-2   -3.862818355339149E-2   -1.361299721340335E-2   -3.838337753394822E-2    4.767890145414752E-1   -2.033949896864201E-1
 6.529383951650000E9     5.523169832835073E-1   -9.602369028830753E-2   -1.295533809882780E-2   -3.880905534698169E-2   -1.377666321868150E-2   -3.864750537281626E-2    4.762774393958473E-1   -2.045185252463769E-1
 6.529395005000000E9     5.523277901742556E-1   -9.690523939677846E-2   -1.320101075967618E-2   -3.909492941089230E-2   -1.400685755544848E-2   -3.891849736890125E-2    4.757793589298021E-1   -2.055713291301938E-1
 6.529406058350000E9     5.520447673817787E-1   -9.787516427993286E-2   -1.336316645774123E-2   -3.939712454270044E-2   -1.420182573137782E-2   -3.906426605424883E-2    4.751145713081242E-1   -2.069340344603448E-1
 6.529417111700000E9     5.518316366260502E-1   -9.891155738362688E-2   -1.356804733413768E-2   -3.966284721957423E-2   -1.434188862297872E-2   -3.934403392862335E-2    4.746160560143940E-1   -2.076869785369116E-1
 6.529428165050000E9     5.514865163482136E-1   -9.978981480695584E-2   -1.374088848351994E-2   -3.989760478359865E-2   -1.464951973259725E-2   -3.955269966563680E-2    4.738550749363541E-1   -2.088607568809862E-1
 6.529439218400000E9     5.513487167102533E-1   -1.008025377089658E-1   -1.396278757247243E-2   -3.995514710575401E-2   -1.476116761332298E-2   -3.986366073742253E-2    4.732509698787085E-1   -2.099162805678443E-1
 6.529450271750000E9     5.512588037900410E-1   -1.016203184450576E-1   -1.407669078498319E-2   -4.039370511549419E-2   -1.496948963177210E-2   -4.005673137936160E-2    4.727525641683737E-1   -2.111539460411668E-1
 6.529461325100000E9     5.510305760893579E-1   -1.026480083655060E-1   -1.429181485443352E-2   -4.048722569441995E-2   -1.522065479468272E-2   -4.042918074979217E-2    4.722994570489706E-1   -2.122288418264383E-1
 6.529472378450000E9     5.508288296180474E-1   -1.035761623265158E-1   -1.453275294078125E-2   -4.098736784943233E-2   -1.543744482845781E-2   -4.048793316222952E-2    4.715376171781832E-1   -2.134009812848605E-1
 6.529483431800000E9     5.505873840361776E-1   -1.044242059646832E-1   -1.477961198611189E-2   -4.111968316737270E-2   -1.562340707594241E-2   -4.080904648231993E-2    4.709442488563366E-1   -2.145028675595614E-1
 6.529494485150000E9     5.503782907451623E-1   -1.055076921860744E-1   -1.489522109368765E-2   -4.138767967662856E-2   -1.583177013247574E-2   -4.108648829951014E-2    4.703907236944697E-1   -2.155215320251149E-1
 6.529505538500000E9     5.501407523773805E-1   -1.065039500472490E-1   -1.525198443942847E-2   -4.167116320032527E-2   -1.607446983974193E-2   -4.134282670948993E-2    4.697709953933031E-1   -2.167098188654076E-1
 6.529516591850000E9     5.499265702374593E-1   -1.073730484155201E-1   -1.554872855062757E-2   -4.196729979605165E-2   -1.635631086843343E-2   -4.161628379529331E-2    4.689220378781954E-1   -2.179091620753324E-1
 6.529527645200000E9     5.497290820678397E-1   -1.083243898214458E-1   -1.557871176776554E-2   -4.209794951524572E-2   -1.660669076147274E-2   -4.190069415428756E-2    4.684444643416465E-1   -2.191118119744656E-1
 6.529538698550000E9     5.495270250677837E-1   -1.093304410848101E-1   -1.576910223088106E-2   -4.243144728877248E-2   -1.671964406067401E-2   -4.216142877490221E-2    4.679181413641204E-1   -2.201850119413442E-1
 6.529549751900000E9     5.492426818626853E-1   -1.102173795409878E-1   -1.603485439768160E-2   -4.278694190952829E-2   -1.711356389565727E-2   -4.246786034980118E-2    4.671916809088538E-1   -2.212742264540666E-1
 6.529560805250000E9     5.490130522563212E-1   -1.113169800614748E-1   -1.626656113943506E-2   -4.300766725137799E-2   -1.726844858514738E-2   -4.268260553236195E-2    4.664471175592196E-1   -2.225178889426447E-1
 6.529571858600000E9     5.487182644206364E-1   -1.122896271907421E-1   -1.631157287758756E-2   -4.337143653257561E-2   -1.748370628136817E-2   -4.302392821044934E-2    4.658660076000090E-1   -2.236890848667931E-1
 6.529582911950000E9     5.484940795703671E-1   -1.131961257054948E-1   -1.684300885999441E-2   -4.357561527752278E-2   -1.779515147259246E-2   -4.343324956870912E-2    4.649447885860257E-1   -2.248728821748091E-1
 6.529593965300000E9     5.482407550967558E-1   -1.141574960831355E-1   -1.700816433361734E-2   -4.398191182743566E-2   -1.803280259757168E-2   -4.359914217884724E-2    4.643360795640806E-1   -2.259478687993669E-1
 6.529605018650000E9     5.479558007799885E-1   -1.152616533424915E-1   -1.720730616364805E-2   -4.425717323299918E-2   -1.824183435011607E-2   -4.397346008033360E-2    4.637695739348987E-1   -2.272762135389087E-1
 6.529616072000000E9     5.477085685248733E-1   -1.161915306276267E-1   -1.753735700749385E-2   -4.455940232351066E-2   -1.856574010033529E-2   -4.420207686136633E-2    4.629000828641566E-1   -2.283983754910903E-1
 6.529627125350000E9     5.475674008361908E-1   -1.171657571297670E-1   -1.773017718149255E-2   -4.474134545595419E-2   -1.881461324704374E-2   -4.445283745928919E-2    4.622757251488371E-1   -2.294880097192615E-1
 6.529638178700000E9     5.472466870867452E-1   -1.180137972118760E-1   -1.810849997260039E-2   -4.513652394723950E-2   -1.904775034788587E-2   -4.490105387356621E-2    4.615194636482852E-1   -2.307448205174492E-1
 6.529649232050000E9     5.469351802475741E-1   -1.191848890487915E-1   -1.844764674221473E-2   -4.561688463607926E-2   -1.932421109480479E-2   -4.501291605260908E-2    4.607347236977440E-1   -2.320516465991659E-1
 6.529660285400000E9     5.467964413701772E-1   -1.200364410436212E-1   -1.865260690837473E-2   -4.574874206657883E-2   -1.964181727001878E-2   -4.537541626803388E-2    4.600590113373222E-1   -2.332605686746329E-1
 6.529671338750000E9     5.464498509085286E-1   -1.210927045429073E-1   -1.895321285293117E-2   -4.612924084867878E-2   -1.995783243913576E-2   -4.569800210119474E-2    4.592480355098315E-1   -2.344344191991254E-1
 6.529682392100000E9     5.461950560151020E-1   -1.221153126057676E-1   -1.924302194778891E-2   -4.650913561080215E-2   -2.019568535412575E-2   -4.608980645433361E-2    4.584520984801204E-1   -2.356712573415768E-1
 6.529693445450000E9     5.457794701909421E-1   -1.231281426999452E-1   -1.949520646150834E-2   -4.688406124279552E-2   -2.058620276744739E-2   -4.644254851238668E-2    4.576810514452588E-1   -2.369859534027900E-1
 6.529704498800000E9     5.455809222964912E-1   -1.241018874678670E-1   -1.984662581775066E-2   -4.707614276496332E-2   -2.090995597898937E-2   -4.673341165330189E-2    4.568862341028425E-1   -2.382038130097240E-1
 6.529715552150000E9     5.453273401289042E-1   -1.251520314797684E-1   -2.012358581920539E-2   -4.744802737693214E-2   -2.120060284411433E-2   -4.714912613722913E-2    4.560156223695903E-1   -2.394783278679336E-1
 6.529726605500000E9     5.448924293839192E-1   -1.261225213048704E-1   -2.053452643120403E-2   -4.783832783298254E-2   -2.157642617596742E-2   -4.748052032999431E-2    4.551848641002650E-1   -2.407049552315588E-1
