#  HZ   S   RI   R     50.00 
! Rohde & Schwarz Vector Network Analyzer 
! Rohde-Schwarz,ZNB20-2Port,1311601062101988,3.16
! Created: UTC 3/21/2024, 1:06:45 AM
! freq[Hz]                re:S11                  im:S11                  re:S21                  im:S21                  re:S12                  im:S12                  re:S22                  im:S22
 6.528753431000000E9     5.597743279598969E-1   -4.420147122016686E-2   -5.885304433379852E-3   -2.872387843948710E-2   -6.391830259263871E-3   -2.859472586761724E-2    4.997217091374921E-1   -1.472064719634418E-1
 6.528764441450000E9     5.595803800431098E-1   -4.509750488887974E-2   -5.941384014750252E-3   -2.884164341883135E-2   -6.543227531163582E-3   -2.886433337511167E-2    4.992036483652195E-1   -1.481663811721176E-1
 6.528775451900000E9     5.595475240504511E-1   -4.583798441560874E-2   -6.164857988575273E-3   -2.908903228654741E-2   -6.656542939486207E-3   -2.893100505186074E-2    4.989612768961070E-1   -1.491675564702160E-1
 6.528786462350000E9     5.592852678576155E-1   -4.674792905976217E-2   -6.225821995030595E-3   -2.908085791544614E-2   -6.775977921177136E-3   -2.903891650263677E-2    4.986321200528799E-1   -1.501215610701203E-1
 6.528797472800000E9     5.593093086858707E-1   -4.755674525363429E-2   -6.258051749835980E-3   -2.931130310806686E-2   -6.871490049061505E-3   -2.912431046961604E-2    4.984067591150661E-1   -1.510116947192060E-1
 6.528808483250000E9     5.592252631400960E-1   -4.858458688180132E-2   -6.345038338621306E-3   -2.940089880506428E-2   -6.900553618800583E-3   -2.927845617471248E-2    4.981725374253107E-1   -1.520438684083193E-1
 6.528819493700000E9     5.592098037501967E-1   -4.945213417527315E-2   -6.397144523018666E-3   -2.957511501818216E-2   -6.975012487973314E-3   -2.942743378118774E-2    4.977749654326311E-1   -1.529079201593870E-1
 6.528830504150000E9     5.590889754762545E-1   -5.025235794588683E-2   -6.419291954523584E-3   -2.976667208233232E-2   -7.002795086219559E-3   -2.953643530395938E-2    4.976636304355311E-1   -1.538623518797752E-1
 6.528841514600000E9     5.589951750005107E-1   -5.103206214249754E-2   -6.589210174877010E-3   -2.985898745544834E-2   -7.215084903175228E-3   -2.971379022457540E-2    4.971368756698160E-1   -1.548093838091596E-1
 6.528852525050000E9     5.589692185342171E-1   -5.197943418854363E-2   -6.748042199170880E-3   -3.000314181995075E-2   -7.246677796770014E-3   -2.983727914411044E-2    4.969633468243118E-1   -1.557820166831362E-1
 6.528863535500000E9     5.588152812752011E-1   -5.288436792882865E-2   -6.743083219506170E-3   -3.002664251102142E-2   -7.288534406685680E-3   -3.005595398733628E-2    4.965588300475272E-1   -1.565349128495339E-1
 6.528874545950000E9     5.587399612478064E-1   -5.376802063353150E-2   -6.916679070104919E-3   -3.020754159614327E-2   -7.504902223356094E-3   -3.020986152430294E-2    4.962136902707350E-1   -1.576151357019107E-1
 6.528885556400000E9     5.585729986702215E-1   -5.479145248529427E-2   -6.895424855754406E-3   -3.035184006751279E-2   -7.555283167816948E-3   -3.026392751569038E-2    4.957449474134334E-1   -1.585464642064623E-1
 6.528896566850000E9     5.586202576125476E-1   -5.558035875992440E-2   -7.115765666482813E-3   -3.046570282735079E-2   -7.722431251080732E-3   -3.033025697087718E-2    4.954173790114824E-1   -1.594545930840399E-1
 6.528907577300000E9     5.584027351606407E-1   -5.639511827092533E-2   -7.125033711713698E-3   -3.070463265069337E-2   -7.757204972532733E-3   -3.061094280028400E-2    4.951762769438243E-1   -1.603783703160229E-1
 6.528918587750000E9     5.583488606995580E-1   -5.722636524105681E-2   -7.277987873889883E-3   -3.070716796566963E-2   -7.815207154256642E-3   -3.070153784933185E-2    4.949219113138824E-1   -1.612806975488703E-1
 6.528929598200000E9     5.582051346178175E-1   -5.823760938588637E-2   -7.373698038431468E-3   -3.084165061199801E-2   -7.893703401891859E-3   -3.081578027571838E-2    4.944369495926266E-1   -1.623789939107711E-1
 6.528940608650000E9     5.581685519374430E-1   -5.916395554216559E-2   -7.416414849963719E-3   -3.103383432471454E-2   -8.153980902321075E-3   -3.100571682726610E-2    4.940667055772477E-1   -1.630652638886029E-1
 6.528951619100000E9     5.579545572361133E-1   -5.992658281190459E-2   -7.562686595345754E-3   -3.122089876079635E-2   -8.186512276543358E-3   -3.119891827304644E-2    4.938150170771965E-1   -1.641714439183404E-1
 6.528962629550000E9     5.580477156011857E-1   -6.087705438941964E-2   -7.655419287349649E-3   -3.152024901852579E-2   -8.290247487391952E-3   -3.131356955864371E-2    4.934873003932165E-1   -1.650769730384232E-1
 6.528973640000000E9     5.578429921086163E-1   -6.174350399411391E-2   -7.859906229046903E-3   -3.149064902269501E-2   -8.433471172886347E-3   -3.139418735455146E-2    4.931663171099688E-1   -1.661288800710305E-1
 6.528984650450000E9     5.578211811720429E-1   -6.266516788036267E-2   -7.851142505490459E-3   -3.170442230542836E-2   -8.497598947982481E-3   -3.156683477705152E-2    4.927523941490536E-1   -1.671447181755071E-1
 6.528995660900000E9     5.577317966275668E-1   -6.357428770200461E-2   -7.966914702843190E-3   -3.186117774491196E-2   -8.654932792913685E-3   -3.182454008406509E-2    4.923249723891642E-1   -1.678691519316868E-1
 6.529006671350000E9     5.575762571929855E-1   -6.443286282725559E-2   -8.146496345296184E-3   -3.204993203918411E-2   -8.591266048444851E-3   -3.194131430023099E-2    4.918603652190979E-1   -1.689780890178137E-1
 6.529017681800000E9     5.574003177985427E-1   -6.532341104785000E-2   -8.095959903541936E-3   -3.217521350388482E-2   -8.908504559014341E-3   -3.200048847374948E-2    4.916335327770048E-1   -1.699133480811306E-1
 6.529028692250000E9     5.572854284894199E-1   -6.615399695383634E-2   -8.290321059403563E-3   -3.219914982865826E-2   -8.936263971604954E-3   -3.231955912369741E-2    4.912811866034067E-1   -1.707886086948400E-1
 6.529039702700000E9     5.571280819994727E-1   -6.714471163554697E-2   -8.435233897816634E-3   -3.253237514924207E-2   -9.071841474524816E-3   -3.236593839926007E-2    4.906830430892462E-1   -1.719335625725058E-1
 6.529050713150000E9     5.570503554232914E-1   -6.793800502661877E-2   -8.569328176190003E-3   -3.260379602011320E-2   -9.180723646355797E-3   -3.249924057458567E-2    4.904570205147348E-1   -1.727697080862680E-1
 6.529061723600000E9     5.569119785313881E-1   -6.888099787260578E-2   -8.603113077374965E-3   -3.295765349776843E-2   -9.192169328098092E-3   -3.271363200446702E-2    4.900248446385680E-1   -1.737743843595482E-1
 6.529072734050000E9     5.567848829259361E-1   -6.974381495908245E-2   -8.686539363577467E-3   -3.298780524501988E-2   -9.504848541525984E-3   -3.288441311010489E-2    4.895849111411852E-1   -1.748031571271607E-1
 6.529083744500000E9     5.567912260743562E-1   -7.069404436429841E-2   -8.891084403630761E-3   -3.312995040445906E-2   -9.534676828118371E-3   -3.298249357519616E-2    4.893097761580939E-1   -1.757737722696484E-1
 6.529094754950000E9     5.566541493478475E-1   -7.160332465294858E-2   -9.049785347632327E-3   -3.329331220012891E-2   -9.691428605360054E-3   -3.318048891128451E-2    4.888589750715518E-1   -1.768249151566873E-1
 6.529105765400000E9     5.564608475661391E-1   -7.242768060655419E-2   -9.157112754176289E-3   -3.338970567375986E-2   -9.746803097019625E-3   -3.336977470323033E-2    4.884626291468075E-1   -1.777811425350643E-1
 6.529116775850000E9     5.563783331695631E-1   -7.322807155936024E-2   -9.257703844670628E-3   -3.377325170657781E-2   -9.938936349184243E-3   -3.350203695028113E-2    4.881249005384444E-1   -1.787283253381985E-1
 6.529127786300000E9     5.562134134286925E-1   -7.429029138282520E-2   -9.459195647119362E-3   -3.382478496246046E-2   -1.007769999574558E-2   -3.370131815535797E-2    4.875214663225497E-1   -1.798474265924662E-1
 6.529138796750000E9     5.560800076380872E-1   -7.520521413725481E-2   -9.409226272659379E-3   -3.416292250754106E-2   -1.012956273394415E-2   -3.391792650105070E-2    4.873733586497744E-1   -1.805627770937934E-1
 6.529149807200000E9     5.558596850602040E-1   -7.605487238564354E-2   -9.560195526546675E-3   -3.412299638344839E-2   -1.031834604804838E-2   -3.407034421005521E-2    4.866603348101694E-1   -1.818803399580584E-1
 6.529160817650000E9     5.557643905684917E-1   -7.707609933940883E-2   -9.722077013281299E-3   -3.439581709666809E-2   -1.037279570999552E-2   -3.420988799536600E-2    4.863716326211941E-1   -1.827581645263412E-1
 6.529171828100000E9     5.556248267820638E-1   -7.789689983782866E-2   -9.827778006553880E-3   -3.457788270084242E-2   -1.055149728127200E-2   -3.442227626024417E-2    4.859696265624625E-1   -1.835127052782731E-1
 6.529182838550000E9     5.555328001736015E-1   -7.875598174058536E-2   -9.922729629499956E-3   -3.483457647769580E-2   -1.073402218692634E-2   -3.463539362805232E-2    4.855606031018981E-1   -1.847089479074169E-1
 6.529193849000000E9     5.554651483126776E-1   -7.972798681248015E-2   -1.016941816017262E-2   -3.503780859847382E-2   -1.077200499684598E-2   -3.486947092067674E-2    4.851326908045072E-1   -1.857619613493893E-1
 6.529204859450000E9     5.552192911953298E-1   -8.055773424100077E-2   -1.026032839580029E-2   -3.515052672784562E-2   -1.096575510114551E-2   -3.493639889626510E-2    4.844706155607725E-1   -1.867766354850689E-1
 6.529215869900000E9     5.550523764549837E-1   -8.149139309809195E-2   -1.044637567912112E-2   -3.537314164530975E-2   -1.115092018514267E-2   -3.519042715024256E-2    4.842096874544004E-1   -1.878243826703702E-1
 6.529226880350000E9     5.550365943303189E-1   -8.233591367862426E-2   -1.052029119924286E-2   -3.550163420661594E-2   -1.137322639981511E-2   -3.528154800658281E-2    4.837518040132737E-1   -1.889174568042050E-1
 6.529237890800000E9     5.547588089201768E-1   -8.339698341718078E-2   -1.060912758122120E-2   -3.581533685310269E-2   -1.144198244358429E-2   -3.561158026189654E-2    4.834294330977425E-1   -1.898368685403095E-1
 6.529248901250000E9     5.545354512822712E-1   -8.437035616306759E-2   -1.084350296030769E-2   -3.592730280184655E-2   -1.152876782354656E-2   -3.571898101698215E-2    4.827594483784790E-1   -1.908078594626365E-1
 6.529259911700000E9     5.543855130330124E-1   -8.520879297694710E-2   -1.102514740626910E-2   -3.613699927320008E-2   -1.174413227675110E-2   -3.589750439544291E-2    4.823704458090425E-1   -1.918445026917142E-1
 6.529270922150000E9     5.542966265400353E-1   -8.601992460721909E-2   -1.120998084873932E-2   -3.649790460367266E-2   -1.187080717498098E-2   -3.618012710489332E-2    4.818860001920250E-1   -1.930096803004547E-1
 6.529281932600000E9     5.541152514720340E-1   -8.696725293624236E-2   -1.127735216555778E-2   -3.637548695668999E-2   -1.197679468260866E-2   -3.640259937428516E-2    4.812681652021769E-1   -1.939407921360922E-1
 6.529292943050000E9     5.539351747771827E-1   -8.791593126338774E-2   -1.140018749353830E-2   -3.682245871496637E-2   -1.223654952005844E-2   -3.656873830328281E-2    4.808928422596911E-1   -1.949795801119038E-1
 6.529303953500000E9     5.537522844823828E-1   -8.884746106922929E-2   -1.159926605366740E-2   -3.699771090785752E-2   -1.230396513162501E-2   -3.685918582962937E-2    4.804360743908058E-1   -1.960629305307957E-1
 6.529314963950000E9     5.536510419897125E-1   -8.973212989954701E-2   -1.174239107118737E-2   -3.710271606818623E-2   -1.262660741399625E-2   -3.695401401938121E-2    4.797340984597108E-1   -1.970919585756716E-1
 6.529325974400000E9     5.534616988340290E-1   -9.068904860915994E-2   -1.198270681197389E-2   -3.729187613869690E-2   -1.266575162977554E-2   -3.720345874149555E-2    4.793042503684042E-1   -1.979493169100238E-1
 6.529336984850000E9     5.532236401362763E-1   -9.155160871339109E-2   -1.205585346658205E-2   -3.752261922429437E-2   -1.279699148221952E-2   -3.742177048682653E-2    4.790328520020599E-1   -1.993323128320721E-1
 6.529347995300000E9     5.531453867345955E-1   -9.259321285585656E-2   -1.229109539502258E-2   -3.772585470334629E-2   -1.305903766343331E-2   -3.768137623339429E-2    4.783773073365415E-1   -2.003161909813254E-1
 6.529359005750000E9     5.528802649539304E-1   -9.349551493587901E-2   -1.247540604824247E-2   -3.800649005070374E-2   -1.319727088605539E-2   -3.790947790359955E-2    4.778492649096944E-1   -2.012957347227250E-1
 6.529370016200000E9     5.526919095109017E-1   -9.436394370176836E-2   -1.260171790283305E-2   -3.817375046403507E-2   -1.332357991390532E-2   -3.809564463071589E-2    4.771802819792178E-1   -2.023262883594510E-1
 6.529381026650000E9     5.526120575346091E-1   -9.532259195972639E-2   -1.277926848951832E-2   -3.848904448009397E-2   -1.359099224330164E-2   -3.827394708808491E-2    4.768331989080096E-1   -2.034782095820503E-1
 6.529392037100000E9     5.523541713009771E-1   -9.620022171478544E-2   -1.278933538726911E-2   -3.869256301031564E-2   -1.371302982999935E-2   -3.856101196284349E-2    4.762486939316162E-1   -2.044288794180731E-1
 6.529403047550000E9     5.521895266856812E-1   -9.725916344351079E-2   -1.302939400055404E-2   -3.901492427790586E-2   -1.387310554018709E-2   -3.877414289556557E-2    4.756667508926558E-1   -2.057793080362551E-1
 6.529414058000000E9     5.520925593898203E-1   -9.805436857181453E-2   -1.324623170444117E-2   -3.914665832569408E-2   -1.421793746744191E-2   -3.906613340448462E-2    4.750899444377527E-1   -2.067095597110144E-1
 6.529425068450000E9     5.517938974224719E-1   -9.904609785038160E-2   -1.344780709670114E-2   -3.948412886043116E-2   -1.434700034124746E-2   -3.928231868435453E-2    4.746176847705383E-1   -2.076815288687995E-1
 6.529436078900000E9     5.515823773276157E-1   -1.000260844681361E-1   -1.361756345493314E-2   -3.972223864182493E-2   -1.450265302532030E-2   -3.952591828884963E-2    4.741472709134144E-1   -2.088951220414719E-1
 6.529447089350000E9     5.513905650354846E-1   -1.009289954477021E-1   -1.389741998801154E-2   -3.996760281212067E-2   -1.473161648536648E-2   -3.975982485497208E-2    4.734644510203652E-1   -2.099867392885425E-1
 6.529458099800000E9     5.511139284447431E-1   -1.017823363291453E-1   -1.419686063917285E-2   -4.019800628520214E-2   -1.493297648297159E-2   -3.997412201508994E-2    4.728139491183885E-1   -2.112578752010847E-1
 6.529469110250000E9     5.510211121692277E-1   -1.027755088159018E-1   -1.422618134380459E-2   -4.049980816930095E-2   -1.502713516171282E-2   -4.018900791626155E-2    4.723232480264069E-1   -2.123114778171343E-1
 6.529480120700000E9     5.507594856557541E-1   -1.037273338745229E-1   -1.448417913101328E-2   -4.071896141060747E-2   -1.537380400498875E-2   -4.047408510744343E-2    4.715882307275329E-1   -2.134086037415459E-1
 6.529491131150000E9     5.506186235700412E-1   -1.047315375382211E-1   -1.470828269333522E-2   -4.081958571839645E-2   -1.549992793866562E-2   -4.073721304877010E-2    4.711340217593553E-1   -2.144217311911575E-1
 6.529502141600000E9     5.503786503169106E-1   -1.056304491446524E-1   -1.483481221013429E-2   -4.121591839523042E-2   -1.580753566149349E-2   -4.100875673200469E-2    4.706767947065186E-1   -2.157096186463748E-1
 6.529513152050000E9     5.500387499180768E-1   -1.066372400222360E-1   -1.506398656157064E-2   -4.159305297993410E-2   -1.597758410482904E-2   -4.123948443340526E-2    4.698249196154706E-1   -2.167266474328138E-1
 6.529524162500000E9     5.497864217140672E-1   -1.075853240694340E-1   -1.533493781424215E-2   -4.170059460238113E-2   -1.620528974947822E-2   -4.147232467714572E-2    4.691279186024514E-1   -2.176789046111494E-1
 6.529535172950000E9     5.496416837573409E-1   -1.086059402120622E-1   -1.546722228181314E-2   -4.204765220169482E-2   -1.642174263337512E-2   -4.175340123456028E-2    4.685170234032194E-1   -2.190316201416775E-1
 6.529546183400000E9     5.493194413745603E-1   -1.095072783424410E-1   -1.575796584056430E-2   -4.222030352655416E-2   -1.670098008265458E-2   -4.205577672057449E-2    4.679399910799992E-1   -2.200031086112525E-1
 6.529557193850000E9     5.492157378095269E-1   -1.104796305051127E-1   -1.595060533568976E-2   -4.263173156267910E-2   -1.686392707883544E-2   -4.222565913683030E-2    4.673489509976165E-1   -2.213104382416214E-1
 6.529568204300000E9     5.490075771737233E-1   -1.114506201303147E-1   -1.621243570317355E-2   -4.283163827913273E-2   -1.716040306897987E-2   -4.263106635594916E-2    4.665348059514238E-1   -2.224442910727928E-1
 6.529579214750000E9     5.488097582140389E-1   -1.124136749297717E-1   -1.641808662778900E-2   -4.322210648694974E-2   -1.737845628647492E-2   -4.286919447560614E-2    4.660310220690587E-1   -2.235790746242314E-1
 6.529590225200000E9     5.484153434258482E-1   -1.133416413337828E-1   -1.676732906047628E-2   -4.351041260137481E-2   -1.769237098511990E-2   -4.320144113061950E-2    4.653044030423143E-1   -2.247027408711217E-1
 6.529601235650000E9     5.483024726619249E-1   -1.142974665544157E-1   -1.696356074054191E-2   -4.376653673927294E-2   -1.794425175216294E-2   -4.345877832564818E-2    4.645672977165057E-1   -2.260342768869012E-1
 6.529612246100000E9     5.480873105224482E-1   -1.152782902842448E-1   -1.718209501604921E-2   -4.396699918158798E-2   -1.817213304389449E-2   -4.371580593489824E-2    4.639073657381966E-1   -2.270827518018907E-1
 6.529623256550000E9     5.476597145157220E-1   -1.163278159619604E-1   -1.747436169941801E-2   -4.429005757530024E-2   -1.833593334073976E-2   -4.412077654442308E-2    4.630182694056971E-1   -2.282535136208736E-1
 6.529634267000000E9     5.474798223409105E-1   -1.173253460864478E-1   -1.761901857408153E-2   -4.464579579803680E-2   -1.875492654058910E-2   -4.438887756400872E-2    4.627183556473442E-1   -2.293796205506851E-1
 6.529645277450000E9     5.471553877223486E-1   -1.181873493109157E-1   -1.789616533363280E-2   -4.493038632289737E-2   -1.893594468952740E-2   -4.458661596210309E-2    4.617535203360659E-1   -2.306614429136901E-1
 6.529656287900000E9     5.469047094100833E-1   -1.193228593927008E-1   -1.827550231710506E-2   -4.530771221142803E-2   -1.924782277912288E-2   -4.497257081883190E-2    4.609761446007414E-1   -2.318886087846478E-1
 6.529667298350000E9     5.466264601830575E-1   -1.203374759626042E-1   -1.847869784544119E-2   -4.562983585377386E-2   -1.948028981666331E-2   -4.518202540486858E-2    4.602955612230741E-1   -2.332065125740937E-1
 6.529678308800000E9     5.464519651271694E-1   -1.212085426911401E-1   -1.881897010231056E-2   -4.601460286588185E-2   -1.974464617427145E-2   -4.554143464182635E-2    4.594239857160367E-1   -2.343088063992719E-1
 6.529689319250000E9     5.462333597810236E-1   -1.221547122866418E-1   -1.899670333570455E-2   -4.629663384576166E-2   -2.006311636656958E-2   -4.588340497495792E-2    4.586484299280817E-1   -2.354761009927208E-1
 6.529700329700000E9     5.458455050645152E-1   -1.231536561749019E-1   -1.933128869678345E-2   -4.656661339566758E-2   -2.036244080904819E-2   -4.623307364512089E-2    4.578567237877983E-1   -2.366242651551905E-1
 6.529711340150000E9     5.456094210681545E-1   -1.241943124576024E-1   -1.976661858756201E-2   -4.703817129175757E-2   -2.074480604439791E-2   -4.658465855911632E-2    4.570809943875940E-1   -2.381288770234817E-1
 6.529722350600000E9     5.452278571001387E-1   -1.252622056955324E-1   -1.999346965708477E-2   -4.731386654752451E-2   -2.102279202548847E-2   -4.689921849840847E-2    4.562355142663090E-1   -2.391353196975027E-1
 6.529733361050000E9     5.449896949208840E-1   -1.262564426037143E-1   -2.018086939880794E-2   -4.753579208359515E-2   -2.135284915470797E-2   -4.728916447127500E-2    4.555538177110335E-1   -2.404700033402781E-1
 6.529744371500000E9     5.446341914087585E-1   -1.272038038884728E-1   -2.061368451780048E-2   -4.803835740570311E-2   -2.164857564108482E-2   -4.756686036497092E-2    4.546050542198569E-1   -2.419475188692748E-1
