#  HZ   S   RI   R     50.00 
! Rohde & Schwarz Vector Network Analyzer 
! Rohde-Schwarz,ZNB20-2Port,1311601062101988,3.16
! Created: UTC 3/21/2024, 1:06:55 AM
! freq[Hz]                re:S11                  im:S11                  re:S21                  im:S21                  re:S12                  im:S12                  re:S22                  im:S22
 6.528763435000000E9     5.595466738135118E-1   -4.483606387424945E-2   -5.985038159663677E-3   -2.866348956086144E-2   -6.532318517160349E-3   -2.858408200327154E-2    4.992825796663259E-1   -1.479426157979964E-1
 6.528774420425000E9     5.595290721288874E-1   -4.561076840660705E-2   -5.931635935329889E-3   -2.891414888207033E-2   -6.601059208732446E-3   -2.879232267215045E-2    4.990602506128918E-1   -1.489210841648844E-1
 6.528785405850000E9     5.593871326719229E-1   -4.669475688608177E-2   -6.163702465449914E-3   -2.907408904408086E-2   -6.586939910479427E-3   -2.895199442113414E-2    4.985883239534452E-1   -1.497784566637218E-1
 6.528796391275000E9     5.594018480984865E-1   -4.735127846393001E-2   -6.309204378526787E-3   -2.914941491601084E-2   -6.759593998453696E-3   -2.914279908584743E-2    4.984249791057585E-1   -1.507304878369812E-1
 6.528807376700000E9     5.592772829069050E-1   -4.843388233438062E-2   -6.400686268287111E-3   -2.938522156850744E-2   -6.898575755522554E-3   -2.921480124643266E-2    4.981870784278943E-1   -1.517167121106008E-1
 6.528818362125000E9     5.591288664966086E-1   -4.932533264129875E-2   -6.465704817331149E-3   -2.954688360968130E-2   -6.890226687593599E-3   -2.940760413720705E-2    4.978402147039811E-1   -1.526061489958940E-1
 6.528829347550000E9     5.591053629721061E-1   -5.000315609701674E-2   -6.580317320894452E-3   -2.953694481070037E-2   -7.043349173414390E-3   -2.951141362828704E-2    4.976929752282088E-1   -1.535227666649285E-1
 6.528840332975000E9     5.590866562563634E-1   -5.104424522615979E-2   -6.543005012910262E-3   -2.969145024438689E-2   -7.110665196814981E-3   -2.953506547937423E-2    4.973545551160257E-1   -1.542592614287191E-1
 6.528851318400000E9     5.589410157930927E-1   -5.180680529159088E-2   -6.676760978276379E-3   -2.979948325335228E-2   -7.156332249531426E-3   -2.975295390999423E-2    4.969122495818342E-1   -1.554197933131840E-1
 6.528862303825000E9     5.588291853294384E-1   -5.258953828516259E-2   -6.742731700458251E-3   -2.994156078323569E-2   -7.306826158105478E-3   -2.986273451645528E-2    4.965903010574714E-1   -1.562691842386441E-1
 6.528873289250000E9     5.587133540151139E-1   -5.351775007145689E-2   -6.872858500609409E-3   -2.995216116213901E-2   -7.417059408494455E-3   -3.007608242501946E-2    4.962614728406637E-1   -1.572474448533759E-1
 6.528884274675000E9     5.586401357770487E-1   -5.446092156016283E-2   -6.921691239709774E-3   -3.022310475095096E-2   -7.520666883349398E-3   -3.015559611803920E-2    4.959422150716226E-1   -1.583292280894411E-1
 6.528895260100000E9     5.586377424270298E-1   -5.534767029827961E-2   -7.183050093527325E-3   -3.048805904634571E-2   -7.684163599991170E-3   -3.029331930157926E-2    4.955927162467031E-1   -1.590844158928454E-1
 6.528906245525000E9     5.584324769485034E-1   -5.619956960602353E-2   -7.207316375528577E-3   -3.063561310648293E-2   -7.764057173075089E-3   -3.043162899228734E-2    4.952466577539041E-1   -1.600632199875145E-1
 6.528917230950000E9     5.583189350818762E-1   -5.703128476747055E-2   -7.235829236550827E-3   -3.072751642144021E-2   -7.833066581492049E-3   -3.059804142171711E-2    4.950250349557295E-1   -1.610179622910894E-1
 6.528928216375000E9     5.582609496416050E-1   -5.796175915414386E-2   -7.396589483883119E-3   -3.087025871032384E-2   -7.839140366430167E-3   -3.075093622384028E-2    4.945780421237284E-1   -1.618394968471536E-1
 6.528939201800000E9     5.581453693962469E-1   -5.876013873291291E-2   -7.361083517624639E-3   -3.103558584461692E-2   -8.017415195615891E-3   -3.078662231854595E-2    4.941985154160044E-1   -1.628936721986709E-1
 6.528950187225000E9     5.580943001127419E-1   -5.973359338188240E-2   -7.551225145851474E-3   -3.101420915341353E-2   -8.171838064775302E-3   -3.105161698418330E-2    4.939619161939133E-1   -1.638786862057932E-1
 6.528961172650000E9     5.579795541917894E-1   -6.061075631604279E-2   -7.661580715667485E-3   -3.123742071560985E-2   -8.294967657918199E-3   -3.116828269700618E-2    4.934903015526127E-1   -1.648553810482831E-1
 6.528972158075000E9     5.579322131020823E-1   -6.149845727424347E-2   -7.661580633064070E-3   -3.147843246329941E-2   -8.396890465266727E-3   -3.138129097096130E-2    4.930542268089460E-1   -1.655104665318094E-1
 6.528983143500000E9     5.577739702437602E-1   -6.238426041653134E-2   -7.680346832557130E-3   -3.160309239588579E-2   -8.467155809610657E-3   -3.146088624553812E-2    4.927214698951678E-1   -1.667621050561263E-1
 6.528994128925000E9     5.577030995352424E-1   -6.336744782615537E-2   -7.983747351744971E-3   -3.171509724477926E-2   -8.591726201876673E-3   -3.155616218381493E-2    4.924405016452413E-1   -1.675462074881595E-1
 6.529005114350000E9     5.575279698272231E-1   -6.424226328180326E-2   -8.073761860626985E-3   -3.196003045104320E-2   -8.646657123279387E-3   -3.186174604051911E-2    4.921953943007490E-1   -1.687285866398413E-1
 6.529016099775000E9     5.574694319965687E-1   -6.506877499014321E-2   -8.077130409625327E-3   -3.215177882840257E-2   -8.803727053511699E-3   -3.185466408305596E-2    4.917306946374319E-1   -1.696337074891077E-1
 6.529027085200000E9     5.573341697044095E-1   -6.592312966447718E-2   -8.205353958050240E-3   -3.223065151905457E-2   -8.939001704316668E-3   -3.202583844502447E-2    4.914147746965552E-1   -1.704934142539212E-1
 6.529038070625000E9     5.572564274247724E-1   -6.678957819703746E-2   -8.377968632727989E-3   -3.248606879607524E-2   -8.984052797719112E-3   -3.228349218080282E-2    4.910173407443408E-1   -1.715234252656262E-1
 6.529049056050000E9     5.571562829571820E-1   -6.761418024405087E-2   -8.456924622684174E-3   -3.254875483098907E-2   -9.209632887151389E-3   -3.237294341136512E-2    4.905337067018185E-1   -1.724746622099056E-1
 6.529060041475000E9     5.569443107794249E-1   -6.863193102155972E-2   -8.614329193225231E-3   -3.269610247731979E-2   -9.333043182906019E-3   -3.258687159660417E-2    4.902263717015858E-1   -1.733948580262102E-1
 6.529071026900000E9     5.568498910942211E-1   -6.950406196192210E-2   -8.680176565614388E-3   -3.300635920623454E-2   -9.429481172934557E-3   -3.280271457814860E-2    4.899082913172083E-1   -1.741921999907350E-1
 6.529082012325000E9     5.567449603517159E-1   -7.042254570119816E-2   -8.795910394979850E-3   -3.289383766711558E-2   -9.406023830250276E-3   -3.287356942503956E-2    4.894287797570057E-1   -1.752852266803898E-1
 6.529092997750000E9     5.565545079549929E-1   -7.139470419607315E-2   -9.026747538442327E-3   -3.312274739836329E-2   -9.593240803164364E-3   -3.305715107352299E-2    4.890193653159036E-1   -1.762904706616324E-1
 6.529103983175000E9     5.564456739986150E-1   -7.215153005821737E-2   -9.072597529685356E-3   -3.336980969919424E-2   -9.793041564119745E-3   -3.333636047029981E-2    4.885922007169404E-1   -1.776012207477606E-1
 6.529114968600000E9     5.564107317938265E-1   -7.321998236989298E-2   -9.090043970340274E-3   -3.359211822692655E-2   -9.873387315319618E-3   -3.349653034390048E-2    4.880622693305022E-1   -1.783075201665604E-1
 6.529125954025000E9     5.562452603373285E-1   -7.384931776361293E-2   -9.288968220247995E-3   -3.366313205334409E-2   -9.940777813300964E-3   -3.351596635168037E-2    4.878888940698262E-1   -1.795046525591374E-1
 6.529136939450000E9     5.561954579756366E-1   -7.484936124078828E-2   -9.497124914214759E-3   -3.392403552118047E-2   -1.013822080941408E-2   -3.379158232780653E-2    4.873225422525770E-1   -1.803947581930931E-1
 6.529147924875000E9     5.559225746205718E-1   -7.587421977877400E-2   -9.488649013622853E-3   -3.418092255702057E-2   -1.025790009883377E-2   -3.400476847280132E-2    4.870006594771896E-1   -1.812677290348110E-1
 6.529158910300000E9     5.557681990213275E-1   -7.672195551811808E-2   -9.748900014181810E-3   -3.429458335036108E-2   -1.035348759936338E-2   -3.417431686936887E-2    4.865827991198116E-1   -1.822750957791173E-1
 6.529169895725000E9     5.556278901614925E-1   -7.750085113190142E-2   -9.826118753578472E-3   -3.451450227916112E-2   -1.043873448477367E-2   -3.436717401017026E-2    4.861841171404075E-1   -1.833731506336306E-1
 6.529180881150000E9     5.556871295624850E-1   -7.845668679011659E-2   -9.947410221250537E-3   -3.459437903334316E-2   -1.055979867846220E-2   -3.448820170582782E-2    4.855714146352377E-1   -1.842607299527011E-1
 6.529191866575000E9     5.555371036269002E-1   -7.936407017403363E-2   -1.006998989282523E-2   -3.481563918778678E-2   -1.081956737605621E-2   -3.461326915480911E-2    4.851592174596277E-1   -1.853202148420887E-1
 6.529202852000000E9     5.552130394141819E-1   -8.023481767547269E-2   -1.034907640373804E-2   -3.505575859937739E-2   -1.087149423396289E-2   -3.490091589335203E-2    4.848197989441164E-1   -1.862471562676456E-1
 6.529213837425000E9     5.551131554843487E-1   -8.126145666897400E-2   -1.040077753716765E-2   -3.532255099563510E-2   -1.104432406931797E-2   -3.502177280057726E-2    4.843569582742884E-1   -1.873101371519384E-1
 6.529224822850000E9     5.547838854860844E-1   -8.210522100429223E-2   -1.050410790569881E-2   -3.540112804892688E-2   -1.125436446119394E-2   -3.525732789201730E-2    4.839524111923034E-1   -1.884798188372216E-1
 6.529235808275000E9     5.547690623591256E-1   -8.309779464148215E-2   -1.060064678213084E-2   -3.561221571664351E-2   -1.128258700587659E-2   -3.545771708447562E-2    4.835450580294164E-1   -1.893012339506255E-1
 6.529246793700000E9     5.545947593282294E-1   -8.396495883291559E-2   -1.088259146363217E-2   -3.578597894663640E-2   -1.155037376460255E-2   -3.562468980658664E-2    4.830503799574675E-1   -1.905664020283561E-1
 6.529257779125000E9     5.544599198909087E-1   -8.484551328652569E-2   -1.073263530268340E-2   -3.596221841868370E-2   -1.167159810762715E-2   -3.587747177340323E-2    4.825754100129553E-1   -1.914204650968541E-1
 6.529268764550000E9     5.543856307801954E-1   -8.583944758696480E-2   -1.103097837415954E-2   -3.624624533562795E-2   -1.177615682623172E-2   -3.592015972940049E-2    4.820340767075393E-1   -1.925172095350426E-1
 6.529279749975000E9     5.541629950136906E-1   -8.661685055806080E-2   -1.115729160341557E-2   -3.638738073912973E-2   -1.194676017981478E-2   -3.618956486659354E-2    4.815084204360582E-1   -1.934381418294940E-1
 6.529290735400000E9     5.539728908045728E-1   -8.758360287721159E-2   -1.131236421672709E-2   -3.664912914451479E-2   -1.209687230436109E-2   -3.640901134542243E-2    4.812112832620350E-1   -1.945950621608745E-1
 6.529301720825000E9     5.538171708116592E-1   -8.852369704229247E-2   -1.161423021981107E-2   -3.676162141797677E-2   -1.232193634150608E-2   -3.664107309832117E-2    4.806865389481278E-1   -1.955810805973660E-1
 6.529312706250000E9     5.536230622495135E-1   -8.942160905626410E-2   -1.157951792499496E-2   -3.693345995320806E-2   -1.242838012976789E-2   -3.680824435308763E-2    4.802133608500167E-1   -1.966290701464134E-1
 6.529323691675000E9     5.535951854526953E-1   -9.026372110501131E-2   -1.194148161566255E-2   -3.719764054205285E-2   -1.260247179503679E-2   -3.712880454216351E-2    4.797562204674037E-1   -1.978071187151739E-1
 6.529334677100000E9     5.533502671739312E-1   -9.127852025955037E-2   -1.193083585058071E-2   -3.750509270053110E-2   -1.279625796163357E-2   -3.730589600770221E-2    4.791455788152673E-1   -1.986086126540059E-1
 6.529345662525000E9     5.530477171449709E-1   -9.218366193772692E-2   -1.213266909937914E-2   -3.755866258499895E-2   -1.295609344297340E-2   -3.747504434905415E-2    4.785930768844629E-1   -1.998167848210682E-1
 6.529356647950000E9     5.530285108414112E-1   -9.313128269542711E-2   -1.227525256594967E-2   -3.787351666981895E-2   -1.314031649590154E-2   -3.768617446931184E-2    4.779966307300005E-1   -2.008082939120340E-1
 6.529367633375000E9     5.527321793872348E-1   -9.403029501283527E-2   -1.247811503840689E-2   -3.821328834833636E-2   -1.325284554938894E-2   -3.793431730336381E-2    4.777189523735193E-1   -2.019351775761675E-1
 6.529378618800000E9     5.525870609110558E-1   -9.487958473235072E-2   -1.268888377070139E-2   -3.834171368601733E-2   -1.345979743860958E-2   -3.811085733897034E-2    4.770821900241727E-1   -2.029221261907750E-1
 6.529389604225000E9     5.523944644004398E-1   -9.591304996116091E-2   -1.279074111041741E-2   -3.849882016508524E-2   -1.361850080408050E-2   -3.842727324631536E-2    4.765923821832999E-1   -2.040551561390984E-1
 6.529400589650000E9     5.523574650166641E-1   -9.685138346690697E-2   -1.300852561214358E-2   -3.878509349794045E-2   -1.385110228811276E-2   -3.855971359330839E-2    4.759682203843765E-1   -2.050283157024979E-1
 6.529411575075000E9     5.520824966889756E-1   -9.774287120292244E-2   -1.317145906847955E-2   -3.915767034868598E-2   -1.397755548982020E-2   -3.882796392871355E-2    4.754964549337301E-1   -2.062007160186834E-1
 6.529422560500000E9     5.519328235462777E-1   -9.868640971718742E-2   -1.333666847117790E-2   -3.935462613655769E-2   -1.416894486911409E-2   -3.908953385321762E-2    4.749176959776822E-1   -2.072955529598456E-1
 6.529433545925000E9     5.516025154976959E-1   -9.958653266937971E-2   -1.338113863755287E-2   -3.947476660007903E-2   -1.443136001433897E-2   -3.931655606220509E-2    4.743060731645576E-1   -2.083225130628241E-1
 6.529444531350000E9     5.514071956695983E-1   -1.006053429383552E-1   -1.374734564431900E-2   -3.975701375227998E-2   -1.460093592554352E-2   -3.946817775097718E-2    4.737247274752071E-1   -2.095073853320778E-1
 6.529455516775000E9     5.513879089736995E-1   -1.014701432043563E-1   -1.397713962958106E-2   -4.004475905345287E-2   -1.484295141573394E-2   -3.986441933231864E-2    4.732473625452416E-1   -2.105244314691432E-1
 6.529466502200000E9     5.510682524028424E-1   -1.024669023061031E-1   -1.416113594529835E-2   -4.022885215511827E-2   -1.498951252987027E-2   -4.000264188596817E-2    4.727344922090071E-1   -2.114420668849633E-1
 6.529477487625000E9     5.508700171106747E-1   -1.034798293098216E-1   -1.420404648484744E-2   -4.061357352214092E-2   -1.518303031465009E-2   -4.030179075081696E-2    4.719781543760996E-1   -2.127366660251318E-1
 6.529488473050000E9     5.505500571462048E-1   -1.043323346463127E-1   -1.444487403320715E-2   -4.070180598589786E-2   -1.544260745252808E-2   -4.049047108522169E-2    4.714871216873489E-1   -2.137663854673388E-1
 6.529499458475000E9     5.503722468667910E-1   -1.052761298585765E-1   -1.470874624803401E-2   -4.100301995444608E-2   -1.556668505992868E-2   -4.072612727378833E-2    4.710544893308921E-1   -2.149329213554912E-1
 6.529510443900000E9     5.502878259365139E-1   -1.062684511229241E-1   -1.501050983170804E-2   -4.137924719306287E-2   -1.592978769857967E-2   -4.111827782266751E-2    4.702386899355802E-1   -2.162633597419664E-1
 6.529521429325000E9     5.501109502361426E-1   -1.071678652828984E-1   -1.512983561099506E-2   -4.154076715070287E-2   -1.605846084316201E-2   -4.134172441585859E-2    4.693779254655389E-1   -2.171136435355620E-1
 6.529532414750000E9     5.497736565920825E-1   -1.081663415906159E-1   -1.529724505282846E-2   -4.182337956819423E-2   -1.629182825932613E-2   -4.148423878348875E-2    4.690440681305176E-1   -2.183681718837830E-1
 6.529543400175000E9     5.495684630170480E-1   -1.089939095248011E-1   -1.548828721540548E-2   -4.212928709438850E-2   -1.658625559998379E-2   -4.182747111564920E-2    4.683915801894475E-1   -2.195749897183351E-1
 6.529554385600000E9     5.493221733796015E-1   -1.099397871506195E-1   -1.574767234314238E-2   -4.229254493211143E-2   -1.671801499922909E-2   -4.214788758061160E-2    4.677634970316276E-1   -2.206923975149071E-1
 6.529565371025000E9     5.491250837297044E-1   -1.109137478235382E-1   -1.607436556195264E-2   -4.269466960960872E-2   -1.705901141515705E-2   -4.232563688853437E-2    4.668342416983410E-1   -2.218452824791698E-1
 6.529576356450000E9     5.488456133128323E-1   -1.120426378956520E-1   -1.620320993498505E-2   -4.294781617890428E-2   -1.724166867806612E-2   -4.259580114787390E-2    4.661871225942442E-1   -2.230187046005505E-1
 6.529587341875000E9     5.485992177751685E-1   -1.128456274301100E-1   -1.653996155645780E-2   -4.326116180783984E-2   -1.743978684147484E-2   -4.292809914119074E-2    4.655376069860203E-1   -2.241522637504545E-1
 6.529598327300000E9     5.483783293689160E-1   -1.139710791856945E-1   -1.661043081736558E-2   -4.357003201521026E-2   -1.769481393054179E-2   -4.322245115301348E-2    4.648417333297391E-1   -2.252027565304790E-1
 6.529609312725000E9     5.481444389823411E-1   -1.148878582073664E-1   -1.697711315019430E-2   -4.388188986339128E-2   -1.795620900484815E-2   -4.345200917880428E-2    4.641874022976163E-1   -2.264452864383164E-1
 6.529620298150000E9     5.479285400422458E-1   -1.159655445490470E-1   -1.726011347073410E-2   -4.408733684530914E-2   -1.823855119989480E-2   -4.379974361952616E-2    4.635214392384133E-1   -2.276294043344170E-1
 6.529631283575000E9     5.476530309511682E-1   -1.169456867092672E-1   -1.750404953534052E-2   -4.438719968830332E-2   -1.850973674502467E-2   -4.403774915330816E-2    4.629516921450267E-1   -2.288521283730865E-1
 6.529642269000000E9     5.473099932743725E-1   -1.177976335655863E-1   -1.777981908693008E-2   -4.482230419655966E-2   -1.878007462910541E-2   -4.441883639761015E-2    4.620961056769965E-1   -2.300388138361319E-1
 6.529653254425000E9     5.470195958479481E-1   -1.187943774834228E-1   -1.794168718523656E-2   -4.507209450969970E-2   -1.889211091269170E-2   -4.473574223796082E-2    4.614019305908107E-1   -2.312466311383907E-1
 6.529664239850000E9     5.468698105837729E-1   -1.199151526077098E-1   -1.823257882206907E-2   -4.535290978215285E-2   -1.939472676218607E-2   -4.504263458885984E-2    4.607867739985035E-1   -2.324353317836153E-1
 6.529675225275000E9     5.465940921264457E-1   -1.207202581846293E-1   -1.839819539102651E-2   -4.573006244560821E-2   -1.962294672029667E-2   -4.537251659957574E-2    4.599617200137212E-1   -2.336627241229642E-1
 6.529686210700000E9     5.462996039307302E-1   -1.217132598676374E-1   -1.892460590349481E-2   -4.615135580563429E-2   -1.991310383958557E-2   -4.565476161160189E-2    4.591775442452706E-1   -2.347858532989132E-1
 6.529697196125000E9     5.459721902770858E-1   -1.226945047860719E-1   -1.920540648097133E-2   -4.636245754287727E-2   -2.013911776708396E-2   -4.596242131498670E-2    4.583466617332929E-1   -2.360467870259657E-1
 6.529708181550000E9     5.456666123252515E-1   -1.237381571665289E-1   -1.942319493177274E-2   -4.671440010407522E-2   -2.046017169538179E-2   -4.629420704538256E-2    4.576087536311028E-1   -2.371408979420868E-1
 6.529719166975000E9     5.454064631856067E-1   -1.247564512568236E-1   -1.971698509273181E-2   -4.706533414693621E-2   -2.078971199574201E-2   -4.659656388824859E-2    4.567299529189814E-1   -2.385504027708806E-1
 6.529730152400000E9     5.450595086609219E-1   -1.256720879594662E-1   -1.994524220873108E-2   -4.739721949357526E-2   -2.112115084971287E-2   -4.696538376111786E-2    4.560491243940538E-1   -2.398490912589136E-1
 6.529741137825000E9     5.447909865323108E-1   -1.267177766897568E-1   -2.025529772533726E-2   -4.776357578731857E-2   -2.146770000157302E-2   -4.727820176990403E-2    4.552917132058967E-1   -2.410183538552128E-1
 6.529752123250000E9     5.444526897778705E-1   -1.277340308480680E-1   -2.058799257672657E-2   -4.800841342110335E-2   -2.173063784140036E-2   -4.775034368576009E-2    4.544127811631407E-1   -2.423110651595080E-1
