#  HZ   S   RI   R     50.00 
! Rohde & Schwarz Vector Network Analyzer 
! Rohde-Schwarz,ZNB20-2Port,1311601062101988,3.16
! Created: UTC 3/21/2024, 1:07:42 AM
! freq[Hz]                re:S11                  im:S11                  re:S21                  im:S21                  re:S12                  im:S12                  re:S22                  im:S22
 6.528806975000000E9     5.592876453984127E-1   -4.774029160396313E-2   -6.106189128015211E-3   -2.893926144712546E-2   -6.787928148442314E-3   -2.896029076363849E-2    4.984280520298057E-1   -1.505523393609115E-1
 6.528817866450000E9     5.590888882437219E-1   -4.844237770760499E-2   -6.273329140747745E-3   -2.923636957619940E-2   -6.772348310623700E-3   -2.907930889661152E-2    4.980735284420714E-1   -1.514666834323050E-1
 6.528828757900000E9     5.591030760482651E-1   -4.937528757525431E-2   -6.250560826104415E-3   -2.926345990346904E-2   -6.940953640908845E-3   -2.916041346548936E-2    4.978978756833454E-1   -1.523369786291781E-1
 6.528839649350000E9     5.589930614702388E-1   -5.031052930199143E-2   -6.377883456468183E-3   -2.934389801983733E-2   -6.973900638222320E-3   -2.923219084622523E-2    4.976483067287481E-1   -1.533307289486306E-1
 6.528850540800000E9     5.590157893777545E-1   -5.118345798017720E-2   -6.455349632596193E-3   -2.960799351316777E-2   -7.074642151333668E-3   -2.945878717837014E-2    4.970917916410738E-1   -1.542906349252192E-1
 6.528861432250000E9     5.588441843937050E-1   -5.203824840498485E-2   -6.652074809890632E-3   -2.958346306723889E-2   -7.070643688275258E-3   -2.945602027960585E-2    4.969185795482224E-1   -1.551545791695530E-1
 6.528872323700000E9     5.587638009112370E-1   -5.292060735043990E-2   -6.635708543366606E-3   -2.985939082353233E-2   -7.216999613162067E-3   -2.963067237060607E-2    4.964794766009066E-1   -1.561341597925618E-1
 6.528883215150000E9     5.587237065065763E-1   -5.372941708092777E-2   -6.754835238317707E-3   -2.991986466260471E-2   -7.297449816057872E-3   -2.971689813652235E-2    4.962409903062983E-1   -1.571730892363724E-1
 6.528894106600000E9     5.585020252095833E-1   -5.460742403972185E-2   -6.890494694628782E-3   -3.008443785810169E-2   -7.479264347086285E-3   -3.001617284827522E-2    4.958184480500354E-1   -1.580167886643022E-1
 6.528904998050000E9     5.584315746418296E-1   -5.548226628216542E-2   -6.986087332058203E-3   -3.026446704103989E-2   -7.658571937576734E-3   -3.003249622102667E-2    4.956003801947709E-1   -1.588322263927387E-1
 6.528915889500000E9     5.583673592183954E-1   -5.632877795187469E-2   -7.099595600430744E-3   -3.042459714285546E-2   -7.591143409639797E-3   -3.021986214563004E-2    4.951902191257124E-1   -1.598743150362410E-1
 6.528926780950000E9     5.583145948578153E-1   -5.728024723156953E-2   -7.137837229477344E-3   -3.041679250377229E-2   -7.747122889931162E-3   -3.045359168748296E-2    4.950311052026455E-1   -1.607671635622520E-1
 6.528937672400000E9     5.582625473225862E-1   -5.810860108460839E-2   -7.272828873693243E-3   -3.063615283870068E-2   -7.794234559973168E-3   -3.043623735276346E-2    4.945301400794057E-1   -1.617005725925101E-1
 6.528948563850000E9     5.580724506153659E-1   -5.902954372213472E-2   -7.301236867058250E-3   -3.083165682688742E-2   -7.931294168946255E-3   -3.071211436057652E-2    4.943304944571294E-1   -1.625694305254782E-1
 6.528959455300000E9     5.579809083689193E-1   -5.986832780986902E-2   -7.396170355242584E-3   -3.086212030318693E-2   -7.993643436087329E-3   -3.082391731159849E-2    4.939189016945804E-1   -1.635785033727547E-1
 6.528970346750000E9     5.579212116263937E-1   -6.074585145800439E-2   -7.466300310886176E-3   -3.092581134138471E-2   -8.077776421970868E-3   -3.100544477227215E-2    4.935566140688321E-1   -1.644909485032998E-1
 6.528981238200000E9     5.578447879831973E-1   -6.160385030029829E-2   -7.746808152404790E-3   -3.119802999773055E-2   -8.231633586128452E-3   -3.105255069659549E-2    4.932361465208138E-1   -1.654949100091607E-1
 6.528992129650000E9     5.577456568903265E-1   -6.250712121936140E-2   -7.793074032899540E-3   -3.126805164682914E-2   -8.352993906855679E-3   -3.126246249180164E-2    4.928996910986915E-1   -1.665783036677543E-1
 6.529003021100000E9     5.575806416030554E-1   -6.334169833410253E-2   -7.824448446929677E-3   -3.151146013532394E-2   -8.365409678645548E-3   -3.140430660062993E-2    4.924330439688735E-1   -1.671959361944828E-1
 6.529013912550000E9     5.575259541607929E-1   -6.422294353471650E-2   -8.094984648766712E-3   -3.161764549467710E-2   -8.516793056296124E-3   -3.151950410140100E-2    4.921232823327935E-1   -1.682790738400730E-1
 6.529024804000000E9     5.574098671678739E-1   -6.513635722926671E-2   -7.938143204362593E-3   -3.181714043519172E-2   -8.614983093249349E-3   -3.176731819108788E-2    4.917895711633926E-1   -1.691915599421040E-1
 6.529035695450000E9     5.573092837710261E-1   -6.598495911424233E-2   -8.039012427561772E-3   -3.195322129984902E-2   -8.706960852573739E-3   -3.195926170879835E-2    4.913474579710435E-1   -1.702206427074864E-1
 6.529046586900000E9     5.571036108667975E-1   -6.688772971311674E-2   -8.290530216233881E-3   -3.224574345190460E-2   -8.881854862350110E-3   -3.212098862377766E-2    4.910058216779576E-1   -1.710526618142375E-1
 6.529057478350000E9     5.571773482720821E-1   -6.773428917611775E-2   -8.293599378200879E-3   -3.235336470655185E-2   -9.083177726409238E-3   -3.223151494729231E-2    4.907022380088989E-1   -1.720932300870335E-1
 6.529068369800000E9     5.569658621394687E-1   -6.861493377997800E-2   -8.395425786025038E-3   -3.245081859529233E-2   -9.030081260716711E-3   -3.233396502316228E-2    4.902901210523192E-1   -1.729229125554253E-1
 6.529079261250000E9     5.567799713097573E-1   -6.951291795663789E-2   -8.476989006932981E-3   -3.255950696390506E-2   -9.186607635831059E-3   -3.251848162159147E-2    4.899428728868805E-1   -1.740208820252088E-1
 6.529090152700000E9     5.566288822519909E-1   -7.034772356409455E-2   -8.732810502655100E-3   -3.277604115677799E-2   -9.388518537459084E-3   -3.266783662579409E-2    4.895066965581288E-1   -1.750547924078789E-1
 6.529101044150000E9     5.566177948409790E-1   -7.116669500882626E-2   -8.795771218816657E-3   -3.289464880438714E-2   -9.449138834295713E-3   -3.278433591236891E-2    4.891106511255225E-1   -1.759503923693398E-1
 6.529111935600000E9     5.564611281237439E-1   -7.205407300470569E-2   -8.903053158460966E-3   -3.287699228560137E-2   -9.578272483257074E-3   -3.293272190419304E-2    4.887582832758448E-1   -1.769134753894571E-1
 6.529122827050000E9     5.563565357550120E-1   -7.308845737452295E-2   -8.941465543191640E-3   -3.330142747438201E-2   -9.654280123580807E-3   -3.318106589354317E-2    4.884892478643280E-1   -1.779633131178806E-1
 6.529133718500000E9     5.562169450483085E-1   -7.392975914723662E-2   -9.177809635864776E-3   -3.342823418696702E-2   -9.813874446111774E-3   -3.330640371042399E-2    4.879722726800311E-1   -1.788909890008100E-1
 6.529144609950000E9     5.561059082124928E-1   -7.479527162366621E-2   -9.399310253682139E-3   -3.362328187736086E-2   -9.909548910701026E-3   -3.342817262804981E-2    4.874866677313936E-1   -1.798132173234028E-1
 6.529155501400000E9     5.559764885883860E-1   -7.576272159902896E-2   -9.301948112778749E-3   -3.368771477253925E-2   -1.007759201464178E-2   -3.368990780073264E-2    4.870918527756931E-1   -1.808679537344076E-1
 6.529166392850000E9     5.556503131664159E-1   -7.654644222290082E-2   -9.389922298133084E-3   -3.391102611132607E-2   -1.019092458270374E-2   -3.379330301156432E-2    4.866603801397760E-1   -1.817490136275267E-1
 6.529177284300000E9     5.556997760983577E-1   -7.753740909789734E-2   -9.577640440622454E-3   -3.404647233379540E-2   -1.030694931375652E-2   -3.401312809436871E-2    4.863587319883468E-1   -1.828911041094377E-1
 6.529188175750000E9     5.556249073845043E-1   -7.836254693237819E-2   -9.722233401597438E-3   -3.419434645702758E-2   -1.040955558542035E-2   -3.423447008119151E-2    4.859939318203826E-1   -1.837676825063215E-1
 6.529199067200000E9     5.555127511607175E-1   -7.931778575710567E-2   -1.002335369388146E-2   -3.456769382304892E-2   -1.062482313003747E-2   -3.450870443553015E-2    4.854461084033918E-1   -1.848592604494893E-1
 6.529209958650000E9     5.553647059443318E-1   -8.016345847435545E-2   -9.916136592205822E-3   -3.469274143589370E-2   -1.074702919631838E-2   -3.442250893201629E-2    4.849182805105805E-1   -1.858071719610382E-1
 6.529220850100000E9     5.549990994741181E-1   -8.109333080141272E-2   -1.018438570045642E-2   -3.486415446318788E-2   -1.095646503605375E-2   -3.474122383690414E-2    4.844748403915617E-1   -1.868629078962985E-1
 6.529231741550000E9     5.550290102166884E-1   -8.186780967681334E-2   -1.026295159791957E-2   -3.508073576701663E-2   -1.091238909071537E-2   -3.492655048753227E-2    4.841348366510790E-1   -1.877474429842393E-1
 6.529242633000000E9     5.548975201786940E-1   -8.284014742539884E-2   -1.037865638863556E-2   -3.537694894991272E-2   -1.114010372678144E-2   -3.511541586594221E-2    4.837157745524851E-1   -1.888168693066687E-1
 6.529253524450000E9     5.546611891102642E-1   -8.371733448733433E-2   -1.070842054504256E-2   -3.528879605715077E-2   -1.118751954059640E-2   -3.529349541317168E-2    4.831507475855878E-1   -1.898581787892468E-1
 6.529264415900000E9     5.543779733478379E-1   -8.460093959706010E-2   -1.063731009205671E-2   -3.560277771098590E-2   -1.145024523472693E-2   -3.541898058089912E-2    4.828048942583900E-1   -1.907173165891645E-1
 6.529275307350000E9     5.544346419124018E-1   -8.556857959140314E-2   -1.075797400409398E-2   -3.589161733000668E-2   -1.160136421383636E-2   -3.570740097807514E-2    4.821935396881981E-1   -1.919524032701522E-1
 6.529286198800000E9     5.541469117545273E-1   -8.643667181480286E-2   -1.101943663520967E-2   -3.585885771592187E-2   -1.179897887380864E-2   -3.586988345171613E-2    4.817784742280409E-1   -1.928791934053831E-1
 6.529297090250000E9     5.540504473549752E-1   -8.737763963694667E-2   -1.114526101087937E-2   -3.636707965592590E-2   -1.187822453148331E-2   -3.599325866203384E-2    4.813563600364403E-1   -1.938622240232480E-1
 6.529307981700000E9     5.538743752794058E-1   -8.834584911143807E-2   -1.129641417344108E-2   -3.652118695655527E-2   -1.206383586231653E-2   -3.627614446138739E-2    4.809839785150893E-1   -1.948398122928744E-1
 6.529318873150000E9     5.537080937948881E-1   -8.916810128195789E-2   -1.147190921420631E-2   -3.660894166657234E-2   -1.223871715645355E-2   -3.655155555211089E-2    4.804835119113529E-1   -1.959399740947306E-1
 6.529329764600000E9     5.534745428323574E-1   -9.011407640312291E-2   -1.154102438527133E-2   -3.689969493948060E-2   -1.237567052584234E-2   -3.666719618644119E-2    4.800098116890636E-1   -1.967813974130355E-1
 6.529340656050000E9     5.532629372636537E-1   -9.100187265499204E-2   -1.183917190375278E-2   -3.703497407224467E-2   -1.260722224456541E-2   -3.684943723970987E-2    4.793848321869542E-1   -1.980734400650481E-1
 6.529351547500000E9     5.531670067776623E-1   -9.211541523696777E-2   -1.198243248017678E-2   -3.725153201211268E-2   -1.272521729452216E-2   -3.717844223911975E-2    4.790451007110528E-1   -1.990990014117411E-1
 6.529362438950000E9     5.530460436513488E-1   -9.271743113551938E-2   -1.202587714579866E-2   -3.757236840192921E-2   -1.292264447698734E-2   -3.735257242322030E-2    4.785022888506097E-1   -2.001976004873363E-1
 6.529373330400000E9     5.528343801299708E-1   -9.374994677146152E-2   -1.220843694661622E-2   -3.777157911372751E-2   -1.306438030206448E-2   -3.754369958585491E-2    4.779949518282041E-1   -2.011228444509996E-1
 6.529384221850000E9     5.526284199522329E-1   -9.469995396245563E-2   -1.243801409475739E-2   -3.794533704116453E-2   -1.319967160003308E-2   -3.778587243543934E-2    4.774096636651046E-1   -2.022828232279818E-1
 6.529395113300000E9     5.523911460234968E-1   -9.566501821678126E-2   -1.242116286306519E-2   -3.827706504742291E-2   -1.335030745720556E-2   -3.794462944427827E-2    4.768282566602686E-1   -2.033223758928785E-1
 6.529406004750000E9     5.523166558652365E-1   -9.652503578445784E-2   -1.277000868222823E-2   -3.843837268985684E-2   -1.361430383761076E-2   -3.815608402588948E-2    4.763918372384944E-1   -2.043953442994026E-1
 6.529416896200000E9     5.521046721684031E-1   -9.747623587834410E-2   -1.285517157348101E-2   -3.857637556367898E-2   -1.375465741970132E-2   -3.842262007509493E-2    4.758768061264702E-1   -2.052671108424688E-1
 6.529427787650000E9     5.519101771001204E-1   -9.828878543404228E-2   -1.302024163790805E-2   -3.885483908383711E-2   -1.392756550293945E-2   -3.861744529680875E-2    4.753367159387161E-1   -2.063836379741128E-1
 6.529438679100000E9     5.516139383598138E-1   -9.925277022384985E-2   -1.322276002328190E-2   -3.906126719888364E-2   -1.405497471374580E-2   -3.881078277429496E-2    4.748933464345793E-1   -2.076166111217122E-1
 6.529449570550000E9     5.515748481030405E-1   -1.002243469038337E-1   -1.351084933420428E-2   -3.928742446273371E-2   -1.424695645138372E-2   -3.918932943061177E-2    4.742576686508029E-1   -2.085295138501383E-1
 6.529460462000000E9     5.513893552531118E-1   -1.011425928987764E-1   -1.376085063355787E-2   -3.943035811931767E-2   -1.444411295164678E-2   -3.928752187445686E-2    4.736305077732593E-1   -2.095995473944395E-1
 6.529471353450000E9     5.511827609493023E-1   -1.020960115312883E-1   -1.385659684167747E-2   -3.979686477375407E-2   -1.475808318066329E-2   -3.954499794330589E-2    4.731285818752466E-1   -2.107724369991965E-1
 6.529482244900000E9     5.509444005563258E-1   -1.029440642178100E-1   -1.404275466446592E-2   -3.993928770314963E-2   -1.487555192017154E-2   -3.978031624547312E-2    4.724032427108174E-1   -2.119336340627124E-1
 6.529493136350000E9     5.506554042091573E-1   -1.038013348457334E-1   -1.415042136718664E-2   -4.025623908355788E-2   -1.507224988375334E-2   -3.998696369808823E-2    4.719106644100947E-1   -2.127925000941047E-1
 6.529504027800000E9     5.504951053361941E-1   -1.048717707511270E-1   -1.431633192083247E-2   -4.046388903479588E-2   -1.527282017876220E-2   -4.034254866770535E-2    4.713496921058973E-1   -2.141212173655496E-1
 6.529514919250000E9     5.503694692522457E-1   -1.058247616871698E-1   -1.458466055151507E-2   -4.080731053471648E-2   -1.544308353020553E-2   -4.055687522666667E-2    4.708488247957115E-1   -2.151676165756824E-1
 6.529525810700000E9     5.500821753005399E-1   -1.067431141494126E-1   -1.481591907077162E-2   -4.097658963066469E-2   -1.567574153504951E-2   -4.078958087658111E-2    4.701224574628533E-1   -2.162130979845743E-1
 6.529536702150000E9     5.499030517806101E-1   -1.076826802415356E-1   -1.500353923835577E-2   -4.139194278474492E-2   -1.599876372907710E-2   -4.112571105946667E-2    4.696914690047793E-1   -2.173615317228795E-1
 6.529547593600000E9     5.496158743355047E-1   -1.086419134312605E-1   -1.521187243040478E-2   -4.160885055705946E-2   -1.603301033661958E-2   -4.125665983717351E-2    4.689069524656935E-1   -2.182875815996850E-1
 6.529558485050000E9     5.494254979456590E-1   -1.095912267495282E-1   -1.543486636375269E-2   -4.197532982286585E-2   -1.629747588919760E-2   -4.161582312020888E-2    4.682105799090477E-1   -2.195550893093632E-1
 6.529569376500000E9     5.492102047050840E-1   -1.104446337136092E-1   -1.566382716525203E-2   -4.221648509648079E-2   -1.663605351750021E-2   -4.187789656910209E-2    4.674968421433668E-1   -2.206883983389634E-1
 6.529580267950000E9     5.489260299955427E-1   -1.114424438802027E-1   -1.578382654753163E-2   -4.229149740907125E-2   -1.678044512534333E-2   -4.205671417842370E-2    4.670172890859616E-1   -2.219532441934026E-1
 6.529591159400000E9     5.486739678724599E-1   -1.124806177807946E-1   -1.609498820983758E-2   -4.265147861891485E-2   -1.709563520511091E-2   -4.234327482354014E-2    4.663512329766958E-1   -2.226623791021260E-1
 6.529602050850000E9     5.484744770336027E-1   -1.133408913867029E-1   -1.626881209911959E-2   -4.297126258338562E-2   -1.732649585033718E-2   -4.267934709348140E-2    4.658598137185653E-1   -2.242191646611884E-1
 6.529612942300000E9     5.482845765071636E-1   -1.142505215942574E-1   -1.651960562298412E-2   -4.324403570592902E-2   -1.753660319656411E-2   -4.290889577611937E-2    4.650053776329799E-1   -2.252093259312568E-1
 6.529623833750000E9     5.480464860795257E-1   -1.153653533162072E-1   -1.681782190227400E-2   -4.365370873132703E-2   -1.776422203914743E-2   -4.329556522125856E-2    4.642245900249402E-1   -2.262659763933823E-1
 6.529634725200000E9     5.476855188307798E-1   -1.161717526490786E-1   -1.692577406831951E-2   -4.378728484582523E-2   -1.796443827085177E-2   -4.351921154350197E-2    4.635861707940125E-1   -2.277033165124744E-1
 6.529645616650000E9     5.475136386514582E-1   -1.172613658995574E-1   -1.739961350045609E-2   -4.406741456529689E-2   -1.826458612330351E-2   -4.381117016398893E-2    4.630781291569811E-1   -2.289026895878276E-1
 6.529656508100000E9     5.473086366968145E-1   -1.181914506967610E-1   -1.755204285035747E-2   -4.454388455372835E-2   -1.849122056819032E-2   -4.410102660781457E-2    4.623846030838372E-1   -2.300030822369702E-1
 6.529667399550000E9     5.470516067284754E-1   -1.190706669068630E-1   -1.798961331147882E-2   -4.475058325209969E-2   -1.874324692308458E-2   -4.445766942824011E-2    4.617665622535493E-1   -2.311200691913824E-1
 6.529678291000000E9     5.468094529107256E-1   -1.200734334000941E-1   -1.801268816954676E-2   -4.503622827908279E-2   -1.907905048991017E-2   -4.474655647075969E-2    4.608287738548427E-1   -2.323118444220311E-1
 6.529689182450000E9     5.463954791561082E-1   -1.210289287202890E-1   -1.833996373795201E-2   -4.539166356349446E-2   -1.929460998320316E-2   -4.513945190891230E-2    4.601417939531518E-1   -2.334401514970233E-1
 6.529700073900000E9     5.462020887155270E-1   -1.219689265635799E-1   -1.842109261080553E-2   -4.570731632306801E-2   -1.960460649666132E-2   -4.535586923414808E-2    4.594096427371738E-1   -2.346524212722252E-1
 6.529710965350000E9     5.459151813590083E-1   -1.230097631109759E-1   -1.891895398333652E-2   -4.596686696185781E-2   -1.989768018302922E-2   -4.559284668062936E-2    4.585357770649875E-1   -2.358784792412332E-1
 6.529721856800000E9     5.455236765245012E-1   -1.239135259343225E-1   -1.913858423654230E-2   -4.632361407492604E-2   -2.021557859408344E-2   -4.596755086945058E-2    4.577900184050170E-1   -2.370547997033510E-1
 6.529732748250000E9     5.452205620726855E-1   -1.250199651025482E-1   -1.954139955474108E-2   -4.673544202805104E-2   -2.061774375598312E-2   -4.623051638495065E-2    4.570027278928314E-1   -2.383426786124165E-1
 6.529743639700000E9     5.451126833741291E-1   -1.259247617976039E-1   -1.987644820093657E-2   -4.692617516282269E-2   -2.084773813396375E-2   -4.654359375713567E-2    4.561676449580093E-1   -2.395153355885353E-1
 6.529754531150000E9     5.448372686840806E-1   -1.270027386462931E-1   -2.014881060774118E-2   -4.726238740400646E-2   -2.111325876061734E-2   -4.697504226430620E-2    4.553881349533366E-1   -2.408060036833226E-1
 6.529765422600000E9     5.444677772849036E-1   -1.278940914753785E-1   -2.033429179592296E-2   -4.772209617046552E-2   -2.144272230764402E-2   -4.730245222420238E-2    4.546147086385313E-1   -2.420055965295785E-1
 6.529776314050000E9     5.441822315868807E-1   -1.290229584701555E-1   -2.080453968370342E-2   -4.806388236398169E-2   -2.185688055801282E-2   -4.766416074462404E-2    4.537743500049856E-1   -2.431726553187856E-1
 6.529787205500000E9     5.438564207422112E-1   -1.300282116939815E-1   -2.096054663288070E-2   -4.820295220114096E-2   -2.216549065189979E-2   -4.793912009860228E-2    4.529511259380308E-1   -2.444474806899212E-1
