#  HZ   S   RI   R     50.00 
! Rohde & Schwarz Vector Network Analyzer 
! Rohde-Schwarz,ZNB20-2Port,1311601062101988,3.16
! Created: UTC 3/21/2024, 1:08:04 AM
! freq[Hz]                re:S11                  im:S11                  re:S21                  im:S21                  re:S12                  im:S12                  re:S22                  im:S22
 6.528831952000000E9     5.590423079746524E-1   -4.932832905653618E-2   -6.209955007406664E-3   -2.913458687787042E-2   -6.835208698911442E-3   -2.901052558340703E-2    4.977006004559000E-1   -1.522384954452656E-1
 6.528842776900000E9     5.590455172535600E-1   -5.008266951397074E-2   -6.304023355771822E-3   -2.931199541127433E-2   -6.824992317734673E-3   -2.914210461249683E-2    4.975566720445856E-1   -1.531566384866765E-1
 6.528853601800000E9     5.588796549831416E-1   -5.090993989561137E-2   -6.389493394864710E-3   -2.949523345370083E-2   -6.973475661358937E-3   -2.921325657613427E-2    4.971874222694391E-1   -1.540393187852683E-1
 6.528864426700000E9     5.589316565268330E-1   -5.187088895660596E-2   -6.535552047026551E-3   -2.942855947946418E-2   -7.074542550036184E-3   -2.945706916937259E-2    4.971158178236471E-1   -1.549652791666150E-1
 6.528875251600000E9     5.588089459516061E-1   -5.272816742103620E-2   -6.462203446547466E-3   -2.951505891176655E-2   -7.120451562169355E-3   -2.947507780069456E-2    4.966239462499248E-1   -1.558830613917604E-1
 6.528886076500000E9     5.586804279122651E-1   -5.363565088529463E-2   -6.650606708176837E-3   -2.974936257485248E-2   -7.266659451046495E-3   -2.966750882881384E-2    4.962836124586980E-1   -1.568504737742422E-1
 6.528896901400000E9     5.586327274968933E-1   -5.435150378217378E-2   -6.764898185746876E-3   -2.992593606758048E-2   -7.466666843369772E-3   -2.983271184003328E-2    4.959703103197722E-1   -1.577358465264970E-1
 6.528907726300000E9     5.584716474081795E-1   -5.541739512752493E-2   -6.805781457669902E-3   -2.993287222572186E-2   -7.426563980737952E-3   -2.997162533846578E-2    4.957729264271667E-1   -1.587240241686783E-1
 6.528918551200000E9     5.584532481209191E-1   -5.610341813563458E-2   -6.942745060383774E-3   -3.019221530482600E-2   -7.677076364960321E-3   -2.997459194972137E-2    4.953439090927224E-1   -1.594943516183114E-1
 6.528929376100000E9     5.584004617198469E-1   -5.705210929067671E-2   -7.060181430310723E-3   -3.028887791499486E-2   -7.646882474052053E-3   -3.026181833408244E-2    4.948277073223915E-1   -1.603725473806978E-1
 6.528940201000000E9     5.581930839677881E-1   -5.797030925459989E-2   -7.193264780705957E-3   -3.057180197220072E-2   -7.866476638588023E-3   -3.035442360044098E-2    4.945982378070627E-1   -1.614999343772691E-1
 6.528951025900000E9     5.580417814116363E-1   -5.863263997859096E-2   -7.162319518216513E-3   -3.064784972076622E-2   -7.876546952357646E-3   -3.049854540474420E-2    4.943572087616849E-1   -1.624257481640617E-1
 6.528961850800000E9     5.580024864900454E-1   -5.972482495081631E-2   -7.390280636154196E-3   -3.079515128505661E-2   -7.926734377346740E-3   -3.065984523171153E-2    4.939725343919176E-1   -1.633030687281723E-1
 6.528972675700000E9     5.578206396310621E-1   -6.054695599737224E-2   -7.400932406583926E-3   -3.090226470877638E-2   -8.066508564065806E-3   -3.083672839933854E-2    4.935680210582634E-1   -1.642756199877016E-1
 6.528983500600000E9     5.577994795600122E-1   -6.145857820842255E-2   -7.477431606705283E-3   -3.092558919022799E-2   -8.153407191035951E-3   -3.093959841640834E-2    4.932130265286593E-1   -1.651463520186540E-1
 6.528994325500000E9     5.576799942946306E-1   -6.230571837455609E-2   -7.629972549907858E-3   -3.113424578070262E-2   -8.226770844658744E-3   -3.106087840259674E-2    4.930190171642478E-1   -1.662330240987694E-1
 6.529005150400000E9     5.576230539887854E-1   -6.312237852120096E-2   -7.713102861879624E-3   -3.144451267197276E-2   -8.424757229551766E-3   -3.124788862377601E-2    4.925396751720864E-1   -1.669951655085702E-1
 6.529015975300000E9     5.575417127065502E-1   -6.410876268334012E-2   -7.722514626246016E-3   -3.144655269731592E-2   -8.479598091312417E-3   -3.129616060555705E-2    4.922278762451492E-1   -1.680428946069589E-1
 6.529026800200000E9     5.574704607470740E-1   -6.496071175078164E-2   -7.960837980716732E-3   -3.172276447913604E-2   -8.522495196741180E-3   -3.153222633499027E-2    4.919682939082581E-1   -1.689571392378352E-1
 6.529037625100000E9     5.572195894630327E-1   -6.570276922550748E-2   -7.971951962380026E-3   -3.189636589151000E-2   -8.708010039143827E-3   -3.177886174360348E-2    4.915698982899107E-1   -1.698517757100588E-1
 6.529048450000000E9     5.571326026055760E-1   -6.660664418862100E-2   -8.092360207643529E-3   -3.211470088741992E-2   -8.787079218458789E-3   -3.187874750360260E-2    4.911381525938536E-1   -1.708496128911838E-1
 6.529059274900000E9     5.571416341375913E-1   -6.751705775974280E-2   -8.166203814107901E-3   -3.217731315880655E-2   -8.850357638825870E-3   -3.210202088814060E-2    4.907136531242813E-1   -1.718391186630404E-1
 6.529070099800000E9     5.569202694802973E-1   -6.833947333500533E-2   -8.296700392660755E-3   -3.225266001578581E-2   -8.952847885437364E-3   -3.215739826821937E-2    4.903835819328033E-1   -1.725506849059171E-1
 6.529080924700000E9     5.568858809725054E-1   -6.905015886544902E-2   -8.543487104620225E-3   -3.240070451175108E-2   -9.199333592918831E-3   -3.227395199934883E-2    4.902302953104669E-1   -1.735171630238971E-1
 6.529091749600000E9     5.566528364619256E-1   -7.009975689029786E-2   -8.548113877726580E-3   -3.269379455255948E-2   -9.302227474096026E-3   -3.256310906879674E-2    4.896732575699659E-1   -1.745668595012744E-1
 6.529102574500000E9     5.566496637524866E-1   -7.104705308147313E-2   -8.565664720615710E-3   -3.287469279915953E-2   -9.351742405176333E-3   -3.268064778081717E-2    4.892564410272585E-1   -1.755386470539387E-1
 6.529113399400000E9     5.563764440053985E-1   -7.180383197618742E-2   -8.858604908868436E-3   -3.308088115020470E-2   -9.549388295795920E-3   -3.281308953542716E-2    4.888514327378913E-1   -1.765026950450576E-1
 6.529124224300000E9     5.563408031288225E-1   -7.273215212940154E-2   -8.980374300290113E-3   -3.319651395907733E-2   -9.605918060321772E-3   -3.294901297152547E-2    4.883986758781927E-1   -1.775805145001736E-1
 6.529135049200000E9     5.561733013821459E-1   -7.363438075175628E-2   -9.018110148622355E-3   -3.323510569672285E-2   -9.729963186625631E-3   -3.303736546195147E-2    4.881485799596892E-1   -1.786912810836198E-1
 6.529145874100000E9     5.562207101740326E-1   -7.450578757016359E-2   -9.083872018170746E-3   -3.346757481378244E-2   -9.841937792426864E-3   -3.333055938732445E-2    4.877325801317861E-1   -1.794492081851531E-1
 6.529156699000000E9     5.559985000385879E-1   -7.536066174598131E-2   -9.241549813845099E-3   -3.355113328446446E-2   -9.970505781880700E-3   -3.350703274718539E-2    4.874851669536587E-1   -1.803199885143186E-1
 6.529167523900000E9     5.557683671179290E-1   -7.624038366517011E-2   -9.431108140903248E-3   -3.388968952065077E-2   -1.011902749491961E-2   -3.368445613512597E-2    4.868094067914273E-1   -1.812538844464524E-1
 6.529178348800000E9     5.556783704933214E-1   -7.718090900138945E-2   -9.449426963695474E-3   -3.400396450779544E-2   -1.015571790877560E-2   -3.387538306890679E-2    4.864592519307741E-1   -1.822923143157605E-1
 6.529189173700000E9     5.555075978861232E-1   -7.800195288991388E-2   -9.742948831392439E-3   -3.405159783899526E-2   -1.034510201703516E-2   -3.398962279089504E-2    4.860851762578764E-1   -1.833541739681876E-1
 6.529199998600000E9     5.554277931881197E-1   -7.900789180244298E-2   -9.837016248690043E-3   -3.431692024197413E-2   -1.048471058636209E-2   -3.413905318232627E-2    4.856199129101025E-1   -1.844386281811449E-1
 6.529210823500000E9     5.553629380911900E-1   -7.976432043067126E-2   -9.942897044509985E-3   -3.451738876286428E-2   -1.061237192557993E-2   -3.445549086575801E-2    4.851744737769689E-1   -1.852393622350148E-1
 6.529221648400000E9     5.552021778426570E-1   -8.074118645931778E-2   -1.007469698396569E-2   -3.472914110944327E-2   -1.062871144885042E-2   -3.458315278251467E-2    4.847100071601432E-1   -1.864088538821607E-1
 6.529232473300000E9     5.550758471141540E-1   -8.160832437714916E-2   -1.013446075843981E-2   -3.483826209829363E-2   -1.089602591986235E-2   -3.469939515147239E-2    4.844568712422623E-1   -1.871102681657117E-1
 6.529243298200000E9     5.548203122252258E-1   -8.263266175291659E-2   -1.021689945471217E-2   -3.516281524267333E-2   -1.100899804278459E-2   -3.486918221533224E-2    4.838812989192567E-1   -1.882642019789575E-1
 6.529254123100000E9     5.546689065730056E-1   -8.340601990646994E-2   -1.044759798672297E-2   -3.521729588568320E-2   -1.118890821588764E-2   -3.504214660183583E-2    4.833140649878986E-1   -1.892704662544674E-1
 6.529264948000000E9     5.545930075096027E-1   -8.428067405683229E-2   -1.061490450745231E-2   -3.532487624623393E-2   -1.133680351775333E-2   -3.530063381442350E-2    4.829586840334729E-1   -1.903566161280414E-1
 6.529275772900000E9     5.544563091246321E-1   -8.519177718105257E-2   -1.070242951067192E-2   -3.565116459030952E-2   -1.146250934110623E-2   -3.546492970039589E-2    4.826012841733668E-1   -1.912364620457716E-1
 6.529286597800000E9     5.542020307417250E-1   -8.608204196212207E-2   -1.075501679936781E-2   -3.582431057321643E-2   -1.165838863881874E-2   -3.572524560600916E-2    4.820481122269446E-1   -1.922239299114396E-1
 6.529297422700000E9     5.541560644422397E-1   -8.703580285155822E-2   -1.095534302716131E-2   -3.615629471068929E-2   -1.175596640629183E-2   -3.583248514277798E-2    4.816011442237506E-1   -1.933773612053889E-1
 6.529308247600000E9     5.539545001563922E-1   -8.793161021063431E-2   -1.124102251586259E-2   -3.618030608035391E-2   -1.193045521323137E-2   -3.598729810607291E-2    4.812666695801703E-1   -1.942934460448142E-1
 6.529319072500000E9     5.538047243309852E-1   -8.888879168803379E-2   -1.115823855635480E-2   -3.646829206084924E-2   -1.197721030067491E-2   -3.617579083695175E-2    4.807738320197156E-1   -1.953056172528108E-1
 6.529329897400000E9     5.535531662334278E-1   -8.969909944803683E-2   -1.149743071680622E-2   -3.666397790852562E-2   -1.214994508391989E-2   -3.652432856844431E-2    4.801865596933003E-1   -1.963419443755358E-1
 6.529340722300000E9     5.534680288585155E-1   -9.063804795451030E-2   -1.160968795039122E-2   -3.687447640035748E-2   -1.230369199742160E-2   -3.658101963511234E-2    4.796319004181621E-1   -1.973558554980435E-1
 6.529351547200000E9     5.533444746959489E-1   -9.159009593292168E-2   -1.168004020999272E-2   -3.712275117768949E-2   -1.247168498166181E-2   -3.677643106390310E-2    4.793143290399958E-1   -1.984253189620057E-1
 6.529362372100000E9     5.531226108699195E-1   -9.239793391976388E-2   -1.194081822532713E-2   -3.727532899928245E-2   -1.264094192046038E-2   -3.703924914035193E-2    4.786959553705915E-1   -1.993959477525863E-1
 6.529373197000000E9     5.530513776086817E-1   -9.326799458153352E-2   -1.212469417463564E-2   -3.752730701756704E-2   -1.280891238341749E-2   -3.718946007071476E-2    4.783706395951722E-1   -2.004485378151649E-1
 6.529384021900000E9     5.527967014386655E-1   -9.428804788625159E-2   -1.212909111065186E-2   -3.772864933159650E-2   -1.304664234819391E-2   -3.753658406480664E-2    4.777187564084841E-1   -2.015834394763269E-1
 6.529394846800000E9     5.525697394626790E-1   -9.512406320549534E-2   -1.237853116638353E-2   -3.785888783787664E-2   -1.316169882923370E-2   -3.770389854813080E-2    4.771694187762990E-1   -2.025428066175128E-1
 6.529405671700000E9     5.523071778879289E-1   -9.607429191719569E-2   -1.256624299980349E-2   -3.811885007270829E-2   -1.340558401823378E-2   -3.792798368136380E-2    4.766414331135839E-1   -2.036649279618564E-1
 6.529416496600000E9     5.522276801091921E-1   -9.705635642403723E-2   -1.268884846692886E-2   -3.831482703274137E-2   -1.346109983236160E-2   -3.812979695841450E-2    4.761335891453095E-1   -2.047482565206007E-1
 6.529427321500000E9     5.520018924513324E-1   -9.782715918560987E-2   -1.283135876556891E-2   -3.860689419144803E-2   -1.376369247549572E-2   -3.837364646948736E-2    4.756506331987233E-1   -2.056657577912751E-1
 6.529438146400000E9     5.518910392478575E-1   -9.882608384781048E-2   -1.299191856146707E-2   -3.883319295444920E-2   -1.386498333192398E-2   -3.857434195992351E-2    4.751446094604997E-1   -2.066796794616719E-1
 6.529448971300000E9     5.516308861802630E-1   -9.970997842091545E-2   -1.324251220785876E-2   -3.913899097684671E-2   -1.403242480240613E-2   -3.873848619724087E-2    4.747711137011878E-1   -2.078368126460265E-1
 6.529459796200000E9     5.513610214061010E-1   -1.006987597988414E-1   -1.335626944497553E-2   -3.926911958364480E-2   -1.423611534812257E-2   -3.903757103614312E-2    4.740861420285217E-1   -2.089337933760450E-1
 6.529470621100000E9     5.512200647578045E-1   -1.015423314570653E-1   -1.349453120955996E-2   -3.953840437358374E-2   -1.450093167856030E-2   -3.930043578278766E-2    4.735453556550887E-1   -2.098778107845378E-1
 6.529481446000000E9     5.510467864097124E-1   -1.023956710262650E-1   -1.382176805882595E-2   -3.974787432933159E-2   -1.469510701695705E-2   -3.954687910634417E-2    4.728893830285533E-1   -2.110824529261446E-1
 6.529492270900000E9     5.508646298785638E-1   -1.034526186994527E-1   -1.396637247571709E-2   -4.012874754705232E-2   -1.483242776743925E-2   -3.972383966715717E-2    4.721352453721408E-1   -2.120707982054002E-1
 6.529503095800000E9     5.506954523068894E-1   -1.042725092989708E-1   -1.413539595553236E-2   -4.019842398257075E-2   -1.507167849401255E-2   -3.996172365577361E-2    4.716866331293291E-1   -2.133957089074170E-1
 6.529513920700000E9     5.504343071714234E-1   -1.052110333958691E-1   -1.438890500338252E-2   -4.052082574760114E-2   -1.534889287476898E-2   -4.030850007554630E-2    4.710691049894166E-1   -2.144154431748990E-1
 6.529524745600000E9     5.501441566585327E-1   -1.061743930642821E-1   -1.454223883841902E-2   -4.072583316908185E-2   -1.548423821341300E-2   -4.047924902241667E-2    4.704914302547282E-1   -2.153243026811656E-1
 6.529535570500000E9     5.499621292893530E-1   -1.069542236359418E-1   -1.468235255669894E-2   -4.098818413471519E-2   -1.567964813997707E-2   -4.073114494436020E-2    4.700352503204097E-1   -2.163621110787909E-1
 6.529546395400000E9     5.498641144320421E-1   -1.080407855619179E-1   -1.509419009926724E-2   -4.131763136892329E-2   -1.598411590513166E-2   -4.101755329958516E-2    4.694400315947967E-1   -2.175321168980847E-1
 6.529557220300000E9     5.495121109609715E-1   -1.090656632354161E-1   -1.520633505684027E-2   -4.163196995509860E-2   -1.615235627359125E-2   -4.127575958515978E-2    4.688114267121345E-1   -2.187577764466527E-1
 6.529568045200000E9     5.493133082855629E-1   -1.098902050836508E-1   -1.536236551340734E-2   -4.188376447401224E-2   -1.632442174262642E-2   -4.156260485581922E-2    4.682504452401391E-1   -2.197517673409740E-1
 6.529578870100000E9     5.490932765293277E-1   -1.108685272383447E-1   -1.563098982785617E-2   -4.210011458951908E-2   -1.654467319650963E-2   -4.173184591865332E-2    4.675811625288755E-1   -2.210360436146614E-1
 6.529589695000000E9     5.488970888443634E-1   -1.118037179692741E-1   -1.579712920207406E-2   -4.225726725828751E-2   -1.681134158879654E-2   -4.196924168130958E-2    4.667844498260290E-1   -2.219778121701622E-1
 6.529600519900000E9     5.486713516089118E-1   -1.128173435924611E-1   -1.598176268910304E-2   -4.256603523261535E-2   -1.697173615616264E-2   -4.235639222505649E-2    4.662348715575369E-1   -2.230741722397818E-1
 6.529611344800000E9     5.483814607431492E-1   -1.137954794440309E-1   -1.634485516263927E-2   -4.293844355487317E-2   -1.721688084099914E-2   -4.247277724734980E-2    4.654491847171728E-1   -2.244749712252184E-1
 6.529622169700000E9     5.481605425144793E-1   -1.147259792274379E-1   -1.652424988174994E-2   -4.327319603217469E-2   -1.751836583556705E-2   -4.296255599647799E-2    4.649365530224657E-1   -2.253979857906891E-1
 6.529632994600000E9     5.479989460901097E-1   -1.156296126086515E-1   -1.675043132611011E-2   -4.345102907736528E-2   -1.774529459902086E-2   -4.326216631900841E-2    4.643086847409177E-1   -2.265669233296167E-1
 6.529643819500000E9     5.476783096419919E-1   -1.165844933697588E-1   -1.698860947949134E-2   -4.369651210214599E-2   -1.802905772560623E-2   -4.342237323839485E-2    4.636962235423416E-1   -2.279116990405710E-1
 6.529654644400000E9     5.474748887444577E-1   -1.174540601123543E-1   -1.719140555917119E-2   -4.412242561706445E-2   -1.829057114966744E-2   -4.376825905366498E-2    4.628685289172126E-1   -2.289163619149515E-1
 6.529665469300000E9     5.472721360938060E-1   -1.184349103846863E-1   -1.743338712103359E-2   -4.430728019518564E-2   -1.852807684770476E-2   -4.402268774848861E-2    4.621866445757408E-1   -2.302094154501535E-1
 6.529676294200000E9     5.469924183292438E-1   -1.194792716170404E-1   -1.773202509642843E-2   -4.467927645104128E-2   -1.874622591639364E-2   -4.439194372159929E-2    4.615151131611121E-1   -2.311470810454474E-1
 6.529687119100000E9     5.466182289493415E-1   -1.204247797028670E-1   -1.792737726816152E-2   -4.499503615488203E-2   -1.906293216159028E-2   -4.462760114139361E-2    4.607387335254839E-1   -2.326781465091094E-1
 6.529697944000000E9     5.464256202477692E-1   -1.213424095429617E-1   -1.827853711326460E-2   -4.530353201381485E-2   -1.930873475955865E-2   -4.494396333577321E-2    4.599751548773696E-1   -2.336002475435463E-1
 6.529708768900000E9     5.461393496273476E-1   -1.224512340023955E-1   -1.852374751732958E-2   -4.562272243932855E-2   -1.952298106380768E-2   -4.531889926681176E-2    4.594425869764120E-1   -2.347351313604407E-1
 6.529719593800000E9     5.458463796725728E-1   -1.232909953614907E-1   -1.872932789199520E-2   -4.599548643004565E-2   -1.988223627838180E-2   -4.553984757676437E-2    4.584729421800151E-1   -2.358118482874110E-1
 6.529730418700000E9     5.456672597047973E-1   -1.242574956101001E-1   -1.919369333844932E-2   -4.616024426136540E-2   -2.019189675170755E-2   -4.591977213567194E-2    4.577058529171573E-1   -2.372746505186939E-1
 6.529741243600000E9     5.452427398415786E-1   -1.252894894423709E-1   -1.933403886864312E-2   -4.662897498052353E-2   -2.051865504844820E-2   -4.613611719092709E-2    4.570387529549897E-1   -2.382346425293839E-1
 6.529752068500000E9     5.450881949105369E-1   -1.262840842390010E-1   -1.969056981679390E-2   -4.693140250317288E-2   -2.074430355712726E-2   -4.654131858670357E-2    4.561287065964968E-1   -2.397314523413280E-1
 6.529762893400000E9     5.447813017952531E-1   -1.271926658120112E-1   -1.988647149565033E-2   -4.718572610336562E-2   -2.107833390956203E-2   -4.689096952478598E-2    4.552222919959974E-1   -2.408775227145028E-1
 6.529773718300000E9     5.444894559499213E-1   -1.282029677014663E-1   -2.028921816867374E-2   -4.747606233922538E-2   -2.137275474575212E-2   -4.724129492193026E-2    4.545230375126468E-1   -2.420661461121784E-1
 6.529784543200000E9     5.442250855292987E-1   -1.291851447295772E-1   -2.051728165574473E-2   -4.797782275902968E-2   -2.165350263891408E-2   -4.752210778393582E-2    4.537922874848951E-1   -2.432882083333016E-1
 6.529795368100000E9     5.439346884589722E-1   -1.301458899602821E-1   -2.091266836800003E-2   -4.835482431712338E-2   -2.197726764419424E-2   -4.790505169608653E-2    4.528310027510983E-1   -2.445729345199810E-1
 6.529806193000000E9     5.435325514313162E-1   -1.312138602580021E-1   -2.123463338138410E-2   -4.860590775889757E-2   -2.225055907277775E-2   -4.827133520584445E-2    4.520202369350924E-1   -2.457635510649410E-1
