#  HZ   S   RI   R     50.00 
! Rohde & Schwarz Vector Network Analyzer 
! Rohde-Schwarz,ZNB20-2Port,1311601062101988,3.16
! Created: UTC 3/21/2024, 12:52:00 AM
! freq[Hz]                re:S11                  im:S11                  re:S21                  im:S21                  re:S12                  im:S12                  re:S22                  im:S22
 6.528829993000000E9     5.607478607474923E-1   -5.941328038860811E-2   -8.558540212126856E-3   -3.396654624589129E-2   -9.294883907177837E-3   -3.379586219154609E-2    4.817545734865701E-1   -1.917809692754471E-1
 6.528839150750000E9     5.607140319100664E-1   -6.008703131052041E-2   -8.689916108996557E-3   -3.409718458453302E-2   -9.269525286655927E-3   -3.398430960097312E-2    4.814139752481243E-1   -1.927021824569417E-1
 6.528848308500000E9     5.605680135323048E-1   -6.085094040934418E-2   -8.609826051395653E-3   -3.422800116583371E-2   -9.371533250743505E-3   -3.405181328336377E-2    4.810993938853975E-1   -1.934008795508800E-1
 6.528857466250000E9     5.604815393483467E-1   -6.164832168452616E-2   -8.801399917530914E-3   -3.443179745674752E-2   -9.507298240233861E-3   -3.424772731340361E-2    4.807107009794024E-1   -1.941208965189462E-1
 6.528866624000000E9     5.603873390514249E-1   -6.238136670236512E-2   -8.936839972001315E-3   -3.454087566643400E-2   -9.673702602441221E-3   -3.449252984561237E-2    4.804925045134459E-1   -1.951294199475187E-1
 6.528875781750000E9     5.604382655747420E-1   -6.329409698101321E-2   -9.047665078792618E-3   -3.475500869260185E-2   -9.799980233300986E-3   -3.467927879798470E-2    4.801839787352095E-1   -1.960360554379777E-1
 6.528884939500000E9     5.602666042906819E-1   -6.386467462779202E-2   -9.106455552216132E-3   -3.489249895130425E-2   -9.867310346212325E-3   -3.471943374717509E-2    4.797614606398688E-1   -1.968014229470681E-1
 6.528894097250000E9     5.602020627246419E-1   -6.466059839256993E-2   -9.176973407696697E-3   -3.501499211846590E-2   -1.002120404151909E-2   -3.486082507457126E-2    4.794063530811303E-1   -1.976479598450505E-1
 6.528903255000000E9     5.600074968183574E-1   -6.543885326859640E-2   -9.304180059426083E-3   -3.516677976408633E-2   -1.002475205143484E-2   -3.502727607967542E-2    4.790251558832681E-1   -1.984994262513138E-1
 6.528912412750000E9     5.599105623413690E-1   -6.628935576022663E-2   -9.363056935226186E-3   -3.538737072283433E-2   -1.019160510874649E-2   -3.520463470776612E-2    4.785880595294701E-1   -1.992834994571552E-1
 6.528921570500000E9     5.598513405996134E-1   -6.717894684941152E-2   -9.377382539211637E-3   -3.551183780738430E-2   -1.030436053206802E-2   -3.538285546243864E-2    4.781947262108174E-1   -2.002007479316300E-1
 6.528930728250000E9     5.597279594360551E-1   -6.770980292460947E-2   -9.600114045067778E-3   -3.574567954837150E-2   -1.050223735409176E-2   -3.553863518562939E-2    4.777203205876691E-1   -2.010581636643715E-1
 6.528939886000000E9     5.596943264425941E-1   -6.850696338866447E-2   -9.765147473449901E-3   -3.583893953502536E-2   -1.055704886636593E-2   -3.563777166176266E-2    4.773265091506781E-1   -2.019219141832368E-1
 6.528949043750000E9     5.595257827686253E-1   -6.926175492007951E-2   -9.825938227345976E-3   -3.613862681147544E-2   -1.074748466752404E-2   -3.589182687156896E-2    4.769264112472226E-1   -2.025946771826584E-1
 6.528958201500000E9     5.594209532397687E-1   -7.000833304990570E-2   -9.894892089118699E-3   -3.629003627004648E-2   -1.073669200631681E-2   -3.609021390762160E-2    4.766025342633397E-1   -2.034978193642102E-1
 6.528967359250000E9     5.593140852801776E-1   -7.071634320778522E-2   -9.934316770485899E-3   -3.635642578670741E-2   -1.086910890356440E-2   -3.632797585190494E-2    4.761369308930246E-1   -2.044105368284932E-1
 6.528976517000000E9     5.592033718211319E-1   -7.171360253021450E-2   -1.024405894446994E-2   -3.652565876137742E-2   -1.100238787340805E-2   -3.641859664392186E-2    4.757964189838954E-1   -2.053446304075920E-1
 6.528985674750000E9     5.590295475567144E-1   -7.233163737802333E-2   -1.027536132245511E-2   -3.677351845753263E-2   -1.105426219046899E-2   -3.655566727549621E-2    4.753559430100925E-1   -2.060814912129520E-1
 6.528994832500000E9     5.591025812370822E-1   -7.302776405791570E-2   -1.055120558293140E-2   -3.685730893120075E-2   -1.122977634799898E-2   -3.675229213544745E-2    4.749843781895645E-1   -2.069861991340458E-1
 6.529003990250000E9     5.588636200059114E-1   -7.378322099992400E-2   -1.060798398965928E-2   -3.704735520918837E-2   -1.139028990679966E-2   -3.693949740358334E-2    4.744548868933715E-1   -2.078943311500470E-1
 6.529013148000000E9     5.587662663157880E-1   -7.464598919018320E-2   -1.073560062467362E-2   -3.719256338268564E-2   -1.156711356529878E-2   -3.700349440546043E-2    4.743100234527393E-1   -2.087496114090441E-1
 6.529022305750000E9     5.586148797894078E-1   -7.542797797068344E-2   -1.080430520507653E-2   -3.745036595486693E-2   -1.172892807652730E-2   -3.724807420170512E-2    4.736934720544871E-1   -2.094994698961805E-1
 6.529031463500000E9     5.584774410012266E-1   -7.619994965354465E-2   -1.098657847333982E-2   -3.765537539363720E-2   -1.190992239104854E-2   -3.746843727682467E-2    4.733334928245483E-1   -2.104829054728933E-1
 6.529040621250000E9     5.584217806164977E-1   -7.706240542500056E-2   -1.108420106817767E-2   -3.775483669485110E-2   -1.189301864607226E-2   -3.771074918280379E-2    4.728964059384757E-1   -2.114158913038955E-1
 6.529049779000000E9     5.582450940723269E-1   -7.772140620594566E-2   -1.114652204245744E-2   -3.792398155601116E-2   -1.212333911611125E-2   -3.790579473316723E-2    4.724410614954168E-1   -2.122321892803418E-1
 6.529058936750000E9     5.580205693125476E-1   -7.852304580178489E-2   -1.129008634451347E-2   -3.822939681406748E-2   -1.218104540955587E-2   -3.792242764294017E-2    4.720711112459614E-1   -2.131226596735229E-1
 6.529068094500000E9     5.579942422527423E-1   -7.924200866272597E-2   -1.147471222549969E-2   -3.829061183476923E-2   -1.219375150452133E-2   -3.815059922512840E-2    4.715573660673716E-1   -2.140150700645001E-1
 6.529077252250000E9     5.579453155514602E-1   -8.005032988320883E-2   -1.156740622967320E-2   -3.861060363098634E-2   -1.246509986895287E-2   -3.841930044999262E-2    4.710155923762835E-1   -2.149183983642395E-1
 6.529086410000000E9     5.577913586457419E-1   -8.090739688346420E-2   -1.164550495835166E-2   -3.890142045246532E-2   -1.265223255458594E-2   -3.858450476977003E-2    4.706625483043993E-1   -2.156744034592276E-1
 6.529095567750000E9     5.576501259913987E-1   -8.164785252088781E-2   -1.184400005154587E-2   -3.914905335360513E-2   -1.265275480713475E-2   -3.876734544777255E-2    4.702204725857341E-1   -2.166473946185937E-1
 6.529104725500000E9     5.575194182393283E-1   -8.253286504431034E-2   -1.199989746611023E-2   -3.925625461575658E-2   -1.288372302659266E-2   -3.912807826365339E-2    4.697120207037564E-1   -2.174383746390928E-1
 6.529113883250000E9     5.574102950407125E-1   -8.334364284877235E-2   -1.207747255856910E-2   -3.947215887101688E-2   -1.307966078752772E-2   -3.922498157625224E-2    4.692529843013138E-1   -2.185934222598245E-1
 6.529123041000000E9     5.572141357491639E-1   -8.405260701868322E-2   -1.224583702043638E-2   -3.958253618326016E-2   -1.318274960894954E-2   -3.937939183862350E-2    4.689352805684075E-1   -2.193411171112410E-1
 6.529132198750000E9     5.571080904752848E-1   -8.494123547019648E-2   -1.242934317774751E-2   -3.990418447502950E-2   -1.332571768312786E-2   -3.964064530775126E-2    4.683867182565996E-1   -2.203542989250678E-1
 6.529141356500000E9     5.570120716859219E-1   -8.573008317035399E-2   -1.252459850699857E-2   -4.011218911223201E-2   -1.348623899736307E-2   -3.985062781953028E-2    4.678999923288383E-1   -2.213638459448728E-1
 6.529150514250000E9     5.569602500735319E-1   -8.637047417549382E-2   -1.261133176168223E-2   -4.028565790010215E-2   -1.369423036254155E-2   -4.001756535577615E-2    4.675016992140712E-1   -2.222765628005476E-1
 6.529159672000000E9     5.566826536892159E-1   -8.733880183269910E-2   -1.286206409031166E-2   -4.052616031320039E-2   -1.378268478073080E-2   -4.018245312648193E-2    4.669049133643547E-1   -2.229939039408383E-1
 6.529168829750000E9     5.565257337829842E-1   -8.800096912238402E-2   -1.303467117288133E-2   -4.081951682006647E-2   -1.390958297361261E-2   -4.046268550547452E-2    4.663160086887468E-1   -2.239480131925079E-1
 6.529177987500000E9     5.564216695751852E-1   -8.892866797102558E-2   -1.315312488197357E-2   -4.089675927376957E-2   -1.395627812583607E-2   -4.070752155169228E-2    4.659310307283077E-1   -2.248733435604081E-1
 6.529187145250000E9     5.562188071563180E-1   -8.968855815578268E-2   -1.325656921009733E-2   -4.117176611418422E-2   -1.434727060240690E-2   -4.082624842306719E-2    4.655025592907285E-1   -2.257269826241696E-1
 6.529196303000000E9     5.562406605458703E-1   -9.036196768606326E-2   -1.344888126322617E-2   -4.129444483703571E-2   -1.445637427856711E-2   -4.107169491178321E-2    4.649173934209133E-1   -2.266995354541101E-1
 6.529205460750000E9     5.558803467424809E-1   -9.120502727144196E-2   -1.359618123475736E-2   -4.143334989968282E-2   -1.463755313379876E-2   -4.118571947564569E-2    4.645047835703383E-1   -2.277476970936162E-1
 6.529214618500000E9     5.558730671815635E-1   -9.206358102841297E-2   -1.378383359334420E-2   -4.181280290113069E-2   -1.487185456013318E-2   -4.160124566421571E-2    4.638711874579639E-1   -2.284964508513533E-1
 6.529223776250000E9     5.556943808979490E-1   -9.298099987079264E-2   -1.397618270275293E-2   -4.204420716256448E-2   -1.490335391694272E-2   -4.172477233890585E-2    4.633617693503068E-1   -2.296191508991610E-1
 6.529232934000000E9     5.555437608431654E-1   -9.374329934146991E-2   -1.408751944780712E-2   -4.226942994287487E-2   -1.510058120180971E-2   -4.195589027085439E-2    4.629285959427613E-1   -2.304508926586491E-1
 6.529242091750000E9     5.554069254851439E-1   -9.447163530512641E-2   -1.431341988923605E-2   -4.245510093690541E-2   -1.526361145482187E-2   -4.223273377988575E-2    4.623181617313816E-1   -2.314050339985459E-1
 6.529251249500000E9     5.551339147703378E-1   -9.522862528706935E-2   -1.455126081552931E-2   -4.258276583889881E-2   -1.547264711229031E-2   -4.236363520005625E-2    4.617910494662679E-1   -2.324720890094086E-1
 6.529260407250000E9     5.550867523451921E-1   -9.599194743331121E-2   -1.464546982124910E-2   -4.288299359258500E-2   -1.562964218993800E-2   -4.277782761400552E-2    4.611861052068789E-1   -2.332955493871729E-1
 6.529269565000000E9     5.548835695578230E-1   -9.688132934985749E-2   -1.472975522756096E-2   -4.318976916727667E-2   -1.577551349886655E-2   -4.291996187333528E-2    4.605646995630888E-1   -2.343085932754489E-1
 6.529278722750000E9     5.547071777674263E-1   -9.767676883512885E-2   -1.493970438827408E-2   -4.341160762854797E-2   -1.608440809532281E-2   -4.317046954146642E-2    4.599555771532277E-1   -2.353731289320461E-1
 6.529287880500000E9     5.545459594654097E-1   -9.860055093724218E-2   -1.518978195998721E-2   -4.364918677606284E-2   -1.615451222176287E-2   -4.348461733832861E-2    4.596368606991370E-1   -2.363009443489990E-1
 6.529297038250000E9     5.542620375942324E-1   -9.944651136383910E-2   -1.533644682150090E-2   -4.396909169181938E-2   -1.638866387458951E-2   -4.369564565471068E-2    4.590618292235585E-1   -2.372325459836530E-1
 6.529306196000000E9     5.542562640999656E-1   -1.000884787883662E-1   -1.560390305447047E-2   -4.420144577343862E-2   -1.665939603966171E-2   -4.395367397459535E-2    4.584631357794436E-1   -2.382753003234504E-1
 6.529315353750000E9     5.538942386270441E-1   -1.009574270897102E-1   -1.566473993353247E-2   -4.451644135140342E-2   -1.684560678029397E-2   -4.415604325731030E-2    4.577946913825796E-1   -2.391928950136865E-1
 6.529324511500000E9     5.537996682979125E-1   -1.017043334116178E-1   -1.598539981426492E-2   -4.467802310113967E-2   -1.701374434785627E-2   -4.439199039220436E-2    4.572672064169198E-1   -2.401289323065344E-1
 6.529333669250000E9     5.535298083314447E-1   -1.026308511604354E-1   -1.624420959604362E-2   -4.512062959534340E-2   -1.727360613319735E-2   -4.465449596503698E-2    4.566256058086473E-1   -2.411990711774996E-1
 6.529342827000000E9     5.534440989277241E-1   -1.033836776210373E-1   -1.634358960446871E-2   -4.534223668680694E-2   -1.741596340125081E-2   -4.492522262125578E-2    4.561208005593831E-1   -2.421719495070452E-1
 6.529351984750000E9     5.533317209164326E-1   -1.042451918499001E-1   -1.657277941409890E-2   -4.560548664873136E-2   -1.774847648963359E-2   -4.525028053208347E-2    4.554795695488365E-1   -2.432015599624787E-1
 6.529361142500000E9     5.529989909629464E-1   -1.052294560083770E-1   -1.674766427112772E-2   -4.584361807740038E-2   -1.783255277287154E-2   -4.547890965847459E-2    4.549059490142083E-1   -2.443230006822726E-1
 6.529370300250000E9     5.528466070002539E-1   -1.059363498413435E-1   -1.697378591092654E-2   -4.603810057641828E-2   -1.815881692676753E-2   -4.581891171633955E-2    4.541091220194038E-1   -2.453514905349260E-1
 6.529379458000000E9     5.526716807828863E-1   -1.068155609997242E-1   -1.717854743531097E-2   -4.637874752259442E-2   -1.836001357704552E-2   -4.602722646009292E-2    4.536039276495855E-1   -2.462582452522350E-1
 6.529388615750000E9     5.525571742685622E-1   -1.076548211357769E-1   -1.743597947304842E-2   -4.675891138230757E-2   -1.848538494419993E-2   -4.632347567201309E-2    4.530212180895852E-1   -2.471988661598103E-1
 6.529397773500000E9     5.522862815065978E-1   -1.085492316929438E-1   -1.761603225496645E-2   -4.686715792689990E-2   -1.881337785383001E-2   -4.654252399189381E-2    4.522662877089785E-1   -2.483222142778797E-1
 6.529406931250000E9     5.521008078926872E-1   -1.093228378946195E-1   -1.777201855587896E-2   -4.730081077053554E-2   -1.905044164272587E-2   -4.680543208732740E-2    4.516368050551557E-1   -2.494429805842755E-1
 6.529416089000000E9     5.519200212056079E-1   -1.101833183421414E-1   -1.811858037679386E-2   -4.757015500749692E-2   -1.925574544906574E-2   -4.724192381204099E-2    4.510038058326865E-1   -2.503023016549268E-1
 6.529425246750000E9     5.517306022013565E-1   -1.109840041381959E-1   -1.838015908322788E-2   -4.781827063605361E-2   -1.949866358773301E-2   -4.754740749019261E-2    4.503850228445991E-1   -2.514954961774959E-1
 6.529434404500000E9     5.513431489481363E-1   -1.118595708136345E-1   -1.843548365293874E-2   -4.801786451526281E-2   -1.972342964432047E-2   -4.787850529999635E-2    4.497127525029458E-1   -2.524406773693898E-1
 6.529443562250000E9     5.512368402329804E-1   -1.126822635081025E-1   -1.876637322458386E-2   -4.838053440073377E-2   -2.004195478301020E-2   -4.813141367502682E-2    4.488502910411415E-1   -2.536079274602565E-1
 6.529452720000000E9     5.510862654001510E-1   -1.136555811590063E-1   -1.902063249049113E-2   -4.877589949526358E-2   -2.026224667720214E-2   -4.845419439711710E-2    4.481416687605632E-1   -2.546153213030354E-1
 6.529461877750000E9     5.507414023675689E-1   -1.144600442329326E-1   -1.941888116070662E-2   -4.927568919127690E-2   -2.050790792258522E-2   -4.879060120228942E-2    4.475626061889760E-1   -2.556468492581448E-1
 6.529471035500000E9     5.505034965487897E-1   -1.153398115554378E-1   -1.958117961788155E-2   -4.949122044597284E-2   -2.076732068367004E-2   -4.912316227030181E-2    4.467559408263445E-1   -2.567956962057846E-1
 6.529480193250000E9     5.503724760460649E-1   -1.161563196562414E-1   -1.996406605881956E-2   -4.962638981838426E-2   -2.112359971845612E-2   -4.927949970803062E-2    4.460607931175339E-1   -2.577702811036051E-1
 6.529489351000000E9     5.500850156469613E-1   -1.171009630974250E-1   -2.009525417617674E-2   -4.981241782003173E-2   -2.131685510312918E-2   -4.967713391976954E-2    4.453480682393502E-1   -2.589549529130040E-1
 6.529498508750000E9     5.497676297515701E-1   -1.178525003903083E-1   -2.042236178500631E-2   -5.041150369606081E-2   -2.156530532158221E-2   -5.002570708536718E-2    4.446293794003330E-1   -2.600219685922782E-1
 6.529507666500000E9     5.496769536152936E-1   -1.187313517464537E-1   -2.068336993934254E-2   -5.084084854536742E-2   -2.189284595435711E-2   -5.027997737161335E-2    4.437306564864176E-1   -2.612011012666854E-1
 6.529516824250000E9     5.494095808537565E-1   -1.196407112282344E-1   -2.087377324929956E-2   -5.108696630164399E-2   -2.219478706382158E-2   -5.063538451741289E-2    4.431344454350420E-1   -2.622383868419934E-1
 6.529525982000000E9     5.490947973972226E-1   -1.204445813387856E-1   -2.109111637999935E-2   -5.146156338196486E-2   -2.230064405748652E-2   -5.101008921402531E-2    4.423024177054337E-1   -2.634569962080192E-1
 6.529535139750000E9     5.488132982210385E-1   -1.213958471278522E-1   -2.149396487944498E-2   -5.171792455703977E-2   -2.276019186853194E-2   -5.126879894546496E-2    4.415975701864251E-1   -2.644499546079786E-1
 6.529544297500000E9     5.485866281317591E-1   -1.222311144166152E-1   -2.167852780579779E-2   -5.211014748334388E-2   -2.317011718445654E-2   -5.170293344465556E-2    4.407419904940574E-1   -2.656180877280330E-1
 6.529553455250000E9     5.483474875253284E-1   -1.231101070959636E-1   -2.195407495939507E-2   -5.247096623390286E-2   -2.332275308794344E-2   -5.209361843045150E-2    4.399191933289555E-1   -2.667113503600443E-1
 6.529562613000000E9     5.481363434619382E-1   -1.240317218030135E-1   -2.240308214619177E-2   -5.283249092565850E-2   -2.368518447145087E-2   -5.229897602821505E-2    4.389336409822210E-1   -2.680507340205551E-1
 6.529571770750000E9     5.478996353443685E-1   -1.248359989053203E-1   -2.255644005413103E-2   -5.322185457283459E-2   -2.405553794968526E-2   -5.280605160202467E-2    4.382039002740600E-1   -2.691152557415069E-1
 6.529580928500000E9     5.475881337027494E-1   -1.257739096421013E-1   -2.292241671062492E-2   -5.355974169162372E-2   -2.434083795645574E-2   -5.305761630919129E-2    4.372543985442463E-1   -2.702408243090341E-1
 6.529590086250000E9     5.472355714810352E-1   -1.267751532093011E-1   -2.340969661966854E-2   -5.399106950962818E-2   -2.475677229889601E-2   -5.348765366747794E-2    4.363864075591309E-1   -2.712969874876374E-1
 6.529599244000000E9     5.470698396624717E-1   -1.276450332217257E-1   -2.376687974561072E-2   -5.420260508441382E-2   -2.509509948522300E-2   -5.382730919975412E-2    4.354987839737232E-1   -2.725359781474414E-1
 6.529608401750000E9     5.468289969266129E-1   -1.285749828440384E-1   -2.393893251121402E-2   -5.482116451094843E-2   -2.536537640137102E-2   -5.427037267032551E-2    4.346049721378635E-1   -2.736186458373995E-1
 6.529617559500000E9     5.464031301946275E-1   -1.294545880175084E-1   -2.444744830327453E-2   -5.519361690310147E-2   -2.574101037947019E-2   -5.468576898982754E-2    4.337347660428874E-1   -2.751171712035204E-1
 6.529626717250000E9     5.461100162084994E-1   -1.303480576095984E-1   -2.465079989098220E-2   -5.537532131527325E-2   -2.608363269718175E-2   -5.507540766876488E-2    4.327850495792814E-1   -2.761349172789805E-1
 6.529635875000000E9     5.459672192280298E-1   -1.312716632975403E-1   -2.492816059520808E-2   -5.586372529763635E-2   -2.647758123090417E-2   -5.541426918264981E-2    4.319553128479668E-1   -2.774110722234071E-1
 6.529645032750000E9     5.456008644087017E-1   -1.322072794831704E-1   -2.542380702225584E-2   -5.642846026336294E-2   -2.689381196226915E-2   -5.580996402111925E-2    4.309943064649294E-1   -2.785475490516001E-1
 6.529654190500000E9     5.453111583956475E-1   -1.329933465980529E-1   -2.568828021151522E-2   -5.672166851359439E-2   -2.728029491609212E-2   -5.624014789625590E-2    4.299799247645694E-1   -2.798559962077448E-1
