#  HZ   S   RI   R     50.00 
! Rohde & Schwarz Vector Network Analyzer 
! Rohde-Schwarz,ZNB20-2Port,1311601062101988,3.16
! Created: UTC 3/21/2024, 1:08:12 AM
! freq[Hz]                re:S11                  im:S11                  re:S21                  im:S21                  re:S12                  im:S12                  re:S22                  im:S22
 6.528833384000000E9     5.590935715963544E-1   -4.941444666797705E-2   -6.154456933029282E-3   -2.914251172146145E-2   -6.838270581529091E-3   -2.897896149117692E-2    4.977888330046477E-1   -1.523137805035676E-1
 6.528844221725000E9     5.590047627168313E-1   -5.019932190171929E-2   -6.327964925950993E-3   -2.928769918796910E-2   -6.920310174403125E-3   -2.919703475153168E-2    4.975212467709034E-1   -1.531674984871904E-1
 6.528855059450000E9     5.588463233902909E-1   -5.107814108298100E-2   -6.282097092270659E-3   -2.929055111531758E-2   -7.079455698776481E-3   -2.932957227254574E-2    4.972488097034667E-1   -1.542367251707008E-1
 6.528865897175000E9     5.587664394482986E-1   -5.188972738496440E-2   -6.552619575756926E-3   -2.935362737718938E-2   -7.088376651313543E-3   -2.936287118783861E-2    4.967810169772855E-1   -1.549133030660196E-1
 6.528876734900000E9     5.586878467172192E-1   -5.278487327862503E-2   -6.635655864406899E-3   -2.958321564894134E-2   -7.138680733607943E-3   -2.947651615646326E-2    4.963297199476258E-1   -1.560639528059698E-1
 6.528887572625000E9     5.585602636719633E-1   -5.370130020991035E-2   -6.696399434295383E-3   -2.982209194755720E-2   -7.259314007009680E-3   -2.971235785788263E-2    4.961408247027941E-1   -1.568255956914628E-1
 6.528898410350000E9     5.585224855002353E-1   -5.452852041566554E-2   -6.809692068231903E-3   -2.995448436707035E-2   -7.361142673798244E-3   -2.974160367693058E-2    4.958787504714537E-1   -1.577250038754938E-1
 6.528909248075000E9     5.584634083643646E-1   -5.529029460732562E-2   -6.914298589307265E-3   -3.006576087482296E-2   -7.465082516268724E-3   -2.995904964905786E-2    4.956145356091392E-1   -1.585797828377310E-1
 6.528920085800000E9     5.583718137172340E-1   -5.625526864178431E-2   -6.864873561018652E-3   -3.020610466922421E-2   -7.496802929828320E-3   -3.002808473308523E-2    4.953304333028398E-1   -1.595744517867669E-1
 6.528930923525000E9     5.583856165319844E-1   -5.720505223469031E-2   -7.118605025036426E-3   -3.030579747442050E-2   -7.599280659469741E-3   -3.026907396054928E-2    4.950412407250065E-1   -1.605452988320077E-1
 6.528941761250000E9     5.581385054391517E-1   -5.801376958834729E-2   -7.229951724712902E-3   -3.053071344507835E-2   -7.707158476039561E-3   -3.031407208991748E-2    4.947100178945177E-1   -1.613697421639712E-1
 6.528952598975000E9     5.580267118115588E-1   -5.885036068927981E-2   -7.282290951623806E-3   -3.066288622264842E-2   -7.754759053209785E-3   -3.049108400267723E-2    4.942019587533902E-1   -1.624299653558407E-1
 6.528963436700000E9     5.580627987537478E-1   -5.960990795331087E-2   -7.313927811387642E-3   -3.086405326027446E-2   -7.925675625609528E-3   -3.065201597215310E-2    4.938671982217817E-1   -1.632620243420367E-1
 6.528974274425000E9     5.578371427384465E-1   -6.054685669834162E-2   -7.420958010049931E-3   -3.091618259783122E-2   -7.981278634641759E-3   -3.074040476912818E-2    4.936367456800219E-1   -1.642161123061677E-1
 6.528985112150000E9     5.578688730680603E-1   -6.160599954500019E-2   -7.546849859755116E-3   -3.110654067605384E-2   -8.070546356188061E-3   -3.104667948268773E-2    4.932718857391423E-1   -1.653599311760534E-1
 6.528995949875000E9     5.577154052527027E-1   -6.240368397575626E-2   -7.560317568272888E-3   -3.098036756224538E-2   -8.283296575472398E-3   -3.112129508220411E-2    4.929515075572757E-1   -1.661520571923458E-1
 6.529006787600000E9     5.575734191285007E-1   -6.324505683209942E-2   -7.639246457276178E-3   -3.129092237759676E-2   -8.365123772049884E-3   -3.124524910713672E-2    4.926347179607456E-1   -1.670264732250742E-1
 6.529017625325000E9     5.574112686376123E-1   -6.398457841732021E-2   -7.809288755491751E-3   -3.153303174183946E-2   -8.408271355285485E-3   -3.131110938530896E-2    4.921903308471093E-1   -1.679056908471374E-1
 6.529028463050000E9     5.573439243813810E-1   -6.497898736373471E-2   -7.881055479996507E-3   -3.156886355439670E-2   -8.667916239652655E-3   -3.142434464040165E-2    4.918472081913303E-1   -1.690366601575505E-1
 6.529039300775000E9     5.571763185133108E-1   -6.588636977991461E-2   -7.971294839167701E-3   -3.166984899239445E-2   -8.667604378645674E-3   -3.162360654801021E-2    4.916488774460697E-1   -1.699286977680484E-1
 6.529050138500000E9     5.572023352343131E-1   -6.667827261443769E-2   -8.132210024858597E-3   -3.192220177241101E-2   -8.750851744416688E-3   -3.181682556825277E-2    4.912086985791571E-1   -1.707794716550249E-1
 6.529060976225000E9     5.569328167917127E-1   -6.760406645673010E-2   -8.278111420593256E-3   -3.221260241489790E-2   -8.933959256102396E-3   -3.195124146427253E-2    4.908746504196780E-1   -1.718577771379562E-1
 6.529071813950000E9     5.569598530583865E-1   -6.837102751501752E-2   -8.295631090499491E-3   -3.224324532948362E-2   -8.988430802727017E-3   -3.209534467855810E-2    4.904567469707299E-1   -1.727178099535115E-1
 6.529082651675000E9     5.567844146525808E-1   -6.923922306521590E-2   -8.488653737964971E-3   -3.233218254397152E-2   -9.204451426248105E-3   -3.221287752610498E-2    4.901097035885128E-1   -1.735606439442310E-1
 6.529093489400000E9     5.567497646561275E-1   -7.004122711086994E-2   -8.608042185301253E-3   -3.266754805483355E-2   -9.297654613028039E-3   -3.243712421680813E-2    4.896795361100017E-1   -1.745297861093340E-1
 6.529104327125000E9     5.565487653339224E-1   -7.104002272908574E-2   -8.616082906686423E-3   -3.281785180801844E-2   -9.323880585995302E-3   -3.267102985949289E-2    4.892079534966184E-1   -1.755993723015940E-1
 6.529115164850000E9     5.564660748860260E-1   -7.199563973076598E-2   -8.880078366631797E-3   -3.285935695274404E-2   -9.413218074269919E-3   -3.268074886972400E-2    4.889673974582416E-1   -1.766212269599492E-1
 6.529126002575000E9     5.562768936808260E-1   -7.283818791866060E-2   -8.918210655829954E-3   -3.314996743426921E-2   -9.563035792699853E-3   -3.290479042101953E-2    4.885800428736898E-1   -1.774894030190420E-1
 6.529136840300000E9     5.560831626485118E-1   -7.374214725046116E-2   -8.998762481796129E-3   -3.327758279208576E-2   -9.764369576168937E-3   -3.320187989605845E-2    4.880702904952440E-1   -1.785861627219720E-1
 6.529147678025000E9     5.561034993781052E-1   -7.464630999552521E-2   -9.161087807774337E-3   -3.350338492882698E-2   -9.825849059694939E-3   -3.320182647846054E-2    4.877614296967300E-1   -1.795415716578061E-1
 6.529158515750000E9     5.559211382185324E-1   -7.548499110013619E-2   -9.309919012197515E-3   -3.358825743279018E-2   -9.983831549081296E-3   -3.347558918266808E-2    4.872292786793228E-1   -1.805480541019411E-1
 6.529169353475000E9     5.558025810895805E-1   -7.636843086780912E-2   -9.341852964735973E-3   -3.386531780082466E-2   -9.995980552313438E-3   -3.368496334830364E-2    4.868761225272188E-1   -1.813179327062691E-1
 6.529180191200000E9     5.556149450354132E-1   -7.721721455150006E-2   -9.566054325513215E-3   -3.398365354747556E-2   -1.019667538432694E-2   -3.368573452420933E-2    4.865832262266330E-1   -1.823224217084457E-1
 6.529191028925000E9     5.554069603390582E-1   -7.810352009455981E-2   -9.717205175981463E-3   -3.408781538012928E-2   -1.034034835063784E-2   -3.396307256956953E-2    4.861497944211028E-1   -1.834021512740321E-1
 6.529201866650000E9     5.554553603911999E-1   -7.905233004076562E-2   -9.860100517974582E-3   -3.437458533650107E-2   -1.040107894542924E-2   -3.419204795140372E-2    4.856429762918711E-1   -1.842107366517169E-1
 6.529212704375000E9     5.553023592785176E-1   -7.995367043439741E-2   -9.903910585446443E-3   -3.444105057957082E-2   -1.047909152143343E-2   -3.433859502784380E-2    4.852833811878949E-1   -1.853187664862314E-1
 6.529223542100000E9     5.551553574215664E-1   -8.086593779697072E-2   -9.985555634694764E-3   -3.454140888729348E-2   -1.065969198395179E-2   -3.452561618254837E-2    4.847112069454667E-1   -1.863340248137304E-1
 6.529234379825000E9     5.550297110489452E-1   -8.174276127589226E-2   -1.022446136615477E-2   -3.483850042196977E-2   -1.087043628731040E-2   -3.471502352145577E-2    4.843221939306956E-1   -1.873870782956211E-1
 6.529245217550000E9     5.548688504114831E-1   -8.259440742893455E-2   -1.035562692544066E-2   -3.507640067637631E-2   -1.101756522600780E-2   -3.488347130930772E-2    4.838829068283555E-1   -1.883963292506263E-1
 6.529256055275000E9     5.545500661764569E-1   -8.347110707489183E-2   -1.035290032298022E-2   -3.516371939416406E-2   -1.120444022350878E-2   -3.504613225895557E-2    4.835416851683842E-1   -1.893447140639750E-1
 6.529266893000000E9     5.545560621254498E-1   -8.426284173206740E-2   -1.054054107064719E-2   -3.532414357286483E-2   -1.133243819587452E-2   -3.524663167709005E-2    4.829757537273925E-1   -1.902980128836708E-1
 6.529277730725000E9     5.543250321867893E-1   -8.532398173998178E-2   -1.070074574231093E-2   -3.555702937627027E-2   -1.135022156067143E-2   -3.543947479866940E-2    4.824197935859512E-1   -1.912421161667619E-1
 6.529288568450000E9     5.542179752534062E-1   -8.624060837697803E-2   -1.066920232406694E-2   -3.581157601312891E-2   -1.152859011734183E-2   -3.569337872816957E-2    4.821431633827630E-1   -1.922728593932084E-1
 6.529299406175000E9     5.540543845946588E-1   -8.708926399223915E-2   -1.101120804943206E-2   -3.596242848114378E-2   -1.172075786118392E-2   -3.574243170814644E-2    4.816552913603351E-1   -1.932737323756182E-1
 6.529310243900000E9     5.537899357887051E-1   -8.804037023458613E-2   -1.108765362662668E-2   -3.616938304335706E-2   -1.189517892068110E-2   -3.604211825246136E-2    4.811621273600293E-1   -1.942704929977835E-1
 6.529321081625000E9     5.537861922269882E-1   -8.886419837935461E-2   -1.136139631377002E-2   -3.639602483271778E-2   -1.210791798674634E-2   -3.614149413895991E-2    4.806214143709370E-1   -1.953685482422697E-1
 6.529331919350000E9     5.535514708500108E-1   -8.974308601607617E-2   -1.139106546375631E-2   -3.664102856142102E-2   -1.226111161965083E-2   -3.636095295810036E-2    4.802780039374671E-1   -1.964551286063238E-1
 6.529342757075000E9     5.533800697092430E-1   -9.056411905610462E-2   -1.153149894740596E-2   -3.675899390333866E-2   -1.238191289393626E-2   -3.652140181836577E-2    4.796839411795245E-1   -1.974704280239649E-1
 6.529353594800000E9     5.532828308574890E-1   -9.146139268955185E-2   -1.157446927684829E-2   -3.702313072157657E-2   -1.254834808132224E-2   -3.674454335953267E-2    4.792282180854011E-1   -1.984274421312031E-1
 6.529364432525000E9     5.530745660234933E-1   -9.255633738924371E-2   -1.181016270952855E-2   -3.727543862415822E-2   -1.268625197781242E-2   -3.689462798774516E-2    4.785973854242921E-1   -1.995898944218265E-1
 6.529375270250000E9     5.527872723120379E-1   -9.337284387048934E-2   -1.208755147395156E-2   -3.743154360262779E-2   -1.288526442714922E-2   -3.725140138238238E-2    4.781493208324076E-1   -2.005340687533354E-1
 6.529386107975000E9     5.527950093520007E-1   -9.435347446194918E-2   -1.215631109409519E-2   -3.755890701860923E-2   -1.296212808528956E-2   -3.741488614785905E-2    4.778925759601570E-1   -2.015435639035673E-1
 6.529396945700000E9     5.524910930223450E-1   -9.523003822277720E-2   -1.248320861850476E-2   -3.787245300458551E-2   -1.311097925916757E-2   -3.761515966954818E-2    4.772176443037058E-1   -2.026967142226183E-1
 6.529407783425000E9     5.522774505439391E-1   -9.612529302078197E-2   -1.246131686722825E-2   -3.824657748543678E-2   -1.331731728535755E-2   -3.789471647715442E-2    4.767863924379284E-1   -2.035746326766891E-1
 6.529418621150000E9     5.521446024984641E-1   -9.706285972713710E-2   -1.264895466002211E-2   -3.839859650762072E-2   -1.348901619641556E-2   -3.820054428622544E-2    4.761384938001437E-1   -2.046559501498214E-1
 6.529429458875000E9     5.519598325583700E-1   -9.800261560796382E-2   -1.279365725972689E-2   -3.864957285185867E-2   -1.372011297073710E-2   -3.837654852158174E-2    4.755851905381776E-1   -2.057131005905745E-1
 6.529440296600000E9     5.517920804093255E-1   -9.886717408898502E-2   -1.298186969730084E-2   -3.880061018884583E-2   -1.394102044310570E-2   -3.854622964974597E-2    4.752709111856792E-1   -2.067602791722720E-1
 6.529451134325000E9     5.515171282503754E-1   -9.982543980469072E-2   -1.332211237543458E-2   -3.902084466636990E-2   -1.399987161752261E-2   -3.878878491952631E-2    4.744850482759394E-1   -2.077510428779041E-1
 6.529461972050000E9     5.514231795046393E-1   -1.007369825835381E-1   -1.352685617930795E-2   -3.931497273641443E-2   -1.427587458860324E-2   -3.902557743443915E-2    4.740231760477945E-1   -2.090702716606228E-1
 6.529472809775000E9     5.511823777596718E-1   -1.017223802428903E-1   -1.359638556051552E-2   -3.927511978141704E-2   -1.449544866304175E-2   -3.927732623905752E-2    4.734483680975758E-1   -2.099871339662652E-1
 6.529483647500000E9     5.509565340094662E-1   -1.025907863686624E-1   -1.370444256153756E-2   -3.968093320077043E-2   -1.474445442246602E-2   -3.942885662828780E-2    4.729955403879958E-1   -2.109810959592536E-1
 6.529494485225000E9     5.507762612039022E-1   -1.033929993528718E-1   -1.388918740944607E-2   -3.988009569507436E-2   -1.474034343573721E-2   -3.977199392832360E-2    4.722901832465888E-1   -2.121348143180122E-1
 6.529505322950000E9     5.505509614115393E-1   -1.044655490968905E-1   -1.407745535881567E-2   -4.012477595657880E-2   -1.499269233434057E-2   -4.003391607715221E-2    4.716529181434171E-1   -2.133604667897480E-1
 6.529516160675000E9     5.504125634395878E-1   -1.054162404891583E-1   -1.439349314209585E-2   -4.049176945374154E-2   -1.522134722204164E-2   -4.026477196390438E-2    4.710695020853904E-1   -2.143782653656646E-1
 6.529526998400000E9     5.501886943580548E-1   -1.063587353569080E-1   -1.447775888290071E-2   -4.084334886597899E-2   -1.539556691354788E-2   -4.036183429121438E-2    4.706002028289764E-1   -2.153300046759651E-1
 6.529537836125000E9     5.498795245265410E-1   -1.072123746370752E-1   -1.466536353681199E-2   -4.101430835738098E-2   -1.560119793907972E-2   -4.062805204632978E-2    4.699506190580477E-1   -2.164945309238413E-1
 6.529548673850000E9     5.498029728312023E-1   -1.081986925888878E-1   -1.490624444808787E-2   -4.118093797575002E-2   -1.581863075905147E-2   -4.094916611590742E-2    4.694595664317324E-1   -2.176754593696825E-1
 6.529559511575000E9     5.494562716755335E-1   -1.091167702032522E-1   -1.509457003699033E-2   -4.145692870315681E-2   -1.613445285361002E-2   -4.119802931023139E-2    4.688767345317292E-1   -2.186139859933889E-1
 6.529570349300000E9     5.493347129591120E-1   -1.100066538443286E-1   -1.543324424695175E-2   -4.170933982872337E-2   -1.622479558519095E-2   -4.152365286959238E-2    4.681227735328112E-1   -2.199428874481928E-1
 6.529581187025000E9     5.492252692881460E-1   -1.109675453177704E-1   -1.557934051327710E-2   -4.220102499355505E-2   -1.665573509136363E-2   -4.166433056989684E-2    4.675152824456629E-1   -2.208592164430925E-1
 6.529592024750000E9     5.490058455965162E-1   -1.118528627758593E-1   -1.574213749236310E-2   -4.230362840499204E-2   -1.675499229749618E-2   -4.202195011996113E-2    4.668826291155524E-1   -2.220083084350461E-1
 6.529602862475000E9     5.486437020568921E-1   -1.128388093800450E-1   -1.602154928214819E-2   -4.260066517167601E-2   -1.697224621669846E-2   -4.231890457737628E-2    4.662014989592265E-1   -2.233294497920615E-1
 6.529613700200000E9     5.483866112773027E-1   -1.137599129351639E-1   -1.626888545321515E-2   -4.282706157728609E-2   -1.719420868914699E-2   -4.260596014984955E-2    4.655523462927391E-1   -2.243594945894159E-1
 6.529624537925000E9     5.481804833914726E-1   -1.147590753812939E-1   -1.641101686855538E-2   -4.301369945568064E-2   -1.748418261857835E-2   -4.281433882828502E-2    4.648727503513904E-1   -2.254470712348136E-1
 6.529635375650000E9     5.477340282694046E-1   -1.158412282432786E-1   -1.671682049776600E-2   -4.338105478161976E-2   -1.770067258865016E-2   -4.301205739489643E-2    4.643402918674795E-1   -2.265731260898139E-1
 6.529646213375000E9     5.477115152381515E-1   -1.167306160498547E-1   -1.696597271271596E-2   -4.364343758383338E-2   -1.795568578305533E-2   -4.336126958034141E-2    4.635513087116158E-1   -2.278240637912049E-1
 6.529657051100000E9     5.474825563729401E-1   -1.176079739728810E-1   -1.719407569986127E-2   -4.408133545618047E-2   -1.813332359911409E-2   -4.364230239421810E-2    4.629800909823295E-1   -2.288670492423018E-1
 6.529667888825000E9     5.471522448332603E-1   -1.186530215475107E-1   -1.730744503691811E-2   -4.419516480127707E-2   -1.847616204024124E-2   -4.397165533584027E-2    4.620097083883029E-1   -2.301707855433911E-1
 6.529678726550000E9     5.469734869096674E-1   -1.195611108390631E-1   -1.761776335711689E-2   -4.462741289046228E-2   -1.861336244073161E-2   -4.437509997474315E-2    4.613643223329701E-1   -2.313223132563105E-1
 6.529689564275000E9     5.467296881366798E-1   -1.205841553186938E-1   -1.803083071141381E-2   -4.481219311570786E-2   -1.900914911573605E-2   -4.453262791829738E-2    4.607181555872769E-1   -2.324432419392859E-1
 6.529700402000000E9     5.463437064491162E-1   -1.214969458451803E-1   -1.814450671422871E-2   -4.513508996260466E-2   -1.931138136144870E-2   -4.487190697376438E-2    4.600218286937119E-1   -2.336310538103386E-1
 6.529711239725000E9     5.460918750984057E-1   -1.224573616708425E-1   -1.845894043591652E-2   -4.558800853971901E-2   -1.952956353803234E-2   -4.520504543223144E-2    4.591848954423387E-1   -2.348333501664225E-1
 6.529722077450000E9     5.458003121913236E-1   -1.232941733782087E-1   -1.880919926359386E-2   -4.580617759340391E-2   -1.978887350136705E-2   -4.546242407782607E-2    4.585157674289671E-1   -2.361057218082321E-1
 6.529732915175000E9     5.456338035447188E-1   -1.243353773649704E-1   -1.902269148712224E-2   -4.626383976737703E-2   -2.004998579052257E-2   -4.576848053363897E-2    4.576704837571369E-1   -2.373231888220333E-1
 6.529743752900000E9     5.452657517149393E-1   -1.253010825735007E-1   -1.941913650936591E-2   -4.650111000697948E-2   -2.037833804040342E-2   -4.618796367068052E-2    4.569085941873364E-1   -2.383656391180109E-1
 6.529754590625000E9     5.451055899696364E-1   -1.262988191343437E-1   -1.969736494149294E-2   -4.672914672718485E-2   -2.065469220629065E-2   -4.644873947854693E-2    4.560412486144103E-1   -2.397198947929482E-1
 6.529765428350000E9     5.445589531030696E-1   -1.274045340247775E-1   -1.989582875391841E-2   -4.713839176374755E-2   -2.097892114332137E-2   -4.674497015772128E-2    4.553383789760626E-1   -2.409187789065051E-1
 6.529776266075000E9     5.444434905045205E-1   -1.284309652183880E-1   -2.028587422575681E-2   -4.741378481200733E-2   -2.136471145041763E-2   -4.721592735932784E-2    4.544934957259020E-1   -2.420733067688728E-1
 6.529787103800000E9     5.441248598602902E-1   -1.294143061966826E-1   -2.056573862061496E-2   -4.792982481362486E-2   -2.167350477650387E-2   -4.746285157558298E-2    4.536844997610013E-1   -2.433906226598294E-1
 6.529797941525000E9     5.437685291557867E-1   -1.302203486747649E-1   -2.091092561232302E-2   -4.828380543298273E-2   -2.200508661885744E-2   -4.781132991091032E-2    4.529274471966925E-1   -2.445526618027248E-1
 6.529808779250000E9     5.434713264987789E-1   -1.312878192507129E-1   -2.117868734507842E-2   -4.850859480103024E-2   -2.233527838066000E-2   -4.819817444280024E-2    4.520094232142902E-1   -2.458336161841000E-1
