#  HZ   S   RI   R     50.00 
! Rohde & Schwarz Vector Network Analyzer 
! Rohde-Schwarz,ZNB20-2Port,1311601062101988,3.16
! Created: UTC 3/21/2024, 1:08:39 AM
! freq[Hz]                re:S11                  im:S11                  re:S21                  im:S21                  re:S12                  im:S12                  re:S22                  im:S22
 6.528861705000000E9     5.588660604984200E-1   -5.114721023024728E-2   -6.278549082068488E-3   -2.921524183247689E-2   -7.034125107204485E-3   -2.925083275570158E-2    4.970190121694844E-1   -1.540686311974431E-1
 6.528872477650000E9     5.588074096028731E-1   -5.207578091672531E-2   -6.430041449750419E-3   -2.933784302273190E-2   -7.103660360404165E-3   -2.927851749452842E-2    4.967229697424199E-1   -1.548163286973537E-1
 6.528883250300000E9     5.586335501801131E-1   -5.300824126124869E-2   -6.575564096480356E-3   -2.955012150751582E-2   -7.093845762976269E-3   -2.942985535333408E-2    4.963667973777928E-1   -1.558285131835145E-1
 6.528894022950000E9     5.587243056567154E-1   -5.384004138672846E-2   -6.680780721687408E-3   -2.968257248835082E-2   -7.199516191043539E-3   -2.953702435011205E-2    4.960455178088236E-1   -1.567989745223872E-1
 6.528904795600000E9     5.584172871802048E-1   -5.470044850209543E-2   -6.559891713911462E-3   -2.976926795820023E-2   -7.364878648925443E-3   -2.964488210037158E-2    4.958454545767572E-1   -1.575643076916252E-1
 6.528915568250000E9     5.585023574465717E-1   -5.556318322436576E-2   -6.891411095702396E-3   -2.981435272215786E-2   -7.440872927997408E-3   -2.989230751515340E-2    4.953561210598500E-1   -1.587166918653639E-1
 6.528926340900000E9     5.584106292547654E-1   -5.636219340565953E-2   -6.875416377175382E-3   -3.002927537764121E-2   -7.574386740619852E-3   -2.991272079290866E-2    4.951367244969740E-1   -1.594216077130077E-1
 6.528937113550000E9     5.582942037108370E-1   -5.721526463310923E-2   -7.014935895209072E-3   -3.020316847808378E-2   -7.539992229373875E-3   -3.013493269954327E-2    4.947382254509871E-1   -1.603595109240678E-1
 6.528947886200000E9     5.581375004111457E-1   -5.806589818022254E-2   -7.081769038844874E-3   -3.034553237943713E-2   -7.676529708646546E-3   -3.019949800691765E-2    4.944398499990099E-1   -1.614112079668722E-1
 6.528958658850000E9     5.580685138543344E-1   -5.897521163233041E-2   -7.213844235660930E-3   -3.049489353533686E-2   -7.773650986229167E-3   -3.032436135928697E-2    4.940760210958377E-1   -1.621523283294079E-1
 6.528969431500000E9     5.579548482624587E-1   -5.986238336842658E-2   -7.272204201557157E-3   -3.058081688820602E-2   -7.784424369936906E-3   -3.053474854087882E-2    4.938239213949107E-1   -1.630310824278091E-1
 6.528980204150000E9     5.579023063929570E-1   -6.064035533073135E-2   -7.404545708076801E-3   -3.065183368064514E-2   -7.945464343417313E-3   -3.070359915696383E-2    4.935202002575180E-1   -1.641515344322836E-1
 6.528990976800000E9     5.577755342067121E-1   -6.160169376644527E-2   -7.406630391298832E-3   -3.081144682354914E-2   -8.141517397975364E-3   -3.073328014682293E-2    4.932262465247712E-1   -1.649757766405031E-1
 6.529001749450000E9     5.576355783426941E-1   -6.238159256357422E-2   -7.672778530975585E-3   -3.105265967047547E-2   -8.233741179734281E-3   -3.087362745348208E-2    4.928301508695548E-1   -1.658981388393439E-1
 6.529012522100000E9     5.575142470708174E-1   -6.330919370886617E-2   -7.746237138564064E-3   -3.125171246310177E-2   -8.330931986868304E-3   -3.105860518290332E-2    4.923265553572402E-1   -1.667955075893682E-1
 6.529023294750000E9     5.575311802743231E-1   -6.416527075895090E-2   -7.876838994324493E-3   -3.145110612304559E-2   -8.332771169393027E-3   -3.130546037432375E-2    4.921789571238724E-1   -1.677863916348624E-1
 6.529034067400000E9     5.573186608084630E-1   -6.514289845105385E-2   -7.805633239918326E-3   -3.143949533257694E-2   -8.491535498036801E-3   -3.136247202085515E-2    4.918263026397070E-1   -1.687327203223102E-1
 6.529044840050000E9     5.571311878686259E-1   -6.587953919631646E-2   -7.913306394797677E-3   -3.173285387428930E-2   -8.572332521387678E-3   -3.146529865877273E-2    4.914680512129749E-1   -1.696396723095505E-1
 6.529055612700000E9     5.570841437307852E-1   -6.668249520976077E-2   -8.026681102637764E-3   -3.170004939261526E-2   -8.649234068348275E-3   -3.158852822877754E-2    4.910569598279603E-1   -1.706191226981798E-1
 6.529066385350000E9     5.570170129638347E-1   -6.751288688248241E-2   -8.116746552643212E-3   -3.196706685709194E-2   -8.939065793821720E-3   -3.190713539219612E-2    4.906986036104273E-1   -1.716190070250501E-1
 6.529077158000000E9     5.568163734468383E-1   -6.846145571124101E-2   -8.201379108620746E-3   -3.222693349428172E-2   -8.918354190761178E-3   -3.192713932516793E-2    4.901390044750619E-1   -1.724847997084195E-1
 6.529087930650000E9     5.568454932043192E-1   -6.927251858314375E-2   -8.339596314996702E-3   -3.209791903049727E-2   -9.020676320456854E-3   -3.215027042550730E-2    4.897964314352671E-1   -1.735221414212123E-1
 6.529098703300000E9     5.566300256596319E-1   -7.020742693096439E-2   -8.430672108692425E-3   -3.247137197527025E-2   -9.138998280772300E-3   -3.231988917345287E-2    4.894799063817564E-1   -1.743634184661717E-1
 6.529109475950000E9     5.564630696299682E-1   -7.109897136078468E-2   -8.617523911982049E-3   -3.255671849299826E-2   -9.168260110868557E-3   -3.250344462921680E-2    4.891476458271090E-1   -1.753173200877523E-1
 6.529120248600000E9     5.564455563270039E-1   -7.197038569789789E-2   -8.774127404627538E-3   -3.268498776395821E-2   -9.335146119734230E-3   -3.262034878687761E-2    4.886342631689772E-1   -1.762585632557162E-1
 6.529131021250000E9     5.563833474740886E-1   -7.284898795027615E-2   -8.675516170792782E-3   -3.303118103323023E-2   -9.527729265356772E-3   -3.276328862435900E-2    4.883466203086293E-1   -1.772146211525779E-1
 6.529141793900000E9     5.561372560774560E-1   -7.373226791480908E-2   -8.978763384565514E-3   -3.312786188597113E-2   -9.573479475277757E-3   -3.287734680153728E-2    4.879255992994843E-1   -1.782354612234005E-1
 6.529152566550000E9     5.559848206707177E-1   -7.465504247997709E-2   -9.050793941572977E-3   -3.337004591170871E-2   -9.792554277499916E-3   -3.305038517169597E-2    4.874971898690677E-1   -1.791345022450598E-1
 6.529163339200000E9     5.558882497510034E-1   -7.547173652319011E-2   -9.131401227237395E-3   -3.330937355809861E-2   -9.805482656408458E-3   -3.323234281649414E-2    4.871796598531523E-1   -1.800134297595487E-1
 6.529174111850000E9     5.557689075016574E-1   -7.640064628238698E-2   -9.341078319663583E-3   -3.358887384880773E-2   -9.840799028979169E-3   -3.342926238068281E-2    4.868384671775375E-1   -1.810570437453100E-1
 6.529184884500000E9     5.555226859571414E-1   -7.733985926725474E-2   -9.399165611374346E-3   -3.373685678386704E-2   -1.007398867443399E-2   -3.358569400379669E-2    4.864357930501195E-1   -1.819723157593697E-1
 6.529195657150000E9     5.554932113802378E-1   -7.819264220861880E-2   -9.619876435982338E-3   -3.379621061228253E-2   -1.020709878162413E-2   -3.373813812158400E-2    4.858354900411697E-1   -1.829007989196908E-1
 6.529206429800000E9     5.553455478293668E-1   -7.910336412743661E-2   -9.603427071906510E-3   -3.411260690833307E-2   -1.031994086685900E-2   -3.409797476580826E-2    4.854611276263041E-1   -1.838460062949873E-1
 6.529217202450000E9     5.553120903928164E-1   -7.993842509835214E-2   -9.828955175546873E-3   -3.424882235269359E-2   -1.051933280000174E-2   -3.403650932636630E-2    4.851848844784284E-1   -1.849181722878883E-1
 6.529227975100000E9     5.551954242167182E-1   -8.073062110173908E-2   -9.921064525096791E-3   -3.435222329789400E-2   -1.063778612566986E-2   -3.434108436400531E-2    4.846894047117363E-1   -1.859359422210687E-1
 6.529238747750000E9     5.550184175338970E-1   -8.161702323403033E-2   -1.002865498243870E-2   -3.469213551796357E-2   -1.085614080423837E-2   -3.444420335655433E-2    4.842435266739953E-1   -1.869485327875858E-1
 6.529249520400000E9     5.547661007583141E-1   -8.249405013987546E-2   -1.019761136871837E-2   -3.486021519287227E-2   -1.099113943460520E-2   -3.458614163689052E-2    4.838533666732938E-1   -1.878598745539717E-1
 6.529260293050000E9     5.546981820736376E-1   -8.339266993435540E-2   -1.029890749056624E-2   -3.511336493407999E-2   -1.094824467029242E-2   -3.478585128855940E-2    4.834370465073473E-1   -1.890134626141845E-1
 6.529271065700000E9     5.545366060042476E-1   -8.430260753243128E-2   -1.034736638683239E-2   -3.517520207358942E-2   -1.114265036342390E-2   -3.498878156751931E-2    4.829286287214457E-1   -1.898515084156670E-1
 6.529281838350000E9     5.544759918811452E-1   -8.528635979952369E-2   -1.055445699160267E-2   -3.537119311991106E-2   -1.131456256929405E-2   -3.511662718305973E-2    4.826753550678398E-1   -1.908512563297924E-1
 6.529292611000000E9     5.542438879456512E-1   -8.613878818313675E-2   -1.075070862480618E-2   -3.558872692614228E-2   -1.157717325641437E-2   -3.544011752043693E-2    4.820395312358884E-1   -1.918244710352824E-1
 6.529303383650000E9     5.542185113707728E-1   -8.701125249781237E-2   -1.082073364317290E-2   -3.572795801511952E-2   -1.153069498829278E-2   -3.552191891208090E-2    4.816024279487686E-1   -1.928296970179353E-1
 6.529314156300000E9     5.538255204506592E-1   -8.791509915186943E-2   -1.096337723420210E-2   -3.605905395283004E-2   -1.172862330821057E-2   -3.573458954230847E-2    4.811209025942487E-1   -1.939436353045104E-1
 6.529324928950000E9     5.537608381973378E-1   -8.886006452111589E-2   -1.116106857824540E-2   -3.606654805064383E-2   -1.191901266530958E-2   -3.598567347513280E-2    4.806176123046909E-1   -1.948006310100164E-1
 6.529335701600000E9     5.535550892358929E-1   -8.970618422594473E-2   -1.128826280832212E-2   -3.634495166771586E-2   -1.208335758283088E-2   -3.617179244474902E-2    4.802060691503728E-1   -1.959741280118400E-1
 6.529346474250000E9     5.535228372744484E-1   -9.062324325635279E-2   -1.143226088860365E-2   -3.653987964781900E-2   -1.226084444031776E-2   -3.633084079326974E-2    4.795967200074216E-1   -1.968551968746719E-1
 6.529357246900000E9     5.532519692955568E-1   -9.146006839949954E-2   -1.154063483667829E-2   -3.660389694105114E-2   -1.232044400178904E-2   -3.653907789184442E-2    4.791287891132772E-1   -1.979254300015390E-1
 6.529368019550000E9     5.530560170456373E-1   -9.239039099972149E-2   -1.180600587970425E-2   -3.707025208063303E-2   -1.248592710839611E-2   -3.679699861989947E-2    4.787123410472672E-1   -1.990347867062493E-1
 6.529378792200000E9     5.528840460815893E-1   -9.319092416822501E-2   -1.187562657746072E-2   -3.717255669435130E-2   -1.268823520003761E-2   -3.687469853807924E-2    4.784718054377217E-1   -1.998176628243013E-1
 6.529389564850000E9     5.526966253799529E-1   -9.402732102762948E-2   -1.205023870109027E-2   -3.743933336241217E-2   -1.291301621364897E-2   -3.719680385838578E-2    4.776109111065966E-1   -2.011236677520166E-1
 6.529400337500000E9     5.525753519067589E-1   -9.509169289835157E-2   -1.215107531427330E-2   -3.763479718246169E-2   -1.306286869524292E-2   -3.739588707627054E-2    4.773120304761563E-1   -2.019873877261564E-1
 6.529411110150000E9     5.524075493683824E-1   -9.592759418373280E-2   -1.228806692560873E-2   -3.771019901397935E-2   -1.314469100728351E-2   -3.765050944562239E-2    4.767907214515406E-1   -2.030823177454227E-1
 6.529421882800000E9     5.522459455615233E-1   -9.683348281512560E-2   -1.246188859220816E-2   -3.796446026913040E-2   -1.335214922345285E-2   -3.782081257133733E-2    4.761434309031692E-1   -2.041295312558400E-1
 6.529432655450000E9     5.520041444936843E-1   -9.771506662999217E-2   -1.272406636633063E-2   -3.824384680819258E-2   -1.352713724088568E-2   -3.805093308558229E-2    4.757927437813068E-1   -2.052792412551668E-1
 6.529443428100000E9     5.517900389068067E-1   -9.868088309450128E-2   -1.282581635963224E-2   -3.855747267739876E-2   -1.372290886804433E-2   -3.831739677636915E-2    4.752374254763663E-1   -2.060892860057981E-1
 6.529454200750000E9     5.516126762710022E-1   -9.971822544854199E-2   -1.304392593136594E-2   -3.869871358845513E-2   -1.382310105204401E-2   -3.855823386615674E-2    4.746493677268370E-1   -2.072022568726125E-1
 6.529464973400000E9     5.514971584300343E-1   -1.005200359336874E-1   -1.342516252266549E-2   -3.902378358943814E-2   -1.401394820472406E-2   -3.864782135284340E-2    4.741073570254415E-1   -2.082598612726873E-1
 6.529475746050000E9     5.513604766299569E-1   -1.014662758384670E-1   -1.343678976511700E-2   -3.920264771534050E-2   -1.431735725890000E-2   -3.898412761138130E-2    4.735167533242269E-1   -2.092821523931235E-1
 6.529486518700000E9     5.509265705129752E-1   -1.023734938782012E-1   -1.360184375552770E-2   -3.955005262054951E-2   -1.456936085492629E-2   -3.916367041466287E-2    4.730245383982795E-1   -2.104544805291230E-1
 6.529497291350000E9     5.509193108021345E-1   -1.032513996427944E-1   -1.357146886370329E-2   -3.967590911294471E-2   -1.457235429091155E-2   -3.937795337217211E-2    4.725966728578281E-1   -2.114180341740680E-1
 6.529508064000000E9     5.506563197618358E-1   -1.040678774922485E-1   -1.389714501602198E-2   -3.986493318252711E-2   -1.474091742869815E-2   -3.965687744983934E-2    4.720528504629390E-1   -2.126157554096091E-1
 6.529518836650000E9     5.503790003060915E-1   -1.051124501470059E-1   -1.411736114930333E-2   -4.004627012188519E-2   -1.508587767519834E-2   -3.996021014535878E-2    4.713948998466320E-1   -2.135416499050976E-1
 6.529529609300000E9     5.502932874217981E-1   -1.060304769804229E-1   -1.427207473905891E-2   -4.018922473853497E-2   -1.517360622096917E-2   -4.010606027747727E-2    4.707798180034249E-1   -2.146247037336816E-1
 6.529540381950000E9     5.500986966945441E-1   -1.071142981777596E-1   -1.454617451620835E-2   -4.061273534761338E-2   -1.541455269504571E-2   -4.044772851069384E-2    4.701774795621431E-1   -2.157746723950934E-1
 6.529551154600000E9     5.498644038127355E-1   -1.079310161639067E-1   -1.477998599497372E-2   -4.084352828486492E-2   -1.567615408575419E-2   -4.062267297331604E-2    4.695913455884744E-1   -2.169469451078063E-1
 6.529561927250000E9     5.496433497186981E-1   -1.089299309140725E-1   -1.491743111503026E-2   -4.111252534282445E-2   -1.582364217709500E-2   -4.085860404434440E-2    4.688984660430491E-1   -2.180411987554485E-1
 6.529572699900000E9     5.494597933063490E-1   -1.098420559091274E-1   -1.500952007923177E-2   -4.150911838496711E-2   -1.600565878828213E-2   -4.126035304866536E-2    4.682702954729874E-1   -2.191168618050392E-1
 6.529583472550000E9     5.491391763840575E-1   -1.106462549873750E-1   -1.543948907786067E-2   -4.158724621301183E-2   -1.627978948622596E-2   -4.128504831530160E-2    4.676923994350737E-1   -2.201682298744535E-1
 6.529594245200000E9     5.489445773814169E-1   -1.115534605746686E-1   -1.559005502978205E-2   -4.198759515198267E-2   -1.646462229676999E-2   -4.169193583595374E-2    4.670787180296009E-1   -2.212877543563365E-1
 6.529605017850000E9     5.487155322328411E-1   -1.125546007269129E-1   -1.590405390654680E-2   -4.226030140594972E-2   -1.669543418570339E-2   -4.193586179560430E-2    4.664331589413558E-1   -2.223152457729805E-1
 6.529615790500000E9     5.484517093510706E-1   -1.135107478409134E-1   -1.590011445763357E-2   -4.260384650351352E-2   -1.685067770406450E-2   -4.221374789466645E-2    4.659106156779487E-1   -2.233766959953220E-1
 6.529626563150000E9     5.483037708050406E-1   -1.144955530961190E-1   -1.631962254601705E-2   -4.289541511823869E-2   -1.723153594888243E-2   -4.245140985918541E-2    4.651984863423840E-1   -2.245885403840935E-1
 6.529637335800000E9     5.479899145555756E-1   -1.154226561896315E-1   -1.665677337403670E-2   -4.315836788063322E-2   -1.735924958810262E-2   -4.273907654151205E-2    4.646025013870684E-1   -2.259388894021588E-1
 6.529648108450000E9     5.476550009727250E-1   -1.162173687413811E-1   -1.675223446343882E-2   -4.321352268008008E-2   -1.766991115932270E-2   -4.296060214307436E-2    4.638276228088409E-1   -2.269414432688951E-1
 6.529658881100000E9     5.474342963901964E-1   -1.173078701893306E-1   -1.694687433162020E-2   -4.380635952245589E-2   -1.789521511530770E-2   -4.333323282217739E-2    4.630886352209973E-1   -2.281121464874606E-1
 6.529669653750000E9     5.472317075722868E-1   -1.182609013592300E-1   -1.716631283635421E-2   -4.393042496423823E-2   -1.802681317071293E-2   -4.360551705603854E-2    4.624564903355750E-1   -2.291553105418576E-1
 6.529680426400000E9     5.470218001010875E-1   -1.192043065798337E-1   -1.755101995258895E-2   -4.415970462631189E-2   -1.836249038892362E-2   -4.388659292576230E-2    4.616590966155193E-1   -2.304287702260224E-1
 6.529691199050000E9     5.467628317077770E-1   -1.200872269648949E-1   -1.770825723362450E-2   -4.436086344787871E-2   -1.876639474325858E-2   -4.414007360240096E-2    4.611461552506250E-1   -2.314285012543931E-1
 6.529701971700000E9     5.465951141122952E-1   -1.209617990553114E-1   -1.786402120407117E-2   -4.477026926220658E-2   -1.901013415254359E-2   -4.453229865385864E-2    4.604849466186703E-1   -2.327025972095830E-1
 6.529712744350000E9     5.462212994804556E-1   -1.220542514446855E-1   -1.818670039090985E-2   -4.516807315723231E-2   -1.921331460696572E-2   -4.478239060202138E-2    4.596432376268522E-1   -2.339013735595130E-1
 6.529723517000000E9     5.459809152834250E-1   -1.229358831295623E-1   -1.840327560046718E-2   -4.546553549848927E-2   -1.939728371643490E-2   -4.501796791442746E-2    4.590024025372666E-1   -2.351537087117210E-1
 6.529734289650000E9     5.456670561078178E-1   -1.239552827758461E-1   -1.873281656743381E-2   -4.580494975749267E-2   -1.972168098603843E-2   -4.545741897402729E-2    4.581684256308128E-1   -2.361321045491734E-1
 6.529745062300000E9     5.454368320207339E-1   -1.250384008726125E-1   -1.903300795832671E-2   -4.609061327251125E-2   -2.002113134314277E-2   -4.581618105776290E-2    4.574441942066289E-1   -2.374228345570591E-1
 6.529755834950000E9     5.453109500795696E-1   -1.258550089592705E-1   -1.923308775787801E-2   -4.641737030548602E-2   -2.042065429491080E-2   -4.607902019311175E-2    4.566585086517995E-1   -2.386653715075174E-1
 6.529766607600000E9     5.447645033062036E-1   -1.269513076515351E-1   -1.949164775778956E-2   -4.681016219016120E-2   -2.067839202089369E-2   -4.641676411717943E-2    4.558400249153582E-1   -2.397643940816180E-1
 6.529777380250000E9     5.445708477418499E-1   -1.280420367299111E-1   -1.981954511718920E-2   -4.703595869942084E-2   -2.100301729318809E-2   -4.662699500908759E-2    4.552663283394064E-1   -2.411584058958761E-1
 6.529788152900000E9     5.443063265518195E-1   -1.287987381785204E-1   -2.021824509938570E-2   -4.739762719867890E-2   -2.122528489271584E-2   -4.697599840660131E-2    4.541786609382856E-1   -2.423582773134102E-1
 6.529798925550000E9     5.440175566285322E-1   -1.298839260644149E-1   -2.047122069584495E-2   -4.769275290827372E-2   -2.164455881685283E-2   -4.734112046363335E-2    4.534244348331186E-1   -2.435299556622699E-1
 6.529809698200000E9     5.437415432292749E-1   -1.308059641014476E-1   -2.070022374857543E-2   -4.799616897800292E-2   -2.182794541840135E-2   -4.765680490055722E-2    4.525858721926208E-1   -2.447656500455603E-1
 6.529820470850000E9     5.434503653333259E-1   -1.317652566591883E-1   -2.111192100114677E-2   -4.852953683172774E-2   -2.219876386775944E-2   -4.799067121796177E-2    4.516730468056435E-1   -2.459884847227483E-1
 6.529831243500000E9     5.431324996609616E-1   -1.328068613828497E-1   -2.149024019813999E-2   -4.870265323689515E-2   -2.267075477794653E-2   -4.835171923754601E-2    4.509528617980825E-1   -2.472378451527856E-1
