#  HZ   S   RI   R     50.00 
! Rohde & Schwarz Vector Network Analyzer 
! Rohde-Schwarz,ZNB20-2Port,1311601062101988,3.16
! Created: UTC 3/21/2024, 1:08:51 AM
! freq[Hz]                re:S11                  im:S11                  re:S21                  im:S21                  re:S12                  im:S12                  re:S22                  im:S22
 6.528872674000000E9     5.586915561118578E-1   -5.199806528851671E-2   -6.421462866607578E-3   -2.917151345499907E-2   -6.990909521581213E-3   -2.919515105753679E-2    4.967385418608301E-1   -1.547554937860387E-1
 6.528883426925000E9     5.587130426375785E-1   -5.277305313270995E-2   -6.530518176585976E-3   -2.948578116828708E-2   -7.121286865872846E-3   -2.934976878147527E-2    4.965203144130244E-1   -1.558337300016438E-1
 6.528894179850000E9     5.586837489347278E-1   -5.366095974449364E-2   -6.631747677817906E-3   -2.948876373124792E-2   -7.143914384067983E-3   -2.943083441263864E-2    4.962227826864187E-1   -1.566519949711753E-1
 6.528904932775000E9     5.584982149764263E-1   -5.448277649312560E-2   -6.652436444215139E-3   -2.956899892966385E-2   -7.242875916513387E-3   -2.971323428180798E-2    4.958121182408988E-1   -1.575582011555737E-1
 6.528915685700000E9     5.584516843584145E-1   -5.535538213190099E-2   -6.790800006313011E-3   -2.984440800664026E-2   -7.338998940270755E-3   -2.964336921787832E-2    4.956221697450099E-1   -1.584615516968618E-1
 6.528926438625000E9     5.583512998597019E-1   -5.616386570687244E-2   -6.812700625930555E-3   -3.002958192416320E-2   -7.457306209711873E-3   -2.982862547557538E-2    4.952726248651638E-1   -1.591683004191794E-1
 6.528937191550000E9     5.582278199572597E-1   -5.700707122630742E-2   -6.865862316568777E-3   -3.017708638128250E-2   -7.536783370357077E-3   -3.013261869342182E-2    4.948253036519644E-1   -1.604021551803304E-1
 6.528947944475000E9     5.581258146015333E-1   -5.787316951071089E-2   -7.087864912090424E-3   -3.025587907110942E-2   -7.618637502246782E-3   -3.015776186693935E-2    4.946605689136714E-1   -1.612551821970005E-1
 6.528958697400000E9     5.581775670874894E-1   -5.874347728625776E-2   -7.143481399759365E-3   -3.043403509307754E-2   -7.832834339000332E-3   -3.033030592499238E-2    4.942191631064261E-1   -1.620287198352496E-1
 6.528969450325000E9     5.579810684674520E-1   -5.961407201456800E-2   -7.197790152161582E-3   -3.044038063474811E-2   -7.858424706067816E-3   -3.037502737497290E-2    4.939374652220191E-1   -1.630674936981233E-1
 6.528980203250000E9     5.579093766637354E-1   -6.052918302840726E-2   -7.414034955758861E-3   -3.056479239365734E-2   -7.971345442558782E-3   -3.065022563234556E-2    4.935151556830668E-1   -1.638980930791220E-1
 6.528990956175000E9     5.577594373641400E-1   -6.131454320319922E-2   -7.398712399464954E-3   -3.090834071634913E-2   -8.032972576961520E-3   -3.071119062838193E-2    4.932701957543721E-1   -1.648518186417197E-1
 6.529001709100000E9     5.575753996266239E-1   -6.222540853274102E-2   -7.425999049296706E-3   -3.078464269590230E-2   -8.233549883890174E-3   -3.075049866973208E-2    4.929006432133330E-1   -1.657456829896218E-1
 6.529012462025000E9     5.575175154996399E-1   -6.304894179011654E-2   -7.566857405136775E-3   -3.122440087844787E-2   -8.168611993528724E-3   -3.100004410436314E-2    4.926584943386052E-1   -1.665361064403137E-1
 6.529023214950000E9     5.574568071414528E-1   -6.399672637877767E-2   -7.753864747426432E-3   -3.135542252808789E-2   -8.272397314028616E-3   -3.113874468387808E-2    4.921853455785372E-1   -1.675574835945011E-1
 6.529033967875000E9     5.573821230584441E-1   -6.480450574716605E-2   -7.750386273088655E-3   -3.125259683088993E-2   -8.404749714422071E-3   -3.135689205645629E-2    4.919826537986249E-1   -1.684376994441910E-1
 6.529044720800000E9     5.571456966029282E-1   -6.571717765243841E-2   -7.925977213292747E-3   -3.140940449207837E-2   -8.592501851795685E-3   -3.134502479695934E-2    4.915797998545663E-1   -1.694537242709939E-1
 6.529055473725000E9     5.571517810758352E-1   -6.657663552410320E-2   -7.937534274180175E-3   -3.164988963820442E-2   -8.661626179118191E-3   -3.156138518359717E-2    4.910793582364071E-1   -1.704474850636409E-1
 6.529066226650000E9     5.570585743163572E-1   -6.754343450325635E-2   -7.985674103438544E-3   -3.194878994987122E-2   -8.679778958544484E-3   -3.168440524161902E-2    4.907665088921773E-1   -1.713680474916948E-1
 6.529076979575000E9     5.567946400762099E-1   -6.829201642118019E-2   -8.262881968033242E-3   -3.200726974120800E-2   -8.850783347445931E-3   -3.189543492495285E-2    4.904772994607726E-1   -1.723046605605182E-1
 6.529087732500000E9     5.568726454289735E-1   -6.920973043461975E-2   -8.370806653250077E-3   -3.205856477419863E-2   -8.948153299684685E-3   -3.209008270219638E-2    4.900917479306243E-1   -1.733717617141266E-1
 6.529098485425000E9     5.567397813867215E-1   -7.009987450595617E-2   -8.404324282359196E-3   -3.236958672535675E-2   -9.021887199577699E-3   -3.217533193856757E-2    4.896298858549401E-1   -1.740973450631270E-1
 6.529109238350000E9     5.565403288214127E-1   -7.099815141058040E-2   -8.606801375106748E-3   -3.242942404319582E-2   -9.253525320474500E-3   -3.233833790505598E-2    4.894018632608899E-1   -1.751011804917669E-1
 6.529119991275000E9     5.564462369590704E-1   -7.176164409637768E-2   -8.608354290808039E-3   -3.278429359216090E-2   -9.265060736156357E-3   -3.246441908785191E-2    4.888263071133357E-1   -1.759371980382799E-1
 6.529130744200000E9     5.563215177927189E-1   -7.248298226808747E-2   -8.739255411135698E-3   -3.290242175056213E-2   -9.461807658920521E-3   -3.254242169139788E-2    4.886697937997710E-1   -1.770293572220749E-1
 6.529141497125000E9     5.562283685915913E-1   -7.344972170869224E-2   -8.900336948575943E-3   -3.278386094536549E-2   -9.564820786917850E-3   -3.276218864842798E-2    4.882676407142282E-1   -1.779958712432096E-1
 6.529152250050000E9     5.559891150893225E-1   -7.439415776384940E-2   -8.925832056514064E-3   -3.310082459795554E-2   -9.530635302241153E-3   -3.292721728719735E-2    4.877160613266737E-1   -1.789955346976300E-1
 6.529163002975000E9     5.559585095661332E-1   -7.519240097907319E-2   -9.158166707246495E-3   -3.333102900370408E-2   -9.821799580073041E-3   -3.319996190668872E-2    4.873394036961120E-1   -1.800141593652403E-1
 6.529173755900000E9     5.558490884535239E-1   -7.610263104314545E-2   -9.142501946677234E-3   -3.345209640402847E-2   -9.915235899153526E-3   -3.333119026044800E-2    4.870643146072461E-1   -1.807578551357424E-1
 6.529184508825000E9     5.556064455262388E-1   -7.711723682028875E-2   -9.385669542636463E-3   -3.357388913364748E-2   -1.008734433385799E-2   -3.344715213602095E-2    4.866811700327438E-1   -1.819049349250383E-1
 6.529195261750000E9     5.555288664618696E-1   -7.791243386200250E-2   -9.532078537786391E-3   -3.383024163191058E-2   -1.014300624503214E-2   -3.368341836632915E-2    4.860651567641665E-1   -1.828216666719169E-1
 6.529206014675000E9     5.553215475088645E-1   -7.868023123732151E-2   -9.738290207048653E-3   -3.403754565114284E-2   -1.014900819715671E-2   -3.376141327340899E-2    4.858023245687674E-1   -1.837751010066275E-1
 6.529216767600000E9     5.551702760036211E-1   -7.974803290797183E-2   -9.704978149152653E-3   -3.415409552601702E-2   -1.046057997323945E-2   -3.406690001810875E-2    4.851978961833575E-1   -1.847136158825171E-1
 6.529227520525000E9     5.551538224941660E-1   -8.054817456090811E-2   -9.802998673914126E-3   -3.440967929656084E-2   -1.054890614950122E-2   -3.414944529853668E-2    4.849812272668138E-1   -1.857601562974774E-1
 6.529238273450000E9     5.551333674409026E-1   -8.137597769475040E-2   -9.906087368173859E-3   -3.457734546770605E-2   -1.070680204111746E-2   -3.423774254664563E-2    4.844385459973075E-1   -1.866787107544173E-1
 6.529249026375000E9     5.547986302132252E-1   -8.229252173536267E-2   -1.013289827775000E-2   -3.482095939612701E-2   -1.085611221691839E-2   -3.453223004458052E-2    4.841497497238760E-1   -1.876656408344123E-1
 6.529259779300000E9     5.547484628463871E-1   -8.323690624866906E-2   -1.017902326301374E-2   -3.494596898490913E-2   -1.101342583833623E-2   -3.464968986843833E-2    4.836015373383222E-1   -1.886307752840402E-1
 6.529270532225000E9     5.545298006154218E-1   -8.398922656306812E-2   -1.047179465671826E-2   -3.504793399871136E-2   -1.109492627995791E-2   -3.487450473026386E-2    4.832171386961499E-1   -1.897184421460223E-1
 6.529281285150000E9     5.545282582000644E-1   -8.497522922289356E-2   -1.046409155212641E-2   -3.517655920662820E-2   -1.117780206027651E-2   -3.516737534503169E-2    4.825545804891496E-1   -1.905515705854447E-1
 6.529292038075000E9     5.543034931442116E-1   -8.588053014952388E-2   -1.063784781621740E-2   -3.553699193875959E-2   -1.132792425391724E-2   -3.528783188291273E-2    4.822663362341256E-1   -1.915778344917744E-1
 6.529302791000000E9     5.540458816227012E-1   -8.673538637853780E-2   -1.075378029140978E-2   -3.566436193998265E-2   -1.156780754919399E-2   -3.551802864956413E-2    4.817237606447525E-1   -1.927568626151393E-1
 6.529313543925000E9     5.539459130025572E-1   -8.759281441697477E-2   -1.084307197277933E-2   -3.597449374412183E-2   -1.167884379072461E-2   -3.570584795084939E-2    4.814346174504968E-1   -1.936695666738638E-1
 6.529324296850000E9     5.537876481708838E-1   -8.845800377284348E-2   -1.105875490556943E-2   -3.606131329166852E-2   -1.179164872178978E-2   -3.585623565310684E-2    4.808485204445460E-1   -1.946221566098630E-1
 6.529335049775000E9     5.535599134978533E-1   -8.939458726871080E-2   -1.120858419185127E-2   -3.616594266880573E-2   -1.190708274682246E-2   -3.611425371971044E-2    4.805354744732731E-1   -1.956198323280466E-1
 6.529345802700000E9     5.534933761013270E-1   -9.028445007061904E-2   -1.133273418238347E-2   -3.641835245721618E-2   -1.205756861811835E-2   -3.622826188812008E-2    4.799860058171243E-1   -1.965870197090231E-1
 6.529356555625000E9     5.532744814158670E-1   -9.120412151934368E-2   -1.148980709311168E-2   -3.673400294918798E-2   -1.226563286107959E-2   -3.644336323737177E-2    4.795237316770689E-1   -1.976861457010291E-1
 6.529367308550000E9     5.531382800914204E-1   -9.212767150273851E-2   -1.156096073867188E-2   -3.689010753626459E-2   -1.243799900483188E-2   -3.669320995059913E-2    4.789859812345577E-1   -1.986707074456572E-1
 6.529378061475000E9     5.529943209411887E-1   -9.303403828441417E-2   -1.186623546123835E-2   -3.703899486007303E-2   -1.264310596919803E-2   -3.680112338461836E-2    4.785380476161561E-1   -1.996754350009979E-1
 6.529388814400000E9     5.527603470331035E-1   -9.401469727198547E-2   -1.201418897201053E-2   -3.723724173308551E-2   -1.274019352741114E-2   -3.701206835945643E-2    4.781093944193338E-1   -2.006485986281072E-1
 6.529399567325000E9     5.525624860214930E-1   -9.477900261442269E-2   -1.202767224200614E-2   -3.738416802277172E-2   -1.285262765749263E-2   -3.721830112896921E-2    4.775262474598506E-1   -2.016912249083203E-1
 6.529410320250000E9     5.524250769751382E-1   -9.571862724151567E-2   -1.211691829518707E-2   -3.774833079294351E-2   -1.314126358435512E-2   -3.747609982415508E-2    4.770729962406858E-1   -2.028043019994587E-1
 6.529421073175000E9     5.522365616979663E-1   -9.663814271161257E-2   -1.230709954525732E-2   -3.780321647822613E-2   -1.326207383027656E-2   -3.776954552114221E-2    4.765678954737271E-1   -2.037630248950278E-1
 6.529431826100000E9     5.520130664309479E-1   -9.745172443071137E-2   -1.260829568349329E-2   -3.805071046618271E-2   -1.342182835192243E-2   -3.782296526587922E-2    4.760207114157413E-1   -2.048226640604516E-1
 6.529442579025000E9     5.517790169090316E-1   -9.851755621815836E-2   -1.284216106658131E-2   -3.823672296378160E-2   -1.354132322338699E-2   -3.808258795251614E-2    4.753535947082528E-1   -2.058360434456400E-1
 6.529453331950000E9     5.516538008608208E-1   -9.936442339149724E-2   -1.298844719035887E-2   -3.859647149298572E-2   -1.375935115634240E-2   -3.830941990434181E-2    4.750746180379387E-1   -2.069324033686928E-1
 6.529464084875000E9     5.514579778328614E-1   -1.002858521704019E-1   -1.299643937924610E-2   -3.886415755936878E-2   -1.393189977457374E-2   -3.858072652479611E-2    4.746008896761850E-1   -2.079175955674074E-1
 6.529474837800000E9     5.512397740289993E-1   -1.011299263956255E-1   -1.327708900266677E-2   -3.904560959023420E-2   -1.415000985545280E-2   -3.880869253368630E-2    4.737121194442344E-1   -2.090838069153568E-1
 6.529485590725000E9     5.511134833784010E-1   -1.020297747338742E-1   -1.344182426895657E-2   -3.931890111471874E-2   -1.426150948999006E-2   -3.903941230254855E-2    4.734142037153545E-1   -2.100446179752656E-1
 6.529496343650000E9     5.509161068986858E-1   -1.030257575902772E-1   -1.363176624196924E-2   -3.948341047851631E-2   -1.451978284353583E-2   -3.917416384889280E-2    4.728698697669235E-1   -2.111115859996799E-1
 6.529507096575000E9     5.506482704586545E-1   -1.038578516277558E-1   -1.376311495255900E-2   -3.980241933296457E-2   -1.471991113965265E-2   -3.951225816546014E-2    4.722103466983220E-1   -2.122627667614313E-1
 6.529517849500000E9     5.504945583296894E-1   -1.047422552228704E-1   -1.392044419527049E-2   -3.993319022127133E-2   -1.493378202233318E-2   -3.964999427626299E-2    4.716168409509945E-1   -2.132180119097281E-1
 6.529528602425000E9     5.502370687183399E-1   -1.056581337083040E-1   -1.433910744354371E-2   -4.026501618653128E-2   -1.508817846615162E-2   -3.995598169928123E-2    4.710441052169622E-1   -2.144009385012873E-1
 6.529539355350000E9     5.501470650175290E-1   -1.066854222378275E-1   -1.429671840457082E-2   -4.039512813648267E-2   -1.527844491604728E-2   -4.012279277071759E-2    4.704002289147632E-1   -2.154291046734601E-1
 6.529550108275000E9     5.499123667071691E-1   -1.075615846063484E-1   -1.462177791964231E-2   -4.057291517628479E-2   -1.546598320595443E-2   -4.050149247579260E-2    4.700281773421445E-1   -2.163725444073895E-1
 6.529560861200000E9     5.496954086643541E-1   -1.084940775931949E-1   -1.482949488817912E-2   -4.097510381002121E-2   -1.576552747724354E-2   -4.071369018387216E-2    4.692984823257672E-1   -2.175638665985379E-1
 6.529571614125000E9     5.493728587197075E-1   -1.094665789892207E-1   -1.496938385959885E-2   -4.117003422697751E-2   -1.596795562879457E-2   -4.100858605962800E-2    4.688188089687105E-1   -2.188181329865209E-1
 6.529582367050000E9     5.493198227054408E-1   -1.104295313329861E-1   -1.531444012156217E-2   -4.156140458669080E-2   -1.611450610768522E-2   -4.120596869599343E-2    4.680361188164582E-1   -2.197373027520142E-1
 6.529593119975000E9     5.490951259273157E-1   -1.112440440512022E-1   -1.538193396668230E-2   -4.182505033629507E-2   -1.637002332992199E-2   -4.149671393425858E-2    4.675395115522805E-1   -2.210015994579446E-1
 6.529603872900000E9     5.487145324066967E-1   -1.122946197493289E-1   -1.564298953605784E-2   -4.204566267692432E-2   -1.650969008698188E-2   -4.171508468969649E-2    4.667448326879711E-1   -2.221284570612106E-1
 6.529614625825000E9     5.485208396328048E-1   -1.132048497778714E-1   -1.581819402526176E-2   -4.238320354150309E-2   -1.678206274430292E-2   -4.204106224438044E-2    4.661688874668750E-1   -2.230383866677799E-1
 6.529625378750000E9     5.482375686733992E-1   -1.140937058953969E-1   -1.614670991795160E-2   -4.252157561550157E-2   -1.707176712287645E-2   -4.226362460206892E-2    4.655677037494359E-1   -2.242436989054863E-1
 6.529636131675000E9     5.482050487676600E-1   -1.149910819178988E-1   -1.614351282859230E-2   -4.276329638800309E-2   -1.721364562184869E-2   -4.251108852801774E-2    4.649476707538520E-1   -2.254262168320061E-1
 6.529646884600000E9     5.478494913041446E-1   -1.159399284518186E-1   -1.653854271449651E-2   -4.311410409404574E-2   -1.753891754344569E-2   -4.280961076284849E-2    4.643913742747929E-1   -2.265913347929242E-1
 6.529657637525000E9     5.475814963398190E-1   -1.168799123162942E-1   -1.668513339932600E-2   -4.340151678342686E-2   -1.768834127010862E-2   -4.309219867912232E-2    4.635354985125211E-1   -2.277036663910832E-1
 6.529668390450000E9     5.473246207681361E-1   -1.178234952561911E-1   -1.698732646854447E-2   -4.368977507135224E-2   -1.800021286743680E-2   -4.339658453775604E-2    4.628177515652801E-1   -2.288891255871919E-1
 6.529679143375000E9     5.470506013562996E-1   -1.188521480619426E-1   -1.716706860849419E-2   -4.397115899483115E-2   -1.815938419841227E-2   -4.363395945204947E-2    4.623521990300343E-1   -2.299469717903313E-1
 6.529689896300000E9     5.468913314150974E-1   -1.197123386138517E-1   -1.751990665103915E-2   -4.420912011655238E-2   -1.848080449967824E-2   -4.394139960221819E-2    4.614569752541615E-1   -2.311771614575148E-1
 6.529700649225000E9     5.466634718451735E-1   -1.207731111496402E-1   -1.784681476553585E-2   -4.463327938708702E-2   -1.887936162517494E-2   -4.414708948024286E-2    4.607781738203535E-1   -2.322509016570854E-1
 6.529711402150000E9     5.463231422536149E-1   -1.216831227473114E-1   -1.798538756456110E-2   -4.479829455382709E-2   -1.899296807260742E-2   -4.451157983376362E-2    4.600888222650529E-1   -2.334970960769194E-1
 6.529722155075000E9     5.460532415335371E-1   -1.226159852115404E-1   -1.820092898182045E-2   -4.504717548706879E-2   -1.922974198752328E-2   -4.490868529832926E-2    4.594240159475771E-1   -2.345244855583498E-1
 6.529732908000000E9     5.458504631312964E-1   -1.237359646044401E-1   -1.852115334134465E-2   -4.548696376949560E-2   -1.945766989339155E-2   -4.520164475868300E-2    4.586891112192892E-1   -2.358007507005404E-1
 6.529743660925000E9     5.454765354442649E-1   -1.244774347663705E-1   -1.895180035775607E-2   -4.586807947238386E-2   -1.984375147346016E-2   -4.540023119082140E-2    4.579576261153492E-1   -2.369516490801307E-1
 6.529754413850000E9     5.452901838268700E-1   -1.256046186652131E-1   -1.922678398211978E-2   -4.620137823958517E-2   -2.018665723483656E-2   -4.574247840271060E-2    4.571666937555938E-1   -2.380479569950607E-1
 6.529765166775000E9     5.450270509219207E-1   -1.265838923833281E-1   -1.935031071087324E-2   -4.650937614442782E-2   -2.043715397729267E-2   -4.606706470385127E-2    4.563321173856276E-1   -2.393773717434760E-1
 6.529775919700000E9     5.447364096797743E-1   -1.275446770235446E-1   -1.963350080752584E-2   -4.676994731687651E-2   -2.071463576955920E-2   -4.641617530883868E-2    4.556904092485594E-1   -2.405309889951930E-1
 6.529786672625000E9     5.444096425743553E-1   -1.283728312059707E-1   -1.997918648245891E-2   -4.713939196970960E-2   -2.105951799170006E-2   -4.659520591315488E-2    4.546844945066898E-1   -2.418133316148811E-1
 6.529797425550000E9     5.440514606620079E-1   -1.295186696213171E-1   -2.019983642001441E-2   -4.734696818861061E-2   -2.129662263869229E-2   -4.694527200754042E-2    4.540131366270775E-1   -2.429312680642634E-1
 6.529808178475000E9     5.438422527791996E-1   -1.303480155423860E-1   -2.058129638720237E-2   -4.780714132194986E-2   -2.173455996689964E-2   -4.738277097001361E-2    4.531723971373711E-1   -2.443356685548478E-1
 6.529818931400000E9     5.435056352255849E-1   -1.312762743218685E-1   -2.105857740327258E-2   -4.816961890937595E-2   -2.196554526431631E-2   -4.778702044934934E-2    4.522506586515418E-1   -2.453654396163946E-1
 6.529829684325000E9     5.432753044448053E-1   -1.323548858315085E-1   -2.121655699080274E-2   -4.848116425614696E-2   -2.236933583004842E-2   -4.801912716454203E-2    4.515339433310121E-1   -2.467521913374957E-1
 6.529840437250000E9     5.427994005675787E-1   -1.334257138633571E-1   -2.147215971440992E-2   -4.891801503699708E-2   -2.262638413584512E-2   -4.852862798937334E-2    4.505746717839526E-1   -2.478955773947077E-1
