#  HZ   S   RI   R     50.00 
! Rohde & Schwarz Vector Network Analyzer 
! Rohde-Schwarz,ZNB20-2Port,1311601062101988,3.16
! Created: UTC 3/21/2024, 1:09:18 AM
! freq[Hz]                re:S11                  im:S11                  re:S21                  im:S21                  re:S12                  im:S12                  re:S22                  im:S22
 6.528900210000000E9     5.585844587581121E-1   -5.378027422220179E-2   -6.596012687449112E-3   -2.955263133246896E-2   -7.198833041962331E-3   -2.943302119574863E-2    4.963043201527367E-1   -1.566415029174502E-1
 6.528910902100000E9     5.584450456251238E-1   -5.457398990483946E-2   -6.605122391830075E-3   -2.965797730260147E-2   -7.088106398385910E-3   -2.941516097558613E-2    4.960818459553705E-1   -1.574874471882793E-1
 6.528921594200000E9     5.584838073539802E-1   -5.546879549976077E-2   -6.626068371359428E-3   -2.970786044125890E-2   -7.274002618384636E-3   -2.970348884457253E-2    4.956483472592321E-1   -1.585751432748037E-1
 6.528932286300000E9     5.583641424482119E-1   -5.635755721786765E-2   -6.851416149768428E-3   -2.972374689969857E-2   -7.325007612138668E-3   -2.972877043584013E-2    4.951933105870339E-1   -1.594627530773857E-1
 6.528942978400000E9     5.580749977892486E-1   -5.720455694473744E-2   -6.891733131151115E-3   -3.001460980042622E-2   -7.447960968395533E-3   -2.989371470227725E-2    4.950430117136277E-1   -1.601786970015971E-1
 6.528953670500000E9     5.582002931237956E-1   -5.804747495567224E-2   -7.056061277466477E-3   -3.008392969512540E-2   -7.537855926604307E-3   -3.008173353821563E-2    4.945849533226354E-1   -1.613868535315197E-1
 6.528964362600000E9     5.579771790242628E-1   -5.901356672790887E-2   -7.135365887664360E-3   -3.024823210564479E-2   -7.739998644842479E-3   -3.007502567830556E-2    4.944557301975026E-1   -1.620780565362300E-1
 6.528975054700000E9     5.578380574410101E-1   -5.982154459798780E-2   -7.212011384891715E-3   -3.045411332012110E-2   -7.770923354105762E-3   -3.030210098549792E-2    4.941348804789193E-1   -1.630130465904588E-1
 6.528985746800000E9     5.578627847601965E-1   -6.055431589483593E-2   -7.327288686928751E-3   -3.036469456099549E-2   -7.783495878521622E-3   -3.047212567414018E-2    4.937670698326161E-1   -1.638851266257670E-1
 6.528996438900000E9     5.576935937413606E-1   -6.140587726274925E-2   -7.390699580688072E-3   -3.074569380720540E-2   -7.891295593921096E-3   -3.060216611332655E-2    4.932330159281927E-1   -1.647320104866000E-1
 6.529007131000000E9     5.576893145115295E-1   -6.230708076157165E-2   -7.516797790420475E-3   -3.070342977455395E-2   -8.072599433487976E-3   -3.068434512669532E-2    4.930294388638433E-1   -1.656153814714402E-1
 6.529017823100000E9     5.575189912498452E-1   -6.310573845811088E-2   -7.491860613938768E-3   -3.100581703895104E-2   -8.152887050503165E-3   -3.087494058295767E-2    4.928394105792055E-1   -1.669005904459510E-1
 6.529028515200000E9     5.573680658859815E-1   -6.405605956819042E-2   -7.686528531546437E-3   -3.122080580989102E-2   -8.313362811238052E-3   -3.094752277223987E-2    4.924800789406262E-1   -1.676131891728747E-1
 6.529039207300000E9     5.572020237291584E-1   -6.481354815756939E-2   -7.785167001621718E-3   -3.117172285661226E-2   -8.349239651227755E-3   -3.109632533657380E-2    4.918981858088330E-1   -1.685283067259636E-1
 6.529049899400000E9     5.572475873220669E-1   -6.564680532557957E-2   -7.903052812700989E-3   -3.142907629225879E-2   -8.471555593592075E-3   -3.128185627687513E-2    4.915977419952998E-1   -1.694357017136779E-1
 6.529060591500000E9     5.571706031710709E-1   -6.664642170463413E-2   -7.898089833486223E-3   -3.158862737200693E-2   -8.660780878521492E-3   -3.142943215435422E-2    4.913101815487618E-1   -1.703899193541806E-1
 6.529071283600000E9     5.569529679599918E-1   -6.744169754238290E-2   -8.125776454161560E-3   -3.177164590959348E-2   -8.625704850720065E-3   -3.156617444643087E-2    4.910625686072407E-1   -1.712970915659525E-1
 6.529081975700000E9     5.568517647753878E-1   -6.831086192152219E-2   -8.149441774381060E-3   -3.188428436902376E-2   -8.678891799314577E-3   -3.169814975634858E-2    4.905715911124366E-1   -1.722610581233751E-1
 6.529092667800000E9     5.567340841456553E-1   -6.914701581855161E-2   -8.220564823202750E-3   -3.198970698012874E-2   -8.910570902560696E-3   -3.190137164077619E-2    4.900975849353568E-1   -1.730507391555727E-1
 6.529103359900000E9     5.567035024288309E-1   -7.014052511906121E-2   -8.402457881547346E-3   -3.213371997206731E-2   -9.051221591062098E-3   -3.205273755006952E-2    4.897680316957325E-1   -1.742827356043521E-1
 6.529114052000000E9     5.565075143567494E-1   -7.095984151696601E-2   -8.481468615980580E-3   -3.227442321775341E-2   -9.082179257823873E-3   -3.218403026434099E-2    4.893678779683100E-1   -1.750476801739941E-1
 6.529124744100000E9     5.564383938048618E-1   -7.177574603452129E-2   -8.605290209337819E-3   -3.253769848545470E-2   -9.294198010686249E-3   -3.230246498231246E-2    4.890809205167634E-1   -1.759880076851278E-1
 6.529135436200000E9     5.562663121793134E-1   -7.272197149757675E-2   -8.578892548883664E-3   -3.264395107550621E-2   -9.371206485015739E-3   -3.241715835220665E-2    4.887831120570136E-1   -1.769772768165450E-1
 6.529146128300000E9     5.561189142314675E-1   -7.359839761829182E-2   -8.771011991230721E-3   -3.282243380534648E-2   -9.433775812106873E-3   -3.276431313652265E-2    4.884392793926287E-1   -1.778111558164787E-1
 6.529156820400000E9     5.561084155946554E-1   -7.439375299351361E-2   -9.054468442627160E-3   -3.290850810279591E-2   -9.487329073881331E-3   -3.284981770847312E-2    4.878896756869511E-1   -1.788415477549277E-1
 6.529167512500000E9     5.559572256518887E-1   -7.515530728949503E-2   -9.147271823788614E-3   -3.314227377734755E-2   -9.767305032212270E-3   -3.289352672469176E-2    4.876285039188792E-1   -1.796949699147970E-1
 6.529178204600000E9     5.558554855738669E-1   -7.609606611995770E-2   -9.057520333846545E-3   -3.333541399731407E-2   -9.838977160764812E-3   -3.308164137852154E-2    4.871839987837395E-1   -1.807657760893914E-1
 6.529188896700000E9     5.556445882200892E-1   -7.696894496637484E-2   -9.117802250210800E-3   -3.341209444384097E-2   -9.947330058659111E-3   -3.317044631181224E-2    4.867315594051697E-1   -1.817012886153856E-1
 6.529199588800000E9     5.554435742144843E-1   -7.785373899483772E-2   -9.515217586296415E-3   -3.348803235986733E-2   -1.016540015920543E-2   -3.344541141830430E-2    4.864414571528451E-1   -1.826569670178874E-1
 6.529210280900000E9     5.554178039658035E-1   -7.866875530712703E-2   -9.391460957403269E-3   -3.376896331505978E-2   -1.023791396326361E-2   -3.356697600884099E-2    4.859422519822458E-1   -1.836499034212847E-1
 6.529220973000000E9     5.553576476713062E-1   -7.954952068542234E-2   -9.604135296972001E-3   -3.398389385924348E-2   -1.017433275682372E-2   -3.375669663412506E-2    4.857191463760971E-1   -1.844376800205279E-1
 6.529231665100000E9     5.551310148639560E-1   -8.055266046823899E-2   -9.679584258400218E-3   -3.411352761894530E-2   -1.055394102538088E-2   -3.392712258598599E-2    4.851565855549770E-1   -1.855150360601752E-1
 6.529242357200000E9     5.548923734183332E-1   -8.131908677624157E-2   -9.972260634593970E-3   -3.427595910698942E-2   -1.062164591545500E-2   -3.422308935025301E-2    4.846386012905568E-1   -1.864234936283540E-1
 6.529253049300000E9     5.547770643560184E-1   -8.216823145272811E-2   -9.990182546918611E-3   -3.442702952261412E-2   -1.073025505633711E-2   -3.426860123479414E-2    4.843612480232688E-1   -1.875091641557315E-1
 6.529263741400000E9     5.546490167932369E-1   -8.303500389773044E-2   -1.011734243046671E-2   -3.458545080606055E-2   -1.092061003929362E-2   -3.442596759465805E-2    4.837090352355047E-1   -1.885292338661184E-1
 6.529274433500000E9     5.544696805439253E-1   -8.407536393899812E-2   -1.019302591128069E-2   -3.485399045074512E-2   -1.103878517990220E-2   -3.472938134856817E-2    4.833434428275525E-1   -1.893714907645282E-1
 6.529285125600000E9     5.543422362484436E-1   -8.478605082181716E-2   -1.039567046114668E-2   -3.497071335912363E-2   -1.107609098888875E-2   -3.479470480619305E-2    4.828787734456047E-1   -1.902973521460797E-1
 6.529295817700000E9     5.541900665699921E-1   -8.568440215815004E-2   -1.051142163770807E-2   -3.527695784584239E-2   -1.130936290113990E-2   -3.502847311330154E-2    4.826255034989511E-1   -1.914453250984984E-1
 6.529306509800000E9     5.541397181784878E-1   -8.660652220987715E-2   -1.082315191512674E-2   -3.537262448429930E-2   -1.136097343296777E-2   -3.522602539683139E-2    4.821084514482159E-1   -1.922829928961646E-1
 6.529317201900000E9     5.539879143779701E-1   -8.756695863897745E-2   -1.085143644082598E-2   -3.558158926604884E-2   -1.148928147422816E-2   -3.539093891721341E-2    4.816441802988014E-1   -1.934633746501950E-1
 6.529327894000000E9     5.538305975057487E-1   -8.839927997679334E-2   -1.108647096917820E-2   -3.577362929157807E-2   -1.160109765435590E-2   -3.563642603186750E-2    4.811224439114047E-1   -1.942784073892165E-1
 6.529338586100000E9     5.535972516633985E-1   -8.922111765391100E-2   -1.105550838742388E-2   -3.586788431780426E-2   -1.183356579296000E-2   -3.588469658918474E-2    4.808708896669566E-1   -1.953630112221146E-1
 6.529349278200000E9     5.534754865737533E-1   -9.006228049745722E-2   -1.112852459876735E-2   -3.606626062334763E-2   -1.198332227685723E-2   -3.603858992672054E-2    4.802640272818546E-1   -1.962645999595509E-1
 6.529359970300000E9     5.533353202815168E-1   -9.109842792760116E-2   -1.136729033579454E-2   -3.631940292376115E-2   -1.217219817044277E-2   -3.623337910665606E-2    4.797833177270918E-1   -1.972875221749433E-1
 6.529370662400000E9     5.531287151462240E-1   -9.188744682984511E-2   -1.156288864322815E-2   -3.661144158854087E-2   -1.223554269324517E-2   -3.640165069134137E-2    4.794485181264583E-1   -1.984514895901185E-1
 6.529381354500000E9     5.529853149757723E-1   -9.292675017123948E-2   -1.165734202101315E-2   -3.690166978581722E-2   -1.235498318436109E-2   -3.662754497209133E-2    4.787996193064011E-1   -1.994606721706293E-1
 6.529392046600000E9     5.529606655679283E-1   -9.374928095447564E-2   -1.177611577819006E-2   -3.697718360899966E-2   -1.260775060396171E-2   -3.683022747383508E-2    4.784753194113738E-1   -2.003084649975836E-1
 6.529402738700000E9     5.525827201948771E-1   -9.459072820776911E-2   -1.202792950028534E-2   -3.725504306478367E-2   -1.282637015177820E-2   -3.699130787187949E-2    4.778104927362127E-1   -2.013870523517359E-1
 6.529413430800000E9     5.524353848289613E-1   -9.546807140698901E-2   -1.205659648654599E-2   -3.746609971701356E-2   -1.295188202982686E-2   -3.720715241425125E-2    4.773077392828725E-1   -2.023611460125464E-1
 6.529424122900000E9     5.523155412311944E-1   -9.640969744464446E-2   -1.226422623727776E-2   -3.764289979397323E-2   -1.306081754332838E-2   -3.746129534323123E-2    4.768354762393370E-1   -2.034532777572291E-1
 6.529434815000000E9     5.521241442585039E-1   -9.733460667072666E-2   -1.253511812809094E-2   -3.778145020966132E-2   -1.324809229094822E-2   -3.763864069546094E-2    4.763594787668262E-1   -2.044120992567632E-1
 6.529445507100000E9     5.519990775479052E-1   -9.821825827080748E-2   -1.271842038224792E-2   -3.806835085532028E-2   -1.338972692047354E-2   -3.792746124691321E-2    4.758922213383757E-1   -2.053698375908516E-1
 6.529456199200000E9     5.517987984441862E-1   -9.903414333072631E-2   -1.286925921822528E-2   -3.830249794939702E-2   -1.358611267620984E-2   -3.804566275728281E-2    4.754555321606542E-1   -2.065320085359490E-1
 6.529466891300000E9     5.515561550223899E-1   -1.001017874243057E-1   -1.291011720819563E-2   -3.845665935774550E-2   -1.370630553744687E-2   -3.833244790271607E-2    4.748218487228570E-1   -2.075283518745987E-1
 6.529477583400000E9     5.513536019750006E-1   -1.008427431776833E-1   -1.315231494317230E-2   -3.881334108227604E-2   -1.398247269211775E-2   -3.851866478233870E-2    4.744305361481171E-1   -2.086473276602523E-1
 6.529488275500000E9     5.511275382384504E-1   -1.018903331382119E-1   -1.333718481249085E-2   -3.903097395952825E-2   -1.415223907699795E-2   -3.867244194412373E-2    4.737468345564630E-1   -2.096107295570949E-1
 6.529498967600000E9     5.510097786938202E-1   -1.027828073802366E-1   -1.342875916039019E-2   -3.915164908195526E-2   -1.430733405983558E-2   -3.886190830492355E-2    4.731369443395712E-1   -2.107898739869384E-1
 6.529509659700000E9     5.508050304104452E-1   -1.036435807674595E-1   -1.358769894344697E-2   -3.941986020982420E-2   -1.448779588105378E-2   -3.920462414516162E-2    4.725098718090384E-1   -2.118022708956053E-1
 6.529520351800000E9     5.505453455496448E-1   -1.045480076670750E-1   -1.376005387241198E-2   -3.964041510902518E-2   -1.463031637815890E-2   -3.940669904549441E-2    4.721662895199676E-1   -2.128843962998384E-1
 6.529531043900000E9     5.503813991178474E-1   -1.054108420294535E-1   -1.395592860771911E-2   -3.991730821228631E-2   -1.486720712107839E-2   -3.959662915989099E-2    4.715515339814695E-1   -2.137761756964044E-1
 6.529541736000000E9     5.502143710579711E-1   -1.063029615383671E-1   -1.411757390643996E-2   -4.014790834199418E-2   -1.507602729496942E-2   -3.990878422651145E-2    4.708246976143720E-1   -2.149611479789506E-1
 6.529552428100000E9     5.499654394251940E-1   -1.072248470602845E-1   -1.429847329191396E-2   -4.039435652212676E-2   -1.521406517650999E-2   -4.025998668005553E-2    4.703514090694058E-1   -2.159039793135188E-1
 6.529563120200000E9     5.498319138181981E-1   -1.081642814804579E-1   -1.441864447775219E-2   -4.071860599677232E-2   -1.543404536231551E-2   -4.040331254917533E-2    4.696455771228964E-1   -2.171557938622902E-1
 6.529573812300000E9     5.495218010865560E-1   -1.092188272208417E-1   -1.475966876950769E-2   -4.075181710440591E-2   -1.555119657055478E-2   -4.060315054513909E-2    4.691636608148654E-1   -2.180984069037582E-1
 6.529584504400000E9     5.492864409871637E-1   -1.102095855412263E-1   -1.511195746671083E-2   -4.123878006427767E-2   -1.595251861300990E-2   -4.094993660276753E-2    4.686587357359107E-1   -2.191781731246819E-1
 6.529595196500000E9     5.491163086910532E-1   -1.110082098785980E-1   -1.523202316806109E-2   -4.142371912907676E-2   -1.611189979733795E-2   -4.107177687209248E-2    4.678494542079207E-1   -2.204228259689807E-1
 6.529605888600000E9     5.488862292999651E-1   -1.119741884909472E-1   -1.542204123753560E-2   -4.173097799281161E-2   -1.631437689585977E-2   -4.145974064948410E-2    4.672916913606891E-1   -2.214602137731083E-1
 6.529616580700000E9     5.487477912007268E-1   -1.127385549696010E-1   -1.573729338175652E-2   -4.175775915706128E-2   -1.646731965670195E-2   -4.172568958255895E-2    4.666627303475119E-1   -2.224350244157040E-1
 6.529627272800000E9     5.483546592573202E-1   -1.137496420040719E-1   -1.582767687880036E-2   -4.210922762502164E-2   -1.674373869727982E-2   -4.182954642816093E-2    4.660526332771268E-1   -2.237316879734727E-1
 6.529637964900000E9     5.482395848433972E-1   -1.146937541613936E-1   -1.615588429414304E-2   -4.246727695912623E-2   -1.704875663174057E-2   -4.230204552229528E-2    4.654685275951032E-1   -2.248932762169589E-1
 6.529648657000000E9     5.478501222221653E-1   -1.156174008994908E-1   -1.624737287861849E-2   -4.268796241230504E-2   -1.724586477891579E-2   -4.240613918530833E-2    4.645342975653680E-1   -2.258684893382955E-1
 6.529659349100000E9     5.477949738126526E-1   -1.165629280859407E-1   -1.657999005169902E-2   -4.301994976651600E-2   -1.751799058903173E-2   -4.263854090230950E-2    4.642139263768278E-1   -2.270749302538184E-1
 6.529670041200000E9     5.475136915205981E-1   -1.174283486472427E-1   -1.683914028890994E-2   -4.333715714276952E-2   -1.765562446835485E-2   -4.298800487476703E-2    4.633930051958583E-1   -2.282411453105592E-1
 6.529680733300000E9     5.471672277852260E-1   -1.183264880342991E-1   -1.703543504910179E-2   -4.345430485233565E-2   -1.806094011967686E-2   -4.331327374578014E-2    4.630624081659104E-1   -2.293154337974408E-1
 6.529691425400000E9     5.469036808631368E-1   -1.193560873111333E-1   -1.717127979460842E-2   -4.393139262683800E-2   -1.816807469531111E-2   -4.352978162405795E-2    4.622314165379388E-1   -2.304647824428045E-1
 6.529702117500000E9     5.468080669665990E-1   -1.203784653165241E-1   -1.752702454637632E-2   -4.421212464487804E-2   -1.846006811743751E-2   -4.385670292721892E-2    4.615403714638824E-1   -2.315964323022035E-1
 6.529712809600000E9     5.465041500704527E-1   -1.212769544674718E-1   -1.774096552615416E-2   -4.446646911696047E-2   -1.871827428111635E-2   -4.416876888133663E-2    4.607093763887875E-1   -2.327206112242564E-1
 6.529723501700000E9     5.461853514099533E-1   -1.221927228669034E-1   -1.787668214445789E-2   -4.472032067288396E-2   -1.891769354755032E-2   -4.443548236927493E-2    4.599011864883452E-1   -2.340169151863245E-1
 6.529734193800000E9     5.460957514625734E-1   -1.231665519057945E-1   -1.831896558606887E-2   -4.506895309163384E-2   -1.931725550628042E-2   -4.465625446061387E-2    4.593025314623806E-1   -2.351069001882470E-1
 6.529744885900000E9     5.456647285088273E-1   -1.240661357143052E-1   -1.854101748665104E-2   -4.543554492193595E-2   -1.955273651025136E-2   -4.503849608375957E-2    4.586343536356174E-1   -2.362823134673337E-1
 6.529755578000000E9     5.454010102704583E-1   -1.250403078908043E-1   -1.870970582014643E-2   -4.569813616269108E-2   -1.978161331141311E-2   -4.534882925785678E-2    4.578845763763392E-1   -2.374002314696466E-1
 6.529766270100000E9     5.451418556820745E-1   -1.260829056841077E-1   -1.899215643251758E-2   -4.604022806841732E-2   -2.000988901002321E-2   -4.570329287690768E-2    4.570421995003735E-1   -2.385979028593401E-1
 6.529776962200000E9     5.448979985818663E-1   -1.270343258559250E-1   -1.932784219779124E-2   -4.633462896779796E-2   -2.036321965066917E-2   -4.598868947915821E-2    4.564538419413892E-1   -2.397192732593184E-1
 6.529787654300000E9     5.445303698010517E-1   -1.279943537766915E-1   -1.966277865091129E-2   -4.655401975889988E-2   -2.066241338543238E-2   -4.629420628979482E-2    4.555165248554157E-1   -2.411174490809263E-1
 6.529798346400000E9     5.443487283395239E-1   -1.288332911839581E-1   -1.987996744393927E-2   -4.687502486588547E-2   -2.086424808970153E-2   -4.661766480571911E-2    4.548879985866073E-1   -2.422266627422071E-1
 6.529809038500000E9     5.439308037343534E-1   -1.298612963992188E-1   -2.025735261576496E-2   -4.737327458087463E-2   -2.126482147948450E-2   -4.693203229675384E-2    4.539751531327139E-1   -2.434109032039911E-1
 6.529819730600000E9     5.436950690331419E-1   -1.308445683423189E-1   -2.056663527486196E-2   -4.771652389234205E-2   -2.166981881822277E-2   -4.728770273430394E-2    4.532448166474859E-1   -2.446061802744205E-1
 6.529830422700000E9     5.433283410153538E-1   -1.319581981567010E-1   -2.068204572277265E-2   -4.801141580345314E-2   -2.191714864483426E-2   -4.769919920875971E-2    4.524391566353693E-1   -2.459029072168096E-1
 6.529841114800000E9     5.431028404292891E-1   -1.327470029415855E-1   -2.116710444790627E-2   -4.831840586610081E-2   -2.226958358725534E-2   -4.792093686321389E-2    4.514179374396813E-1   -2.470682122560081E-1
 6.529851806900000E9     5.428343763255041E-1   -1.337958662146193E-1   -2.150224900966020E-2   -4.856396478472289E-2   -2.254571899167088E-2   -4.824191656654166E-2    4.506756821475917E-1   -2.481889711142435E-1
 6.529862499000000E9     5.424546486355539E-1   -1.347903682224404E-1   -2.173274504443235E-2   -4.926220443919562E-2   -2.285164793742480E-2   -4.874429234387672E-2    4.499087612417033E-1   -2.496643607217278E-1
