#  HZ   S   RI   R     50.00 
! Rohde & Schwarz Vector Network Analyzer 
! Rohde-Schwarz,ZNB20-2Port,1311601062101988,3.16
! Created: UTC 3/21/2024, 1:09:23 AM
! freq[Hz]                re:S11                  im:S11                  re:S21                  im:S21                  re:S12                  im:S12                  re:S22                  im:S22
 6.528902247000000E9     5.585902895482070E-1   -5.385492163292956E-2   -6.603811649481513E-3   -2.934514151126486E-2   -7.093119598877227E-3   -2.930376383174857E-2    4.963435634757765E-1   -1.566281867475092E-1
 6.528912943300000E9     5.584510848411456E-1   -5.466938597597418E-2   -6.634418067527280E-3   -2.951529831723830E-2   -7.228075582946338E-3   -2.938538022864770E-2    4.958497252087360E-1   -1.575992095849080E-1
 6.528923639600000E9     5.583137153668426E-1   -5.556723148842985E-2   -6.616476539372673E-3   -2.975952535152429E-2   -7.357806737711599E-3   -2.949947636327313E-2    4.956043059736187E-1   -1.584299653222783E-1
 6.528934335900000E9     5.582539154667546E-1   -5.638036148009635E-2   -6.759857398385848E-3   -2.985093140810169E-2   -7.448813561469101E-3   -2.979075844501759E-2    4.952058465273697E-1   -1.595390488426105E-1
 6.528945032200000E9     5.581459997812936E-1   -5.716253307215827E-2   -6.923390951775287E-3   -2.997007441109085E-2   -7.457752287684424E-3   -2.991957054814444E-2    4.948749810690131E-1   -1.604826615953829E-1
 6.528955728500000E9     5.580308108586597E-1   -5.800496457131647E-2   -7.105417970235864E-3   -3.015190426675621E-2   -7.570321184270756E-3   -2.998212276370576E-2    4.945153631348918E-1   -1.612933140529962E-1
 6.528966424800000E9     5.580110966047228E-1   -5.895344874479502E-2   -7.016683497277057E-3   -3.020555814233358E-2   -7.645929299820720E-3   -3.005518831342239E-2    4.943378189300641E-1   -1.622472053357811E-1
 6.528977121100000E9     5.578867113360281E-1   -5.993460684183421E-2   -7.213291624782879E-3   -3.039476971715783E-2   -7.833028264051850E-3   -3.029448917792576E-2    4.940702386310160E-1   -1.630109616569056E-1
 6.528987817400000E9     5.577664073762385E-1   -6.077511294875409E-2   -7.247315436651630E-3   -3.047538000603065E-2   -7.810880619311313E-3   -3.038168310865990E-2    4.936128348649743E-1   -1.639363552388069E-1
 6.528998513700000E9     5.577324110812204E-1   -6.158553150951143E-2   -7.378494899885632E-3   -3.069186245894339E-2   -7.923116746020848E-3   -3.052864074801999E-2    4.932801080050536E-1   -1.648303908895415E-1
 6.529009210000000E9     5.575500751043438E-1   -6.236545049184829E-2   -7.457150241354774E-3   -3.082886784453753E-2   -8.007368877258786E-3   -3.065461239289859E-2    4.928886085928188E-1   -1.657823844819989E-1
 6.529019906300000E9     5.573990996256218E-1   -6.321307847417983E-2   -7.494672814207804E-3   -3.093590912728329E-2   -8.087882313626516E-3   -3.080399035550980E-2    4.925473262564150E-1   -1.666593045331691E-1
 6.529030602600000E9     5.574108299062461E-1   -6.409014861860615E-2   -7.626637303218824E-3   -3.108869353501551E-2   -8.231940397776643E-3   -3.099980498091078E-2    4.921814538445022E-1   -1.677169029051142E-1
 6.529041298900000E9     5.573774928007380E-1   -6.497450921543813E-2   -7.763171725977573E-3   -3.112533620869700E-2   -8.411650431610348E-3   -3.106232078693478E-2    4.918965855720228E-1   -1.685480973259421E-1
 6.529051995200000E9     5.572386644487894E-1   -6.584896584663620E-2   -7.798865515348026E-3   -3.141584410723552E-2   -8.451873216581649E-3   -3.126160759197961E-2    4.915129896993873E-1   -1.696499368524245E-1
 6.529062691500000E9     5.570387501152702E-1   -6.667386061206239E-2   -7.885013897977732E-3   -3.155630669075803E-2   -8.654945425251736E-3   -3.144771512838326E-2    4.912378030868437E-1   -1.704552824853085E-1
 6.529073387800000E9     5.568669505145629E-1   -6.755133848048479E-2   -7.936175468641617E-3   -3.161252395138429E-2   -8.845797890181330E-3   -3.158167565984184E-2    4.908005159477066E-1   -1.712489408226306E-1
 6.529084084100000E9     5.567956036574430E-1   -6.836173754027709E-2   -8.132272219899563E-3   -3.185889780697761E-2   -8.738027171912919E-3   -3.166996841224361E-2    4.905274045434549E-1   -1.724487605932506E-1
 6.529094780400000E9     5.566980581433857E-1   -6.920048209612825E-2   -8.413223237545288E-3   -3.190794917114854E-2   -8.889484266418961E-3   -3.181178922715601E-2    4.902549103480309E-1   -1.732958973982833E-1
 6.529105476700000E9     5.566277167748565E-1   -7.005875284691769E-2   -8.426432323784750E-3   -3.216019497093905E-2   -8.999029378262883E-3   -3.195684766421849E-2    4.897278046237882E-1   -1.740096836711003E-1
 6.529116173000000E9     5.564683660511380E-1   -7.088405734669573E-2   -8.496514310029669E-3   -3.226835133333256E-2   -9.174526942492796E-3   -3.212018734606323E-2    4.895294529617489E-1   -1.752419738951930E-1
 6.529126869300000E9     5.563231187140381E-1   -7.184968876303667E-2   -8.670625838053113E-3   -3.241161563680697E-2   -9.232217614039570E-3   -3.230006443505992E-2    4.889673257104849E-1   -1.760749629876705E-1
 6.529137565600000E9     5.562532342438097E-1   -7.266715747745577E-2   -8.803966299728809E-3   -3.267612681218784E-2   -9.346572540548995E-3   -3.249650090563146E-2    4.887049031299012E-1   -1.771376633245069E-1
 6.529148261900000E9     5.560934360634004E-1   -7.351329881382691E-2   -8.746168959178392E-3   -3.264803342401346E-2   -9.506071872754682E-3   -3.263982337421326E-2    4.884339620036856E-1   -1.778931021026141E-1
 6.529158958200000E9     5.559159833907937E-1   -7.442820876974068E-2   -8.845761738746743E-3   -3.301662545612248E-2   -9.558320533498437E-3   -3.277056432982068E-2    4.878759696261499E-1   -1.788731771348447E-1
 6.529169654500000E9     5.558944455664103E-1   -7.540931353306216E-2   -8.974905068774634E-3   -3.307141190239777E-2   -9.605952332575374E-3   -3.291487999560827E-2    4.873819993809969E-1   -1.799491260503710E-1
 6.529180350800000E9     5.557118259609870E-1   -7.620052395145653E-2   -9.119417023057873E-3   -3.332852024628200E-2   -9.866330798432330E-3   -3.316986699109430E-2    4.871341704670761E-1   -1.807706003372268E-1
 6.529191047100000E9     5.556879276312171E-1   -7.714073378830802E-2   -9.270246893364984E-3   -3.342792785982029E-2   -1.001155933218767E-2   -3.330809875804108E-2    4.866092803373857E-1   -1.817780911285155E-1
 6.529201743400000E9     5.554152979756048E-1   -7.792959473633802E-2   -9.342850731411678E-3   -3.358524473958713E-2   -1.000207623016929E-2   -3.347065734222298E-2    4.861390170319332E-1   -1.828238780940440E-1
 6.529212439700000E9     5.553919021810735E-1   -7.878302716528397E-2   -9.428332019966647E-3   -3.373137399451002E-2   -1.021323467803241E-2   -3.365095738288261E-2    4.860286768788773E-1   -1.837081984498639E-1
 6.529223136000000E9     5.552767194910554E-1   -7.966716668123415E-2   -9.583948795341754E-3   -3.395669519235899E-2   -1.032982900015645E-2   -3.377536817502123E-2    4.855604970103328E-1   -1.845075584851867E-1
 6.529233832300000E9     5.550749900277394E-1   -8.057723510557779E-2   -9.722549665153419E-3   -3.404696583718548E-2   -1.044404536247206E-2   -3.389877216335186E-2    4.849657937916900E-1   -1.855305234869071E-1
 6.529244528600000E9     5.548686303469590E-1   -8.148507832679977E-2   -9.816590592564315E-3   -3.444612999115100E-2   -1.052270775309174E-2   -3.424445668308990E-2    4.846101678095849E-1   -1.866252105391200E-1
 6.529255224900000E9     5.548502883191714E-1   -8.239728294181457E-2   -9.950510264603644E-3   -3.446311215346358E-2   -1.070787220392881E-2   -3.426036837364634E-2    4.842283161409994E-1   -1.874060069498332E-1
 6.529265921200000E9     5.546484168856196E-1   -8.316154897123020E-2   -9.988586474031157E-3   -3.465397460543682E-2   -1.085078999976510E-2   -3.447879339238819E-2    4.837243841440775E-1   -1.885282352608378E-1
 6.529276617500000E9     5.545167360827526E-1   -8.414771682582756E-2   -1.024714735344236E-2   -3.469724875541563E-2   -1.100574611866050E-2   -3.474273770663063E-2    4.831477070487039E-1   -1.894679412357028E-1
 6.529287313800000E9     5.544211675969010E-1   -8.483197586507699E-2   -1.045099966024691E-2   -3.501818099524204E-2   -1.114866032310699E-2   -3.482107881085440E-2    4.829482539118808E-1   -1.905439323004536E-1
 6.529298010100000E9     5.541755875708733E-1   -8.589767055501049E-2   -1.058838465710350E-2   -3.515851605640063E-2   -1.124707935068357E-2   -3.505019747102635E-2    4.824161477390384E-1   -1.914590738386955E-1
 6.529308706400000E9     5.540252487545799E-1   -8.684122657542165E-2   -1.055264470188722E-2   -3.538549152179036E-2   -1.136779921032745E-2   -3.517497361806403E-2    4.821221373894365E-1   -1.925118244601626E-1
 6.529319402700000E9     5.538277012121340E-1   -8.754663449705070E-2   -1.082741535168028E-2   -3.556126352380313E-2   -1.152901633530173E-2   -3.543385615183721E-2    4.816415253191351E-1   -1.934814115506416E-1
 6.529330099000000E9     5.537151173817936E-1   -8.849480169455314E-2   -1.092996577537079E-2   -3.578832107810993E-2   -1.170025832274706E-2   -3.556331063810204E-2    4.810939782343865E-1   -1.944748309029114E-1
 6.529340795300000E9     5.535742597456716E-1   -8.939314165366449E-2   -1.099407831721431E-2   -3.605245340751332E-2   -1.183543520327561E-2   -3.575397687850005E-2    4.806514268242366E-1   -1.953548081648533E-1
 6.529351491600000E9     5.534523696076034E-1   -9.033050265018447E-2   -1.128503431865547E-2   -3.613614889114261E-2   -1.189533113890226E-2   -3.602797951141190E-2    4.802131929471709E-1   -1.964580147135165E-1
 6.529362187900000E9     5.532733334910640E-1   -9.125423150261681E-2   -1.144110755228098E-2   -3.631858581465169E-2   -1.211335743175083E-2   -3.625115845441196E-2    4.798060478177920E-1   -1.973910306932065E-1
 6.529372884200000E9     5.530782971730432E-1   -9.202464501404772E-2   -1.157664494165886E-2   -3.656989172035897E-2   -1.221930867847335E-2   -3.634763243731060E-2    4.791649134115975E-1   -1.983222363316513E-1
 6.529383580500000E9     5.529410409062065E-1   -9.299510742941390E-2   -1.168033382832944E-2   -3.678145423897018E-2   -1.244261828990323E-2   -3.656499440453775E-2    4.787338950910905E-1   -1.993069753505043E-1
 6.529394276800000E9     5.528024923265179E-1   -9.382509325254539E-2   -1.177878568980912E-2   -3.700251439082227E-2   -1.259263719429870E-2   -3.680488893533502E-2    4.784253360170078E-1   -2.004529823171601E-1
 6.529404973100000E9     5.526308188523348E-1   -9.478830629692031E-2   -1.198905125353599E-2   -3.705690368800896E-2   -1.272295228483027E-2   -3.699682386970583E-2    4.777849460839141E-1   -2.015168867660646E-1
 6.529415669400000E9     5.524574742290829E-1   -9.557371131416496E-2   -1.209209253770748E-2   -3.732236012369097E-2   -1.296299134797249E-2   -3.716477105171916E-2    4.771639444950476E-1   -2.024598272330331E-1
 6.529426365700000E9     5.522201323542776E-1   -9.648383768608730E-2   -1.216884912413808E-2   -3.754128645502575E-2   -1.313953199817281E-2   -3.725331579005024E-2    4.768461023942762E-1   -2.034801314922748E-1
 6.529437062000000E9     5.520166117433353E-1   -9.743526445276371E-2   -1.254386203648842E-2   -3.790379000598667E-2   -1.324952816102877E-2   -3.758147985758558E-2    4.763167421913403E-1   -2.045813039904219E-1
 6.529447758300000E9     5.518078686098211E-1   -9.837477489707355E-2   -1.267162804186642E-2   -3.799155380247525E-2   -1.346608594971219E-2   -3.780308861114437E-2    4.757512690119050E-1   -2.055499713564749E-1
 6.529458454600000E9     5.516990482911003E-1   -9.924467104359866E-2   -1.261477748622994E-2   -3.821142152719136E-2   -1.353841515061185E-2   -3.807716716883688E-2    4.752160201410714E-1   -2.066421036351731E-1
 6.529469150900000E9     5.514088508894994E-1   -1.000655502632325E-1   -1.287403373775185E-2   -3.847166115992035E-2   -1.372275823376437E-2   -3.827171364371836E-2    4.747775852239208E-1   -2.076293417867925E-1
 6.529479847200000E9     5.512976752871502E-1   -1.011503074481437E-1   -1.313386503493131E-2   -3.872583877135485E-2   -1.388589182170206E-2   -3.851826408533091E-2    4.741243801504154E-1   -2.087585286427489E-1
 6.529490543500000E9     5.511096713482446E-1   -1.019462701316459E-1   -1.324086711601393E-2   -3.891532287246051E-2   -1.407430223071178E-2   -3.871330239324351E-2    4.737371798148688E-1   -2.097951453453616E-1
 6.529501239800000E9     5.509225547753733E-1   -1.027641126217294E-1   -1.345142122250158E-2   -3.920465686840139E-2   -1.431595133208669E-2   -3.894954662321835E-2    4.732011632495018E-1   -2.107782248645289E-1
 6.529511936100000E9     5.506871027646709E-1   -1.037012754060222E-1   -1.365914225166273E-2   -3.937636892000743E-2   -1.446581817822550E-2   -3.928238138198892E-2    4.726242356803451E-1   -2.118894898931160E-1
 6.529522632400000E9     5.505599744518607E-1   -1.047299279244067E-1   -1.389835482428970E-2   -3.973107272918074E-2   -1.474389709535159E-2   -3.940174781656432E-2    4.719448004938974E-1   -2.128443218810571E-1
 6.529533328700000E9     5.503029256665007E-1   -1.056721616162236E-1   -1.406500902806966E-2   -3.986962605647795E-2   -1.479725074116163E-2   -3.966624118150800E-2    4.712914165084486E-1   -2.139343551525316E-1
 6.529544025000000E9     5.500603139243014E-1   -1.063022227467184E-1   -1.412098948225085E-2   -4.014596403513446E-2   -1.508966851145605E-2   -3.982485633318153E-2    4.709261243456885E-1   -2.150612457147399E-1
 6.529554721300000E9     5.499023996618659E-1   -1.073578938323907E-1   -1.430235532615097E-2   -4.037204394012336E-2   -1.527197534033226E-2   -4.006046975115443E-2    4.701250648498824E-1   -2.162466511987928E-1
 6.529565417600000E9     5.496490216612212E-1   -1.083427178687367E-1   -1.453042204316815E-2   -4.056374393989320E-2   -1.546045928887251E-2   -4.030705640666471E-2    4.698542185820850E-1   -2.172625556335329E-1
 6.529576113900000E9     5.495545894594166E-1   -1.092470047296005E-1   -1.476212683042408E-2   -4.083838841337498E-2   -1.561508305755781E-2   -4.056811979857251E-2    4.691592549128463E-1   -2.183568176244144E-1
 6.529586810200000E9     5.492303755505833E-1   -1.102030090154367E-1   -1.491004209043068E-2   -4.115225536046890E-2   -1.584838973567011E-2   -4.084822254765848E-2    4.686166965324811E-1   -2.193648173396454E-1
 6.529597506500000E9     5.490604606917492E-1   -1.110803132571600E-1   -1.516864930966856E-2   -4.126257784863419E-2   -1.611295368291872E-2   -4.109364003131036E-2    4.679685829089430E-1   -2.205685625078415E-1
 6.529608202800000E9     5.488647130630301E-1   -1.120581197272232E-1   -1.536894478395643E-2   -4.155523891500738E-2   -1.631232305375064E-2   -4.140156033347830E-2    4.675552225519617E-1   -2.215051542264952E-1
 6.529618899100000E9     5.486371252874087E-1   -1.129046578429085E-1   -1.557162457237154E-2   -4.201174177927541E-2   -1.660992947040310E-2   -4.167576083652279E-2    4.665444795584107E-1   -2.226326128238542E-1
 6.529629595400000E9     5.484117334610259E-1   -1.140333049329245E-1   -1.581722475730468E-2   -4.225929774824382E-2   -1.688800817509830E-2   -4.189604544412569E-2    4.660525791797432E-1   -2.237337180142234E-1
 6.529640291700000E9     5.480777759423950E-1   -1.148058901490923E-1   -1.590861954694226E-2   -4.233627248562316E-2   -1.700179982804857E-2   -4.208456115889407E-2    4.653951327532604E-1   -2.248749455509696E-1
 6.529650988000000E9     5.479999716169102E-1   -1.156846516701752E-1   -1.625775316126108E-2   -4.278885086506620E-2   -1.728859634290750E-2   -4.245437090692326E-2    4.647529162491612E-1   -2.260976455563353E-1
 6.529661684300000E9     5.476996751658911E-1   -1.168133778293272E-1   -1.653838372722494E-2   -4.295776143680420E-2   -1.747902454950860E-2   -4.264910636944925E-2    4.640523729276779E-1   -2.271170326527614E-1
 6.529672380600000E9     5.474686971248571E-1   -1.176390361897479E-1   -1.686503779134320E-2   -4.317237128820929E-2   -1.768505177263642E-2   -4.299545803929785E-2    4.634052316992897E-1   -2.282564537656246E-1
 6.529683076900000E9     5.471774601825421E-1   -1.184641958838816E-1   -1.689131633541971E-2   -4.352601067867658E-2   -1.805298106996566E-2   -4.323925219338225E-2    4.627795700089052E-1   -2.294234013033541E-1
 6.529693773200000E9     5.469781371948877E-1   -1.195519604555919E-1   -1.710632034486847E-2   -4.391918091233311E-2   -1.816190918098693E-2   -4.350979834925170E-2    4.622111821785745E-1   -2.303459194679958E-1
 6.529704469500000E9     5.467336175052437E-1   -1.204450506377521E-1   -1.740372189878904E-2   -4.414300576423340E-2   -1.845749819807078E-2   -4.375968242767017E-2    4.614151604575448E-1   -2.317909467474241E-1
 6.529715165800000E9     5.465484841672578E-1   -1.214459736068020E-1   -1.767175849813914E-2   -4.453358529395587E-2   -1.869760439266183E-2   -4.408426909501355E-2    4.605575042694104E-1   -2.329630154733534E-1
 6.529725862100000E9     5.461614037657634E-1   -1.222680264300559E-1   -1.790359195009635E-2   -4.476670589678005E-2   -1.905094818463295E-2   -4.442292913383884E-2    4.599245776481596E-1   -2.339294348593433E-1
 6.529736558400000E9     5.458669066938305E-1   -1.232788811634703E-1   -1.816261952160246E-2   -4.498759549227987E-2   -1.927838167319637E-2   -4.473365389734335E-2    4.592566821279399E-1   -2.351327947609738E-1
 6.529747254700000E9     5.456440571945786E-1   -1.242683971002249E-1   -1.852718256909741E-2   -4.534230155642734E-2   -1.953511411231410E-2   -4.504083875416789E-2    4.584092580927842E-1   -2.363002839258790E-1
 6.529757951000000E9     5.453703355781881E-1   -1.251732965079866E-1   -1.877405635337474E-2   -4.569926584014559E-2   -1.984200454425665E-2   -4.530582239068868E-2    4.577917804327306E-1   -2.374626888692074E-1
 6.529768647300000E9     5.451167560007482E-1   -1.261430717098517E-1   -1.892077623441097E-2   -4.591659708927608E-2   -2.004421129768091E-2   -4.562058396767459E-2    4.571171712627388E-1   -2.387393963969769E-1
 6.529779343600000E9     5.447833054817846E-1   -1.271315731671082E-1   -1.928328080666830E-2   -4.635771700195192E-2   -2.032767305990756E-2   -4.593681861484636E-2    4.563579953603171E-1   -2.398258045684497E-1
 6.529790039900000E9     5.445499705368124E-1   -1.280718301361078E-1   -1.967935726537412E-2   -4.665588795184365E-2   -2.058739718402090E-2   -4.634277084101417E-2    4.553466954090134E-1   -2.409860845961590E-1
 6.529800736200000E9     5.443200749055557E-1   -1.291127915478906E-1   -1.982304859349649E-2   -4.708721683592502E-2   -2.104774010727109E-2   -4.661862176732996E-2    4.547045481697717E-1   -2.423215027907830E-1
 6.529811432500000E9     5.439558450804644E-1   -1.299425896147020E-1   -2.021347624855424E-2   -4.734852020524940E-2   -2.127000697314068E-2   -4.691938843141454E-2    4.540871565030330E-1   -2.436050018087546E-1
 6.529822128800000E9     5.436099671267938E-1   -1.310075612670121E-1   -2.040696507919252E-2   -4.764925441494099E-2   -2.151421850959283E-2   -4.723113957663898E-2    4.531516617087967E-1   -2.447336982040766E-1
 6.529832825100000E9     5.434326542369126E-1   -1.320314371353011E-1   -2.079173492701111E-2   -4.803983021057193E-2   -2.189747454075876E-2   -4.759072348840931E-2    4.522071930172113E-1   -2.460347931802546E-1
 6.529843521400000E9     5.430788786284755E-1   -1.329213710413152E-1   -2.107821663688472E-2   -4.821566809298374E-2   -2.219069447309134E-2   -4.801436426239762E-2    4.514480255554209E-1   -2.471776283208471E-1
 6.529854217700000E9     5.428230814164197E-1   -1.339695011193757E-1   -2.145646247835930E-2   -4.872296180499923E-2   -2.252628220745283E-2   -4.830927679070975E-2    4.505177275268978E-1   -2.483059715659721E-1
 6.529864914000000E9     5.425478989310567E-1   -1.350016095641919E-1   -2.179290341393764E-2   -4.901954165207258E-2   -2.293540112907923E-2   -4.858553987074857E-2    4.497735802108901E-1   -2.495845328188951E-1
