#  HZ   S   RI   R     50.00 
! Rohde & Schwarz Vector Network Analyzer 
! Rohde-Schwarz,ZNB20-2Port,1311601062101988,3.16
! Created: UTC 3/21/2024, 1:09:28 AM
! freq[Hz]                re:S11                  im:S11                  re:S21                  im:S21                  re:S12                  im:S12                  re:S22                  im:S22
 6.528908775000000E9     5.585529057164329E-1   -5.448839196596334E-2   -6.584727083909871E-3   -2.950147337211042E-2   -7.134425158607167E-3   -2.939044667289450E-2    4.959695436282138E-1   -1.571292141865554E-1
 6.528919452725000E9     5.583915895962202E-1   -5.519500221016743E-2   -6.719372515833957E-3   -2.957913788881976E-2   -7.226439710437469E-3   -2.947891306088756E-2    4.959400384875192E-1   -1.581237890603576E-1
 6.528930130450000E9     5.584181558597742E-1   -5.600044273595201E-2   -6.700427366906785E-3   -2.980945837987244E-2   -7.337278944987134E-3   -2.967577573399790E-2    4.954425329903970E-1   -1.588787241200968E-1
 6.528940808175000E9     5.581827827991853E-1   -5.684625295840590E-2   -6.755929057842860E-3   -2.987189564582197E-2   -7.362140598727742E-3   -2.980229717014199E-2    4.949874537907785E-1   -1.598182332643381E-1
 6.528951485900000E9     5.581932056295568E-1   -5.759402775981395E-2   -6.992299181222641E-3   -2.999489000224445E-2   -7.483496468352170E-3   -2.993658720985973E-2    4.947110130533120E-1   -1.608745101873880E-1
 6.528962163625000E9     5.580669697855465E-1   -5.850152208121533E-2   -7.079698999560200E-3   -3.012982032415658E-2   -7.625268402083521E-3   -3.001171443433842E-2    4.944592686345198E-1   -1.618187368002545E-1
 6.528972841350000E9     5.579512031247532E-1   -5.943702870909003E-2   -7.137505126570283E-3   -3.025932474955894E-2   -7.694300563724038E-3   -3.022108489499600E-2    4.941186307476946E-1   -1.626218377243874E-1
 6.528983519075000E9     5.578464455097660E-1   -6.027502858192321E-2   -7.195607601306773E-3   -3.053000969252850E-2   -7.877105136856662E-3   -3.028920379036704E-2    4.938085509002024E-1   -1.635055430220669E-1
 6.528994196800000E9     5.577654274156291E-1   -6.115738917811114E-2   -7.372672838958294E-3   -3.053505228467269E-2   -7.968435122371309E-3   -3.046258256503495E-2    4.935309924291485E-1   -1.644888144416271E-1
 6.529004874525000E9     5.576841471420507E-1   -6.193640896286645E-2   -7.372181523778885E-3   -3.064552222104319E-2   -7.932260529590585E-3   -3.052513123892264E-2    4.930802137746573E-1   -1.653395975869534E-1
 6.529015552250000E9     5.574402358293508E-1   -6.279586428602241E-2   -7.496920430132638E-3   -3.088978760327801E-2   -8.040529895882840E-3   -3.076130699665762E-2    4.926558342425886E-1   -1.662719339675834E-1
 6.529026229975000E9     5.575120534808212E-1   -6.368468823888127E-2   -7.543295312750522E-3   -3.086053235437940E-2   -8.098533573264946E-3   -3.085263104781330E-2    4.924532033127668E-1   -1.672056237449267E-1
 6.529036907700000E9     5.573528933245622E-1   -6.453744201156945E-2   -7.744629957946315E-3   -3.126520245539420E-2   -8.313397386309816E-3   -3.101970689152204E-2    4.920935778366042E-1   -1.680340443799452E-1
 6.529047585425000E9     5.572638088586968E-1   -6.531624124959681E-2   -7.872465518373711E-3   -3.138477305379991E-2   -8.425984893812140E-3   -3.111584427606050E-2    4.917422817847303E-1   -1.690201936400499E-1
 6.529058263150000E9     5.570297282103639E-1   -6.626858590300828E-2   -7.872343261701673E-3   -3.143177657414544E-2   -8.478320715057202E-3   -3.122836005688890E-2    4.913403071175643E-1   -1.699115177579362E-1
 6.529068940875000E9     5.570572006195185E-1   -6.706983775123430E-2   -8.024449230081217E-3   -3.153111174071004E-2   -8.727898227045726E-3   -3.144972360360811E-2    4.912052199157260E-1   -1.708088928294622E-1
 6.529079618600000E9     5.570160464978637E-1   -6.799777710052939E-2   -8.003188581381684E-3   -3.179256458647973E-2   -8.782782024141091E-3   -3.165897431987733E-2    4.907459363732641E-1   -1.717296539678207E-1
 6.529090296325000E9     5.567915663867210E-1   -6.883688659019110E-2   -8.237687939284392E-3   -3.193472943070885E-2   -8.837215394290167E-3   -3.176756492699567E-2    4.904329793413423E-1   -1.726317701987406E-1
 6.529100974050000E9     5.566926735602032E-1   -6.962553122465207E-2   -8.385945341595199E-3   -3.198937745999148E-2   -9.009282370277533E-3   -3.183621196751994E-2    4.899095644944007E-1   -1.736572524334118E-1
 6.529111651775000E9     5.565426504847867E-1   -7.050615667889505E-2   -8.327225815695220E-3   -3.228465426121733E-2   -9.037740386058519E-3   -3.211494292249176E-2    4.896365067861363E-1   -1.746041685488541E-1
 6.529122329500000E9     5.563463734215603E-1   -7.140070975625382E-2   -8.487858429925495E-3   -3.238218703676522E-2   -9.106497499395159E-3   -3.209725016933014E-2    4.892086242900615E-1   -1.756331912395707E-1
 6.529133007225000E9     5.563194776320790E-1   -7.238516338729344E-2   -8.755922694420989E-3   -3.249359458314256E-2   -9.320866757453930E-3   -3.234109485836027E-2    4.888380539276931E-1   -1.765838957426062E-1
 6.529143684950000E9     5.562193373191967E-1   -7.310779129761998E-2   -8.684694351393081E-3   -3.272928597634660E-2   -9.385663409708376E-3   -3.263372745337666E-2    4.884323800225190E-1   -1.772614785546960E-1
 6.529154362675000E9     5.560286303090431E-1   -7.394433894048551E-2   -8.800312516981336E-3   -3.282476999945191E-2   -9.511231419595640E-3   -3.262709933619344E-2    4.880030024701496E-1   -1.783477016261762E-1
 6.529165040400000E9     5.559504925559235E-1   -7.474024880709934E-2   -9.063959299684121E-3   -3.299590173312955E-2   -9.642514153387276E-3   -3.282077936054960E-2    4.876417977150317E-1   -1.793380468356650E-1
 6.529175718125000E9     5.557906108218489E-1   -7.570130174877869E-2   -9.218527032953446E-3   -3.317652940454958E-2   -9.767705015778162E-3   -3.304810804130508E-2    4.873838915837975E-1   -1.802642499704027E-1
 6.529186395850000E9     5.556344845502152E-1   -7.665056514921291E-2   -9.221498366783343E-3   -3.329691080248934E-2   -9.908115953179374E-3   -3.322019115566188E-2    4.868707502830884E-1   -1.812699266249756E-1
 6.529197073575000E9     5.555515149033017E-1   -7.746833790277995E-2   -9.234193972810632E-3   -3.351749411631273E-2   -1.002644587102288E-2   -3.329632895494274E-2    4.865117724054154E-1   -1.822140843048438E-1
 6.529207751300000E9     5.554000474915478E-1   -7.832922757519772E-2   -9.446902023263251E-3   -3.370293845795365E-2   -1.009778995880248E-2   -3.355030571075542E-2    4.860970714735216E-1   -1.830557354006425E-1
 6.529218429025000E9     5.553694596554769E-1   -7.915598241843173E-2   -9.633375227952986E-3   -3.382569356168037E-2   -1.029386299594289E-2   -3.361119422253334E-2    4.858128232257977E-1   -1.841936037769866E-1
 6.529229106750000E9     5.551426350838645E-1   -8.014943983071626E-2   -9.692608063121269E-3   -3.406579698790939E-2   -1.033638669172925E-2   -3.391875991708831E-2    4.853415405244239E-1   -1.850534749464149E-1
 6.529239784475000E9     5.549196089059002E-1   -8.098072643104812E-2   -9.784740399407523E-3   -3.404551708144973E-2   -1.041935602600135E-2   -3.401249770121630E-2    4.847481856103928E-1   -1.860866882139565E-1
 6.529250462200000E9     5.548789038849248E-1   -8.192120401999416E-2   -9.782078426239063E-3   -3.437514161328543E-2   -1.071433501506055E-2   -3.414009901569535E-2    4.843906428990901E-1   -1.869567211832588E-1
 6.529261139925000E9     5.547351251515106E-1   -8.267975841784064E-2   -9.969776662266366E-3   -3.455667559687796E-2   -1.069698247553514E-2   -3.432851812133620E-2    4.840517761247420E-1   -1.880537683467680E-1
 6.529271817650000E9     5.544982610621718E-1   -8.363094306046025E-2   -1.018670735230241E-2   -3.454924069061007E-2   -1.090021717943043E-2   -3.457746704662307E-2    4.836377491147006E-1   -1.890282060172593E-1
 6.529282495375000E9     5.544281249421787E-1   -8.442137365566817E-2   -1.039808955473802E-2   -3.473762474444557E-2   -1.104583705174347E-2   -3.470619732769607E-2    4.831108470310239E-1   -1.900892163923173E-1
 6.529293173100000E9     5.543566451469903E-1   -8.534560688462998E-2   -1.033218525318550E-2   -3.512946466284086E-2   -1.116133947091100E-2   -3.482234973184883E-2    4.829280081660364E-1   -1.908992907429685E-1
 6.529303850825000E9     5.541502125687744E-1   -8.626972999576814E-2   -1.057133005185295E-2   -3.527675323229450E-2   -1.127194418205507E-2   -3.511724644667211E-2    4.823193234161818E-1   -1.920032898540784E-1
 6.529314528550000E9     5.539573346404493E-1   -8.707627142941558E-2   -1.059533348192460E-2   -3.546823785713316E-2   -1.148445875230171E-2   -3.529816930341951E-2    4.818856211118632E-1   -1.927993034293882E-1
 6.529325206275000E9     5.538171009746328E-1   -8.809072658902477E-2   -1.083371634165338E-2   -3.558039579624921E-2   -1.159133430070649E-2   -3.548927152461743E-2    4.814536457678500E-1   -1.937677931783551E-1
 6.529335884000000E9     5.536152146926879E-1   -8.897001623313835E-2   -1.105212891212631E-2   -3.587750170817299E-2   -1.174094640245032E-2   -3.561328516708836E-2    4.809746790881917E-1   -1.948339167068013E-1
 6.529346561725000E9     5.535281355270901E-1   -8.973397076823879E-2   -1.120811653231807E-2   -3.610077455628712E-2   -1.187504414545941E-2   -3.590529764523989E-2    4.803739074366955E-1   -1.957998068293619E-1
 6.529357239450000E9     5.534098165242379E-1   -9.067476767406452E-2   -1.127019747462721E-2   -3.615264009291626E-2   -1.200929405939125E-2   -3.597218147498683E-2    4.799666294983851E-1   -1.968539618637364E-1
 6.529367917175000E9     5.531442675752226E-1   -9.153805239548715E-2   -1.157226061544063E-2   -3.647173882053287E-2   -1.213313158378974E-2   -3.620761807141160E-2    4.795720993949037E-1   -1.978242547145022E-1
 6.529378594900000E9     5.530735405837807E-1   -9.254599890889377E-2   -1.156640263568055E-2   -3.662206100630317E-2   -1.231800414095663E-2   -3.642976410966799E-2    4.790817281551583E-1   -1.989498467278276E-1
 6.529389272625000E9     5.529621698132811E-1   -9.333490295669152E-2   -1.170758970163094E-2   -3.688654291430642E-2   -1.245945052317191E-2   -3.665676591364883E-2    4.785822031586943E-1   -1.997652256998119E-1
 6.529399950350000E9     5.527345043495966E-1   -9.425102619740480E-2   -1.175042831606373E-2   -3.693539456022045E-2   -1.269438960932855E-2   -3.687175422721099E-2    4.780962490358560E-1   -2.007954620624703E-1
 6.529410628075000E9     5.524656676401333E-1   -9.510521968842064E-2   -1.206768548126105E-2   -3.729427313305222E-2   -1.293184158679150E-2   -3.700388587706209E-2    4.776192460992577E-1   -2.019583402087433E-1
 6.529421305800000E9     5.523438962930494E-1   -9.616269406627649E-2   -1.201201728528016E-2   -3.747908701233135E-2   -1.290117795208059E-2   -3.721050314442056E-2    4.770613418452896E-1   -2.028916352115045E-1
 6.529431983525000E9     5.522139106503187E-1   -9.697439012065327E-2   -1.235775889319370E-2   -3.767216810517805E-2   -1.311684655362880E-2   -3.737311744349817E-2    4.765338929958314E-1   -2.039270922988375E-1
 6.529442661250000E9     5.518780263301584E-1   -9.778905061921769E-2   -1.257979698284694E-2   -3.793646818600824E-2   -1.335392656246099E-2   -3.768532687165138E-2    4.761066679952533E-1   -2.049970085432252E-1
 6.529453338975000E9     5.520129146408658E-1   -9.863319379243846E-2   -1.260465619641613E-2   -3.805383693576424E-2   -1.349490886806970E-2   -3.804111844636976E-2    4.756530300427195E-1   -2.060843201879593E-1
 6.529464016700000E9     5.516435084893423E-1   -9.980029312060038E-2   -1.274394427041661E-2   -3.827285106329747E-2   -1.355682798074214E-2   -3.811877350082850E-2    4.749783468180693E-1   -2.069274334516830E-1
 6.529474694425000E9     5.514159882568290E-1   -1.003934363414544E-1   -1.303345976223969E-2   -3.867017268445971E-2   -1.378849508477865E-2   -3.836362927385885E-2    4.745081539075846E-1   -2.081120623512164E-1
 6.529485372150000E9     5.511161083756015E-1   -1.015376740735546E-1   -1.308460955835682E-2   -3.877971545645975E-2   -1.393934446874741E-2   -3.852736192601422E-2    4.738765767919878E-1   -2.091206271623021E-1
 6.529496049875000E9     5.510820790475298E-1   -1.023108403724489E-1   -1.324077734922716E-2   -3.904457598206770E-2   -1.408927735211097E-2   -3.881952593056952E-2    4.735313658411053E-1   -2.101965872838525E-1
 6.529506727600000E9     5.507828727234342E-1   -1.032163951593254E-1   -1.352029533390517E-2   -3.931309673689528E-2   -1.436404200720399E-2   -3.899505086774230E-2    4.729781651162427E-1   -2.110725685170441E-1
 6.529517405325000E9     5.507401864906369E-1   -1.041655106494720E-1   -1.367574601424511E-2   -3.935514273209020E-2   -1.459271570154359E-2   -3.919671462012457E-2    4.723883121922111E-1   -2.122455725719445E-1
 6.529528083050000E9     5.505320576637555E-1   -1.050133639226883E-1   -1.392575892597991E-2   -3.980565021044414E-2   -1.474235984000400E-2   -3.946020630377483E-2    4.717548529541066E-1   -2.132963354119806E-1
 6.529538760775000E9     5.503077354750626E-1   -1.060206314645334E-1   -1.413678083728350E-2   -4.001583791549226E-2   -1.484672816399491E-2   -3.972098965397759E-2    4.713487531451162E-1   -2.144047271377389E-1
 6.529549438500000E9     5.501193847695148E-1   -1.069162238610542E-1   -1.421270705554458E-2   -4.022045559607835E-2   -1.519019755981620E-2   -3.993722824456657E-2    4.706645081040786E-1   -2.156573293817537E-1
 6.529560116225000E9     5.499907601534687E-1   -1.077632624910473E-1   -1.429387016907979E-2   -4.039166085812620E-2   -1.537678967915756E-2   -4.015856108809867E-2    4.700396185109363E-1   -2.166004846866539E-1
 6.529570793950000E9     5.496587945554358E-1   -1.087241185476686E-1   -1.474316596177349E-2   -4.085493632270844E-2   -1.554816376871683E-2   -4.040878888603151E-2    4.693734044833894E-1   -2.176296823841936E-1
 6.529581471675000E9     5.493684951649330E-1   -1.096145493622229E-1   -1.498288304147588E-2   -4.090230830521815E-2   -1.570582335407846E-2   -4.068958382605192E-2    4.689774921347105E-1   -2.186168691484999E-1
 6.529592149400000E9     5.491735703809567E-1   -1.105038106105595E-1   -1.492897643704584E-2   -4.113865906747128E-2   -1.599221022707246E-2   -4.100916216682463E-2    4.683729935199715E-1   -2.197770224072323E-1
 6.529602827125000E9     5.490127552246221E-1   -1.115145142315567E-1   -1.539100663531323E-2   -4.147315522563612E-2   -1.614864672698587E-2   -4.118750807456435E-2    4.677590234195364E-1   -2.208674853123899E-1
 6.529613504850000E9     5.488262504668237E-1   -1.122831508052565E-1   -1.545968436901030E-2   -4.171013152091727E-2   -1.641872235768019E-2   -4.156154183666400E-2    4.671384232086263E-1   -2.219087379219298E-1
 6.529624182575000E9     5.486356444749249E-1   -1.132419050030485E-1   -1.566632594256319E-2   -4.208277670661206E-2   -1.666508163756536E-2   -4.162288328552761E-2    4.665217250023652E-1   -2.229998459793630E-1
 6.529634860300000E9     5.482864834943593E-1   -1.142339791901767E-1   -1.585383641768847E-2   -4.219473855183409E-2   -1.689373317675060E-2   -4.193966947617109E-2    4.659619721077655E-1   -2.240905980576949E-1
 6.529645538025000E9     5.480752649406576E-1   -1.150721700799333E-1   -1.598765734945394E-2   -4.247935698247490E-2   -1.708504892111292E-2   -4.213143571228531E-2    4.651937191042644E-1   -2.253146957023544E-1
 6.529656215750000E9     5.477609204414028E-1   -1.161357668887942E-1   -1.637967101824358E-2   -4.270986279762719E-2   -1.732603364745829E-2   -4.251751803551557E-2    4.645704823127075E-1   -2.263595496014378E-1
 6.529666893475000E9     5.475688800987751E-1   -1.170074142334895E-1   -1.667269946613274E-2   -4.304148431336744E-2   -1.761264649481050E-2   -4.273088182986894E-2    4.639633195051522E-1   -2.275036903155957E-1
 6.529677571200000E9     5.474287211364556E-1   -1.180106514799437E-1   -1.673305785001498E-2   -4.338840392655388E-2   -1.772975425769296E-2   -4.309668779641280E-2    4.632597995007177E-1   -2.284998003695083E-1
 6.529688248925000E9     5.470552827119511E-1   -1.188995790450985E-1   -1.698897542845881E-2   -4.360070609786158E-2   -1.795701094923089E-2   -4.341749509119020E-2    4.626025894882417E-1   -2.298886198473211E-1
 6.529698926650000E9     5.468800220071599E-1   -1.197739511156533E-1   -1.721889499070128E-2   -4.380238986273242E-2   -1.825553223844937E-2   -4.356881823144677E-2    4.618573748974453E-1   -2.309581136845685E-1
 6.529709604375000E9     5.465472570006343E-1   -1.208111070359343E-1   -1.749423200734386E-2   -4.422376231929757E-2   -1.852148241235496E-2   -4.391928706984974E-2    4.612186226199042E-1   -2.319109163507841E-1
 6.529720282100000E9     5.464125914195216E-1   -1.217808983866749E-1   -1.775842342149709E-2   -4.445315566137045E-2   -1.875548768120575E-2   -4.428274842404339E-2    4.603966928778804E-1   -2.332494429109044E-1
 6.529730959825000E9     5.461377640475674E-1   -1.227079419568917E-1   -1.803496936006634E-2   -4.486746638029541E-2   -1.908609234893356E-2   -4.439883541385744E-2    4.596972319718434E-1   -2.342977153771100E-1
 6.529741637550000E9     5.457952403151018E-1   -1.236009651939636E-1   -1.824364633978820E-2   -4.501998227768120E-2   -1.922748822947167E-2   -4.483654880768653E-2    4.591105319020291E-1   -2.356606796623109E-1
 6.529752315275000E9     5.455756699704741E-1   -1.246606460828526E-1   -1.838010003435566E-2   -4.532598208737851E-2   -1.954392871703471E-2   -4.510529647635655E-2    4.583728825278539E-1   -2.366614154277223E-1
 6.529762993000000E9     5.453826305117847E-1   -1.256263232662402E-1   -1.883164976060987E-2   -4.569838220318328E-2   -1.981512585803724E-2   -4.526235023924733E-2    4.576224616116071E-1   -2.378986729529935E-1
 6.529773670725000E9     5.450563571334394E-1   -1.264328434483702E-1   -1.898465935790723E-2   -4.606493315709591E-2   -2.023930346542820E-2   -4.566275090558099E-2    4.568217014607077E-1   -2.390928850334681E-1
 6.529784348450000E9     5.447578756353950E-1   -1.274269269837553E-1   -1.934820893570369E-2   -4.652115874245184E-2   -2.038515060806506E-2   -4.610238147475739E-2    4.560570876423846E-1   -2.403504670715554E-1
 6.529795026175000E9     5.445024728214461E-1   -1.283631985441852E-1   -1.963034424801841E-2   -4.650462026389344E-2   -2.080759524189675E-2   -4.629737964700156E-2    4.550851123661859E-1   -2.416114673724984E-1
 6.529805703900000E9     5.441431356160186E-1   -1.294561452945512E-1   -1.997990582451695E-2   -4.700053095593618E-2   -2.114146670670972E-2   -4.660584230771508E-2    4.544250389166153E-1   -2.426396204171977E-1
 6.529816381625000E9     5.438180986087936E-1   -1.303914662378818E-1   -2.020285193757734E-2   -4.740117173180077E-2   -2.140818832969727E-2   -4.696854403794730E-2    4.535721392039350E-1   -2.439342013335103E-1
 6.529827059350000E9     5.434772453197653E-1   -1.313517247111013E-1   -2.053831532457832E-2   -4.781916612231989E-2   -2.165482482843833E-2   -4.725527309602229E-2    4.529774048645830E-1   -2.451141638761739E-1
 6.529837737075000E9     5.432808522244197E-1   -1.323497883389134E-1   -2.076606068673422E-2   -4.808275207493890E-2   -2.198993991791133E-2   -4.768194555080069E-2    4.520905751945914E-1   -2.463084177669888E-1
 6.529848414800000E9     5.430350171050133E-1   -1.332966597631327E-1   -2.115244251552480E-2   -4.831914184988546E-2   -2.228737045201093E-2   -4.799617447314333E-2    4.511452649622859E-1   -2.473923455310533E-1
 6.529859092525000E9     5.428130568046984E-1   -1.342686490994429E-1   -2.151953290339727E-2   -4.882833166338794E-2   -2.255122827745759E-2   -4.835697681221082E-2    4.503282124547918E-1   -2.487727393637371E-1
 6.529869770250000E9     5.423866023396157E-1   -1.352937383225967E-1   -2.185878598564212E-2   -4.912090181628331E-2   -2.293026790468587E-2   -4.873922090016344E-2    4.494695125710101E-1   -2.499738482997929E-1
