#  HZ   S   RI   R     50.00 
! Rohde & Schwarz Vector Network Analyzer 
! Rohde-Schwarz,ZNB20-2Port,1311601062101988,3.16
! Created: UTC 3/21/2024, 1:09:43 AM
! freq[Hz]                re:S11                  im:S11                  re:S21                  im:S21                  re:S12                  im:S12                  re:S22                  im:S22
 6.528926196000000E9     5.584033501004321E-1   -5.546025809791458E-2   -6.789274943203091E-3   -2.960370178398190E-2   -7.217386857162727E-3   -2.941717426674442E-2    4.956943721259411E-1   -1.583238852132542E-1
 6.528936834500000E9     5.582815399460799E-1   -5.632386272371792E-2   -6.743806523257601E-3   -2.958250465950854E-2   -7.319976669729988E-3   -2.961129396481633E-2    4.953610564756458E-1   -1.592766378453464E-1
 6.528947473000000E9     5.581587335088322E-1   -5.706074683683172E-2   -6.828232713982329E-3   -2.980526709844707E-2   -7.343449754415721E-3   -2.972869887954662E-2    4.949684970434185E-1   -1.602154209008237E-1
 6.528958111500000E9     5.580725125899921E-1   -5.807725013376584E-2   -7.024624579390099E-3   -2.993175895274545E-2   -7.596491889362698E-3   -2.991714147418198E-2    4.946160175082771E-1   -1.611278563998828E-1
 6.528968750000000E9     5.580974351001075E-1   -5.881468376402633E-2   -6.938112053104769E-3   -3.021116682550077E-2   -7.662386276689954E-3   -2.995038114616900E-2    4.942381336936961E-1   -1.618544299116133E-1
 6.528979388500000E9     5.578880595109380E-1   -5.955320137477298E-2   -7.047621713868791E-3   -3.022757646941603E-2   -7.702186891696266E-3   -3.010820716585238E-2    4.941108141323185E-1   -1.627474000691239E-1
 6.528990027000000E9     5.577696298200805E-1   -6.040112126891156E-2   -7.157384694723028E-3   -3.026384806450562E-2   -7.800444059686495E-3   -3.018834594727923E-2    4.934958170587105E-1   -1.636813375903673E-1
 6.529000665500000E9     5.577420720418539E-1   -6.136255360856849E-2   -7.298140748628380E-3   -3.052626531299141E-2   -7.796398918386385E-3   -3.035919000754230E-2    4.934590181912267E-1   -1.647386879768105E-1
 6.529011304000000E9     5.576196427316101E-1   -6.224153965504882E-2   -7.391355282109960E-3   -3.060418789796299E-2   -7.908968283702762E-3   -3.044050084640048E-2    4.929675365339017E-1   -1.655575537208699E-1
 6.529021942500000E9     5.573428124600645E-1   -6.304185468775879E-2   -7.466596661287388E-3   -3.076386813218535E-2   -8.074606072990686E-3   -3.069871050204449E-2    4.925813876597501E-1   -1.665202706127678E-1
 6.529032581000000E9     5.574276748393945E-1   -6.385479218186506E-2   -7.468098606212790E-3   -3.094134661179426E-2   -8.150140230883987E-3   -3.079662164912050E-2    4.922297839762805E-1   -1.674175652521504E-1
 6.529043219500000E9     5.572789157838460E-1   -6.474688226371143E-2   -7.727900880428688E-3   -3.108940525803472E-2   -8.359338025527213E-3   -3.098171623564814E-2    4.920289932955073E-1   -1.682594804122554E-1
 6.529053858000000E9     5.572075577754495E-1   -6.557354627734069E-2   -7.638985088095973E-3   -3.128239173524768E-2   -8.373170325234561E-3   -3.110531718738050E-2    4.917362433574654E-1   -1.693880488744313E-1
 6.529064496500000E9     5.570921665909908E-1   -6.644349985102202E-2   -7.865568744240554E-3   -3.131508740645709E-2   -8.526640109963311E-3   -3.123736130453451E-2    4.912427824360224E-1   -1.702517707517371E-1
 6.529075135000000E9     5.570087773761745E-1   -6.734209645698329E-2   -8.011404765464351E-3   -3.141486962486133E-2   -8.658441425819135E-3   -3.137482332938565E-2    4.908870502220504E-1   -1.710859823645840E-1
 6.529085773500000E9     5.569681510420348E-1   -6.813575053156594E-2   -8.087557276383479E-3   -3.156879418154451E-2   -8.780531872507016E-3   -3.157160612983585E-2    4.905969121885575E-1   -1.720368459679748E-1
 6.529096412000000E9     5.566826445914919E-1   -6.899510197180916E-2   -8.130829854954605E-3   -3.167252882987603E-2   -8.834201169305878E-3   -3.167784491204934E-2    4.902589483534184E-1   -1.727281447612874E-1
 6.529107050500000E9     5.565535228452062E-1   -7.002065181014729E-2   -8.358117504399999E-3   -3.197168930396142E-2   -8.917800989077069E-3   -3.173856569686954E-2    4.897273914145459E-1   -1.738025966249163E-1
 6.529117689000000E9     5.564828213763282E-1   -7.075905979153718E-2   -8.307462158077535E-3   -3.206376363928543E-2   -9.022955485627884E-3   -3.203963832469159E-2    4.895558831776703E-1   -1.748581905845601E-1
 6.529128327500000E9     5.564875397322120E-1   -7.157240889785901E-2   -8.487407816048981E-3   -3.232370634770230E-2   -9.128408841122919E-3   -3.214652176304881E-2    4.891761929819733E-1   -1.757379885094608E-1
 6.529138966000000E9     5.562118843099996E-1   -7.243938361679800E-2   -8.542826086551564E-3   -3.232364449839518E-2   -9.324132189325597E-3   -3.229120113308109E-2    4.888274631952429E-1   -1.767172255979326E-1
 6.529149604500000E9     5.560693441828968E-1   -7.328295549470934E-2   -8.616622342127692E-3   -3.255506358981545E-2   -9.351256046210789E-3   -3.241955540095120E-2    4.882565344375667E-1   -1.776702465066163E-1
 6.529160243000000E9     5.560291644047020E-1   -7.419313371598113E-2   -8.800760666023861E-3   -3.269427761052506E-2   -9.502864537400759E-3   -3.265265225878065E-2    4.879208441594815E-1   -1.784856518919200E-1
 6.529170881500000E9     5.559291590679427E-1   -7.503398465563574E-2   -8.979779483515089E-3   -3.290511422991116E-2   -9.648488908470880E-3   -3.280043585934675E-2    4.878116675788846E-1   -1.794210220403050E-1
 6.529181520000000E9     5.557081880625817E-1   -7.594082365755758E-2   -9.167042381749521E-3   -3.298916753509472E-2   -9.655120140404809E-3   -3.292056857856906E-2    4.871778935385986E-1   -1.805644982495680E-1
 6.529192158500000E9     5.556098341748003E-1   -7.685926827159965E-2   -9.150237767748995E-3   -3.323809163446407E-2   -9.940083148317546E-3   -3.307384666180520E-2    4.868689517275665E-1   -1.814350541091660E-1
 6.529202797000000E9     5.555206189650361E-1   -7.763408694250215E-2   -9.253037925291936E-3   -3.323062817259005E-2   -9.965411882274124E-3   -3.328061620688699E-2    4.863714622511799E-1   -1.823542377903177E-1
 6.529213435500000E9     5.555535346986600E-1   -7.862061494763883E-2   -9.400933789651289E-3   -3.355171017116877E-2   -1.015509259471059E-2   -3.343015761012409E-2    4.861691386015134E-1   -1.833121970516135E-1
 6.529224074000000E9     5.553210902397295E-1   -7.942138179100067E-2   -9.502842099434056E-3   -3.382421175340936E-2   -1.024299777296866E-2   -3.360425643269958E-2    4.855418606724907E-1   -1.843958193792734E-1
 6.529234712500000E9     5.551769443466469E-1   -8.024773180588241E-2   -9.671458800466963E-3   -3.383255007131897E-2   -1.035365344861661E-2   -3.381979052252811E-2    4.849797415822201E-1   -1.851046414309366E-1
 6.529245351000000E9     5.548760643225243E-1   -8.118037916132179E-2   -9.779504395320613E-3   -3.425281020869191E-2   -1.051815937274513E-2   -3.402317773193264E-2    4.847714370227500E-1   -1.861230697720281E-1
 6.529255989500000E9     5.548306264760220E-1   -8.200630933045217E-2   -9.886515184933983E-3   -3.431008846984843E-2   -1.064008268005786E-2   -3.413640153723878E-2    4.843912215190623E-1   -1.871923073913667E-1
 6.529266628000000E9     5.547479614275844E-1   -8.293903606903161E-2   -9.966996077930322E-3   -3.434471980115477E-2   -1.068167451712790E-2   -3.422422820446544E-2    4.839990778700335E-1   -1.880306103796763E-1
 6.529277266500000E9     5.545794739973976E-1   -8.370853739523010E-2   -1.014760481062607E-2   -3.462700234491332E-2   -1.084879300186503E-2   -3.438082600390722E-2    4.835077115203603E-1   -1.890988751805245E-1
 6.529287905000000E9     5.543502123343023E-1   -8.469134691850166E-2   -1.022214665805340E-2   -3.484681348231246E-2   -1.099298376976072E-2   -3.463929110160785E-2    4.831560342674768E-1   -1.900801186513439E-1
 6.529298543500000E9     5.543432689426880E-1   -8.547452976528498E-2   -1.036556627347641E-2   -3.500765631335459E-2   -1.105510585159855E-2   -3.483261935183980E-2    4.826182579202015E-1   -1.909966615737521E-1
 6.529309182000000E9     5.541642081854268E-1   -8.628559579657444E-2   -1.046188406391452E-2   -3.512821095875183E-2   -1.118674416410270E-2   -3.500568069722387E-2    4.821653444784826E-1   -1.920578948295373E-1
 6.529319820500000E9     5.540138687841399E-1   -8.734888186196746E-2   -1.068414710091909E-2   -3.530395234182743E-2   -1.135979194620755E-2   -3.521076323853315E-2    4.818212486569116E-1   -1.929104987269920E-1
 6.529330459000000E9     5.537790222679658E-1   -8.822483802088708E-2   -1.086259095637376E-2   -3.553222001029587E-2   -1.148437775954149E-2   -3.529918799343896E-2    4.813165764371437E-1   -1.938758083119934E-1
 6.529341097500000E9     5.536071621749388E-1   -8.901491728406734E-2   -1.091420136929225E-2   -3.578166825581384E-2   -1.171269878135273E-2   -3.563960678855554E-2    4.807974033376219E-1   -1.950244080560107E-1
 6.529351736000000E9     5.535715182411080E-1   -8.987899808897433E-2   -1.101326902652026E-2   -3.586121844205697E-2   -1.182887306793134E-2   -3.581421290373478E-2    4.804190107574788E-1   -1.961041319099156E-1
 6.529362374500000E9     5.533694270265218E-1   -9.080312570817911E-2   -1.116657685217724E-2   -3.614066201644984E-2   -1.192637568422284E-2   -3.598622476787031E-2    4.799694827026975E-1   -1.969905156449094E-1
 6.529373013000000E9     5.531800059002663E-1   -9.163217268614114E-2   -1.141823027797013E-2   -3.611198819047871E-2   -1.208200363612065E-2   -3.623523106286938E-2    4.794047711341525E-1   -1.978431708861301E-1
 6.529383651500000E9     5.529516368672356E-1   -9.275254637934877E-2   -1.145680595160699E-2   -3.650919179660534E-2   -1.229342689266714E-2   -3.633965447384956E-2    4.787527897791428E-1   -1.990880281474735E-1
 6.529394290000000E9     5.527911585443994E-1   -9.348506474280006E-2   -1.149155702315833E-2   -3.677637948400062E-2   -1.245707476551247E-2   -3.647580953716326E-2    4.786025602997992E-1   -2.000302164492613E-1
 6.529404928500000E9     5.526390115715657E-1   -9.440667905808746E-2   -1.192355157977509E-2   -3.689716377242613E-2   -1.255686105325548E-2   -3.672600363633090E-2    4.780444373193447E-1   -2.009085512459168E-1
 6.529415567000000E9     5.524570595643242E-1   -9.530445622169691E-2   -1.199523169854363E-2   -3.718878417125308E-2   -1.271151044357099E-2   -3.692338658644049E-2    4.775958287071120E-1   -2.017680663928632E-1
 6.529426205500000E9     5.522681659669688E-1   -9.612791368208101E-2   -1.214115161602800E-2   -3.734329458819181E-2   -1.288608872844029E-2   -3.712443983392894E-2    4.769797550443260E-1   -2.029101034008037E-1
 6.529436844000000E9     5.522134279104965E-1   -9.709783660887182E-2   -1.232007093584712E-2   -3.753638418043656E-2   -1.304217815935775E-2   -3.735546737713626E-2    4.764583513909077E-1   -2.037293561617424E-1
 6.529447482500000E9     5.520492784906947E-1   -9.786289488252088E-2   -1.254367507465963E-2   -3.772547757306415E-2   -1.318239183344473E-2   -3.758189220175628E-2    4.760541071911428E-1   -2.049497656639243E-1
 6.529458121000000E9     5.517533423222678E-1   -9.870652377703976E-2   -1.257800972612510E-2   -3.789948649224983E-2   -1.341984500416160E-2   -3.768291760621317E-2    4.754239954087059E-1   -2.061657579579496E-1
 6.529468759500000E9     5.515756924911166E-1   -9.969928337003435E-2   -1.293142343881428E-2   -3.826691959701801E-2   -1.359500581475837E-2   -3.798955327177150E-2    4.750959401632709E-1   -2.070093015779977E-1
 6.529479398000000E9     5.515445864694606E-1   -1.005244607453384E-1   -1.293517034360903E-2   -3.847636134130887E-2   -1.366838449414136E-2   -3.822823397876614E-2    4.743300405302518E-1   -2.080925248852136E-1
 6.529490036500000E9     5.511993522369710E-1   -1.015950585258017E-1   -1.317641973200027E-2   -3.854037907441099E-2   -1.389486283755305E-2   -3.852693128634550E-2    4.738247865322485E-1   -2.091428162049081E-1
 6.529500675000000E9     5.509668268455182E-1   -1.022926068363374E-1   -1.331049071631558E-2   -3.887187870452001E-2   -1.418550567383778E-2   -3.869245592761920E-2    4.734188926350277E-1   -2.101399064645602E-1
 6.529511313500000E9     5.509944354479470E-1   -1.032555833977054E-1   -1.355759691282316E-2   -3.916435438444256E-2   -1.433794071507512E-2   -3.886181347776725E-2    4.728857932031366E-1   -2.113235567378630E-1
 6.529521952000000E9     5.507249348914300E-1   -1.041786210734655E-1   -1.357804491201853E-2   -3.921845659488671E-2   -1.457100386628390E-2   -3.903490809559806E-2    4.723775478798284E-1   -2.121849872541611E-1
 6.529532590500000E9     5.504543171616214E-1   -1.051575918582986E-1   -1.369487071552187E-2   -3.954201033776495E-2   -1.471833312032215E-2   -3.933654439119763E-2    4.717850141484166E-1   -2.134953975187255E-1
 6.529543229000000E9     5.502092964333472E-1   -1.059844105806714E-1   -1.398454231656793E-2   -3.980657208818578E-2   -1.486440859442869E-2   -3.947046705376193E-2    4.712071429919213E-1   -2.143916343108881E-1
 6.529553867500000E9     5.500318994728547E-1   -1.069083471153025E-1   -1.424189219369872E-2   -4.009966772363498E-2   -1.501131367949629E-2   -3.979454705338055E-2    4.707483767857154E-1   -2.154623115595968E-1
 6.529564506000000E9     5.498701280509737E-1   -1.078496460309509E-1   -1.446460508056025E-2   -4.027077609262111E-2   -1.521383017624453E-2   -4.005670968053006E-2    4.701378879225047E-1   -2.165377696665081E-1
 6.529575144500000E9     5.496576939179810E-1   -1.086853091551690E-1   -1.463002352289339E-2   -4.052609057556703E-2   -1.557718716212911E-2   -4.033826898825876E-2    4.695589828737788E-1   -2.176161009537759E-1
 6.529585783000000E9     5.494284768000461E-1   -1.095956455475411E-1   -1.482362672603729E-2   -4.072946509046526E-2   -1.564726198654255E-2   -4.049982691096084E-2    4.689780843701231E-1   -2.186389045304284E-1
 6.529596421500000E9     5.492363784127727E-1   -1.106383394674235E-1   -1.496606061059468E-2   -4.113995595422412E-2   -1.589069984451682E-2   -4.075744085183509E-2    4.682262425178834E-1   -2.197534841929156E-1
 6.529607060000000E9     5.489742373334258E-1   -1.114859318315483E-1   -1.500211023350877E-2   -4.121299784128026E-2   -1.599822120597699E-2   -4.102518919069631E-2    4.677606379687501E-1   -2.208543580608805E-1
 6.529617698500000E9     5.488664095714015E-1   -1.123214230134978E-1   -1.541042566337798E-2   -4.149937585263513E-2   -1.638150644349133E-2   -4.124410644661511E-2    4.671266627892097E-1   -2.218481076399434E-1
 6.529628337000000E9     5.485859335925658E-1   -1.133677639588893E-1   -1.555799720694764E-2   -4.180614902222656E-2   -1.648766504551923E-2   -4.145440069048666E-2    4.665506061221403E-1   -2.230002113343743E-1
 6.529638975500000E9     5.482075104090608E-1   -1.142034534825397E-1   -1.585930847484040E-2   -4.211587075640888E-2   -1.670005549770835E-2   -4.179778239235185E-2    4.658985765099640E-1   -2.239630924060581E-1
 6.529649614000000E9     5.480173757698388E-1   -1.152280557544257E-1   -1.602170937517122E-2   -4.228573747353230E-2   -1.704390992654492E-2   -4.209002107361816E-2    4.652356215690939E-1   -2.251314182101539E-1
 6.529660252500000E9     5.479111176511438E-1   -1.160804750176391E-1   -1.625721751371030E-2   -4.261572617780290E-2   -1.714774981693283E-2   -4.232396558522609E-2    4.646576822792964E-1   -2.263108622103434E-1
 6.529670891000000E9     5.476101306437918E-1   -1.170104402313033E-1   -1.646536603140288E-2   -4.290548264299026E-2   -1.741796194182078E-2   -4.263539963687172E-2    4.639126181982289E-1   -2.274058672074394E-1
 6.529681529500000E9     5.473741802318912E-1   -1.179460344961226E-1   -1.672439116387608E-2   -4.313730867859107E-2   -1.770698302365221E-2   -4.296533854586732E-2    4.631559475811711E-1   -2.284990596708747E-1
 6.529692168000000E9     5.471756874573610E-1   -1.189049292613636E-1   -1.696081580958376E-2   -4.339493954998356E-2   -1.793008012511831E-2   -4.314982347633989E-2    4.625911076378272E-1   -2.295264742489816E-1
 6.529702806500000E9     5.468878087939703E-1   -1.197811675885324E-1   -1.707852680443301E-2   -4.371635011857038E-2   -1.814425947756404E-2   -4.345067376703596E-2    4.618703795369447E-1   -2.307679188700111E-1
 6.529713445000000E9     5.467152778146948E-1   -1.208907615416218E-1   -1.735516338362989E-2   -4.405893367993784E-2   -1.846384674085899E-2   -4.369967199025416E-2    4.612564475414594E-1   -2.318347119994373E-1
 6.529724083500000E9     5.464379200897924E-1   -1.217668746673171E-1   -1.769212716570968E-2   -4.439332883874952E-2   -1.862482099457104E-2   -4.400581968620141E-2    4.604430408435543E-1   -2.330348430251452E-1
 6.529734722000000E9     5.460810947590282E-1   -1.226765150438902E-1   -1.777062397394428E-2   -4.459720576718249E-2   -1.891981905995481E-2   -4.431294422725213E-2    4.599168498435215E-1   -2.342625837416106E-1
 6.529745360500000E9     5.459803080461547E-1   -1.235622992542173E-1   -1.815622377436349E-2   -4.499304561950645E-2   -1.919881006681383E-2   -4.460053298747397E-2    4.591777351125023E-1   -2.355280632349793E-1
 6.529755999000000E9     5.457426680625026E-1   -1.245363459003009E-1   -1.840959448228647E-2   -4.533320149916528E-2   -1.946632140828437E-2   -4.496780126521752E-2    4.582433866674902E-1   -2.365604681796809E-1
 6.529766637500000E9     5.453819479030264E-1   -1.254898174542122E-1   -1.866031665106961E-2   -4.546788574871235E-2   -1.972162692225753E-2   -4.522361494031375E-2    4.577176896589366E-1   -2.376817211914690E-1
 6.529777276000000E9     5.450679668045427E-1   -1.264343801976937E-1   -1.888928609382634E-2   -4.586740473612130E-2   -2.000905317133210E-2   -4.552067339161201E-2    4.568116193973162E-1   -2.388658764523847E-1
 6.529787914500000E9     5.447998556951947E-1   -1.275074224151457E-1   -1.924497724102511E-2   -4.606876286028579E-2   -2.026342843419710E-2   -4.582446120376134E-2    4.562960850682399E-1   -2.400571845091279E-1
 6.529798553000000E9     5.446280674396091E-1   -1.284473555509158E-1   -1.947735924675326E-2   -4.657635798230109E-2   -2.057587276497093E-2   -4.613169599808796E-2    4.555343011609190E-1   -2.411369029353323E-1
 6.529809191500000E9     5.441802129400370E-1   -1.294079816333968E-1   -1.982921982328783E-2   -4.684660685158411E-2   -2.094205883633139E-2   -4.651916664011804E-2    4.544988810500382E-1   -2.423867786140059E-1
 6.529819830000000E9     5.438619916947759E-1   -1.303145419625596E-1   -2.005935844712083E-2   -4.730462605021087E-2   -2.124087118274443E-2   -4.689768504000422E-2    4.537726439292405E-1   -2.436342812764847E-1
 6.529830468500000E9     5.437654855855388E-1   -1.312705335691384E-1   -2.045380768938591E-2   -4.752314947105634E-2   -2.148173497697749E-2   -4.708290741024807E-2    4.529644710880070E-1   -2.449297247485019E-1
 6.529841107000000E9     5.432480323273581E-1   -1.322779406170501E-1   -2.063556098254747E-2   -4.788288145611906E-2   -2.175243552537997E-2   -4.746716728099307E-2    4.520485864646793E-1   -2.460197680423771E-1
 6.529851745500000E9     5.430620028344241E-1   -1.331422340171271E-1   -2.088978952663455E-2   -4.815346665858788E-2   -2.214114637499985E-2   -4.773291150222628E-2    4.513722377335386E-1   -2.471044091105055E-1
 6.529862384000000E9     5.427444963156595E-1   -1.343043250516142E-1   -2.137192466722004E-2   -4.865541769434822E-2   -2.247540757892143E-2   -4.812595538930546E-2    4.505772433950320E-1   -2.483761869072239E-1
 6.529873022500000E9     5.423479814847071E-1   -1.351289188310142E-1   -2.162766930105824E-2   -4.897144839814997E-2   -2.283289562216861E-2   -4.854821557016886E-2    4.497077801328015E-1   -2.496832289643945E-1
 6.529883661000000E9     5.420859383297484E-1   -1.361580325204352E-1   -2.196908804125829E-2   -4.916788687315704E-2   -2.311979899862262E-2   -4.885564364935802E-2    4.488011712429472E-1   -2.508912508928974E-1
