#  HZ   S   RI   R     50.00 
! Rohde & Schwarz Vector Network Analyzer 
! Rohde-Schwarz,ZNB20-2Port,1311601062101988,3.16
! Created: UTC 3/21/2024, 1:09:48 AM
! freq[Hz]                re:S11                  im:S11                  re:S21                  im:S21                  re:S12                  im:S12                  re:S22                  im:S22
 6.528926889000000E9     5.582766155134051E-1   -5.546358169599853E-2   -6.619035641288439E-3   -2.954272200829734E-2   -7.169055136942334E-3   -2.950773855872962E-2    4.956236958042847E-1   -1.583712947665195E-1
 6.528937537900000E9     5.582788818761626E-1   -5.632855614456982E-2   -6.809341779010580E-3   -2.966377024432414E-2   -7.263787921203847E-3   -2.959299436822295E-2    4.953285945937621E-1   -1.591355745508796E-1
 6.528948186800000E9     5.581851461606926E-1   -5.706952853040144E-2   -6.792395174232898E-3   -2.975737848034683E-2   -7.388860869834270E-3   -2.969224269533661E-2    4.948957285872065E-1   -1.600048426485201E-1
 6.528958835700000E9     5.580358136577600E-1   -5.810086288934495E-2   -7.020876680736968E-3   -2.995534673249838E-2   -7.497313394241877E-3   -2.985539807282971E-2    4.945278751750100E-1   -1.609640681250624E-1
 6.528969484600000E9     5.579844869745904E-1   -5.891207447823146E-2   -6.919551526050747E-3   -3.007626545068555E-2   -7.533285702619428E-3   -2.999319356136670E-2    4.943763165746520E-1   -1.617067755669836E-1
 6.528980133500000E9     5.579301071852062E-1   -5.963709441839125E-2   -7.140377489343559E-3   -3.018797143860156E-2   -7.746327089618319E-3   -3.015267515650405E-2    4.941092890833081E-1   -1.628698983159348E-1
 6.528990782400000E9     5.577767436599715E-1   -6.051928901088850E-2   -7.215316262705571E-3   -3.035174133787281E-2   -7.779417236988083E-3   -3.019159581833608E-2    4.937433489791294E-1   -1.637743634797404E-1
 6.529001431300000E9     5.575976618714575E-1   -6.144123326237185E-2   -7.354607617642272E-3   -3.049970967151579E-2   -7.901204471119173E-3   -3.040884567273317E-2    4.934459444712662E-1   -1.646436392644455E-1
 6.529012080200000E9     5.576736078036801E-1   -6.230003841074397E-2   -7.379340029546141E-3   -3.065185058097832E-2   -7.884955487244374E-3   -3.056799613037588E-2    4.929363076600511E-1   -1.657335419390271E-1
 6.529022729100000E9     5.574899004319961E-1   -6.311841128178772E-2   -7.554536294740021E-3   -3.064109339311978E-2   -8.098567137159519E-3   -3.068272228067606E-2    4.927754274767345E-1   -1.664213130014729E-1
 6.529033378000000E9     5.573900178049788E-1   -6.393709521032206E-2   -7.592943548774563E-3   -3.083324031501284E-2   -8.165489641204180E-3   -3.077474588534833E-2    4.924552189631692E-1   -1.674267753578934E-1
 6.529044026900000E9     5.572401636051914E-1   -6.475692834285451E-2   -7.711267115298705E-3   -3.094661056973964E-2   -8.310209230318366E-3   -3.100243632414086E-2    4.918799543849837E-1   -1.681517732557587E-1
 6.529054675800000E9     5.571817581984658E-1   -6.564380359114577E-2   -7.797612510667347E-3   -3.120472768636292E-2   -8.366228169409327E-3   -3.108008116448485E-2    4.916136853030655E-1   -1.691458030309576E-1
 6.529065324700000E9     5.569777745937085E-1   -6.642228644099094E-2   -7.864578087852436E-3   -3.123299174400690E-2   -8.449407410946883E-3   -3.118122201914161E-2    4.914091227717153E-1   -1.702150084981855E-1
 6.529075973600000E9     5.569019472796042E-1   -6.741502501432323E-2   -7.821111455249555E-3   -3.148512028941555E-2   -8.543194195044800E-3   -3.131579998092063E-2    4.909546581946960E-1   -1.709005333616206E-1
 6.529086622500000E9     5.568155451037833E-1   -6.822056730087829E-2   -8.058960328127801E-3   -3.159911745381262E-2   -8.655054816130846E-3   -3.153489217197789E-2    4.905656259104811E-1   -1.719263071436725E-1
 6.529097271400000E9     5.567093646625969E-1   -6.901202434780533E-2   -8.087003895422417E-3   -3.186113510500187E-2   -8.830677161157303E-3   -3.162466347103230E-2    4.904273429451583E-1   -1.729285903537476E-1
 6.529107920300000E9     5.567046855075152E-1   -6.985370481936663E-2   -8.243408365104836E-3   -3.184582106546742E-2   -8.927020918371590E-3   -3.184307739887340E-2    4.897872602002843E-1   -1.737132789283466E-1
 6.529118569200000E9     5.565020254647549E-1   -7.074836859048234E-2   -8.345798821101315E-3   -3.202345773711997E-2   -9.017012112407338E-3   -3.193035967925093E-2    4.895647146194242E-1   -1.747034645904539E-1
 6.529129218100000E9     5.563645331659974E-1   -7.159667777315015E-2   -8.392641833882601E-3   -3.238693927133970E-2   -9.197546431728328E-3   -3.215501469990542E-2    4.891429398108249E-1   -1.757374202945206E-1
 6.529139867000000E9     5.562593831892920E-1   -7.248007624063028E-2   -8.562719659624513E-3   -3.241039387184132E-2   -9.297338096137272E-3   -3.223642544280508E-2    4.887232550813568E-1   -1.765809558661780E-1
 6.529150515900000E9     5.561520046969821E-1   -7.335256087392827E-2   -8.732718223123461E-3   -3.249055433842247E-2   -9.424427864131665E-3   -3.240965274231635E-2    4.882961034313647E-1   -1.775866470794234E-1
 6.529161164800000E9     5.560501039813270E-1   -7.411710178709352E-2   -8.702968662849015E-3   -3.259995571321347E-2   -9.501898037808714E-3   -3.252048879407074E-2    4.880888654221008E-1   -1.783286408717867E-1
 6.529171813700000E9     5.559051155420368E-1   -7.511443983803741E-2   -8.935266913044634E-3   -3.281613378728745E-2   -9.612177706590329E-3   -3.275811215573861E-2    4.875648578141315E-1   -1.793558875632304E-1
 6.529182462600000E9     5.557787333628126E-1   -7.578350643478884E-2   -9.071131476489625E-3   -3.306562394510746E-2   -9.812336614055717E-3   -3.280484225962719E-2    4.871892798065602E-1   -1.803987054842085E-1
 6.529193111500000E9     5.557400421498648E-1   -7.686180765803836E-2   -9.077507558553162E-3   -3.312892891101284E-2   -9.878435209001333E-3   -3.308056223291174E-2    4.868252597772963E-1   -1.812922716603804E-1
 6.529203760400000E9     5.555132972585302E-1   -7.764766314482198E-2   -9.265736107635116E-3   -3.345625526089215E-2   -9.894968374569348E-3   -3.326005871613578E-2    4.863636965516377E-1   -1.823138841648875E-1
 6.529214409300000E9     5.553253709822469E-1   -7.851631714476495E-2   -9.444409503391970E-3   -3.365882517088294E-2   -1.013949100063276E-2   -3.348882141819060E-2    4.860629934497294E-1   -1.833562974989016E-1
 6.529225058200000E9     5.551469072576456E-1   -7.937731012320740E-2   -9.538059895121916E-3   -3.365316062332492E-2   -1.021394225671251E-2   -3.356809954911727E-2    4.856311026762244E-1   -1.841342642879082E-1
 6.529235707100000E9     5.551134243307740E-1   -8.032719898583600E-2   -9.521908206736655E-3   -3.392817336262283E-2   -1.025380534710981E-2   -3.367281527991739E-2    4.852766312705977E-1   -1.851500105257407E-1
 6.529246356000000E9     5.550652090992252E-1   -8.115949041414013E-2   -9.725162000112994E-3   -3.402199373389964E-2   -1.041310386116036E-2   -3.391371152921790E-2    4.846967968091889E-1   -1.859840550776953E-1
 6.529257004900000E9     5.548505549614335E-1   -8.217317775086982E-2   -9.887473392845705E-3   -3.426224987870036E-2   -1.061455605316587E-2   -3.415213963013585E-2    4.843798453693904E-1   -1.870778784655399E-1
 6.529267653800000E9     5.547261628659189E-1   -8.290079801064744E-2   -1.008389846214643E-2   -3.443395557416991E-2   -1.069104332985518E-2   -3.431534969572100E-2    4.839561397267737E-1   -1.880973194316450E-1
 6.529278302700000E9     5.545991367743502E-1   -8.385436034823604E-2   -1.016901322732877E-2   -3.455754235772607E-2   -1.090963520095378E-2   -3.440808726742161E-2    4.835208416000067E-1   -1.889312981813614E-1
 6.529288951600000E9     5.543810500347045E-1   -8.454210132131237E-2   -1.030939962181977E-2   -3.478877115741196E-2   -1.102145165745824E-2   -3.457054540290218E-2    4.831470841412406E-1   -1.899998261247612E-1
 6.529299600500000E9     5.543537943912616E-1   -8.549105593921401E-2   -1.033569844822280E-2   -3.484730098537186E-2   -1.114123550959507E-2   -3.477846671235037E-2    4.826103802308029E-1   -1.910840961346845E-1
 6.529310249400000E9     5.539941311758740E-1   -8.640947050552469E-2   -1.042444301782557E-2   -3.517132347180763E-2   -1.126828201000281E-2   -3.499339386395769E-2    4.822590395307808E-1   -1.920335230320937E-1
 6.529320898300000E9     5.540579764961748E-1   -8.729690369293303E-2   -1.061007423388674E-2   -3.528440528795645E-2   -1.141121884756577E-2   -3.510648328406569E-2    4.817515628728720E-1   -1.930386495541165E-1
 6.529331547200000E9     5.538596262016208E-1   -8.822084007370393E-2   -1.088723964976968E-2   -3.548364051597843E-2   -1.152441791899923E-2   -3.534157022731391E-2    4.813110184401164E-1   -1.939682700932269E-1
 6.529342196100000E9     5.537338986314796E-1   -8.912324621581522E-2   -1.080621940355922E-2   -3.581597610004367E-2   -1.169100841882014E-2   -3.557998112128159E-2    4.809882245368848E-1   -1.950314836412786E-1
 6.529352845000000E9     5.535327571672951E-1   -8.993865002218228E-2   -1.097869517027574E-2   -3.591288772928364E-2   -1.179526748156103E-2   -3.578539089925904E-2    4.804991663940363E-1   -1.959155307765498E-1
 6.529363493900000E9     5.533225246169047E-1   -9.089212247569234E-2   -1.124574375062079E-2   -3.614911376679543E-2   -1.193144108659744E-2   -3.582049089998128E-2    4.799165226521642E-1   -1.967615182403838E-1
 6.529374142800000E9     5.532200844113755E-1   -9.168528607567983E-2   -1.140100222714367E-2   -3.616466005853458E-2   -1.211984975686033E-2   -3.612066902905473E-2    4.794383188714177E-1   -1.978082200452304E-1
 6.529384791700000E9     5.529941398478606E-1   -9.250181783416353E-2   -1.148157698861789E-2   -3.636896334755997E-2   -1.226141778681974E-2   -3.624445100952846E-2    4.790762206755030E-1   -1.988243197152537E-1
 6.529395440600000E9     5.528621008629055E-1   -9.347192517177896E-2   -1.171194590610776E-2   -3.666182432940421E-2   -1.239511615781062E-2   -3.647295306101822E-2    4.785390496786162E-1   -1.999043972043005E-1
 6.529406089500000E9     5.527314773807311E-1   -9.434321497623144E-2   -1.186839441135491E-2   -3.700331209165303E-2   -1.263548241372340E-2   -3.675950497116037E-2    4.780499559539213E-1   -2.008664201627829E-1
 6.529416738400000E9     5.523861828979528E-1   -9.527983875295398E-2   -1.191285693415159E-2   -3.700203782077573E-2   -1.272600902475222E-2   -3.688184709249114E-2    4.774229593094966E-1   -2.018186134807780E-1
 6.529427387300000E9     5.521803848256684E-1   -9.618349939632530E-2   -1.219637477508575E-2   -3.723364479810446E-2   -1.292314090442924E-2   -3.707923184137606E-2    4.771999466224938E-1   -2.029376955605574E-1
 6.529438036200000E9     5.522295575906210E-1   -9.697127463568415E-2   -1.221317669785493E-2   -3.739551529477186E-2   -1.309506800739836E-2   -3.733396712020527E-2    4.764316269389138E-1   -2.039315391256575E-1
 6.529448685100000E9     5.519204321464259E-1   -9.790307835349144E-2   -1.247163771998377E-2   -3.776761769188043E-2   -1.324407566204434E-2   -3.751021560788596E-2    4.759936474272008E-1   -2.049884915707739E-1
 6.529459334000000E9     5.517375479981669E-1   -9.880022179859317E-2   -1.251298618262995E-2   -3.800074075022482E-2   -1.341069495408028E-2   -3.770760131004443E-2    4.755051918083735E-1   -2.059006595516687E-1
 6.529469982900000E9     5.515824280450211E-1   -9.976528439704717E-2   -1.270997682335155E-2   -3.820947519631015E-2   -1.353776732921462E-2   -3.794783242597398E-2    4.748391883533012E-1   -2.070605399967001E-1
 6.529480631800000E9     5.514694805698117E-1   -1.006426332118789E-1   -1.290001047486112E-2   -3.834780380203157E-2   -1.379036741994148E-2   -3.818213842929966E-2    4.744641452402775E-1   -2.080489077885764E-1
 6.529491280700000E9     5.512134887643283E-1   -1.014261577558849E-1   -1.313891145845044E-2   -3.863752328329627E-2   -1.387693711445430E-2   -3.841018789518660E-2    4.739540792740787E-1   -2.089664753251697E-1
 6.529501929600000E9     5.509913478595730E-1   -1.023284952890871E-1   -1.331451451516758E-2   -3.888379296806554E-2   -1.411715125218445E-2   -3.862941745858330E-2    4.734166962583442E-1   -2.099863261790103E-1
 6.529512578500000E9     5.508919972274224E-1   -1.034396958499268E-1   -1.345040911341639E-2   -3.902506431826071E-2   -1.428864621579864E-2   -3.885141274439432E-2    4.729163107073822E-1   -2.111860569316269E-1
 6.529523227400000E9     5.507316938663661E-1   -1.042487921293577E-1   -1.359620523243638E-2   -3.926068272216500E-2   -1.449469002325039E-2   -3.901361567244176E-2    4.723042611036080E-1   -2.122115823154870E-1
 6.529533876300000E9     5.504983369971532E-1   -1.051567675662010E-1   -1.375594899660839E-2   -3.949002389515383E-2   -1.464974696614277E-2   -3.923549402060280E-2    4.717892016998538E-1   -2.133108979837001E-1
 6.529544525200000E9     5.503207755924657E-1   -1.060990169547870E-1   -1.400871029401230E-2   -3.972887498715077E-2   -1.487107034139373E-2   -3.944799234737934E-2    4.713430154003942E-1   -2.143913259202055E-1
 6.529555174100000E9     5.500356912089417E-1   -1.070051919380553E-1   -1.418595942991271E-2   -3.998507771872926E-2   -1.503158867200623E-2   -3.973025611043361E-2    4.706356900819446E-1   -2.153281993711700E-1
 6.529565823000000E9     5.497759771582259E-1   -1.077768870245649E-1   -1.444900825594416E-2   -4.018357745412857E-2   -1.524484346236715E-2   -4.001267605240443E-2    4.701339341768334E-1   -2.165361720782520E-1
 6.529576471900000E9     5.496303023577758E-1   -1.087473709446342E-1   -1.449074194853364E-2   -4.054520953543203E-2   -1.545034349907504E-2   -4.025303019235168E-2    4.695231481701979E-1   -2.175621012316377E-1
 6.529587120800000E9     5.493238632903262E-1   -1.096365784509751E-1   -1.462150256254423E-2   -4.077772494534077E-2   -1.564503512110445E-2   -4.055763434237374E-2    4.688331506342081E-1   -2.187273038248475E-1
 6.529597769700000E9     5.491006267965717E-1   -1.105976904690541E-1   -1.500754501069983E-2   -4.104390734279906E-2   -1.594613181232164E-2   -4.063343600218432E-2    4.683774066236839E-1   -2.196296914016747E-1
 6.529608418600000E9     5.488927666956169E-1   -1.115296191209485E-1   -1.506311345850390E-2   -4.125002775940333E-2   -1.605705423296957E-2   -4.104177197314592E-2    4.677226651924795E-1   -2.207919657294018E-1
 6.529619067500000E9     5.488153726505964E-1   -1.124130777174463E-1   -1.523251530400744E-2   -4.151582931845985E-2   -1.621959954487379E-2   -4.132254846373325E-2    4.670895925810740E-1   -2.217350054035439E-1
 6.529629716400000E9     5.485710196288931E-1   -1.134136788709043E-1   -1.547985575629388E-2   -4.182988389843693E-2   -1.644867090279650E-2   -4.148568060934858E-2    4.665791360844784E-1   -2.229335994992470E-1
 6.529640365300000E9     5.482402303751049E-1   -1.142903942829329E-1   -1.578612898525795E-2   -4.203588724633581E-2   -1.670628692568587E-2   -4.173016984343864E-2    4.659652973747084E-1   -2.241446200736802E-1
 6.529651014200000E9     5.480361350314817E-1   -1.151367465263006E-1   -1.615405430640919E-2   -4.225459957392473E-2   -1.689877032985861E-2   -4.211368283185241E-2    4.652857488599923E-1   -2.250510196737244E-1
 6.529661663100000E9     5.478569128632796E-1   -1.161540838921663E-1   -1.622464141508445E-2   -4.255494648039217E-2   -1.716976979911104E-2   -4.221530123078385E-2    4.645137372369516E-1   -2.263834081768891E-1
 6.529672312000000E9     5.476307645340854E-1   -1.169768003734185E-1   -1.648668820743462E-2   -4.284924058347803E-2   -1.733262541722913E-2   -4.258726262771246E-2    4.639894212177186E-1   -2.274170408306828E-1
 6.529682960900000E9     5.473193841155504E-1   -1.180356668845778E-1   -1.673296399153812E-2   -4.320968945913551E-2   -1.765608534143311E-2   -4.278086943812150E-2    4.633010176796548E-1   -2.285443934789363E-1
 6.529693609800000E9     5.472131962415172E-1   -1.189168771853296E-1   -1.677889342126235E-2   -4.329934049905458E-2   -1.793323780816392E-2   -4.317119843419324E-2    4.625763450663667E-1   -2.295472545823545E-1
 6.529704258700000E9     5.468050523580252E-1   -1.198878777066034E-1   -1.720842183727249E-2   -4.366713845592851E-2   -1.816432918806182E-2   -4.346087975737559E-2    4.620527875871026E-1   -2.308248579559165E-1
 6.529714907600000E9     5.465970873879128E-1   -1.208082657198011E-1   -1.737611745199397E-2   -4.407804174942981E-2   -1.843120090022037E-2   -4.361221275993378E-2    4.611963165422692E-1   -2.320223809614149E-1
 6.529725556500000E9     5.463618298892189E-1   -1.216597628727803E-1   -1.756408238792197E-2   -4.435877763926056E-2   -1.858405099249441E-2   -4.402142504806234E-2    4.605957780053967E-1   -2.328995258017377E-1
 6.529736205400000E9     5.461684492166209E-1   -1.228013842175307E-1   -1.779341908956944E-2   -4.453943682373190E-2   -1.890344004487244E-2   -4.427175760287793E-2    4.598567021270183E-1   -2.340864317496722E-1
 6.529746854300000E9     5.458130841132882E-1   -1.236921520575229E-1   -1.813690348634589E-2   -4.492140073237372E-2   -1.912302696269667E-2   -4.448805210283473E-2    4.593096617014466E-1   -2.353714421812866E-1
 6.529757503200000E9     5.455864249968509E-1   -1.246412750058019E-1   -1.849082137039392E-2   -4.528203856242287E-2   -1.941877669222912E-2   -4.478143108493367E-2    4.585429381213283E-1   -2.364735197051830E-1
 6.529768152100000E9     5.454379711045899E-1   -1.255893378033399E-1   -1.868991770389808E-2   -4.556835037783558E-2   -1.972386094897962E-2   -4.517844690720269E-2    4.577223237938643E-1   -2.376387115520474E-1
 6.529778801000000E9     5.449784982214176E-1   -1.265125821813440E-1   -1.881093785285597E-2   -4.582741676777069E-2   -1.995410026574264E-2   -4.538789850450869E-2    4.569417103433077E-1   -2.387379078633520E-1
 6.529789449900000E9     5.447912566989027E-1   -1.275000246034537E-1   -1.919231920540168E-2   -4.606567302849174E-2   -2.026327315149407E-2   -4.576848286619579E-2    4.562185320597349E-1   -2.400580046211165E-1
 6.529800098800000E9     5.445652726074771E-1   -1.283346209513752E-1   -1.946148717965866E-2   -4.652634346606922E-2   -2.055653110960954E-2   -4.614796124227009E-2    4.553708729784322E-1   -2.412137016874343E-1
 6.529810747700000E9     5.441345097092407E-1   -1.292306538797785E-1   -1.980719142299665E-2   -4.680834147592558E-2   -2.085744327128107E-2   -4.643421517710829E-2    4.546777563549846E-1   -2.424406963009359E-1
 6.529821396600000E9     5.438582465879304E-1   -1.303883508206800E-1   -2.014004035541362E-2   -4.710058229986510E-2   -2.111743490168192E-2   -4.666641627428966E-2    4.538381886953624E-1   -2.436054403565434E-1
 6.529832045500000E9     5.436261805147791E-1   -1.312359594233050E-1   -2.034434629309858E-2   -4.751584888071535E-2   -2.148905055679178E-2   -4.700495906319581E-2    4.529985444563832E-1   -2.448045986582132E-1
 6.529842694400000E9     5.433373360053710E-1   -1.322743008364330E-1   -2.072387129235235E-2   -4.787156186285255E-2   -2.173576311764872E-2   -4.743345913882387E-2    4.522497608224571E-1   -2.460137331069303E-1
 6.529853343300000E9     5.430645544320093E-1   -1.333242640058127E-1   -2.096693063054039E-2   -4.818178053474745E-2   -2.204741390275076E-2   -4.774834421191269E-2    4.512869309882658E-1   -2.471693991946693E-1
 6.529863992200000E9     5.427682774114679E-1   -1.342783567530016E-1   -2.120298647851192E-2   -4.834142552804980E-2   -2.243104795361407E-2   -4.803932657024437E-2    4.504522817102152E-1   -2.484432175547948E-1
 6.529874641100000E9     5.424198673680329E-1   -1.352454156254572E-1   -2.163797477682368E-2   -4.894424645026389E-2   -2.269937544317816E-2   -4.846314726061635E-2    4.496299996888297E-1   -2.497013183022661E-1
 6.529885290000000E9     5.421067187686242E-1   -1.360950209486116E-1   -2.184571020040185E-2   -4.905171658143977E-2   -2.308417822967320E-2   -4.870849248163399E-2    4.489501286756062E-1   -2.509636036485801E-1
