#  HZ   S   RI   R     50.00 
! Rohde & Schwarz Vector Network Analyzer 
! Rohde-Schwarz,ZNB20-2Port,1311601062101988,3.16
! Created: UTC 3/21/2024, 12:52:10 AM
! freq[Hz]                re:S11                  im:S11                  re:S21                  im:S21                  re:S12                  im:S12                  re:S22                  im:S22
 6.528830413000000E9     5.608204707205240E-1   -5.918574328959680E-2   -8.424146632629363E-3   -3.376757673878707E-2   -9.245967451266506E-3   -3.376181974557237E-2    4.817639913418072E-1   -1.912947390038716E-1
 6.528839594250000E9     5.606923172661393E-1   -6.003247017840470E-2   -8.548447689526669E-3   -3.398738613136998E-2   -9.333491816601163E-3   -3.386872683451518E-2    4.813373871428198E-1   -1.921508382968564E-1
 6.528848775500000E9     5.607052971238609E-1   -6.091061769381754E-2   -8.765025327862689E-3   -3.409814669996823E-2   -9.420071295923479E-3   -3.403963039102363E-2    4.810635140161802E-1   -1.927893936863648E-1
 6.528857956750000E9     5.605953778352833E-1   -6.147706890589388E-2   -8.619412255667777E-3   -3.427390287291714E-2   -9.622809994198539E-3   -3.415953943717570E-2    4.805504257902792E-1   -1.939816213524717E-1
 6.528867138000000E9     5.604428470457943E-1   -6.242526390716404E-2   -8.831177517263535E-3   -3.438596845476159E-2   -9.630869399949756E-3   -3.438099539588402E-2    4.803330258937463E-1   -1.946652649493472E-1
 6.528876319250000E9     5.603274616494683E-1   -6.304282046360844E-2   -8.969671326046152E-3   -3.462834635442017E-2   -9.720727261523383E-3   -3.449567781277812E-2    4.800552713962284E-1   -1.955199446522756E-1
 6.528885500500000E9     5.602726463299033E-1   -6.382630692181644E-2   -9.053536029567794E-3   -3.489038112267098E-2   -9.827487066366119E-3   -3.461169055422866E-2    4.795337849089976E-1   -1.964441850551902E-1
 6.528894681750000E9     5.602338977757352E-1   -6.463120296045734E-2   -9.025588150928826E-3   -3.488875878231414E-2   -9.911152394856310E-3   -3.484353223621114E-2    4.793042003473652E-1   -1.972816073982223E-1
 6.528903863000000E9     5.601992856374223E-1   -6.548329399791933E-2   -9.237886186491375E-3   -3.505352323436093E-2   -1.011976075237198E-2   -3.494458316514109E-2    4.788414759793617E-1   -1.980764245188041E-1
 6.528913044250000E9     5.599628309925502E-1   -6.611238809888667E-2   -9.570934938158528E-3   -3.540403353174946E-2   -1.024171724602430E-2   -3.501493040291273E-2    4.784470809176494E-1   -1.988208610012353E-1
 6.528922225500000E9     5.597932710172056E-1   -6.691832997731223E-2   -9.475477317418417E-3   -3.542955214714719E-2   -1.033606448727186E-2   -3.530541308819679E-2    4.779954661696718E-1   -1.996203191453771E-1
 6.528931406750000E9     5.597038393892771E-1   -6.763651884239075E-2   -9.647667840002041E-3   -3.561086540837723E-2   -1.038190774324515E-2   -3.541522300720810E-2    4.777244289048906E-1   -2.006899254207497E-1
 6.528940588000000E9     5.596392460247182E-1   -6.849393212422535E-2   -9.632017408110160E-3   -3.585211884955225E-2   -1.048040781973547E-2   -3.566582218822964E-2    4.773566829910990E-1   -2.014114475133473E-1
 6.528949769250000E9     5.595419592515731E-1   -6.915436208603890E-2   -9.762847797931226E-3   -3.601782449429051E-2   -1.065248380781350E-2   -3.576758346686702E-2    4.769895654656361E-1   -2.022948845912370E-1
 6.528958950500000E9     5.594525775742683E-1   -6.995953173871039E-2   -9.950916425603406E-3   -3.623676740629766E-2   -1.080585188060069E-2   -3.594270968947590E-2    4.764189502459207E-1   -2.031397200600784E-1
 6.528968131750000E9     5.593433341509499E-1   -7.077590963737337E-2   -1.009828653960569E-2   -3.628171278770390E-2   -1.083122369746457E-2   -3.612709532670374E-2    4.761500158990981E-1   -2.039217040800754E-1
 6.528977313000000E9     5.591453125492785E-1   -7.142985395684789E-2   -1.009330729572541E-2   -3.648442854996028E-2   -1.098839900357335E-2   -3.632127811378520E-2    4.758473130204504E-1   -2.048457899028974E-1
 6.528986494250000E9     5.590719684203632E-1   -7.232243662408178E-2   -1.027138379211279E-2   -3.666713654800389E-2   -1.108391567798636E-2   -3.646081651199862E-2    4.752997853236633E-1   -2.057078505613379E-1
 6.528995675500000E9     5.589775805339113E-1   -7.302072746364432E-2   -1.049951765847810E-2   -3.681478414378950E-2   -1.115652674823177E-2   -3.661731144440476E-2    4.749805700595256E-1   -2.065686214631467E-1
 6.529004856750000E9     5.589113976390572E-1   -7.384119736777199E-2   -1.057433412494037E-2   -3.691484014054213E-2   -1.138390027868077E-2   -3.683693678567139E-2    4.744501285404395E-1   -2.072879841209744E-1
 6.529014038000000E9     5.587598869539290E-1   -7.468228801471313E-2   -1.066021663676060E-2   -3.713416352839301E-2   -1.150866990397513E-2   -3.704568963510721E-2    4.741261754702298E-1   -2.083313788830370E-1
 6.529023219250000E9     5.586273759964072E-1   -7.530470894999809E-2   -1.071690203196875E-2   -3.740308952068139E-2   -1.151493350494917E-2   -3.715009030545514E-2    4.738058087806210E-1   -2.090641518627704E-1
 6.529032400500000E9     5.584941736080382E-1   -7.616044282007138E-2   -1.091808520210641E-2   -3.747304236353974E-2   -1.166649208209451E-2   -3.743667599226792E-2    4.732323622077337E-1   -2.100307774697411E-1
 6.529041581750000E9     5.585020054939069E-1   -7.687408278893330E-2   -1.097986655111311E-2   -3.777066505226764E-2   -1.182161485360908E-2   -3.752353412100869E-2    4.727297383576938E-1   -2.109755179939903E-1
 6.529050763000000E9     5.584160600822411E-1   -7.772557712887217E-2   -1.115590944763196E-2   -3.805547869642669E-2   -1.201728480982918E-2   -3.769911276384863E-2    4.724291070896288E-1   -2.117368964594201E-1
 6.529059944250000E9     5.581835118719690E-1   -7.862333098671816E-2   -1.111001319847815E-2   -3.807367064983941E-2   -1.205157847480650E-2   -3.794459021839906E-2    4.719838664201340E-1   -2.127234178372618E-1
 6.529069125500000E9     5.580736716006601E-1   -7.927894827639269E-2   -1.127072019688946E-2   -3.834642374745310E-2   -1.223522386596446E-2   -3.814694624984677E-2    4.715859650766802E-1   -2.136084842521244E-1
 6.529078306750000E9     5.579824256151683E-1   -8.008153267339740E-2   -1.148277835030543E-2   -3.854688432822881E-2   -1.242766194427238E-2   -3.829792422453004E-2    4.710769746111055E-1   -2.145161028250965E-1
 6.529087488000000E9     5.577040979692657E-1   -8.091894858157861E-2   -1.165334195166198E-2   -3.879980349797439E-2   -1.247991812813845E-2   -3.843379397465632E-2    4.706024059174694E-1   -2.154262702609620E-1
 6.529096669250000E9     5.577033310191439E-1   -8.173093409671893E-2   -1.179030566161286E-2   -3.887173004187449E-2   -1.274123983336030E-2   -3.871822068981196E-2    4.701992341494043E-1   -2.162335838359828E-1
 6.529105850500000E9     5.574717398671567E-1   -8.247306916430655E-2   -1.189181743975645E-2   -3.915592798355051E-2   -1.285627715221585E-2   -3.891592889588936E-2    4.697280316631883E-1   -2.170990382164636E-1
 6.529115031750000E9     5.574310953364190E-1   -8.330103480018651E-2   -1.202760636155125E-2   -3.933455797773155E-2   -1.303177289748610E-2   -3.907494689987106E-2    4.691178492629492E-1   -2.180624205858554E-1
 6.529124213000000E9     5.572158074519734E-1   -8.398024235362753E-2   -1.217677647728253E-2   -3.939635212333507E-2   -1.320671857384756E-2   -3.934147579795712E-2    4.688548705895856E-1   -2.190351801228998E-1
 6.529133394250000E9     5.571161726703249E-1   -8.472800502981298E-2   -1.226136526490625E-2   -3.976664465852400E-2   -1.322137531231312E-2   -3.951687386891148E-2    4.684399961782501E-1   -2.199434268378364E-1
 6.529142575500000E9     5.569557401807234E-1   -8.566841492434055E-2   -1.251405667507455E-2   -3.998184311091992E-2   -1.333653079081972E-2   -3.973692783372940E-2    4.678386750286104E-1   -2.209285233085909E-1
 6.529151756750000E9     5.569153322969173E-1   -8.640902969292560E-2   -1.275642085443834E-2   -4.008904081476528E-2   -1.355123035453439E-2   -3.980490262023369E-2    4.672431985649437E-1   -2.217293231360889E-1
 6.529160938000000E9     5.567006901492065E-1   -8.715953775910373E-2   -1.277107791055322E-2   -4.033249576359281E-2   -1.370912886154469E-2   -4.008791091931427E-2    4.668496756786955E-1   -2.225895132457753E-1
 6.529170119250000E9     5.564471764607380E-1   -8.792022072237103E-2   -1.293723291141236E-2   -4.054267626414770E-2   -1.391969072884387E-2   -4.031006993226255E-2    4.663220600163882E-1   -2.235938780139561E-1
 6.529179300500000E9     5.565598219239504E-1   -8.880679877591866E-2   -1.305664051627350E-2   -4.065030827454767E-2   -1.402985947282016E-2   -4.050952767552026E-2    4.659043249430276E-1   -2.245817049908934E-1
 6.529188481750000E9     5.561988932081166E-1   -8.953010056144046E-2   -1.316238829446312E-2   -4.103097213339416E-2   -1.424229179115844E-2   -4.068671969051783E-2    4.655396774280621E-1   -2.254354555024513E-1
 6.529197663000000E9     5.561769280205213E-1   -9.047272799470488E-2   -1.329402650287081E-2   -4.128422233920346E-2   -1.438215067269257E-2   -4.096539674179777E-2    4.648471383924535E-1   -2.265055722892656E-1
 6.529206844250000E9     5.559887865307297E-1   -9.127312886483760E-2   -1.361890981089409E-2   -4.135967363475965E-2   -1.457825489254341E-2   -4.114557016995399E-2    4.643776926718142E-1   -2.272024221667781E-1
 6.529216025500000E9     5.558628027547500E-1   -9.203270091877236E-2   -1.383396996514219E-2   -4.173211530381585E-2   -1.474668755189427E-2   -4.149550488986559E-2    4.639882867572920E-1   -2.281311543301537E-1
 6.529225206750000E9     5.556542240812162E-1   -9.278911719621862E-2   -1.387248578220891E-2   -4.194951592425175E-2   -1.484101313738827E-2   -4.165165145097558E-2    4.633443351778773E-1   -2.292381047635873E-1
 6.529234388000000E9     5.555326804725551E-1   -9.350388491220664E-2   -1.410931303819634E-2   -4.206741173438549E-2   -1.508302924539787E-2   -4.185233045897024E-2    4.628177377430291E-1   -2.301157024008496E-1
 6.529243569250000E9     5.554040042767996E-1   -9.443781689150382E-2   -1.425171585471412E-2   -4.246404458829591E-2   -1.524255812593848E-2   -4.204070015965310E-2    4.622654595515530E-1   -2.311121138239303E-1
 6.529252750500000E9     5.551646147057452E-1   -9.531033318632309E-2   -1.446635983013974E-2   -4.257353373254204E-2   -1.545278651243171E-2   -4.243673400781774E-2    4.617801200767724E-1   -2.320239348270777E-1
 6.529261931750000E9     5.550979642461760E-1   -9.608225355901068E-2   -1.452421422325605E-2   -4.282912067975210E-2   -1.565150884179722E-2   -4.253862424364316E-2    4.612193678516069E-1   -2.329686904039574E-1
 6.529271113000000E9     5.549968181975368E-1   -9.683566807977687E-2   -1.479047893681172E-2   -4.306140956275913E-2   -1.576238371130024E-2   -4.278903444148353E-2    4.605047548418515E-1   -2.340080922461234E-1
 6.529280294250000E9     5.546207768310769E-1   -9.765478564492920E-2   -1.491504548155263E-2   -4.339625909382260E-2   -1.600846504519240E-2   -4.301233576910449E-2    4.600813717358416E-1   -2.350076840977993E-1
 6.529289475500000E9     5.544582976003832E-1   -9.852999092613866E-2   -1.515215106450975E-2   -4.362456418608814E-2   -1.618980667132001E-2   -4.331395829398601E-2    4.596033350508235E-1   -2.359792609902380E-1
 6.529298656750000E9     5.543918337154928E-1   -9.928959347238257E-2   -1.537935747611166E-2   -4.377873122453770E-2   -1.633892479030897E-2   -4.347260663237838E-2    4.590446836214948E-1   -2.368263170185193E-1
 6.529307838000000E9     5.541543398594392E-1   -1.000190872695174E-1   -1.550793340346709E-2   -4.403874798661403E-2   -1.660723120292870E-2   -4.379851143398084E-2    4.583667691992861E-1   -2.380564507025106E-1
 6.529317019250000E9     5.538792501681172E-1   -1.009470056283480E-1   -1.560916046755673E-2   -4.434126172044096E-2   -1.676803089156991E-2   -4.403021476100710E-2    4.579071312882983E-1   -2.388428362274469E-1
 6.529326200500000E9     5.538244748206683E-1   -1.018305384008342E-1   -1.594084945965119E-2   -4.454117214719343E-2   -1.699491057173720E-2   -4.436319654996964E-2    4.573818757768863E-1   -2.397134433752776E-1
 6.529335381750000E9     5.535980933465688E-1   -1.025932471822082E-1   -1.611897286364148E-2   -4.486596243699045E-2   -1.714621848721740E-2   -4.463354159887815E-2    4.566293670623686E-1   -2.408298366937687E-1
 6.529344563000000E9     5.534076425079845E-1   -1.034356110880949E-1   -1.642273663638933E-2   -4.509736127492110E-2   -1.737157183886320E-2   -4.484606684582826E-2    4.559794718323946E-1   -2.417326973040756E-1
 6.529353744250000E9     5.532264390965557E-1   -1.042809016707310E-1   -1.645907346188361E-2   -4.554361321269835E-2   -1.758394333210282E-2   -4.511277771421459E-2    4.554254779105425E-1   -2.428084066289835E-1
 6.529362925500000E9     5.531037152187130E-1   -1.050231714444481E-1   -1.674689719294769E-2   -4.570811042953312E-2   -1.775911426061380E-2   -4.541299059991511E-2    4.548421843476262E-1   -2.439325592654056E-1
 6.529372106750000E9     5.528886530035965E-1   -1.059153887381297E-1   -1.697558086862959E-2   -4.601450178733026E-2   -1.808719446825448E-2   -4.572520178732285E-2    4.540789401013310E-1   -2.449360734886219E-1
 6.529381288000000E9     5.526041988675400E-1   -1.068198551417824E-1   -1.719134427961680E-2   -4.631843990221440E-2   -1.827725665154108E-2   -4.590192522901396E-2    4.535699178780053E-1   -2.458808855286641E-1
 6.529390469250000E9     5.525097681529906E-1   -1.075500111882631E-1   -1.735620609049921E-2   -4.651773527310227E-2   -1.853141563241808E-2   -4.619105654066476E-2    4.528817515147899E-1   -2.469383930797386E-1
 6.529399650500000E9     5.522854165607788E-1   -1.084337088786787E-1   -1.754886934019725E-2   -4.677404776322026E-2   -1.882201083873020E-2   -4.652929853766063E-2    4.522340193647768E-1   -2.480507753615037E-1
 6.529408831750000E9     5.520871714329003E-1   -1.092479265581573E-1   -1.771946928408390E-2   -4.720102257634180E-2   -1.895885187314744E-2   -4.683536454037986E-2    4.516921869831332E-1   -2.489944439621219E-1
 6.529418013000000E9     5.517991373905698E-1   -1.101474302854971E-1   -1.804735930985818E-2   -4.735268071601173E-2   -1.920833283200506E-2   -4.706190537489212E-2    4.510877348215080E-1   -2.500416175292988E-1
 6.529427194250000E9     5.517322194340208E-1   -1.111141815301774E-1   -1.828385062877562E-2   -4.777593612378744E-2   -1.938935304664968E-2   -4.734307880508815E-2    4.503040114403754E-1   -2.510120614624777E-1
 6.529436375500000E9     5.514469859027522E-1   -1.118726882304538E-1   -1.850175516991414E-2   -4.792948404571247E-2   -1.971421458516893E-2   -4.759753043862874E-2    4.497039155110944E-1   -2.521063767610621E-1
 6.529445556750000E9     5.512934965329033E-1   -1.126821647810127E-1   -1.878776843715529E-2   -4.833577377580490E-2   -1.993719184762792E-2   -4.793879258954869E-2    4.488212805634889E-1   -2.533325180800635E-1
 6.529454738000000E9     5.510139205876862E-1   -1.134274902355406E-1   -1.887507693313566E-2   -4.871185050269169E-2   -2.012628488591580E-2   -4.833142624779044E-2    4.480645806375848E-1   -2.541892122919865E-1
 6.529463919250000E9     5.508613135393118E-1   -1.142847582892659E-1   -1.923125086737186E-2   -4.902504944990327E-2   -2.039006205411211E-2   -4.860112214526154E-2    4.475070843626683E-1   -2.553343979475204E-1
 6.529473100500000E9     5.505752377132341E-1   -1.153081982971577E-1   -1.955156553825279E-2   -4.940551195667271E-2   -2.071097552569626E-2   -4.891388642892096E-2    4.467868455993714E-1   -2.564647683036698E-1
 6.529482281750000E9     5.502455661156788E-1   -1.161636843669687E-1   -1.971353612569218E-2   -4.948805638690443E-2   -2.093055222389476E-2   -4.921361054658329E-2    4.459767366547048E-1   -2.575190395716495E-1
 6.529491463000000E9     5.501298779940879E-1   -1.170302216211266E-1   -2.004331611336373E-2   -5.006321489775655E-2   -2.121339164475205E-2   -4.949984071280266E-2    4.452935698760848E-1   -2.585331957704656E-1
 6.529500644250000E9     5.498694681195747E-1   -1.179257099940744E-1   -2.030165519647595E-2   -5.021645372148303E-2   -2.154915531342943E-2   -4.982158276291562E-2    4.444547180740047E-1   -2.596969431283959E-1
 6.529509825500000E9     5.496071107433814E-1   -1.186264967831793E-1   -2.048779865606708E-2   -5.070873865604623E-2   -2.185408852406730E-2   -5.012361478271873E-2    4.439239140520497E-1   -2.607095263276944E-1
 6.529519006750000E9     5.492415801497711E-1   -1.196215670505942E-1   -2.083474466960951E-2   -5.099080290953433E-2   -2.208430998975597E-2   -5.049657050791592E-2    4.429875286271279E-1   -2.618756177064412E-1
 6.529528188000000E9     5.491637825907433E-1   -1.204476815199839E-1   -2.092924346089636E-2   -5.110632009683713E-2   -2.245493086654896E-2   -5.080856880011621E-2    4.422156889164089E-1   -2.631350687135797E-1
 6.529537369250000E9     5.488345535782531E-1   -1.214191619279105E-1   -2.148453356594527E-2   -5.146875941644337E-2   -2.268788506217469E-2   -5.126779307343024E-2    4.414595486167447E-1   -2.642118431000624E-1
 6.529546550500000E9     5.486200540433963E-1   -1.223148239089205E-1   -2.165973304337026E-2   -5.195603896246970E-2   -2.299299559871354E-2   -5.149864357821885E-2    4.405939092398928E-1   -2.651446329797639E-1
 6.529555731750000E9     5.483721455525946E-1   -1.230725156322080E-1   -2.210043430453177E-2   -5.250816549240802E-2   -2.334808142041916E-2   -5.191825112613669E-2    4.399272141131552E-1   -2.664136112848751E-1
 6.529564913000000E9     5.481827280724048E-1   -1.240425775228918E-1   -2.232997459694315E-2   -5.269524924640333E-2   -2.355345762085855E-2   -5.229440691267528E-2    4.390858550538028E-1   -2.675006994966213E-1
 6.529574094250000E9     5.478461256119522E-1   -1.248338697630693E-1   -2.269740577156118E-2   -5.303632014766731E-2   -2.396055015731181E-2   -5.252601187372948E-2    4.382845892067322E-1   -2.687321094044620E-1
 6.529583275500000E9     5.475567292914805E-1   -1.259642594776769E-1   -2.293079244696442E-2   -5.344960328887427E-2   -2.424497304921678E-2   -5.291371342837891E-2    4.373941294662662E-1   -2.696950826600685E-1
 6.529592456750000E9     5.473018911787224E-1   -1.266343043247247E-1   -2.316300162782070E-2   -5.394980463068315E-2   -2.463831143456245E-2   -5.338459606405459E-2    4.365184484380943E-1   -2.710579386201942E-1
 6.529601638000000E9     5.470733791202037E-1   -1.276852897741589E-1   -2.358901781552020E-2   -5.423304449551343E-2   -2.490310590354550E-2   -5.376443113937843E-2    4.355466754905110E-1   -2.723323021846092E-1
 6.529610819250000E9     5.467357976495312E-1   -1.285776205525232E-1   -2.390367481960317E-2   -5.464649618103608E-2   -2.538083147657252E-2   -5.410922354916419E-2    4.347202162264140E-1   -2.732051738286718E-1
 6.529620000500000E9     5.464826594106819E-1   -1.293971291707715E-1   -2.436370578393649E-2   -5.515630453493790E-2   -2.574457009553986E-2   -5.448199209836527E-2    4.337891125281731E-1   -2.747704330944692E-1
 6.529629181750000E9     5.463426972508924E-1   -1.303997387681856E-1   -2.455137427468092E-2   -5.552381623284857E-2   -2.607575516921009E-2   -5.481259224712338E-2    4.329241332799122E-1   -2.757812501895141E-1
 6.529638363000000E9     5.458553253314027E-1   -1.312060707513105E-1   -2.481085244291507E-2   -5.579963254435204E-2   -2.646626563164121E-2   -5.523560999131351E-2    4.319474312527061E-1   -2.769297513415931E-1
 6.529647544250000E9     5.455584903695204E-1   -1.321636257815695E-1   -2.536515721328741E-2   -5.625381485833725E-2   -2.685998125080677E-2   -5.566184955528831E-2    4.309914032306220E-1   -2.782079164801917E-1
 6.529656725500000E9     5.453131117910501E-1   -1.332026451990124E-1   -2.580393961824314E-2   -5.667722728102553E-2   -2.725079539559071E-2   -5.614631878807710E-2    4.298814019194416E-1   -2.792627203658575E-1
