#  HZ   S   RI   R     50.00 
! Rohde & Schwarz Vector Network Analyzer 
! Rohde-Schwarz,ZNB20-2Port,1311601062101988,3.16
! Created: UTC 3/21/2024, 1:10:08 AM
! freq[Hz]                re:S11                  im:S11                  re:S21                  im:S21                  re:S12                  im:S12                  re:S22                  im:S22
 6.528945958000000E9     5.582027262495106E-1   -5.675455834007106E-2   -6.717384226414523E-3   -2.951301353458903E-2   -7.340946938952840E-3   -2.953273017425020E-2    4.953259565515535E-1   -1.595145511879713E-1
 6.528956570375000E9     5.581140869860796E-1   -5.747185789703989E-2   -6.823162499610104E-3   -2.973790656403279E-2   -7.451339135360806E-3   -2.967633919273210E-2    4.948973829933448E-1   -1.604041792095471E-1
 6.528967182750000E9     5.581111939162344E-1   -5.843908679111624E-2   -6.826035889349451E-3   -2.986119495605896E-2   -7.451214059092162E-3   -2.975805710269722E-2    4.944499094731805E-1   -1.613549802029749E-1
 6.528977795125000E9     5.579032915398821E-1   -5.927057072899406E-2   -6.955051763921710E-3   -2.998391414748915E-2   -7.609315369666317E-3   -2.989430474323813E-2    4.942004352411259E-1   -1.623006534423129E-1
 6.528988407500000E9     5.579093241491059E-1   -6.008046094846586E-2   -7.166875932984542E-3   -3.020272201217167E-2   -7.712819086964360E-3   -3.004153342798584E-2    4.939830778304803E-1   -1.631884343093382E-1
 6.528999019875000E9     5.577751885603291E-1   -6.088192540591465E-2   -7.144876383225682E-3   -3.022589152203448E-2   -7.731951231063140E-3   -3.012814476365807E-2    4.935605450968040E-1   -1.639920351775877E-1
 6.529009632250000E9     5.576393676311018E-1   -6.171845426159316E-2   -7.347234374000559E-3   -3.054444288689190E-2   -7.862913949841769E-3   -3.031299065005422E-2    4.933205569087213E-1   -1.651489997414880E-1
 6.529020244625000E9     5.575568188488776E-1   -6.262083037271152E-2   -7.340222906377974E-3   -3.062854086033851E-2   -7.925058642513869E-3   -3.046472933456891E-2    4.926870434957738E-1   -1.658368669497092E-1
 6.529030857000000E9     5.575130278225486E-1   -6.347215523916806E-2   -7.476362045212560E-3   -3.060567887190613E-2   -8.109083605689762E-3   -3.065537172505341E-2    4.925601963172081E-1   -1.666538940138035E-1
 6.529041469375000E9     5.573653530902097E-1   -6.441809462118710E-2   -7.602748516579713E-3   -3.087624107292918E-2   -8.168927459363583E-3   -3.074338237191682E-2    4.921841571705006E-1   -1.675396402188067E-1
 6.529052081750000E9     5.571890876639113E-1   -6.515617371601404E-2   -7.532430790125430E-3   -3.094908622486301E-2   -8.285579068002818E-3   -3.077520844526644E-2    4.918920082731752E-1   -1.685646718659286E-1
 6.529062694125000E9     5.571144718957979E-1   -6.600040779203838E-2   -7.794237845170798E-3   -3.109228257478607E-2   -8.368418317061185E-3   -3.101504760997640E-2    4.914130445861999E-1   -1.695093424531574E-1
 6.529073306500000E9     5.569298691660745E-1   -6.688913967036879E-2   -7.842755961551515E-3   -3.116019066622644E-2   -8.445135985243208E-3   -3.119799357800089E-2    4.910979452969211E-1   -1.703323108714937E-1
 6.529083918875000E9     5.569230844249061E-1   -6.769353459062796E-2   -7.969315671066441E-3   -3.138453485822645E-2   -8.602432913058112E-3   -3.130134630939408E-2    4.907393022989660E-1   -1.712379852726262E-1
 6.529094531250000E9     5.568480889376428E-1   -6.855442400580330E-2   -8.036554532268004E-3   -3.164049499093666E-2   -8.773837003439467E-3   -3.139363321289788E-2    4.904667770169300E-1   -1.722931316411001E-1
 6.529105143625000E9     5.566355997649938E-1   -6.938299340459063E-2   -8.198161460985549E-3   -3.181027145890841E-2   -8.791812267257849E-3   -3.158218310554614E-2    4.900848669242583E-1   -1.732033091741115E-1
 6.529115756000000E9     5.565078048922714E-1   -7.023366673722144E-2   -8.401686579974652E-3   -3.180463916606858E-2   -8.978040616447238E-3   -3.166479931609816E-2    4.897704507982074E-1   -1.738961422878764E-1
 6.529126368375000E9     5.564951487648123E-1   -7.106928348609473E-2   -8.433850965714295E-3   -3.198306520322253E-2   -9.050919171169743E-3   -3.182405732394731E-2    4.894371817142746E-1   -1.750200241053678E-1
 6.529136980750000E9     5.564059014216161E-1   -7.191328555670681E-2   -8.383851333758094E-3   -3.221065636125614E-2   -9.094599334168367E-3   -3.204932520184593E-2    4.888739753245315E-1   -1.758796214595565E-1
 6.529147593125000E9     5.562104002784753E-1   -7.280768596779716E-2   -8.664073446969784E-3   -3.226474014287003E-2   -9.192319360842973E-3   -3.224895071105542E-2    4.885072231833298E-1   -1.769555568186797E-1
 6.529158205500000E9     5.560574092937266E-1   -7.360852541985685E-2   -8.697551554726382E-3   -3.241647855923790E-2   -9.290026161452043E-3   -3.231616185475256E-2    4.882424853341596E-1   -1.777910503041187E-1
 6.529168817875000E9     5.559276640302193E-1   -7.452706923547990E-2   -8.780017770093941E-3   -3.254554077080904E-2   -9.358608096217809E-3   -3.254547638666846E-2    4.878600106840623E-1   -1.786723399832321E-1
 6.529179430250000E9     5.557814657094418E-1   -7.538795497345963E-2   -8.880722996283693E-3   -3.281649900535327E-2   -9.578753303877009E-3   -3.269915055981085E-2    4.875787439919056E-1   -1.797301833948838E-1
 6.529190042625000E9     5.557465170591023E-1   -7.632148969101826E-2   -8.939525846923382E-3   -3.284558070881565E-2   -9.609011540681226E-3   -3.285647857388251E-2    4.871934404489731E-1   -1.807123330356700E-1
 6.529200655000000E9     5.555540922712069E-1   -7.713023284421180E-2   -9.059176096712800E-3   -3.304324201501735E-2   -9.757907766164326E-3   -3.304131854119742E-2    4.868532396257079E-1   -1.814938229127484E-1
 6.529211267375000E9     5.555235057530961E-1   -7.806837414013867E-2   -9.154817469375978E-3   -3.323061366551490E-2   -9.961309338652972E-3   -3.318673197994169E-2    4.860975026716837E-1   -1.825278885135517E-1
 6.529221879750000E9     5.553740132840759E-1   -7.889444628695888E-2   -9.424088186997649E-3   -3.337518172680484E-2   -1.002243037808439E-2   -3.334818243434287E-2    4.858960568981508E-1   -1.832832662045145E-1
 6.529232492125000E9     5.552013257822976E-1   -7.970572618413399E-2   -9.430530691791601E-3   -3.359221020348115E-2   -1.012487288130693E-2   -3.359388747212863E-2    4.853857999863059E-1   -1.844694041834943E-1
 6.529243104500000E9     5.550476908985820E-1   -8.055182843887373E-2   -9.472179048958756E-3   -3.383573863785558E-2   -1.029402243154970E-2   -3.370385429649142E-2    4.852208738256515E-1   -1.854372160165373E-1
 6.529253716875000E9     5.550192334592534E-1   -8.145595383478110E-2   -9.711708310534270E-3   -3.399756876776766E-2   -1.047946587376539E-2   -3.381403994693016E-2    4.846910821612800E-1   -1.863500899976892E-1
 6.529264329250000E9     5.547505080041307E-1   -8.245935600965557E-2   -9.836055259815187E-3   -3.415592590566807E-2   -1.065613396565773E-2   -3.401079196674871E-2    4.841319456876567E-1   -1.873111565599708E-1
 6.529274941625000E9     5.546833203473244E-1   -8.326961267379641E-2   -9.972123285200805E-3   -3.435480423885240E-2   -1.074949192392619E-2   -3.417475147157259E-2    4.838334690792375E-1   -1.880791075523651E-1
 6.529285554000000E9     5.544811813572625E-1   -8.411863572148423E-2   -1.014793656039490E-2   -3.448128113589860E-2   -1.087255057633433E-2   -3.425623314080328E-2    4.835288283772252E-1   -1.891139423159911E-1
 6.529296166375000E9     5.543472035326337E-1   -8.494003183195846E-2   -1.028583003516551E-2   -3.480769283262209E-2   -1.089561837354688E-2   -3.460556248788724E-2    4.831988885815897E-1   -1.901492412134579E-1
 6.529306778750000E9     5.542508053746423E-1   -8.585572076830339E-2   -1.034908357538727E-2   -3.484957843983494E-2   -1.103273590039014E-2   -3.462269793041940E-2    4.826337133731483E-1   -1.911556250418554E-1
 6.529317391125000E9     5.541794816705071E-1   -8.667928461700534E-2   -1.038960348768209E-2   -3.509616735557319E-2   -1.121810270602297E-2   -3.493723877985985E-2    4.822845512173002E-1   -1.921877245092555E-1
 6.529328003500000E9     5.539167391005853E-1   -8.760796722554719E-2   -1.050296827098067E-2   -3.523810799515832E-2   -1.134942626840354E-2   -3.507118290112037E-2    4.815181369086156E-1   -1.930671511475147E-1
 6.529338615875000E9     5.536991944853985E-1   -8.845140617509532E-2   -1.094708390108139E-2   -3.535599748201846E-2   -1.138676657898303E-2   -3.518294514657370E-2    4.813613381298822E-1   -1.940390613487282E-1
 6.529349228250000E9     5.535390048502348E-1   -8.934876773747873E-2   -1.095939215525162E-2   -3.565637445204164E-2   -1.164189260745911E-2   -3.544841261246881E-2    4.808382554443967E-1   -1.949138551073374E-1
 6.529359840625000E9     5.533586568066350E-1   -9.021734685335718E-2   -1.099955949276172E-2   -3.583163473753410E-2   -1.176080444754634E-2   -3.560249767930949E-2    4.804755610132564E-1   -1.960315320928782E-1
 6.529370453000000E9     5.532407717505349E-1   -9.109166201121022E-2   -1.113633772822167E-2   -3.588781823634047E-2   -1.186265820192070E-2   -3.585926499256037E-2    4.798583440915138E-1   -1.970902505606210E-1
 6.529381065375000E9     5.530087482877003E-1   -9.207867091746802E-2   -1.122386496867164E-2   -3.603419498483554E-2   -1.210251294909278E-2   -3.594768458629793E-2    4.794866629162746E-1   -1.978445824689258E-1
 6.529391677750000E9     5.529282508910102E-1   -9.281429911013635E-2   -1.130041200688553E-2   -3.642672558399407E-2   -1.231400688474712E-2   -3.630203180681013E-2    4.788379207844134E-1   -1.990146108822352E-1
 6.529402290125000E9     5.527982411174753E-1   -9.375617267843979E-2   -1.157904417757356E-2   -3.649112710002377E-2   -1.244268741361068E-2   -3.633005686367565E-2    4.783967630103136E-1   -2.001472502948764E-1
 6.529412902500000E9     5.526435300563348E-1   -9.461022286738634E-2   -1.178793640096260E-2   -3.694785289061135E-2   -1.252065798608612E-2   -3.656285657022495E-2    4.781276371022186E-1   -2.009500675660764E-1
 6.529423514875000E9     5.524099504461111E-1   -9.549774808479534E-2   -1.202810076603314E-2   -3.691391833908771E-2   -1.276967621815074E-2   -3.681917998702206E-2    4.776154411786355E-1   -2.019630672804855E-1
 6.529434127250000E9     5.523186254881537E-1   -9.638691121419793E-2   -1.201042846992394E-2   -3.717525409472631E-2   -1.282109312767576E-2   -3.703719228910641E-2    4.769632826768612E-1   -2.029855533111601E-1
 6.529444739625000E9     5.521793426522422E-1   -9.719906927851645E-2   -1.227721728585673E-2   -3.743791810879014E-2   -1.302048058880441E-2   -3.726627570824528E-2    4.764781347981757E-1   -2.040732760259291E-1
 6.529455352000000E9     5.518576397209227E-1   -9.828019661095144E-2   -1.237676228446251E-2   -3.756159532675712E-2   -1.311699944722772E-2   -3.739824856050001E-2    4.760698021798549E-1   -2.050408956508504E-1
 6.529465964375000E9     5.516933367758495E-1   -9.910250315631167E-2   -1.255437334983808E-2   -3.788599681418368E-2   -1.344681329449400E-2   -3.766033438854365E-2    4.755832756668973E-1   -2.060360911625790E-1
 6.529476576750000E9     5.514833415635091E-1   -1.000048304922611E-1   -1.261314629334094E-2   -3.813880499641538E-2   -1.342811902817483E-2   -3.777397359061026E-2    4.750524485957791E-1   -2.071719305589259E-1
 6.529487189125000E9     5.512976979171099E-1   -1.008765161729040E-1   -1.290191497581565E-2   -3.824146180880319E-2   -1.358968145133192E-2   -3.803511420735405E-2    4.745773359717322E-1   -2.080625742070248E-1
 6.529497801500000E9     5.511503949144836E-1   -1.018100795377182E-1   -1.303149234897643E-2   -3.855812092091187E-2   -1.391649682982170E-2   -3.823990229792500E-2    4.739381881610773E-1   -2.091682602564099E-1
 6.529508413875000E9     5.509153675107727E-1   -1.026600924764459E-1   -1.326430628184256E-2   -3.883992332760583E-2   -1.404943025670414E-2   -3.851308309409845E-2    4.734853741897206E-1   -2.099864130317103E-1
 6.529519026250000E9     5.508319239359286E-1   -1.035823379902821E-1   -1.332691462955109E-2   -3.908626093986696E-2   -1.416679292867100E-2   -3.871442756459618E-2    4.727800416599175E-1   -2.112529806322908E-1
 6.529529638625000E9     5.506438021416056E-1   -1.044850209689025E-1   -1.341949713534637E-2   -3.924613870507510E-2   -1.435692171557918E-2   -3.904430430811831E-2    4.723178602804539E-1   -2.122258531845691E-1
 6.529540251000000E9     5.504198248219137E-1   -1.054107583207326E-1   -1.380565052494762E-2   -3.940731124418213E-2   -1.459415860252627E-2   -3.916620981708360E-2    4.718566571085868E-1   -2.133857888409774E-1
 6.529550863375000E9     5.502054818297162E-1   -1.061863926727749E-1   -1.386811048837362E-2   -3.975602037814823E-2   -1.470881015365956E-2   -3.945464506335249E-2    4.711745777395275E-1   -2.144306104924382E-1
 6.529561475750000E9     5.500316314792135E-1   -1.072174618540103E-1   -1.417941438394012E-2   -3.991143280001962E-2   -1.493054773111623E-2   -3.966020751139150E-2    4.706698795712876E-1   -2.155049428735601E-1
 6.529572088125000E9     5.497920753331970E-1   -1.081355330038703E-1   -1.423620219731798E-2   -4.015304411775879E-2   -1.510582160200782E-2   -3.983857913897451E-2    4.700198457569071E-1   -2.164994919422767E-1
 6.529582700500000E9     5.495483108857681E-1   -1.089417350878010E-1   -1.447269164776513E-2   -4.027762670884504E-2   -1.537305238891897E-2   -4.010788799584463E-2    4.696041226811032E-1   -2.175245890249870E-1
 6.529593312875000E9     5.494843684815893E-1   -1.099054504058726E-1   -1.452168306882360E-2   -4.073946294689256E-2   -1.553667799648633E-2   -4.033772367907604E-2    4.690884339837148E-1   -2.186940854157485E-1
 6.529603925250000E9     5.491870660465875E-1   -1.108394932057408E-1   -1.477396019953198E-2   -4.088288362013667E-2   -1.571220625729352E-2   -4.072863507684613E-2    4.683817712926500E-1   -2.196877968868201E-1
 6.529614537625000E9     5.489995987179527E-1   -1.115888237691559E-1   -1.496231213116892E-2   -4.114696964903278E-2   -1.596109246077288E-2   -4.083440131250331E-2    4.678251401597593E-1   -2.208658037612717E-1
 6.529625150000000E9     5.487074325435973E-1   -1.126310100287946E-1   -1.527526735444337E-2   -4.141052067675693E-2   -1.625440321815057E-2   -4.116407955576889E-2    4.672351659776901E-1   -2.217281785371012E-1
 6.529635762375000E9     5.483858133860408E-1   -1.135347232660880E-1   -1.554513341923114E-2   -4.165812587574494E-2   -1.645727254495876E-2   -4.135653668154723E-2    4.665420987556889E-1   -2.230462950750274E-1
 6.529646374750000E9     5.482821495246972E-1   -1.144675020924285E-1   -1.571813173062325E-2   -4.190068864141011E-2   -1.661260595627894E-2   -4.161355523096543E-2    4.658633638171734E-1   -2.240663445458737E-1
 6.529656987125000E9     5.480509229760987E-1   -1.154256772518900E-1   -1.586110837974916E-2   -4.211163296533656E-2   -1.685050484775629E-2   -4.190730380859062E-2    4.653602980308588E-1   -2.251029468476666E-1
 6.529667599500000E9     5.478060662273774E-1   -1.161625963129082E-1   -1.598534034187390E-2   -4.244343410042126E-2   -1.707745251941931E-2   -4.217311702843164E-2    4.647091429243136E-1   -2.263357084899101E-1
 6.529678211875000E9     5.475454437521079E-1   -1.172497213886163E-1   -1.645667405557628E-2   -4.257651864066167E-2   -1.735365805151063E-2   -4.239688658573335E-2    4.640163213895325E-1   -2.273752601217227E-1
 6.529688824250000E9     5.473432395423978E-1   -1.180787817440685E-1   -1.657997639466931E-2   -4.296236032647998E-2   -1.755760672550525E-2   -4.274288252550376E-2    4.635259914999005E-1   -2.284387022669439E-1
 6.529699436625000E9     5.471553458411369E-1   -1.190317006209737E-1   -1.688357120099335E-2   -4.326125560906297E-2   -1.778470452870562E-2   -4.289113148045429E-2    4.627354202180750E-1   -2.294833709174558E-1
 6.529710049000000E9     5.468785794216520E-1   -1.200625805219844E-1   -1.699871267871569E-2   -4.356290515661225E-2   -1.795960222471272E-2   -4.321594169280388E-2    4.622358144828574E-1   -2.307266567342146E-1
 6.529720661375000E9     5.466625818212953E-1   -1.208954600757307E-1   -1.726078822552952E-2   -4.389035064427126E-2   -1.820028720848559E-2   -4.358077597960051E-2    4.614078934137664E-1   -2.317865781133983E-1
 6.529731273750000E9     5.463307445947049E-1   -1.218857058639373E-1   -1.748426618374979E-2   -4.411090665035242E-2   -1.849241548791652E-2   -4.378018865740555E-2    4.605883393997127E-1   -2.331088267513274E-1
 6.529741886125000E9     5.460523167119757E-1   -1.229025041836543E-1   -1.780749141618398E-2   -4.430862241003364E-2   -1.883375919428409E-2   -4.413448779298412E-2    4.599485918667089E-1   -2.341760779321781E-1
 6.529752498500000E9     5.457918652340550E-1   -1.237446316909675E-1   -1.802102283268904E-2   -4.475716143093734E-2   -1.903873411391005E-2   -4.437502166817712E-2    4.592424020885449E-1   -2.351918556642537E-1
 6.529763110875000E9     5.456202595637997E-1   -1.248293738972144E-1   -1.830928290288946E-2   -4.511439312652481E-2   -1.931887979493719E-2   -4.468205920218154E-2    4.586019315492554E-1   -2.364681500925677E-1
 6.529773723250000E9     5.453186699340062E-1   -1.257582298180600E-1   -1.851602837055829E-2   -4.526249908832700E-2   -1.963752364405700E-2   -4.489956672901151E-2    4.579244027390831E-1   -2.376535629708887E-1
 6.529784335625000E9     5.451065771861374E-1   -1.265898411949551E-1   -1.884614283038498E-2   -4.552095100006145E-2   -1.978846829913739E-2   -4.534319550310777E-2    4.571295767323134E-1   -2.388214583425283E-1
 6.529794948000000E9     5.447577709119185E-1   -1.275614399308863E-1   -1.908131602413340E-2   -4.589313327200029E-2   -2.008246380039679E-2   -4.559293193543613E-2    4.564006176634126E-1   -2.399721846458429E-1
 6.529805560375000E9     5.446323285819514E-1   -1.284586360051475E-1   -1.933107665122855E-2   -4.622660341783210E-2   -2.035981840129296E-2   -4.586135344780019E-2    4.554188696549467E-1   -2.409481350246549E-1
 6.529816172750000E9     5.442123748852895E-1   -1.293921078634083E-1   -1.958136130129411E-2   -4.651260531257616E-2   -2.067552518021343E-2   -4.630503222523015E-2    4.548672841935227E-1   -2.422534317372727E-1
 6.529826785125000E9     5.439518881811222E-1   -1.303878247980771E-1   -1.989399913381085E-2   -4.684744225845709E-2   -2.108491358233738E-2   -4.655690919176644E-2    4.539572833434533E-1   -2.435554637440238E-1
 6.529837397500000E9     5.436416164730574E-1   -1.314384070911786E-1   -2.026809292036345E-2   -4.726259966274390E-2   -2.128955985833738E-2   -4.678297478920013E-2    4.531113885039214E-1   -2.445849637389086E-1
 6.529848009875000E9     5.433736712102174E-1   -1.323426888110034E-1   -2.061081638756166E-2   -4.772972787011011E-2   -2.169661278636844E-2   -4.720354047488891E-2    4.524052637565323E-1   -2.457573887955624E-1
 6.529858622250000E9     5.430836500042289E-1   -1.334183928079288E-1   -2.078013004638802E-2   -4.801956624034540E-2   -2.188567471841295E-2   -4.750913410906257E-2    4.515681561790978E-1   -2.470890037698067E-1
 6.529869234625000E9     5.427149912100636E-1   -1.343424142987132E-1   -2.114560927725154E-2   -4.824659769616869E-2   -2.230686614218703E-2   -4.780810655670233E-2    4.507310215453593E-1   -2.482906202601577E-1
 6.529879847000000E9     5.424720871729104E-1   -1.352353784978219E-1   -2.144245726841266E-2   -4.867824735545909E-2   -2.252923983791224E-2   -4.814453341046538E-2    4.499826191472399E-1   -2.495321381410658E-1
 6.529890459375000E9     5.422139214011193E-1   -1.361454768293772E-1   -2.166422033536767E-2   -4.899868168791620E-2   -2.296221187424976E-2   -4.859171268953855E-2    4.490285922085284E-1   -2.507473411984121E-1
 6.529901071750000E9     5.418450085738239E-1   -1.372950926057268E-1   -2.198312174789965E-2   -4.938346766011924E-2   -2.314655258551028E-2   -4.896452706206009E-2    4.483024531857802E-1   -2.519673479318854E-1
