#  HZ   S   RI   R     50.00 
! Rohde & Schwarz Vector Network Analyzer 
! Rohde-Schwarz,ZNB20-2Port,1311601062101988,3.16
! Created: UTC 3/21/2024, 1:10:12 AM
! freq[Hz]                re:S11                  im:S11                  re:S21                  im:S21                  re:S12                  im:S12                  re:S22                  im:S22
 6.528952632000000E9     5.581944320248833E-1   -5.707464953639375E-2   -6.702713135552240E-3   -2.967108743314729E-2   -7.346541710491143E-3   -2.949737180454037E-2    4.950420893285156E-1   -1.600083403335832E-1
 6.528963226600000E9     5.580636282861959E-1   -5.784062727189633E-2   -6.877291970024274E-3   -2.963468196577901E-2   -7.475956663868952E-3   -2.960261073096959E-2    4.945970700021655E-1   -1.608915343686127E-1
 6.528973821200000E9     5.577845359160157E-1   -5.881376085983093E-2   -6.958554082059735E-3   -3.003989504373948E-2   -7.574277271646820E-3   -2.979446947810808E-2    4.944133701317150E-1   -1.617849244244026E-1
 6.528984415800000E9     5.578803510348451E-1   -5.963575042461583E-2   -7.039930983360492E-3   -3.005102185802991E-2   -7.605927733242426E-3   -2.989501860048673E-2    4.941156721826933E-1   -1.627456874483426E-1
 6.528995010400000E9     5.576787026754835E-1   -6.055682766328857E-2   -7.177520656929493E-3   -3.021502106762292E-2   -7.734550746265321E-3   -2.991913479980781E-2    4.937902438150738E-1   -1.636351265331255E-1
 6.529005605000000E9     5.577327861617829E-1   -6.137494656759192E-2   -7.220214584418721E-3   -3.025770618235965E-2   -7.922122017971912E-3   -3.025799402120974E-2    4.934003965782918E-1   -1.645863686674069E-1
 6.529016199600000E9     5.575104913423500E-1   -6.220621405944071E-2   -7.391931285997434E-3   -3.037877150362980E-2   -7.918586350267213E-3   -3.035192908478477E-2    4.929517534820819E-1   -1.654328142820639E-1
 6.529026794200000E9     5.574048668947326E-1   -6.310037431441530E-2   -7.385355484176639E-3   -3.076666779535650E-2   -8.026284040999091E-3   -3.047967114565145E-2    4.925977232051784E-1   -1.662438513326798E-1
 6.529037388800000E9     5.573304568292224E-1   -6.384193904976587E-2   -7.498866138923723E-3   -3.078192082376334E-2   -8.093724849179236E-3   -3.066611541824188E-2    4.924654602144545E-1   -1.671282474446360E-1
 6.529047983400000E9     5.573073584887229E-1   -6.472540602634257E-2   -7.565095374650097E-3   -3.105627424990711E-2   -8.174404091455140E-3   -3.086165624023989E-2    4.920155930823385E-1   -1.680410929239212E-1
 6.529058578000000E9     5.572598513677185E-1   -6.557864600163195E-2   -7.709971466264587E-3   -3.096432679114030E-2   -8.330679978688912E-3   -3.092449540112590E-2    4.916237202894779E-1   -1.691063305688620E-1
 6.529069172600000E9     5.570124671322294E-1   -6.643365553321338E-2   -7.748419285813103E-3   -3.105790758167555E-2   -8.386152331720005E-3   -3.107649101109192E-2    4.913729695894822E-1   -1.700694459641917E-1
 6.529079767200000E9     5.569674568870663E-1   -6.729091606764061E-2   -7.982744976003509E-3   -3.129360666637188E-2   -8.482570142469373E-3   -3.128225316432590E-2    4.909948387573822E-1   -1.708078385346045E-1
 6.529090361800000E9     5.568429521567324E-1   -6.819875924007325E-2   -7.939834043177829E-3   -3.134081298620026E-2   -8.625305893498077E-3   -3.135038253776630E-2    4.906997300711010E-1   -1.717217401862277E-1
 6.529100956400000E9     5.566928823563154E-1   -6.890464374522179E-2   -8.149928828566744E-3   -3.169197276053880E-2   -8.808658609205308E-3   -3.153819424121086E-2    4.904280715844146E-1   -1.725958611187691E-1
 6.529111551000000E9     5.566754279779728E-1   -6.987102201880287E-2   -8.246859099489953E-3   -3.170619238180335E-2   -8.881569142660115E-3   -3.166265177260486E-2    4.898478706241717E-1   -1.735352151801489E-1
 6.529122145600000E9     5.565264880182612E-1   -7.060897150855924E-2   -8.196987442599075E-3   -3.191577408501986E-2   -9.026206529594211E-3   -3.188793128747180E-2    4.894607941024383E-1   -1.745740939479325E-1
 6.529132740200000E9     5.564235987320940E-1   -7.157755197492208E-2   -8.332458015373167E-3   -3.219715127211140E-2   -9.066604908573011E-3   -3.198465891847770E-2    4.892872970038873E-1   -1.754230979239435E-1
 6.529143334800000E9     5.563600482479206E-1   -7.238970433705051E-2   -8.549227476153679E-3   -3.217812229348308E-2   -9.001536550808115E-3   -3.215347161951951E-2    4.887756551246873E-1   -1.762925839767583E-1
 6.529153929400000E9     5.560939909896576E-1   -7.337942927182343E-2   -8.546248788946826E-3   -3.238258429473861E-2   -9.317814454282529E-3   -3.221352396993280E-2    4.882754200929447E-1   -1.774121887678871E-1
 6.529164524000000E9     5.559460755435366E-1   -7.413515884538220E-2   -8.598331883053421E-3   -3.245893655705272E-2   -9.374441227975681E-3   -3.243210262757325E-2    4.880030190981235E-1   -1.783260489985988E-1
 6.529175118600000E9     5.558729007474178E-1   -7.513159487274342E-2   -8.795291896949655E-3   -3.270808231018647E-2   -9.425879972292153E-3   -3.260630124776023E-2    4.877497910867526E-1   -1.792010181503521E-1
 6.529185713200000E9     5.558460936560943E-1   -7.590980047110243E-2   -8.961184012241819E-3   -3.278702768401670E-2   -9.646474389894695E-3   -3.272288498913501E-2    4.873708050041070E-1   -1.799902981133747E-1
 6.529196307800000E9     5.555628327972636E-1   -7.679798891229216E-2   -9.030436836937149E-3   -3.305271476821322E-2   -9.758305355332153E-3   -3.284430787112252E-2    4.868831413719227E-1   -1.811694036275196E-1
 6.529206902400000E9     5.555352096499360E-1   -7.759100320392102E-2   -9.207910391718767E-3   -3.325178874732015E-2   -9.810839750268779E-3   -3.298000469493478E-2    4.865230986889129E-1   -1.819950243345766E-1
 6.529217497000000E9     5.554512824377801E-1   -7.862823518598261E-2   -9.240594240466681E-3   -3.323146754407937E-2   -9.946663849044921E-3   -3.320484117575048E-2    4.862435488369322E-1   -1.829713768428930E-1
 6.529228091600000E9     5.552366288703162E-1   -7.940412405175488E-2   -9.457378055577732E-3   -3.352925679683080E-2   -1.012323307515749E-2   -3.332288800386545E-2    4.859366874658630E-1   -1.839310496375421E-1
 6.529238686200000E9     5.550732683006573E-1   -8.010788608370625E-2   -9.435639896840325E-3   -3.373354792253903E-2   -1.022456067940903E-2   -3.353829212612794E-2    4.852652539200968E-1   -1.848487778445214E-1
 6.529249280800000E9     5.549736917575679E-1   -8.102822464728784E-2   -9.668139994909184E-3   -3.387448340106991E-2   -1.030569876701074E-2   -3.373315214730348E-2    4.850103184431195E-1   -1.858314364092893E-1
 6.529259875400000E9     5.548945216779403E-1   -8.201576285146832E-2   -9.668320335659081E-3   -3.402628193867101E-2   -1.045736285605356E-2   -3.384576766248391E-2    4.845064181976328E-1   -1.867492212276066E-1
 6.529270470000000E9     5.548172234464660E-1   -8.287853327434197E-2   -9.826028089773835E-3   -3.431013382732830E-2   -1.055797589097405E-2   -3.395726028647435E-2    4.841143724417193E-1   -1.877980175082015E-1
 6.529281064600000E9     5.545214553864466E-1   -8.367832810841570E-2   -1.004801569021655E-2   -3.442507685621635E-2   -1.071877121462018E-2   -3.424377021303100E-2    4.836735561602180E-1   -1.887146970804987E-1
 6.529291659200000E9     5.543841768794900E-1   -8.450442767500316E-2   -1.020359305385330E-2   -3.445781593039981E-2   -1.086998807964866E-2   -3.440477536645255E-2    4.834214917913876E-1   -1.894600995541028E-1
 6.529302253800000E9     5.542429065008116E-1   -8.529914081046476E-2   -1.024233302237377E-2   -3.468304440013281E-2   -1.093641467991139E-2   -3.459422657590947E-2    4.829084569651637E-1   -1.906465897043772E-1
 6.529312848400000E9     5.541200534257626E-1   -8.622405746361725E-2   -1.051559167587401E-2   -3.489872148910093E-2   -1.113950664406171E-2   -3.482827021171422E-2    4.823428067560404E-1   -1.916837370723717E-1
 6.529323443000000E9     5.539704567020063E-1   -8.717124439401920E-2   -1.058737204382798E-2   -3.507570425980826E-2   -1.126097835290342E-2   -3.485652533922749E-2    4.819483608675232E-1   -1.924896887839157E-1
 6.529334037600000E9     5.538472264541544E-1   -8.794378664060103E-2   -1.067435706606070E-2   -3.535488054533993E-2   -1.135396600984253E-2   -3.514130586700862E-2    4.814632349116053E-1   -1.936344050199897E-1
 6.529344632200000E9     5.536539726050397E-1   -8.887713564864261E-2   -1.077715413915474E-2   -3.540955790890547E-2   -1.156010890146950E-2   -3.528336375102753E-2    4.810315797506692E-1   -1.944436225747056E-1
 6.529355226800000E9     5.535685074136130E-1   -8.968740105445858E-2   -1.086421407672250E-2   -3.567209827492770E-2   -1.161976538733305E-2   -3.553510867957369E-2    4.807399604890042E-1   -1.953538131418746E-1
 6.529365821400000E9     5.533840472655677E-1   -9.072742424990986E-2   -1.109995835751874E-2   -3.576978246354754E-2   -1.180169537078529E-2   -3.562546381862439E-2    4.802163313086592E-1   -1.965449979913896E-1
 6.529376416000000E9     5.531862991377763E-1   -9.147332429528357E-2   -1.122108684515164E-2   -3.598672912602903E-2   -1.185901178382255E-2   -3.588018262267418E-2    4.796452109192932E-1   -1.973955156318946E-1
 6.529387010600000E9     5.529815643381522E-1   -9.242130715979252E-2   -1.135579448941996E-2   -3.630992393100532E-2   -1.205042309944059E-2   -3.607941368289815E-2    4.793482466395202E-1   -1.985560053424160E-1
 6.529397605200000E9     5.528461258236305E-1   -9.331844912442705E-2   -1.138512223105150E-2   -3.649757334618246E-2   -1.229536048938477E-2   -3.620966710600832E-2    4.787231214414974E-1   -1.994532564367071E-1
 6.529408199800000E9     5.526587218481376E-1   -9.425274145053067E-2   -1.179011652548909E-2   -3.664687343948203E-2   -1.242404253305505E-2   -3.652000785905414E-2    4.782632791056259E-1   -2.002178655475212E-1
 6.529418794400000E9     5.525277180339939E-1   -9.516426535336708E-2   -1.184838153962488E-2   -3.686778254282776E-2   -1.258086158307799E-2   -3.677230001309029E-2    4.778081357370454E-1   -2.015519671342707E-1
 6.529429389000000E9     5.523285604503601E-1   -9.589189348781320E-2   -1.196801615409005E-2   -3.703481989774411E-2   -1.271336903641438E-2   -3.679795292357575E-2    4.773235116913095E-1   -2.024559960203280E-1
 6.529439983600000E9     5.521693534055001E-1   -9.674736721416030E-2   -1.206357525355733E-2   -3.718803534148146E-2   -1.290426899626337E-2   -3.709419809536607E-2    4.768506312348657E-1   -2.034839292601153E-1
 6.529450578200000E9     5.520254654397361E-1   -9.763470308629640E-2   -1.233773689409908E-2   -3.745502593339196E-2   -1.307748822565243E-2   -3.724288517268962E-2    4.763081295404802E-1   -2.045398054127786E-1
 6.529461172800000E9     5.518293667634517E-1   -9.852122575057638E-2   -1.228594755252862E-2   -3.784546241781677E-2   -1.320972138612445E-2   -3.755192769084653E-2    4.757217253420418E-1   -2.055353799140760E-1
 6.529471767400000E9     5.516167941324757E-1   -9.942162113644948E-2   -1.261059118136414E-2   -3.791526861523030E-2   -1.339348764168806E-2   -3.770766742271176E-2    4.753416581800980E-1   -2.064355865871419E-1
 6.529482362000000E9     5.514355094882839E-1   -1.002201877458837E-1   -1.262176379342010E-2   -3.825718973443818E-2   -1.349291279820986E-2   -3.781575827129216E-2    4.748188626963342E-1   -2.074947140125299E-1
 6.529492956600000E9     5.513224086195508E-1   -1.013210324399073E-1   -1.290730523755676E-2   -3.830968992939279E-2   -1.379034574352574E-2   -3.808088249056071E-2    4.744108992523234E-1   -2.085002258382531E-1
 6.529503551200000E9     5.512119303716734E-1   -1.021412478002317E-1   -1.312351633700711E-2   -3.851905717222685E-2   -1.385729657006780E-2   -3.839443550030815E-2    4.737397233871757E-1   -2.095676665306068E-1
 6.529514145800000E9     5.508966673616934E-1   -1.031487972287030E-1   -1.330499385884607E-2   -3.875607318382084E-2   -1.410240151463972E-2   -3.852832752804391E-2    4.732180468238293E-1   -2.106542665360079E-1
 6.529524740400000E9     5.507156391312383E-1   -1.039328446881488E-1   -1.342928402586732E-2   -3.905463846385136E-2   -1.437684813747996E-2   -3.875026721282075E-2    4.727381102764932E-1   -2.116118087576387E-1
 6.529535335000000E9     5.503931207238286E-1   -1.048992000828502E-1   -1.355726591774375E-2   -3.914439764154275E-2   -1.436322686656785E-2   -3.897143541918377E-2    4.722710928520821E-1   -2.126624519846173E-1
 6.529545929600000E9     5.502994485563386E-1   -1.057221659386320E-1   -1.383118144623303E-2   -3.943161281450958E-2   -1.463875187172504E-2   -3.926043067516079E-2    4.717189466515342E-1   -2.137581625930483E-1
 6.529556524200000E9     5.501889259321117E-1   -1.065458357699550E-1   -1.400689327358585E-2   -3.975630680282239E-2   -1.488494778063302E-2   -3.940574997668485E-2    4.710791678347002E-1   -2.148288704644486E-1
 6.529567118800000E9     5.499288970248328E-1   -1.076100739099249E-1   -1.409541441472982E-2   -3.987407754768275E-2   -1.497620101711866E-2   -3.976085129434161E-2    4.705032723219895E-1   -2.158235594502092E-1
 6.529577713400000E9     5.496874200294771E-1   -1.084210557474080E-1   -1.437457133270077E-2   -4.011474947530037E-2   -1.514262863867109E-2   -3.987664685789499E-2    4.698686724803467E-1   -2.168675292078385E-1
 6.529588308000000E9     5.494643992515719E-1   -1.093543277897500E-1   -1.438032385987601E-2   -4.032690737413110E-2   -1.549278695551468E-2   -4.020428685808323E-2    4.692708738680936E-1   -2.178738671445088E-1
 6.529598902600000E9     5.492588814752751E-1   -1.103465102402317E-1   -1.479692619103428E-2   -4.058906493116193E-2   -1.565230027320142E-2   -4.047002175645981E-2    4.687641106254546E-1   -2.190658636320836E-1
 6.529609497200000E9     5.490081528093970E-1   -1.112622371794094E-1   -1.479057139412633E-2   -4.104587459082404E-2   -1.589045991507790E-2   -4.064817424468603E-2    4.682217088726204E-1   -2.201911171498264E-1
 6.529620091800000E9     5.488122732963573E-1   -1.120464127499700E-1   -1.504360495118862E-2   -4.125826877000055E-2   -1.610514903549183E-2   -4.090281701532501E-2    4.676031607366880E-1   -2.211604270516129E-1
 6.529630686400000E9     5.485780383490251E-1   -1.130852497168915E-1   -1.518218588117578E-2   -4.132535560574363E-2   -1.627012510388564E-2   -4.118330757389427E-2    4.669539864315275E-1   -2.222551008680586E-1
 6.529641281000000E9     5.483916998387839E-1   -1.138973127836404E-1   -1.553311980214583E-2   -4.165410565214585E-2   -1.648802665061456E-2   -4.150450852083838E-2    4.664067015655431E-1   -2.233910833316416E-1
 6.529651875600000E9     5.482502644145483E-1   -1.148005269988080E-1   -1.574521442135455E-2   -4.185973552769214E-2   -1.667661132625507E-2   -4.170693545517697E-2    4.656362557864746E-1   -2.243746455241555E-1
 6.529662470200000E9     5.479515605411940E-1   -1.157049515179229E-1   -1.594350239904581E-2   -4.227340381814293E-2   -1.686229644340626E-2   -4.195242947037532E-2    4.652282705968852E-1   -2.255299391378158E-1
 6.529673064800000E9     5.477112094956489E-1   -1.166329119069874E-1   -1.615399115293918E-2   -4.244364937556524E-2   -1.713945507695469E-2   -4.223547431816634E-2    4.644008076223900E-1   -2.266362305398870E-1
 6.529683659400000E9     5.475907078942165E-1   -1.177767727942469E-1   -1.641698663722214E-2   -4.273582629772355E-2   -1.733187743541195E-2   -4.237611991662528E-2    4.639017215357483E-1   -2.276867576035920E-1
 6.529694254000000E9     5.472541096058412E-1   -1.185775186849467E-1   -1.659090464118766E-2   -4.297358740744831E-2   -1.752754269040669E-2   -4.270792820418585E-2    4.632289309427511E-1   -2.287468163113275E-1
 6.529704848600000E9     5.470231210856172E-1   -1.194143813014768E-1   -1.687468996093617E-2   -4.339547356492050E-2   -1.781735798788463E-2   -4.309477092581754E-2    4.625065958396493E-1   -2.299490805466229E-1
 6.529715443200000E9     5.466722930464624E-1   -1.203096569145803E-1   -1.703188789140620E-2   -4.371264734983136E-2   -1.801875819934268E-2   -4.327379414225257E-2    4.617383367691733E-1   -2.310395932349655E-1
 6.529726037800000E9     5.464979375109801E-1   -1.214057799366873E-1   -1.742506461367158E-2   -4.387517506061343E-2   -1.831401480241222E-2   -4.357196162153196E-2    4.609748881546178E-1   -2.322529543406749E-1
 6.529736632400000E9     5.462381674031601E-1   -1.223381348120206E-1   -1.753365385343909E-2   -4.413688855321902E-2   -1.846401380598512E-2   -4.395062540097899E-2    4.605054155118137E-1   -2.333276732708800E-1
 6.529747227000000E9     5.460533738344309E-1   -1.232081358480572E-1   -1.802269961260647E-2   -4.450824850620082E-2   -1.891831078614003E-2   -4.411277316426786E-2    4.596603095630012E-1   -2.346312334823052E-1
 6.529757821600000E9     5.456354202764482E-1   -1.241730375155368E-1   -1.800571633205077E-2   -4.480346210393442E-2   -1.905985854027110E-2   -4.451823188154775E-2    4.590082062827797E-1   -2.356185148872367E-1
 6.529768416200000E9     5.453112373148006E-1   -1.250806029306416E-1   -1.840222472768976E-2   -4.505628821197551E-2   -1.940980281451734E-2   -4.468985433039560E-2    4.584315373032844E-1   -2.367898452584302E-1
 6.529779010800000E9     5.452364708807531E-1   -1.260350815834496E-1   -1.859413169172592E-2   -4.531182495731942E-2   -1.954076381206514E-2   -4.513579937102962E-2    4.575431132686041E-1   -2.378770315064679E-1
 6.529789605400000E9     5.449549281869296E-1   -1.270613019669922E-1   -1.885238692525400E-2   -4.559029242860570E-2   -1.986304862047533E-2   -4.532756949207783E-2    4.569068996515009E-1   -2.390838542000779E-1
 6.529800200000000E9     5.447213040467297E-1   -1.280621650516131E-1   -1.907831382002331E-2   -4.601207101763111E-2   -2.016009399451273E-2   -4.558642955296258E-2    4.560460750802668E-1   -2.401948528362948E-1
 6.529810794600000E9     5.443226742770476E-1   -1.289359223081705E-1   -1.934084152161709E-2   -4.633194363990705E-2   -2.051019195050963E-2   -4.595428474172672E-2    4.552622286126254E-1   -2.415049033171610E-1
 6.529821389200000E9     5.440409603203160E-1   -1.297878889721053E-1   -1.965136405978168E-2   -4.649740390913542E-2   -2.076728773478108E-2   -4.628127046274472E-2    4.544979108812809E-1   -2.427468649989057E-1
 6.529831983800000E9     5.437048603169435E-1   -1.308377144153594E-1   -2.001318537921376E-2   -4.698565182541119E-2   -2.104373369791182E-2   -4.659140900525565E-2    4.538222501207831E-1   -2.438154196543989E-1
 6.529842578400000E9     5.435125500151359E-1   -1.317094443786930E-1   -2.023297963714875E-2   -4.713539819097205E-2   -2.131614848320773E-2   -4.698955921259040E-2    4.528744821165761E-1   -2.452468262867041E-1
 6.529853173000000E9     5.432621128366428E-1   -1.327004730140080E-1   -2.057793254776950E-2   -4.763655605528631E-2   -2.168793953730430E-2   -4.729958823429167E-2    4.520324139934661E-1   -2.463152366458570E-1
 6.529863767600000E9     5.428507587344155E-1   -1.337317340359617E-1   -2.087124385785483E-2   -4.808058525420133E-2   -2.203414956339870E-2   -4.758974647814692E-2    4.514566897850201E-1   -2.475007398956001E-1
 6.529874362200000E9     5.425691837937451E-1   -1.346958805439613E-1   -2.127026392625387E-2   -4.835983494720972E-2   -2.229803749472815E-2   -4.797366810739628E-2    4.506877786247064E-1   -2.487475736746232E-1
 6.529884956800000E9     5.423689726329803E-1   -1.356782340479941E-1   -2.146375754008578E-2   -4.868331003255358E-2   -2.272716609953495E-2   -4.831245010708662E-2    4.499251228765256E-1   -2.500389061333415E-1
 6.529895551400000E9     5.419967894064540E-1   -1.365978183667843E-1   -2.178837432573936E-2   -4.925826797023605E-2   -2.308170723190827E-2   -4.860779767308492E-2    4.487237364586220E-1   -2.510532630147765E-1
 6.529906146000000E9     5.417035563289331E-1   -1.375712589566357E-1   -2.213829029139967E-2   -4.940146755788570E-2   -2.338208748110729E-2   -4.901126336422146E-2    4.478992833325651E-1   -2.525011502417043E-1
