#  HZ   S   RI   R     50.00 
! Rohde & Schwarz Vector Network Analyzer 
! Rohde-Schwarz,ZNB20-2Port,1311601062101988,3.16
! Created: UTC 3/21/2024, 1:10:38 AM
! freq[Hz]                re:S11                  im:S11                  re:S21                  im:S21                  re:S12                  im:S12                  re:S22                  im:S22
 6.528976190000000E9     5.578155083280373E-1   -5.884329894291463E-2   -6.785831406696502E-3   -2.976369836583125E-2   -7.489570956719723E-3   -2.965252373975280E-2    4.947368214513728E-1   -1.620307282511940E-1
 6.528986744800000E9     5.577079745451197E-1   -5.960174320403901E-2   -7.042748474888772E-3   -2.988860087508942E-2   -7.604493205802373E-3   -2.980186501847476E-2    4.943683043507036E-1   -1.628834563266970E-1
 6.528997299600000E9     5.576319547286110E-1   -6.048466264331599E-2   -7.089692155723441E-3   -3.006072625340353E-2   -7.670358568833862E-3   -2.991192697390450E-2    4.941681132591973E-1   -1.638004309083903E-1
 6.529007854400000E9     5.576070571390326E-1   -6.131537414393267E-2   -7.107072687245486E-3   -3.016371984057193E-2   -7.836792169164405E-3   -3.011781437333301E-2    4.938124581942460E-1   -1.647824825434421E-1
 6.529018409200000E9     5.574552512480291E-1   -6.219565003530302E-2   -7.288868658743813E-3   -3.018381444879577E-2   -7.904844838504165E-3   -3.024689736385440E-2    4.935461402354133E-1   -1.656479281472634E-1
 6.529028964000000E9     5.574832179636450E-1   -6.295068475704481E-2   -7.342749033395287E-3   -3.046687248200905E-2   -7.896823748553074E-3   -3.035807470152569E-2    4.930633749999569E-1   -1.666057902422011E-1
 6.529039518800000E9     5.572946100474014E-1   -6.389899624065909E-2   -7.359149972769164E-3   -3.058142268319267E-2   -8.183764698447050E-3   -3.044079999995278E-2    4.927374105197536E-1   -1.675017654486482E-1
 6.529050073600000E9     5.571125003716321E-1   -6.468655694194250E-2   -7.513298330637668E-3   -3.075941337077597E-2   -8.069804134646214E-3   -3.063423341508815E-2    4.923803343945721E-1   -1.684216916320889E-1
 6.529060628400000E9     5.570963087694668E-1   -6.544993962570826E-2   -7.697594276902388E-3   -3.088098515378728E-2   -8.274991992415753E-3   -3.072024650682878E-2    4.921738842062628E-1   -1.693015947838157E-1
 6.529071183200000E9     5.570377330954451E-1   -6.639735682656812E-2   -7.839230017133436E-3   -3.088109605933139E-2   -8.205591307032831E-3   -3.082513583134464E-2    4.919009065830073E-1   -1.702234737712075E-1
 6.529081738000000E9     5.568001390451021E-1   -6.722592955909173E-2   -7.939460392387972E-3   -3.106860953002155E-2   -8.451753997025852E-3   -3.107517228231640E-2    4.914541341523445E-1   -1.710471269291895E-1
 6.529092292800000E9     5.566812895198568E-1   -6.811094322272823E-2   -8.095209256841682E-3   -3.125405347762540E-2   -8.620434212918448E-3   -3.114594466990472E-2    4.912166944122383E-1   -1.719720675706145E-1
 6.529102847600000E9     5.566639057459034E-1   -6.894580279504282E-2   -8.147851904105585E-3   -3.139824724021872E-2   -8.664055669271760E-3   -3.135366136234245E-2    4.907088706167987E-1   -1.729169159265949E-1
 6.529113402400000E9     5.565238218780533E-1   -6.980216977890780E-2   -8.093367734437388E-3   -3.150826146687360E-2   -8.745924580057629E-3   -3.141270946991226E-2    4.904051823843580E-1   -1.739417524562404E-1
 6.529123957200000E9     5.563878788987930E-1   -7.061174104357121E-2   -8.066169517107646E-3   -3.169159472213529E-2   -8.806737133754605E-3   -3.161341713913123E-2    4.901730331406697E-1   -1.748966607068946E-1
 6.529134512000000E9     5.562963911772214E-1   -7.142518072501018E-2   -8.177764349604162E-3   -3.175666059563163E-2   -9.008096014685297E-3   -3.169585056450416E-2    4.895069456010330E-1   -1.755519114690490E-1
 6.529145066800000E9     5.562920389463130E-1   -7.239769589241037E-2   -8.459347079122973E-3   -3.188494301425703E-2   -9.132685006677273E-3   -3.192076422110959E-2    4.893671707547940E-1   -1.765379391567519E-1
 6.529155621600000E9     5.560654717641378E-1   -7.308865317022069E-2   -8.472948550472472E-3   -3.221256807989612E-2   -9.097569292556264E-3   -3.200094410464097E-2    4.889461644224193E-1   -1.776745877830395E-1
 6.529166176400000E9     5.559740800263183E-1   -7.400183155534477E-2   -8.602842529520816E-3   -3.228408064453690E-2   -9.271525954686754E-3   -3.224275915340638E-2    4.884796785539333E-1   -1.785504945524086E-1
 6.529176731200000E9     5.557638509329546E-1   -7.483662265346060E-2   -8.692419138776214E-3   -3.253260205349293E-2   -9.478360859949549E-3   -3.232279334379427E-2    4.881958874240726E-1   -1.794006188211827E-1
 6.529187286000000E9     5.557349737414415E-1   -7.570382309814452E-2   -8.810990739284557E-3   -3.264813976612668E-2   -9.509843601696932E-3   -3.260503200500093E-2    4.879073379731697E-1   -1.803426839796809E-1
 6.529197840800000E9     5.555313457455554E-1   -7.658827772933996E-2   -8.932906808852135E-3   -3.280897373386641E-2   -9.690533873464250E-3   -3.265275235602959E-2    4.874100193132666E-1   -1.812249760905897E-1
 6.529208395600000E9     5.553979179749065E-1   -7.742941692096560E-2   -9.138763607066178E-3   -3.305191865159572E-2   -9.693062316721365E-3   -3.277489705330955E-2    4.870995482483091E-1   -1.822029835817245E-1
 6.529218950400000E9     5.552770213220543E-1   -7.836236072657091E-2   -9.172944351335107E-3   -3.303454070002843E-2   -9.844792021351096E-3   -3.297620365908786E-2    4.866024935970470E-1   -1.828746009700531E-1
 6.529229505200000E9     5.552207070327762E-1   -7.916485552066027E-2   -9.278722286133415E-3   -3.328379352730668E-2   -9.972505447335101E-3   -3.312921935808009E-2    4.862670593140200E-1   -1.841497315190848E-1
 6.529240060000000E9     5.550619220682840E-1   -8.006923381879376E-2   -9.511071283249161E-3   -3.349803507146003E-2   -1.003605038076569E-2   -3.333147395576071E-2    4.858371561769354E-1   -1.851188169944898E-1
 6.529250614800000E9     5.549022417571498E-1   -8.074689183605145E-2   -9.488691898905784E-3   -3.369722716630538E-2   -1.023107998177182E-2   -3.354332659999833E-2    4.853817678546076E-1   -1.859969577050637E-1
 6.529261169600000E9     5.547947946523843E-1   -8.173249258256100E-2   -9.769411870039298E-3   -3.375957825404159E-2   -1.024684071040871E-2   -3.365205379536362E-2    4.851123567140869E-1   -1.868670597609379E-1
 6.529271724400000E9     5.546279183829844E-1   -8.265571610024298E-2   -9.905004263599287E-3   -3.404157144852945E-2   -1.052195951943428E-2   -3.384526447035869E-2    4.847893791116071E-1   -1.879288479250103E-1
 6.529282279200000E9     5.544532203759893E-1   -8.343123035182748E-2   -9.830456947053014E-3   -3.421263910646709E-2   -1.057156801479065E-2   -3.394628360872998E-2    4.843038572729825E-1   -1.889466378711050E-1
 6.529292834000000E9     5.543752238678601E-1   -8.437379992127425E-2   -9.945659130894111E-3   -3.433146583235943E-2   -1.067060346872333E-2   -3.413629622362575E-2    4.838846388537196E-1   -1.897880556781254E-1
 6.529303388800000E9     5.543673261547918E-1   -8.507753121526877E-2   -1.009001541055303E-2   -3.453067935688656E-2   -1.078064893996957E-2   -3.437427713734044E-2    4.833098333774091E-1   -1.907041549620135E-1
 6.529313943600000E9     5.541504209593348E-1   -8.605474006664841E-2   -1.020102620580561E-2   -3.466825051180757E-2   -1.090092645492355E-2   -3.447534299958556E-2    4.827874891838385E-1   -1.916403844939621E-1
 6.529324498400000E9     5.540504219498076E-1   -8.687237712861660E-2   -1.036308820971252E-2   -3.480133383077815E-2   -1.115531924237671E-2   -3.461618689527021E-2    4.823881061156478E-1   -1.925996349147927E-1
 6.529335053200000E9     5.537840829929054E-1   -8.788864670095364E-2   -1.064219198670444E-2   -3.499273094699170E-2   -1.132351248845724E-2   -3.481989906805037E-2    4.821807371521315E-1   -1.936457361286173E-1
 6.529345608000000E9     5.535614543434635E-1   -8.866161876083282E-2   -1.078961723806627E-2   -3.536372341648267E-2   -1.129574316250766E-2   -3.502531369681903E-2    4.816668632299386E-1   -1.946783828335884E-1
 6.529356162800000E9     5.535685463190735E-1   -8.955074477482083E-2   -1.085555979058946E-2   -3.547026822164708E-2   -1.152614267848519E-2   -3.519931781728792E-2    4.812090188496220E-1   -1.954807911101535E-1
 6.529366717600000E9     5.532932911238700E-1   -9.040345778979365E-2   -1.090699183585788E-2   -3.569311718833815E-2   -1.162766310341387E-2   -3.538716164854926E-2    4.807355092313415E-1   -1.964804713528298E-1
 6.529377272400000E9     5.532246447474352E-1   -9.127338637171482E-2   -1.109923409028665E-2   -3.569814823708633E-2   -1.179051817364623E-2   -3.559685167863699E-2    4.804712963302193E-1   -1.975388991397518E-1
 6.529387827200000E9     5.529731474126210E-1   -9.215070393071385E-2   -1.122879292241168E-2   -3.591865741569558E-2   -1.201832813930805E-2   -3.585884151239104E-2    4.799031181563561E-1   -1.984930935269491E-1
 6.529398382000000E9     5.528509836656070E-1   -9.299163599516486E-2   -1.141165131164535E-2   -3.618376314558022E-2   -1.215223869032810E-2   -3.595019213639190E-2    4.794760106829425E-1   -1.994607492633289E-1
 6.529408936800000E9     5.526110857612664E-1   -9.393924884637743E-2   -1.153076681916199E-2   -3.640131519913734E-2   -1.224503781493991E-2   -3.617000201830455E-2    4.788998662770652E-1   -2.005459231641173E-1
 6.529419491600000E9     5.525424024248904E-1   -9.484130929999039E-2   -1.169702849500209E-2   -3.651841984752208E-2   -1.238699807378046E-2   -3.642325919262484E-2    4.784973646755563E-1   -2.012719335179740E-1
 6.529430046400000E9     5.523647949915549E-1   -9.571602868102723E-2   -1.181010204996541E-2   -3.680650573164386E-2   -1.254226749709288E-2   -3.647355079917985E-2    4.779237914059213E-1   -2.026401173939062E-1
 6.529440601200000E9     5.522166235815037E-1   -9.648360084096810E-2   -1.201019430107808E-2   -3.702932642672371E-2   -1.275732982337099E-2   -3.678880069960783E-2    4.773987745360178E-1   -2.035571189473762E-1
 6.529451156000000E9     5.519832438851319E-1   -9.739154351391094E-2   -1.201671529357688E-2   -3.716851888642714E-2   -1.283118503072610E-2   -3.691721464044243E-2    4.770514510117383E-1   -2.045315172484573E-1
 6.529461710800000E9     5.517910401292624E-1   -9.837135159257043E-2   -1.230930317812618E-2   -3.733765592607149E-2   -1.307569105224070E-2   -3.715863047085784E-2    4.765222264890331E-1   -2.056318782629302E-1
 6.529472265600000E9     5.515957344883176E-1   -9.921317564049635E-2   -1.249111798509978E-2   -3.752743632873214E-2   -1.322790787159108E-2   -3.741614345678017E-2    4.759609972754359E-1   -2.065280798060433E-1
 6.529482820400000E9     5.515011000415752E-1   -1.000633429153006E-1   -1.254371788965763E-2   -3.785125130117528E-2   -1.335802842641192E-2   -3.765331869356443E-2    4.754479603531295E-1   -2.076016598588721E-1
 6.529493375200000E9     5.512676310504148E-1   -1.008809184920298E-1   -1.272672696971870E-2   -3.795409517756602E-2   -1.343252467272487E-2   -3.774620398186285E-2    4.748958406048954E-1   -2.083988579535516E-1
 6.529503930000000E9     5.510970206213133E-1   -1.019110989876143E-1   -1.283763461432817E-2   -3.824243862046119E-2   -1.365443090206798E-2   -3.803163384076984E-2    4.745221763832685E-1   -2.094540376784941E-1
 6.529514484800000E9     5.508741856538377E-1   -1.027191421597410E-1   -1.305975100728051E-2   -3.850607081818447E-2   -1.386748516463994E-2   -3.828790794166628E-2    4.739751602197532E-1   -2.107556898395176E-1
 6.529525039600000E9     5.507487284505288E-1   -1.037028643427935E-1   -1.324543883238410E-2   -3.872200854001933E-2   -1.399864828731550E-2   -3.840396912273624E-2    4.732221188151426E-1   -2.116043537258538E-1
 6.529535594400000E9     5.506162820685572E-1   -1.044396288710519E-1   -1.338372160487112E-2   -3.883112404970310E-2   -1.420826514080844E-2   -3.867050586914965E-2    4.726875732975831E-1   -2.126698633852666E-1
 6.529546149200000E9     5.503073988431972E-1   -1.053027899940345E-1   -1.362095053372480E-2   -3.902859815495472E-2   -1.444924827789637E-2   -3.896015778504401E-2    4.722271863962973E-1   -2.135453883042035E-1
 6.529556704000000E9     5.501489875717557E-1   -1.063699116388744E-1   -1.377223258778940E-2   -3.931710156947989E-2   -1.466160061623290E-2   -3.909943733618366E-2    4.718532702660050E-1   -2.148270862279729E-1
 6.529567258800000E9     5.498962545805667E-1   -1.072127083276024E-1   -1.388943533803949E-2   -3.948064611075804E-2   -1.477140756846794E-2   -3.936899808122860E-2    4.712203720940776E-1   -2.157154389797680E-1
 6.529577813600000E9     5.496915572886731E-1   -1.080510285428510E-1   -1.403659239342824E-2   -3.981697058364288E-2   -1.491835808420066E-2   -3.964119465945671E-2    4.707126139782554E-1   -2.168410334051383E-1
 6.529588368400000E9     5.495132830571827E-1   -1.089863938556956E-1   -1.423953063620512E-2   -4.014539091154666E-2   -1.525743643646958E-2   -3.975625594117596E-2    4.703001795130319E-1   -2.179207882155132E-1
 6.529598923200000E9     5.493161434403124E-1   -1.099550823917653E-1   -1.461046175292973E-2   -4.032072132232793E-2   -1.536449660489365E-2   -4.004284412566603E-2    4.695607133544031E-1   -2.190190046691770E-1
 6.529609478000000E9     5.490452156694965E-1   -1.108902296936886E-1   -1.459940631540881E-2   -4.051086674683203E-2   -1.550636568927154E-2   -4.023310451543353E-2    4.690771916888020E-1   -2.201121643273563E-1
 6.529620032800000E9     5.489222264206958E-1   -1.116906339686088E-1   -1.490578800907236E-2   -4.087209669954807E-2   -1.581918357656574E-2   -4.061289892892854E-2    4.681608332456433E-1   -2.211212915955290E-1
 6.529630587600000E9     5.486287247982380E-1   -1.126116663181233E-1   -1.500913076683077E-2   -4.108753101537145E-2   -1.604047527472256E-2   -4.079590514652191E-2    4.676883468552001E-1   -2.220972328971303E-1
 6.529641142400000E9     5.485393548821237E-1   -1.134614346740315E-1   -1.533163423241453E-2   -4.131709652099618E-2   -1.613995514023256E-2   -4.106891577204416E-2    4.671783234341839E-1   -2.233226323527102E-1
 6.529651697200000E9     5.481826707905436E-1   -1.144537717195309E-1   -1.545955684675602E-2   -4.151342505170583E-2   -1.640080804992039E-2   -4.134848174982250E-2    4.665976512799436E-1   -2.242289913458751E-1
 6.529662252000000E9     5.480241098775281E-1   -1.153262429328345E-1   -1.568688548866760E-2   -4.175491577586499E-2   -1.663240463217457E-2   -4.161139328395571E-2    4.658839427234823E-1   -2.253603589369834E-1
 6.529672806800000E9     5.478395377932300E-1   -1.162720804174079E-1   -1.599616477664342E-2   -4.218918603462737E-2   -1.686054787956395E-2   -4.177329703424524E-2    4.652561884298172E-1   -2.263634122682681E-1
 6.529683361600000E9     5.476041717314943E-1   -1.171231687386050E-1   -1.617558230866846E-2   -4.232675675406487E-2   -1.707213288816781E-2   -4.199597644793434E-2    4.646913706829491E-1   -2.275282163552282E-1
 6.529693916400000E9     5.472468451540743E-1   -1.180866034389590E-1   -1.638275213743661E-2   -4.267896817733271E-2   -1.736362720768288E-2   -4.226659813306198E-2    4.640060470389149E-1   -2.287684718274197E-1
 6.529704471200000E9     5.470990647103570E-1   -1.190675827668366E-1   -1.653644053432077E-2   -4.294296979955171E-2   -1.758051244197453E-2   -4.257624723735923E-2    4.634762791493389E-1   -2.295866650545159E-1
 6.529715026000000E9     5.467612559259797E-1   -1.200130426998064E-1   -1.686236670092104E-2   -4.312852903738669E-2   -1.772617985555875E-2   -4.276653922504078E-2    4.627617863704176E-1   -2.307022089518455E-1
 6.529725580800000E9     5.465973028042240E-1   -1.209620622494518E-1   -1.697919864494792E-2   -4.353860635018322E-2   -1.801464722334282E-2   -4.317581076040082E-2    4.619465370050158E-1   -2.318854244425458E-1
 6.529736135600000E9     5.463768883949727E-1   -1.218685992321584E-1   -1.728921040724438E-2   -4.370967438596882E-2   -1.823997274997208E-2   -4.349013055062914E-2    4.614026520428270E-1   -2.331367518748834E-1
 6.529746690400000E9     5.460727537238664E-1   -1.226524359864382E-1   -1.750608296742272E-2   -4.387168123424069E-2   -1.847262676862144E-2   -4.378069731583337E-2    4.607105389892230E-1   -2.342967211668025E-1
 6.529757245200000E9     5.458308234104653E-1   -1.237374673329974E-1   -1.768852589419837E-2   -4.427488027701024E-2   -1.882050617665169E-2   -4.399602827475373E-2    4.600655784024744E-1   -2.353531028411844E-1
 6.529767800000000E9     5.456723498062054E-1   -1.246248590791676E-1   -1.794820412361811E-2   -4.461716233177181E-2   -1.903691542439923E-2   -4.429618388768346E-2    4.592327733998007E-1   -2.366460749726901E-1
 6.529778354800000E9     5.453141434326686E-1   -1.254514048391748E-1   -1.828601966043129E-2   -4.497828912356232E-2   -1.936150552860528E-2   -4.455341025886846E-2    4.583991336307692E-1   -2.377434780387569E-1
 6.529788909600000E9     5.450950107378343E-1   -1.264759199646454E-1   -1.845777207356501E-2   -4.530996498911528E-2   -1.957607453809805E-2   -4.495648855753948E-2    4.578145537772827E-1   -2.387226707041858E-1
 6.529799464400000E9     5.448956096037787E-1   -1.274787234076797E-1   -1.884916460395510E-2   -4.552908079640258E-2   -1.980256664573208E-2   -4.515039558423294E-2    4.571349543798122E-1   -2.398747675055945E-1
 6.529810019200000E9     5.445989487206466E-1   -1.283907064928257E-1   -1.896623963145553E-2   -4.579511849787408E-2   -2.007559864219687E-2   -4.547947132526235E-2    4.563057133928993E-1   -2.410674135665119E-1
 6.529820574000000E9     5.441757020576009E-1   -1.293182518116899E-1   -1.931101084278909E-2   -4.610018708933756E-2   -2.038380417453390E-2   -4.582328699492221E-2    4.556567496946560E-1   -2.420095827429988E-1
 6.529831128800000E9     5.438148592137187E-1   -1.303506355569405E-1   -1.962828935329086E-2   -4.645628774978471E-2   -2.064241843074797E-2   -4.605799047056255E-2    4.547357518156950E-1   -2.434051133318871E-1
 6.529841683600000E9     5.436692207122308E-1   -1.312153413874485E-1   -1.993742892468867E-2   -4.685028115132958E-2   -2.094572197668401E-2   -4.643039172661054E-2    4.540278403493908E-1   -2.447921476428806E-1
 6.529852238400000E9     5.433855801620937E-1   -1.322050121257257E-1   -2.006900431941964E-2   -4.703630763893290E-2   -2.129701637311063E-2   -4.669065786113304E-2    4.533146824334401E-1   -2.458586732979277E-1
 6.529862793200000E9     5.431196238445061E-1   -1.331584811857412E-1   -2.051470088766170E-2   -4.752077681643421E-2   -2.156811112244952E-2   -4.708191092532778E-2    4.523702443340855E-1   -2.470331364465544E-1
 6.529873348000000E9     5.427362583885020E-1   -1.340862162929347E-1   -2.060565182273951E-2   -4.777439727125695E-2   -2.193504378296421E-2   -4.743433106031720E-2    4.515427936099874E-1   -2.482533997514042E-1
 6.529883902800000E9     5.425251250415450E-1   -1.350563848151691E-1   -2.106896926615771E-2   -4.809930875730525E-2   -2.216195525370630E-2   -4.774041549749015E-2    4.507976049279426E-1   -2.493106182111401E-1
 6.529894457600000E9     5.421416266085620E-1   -1.361254819557918E-1   -2.141823791147159E-2   -4.851316680383055E-2   -2.257818419543357E-2   -4.806080251737153E-2    4.499508212407771E-1   -2.505914023570291E-1
 6.529905012400000E9     5.420101895793483E-1   -1.369823956938412E-1   -2.182093780289444E-2   -4.891325885252379E-2   -2.282495547361078E-2   -4.857587526811960E-2    4.491725768004804E-1   -2.518745088227795E-1
 6.529915567200000E9     5.416332487194327E-1   -1.379053125331518E-1   -2.191238843531597E-2   -4.916266294228752E-2   -2.324933959653407E-2   -4.877500225240582E-2    4.481172356792843E-1   -2.531209609357951E-1
 6.529926122000000E9     5.412725566894910E-1   -1.389120747555624E-1   -2.238456252421344E-2   -4.965592550613823E-2   -2.350211934097526E-2   -4.918339263809886E-2    4.474285696223373E-1   -2.543658220352313E-1
