#  HZ   S   RI   R     50.00 
! Rohde & Schwarz Vector Network Analyzer 
! Rohde-Schwarz,ZNB20-2Port,1311601062101988,3.16
! Created: UTC 3/21/2024, 1:10:57 AM
! freq[Hz]                re:S11                  im:S11                  re:S21                  im:S21                  re:S12                  im:S12                  re:S22                  im:S22
 6.529000798000000E9     5.577507201063442E-1   -6.029608136854573E-2   -7.013822047115347E-3   -2.981874850585376E-2   -7.531236034846956E-3   -2.983905659627653E-2    4.939970891226093E-1   -1.635823162509272E-1
 6.529011289800000E9     5.577486599998146E-1   -6.119724208100036E-2   -7.033877068499294E-3   -3.008962635201732E-2   -7.748197544633128E-3   -2.990069747841125E-2    4.936735685474322E-1   -1.645778108957227E-1
 6.529021781600000E9     5.575298499452256E-1   -6.190010191555947E-2   -7.173639598566860E-3   -3.015247326352664E-2   -7.832389633589001E-3   -3.000160870236072E-2    4.934246671493852E-1   -1.654114381884651E-1
 6.529032273400000E9     5.574821212191086E-1   -6.281892877662627E-2   -7.350145149659846E-3   -3.035291402116625E-2   -8.000294644463763E-3   -3.017685258442645E-2    4.930289959702199E-1   -1.664472366693692E-1
 6.529042765200000E9     5.574433348423359E-1   -6.358236445905666E-2   -7.465843793550713E-3   -3.038325136209718E-2   -7.934361272357304E-3   -3.035636601723484E-2    4.926227377218100E-1   -1.673597901270289E-1
 6.529053257000000E9     5.572163508713484E-1   -6.447196756317515E-2   -7.422443212553946E-3   -3.049034037192823E-2   -8.076493706205680E-3   -3.042645352764967E-2    4.923323677962542E-1   -1.683484028627188E-1
 6.529063748800000E9     5.571729323188863E-1   -6.529905367385783E-2   -7.525340489561185E-3   -3.073571448941731E-2   -8.229569747572716E-3   -3.075566930202459E-2    4.921063663151862E-1   -1.691553366624805E-1
 6.529074240600000E9     5.571563679045782E-1   -6.621702116195004E-2   -7.671276283758219E-3   -3.079296346948335E-2   -8.227529557357519E-3   -3.065982162845559E-2    4.917572905445451E-1   -1.699036005282416E-1
 6.529084732400000E9     5.569126692401558E-1   -6.695459181004534E-2   -7.723882602263393E-3   -3.088113811143686E-2   -8.495371522554918E-3   -3.085978266482679E-2    4.912790980854517E-1   -1.708173525772953E-1
 6.529095224200000E9     5.568400057907510E-1   -6.795637273812069E-2   -7.848000781435865E-3   -3.099698283832011E-2   -8.446263797643953E-3   -3.107309268597754E-2    4.910180130972389E-1   -1.718015901856414E-1
 6.529105716000000E9     5.567817379163432E-1   -6.875751752620302E-2   -7.842143089303351E-3   -3.138599105697121E-2   -8.535802867950130E-3   -3.121469762261399E-2    4.907242612765387E-1   -1.727358771996053E-1
 6.529116207800000E9     5.566133876685462E-1   -6.957391776414085E-2   -8.016918426560311E-3   -3.145104646956953E-2   -8.615425036760554E-3   -3.132403362264575E-2    4.902573438941092E-1   -1.737026519886264E-1
 6.529126699600000E9     5.565908044550404E-1   -7.030605852193753E-2   -8.142663758334657E-3   -3.152172326214214E-2   -8.741636633245193E-3   -3.134807815899815E-2    4.898994956431049E-1   -1.746233064077551E-1
 6.529137191400000E9     5.563404939006026E-1   -7.122164893218583E-2   -8.150325404886862E-3   -3.177664018217023E-2   -8.915434686524117E-3   -3.156957967511820E-2    4.897426980927887E-1   -1.754412888949199E-1
 6.529147683200000E9     5.563502464075049E-1   -7.200559238258993E-2   -8.448300896925290E-3   -3.179118621847283E-2   -8.998892227799857E-3   -3.184446577608309E-2    4.892506707150826E-1   -1.764721777905431E-1
 6.529158175000000E9     5.561476468603300E-1   -7.295423723016052E-2   -8.510893375268369E-3   -3.192740517862239E-2   -9.102840727192835E-3   -3.190356852204693E-2    4.887745095248524E-1   -1.772905301570837E-1
 6.529168666800000E9     5.560459033010096E-1   -7.369829253906918E-2   -8.481834744256922E-3   -3.237274043301229E-2   -9.175496478239587E-3   -3.207926128171606E-2    4.883196529885885E-1   -1.783591617708566E-1
 6.529179158600000E9     5.558936962258251E-1   -7.471194229909768E-2   -8.727500299417247E-3   -3.237700452921292E-2   -9.270183791397489E-3   -3.218332390523922E-2    4.881860353544962E-1   -1.789759728015542E-1
 6.529189650400000E9     5.557948758377642E-1   -7.547397320093567E-2   -8.709072634976275E-3   -3.257300488491414E-2   -9.317217101385672E-3   -3.240331441190111E-2    4.877915285483162E-1   -1.798969093655299E-1
 6.529200142200000E9     5.557622225701129E-1   -7.634358212634215E-2   -8.902879241665860E-3   -3.255909543583459E-2   -9.619610419321155E-3   -3.250854010122739E-2    4.873518932912595E-1   -1.810145837474481E-1
 6.529210634000000E9     5.554762579460519E-1   -7.713402811335551E-2   -8.887968456787397E-3   -3.274041573668419E-2   -9.604123908055215E-3   -3.268614329001903E-2    4.870853626178928E-1   -1.819484339590616E-1
 6.529221125800000E9     5.554862308938012E-1   -7.803945695730197E-2   -9.252031923378878E-3   -3.294259570968626E-2   -9.786544014619919E-3   -3.286816551864778E-2    4.868427811743730E-1   -1.828329688583202E-1
 6.529231617600000E9     5.553945833652225E-1   -7.885868054294816E-2   -9.210154161628830E-3   -3.315974798224886E-2   -9.874253516079240E-3   -3.286910401440277E-2    4.861730025084310E-1   -1.837072628305608E-1
 6.529242109400000E9     5.551604932211793E-1   -7.968275025565096E-2   -9.238155139267599E-3   -3.330721385857351E-2   -1.009199894989768E-2   -3.309970216487815E-2    4.858422000726981E-1   -1.846841106153342E-1
 6.529252601200000E9     5.550220606738121E-1   -8.058252199743962E-2   -9.512357792852711E-3   -3.348342052099192E-2   -1.014736072961247E-2   -3.327076171438861E-2    4.854720902293638E-1   -1.855324705104996E-1
 6.529263093000000E9     5.549864295769603E-1   -8.137962705589204E-2   -9.561967784341506E-3   -3.364646246885955E-2   -1.027735050352700E-2   -3.350134942270543E-2    4.849388960639234E-1   -1.865686230746387E-1
 6.529273584800000E9     5.547702827763001E-1   -8.230586609196087E-2   -9.637380189307571E-3   -3.386082656592671E-2   -1.040960396240002E-2   -3.360288858424087E-2    4.846983895793615E-1   -1.875157289259418E-1
 6.529284076600000E9     5.545615128764374E-1   -8.313744097125961E-2   -9.766571575505638E-3   -3.399261252776067E-2   -1.055462411692620E-2   -3.379759690326661E-2    4.842724659909268E-1   -1.883899966963006E-1
 6.529294568400000E9     5.544763955723853E-1   -8.399476281191984E-2   -9.841674350169551E-3   -3.424718808002942E-2   -1.065762825438280E-2   -3.395995634508279E-2    4.840111911744741E-1   -1.893441841107364E-1
 6.529305060200000E9     5.542930418220401E-1   -8.490606023566903E-2   -9.971138552513172E-3   -3.424167550336341E-2   -1.072621112823874E-2   -3.411939284766664E-2    4.833480087823686E-1   -1.903373353848735E-1
 6.529315552000000E9     5.540843868897335E-1   -8.568306816190180E-2   -1.018742516035053E-2   -3.453503352290488E-2   -1.085225962875715E-2   -3.436832631399566E-2    4.830585098900014E-1   -1.912665166548114E-1
 6.529326043800000E9     5.539755430623596E-1   -8.669476126777052E-2   -1.029479629680018E-2   -3.459897494684486E-2   -1.094698568070069E-2   -3.447082212400415E-2    4.826361094502649E-1   -1.924806183077488E-1
 6.529336535600000E9     5.539423918532353E-1   -8.751866212166727E-2   -1.045342905412356E-2   -3.483213258433518E-2   -1.110992981116042E-2   -3.468813202273190E-2    4.822218292411912E-1   -1.931877966614220E-1
 6.529347027400000E9     5.537392010431068E-1   -8.836608940843438E-2   -1.055879501450687E-2   -3.498838561305711E-2   -1.132823804686889E-2   -3.489184809763230E-2    4.816777800892874E-1   -1.941240232004191E-1
 6.529357519200000E9     5.536575466649846E-1   -8.922156092827094E-2   -1.061770446302461E-2   -3.513497296559261E-2   -1.141536276158663E-2   -3.499279318300164E-2    4.811523106253461E-1   -1.950017931377765E-1
 6.529368011000000E9     5.535304260690750E-1   -9.007263870542374E-2   -1.082236814064419E-2   -3.535501277919442E-2   -1.162606861351265E-2   -3.520864889034911E-2    4.809637449418913E-1   -1.961881552128758E-1
 6.529378502800000E9     5.532497165848957E-1   -9.090119759208955E-2   -1.091074085045356E-2   -3.538046593476178E-2   -1.171170991245987E-2   -3.538231110156712E-2    4.804787830033848E-1   -1.971643378872378E-1
 6.529388994600000E9     5.532198645992465E-1   -9.176469201728907E-2   -1.106624367523542E-2   -3.575639061719973E-2   -1.185637323135675E-2   -3.553327214751934E-2    4.798055043884027E-1   -1.979567822989108E-1
 6.529399486400000E9     5.530181684535964E-1   -9.263241822104835E-2   -1.116556110670037E-2   -3.583857333912543E-2   -1.203259593076806E-2   -3.578558551365542E-2    4.796391608495783E-1   -1.988507308272778E-1
 6.529409978200000E9     5.527766740511274E-1   -9.356428946349123E-2   -1.130963352018681E-2   -3.598894414334607E-2   -1.212006023050895E-2   -3.590111321639412E-2    4.790939974930139E-1   -2.001084887204666E-1
 6.529420470000000E9     5.526737693148829E-1   -9.430144575391211E-2   -1.155861955141597E-2   -3.643342061777945E-2   -1.232498641908421E-2   -3.617620003097399E-2    4.784810287313291E-1   -2.010006295462317E-1
 6.529430961800000E9     5.525019390596896E-1   -9.522641634124943E-2   -1.146915340226988E-2   -3.658476043045721E-2   -1.253115403166330E-2   -3.639656013945379E-2    4.781512834248111E-1   -2.019790909061230E-1
 6.529441453600000E9     5.523823673887781E-1   -9.610188093316925E-2   -1.183211749333187E-2   -3.677730603076596E-2   -1.254500461664197E-2   -3.648903395813514E-2    4.776593151040254E-1   -2.028659454963925E-1
 6.529451945400000E9     5.521219411495789E-1   -9.697417605354786E-2   -1.205906767880363E-2   -3.691035610450195E-2   -1.267885428870250E-2   -3.677718891808495E-2    4.769253290124466E-1   -2.039159247868616E-1
 6.529462437200000E9     5.519077101714895E-1   -9.798109631054562E-2   -1.223207626661071E-2   -3.714876888036601E-2   -1.285594829542407E-2   -3.700221865947931E-2    4.765879243185461E-1   -2.049765114335873E-1
 6.529472929000000E9     5.518746690413147E-1   -9.877850981240366E-2   -1.240579917915642E-2   -3.745463408638046E-2   -1.309832668776474E-2   -3.719488419938827E-2    4.761209728804507E-1   -2.060198425052161E-1
 6.529483420800000E9     5.516026084236351E-1   -9.973584334361468E-2   -1.236600947719751E-2   -3.750791609426125E-2   -1.322932632002090E-2   -3.733665101827997E-2    4.756367856229330E-1   -2.069547520265300E-1
 6.529493912600000E9     5.514719240423743E-1   -1.005340937388512E-1   -1.250098268950697E-2   -3.781145597590809E-2   -1.346131525206464E-2   -3.756241780845593E-2    4.750064596317559E-1   -2.081439874407297E-1
 6.529504404400000E9     5.512884447671899E-1   -1.013688158344889E-1   -1.274964150503343E-2   -3.786712359574534E-2   -1.365433949560108E-2   -3.780085122829132E-2    4.744768580378966E-1   -2.090075921351594E-1
 6.529514896200000E9     5.511354300519336E-1   -1.023595906275289E-1   -1.286835412226357E-2   -3.833317223108201E-2   -1.369274087786061E-2   -3.803266625162990E-2    4.742059734436663E-1   -2.098473916841287E-1
 6.529525388000000E9     5.509317881308522E-1   -1.031264597602512E-1   -1.303633595817556E-2   -3.829348658334274E-2   -1.393502124578351E-2   -3.819221644775205E-2    4.735578033675477E-1   -2.111166209956191E-1
 6.529535879800000E9     5.507785002656580E-1   -1.040727605957365E-1   -1.323938488477994E-2   -3.870160922703339E-2   -1.403197513249996E-2   -3.836805524688200E-2    4.730457680699133E-1   -2.119439461466882E-1
 6.529546371600000E9     5.504312710990555E-1   -1.049237377632946E-1   -1.345853198619855E-2   -3.885107789872849E-2   -1.422752034377516E-2   -3.866807408020459E-2    4.724232758333106E-1   -2.131037611930985E-1
 6.529556863400000E9     5.503527581542447E-1   -1.058809891463654E-1   -1.358648744104568E-2   -3.911149773799345E-2   -1.449237979935714E-2   -3.890663986702003E-2    4.719700263498034E-1   -2.139276443448541E-1
 6.529567355200000E9     5.500640131248820E-1   -1.067253438697622E-1   -1.375425544033712E-2   -3.932926898992720E-2   -1.465143029526491E-2   -3.908547428758265E-2    4.715211618414030E-1   -2.150499146266812E-1
 6.529577847000000E9     5.498789931770569E-1   -1.076888672833437E-1   -1.393686178430552E-2   -3.960626380266587E-2   -1.481513196139883E-2   -3.935639484330652E-2    4.709955431344286E-1   -2.161662347885158E-1
 6.529588338800000E9     5.497122303070783E-1   -1.085548015410363E-1   -1.409892203972756E-2   -3.979690113131715E-2   -1.499705599823107E-2   -3.950025729719317E-2    4.703877297461263E-1   -2.171293356112036E-1
 6.529598830600000E9     5.495935426965064E-1   -1.094427540715063E-1   -1.423317497756745E-2   -3.993616457123588E-2   -1.522888691869919E-2   -3.969392275006082E-2    4.696840001317565E-1   -2.181945544570547E-1
 6.529609322400000E9     5.493371566695101E-1   -1.103294239931505E-1   -1.452532555505998E-2   -4.034779733316107E-2   -1.535793134303541E-2   -3.998247710096397E-2    4.692382800366297E-1   -2.192131899405483E-1
 6.529619814200000E9     5.491388363063633E-1   -1.111744485609664E-1   -1.478866006444857E-2   -4.049367558130827E-2   -1.560487054494539E-2   -4.018799897522497E-2    4.686162276116715E-1   -2.201816489979167E-1
 6.529630306000000E9     5.488990407427158E-1   -1.120387660753171E-1   -1.485453295407932E-2   -4.060253581099731E-2   -1.578796415691898E-2   -4.042274220978773E-2    4.680989642792256E-1   -2.213847079512511E-1
 6.529640797800000E9     5.485747807004717E-1   -1.130354382936768E-1   -1.514329860605230E-2   -4.093466949219451E-2   -1.598506329670317E-2   -4.069618776771834E-2    4.674336235854296E-1   -2.223582391756479E-1
 6.529651289600000E9     5.484051041263605E-1   -1.138760108618279E-1   -1.536883620910000E-2   -4.125289301502331E-2   -1.624618740855776E-2   -4.087665443601347E-2    4.667960544812700E-1   -2.234296023987521E-1
 6.529661781400000E9     5.482675003022311E-1   -1.149450367971842E-1   -1.552433720603545E-2   -4.144186196392174E-2   -1.643594161492613E-2   -4.120061165578846E-2    4.660640478637603E-1   -2.244778567179412E-1
 6.529672273200000E9     5.479284810440724E-1   -1.157712425663744E-1   -1.572927154825219E-2   -4.177122639900622E-2   -1.660030438180337E-2   -4.157717294010988E-2    4.657017271183135E-1   -2.256919276014777E-1
 6.529682765000000E9     5.477446245799241E-1   -1.166758903824369E-1   -1.584406821476018E-2   -4.199585181412679E-2   -1.680233725381062E-2   -4.167003442870098E-2    4.649772248897836E-1   -2.267900062396327E-1
 6.529693256800000E9     5.475801681432049E-1   -1.175618620580512E-1   -1.611996482430584E-2   -4.223614588308153E-2   -1.709701789173622E-2   -4.197597001827551E-2    4.644788528480717E-1   -2.278353383011558E-1
 6.529703748600000E9     5.473049406967180E-1   -1.185162925923142E-1   -1.635450738367735E-2   -4.249856430774922E-2   -1.728690554457165E-2   -4.221428193920822E-2    4.637993930702783E-1   -2.289139041775519E-1
 6.529714240400000E9     5.470027657489945E-1   -1.193484209041586E-1   -1.667666436276915E-2   -4.277816575548585E-2   -1.755013060901771E-2   -4.256513975162225E-2    4.631855925176558E-1   -2.299878658759271E-1
 6.529724732200000E9     5.468270756580784E-1   -1.203402069890510E-1   -1.674412861160854E-2   -4.310003407240962E-2   -1.768180472897913E-2   -4.293258467994966E-2    4.624810883723467E-1   -2.310556340087100E-1
 6.529735224000000E9     5.465327462712819E-1   -1.213164735135647E-1   -1.695448417280060E-2   -4.347337773166553E-2   -1.801137509615759E-2   -4.314874758950114E-2    4.615475947411374E-1   -2.322940471598811E-1
 6.529745715800000E9     5.464339339092662E-1   -1.220473455194927E-1   -1.717726575475756E-2   -4.368830162066996E-2   -1.813302902650226E-2   -4.338747436733546E-2    4.610130400749199E-1   -2.334461393578016E-1
 6.529756207600000E9     5.460376697980208E-1   -1.231301948752558E-1   -1.744827726931703E-2   -4.406015270725792E-2   -1.853630724343787E-2   -4.356802958638552E-2    4.605439721465066E-1   -2.344324362355510E-1
 6.529766699400000E9     5.459039000307895E-1   -1.240252928217948E-1   -1.769840247555591E-2   -4.418788374205079E-2   -1.872249349223318E-2   -4.395852658257164E-2    4.598117225518956E-1   -2.355438864994811E-1
 6.529777191200000E9     5.455584626010547E-1   -1.249104534093417E-1   -1.785342972756639E-2   -4.451554862642647E-2   -1.897118693621201E-2   -4.414849572652778E-2    4.590365048805822E-1   -2.367380436993585E-1
 6.529787683000000E9     5.454102791918249E-1   -1.258864299752662E-1   -1.818990079726023E-2   -4.481061459116196E-2   -1.917148095041884E-2   -4.447727220185956E-2    4.583922276444339E-1   -2.377472631534923E-1
 6.529798174800000E9     5.450270280624385E-1   -1.268425415029100E-1   -1.846351345230200E-2   -4.501183819173576E-2   -1.951199856378744E-2   -4.481555937157834E-2    4.574683406573484E-1   -2.389725098995774E-1
 6.529808666600000E9     5.448704199775898E-1   -1.277267896550237E-1   -1.874050014251028E-2   -4.530323734157542E-2   -1.974885505682401E-2   -4.517152086055538E-2    4.569151585771277E-1   -2.402329788104814E-1
 6.529819158400000E9     5.445806446065363E-1   -1.285663475279900E-1   -1.905422560781770E-2   -4.572603647273498E-2   -1.993171921744282E-2   -4.532985537567132E-2    4.562765500655584E-1   -2.413429362570891E-1
 6.529829650200000E9     5.442497323392242E-1   -1.295893495414242E-1   -1.921934063198142E-2   -4.597696037294242E-2   -2.037473381205967E-2   -4.558432470108748E-2    4.553851648619876E-1   -2.424779729009502E-1
 6.529840142000000E9     5.438513092141760E-1   -1.306353651037764E-1   -1.959548131064890E-2   -4.635993004069766E-2   -2.053254237704433E-2   -4.593546068360468E-2    4.546875611443779E-1   -2.435743494976380E-1
 6.529850633800000E9     5.437845807210554E-1   -1.315318780418592E-1   -1.980975897313866E-2   -4.662928501752288E-2   -2.085392438233564E-2   -4.628431092402329E-2    4.538101204856558E-1   -2.447809116947919E-1
 6.529861125600000E9     5.433553452742613E-1   -1.324381985482543E-1   -1.995373370425704E-2   -4.705789119001525E-2   -2.119640151191580E-2   -4.675352320127058E-2    4.531227764202724E-1   -2.458688758332966E-1
 6.529871617400000E9     5.430431291740064E-1   -1.333801459628665E-1   -2.055827620345761E-2   -4.744706816824594E-2   -2.158032739822167E-2   -4.700374934837237E-2    4.522415864815132E-1   -2.470611813911158E-1
 6.529882109200000E9     5.430271667250215E-1   -1.343471001064962E-1   -2.080465730247959E-2   -4.759981552024915E-2   -2.180448599468057E-2   -4.719714332241745E-2    4.515965099979625E-1   -2.483940195469259E-1
 6.529892601000000E9     5.424306789233031E-1   -1.352468764202630E-1   -2.113920666222328E-2   -4.813060057467753E-2   -2.213585770738358E-2   -4.762390276121719E-2    4.505161529189311E-1   -2.495389545586681E-1
 6.529903092800000E9     5.422843528604125E-1   -1.362893404074071E-1   -2.119042954461392E-2   -4.844041330727949E-2   -2.246368544733137E-2   -4.802021965280949E-2    4.499201296467507E-1   -2.508026630497913E-1
 6.529913584600000E9     5.418806975519284E-1   -1.371862734765786E-1   -2.161387535896251E-2   -4.874374141654755E-2   -2.276219699811948E-2   -4.820792227774264E-2    4.490292049256215E-1   -2.519936960121341E-1
 6.529924076400000E9     5.416482974343099E-1   -1.381234059106642E-1   -2.196349854788187E-2   -4.897814578544910E-2   -2.308456601864736E-2   -4.866765813145115E-2    4.481147253047412E-1   -2.530734742489864E-1
 6.529934568200000E9     5.412022947247078E-1   -1.391201514709725E-1   -2.224326766497411E-2   -4.937736636287592E-2   -2.345433067498387E-2   -4.892018338159863E-2    4.473222812147000E-1   -2.544182103918129E-1
 6.529945060000000E9     5.409496020560287E-1   -1.401728285058341E-1   -2.271641190942105E-2   -4.971292234025489E-2   -2.390255383509196E-2   -4.931288868976999E-2    4.463346560278217E-1   -2.555677681017622E-1
