#  HZ   S   RI   R     50.00 
! Rohde & Schwarz Vector Network Analyzer 
! Rohde-Schwarz,ZNB20-2Port,1311601062101988,3.16
! Created: UTC 3/21/2024, 1:11:05 AM
! freq[Hz]                re:S11                  im:S11                  re:S21                  im:S21                  re:S12                  im:S12                  re:S22                  im:S22
 6.529004152000000E9     5.576363953027462E-1   -6.042210534002894E-2   -7.131323112621976E-3   -2.996435811906678E-2   -7.685652293981814E-3   -2.974999513431038E-2    4.940090657884934E-1   -1.639693646960387E-1
 6.529014649300000E9     5.575005300964077E-1   -6.118845370669546E-2   -7.115756411123446E-3   -2.998732813768623E-2   -7.644338278472147E-3   -2.991907321626973E-2    4.937128884582448E-1   -1.648986347726191E-1
 6.529025146600000E9     5.576014492266145E-1   -6.215002400776453E-2   -7.146906734551190E-3   -3.010009101365910E-2   -7.769296987769263E-3   -2.997806547441334E-2    4.932909890262698E-1   -1.657035022104370E-1
 6.529035643900000E9     5.574379250524484E-1   -6.305365122110274E-2   -7.315774484489120E-3   -3.012339860080308E-2   -7.819674104792220E-3   -3.018212423081946E-2    4.929310810253955E-1   -1.664927656454383E-1
 6.529046141200000E9     5.572651429338464E-1   -6.376616591173571E-2   -7.380317237531841E-3   -3.039916584563440E-2   -8.056707596567745E-3   -3.027220106986260E-2    4.926021400076784E-1   -1.674644990872781E-1
 6.529056638500000E9     5.572634835583360E-1   -6.458730279837629E-2   -7.569534292930643E-3   -3.048553329619075E-2   -8.074558757130130E-3   -3.035240919218317E-2    4.923327468015988E-1   -1.683268195049719E-1
 6.529067135800000E9     5.571357431260769E-1   -6.550982072768061E-2   -7.545449285679844E-3   -3.061363813231920E-2   -8.170386151412480E-3   -3.057573896925338E-2    4.919983990717513E-1   -1.692544731509002E-1
 6.529077633100000E9     5.570104303273095E-1   -6.630432217835711E-2   -7.692811450102493E-3   -3.078727035267109E-2   -8.277261550846798E-3   -3.073856485171099E-2    4.915965864686986E-1   -1.701944222306868E-1
 6.529088130400000E9     5.568406032076015E-1   -6.715782961899969E-2   -7.743991548105332E-3   -3.094203469864172E-2   -8.405002072512635E-3   -3.083191924860084E-2    4.911642263825518E-1   -1.709822614970929E-1
 6.529098627700000E9     5.569045709021668E-1   -6.785356995454682E-2   -7.862011470045975E-3   -3.103565707115031E-2   -8.429394580601893E-3   -3.100663105698537E-2    4.908632541227978E-1   -1.719782358500975E-1
 6.529109125000000E9     5.566998465859890E-1   -6.896453093229066E-2   -7.893317156330727E-3   -3.124547503349406E-2   -8.616447483734607E-3   -3.123193642608707E-2    4.904763524048427E-1   -1.726878740789390E-1
 6.529119622300000E9     5.565615324483448E-1   -6.966927440095853E-2   -7.976110531415663E-3   -3.141034259913136E-2   -8.685518082505658E-3   -3.133588260137153E-2    4.902554505156442E-1   -1.736809443388679E-1
 6.529130119600000E9     5.564234239336568E-1   -7.059036170328117E-2   -8.072715470751642E-3   -3.154690087343452E-2   -8.774547005133408E-3   -3.147015591597091E-2    4.897896540126283E-1   -1.745834399549212E-1
 6.529140616900000E9     5.564433965958189E-1   -7.145916761453677E-2   -8.121967893368219E-3   -3.170736052944977E-2   -8.807229404077417E-3   -3.153781615640032E-2    4.894229862588476E-1   -1.755718086973857E-1
 6.529151114200000E9     5.563264448837579E-1   -7.227108145099151E-2   -8.302797022209343E-3   -3.171275036363242E-2   -8.988463128994437E-3   -3.169603395567691E-2    4.889776166004591E-1   -1.764984795531171E-1
 6.529161611500000E9     5.561155297146754E-1   -7.308306782952449E-2   -8.398581858605220E-3   -3.197133800995008E-2   -9.051674356724644E-3   -3.181909941897292E-2    4.887071822444243E-1   -1.773205676756028E-1
 6.529172108800000E9     5.560427289015055E-1   -7.384283917052401E-2   -8.676229239131601E-3   -3.218152489115379E-2   -9.126823926198261E-3   -3.205470447608008E-2    4.884719043251572E-1   -1.783094126465390E-1
 6.529182606100000E9     5.558689443130789E-1   -7.479779122193571E-2   -8.580520980650980E-3   -3.228980196955011E-2   -9.338049866676594E-3   -3.225111387301491E-2    4.879993757802696E-1   -1.790395830097829E-1
 6.529193103400000E9     5.558046574354121E-1   -7.555514357904813E-2   -8.777138665873267E-3   -3.250119141769178E-2   -9.469000918635890E-3   -3.238349013565840E-2    4.876613429361071E-1   -1.802342849838252E-1
 6.529203600700000E9     5.556566883782801E-1   -7.653814511374697E-2   -8.810091554586801E-3   -3.247920409342810E-2   -9.546245137535030E-3   -3.243164924471616E-2    4.869946125719259E-1   -1.811201879672028E-1
 6.529214098000000E9     5.555702962314246E-1   -7.736095654115045E-2   -9.014057492197263E-3   -3.270209289274928E-2   -9.615609518496649E-3   -3.265999885989898E-2    4.869821158169754E-1   -1.819285264703382E-1
 6.529224595300000E9     5.554361876427842E-1   -7.820625167738916E-2   -8.957350569758368E-3   -3.287314996667763E-2   -9.793413150289317E-3   -3.281138489768018E-2    4.865324615179255E-1   -1.829263302107448E-1
 6.529235092600000E9     5.553122123860955E-1   -7.894647128283676E-2   -9.216803332625588E-3   -3.310576360031861E-2   -9.856151355040026E-3   -3.298847913112329E-2    4.859947822502310E-1   -1.839471676349923E-1
 6.529245589900000E9     5.552216235975952E-1   -7.985979621929674E-2   -9.418748094807512E-3   -3.325213984432567E-2   -1.002421790567091E-2   -3.316517979769129E-2    4.855521034810626E-1   -1.849208853014778E-1
 6.529256087200000E9     5.550395057563945E-1   -8.081572633195348E-2   -9.468877655150415E-3   -3.347083495313326E-2   -1.011932446627511E-2   -3.332963915986047E-2    4.853121812322785E-1   -1.856680268716214E-1
 6.529266584500000E9     5.548071975431670E-1   -8.152966605007854E-2   -9.438944801725285E-3   -3.369805386069908E-2   -1.025745796011423E-2   -3.347257767997804E-2    4.848654747864367E-1   -1.865792591058222E-1
 6.529277081800000E9     5.547382011934225E-1   -8.250068789720988E-2   -9.677965613581514E-3   -3.378093375160775E-2   -1.032708827952204E-2   -3.352800909344585E-2    4.844749754016868E-1   -1.876143656256764E-1
 6.529287579100000E9     5.545278144636124E-1   -8.336192476729513E-2   -9.852139212549965E-3   -3.393725174945218E-2   -1.045593287825410E-2   -3.377446835738753E-2    4.839701552619352E-1   -1.884227171602740E-1
 6.529298076400000E9     5.545440785761724E-1   -8.416534994563134E-2   -9.787214105665720E-3   -3.393501437305523E-2   -1.061152750403832E-2   -3.405224083889719E-2    4.836794128131283E-1   -1.895501972857609E-1
 6.529308573700000E9     5.543479748592317E-1   -8.508641328110168E-2   -1.005805419952450E-2   -3.435704583626655E-2   -1.076638717156779E-2   -3.416457498556201E-2    4.833855009758848E-1   -1.905015862738830E-1
 6.529319071000000E9     5.542137671164884E-1   -8.587977245284230E-2   -1.019231128400422E-2   -3.442138780894763E-2   -1.088140827745380E-2   -3.430410098388931E-2    4.826340595934296E-1   -1.914825982284468E-1
 6.529329568300000E9     5.541091157056187E-1   -8.681936978590178E-2   -1.031546659699188E-2   -3.474684138190665E-2   -1.106360259410697E-2   -3.445122240807780E-2    4.823215998579777E-1   -1.925033664294086E-1
 6.529340065600000E9     5.538451508225144E-1   -8.761620628002242E-2   -1.052782575062537E-2   -3.483599691780432E-2   -1.119781207792658E-2   -3.468805919626754E-2    4.820366756658735E-1   -1.932779458213129E-1
 6.529350562900000E9     5.537174581234903E-1   -8.843609847847983E-2   -1.061084780207579E-2   -3.500605345666568E-2   -1.123529492115342E-2   -3.485335014289490E-2    4.813955191809942E-1   -1.943610301136738E-1
 6.529361060200000E9     5.536337568726957E-1   -8.937580742641635E-2   -1.068162582606190E-2   -3.517386827219780E-2   -1.132959846201812E-2   -3.504170757791852E-2    4.811259078260207E-1   -1.954898430488737E-1
 6.529371557500000E9     5.534213295189828E-1   -9.017400482106425E-2   -1.085099313110647E-2   -3.522642360731872E-2   -1.162050640121100E-2   -3.508418380047244E-2    4.804790070383906E-1   -1.960538983446828E-1
 6.529382054800000E9     5.533063891901873E-1   -9.104900326235103E-2   -1.097307901229945E-2   -3.549189448020358E-2   -1.179714896239063E-2   -3.541102848616784E-2    4.802295659112212E-1   -1.972346247057784E-1
 6.529392552100000E9     5.531025462154034E-1   -9.194746961350402E-2   -1.113758303727820E-2   -3.565172267972349E-2   -1.184644386689259E-2   -3.559849297596330E-2    4.796756307434252E-1   -1.981235483299799E-1
 6.529403049400000E9     5.528922131578405E-1   -9.291537901504576E-2   -1.125818557797481E-2   -3.592431073361660E-2   -1.205009150393289E-2   -3.575225180182513E-2    4.793164029793855E-1   -1.991933731216693E-1
 6.529413546700000E9     5.527410298333363E-1   -9.361624846739637E-2   -1.145560068967118E-2   -3.615955895219509E-2   -1.212585061484732E-2   -3.590805774172747E-2    4.787782955639519E-1   -2.001562180115257E-1
 6.529424044000000E9     5.526645548369157E-1   -9.468067829216696E-2   -1.141916227237968E-2   -3.621443053062263E-2   -1.224457335301110E-2   -3.613870823688865E-2    4.784113104573435E-1   -2.010937560877509E-1
 6.529434541300000E9     5.524190890171572E-1   -9.537733949963013E-2   -1.162913583968893E-2   -3.667450799711595E-2   -1.246010163511114E-2   -3.630529358096293E-2    4.777777101004256E-1   -2.021320080626227E-1
 6.529445038600000E9     5.522785773758626E-1   -9.635572895650873E-2   -1.185464961382377E-2   -3.670427692970011E-2   -1.250624087853680E-2   -3.654166702215081E-2    4.772374935564389E-1   -2.029081175284307E-1
 6.529455535900000E9     5.521119602298010E-1   -9.706447169917093E-2   -1.194938441266086E-2   -3.695647781851494E-2   -1.264200540212516E-2   -3.673770853699250E-2    4.767852193615590E-1   -2.040267779355121E-1
 6.529466033200000E9     5.519683712079393E-1   -9.804824706920362E-2   -1.215399002763153E-2   -3.704275389830174E-2   -1.290075363314781E-2   -3.689100835496920E-2    4.765351609036754E-1   -2.051304030109817E-1
 6.529476530500000E9     5.517368066370198E-1   -9.890081585599451E-2   -1.228220957738831E-2   -3.723841682122140E-2   -1.296029409867771E-2   -3.713508815661513E-2    4.757908056283774E-1   -2.061605269732443E-1
 6.529487027800000E9     5.516346938457569E-1   -9.972951067819533E-2   -1.239036864011504E-2   -3.748869123690859E-2   -1.314955442451618E-2   -3.726453585658156E-2    4.755233674180676E-1   -2.070600412643388E-1
 6.529497525100000E9     5.513838544746713E-1   -1.006463157341593E-1   -1.253978529497377E-2   -3.777315726533972E-2   -1.328863396410463E-2   -3.756140714516097E-2    4.748522315989001E-1   -2.080752975710273E-1
 6.529508022400000E9     5.510871062998089E-1   -1.015021821288593E-1   -1.277119624934615E-2   -3.803987798937612E-2   -1.351647704841620E-2   -3.771622246799745E-2    4.743927168298199E-1   -2.091603295414739E-1
 6.529518519700000E9     5.511330441095836E-1   -1.025120729066857E-1   -1.289023439795395E-2   -3.820370995046767E-2   -1.374208073388544E-2   -3.787169642754814E-2    4.738705860897768E-1   -2.099177102167743E-1
 6.529529017000000E9     5.508761613499412E-1   -1.034874284491802E-1   -1.302027068909577E-2   -3.837936212181006E-2   -1.390173147624916E-2   -3.813776426178116E-2    4.734941462674541E-1   -2.111437299284998E-1
 6.529539514300000E9     5.507631319672364E-1   -1.041795658852478E-1   -1.324180215305728E-2   -3.858626809355600E-2   -1.409626513183065E-2   -3.843843874978681E-2    4.728245192486964E-1   -2.119617845159378E-1
 6.529550011600000E9     5.504679716143961E-1   -1.050765531404029E-1   -1.336841968526447E-2   -3.878997532631915E-2   -1.425598677413005E-2   -3.855184804956641E-2    4.723811183809102E-1   -2.131244796453217E-1
 6.529560508900000E9     5.502228773778143E-1   -1.059694690148492E-1   -1.365481386719315E-2   -3.920215227751719E-2   -1.439030945019714E-2   -3.892133433361872E-2    4.717777108393763E-1   -2.141343334095322E-1
 6.529571006200000E9     5.501797401761618E-1   -1.069246553734234E-1   -1.365818989509829E-2   -3.927231119824402E-2   -1.459944351421202E-2   -3.897221539223914E-2    4.712295371666135E-1   -2.152220591748367E-1
 6.529581503500000E9     5.498329184942360E-1   -1.077293711910656E-1   -1.401120862766651E-2   -3.951960635596708E-2   -1.473938678373967E-2   -3.926613665537883E-2    4.706795501247576E-1   -2.162116238722365E-1
 6.529592000800000E9     5.496941898580756E-1   -1.087405949875488E-1   -1.406083525464850E-2   -3.972423783735633E-2   -1.498410141286024E-2   -3.958007173427688E-2    4.700846786184367E-1   -2.173962943803336E-1
 6.529602498100000E9     5.494138546024958E-1   -1.095796921850023E-1   -1.423319555001959E-2   -4.005457351887850E-2   -1.509408572775464E-2   -3.963108010777053E-2    4.694577546424232E-1   -2.184431396050008E-1
 6.529612995400000E9     5.492815614028251E-1   -1.104696799998623E-1   -1.452103966009742E-2   -4.026880766777903E-2   -1.531678439949451E-2   -3.999394566535408E-2    4.691050241700301E-1   -2.193208585394375E-1
 6.529623492700000E9     5.490874307758833E-1   -1.113143849164897E-1   -1.475273952089739E-2   -4.046605476346005E-2   -1.567965018341016E-2   -4.021888441576456E-2    4.684671766891879E-1   -2.203534440400811E-1
 6.529633990000000E9     5.489080293838979E-1   -1.122520767308233E-1   -1.482408045186654E-2   -4.076312158920736E-2   -1.571796725914645E-2   -4.051607303074119E-2    4.678966039687317E-1   -2.215810144310138E-1
 6.529644487300000E9     5.487186025414585E-1   -1.132433022263043E-1   -1.507465425093100E-2   -4.085916671856248E-2   -1.595234305139411E-2   -4.075674996491712E-2    4.671912702279072E-1   -2.225964959237201E-1
 6.529654984600000E9     5.484692264393924E-1   -1.141916598324625E-1   -1.522453964818776E-2   -4.118442356463059E-2   -1.632257275334471E-2   -4.091668207424720E-2    4.666614370028737E-1   -2.237002739722896E-1
 6.529665481900000E9     5.482093746095097E-1   -1.150164822814206E-1   -1.553642700958678E-2   -4.152133460173194E-2   -1.636128408355526E-2   -4.120779380772804E-2    4.661500786436584E-1   -2.247051639105953E-1
 6.529675979200000E9     5.478855237936999E-1   -1.159013154830475E-1   -1.574460801635535E-2   -4.164242604174356E-2   -1.645801561016357E-2   -4.143344357596165E-2    4.654690935187086E-1   -2.257822173210544E-1
 6.529686476500000E9     5.477669675609176E-1   -1.167955698771264E-1   -1.583281460923975E-2   -4.205545117815752E-2   -1.671290113071476E-2   -4.171251155738628E-2    4.648463771630911E-1   -2.268046488949779E-1
 6.529696973800000E9     5.474912970345041E-1   -1.177020194442509E-1   -1.608694603913158E-2   -4.215944350336213E-2   -1.702096886635266E-2   -4.193856163216239E-2    4.641982437781304E-1   -2.279463752847236E-1
 6.529707471100000E9     5.472583669964123E-1   -1.185988704767802E-1   -1.630109666690482E-2   -4.247809799024435E-2   -1.732281284492799E-2   -4.223935010150454E-2    4.635178640307583E-1   -2.291221592195101E-1
 6.529717968400000E9     5.470501308519408E-1   -1.194465316200978E-1   -1.657413914431519E-2   -4.263708447714821E-2   -1.755449721151464E-2   -4.250459161023278E-2    4.628373644900622E-1   -2.301897879497160E-1
 6.529728465700000E9     5.467357516413417E-1   -1.205109882848927E-1   -1.667364955742790E-2   -4.311063124622248E-2   -1.773242007467161E-2   -4.268002856239417E-2    4.621946804980545E-1   -2.310465820195127E-1
 6.529738963000000E9     5.466098880026974E-1   -1.213034943472832E-1   -1.702980085358902E-2   -4.331460858661990E-2   -1.795960005024345E-2   -4.306406279107532E-2    4.616802555078253E-1   -2.323073595800330E-1
 6.529749460300000E9     5.463127432341673E-1   -1.222720636658975E-1   -1.719019320123081E-2   -4.354884203524596E-2   -1.822358817165948E-2   -4.336094448811749E-2    4.610033785655263E-1   -2.334934166177024E-1
 6.529759957600000E9     5.460199432806178E-1   -1.233500549549084E-1   -1.752226244209300E-2   -4.400395753085559E-2   -1.843084960171128E-2   -4.352902369103231E-2    4.601741477689527E-1   -2.346147050860783E-1
 6.529770454900000E9     5.457418211334017E-1   -1.240805243149543E-1   -1.776963971067987E-2   -4.408581592066184E-2   -1.862408087553350E-2   -4.383134789494220E-2    4.595643712662958E-1   -2.357436833185660E-1
 6.529780952200000E9     5.455348394333851E-1   -1.250816961952367E-1   -1.801558630747612E-2   -4.453915135941799E-2   -1.894691714519003E-2   -4.419538147817639E-2    4.587871953880737E-1   -2.367241289473222E-1
 6.529791449500000E9     5.453336581202798E-1   -1.259524539094542E-1   -1.819270041369870E-2   -4.483431756748228E-2   -1.924628135998750E-2   -4.440265740883501E-2    4.580682069861738E-1   -2.378553341124090E-1
 6.529801946800000E9     5.450171764843520E-1   -1.269899922489529E-1   -1.826764441542010E-2   -4.510437656886622E-2   -1.955223277137161E-2   -4.479672340530690E-2    4.575148359137326E-1   -2.390986055939968E-1
 6.529812444100000E9     5.447281783853392E-1   -1.278683143037922E-1   -1.868261123349755E-2   -4.534296016163099E-2   -1.974777094445034E-2   -4.500835775191109E-2    4.567148856383666E-1   -2.403154983922521E-1
 6.529822941400000E9     5.444086453183187E-1   -1.287370199867130E-1   -1.910980602252694E-2   -4.564010188185583E-2   -2.004994183654013E-2   -4.530178080856142E-2    4.559851900888373E-1   -2.413505098220939E-1
 6.529833438700000E9     5.442785218056252E-1   -1.298881517423065E-1   -1.911425558866502E-2   -4.611513150827738E-2   -2.023981068158280E-2   -4.571344689179396E-2    4.553488261212976E-1   -2.425731373610108E-1
 6.529843936000000E9     5.439109580044477E-1   -1.306782305361864E-1   -1.954181987821766E-2   -4.642972527875968E-2   -2.058415474533511E-2   -4.595917713927691E-2    4.543976326659663E-1   -2.437339986237387E-1
 6.529854433300000E9     5.437056097520847E-1   -1.317339795241359E-1   -1.995773152094343E-2   -4.667571636076200E-2   -2.082075055922162E-2   -4.628485940173213E-2    4.536815299073827E-1   -2.447054373072162E-1
 6.529864930600000E9     5.433883239959175E-1   -1.326585389275005E-1   -2.002314669799879E-2   -4.694725309574577E-2   -2.116427514091129E-2   -4.662107408304282E-2    4.529055242428148E-1   -2.461115753635050E-1
 6.529875427900000E9     5.430005657901936E-1   -1.335521505683379E-1   -2.042138096738841E-2   -4.726085521152051E-2   -2.149006931880811E-2   -4.686798214059702E-2    4.520309890873501E-1   -2.472009639745838E-1
 6.529885925200000E9     5.427247371526654E-1   -1.345617509913444E-1   -2.062019070207026E-2   -4.775774765164228E-2   -2.181794491766909E-2   -4.725289257481510E-2    4.513126081856090E-1   -2.486539869664651E-1
 6.529896422500000E9     5.425558928177563E-1   -1.355286255128192E-1   -2.102065229686355E-2   -4.805596831730961E-2   -2.220569279653642E-2   -4.756825471262958E-2    4.504503968681429E-1   -2.498004357659631E-1
 6.529906919800000E9     5.421050213211287E-1   -1.364064326112717E-1   -2.139603094014655E-2   -4.842388416647150E-2   -2.237041909773927E-2   -4.796852260653663E-2    4.496196730949538E-1   -2.508581073808862E-1
 6.529917417100000E9     5.418959174521899E-1   -1.374148048686322E-1   -2.155701291956984E-2   -4.853066057575082E-2   -2.275891243958313E-2   -4.821281984662283E-2    4.486377434207522E-1   -2.522905003916143E-1
 6.529927914400000E9     5.415749592456054E-1   -1.383520786912920E-1   -2.202162332260122E-2   -4.898659097139779E-2   -2.308643559494959E-2   -4.859707296737561E-2    4.478837123370767E-1   -2.534450003244113E-1
 6.529938411700000E9     5.411753501479381E-1   -1.393628403685467E-1   -2.224467809392413E-2   -4.940796538120944E-2   -2.347149711398751E-2   -4.889635130756800E-2    4.471474336687603E-1   -2.545010983387800E-1
 6.529948909000000E9     5.410306209540763E-1   -1.402862438308168E-1   -2.261078153700965E-2   -4.965533171055109E-2   -2.373643381558122E-2   -4.927742836935534E-2    4.461617717739304E-1   -2.559891758790661E-1
