#  HZ   S   RI   R     50.00 
! Rohde & Schwarz Vector Network Analyzer 
! Rohde-Schwarz,ZNB20-2Port,1311601062101988,3.16
! Created: UTC 3/21/2024, 1:11:07 AM
! freq[Hz]                re:S11                  im:S11                  re:S21                  im:S21                  re:S12                  im:S12                  re:S22                  im:S22
 6.529008304000000E9     5.576673455783914E-1   -6.079230320148014E-2   -7.049919151537976E-3   -2.984102394426943E-2   -7.664258969122246E-3   -2.977130797024269E-2    4.937309374691851E-1   -1.642369345473578E-1
 6.529018787475000E9     5.575951966031245E-1   -6.156542292954299E-2   -7.154426292189570E-3   -2.992969453127830E-2   -7.660609689011962E-3   -2.991574185520073E-2    4.933836427187189E-1   -1.649659927467235E-1
 6.529029270950000E9     5.575186762721982E-1   -6.236550387052946E-2   -7.180914047773781E-3   -3.017179970038648E-2   -7.839311816877081E-3   -3.007857213148429E-2    4.931406875574268E-1   -1.658826901766925E-1
 6.529039754425000E9     5.574152039948184E-1   -6.328111172167425E-2   -7.233330769683592E-3   -3.032653795235091E-2   -7.912905828350901E-3   -3.011821824240180E-2    4.928227176600410E-1   -1.668066243417978E-1
 6.529050237900000E9     5.573439817914729E-1   -6.407219028517817E-2   -7.396892151050285E-3   -3.051798979524196E-2   -7.944642193286493E-3   -3.032328165081519E-2    4.923978936545770E-1   -1.678571052277294E-1
 6.529060721375000E9     5.571573974565359E-1   -6.494085787704541E-2   -7.537028326783876E-3   -3.046694095713524E-2   -8.106117315036484E-3   -3.053688165346634E-2    4.921984142172418E-1   -1.686632268613104E-1
 6.529071204850000E9     5.570263354012370E-1   -6.573632276943828E-2   -7.575345433406207E-3   -3.063220909223014E-2   -8.216267291340045E-3   -3.057112269853610E-2    4.917684762738689E-1   -1.696722257368905E-1
 6.529081688325000E9     5.570422316321378E-1   -6.657912576254552E-2   -7.682692984667398E-3   -3.078824413412086E-2   -8.305780006267863E-3   -3.076365101196010E-2    4.914595979311088E-1   -1.705171421606429E-1
 6.529092171800000E9     5.568817319867829E-1   -6.748005171745267E-2   -7.729586437501635E-3   -3.098808710700821E-2   -8.394755960261043E-3   -3.092909138946624E-2    4.910276201392773E-1   -1.713071867096118E-1
 6.529102655275000E9     5.568444831500580E-1   -6.824803081593973E-2   -7.966145781992128E-3   -3.116978406030371E-2   -8.566098638199208E-3   -3.100741429596973E-2    4.907008754263743E-1   -1.723603195087505E-1
 6.529113138750000E9     5.566942330075072E-1   -6.918504496521158E-2   -7.829574062429696E-3   -3.134977623036535E-2   -8.651533968908286E-3   -3.115941862322882E-2    4.904288316274504E-1   -1.731482736854395E-1
 6.529123622225000E9     5.565904312552340E-1   -7.002094901826193E-2   -7.999960563439682E-3   -3.136284771253491E-2   -8.694562079697866E-3   -3.133541193249360E-2    4.899614713428708E-1   -1.739996091445291E-1
 6.529134105700000E9     5.563533458036474E-1   -7.072051092154547E-2   -8.077449175187379E-3   -3.159690246527255E-2   -8.790976914730356E-3   -3.158619716500467E-2    4.896401512921557E-1   -1.749871122791244E-1
 6.529144589175000E9     5.563398159713826E-1   -7.171857989412546E-2   -8.211054714676558E-3   -3.167794116438111E-2   -9.053705806972534E-3   -3.156400696899576E-2    4.890920787086903E-1   -1.759784370245384E-1
 6.529155072650000E9     5.562477833464560E-1   -7.253746586266603E-2   -8.535174391927337E-3   -3.180825836845212E-2   -9.071557444454726E-3   -3.172065258439916E-2    4.891279221831470E-1   -1.767351033000374E-1
 6.529165556125000E9     5.561597624000617E-1   -7.335430565378891E-2   -8.476097979231122E-3   -3.202082254715993E-2   -9.214963882656118E-3   -3.193339782681402E-2    4.884875582685190E-1   -1.777674841559024E-1
 6.529176039600000E9     5.559561542161100E-1   -7.416887263867705E-2   -8.573928134711986E-3   -3.219102640735552E-2   -9.243785476254885E-3   -3.203089277620262E-2    4.882377319408465E-1   -1.786349947691661E-1
 6.529186523075000E9     5.558688859283439E-1   -7.501797321696269E-2   -8.637564362780424E-3   -3.226527696466672E-2   -9.329147751177581E-3   -3.222271121878815E-2    4.878444945103139E-1   -1.794992976762542E-1
 6.529197006550000E9     5.557888354738274E-1   -7.586355040145493E-2   -8.847628381092317E-3   -3.253588055972031E-2   -9.326589388982474E-3   -3.240687972252197E-2    4.874242166997032E-1   -1.803415004216588E-1
 6.529207490025000E9     5.556272374504466E-1   -7.669390956895734E-2   -8.867230193871933E-3   -3.273508846869996E-2   -9.574107367590972E-3   -3.251432326240365E-2    4.871465756698785E-1   -1.813577460858962E-1
 6.529217973500000E9     5.555076493428222E-1   -7.764928277391565E-2   -8.936023434408309E-3   -3.267042320579913E-2   -9.677350657012375E-3   -3.266401771937485E-2    4.865628886562507E-1   -1.824250371777904E-1
 6.529228456975000E9     5.553209885998664E-1   -7.851273636448509E-2   -9.192773193188043E-3   -3.297402302248743E-2   -9.798299687692618E-3   -3.290969638546085E-2    4.864458269840258E-1   -1.832621576452039E-1
 6.529238940450000E9     5.552042539782910E-1   -7.926756256826638E-2   -9.195919814628455E-3   -3.316737915526000E-2   -9.896255659642132E-3   -3.299884510655665E-2    4.857290306040901E-1   -1.841776581662229E-1
 6.529249423925000E9     5.549648479475158E-1   -8.009905163087173E-2   -9.398635366500251E-3   -3.332801749603320E-2   -1.005871508230077E-2   -3.314280257612087E-2    4.854301096054065E-1   -1.850468051514212E-1
 6.529259907400000E9     5.548768854935673E-1   -8.111173342614018E-2   -9.440580540587235E-3   -3.346757698747321E-2   -1.018896724680688E-2   -3.338000632461313E-2    4.851495701286452E-1   -1.860352933406813E-1
 6.529270390875000E9     5.547841758753743E-1   -8.186878180775560E-2   -9.537844252570590E-3   -3.355547113783287E-2   -1.025105518857340E-2   -3.348206744183608E-2    4.848471632635655E-1   -1.870068643434925E-1
 6.529280874350000E9     5.548034548804337E-1   -8.271894347103941E-2   -9.745633587987147E-3   -3.400807350170824E-2   -1.043079753043380E-2   -3.369246513957462E-2    4.844081212671219E-1   -1.879632516318678E-1
 6.529291357825000E9     5.545435592861273E-1   -8.350445118268611E-2   -9.910215818489823E-3   -3.395506538207429E-2   -1.055470745808670E-2   -3.380690411600722E-2    4.838497111868687E-1   -1.888279273556231E-1
 6.529301841300000E9     5.544828372278501E-1   -8.448234243822669E-2   -9.918456668963425E-3   -3.421590478780908E-2   -1.063321770135696E-2   -3.395427088400660E-2    4.834361786743871E-1   -1.896479263958781E-1
 6.529312324775000E9     5.543227121691120E-1   -8.522382178919788E-2   -1.015399897452792E-2   -3.426285727914579E-2   -1.079106985715875E-2   -3.421402636381827E-2    4.830952837881494E-1   -1.907690034775725E-1
 6.529322808250000E9     5.541094208918921E-1   -8.609580511218054E-2   -1.021302950908298E-2   -3.455666718707639E-2   -1.092478973665399E-2   -3.436701797044173E-2    4.827204961165807E-1   -1.918029746123893E-1
 6.529333291725000E9     5.540666846730781E-1   -8.707019922087261E-2   -1.037036372165454E-2   -3.465404424149911E-2   -1.105582284898465E-2   -3.452451462887485E-2    4.823527000709020E-1   -1.926750096754278E-1
 6.529343775200000E9     5.538882143122100E-1   -8.780505111457751E-2   -1.036915690637856E-2   -3.463549087792701E-2   -1.123798033285369E-2   -3.465089684393397E-2    4.816481840669725E-1   -1.937007762354055E-1
 6.529354258675000E9     5.536432382760993E-1   -8.858712507794123E-2   -1.054654592519207E-2   -3.500114114218635E-2   -1.129328847190732E-2   -3.479800674789945E-2    4.814095283690722E-1   -1.945439289337773E-1
 6.529364742150000E9     5.534751570053066E-1   -8.967435982956197E-2   -1.083845567555552E-2   -3.513617802934314E-2   -1.152168090622510E-2   -3.504890984288108E-2    4.809204443490018E-1   -1.955184432890058E-1
 6.529375225625000E9     5.533494710342207E-1   -9.050739818817076E-2   -1.080482030907391E-2   -3.538893693879410E-2   -1.159201978847700E-2   -3.519207872138330E-2    4.805756780542965E-1   -1.963704052861651E-1
 6.529385709100000E9     5.532258315985545E-1   -9.140078667755350E-2   -1.103988697089508E-2   -3.556508294770208E-2   -1.180839821134299E-2   -3.537259469153764E-2    4.799472238946775E-1   -1.975409833395966E-1
 6.529396192575000E9     5.530836636700562E-1   -9.212333890159181E-2   -1.109703424862830E-2   -3.575409625954021E-2   -1.187577458285449E-2   -3.563133587817072E-2    4.795351443629056E-1   -1.984184544289880E-1
 6.529406676050000E9     5.527213796260338E-1   -9.303108433112905E-2   -1.118811864415547E-2   -3.603937673424228E-2   -1.200230190870722E-2   -3.577953726647351E-2    4.791537637609949E-1   -1.995237908544027E-1
 6.529417159525000E9     5.526875308043208E-1   -9.393167435214325E-2   -1.132300982569772E-2   -3.621469752690324E-2   -1.205527413423176E-2   -3.591447736524868E-2    4.784646313361628E-1   -2.004455434261876E-1
 6.529427643000000E9     5.526347034056520E-1   -9.489570318324787E-2   -1.145350546458930E-2   -3.640959366870947E-2   -1.237146661687306E-2   -3.615862718613279E-2    4.782238365923638E-1   -2.013099402871604E-1
 6.529438126475000E9     5.524319553159924E-1   -9.562044392947880E-2   -1.164674761312432E-2   -3.644872021476935E-2   -1.238032209075452E-2   -3.634580505360668E-2    4.777656144914932E-1   -2.023862432767507E-1
 6.529448609950000E9     5.522105889425136E-1   -9.658566195759564E-2   -1.192190623462964E-2   -3.661280282439497E-2   -1.261137490773396E-2   -3.656897104438823E-2    4.772104871270606E-1   -2.033380560538768E-1
 6.529459093425000E9     5.520564783685321E-1   -9.742479067293552E-2   -1.196881060634847E-2   -3.684935246908583E-2   -1.285328840271463E-2   -3.667401402349519E-2    4.767991329115136E-1   -2.044314852964416E-1
 6.529469576900000E9     5.518676872772937E-1   -9.829396174507611E-2   -1.210003120186818E-2   -3.722949701581968E-2   -1.295735095577929E-2   -3.680791157282009E-2    4.763411326017788E-1   -2.054328620184822E-1
 6.529480060375000E9     5.517717679337490E-1   -9.912064143939314E-2   -1.223848388111402E-2   -3.737249655009763E-2   -1.304130159104329E-2   -3.710257938812656E-2    4.757091567284865E-1   -2.063989042826828E-1
 6.529490543850000E9     5.515485992265976E-1   -1.001460570810239E-1   -1.243782813780295E-2   -3.753296107984560E-2   -1.322013143203162E-2   -3.739602022511944E-2    4.752470605783037E-1   -2.074981703552875E-1
 6.529501027325000E9     5.513697726693164E-1   -1.009324293886658E-1   -1.248486985152125E-2   -3.788440544424564E-2   -1.341492276799916E-2   -3.758779266177955E-2    4.747643664358261E-1   -2.083365607332692E-1
 6.529511510800000E9     5.511855649271005E-1   -1.018709054124692E-1   -1.266981445494695E-2   -3.801557789933425E-2   -1.355666073357042E-2   -3.782907294357306E-2    4.742849343399727E-1   -2.093950054832864E-1
 6.529521994275000E9     5.510205518423167E-1   -1.027035519518187E-1   -1.282910018302830E-2   -3.819265522417167E-2   -1.373388251757137E-2   -3.798832294495463E-2    4.736147947944633E-1   -2.102592331062982E-1
 6.529532477750000E9     5.507882468853526E-1   -1.036791556904046E-1   -1.312828316620429E-2   -3.840145380638650E-2   -1.392277975468395E-2   -3.818132737701813E-2    4.733412907370706E-1   -2.112559059921350E-1
 6.529542961225000E9     5.505670266743251E-1   -1.045071500618580E-1   -1.335315981007910E-2   -3.864355060349221E-2   -1.412773939540047E-2   -3.852341775661493E-2    4.726644526060010E-1   -2.123968012794608E-1
 6.529553444700000E9     5.504934979287301E-1   -1.052471790064930E-1   -1.333013529900157E-2   -3.881316341387821E-2   -1.428301156189867E-2   -3.864912865907161E-2    4.720980192513117E-1   -2.133796695565272E-1
 6.529563928175000E9     5.502711550843993E-1   -1.062665603830056E-1   -1.366697212225307E-2   -3.911074314137777E-2   -1.454917464658561E-2   -3.894711190450169E-2    4.715924453731048E-1   -2.144153055289360E-1
 6.529574411650000E9     5.500434699040430E-1   -1.070183853744627E-1   -1.375952824124966E-2   -3.911039655752774E-2   -1.465265345567602E-2   -3.903862376279597E-2    4.711634804298155E-1   -2.155633492151282E-1
 6.529584895125000E9     5.498073501797284E-1   -1.080346689493044E-1   -1.396739454665616E-2   -3.957281858428932E-2   -1.481274525483473E-2   -3.932482981656380E-2    4.705336440788693E-1   -2.167523240459975E-1
 6.529595378600000E9     5.495557794373503E-1   -1.088923360252135E-1   -1.417715517922812E-2   -3.990783957978178E-2   -1.504120710538243E-2   -3.951325372895487E-2    4.699497285311368E-1   -2.176374576503147E-1
 6.529605862075000E9     5.493913361194708E-1   -1.097892375168175E-1   -1.436366212014785E-2   -4.009279015701503E-2   -1.519251179018493E-2   -3.982388255110082E-2    4.694497634106763E-1   -2.184273702197076E-1
 6.529616345550000E9     5.492281699862316E-1   -1.106868452648618E-1   -1.451621357398108E-2   -4.016737650187838E-2   -1.543516661819552E-2   -3.995434030429502E-2    4.688270287703316E-1   -2.197821169981811E-1
 6.529626829025000E9     5.490197091565284E-1   -1.116729873210130E-1   -1.477550349675913E-2   -4.058079301169006E-2   -1.559899416603801E-2   -4.024066457650771E-2    4.682658986406231E-1   -2.205038161781651E-1
 6.529637312500000E9     5.487361326697738E-1   -1.125084072634836E-1   -1.486441802333314E-2   -4.082329088623902E-2   -1.583551134902947E-2   -4.055218187951111E-2    4.676982044598839E-1   -2.217477575871706E-1
 6.529647795975000E9     5.485085456444710E-1   -1.133529382685682E-1   -1.504890980438119E-2   -4.095327181422032E-2   -1.595567925603957E-2   -4.076242820287215E-2    4.670397061202425E-1   -2.228895881118013E-1
 6.529658279450000E9     5.482933715294608E-1   -1.143200271364766E-1   -1.541066698754011E-2   -4.124759323375459E-2   -1.621775042388612E-2   -4.091453208596178E-2    4.664689320597040E-1   -2.239886781776320E-1
 6.529668762925000E9     5.481773806664882E-1   -1.152580048423762E-1   -1.554968634816942E-2   -4.154557764502533E-2   -1.640413546394095E-2   -4.116412943174527E-2    4.658251865876227E-1   -2.250404657729008E-1
 6.529679246400000E9     5.479345882017789E-1   -1.161101883350970E-1   -1.562482347860837E-2   -4.171776940032326E-2   -1.671642037758136E-2   -4.146994582606583E-2    4.653384975517785E-1   -2.261791450479757E-1
 6.529689729875000E9     5.477027272680028E-1   -1.170070555272694E-1   -1.588182474857340E-2   -4.205840697834095E-2   -1.688736293944616E-2   -4.187045759754201E-2    4.646032328626067E-1   -2.271780161949483E-1
 6.529700213350000E9     5.475065797290438E-1   -1.178528947474966E-1   -1.605867775185865E-2   -4.242488067225520E-2   -1.704750178820558E-2   -4.204059105635811E-2    4.640367369623811E-1   -2.280956388229560E-1
 6.529710696825000E9     5.472110755164391E-1   -1.187722057396558E-1   -1.633866720743153E-2   -4.264017112797520E-2   -1.725526768531137E-2   -4.231648527136957E-2    4.632372908010042E-1   -2.294141795826434E-1
 6.529721180300000E9     5.469968348030250E-1   -1.197860547490657E-1   -1.641372783268763E-2   -4.285330752447162E-2   -1.751511560791845E-2   -4.260074249588875E-2    4.626819091632055E-1   -2.303953939852207E-1
 6.529731663775000E9     5.468075122188183E-1   -1.206826150882567E-1   -1.675313115201853E-2   -4.325247183471895E-2   -1.779955607670073E-2   -4.281377368674358E-2    4.621257541153943E-1   -2.315257002693935E-1
 6.529742147250000E9     5.465286886741506E-1   -1.215247243858040E-1   -1.712661603682470E-2   -4.337318603875052E-2   -1.805052194782134E-2   -4.304354298931667E-2    4.614327470815189E-1   -2.325677919950085E-1
 6.529752630725000E9     5.462470801696715E-1   -1.225066757759981E-1   -1.733482595752414E-2   -4.370914648849124E-2   -1.830805204414461E-2   -4.335527373716240E-2    4.606084424091021E-1   -2.337063376198029E-1
 6.529763114200000E9     5.460104517336681E-1   -1.234053085720581E-1   -1.746308121191029E-2   -4.406237015755930E-2   -1.853913019499516E-2   -4.359432846515319E-2    4.600581888042775E-1   -2.348153482127618E-1
 6.529773597675000E9     5.457728785691801E-1   -1.243399370754846E-1   -1.774954898051066E-2   -4.416686406548783E-2   -1.879832104189455E-2   -4.387967658330326E-2    4.594096464275692E-1   -2.358759014833390E-1
 6.529784081150000E9     5.455985403427567E-1   -1.253462704068792E-1   -1.793940017118540E-2   -4.452234012602747E-2   -1.891017258820805E-2   -4.411089797936436E-2    4.586745633424553E-1   -2.369852934819353E-1
 6.529794564625000E9     5.452808235079175E-1   -1.262845704874093E-1   -1.838823723671975E-2   -4.492273620838678E-2   -1.928845572727208E-2   -4.449851720426243E-2    4.579648496515210E-1   -2.383529499119717E-1
 6.529805048100000E9     5.449314283923450E-1   -1.271734319831756E-1   -1.843937286960920E-2   -4.523260697206503E-2   -1.951414892096819E-2   -4.477668044607053E-2    4.572032491607572E-1   -2.393973033065002E-1
 6.529815531575000E9     5.446897954077226E-1   -1.280271440725155E-1   -1.868205807047424E-2   -4.534046545704632E-2   -1.978713581985301E-2   -4.507295058339747E-2    4.565824079664285E-1   -2.405091556027570E-1
 6.529826015050000E9     5.444325754419741E-1   -1.289074584616774E-1   -1.891017103786982E-2   -4.574360315868334E-2   -2.021294029780360E-2   -4.540624402696451E-2    4.557865632128263E-1   -2.416556016216729E-1
 6.529836498525000E9     5.441675036363792E-1   -1.300035258609839E-1   -1.928658847697934E-2   -4.600308135070175E-2   -2.036092293702021E-2   -4.571423319977210E-2    4.550438777243294E-1   -2.429534339272539E-1
 6.529846982000000E9     5.438753763456261E-1   -1.309409417232887E-1   -1.960865033037295E-2   -4.637350502368481E-2   -2.068061878593455E-2   -4.597797320079716E-2    4.542282382073541E-1   -2.439702708893316E-1
 6.529857465475000E9     5.437114924058570E-1   -1.317933745540595E-1   -1.986220899515777E-2   -4.665503418100317E-2   -2.099545588256031E-2   -4.633927115674926E-2    4.534626114137166E-1   -2.451860362246998E-1
 6.529867948950000E9     5.433785421346756E-1   -1.328143021507093E-1   -2.014216331817802E-2   -4.716442498715695E-2   -2.122461399221484E-2   -4.669046887407911E-2    4.525504543437561E-1   -2.465256817378228E-1
 6.529878432425000E9     5.431116531426700E-1   -1.338161342916837E-1   -2.046962489733696E-2   -4.733779102977888E-2   -2.153480866003014E-2   -4.695810004298704E-2    4.518792592507382E-1   -2.474786353363263E-1
 6.529888915900000E9     5.425434534972353E-1   -1.346735265825208E-1   -2.078088159239384E-2   -4.765240380023453E-2   -2.194757752348334E-2   -4.733426478978987E-2    4.512119991898274E-1   -2.487358396910289E-1
 6.529899399375000E9     5.424175182875258E-1   -1.356871959455219E-1   -2.108712247043270E-2   -4.806942650497534E-2   -2.223546256381096E-2   -4.763783983062993E-2    4.503238712934007E-1   -2.499036174475226E-1
 6.529909882850000E9     5.421408406751839E-1   -1.366125773695317E-1   -2.139658644968023E-2   -4.843967643384619E-2   -2.243138346990592E-2   -4.788224671110424E-2    4.494618790421649E-1   -2.512517301496172E-1
 6.529920366325000E9     5.417571502287540E-1   -1.376263785170278E-1   -2.159472613181646E-2   -4.863215190592033E-2   -2.269377787591773E-2   -4.826388008371259E-2    4.485978141649464E-1   -2.524542815876474E-1
 6.529930849800000E9     5.414712053672601E-1   -1.386166427661902E-1   -2.215739658863293E-2   -4.914477250403337E-2   -2.312803319743371E-2   -4.866540717170618E-2    4.478180875470936E-1   -2.534965933962883E-1
 6.529941333275000E9     5.412352591883294E-1   -1.395051034878601E-1   -2.215355124161185E-2   -4.929081194019293E-2   -2.340803887245131E-2   -4.902001835104403E-2    4.468656642278497E-1   -2.547841528296518E-1
 6.529951816750000E9     5.408561250193070E-1   -1.405391179570475E-1   -2.266937932800558E-2   -4.986338946339625E-2   -2.385866904896328E-2   -4.940699007169968E-2    4.460386428364342E-1   -2.561125618524880E-1
