#  HZ   S   RI   R     50.00 
! Rohde & Schwarz Vector Network Analyzer 
! Rohde-Schwarz,ZNB20-2Port,1311601062101988,3.16
! Created: UTC 3/21/2024, 1:11:09 AM
! freq[Hz]                re:S11                  im:S11                  re:S21                  im:S21                  re:S12                  im:S12                  re:S22                  im:S22
 6.529012827000000E9     5.576858540741244E-1   -6.108705843091820E-2   -7.137662668337448E-3   -2.989132076622325E-2   -7.689820552872142E-3   -2.984190848822751E-2    4.935237844676269E-1   -1.644913819213207E-1
 6.529023296450000E9     5.574477353219333E-1   -6.184044394306552E-2   -7.277437112257689E-3   -3.004739929465207E-2   -7.685561007119453E-3   -3.001757958291540E-2    4.932380532451902E-1   -1.654940022055070E-1
 6.529033765900000E9     5.575320195679637E-1   -6.271196838974064E-2   -7.244851576593632E-3   -3.025381583060499E-2   -7.837728172710251E-3   -3.017126059559555E-2    4.928184157192049E-1   -1.662402465399177E-1
 6.529044235350000E9     5.573613065493874E-1   -6.357446410896743E-2   -7.312574033078397E-3   -3.033854712639380E-2   -7.948597513606334E-3   -3.029975678466178E-2    4.926484038742820E-1   -1.671117262255289E-1
 6.529054704800000E9     5.572587984895437E-1   -6.437253009766793E-2   -7.395466047310534E-3   -3.051052377064905E-2   -7.981256177193094E-3   -3.045101997376072E-2    4.922506181100971E-1   -1.679830269795349E-1
 6.529065174250000E9     5.571413538497678E-1   -6.513444231366947E-2   -7.516449150288590E-3   -3.051258513396799E-2   -8.129729936901727E-3   -3.057890854142282E-2    4.919450046545851E-1   -1.689410904819442E-1
 6.529075643700000E9     5.570232073820301E-1   -6.615753106057116E-2   -7.679036741290905E-3   -3.074850718541864E-2   -8.231878343231162E-3   -3.068393703913063E-2    4.914961297550152E-1   -1.699023495933253E-1
 6.529086113150000E9     5.569573323669182E-1   -6.695250906829482E-2   -7.750745874926995E-3   -3.088693939705677E-2   -8.402594100826433E-3   -3.082297074843549E-2    4.911011523263416E-1   -1.707251713437871E-1
 6.529096582600000E9     5.568087905318190E-1   -6.778468714113574E-2   -7.741257844799915E-3   -3.098256787471299E-2   -8.427090427624139E-3   -3.090474903857956E-2    4.909134961120852E-1   -1.717582487687779E-1
 6.529107052050000E9     5.568055192079171E-1   -6.853965979159106E-2   -8.014386265048825E-3   -3.113713169914395E-2   -8.499826601083978E-3   -3.098716649286002E-2    4.905500279248302E-1   -1.727114897848024E-1
 6.529117521500000E9     5.565811495192915E-1   -6.943805325840473E-2   -7.956222567144481E-3   -3.128956851321827E-2   -8.680140028874933E-3   -3.112257310589796E-2    4.902527656371013E-1   -1.734179730382232E-1
 6.529127990950000E9     5.565156216904199E-1   -7.029357601825746E-2   -7.975904828853535E-3   -3.142408468270359E-2   -8.731802893267524E-3   -3.127777855900638E-2    4.898411705889801E-1   -1.744494274294816E-1
 6.529138460400000E9     5.564428341909312E-1   -7.119647514939417E-2   -8.183837232840519E-3   -3.167706507049992E-2   -8.883418573719180E-3   -3.154117655565382E-2    4.895670788007775E-1   -1.753112433209530E-1
 6.529148929850000E9     5.563598672484503E-1   -7.196987066998342E-2   -8.321325440558821E-3   -3.176065220413413E-2   -9.005001753085603E-3   -3.173093985275216E-2    4.890884225280369E-1   -1.763099065418323E-1
 6.529159399300000E9     5.561612730694356E-1   -7.279041214638515E-2   -8.436204716479405E-3   -3.195065697927311E-2   -9.017812610042721E-3   -3.175568184504857E-2    4.888842193128041E-1   -1.771167751417622E-1
 6.529169868750000E9     5.560806340026606E-1   -7.379817848490598E-2   -8.503510503394316E-3   -3.201323346842543E-2   -9.184425950446416E-3   -3.198827661089435E-2    4.885028827329022E-1   -1.781234863507340E-1
 6.529180338200000E9     5.559011940014591E-1   -7.448704992376200E-2   -8.716821754990030E-3   -3.215885590228821E-2   -9.236448695136680E-3   -3.214117937105773E-2    4.879888966049103E-1   -1.790788889773751E-1
 6.529190807650000E9     5.557820869585914E-1   -7.539740817173474E-2   -8.638370517973636E-3   -3.232060590622424E-2   -9.361103396573580E-3   -3.224439998628238E-2    4.875826422764633E-1   -1.799091881231377E-1
 6.529201277100000E9     5.557595178681902E-1   -7.624461793838207E-2   -8.857726913988492E-3   -3.246037240833022E-2   -9.422003417585728E-3   -3.241044693449935E-2    4.873483379907990E-1   -1.808862014176136E-1
 6.529211746550000E9     5.556144826369026E-1   -7.699448899135024E-2   -8.902973527693630E-3   -3.263714362720078E-2   -9.601683190680452E-3   -3.256680389262262E-2    4.869087105511751E-1   -1.816954139192838E-1
 6.529222216000000E9     5.555611597674551E-1   -7.795389711520154E-2   -9.089144816240331E-3   -3.292862649590873E-2   -9.673036278077172E-3   -3.275271472323226E-2    4.864775341360225E-1   -1.826874769940867E-1
 6.529232685450000E9     5.553505350367346E-1   -7.868069662514199E-2   -9.127973072646706E-3   -3.306262176837817E-2   -9.802863221091307E-3   -3.278777684264898E-2    4.859505845547403E-1   -1.837320407547312E-1
 6.529243154900000E9     5.551926916491112E-1   -7.964282206945068E-2   -9.246038832049355E-3   -3.310129849680439E-2   -9.991472070811731E-3   -3.296108295652890E-2    4.857881879660424E-1   -1.845055066988327E-1
 6.529253624350000E9     5.551441730889647E-1   -8.051353268251227E-2   -9.382292685554352E-3   -3.325874796565782E-2   -9.983111982283882E-3   -3.318658097729018E-2    4.853385514044116E-1   -1.853609396400953E-1
 6.529264093800000E9     5.548833962028268E-1   -8.131778651366121E-2   -9.530799819332770E-3   -3.344177008904811E-2   -1.018298339123698E-2   -3.331809746148179E-2    4.850378701195910E-1   -1.863816586556449E-1
 6.529274563250000E9     5.547999898337981E-1   -8.214416207337590E-2   -9.532292372390430E-3   -3.375094997444569E-2   -1.030501653929094E-2   -3.354894995054192E-2    4.845414980596291E-1   -1.873101997579098E-1
 6.529285032700000E9     5.545690606468729E-1   -8.302822948908502E-2   -9.762836631762485E-3   -3.388810987134296E-2   -1.042379199349020E-2   -3.367195356862200E-2    4.841349391558381E-1   -1.881774935974020E-1
 6.529295502150000E9     5.546193110372292E-1   -8.381468039709306E-2   -9.820706390031179E-3   -3.407767836152243E-2   -1.055272386276822E-2   -3.387818751769442E-2    4.836694628214872E-1   -1.892661997989697E-1
 6.529305971600000E9     5.543601071566974E-1   -8.468985868655993E-2   -9.971974786902107E-3   -3.416270039538599E-2   -1.070728849024653E-2   -3.396977528338093E-2    4.833908493379582E-1   -1.902361634092099E-1
 6.529316441050000E9     5.542198542968749E-1   -8.544525494160539E-2   -1.009586102792439E-2   -3.439502747682817E-2   -1.080569502992566E-2   -3.420220091458718E-2    4.828892056238533E-1   -1.909976655699859E-1
 6.529326910500000E9     5.540544814222721E-1   -8.644006370304136E-2   -1.019755461716779E-2   -3.448190544281768E-2   -1.094741572033105E-2   -3.437046691705054E-2    4.823956308063440E-1   -1.920608329005382E-1
 6.529337379950000E9     5.540507863205543E-1   -8.742254552322479E-2   -1.033054097891657E-2   -3.466907694371088E-2   -1.113977130768893E-2   -3.454559528785107E-2    4.820795775381970E-1   -1.930423035191194E-1
 6.529347849400000E9     5.536979259156758E-1   -8.813900426989096E-2   -1.045057816754179E-2   -3.480367216419966E-2   -1.109825397403811E-2   -3.477706290744723E-2    4.816552491646781E-1   -1.938703605882296E-1
 6.529358318850000E9     5.535011833660370E-1   -8.889257283008775E-2   -1.058649293214142E-2   -3.494133069551198E-2   -1.135129090546550E-2   -3.480834829436358E-2    4.810248717042649E-1   -1.950589520323265E-1
 6.529368788300000E9     5.535273505559253E-1   -8.991928215981830E-2   -1.065406380074511E-2   -3.532690549189647E-2   -1.145333828428997E-2   -3.513539017274280E-2    4.808795706341777E-1   -1.957905384798859E-1
 6.529379257750000E9     5.534139284412287E-1   -9.070611091742180E-2   -1.097569165203959E-2   -3.553212711812399E-2   -1.156978588521681E-2   -3.516410721773264E-2    4.802765958850111E-1   -1.968123618791704E-1
 6.529389727200000E9     5.532498144976065E-1   -9.163874554717918E-2   -1.096763558873454E-2   -3.556058056165517E-2   -1.167385403741339E-2   -3.541590029407831E-2    4.797884835039438E-1   -1.978144564603368E-1
 6.529400196650000E9     5.529966450741483E-1   -9.240094224321894E-2   -1.114015594283395E-2   -3.578354322815522E-2   -1.196427366479021E-2   -3.564190621005799E-2    4.794076098811622E-1   -1.987500239148071E-1
 6.529410666100000E9     5.528872636149040E-1   -9.336414781036848E-2   -1.141533990247002E-2   -3.594024653905925E-2   -1.206742598233214E-2   -3.586493475712484E-2    4.789838962930147E-1   -1.998524707190385E-1
 6.529421135550000E9     5.526233245260644E-1   -9.415025157616128E-2   -1.139772659874035E-2   -3.613076632021718E-2   -1.213508796769952E-2   -3.609442176476653E-2    4.784331185984519E-1   -2.007156781475737E-1
 6.529431605000000E9     5.526788655508469E-1   -9.510683898266094E-2   -1.164531712765641E-2   -3.634000640534982E-2   -1.229986114274312E-2   -3.611041291186754E-2    4.781549330753957E-1   -2.017806216710225E-1
 6.529442074450000E9     5.523276237472314E-1   -9.605268766957124E-2   -1.176978352602135E-2   -3.648354517762911E-2   -1.252143873405437E-2   -3.636110948324546E-2    4.776232631647015E-1   -2.028141327415086E-1
 6.529452543900000E9     5.522682050938530E-1   -9.681350475502175E-2   -1.184418246425866E-2   -3.683576458271236E-2   -1.257242820256898E-2   -3.659549279124066E-2    4.770355252586273E-1   -2.037475725423600E-1
 6.529463013350000E9     5.520888094003030E-1   -9.764139400636357E-2   -1.203216379045015E-2   -3.689529458318334E-2   -1.273847676116558E-2   -3.689866152580425E-2    4.766073283779987E-1   -2.047673057502534E-1
 6.529473482800000E9     5.518066767323815E-1   -9.850764667368928E-2   -1.217369338743981E-2   -3.731918254006703E-2   -1.296723320768296E-2   -3.703681699920384E-2    4.761386648919232E-1   -2.057623233440324E-1
 6.529483952250000E9     5.516603319660088E-1   -9.937406618209862E-2   -1.236584608973437E-2   -3.736514279244577E-2   -1.320133204328897E-2   -3.720209413579336E-2    4.756122545658792E-1   -2.066568392881476E-1
 6.529494421700000E9     5.514470708744568E-1   -1.003484300936870E-1   -1.252251114541441E-2   -3.745975244187100E-2   -1.327783248759293E-2   -3.741441205028254E-2    4.751136295064703E-1   -2.075219259477913E-1
 6.529504891150000E9     5.512805078403871E-1   -1.012101712653838E-1   -1.288505259972437E-2   -3.776592692303671E-2   -1.342198242068457E-2   -3.762379816852979E-2    4.745848131859557E-1   -2.086787174999708E-1
 6.529515360600000E9     5.510866871815706E-1   -1.020895659470345E-1   -1.276675959981189E-2   -3.794411097301278E-2   -1.368269198872270E-2   -3.778249948524150E-2    4.741152267752103E-1   -2.097448291355904E-1
 6.529525830050000E9     5.509691091381308E-1   -1.030293460786773E-1   -1.283644270430324E-2   -3.828350458878491E-2   -1.381789855227811E-2   -3.802042966775374E-2    4.735601019974490E-1   -2.106827635895246E-1
 6.529536299500000E9     5.508007961320919E-1   -1.038646102507694E-1   -1.317299112324274E-2   -3.847133794746022E-2   -1.385914800130320E-2   -3.819499774309969E-2    4.730861033752018E-1   -2.117885076423906E-1
 6.529546768950000E9     5.503743909841099E-1   -1.046657587386645E-1   -1.325600490926513E-2   -3.880888346573987E-2   -1.420398338245829E-2   -3.849060276099674E-2    4.725977196041605E-1   -2.126139178884899E-1
 6.529557238400000E9     5.504590732154863E-1   -1.055984020286800E-1   -1.353295599035385E-2   -3.890469304209359E-2   -1.430167242627029E-2   -3.865201360302460E-2    4.720547457674786E-1   -2.138440018101442E-1
 6.529567707850000E9     5.502420670636495E-1   -1.064834965645000E-1   -1.367925151605532E-2   -3.917735440410632E-2   -1.444202225198823E-2   -3.894674024441463E-2    4.715988672265747E-1   -2.146908205173823E-1
 6.529578177300000E9     5.498587529857104E-1   -1.073506697418472E-1   -1.394028715516578E-2   -3.935179321007844E-2   -1.467293627986342E-2   -3.912341205758568E-2    4.709416868977447E-1   -2.157015295587959E-1
 6.529588646750000E9     5.498358675020096E-1   -1.082891910039489E-1   -1.405825010479731E-2   -3.964944458875890E-2   -1.472785301062063E-2   -3.946495494886081E-2    4.704402756110054E-1   -2.168704791341273E-1
 6.529599116200000E9     5.495956128688290E-1   -1.092752858681543E-1   -1.415678059835129E-2   -3.967172413345135E-2   -1.505027864323388E-2   -3.965898436080122E-2    4.696707965821911E-1   -2.178458392780041E-1
 6.529609585650000E9     5.493044517577010E-1   -1.101252440891772E-1   -1.446581206103015E-2   -4.007229872545332E-2   -1.532844844689953E-2   -3.987054100734920E-2    4.692541272829959E-1   -2.188443110105606E-1
 6.529620055100000E9     5.491608631521576E-1   -1.109616753608506E-1   -1.460007157241579E-2   -4.026010652841395E-2   -1.542684492717616E-2   -4.004686180650663E-2    4.686768923220803E-1   -2.199200151731830E-1
 6.529630524550000E9     5.489230515191695E-1   -1.118216502591378E-1   -1.475113306406654E-2   -4.048532537873949E-2   -1.559956185936223E-2   -4.031951882312275E-2    4.681427903492728E-1   -2.210217589824656E-1
 6.529640994000000E9     5.487515804772634E-1   -1.126821569604472E-1   -1.491279987517582E-2   -4.086692762082382E-2   -1.578810253665274E-2   -4.054082556621308E-2    4.676954208721018E-1   -2.220987236515009E-1
 6.529651463450000E9     5.486415014521046E-1   -1.136316860197151E-1   -1.510769654603992E-2   -4.112768522242610E-2   -1.597377114453997E-2   -4.084323093948000E-2    4.669544059387772E-1   -2.230887789497843E-1
 6.529661932900000E9     5.483139260202956E-1   -1.146342646305614E-1   -1.536385084996600E-2   -4.129685258156324E-2   -1.628154459165639E-2   -4.112360708301381E-2    4.663857297582664E-1   -2.242229438000558E-1
 6.529672402350000E9     5.481443538763462E-1   -1.154835938531435E-1   -1.556925959187849E-2   -4.149755832023637E-2   -1.647963141245991E-2   -4.128676756194512E-2    4.657811204198735E-1   -2.253406699429616E-1
 6.529682871800000E9     5.478714137046754E-1   -1.164034709346986E-1   -1.570781171122240E-2   -4.194716379946500E-2   -1.673209369229332E-2   -4.160059179200451E-2    4.652012128312769E-1   -2.263603864371002E-1
 6.529693341250000E9     5.475849122660464E-1   -1.172871147385006E-1   -1.597392089818268E-2   -4.208610065613693E-2   -1.685951848829162E-2   -4.182057602199293E-2    4.644194218179128E-1   -2.274559585314257E-1
 6.529703810700000E9     5.473053509491773E-1   -1.181710142274054E-1   -1.613500356729336E-2   -4.251707470217181E-2   -1.713372647709128E-2   -4.206555789287535E-2    4.637581906012112E-1   -2.284593206439736E-1
 6.529714280150000E9     5.472409281840269E-1   -1.190229456483810E-1   -1.643571816353857E-2   -4.262834276164454E-2   -1.728832324151359E-2   -4.242966849929950E-2    4.631671536271621E-1   -2.294025820228018E-1
 6.529724749600000E9     5.469547069296337E-1   -1.200311643575972E-1   -1.662413345088302E-2   -4.298264876747777E-2   -1.761359673894271E-2   -4.259356566288729E-2    4.625643441117251E-1   -2.307730254137475E-1
 6.529735219050000E9     5.467437300990704E-1   -1.209604588043159E-1   -1.683024894131352E-2   -4.313649901773777E-2   -1.780469774689093E-2   -4.278661986671040E-2    4.618999363344709E-1   -2.317901889261321E-1
 6.529745688500000E9     5.464163377028732E-1   -1.218079478959593E-1   -1.715848257595240E-2   -4.349911227264432E-2   -1.812071104699542E-2   -4.317244738833691E-2    4.614746398308379E-1   -2.330740208383573E-1
 6.529756157950000E9     5.462149868389664E-1   -1.227232032334407E-1   -1.739625614224973E-2   -4.375219199277072E-2   -1.832416590721348E-2   -4.336306320362678E-2    4.606600867898659E-1   -2.340489157856295E-1
 6.529766627400000E9     5.459105699298559E-1   -1.238179628991768E-1   -1.757744504516461E-2   -4.392388740726772E-2   -1.858586129506461E-2   -4.369819093427944E-2    4.598317317162168E-1   -2.352185064245889E-1
 6.529777096850000E9     5.457018660813823E-1   -1.245775228528397E-1   -1.775636564611408E-2   -4.418159357272657E-2   -1.867276386790887E-2   -4.395618751033995E-2    4.591837351491567E-1   -2.363210618888158E-1
 6.529787566300000E9     5.454393226885559E-1   -1.255278679508894E-1   -1.797019864880517E-2   -4.447862769511038E-2   -1.907244127304799E-2   -4.433123669676031E-2    4.585563919663783E-1   -2.374532749809229E-1
 6.529798035750000E9     5.450933489220769E-1   -1.265588009447799E-1   -1.831345081798754E-2   -4.490357738626855E-2   -1.932164368349931E-2   -4.459902443051970E-2    4.575704641747632E-1   -2.386429454508253E-1
 6.529808505200000E9     5.448070475999024E-1   -1.273800594586925E-1   -1.850016764996529E-2   -4.515175119515171E-2   -1.962455312004301E-2   -4.483655497401642E-2    4.570146508899108E-1   -2.396185268138311E-1
 6.529818974650000E9     5.447502296021201E-1   -1.284404837336003E-1   -1.884249598729419E-2   -4.548514001030670E-2   -1.989333058613902E-2   -4.521458595529052E-2    4.564164362596000E-1   -2.407593675440143E-1
 6.529829444100000E9     5.442944827751621E-1   -1.293452090324226E-1   -1.905596126619133E-2   -4.581945164772104E-2   -2.006559112038332E-2   -4.540466164903639E-2    4.557136312377407E-1   -2.419812394376199E-1
 6.529839913550000E9     5.441493893715744E-1   -1.302500120532858E-1   -1.933244451356586E-2   -4.609735387180391E-2   -2.040301350813700E-2   -4.571473165523367E-2    4.547782468672819E-1   -2.433494608334524E-1
 6.529850383000000E9     5.438960850171275E-1   -1.311803053400647E-1   -1.964662601429759E-2   -4.660455358671623E-2   -2.075609628647779E-2   -4.605648214770329E-2    4.541307455913632E-1   -2.441642042639617E-1
 6.529860852450000E9     5.434757750740589E-1   -1.321138635714642E-1   -1.997583962198404E-2   -4.678744041717988E-2   -2.098431765549690E-2   -4.641458288580339E-2    4.534045769932268E-1   -2.453941429950222E-1
 6.529871321900000E9     5.431543553199565E-1   -1.331155157723723E-1   -2.005796595658306E-2   -4.717646712104175E-2   -2.135001442592006E-2   -4.672099327980840E-2    4.525287711863615E-1   -2.467335925954925E-1
 6.529881791350000E9     5.428929045528200E-1   -1.340043288678727E-1   -2.040462078502506E-2   -4.746153967103982E-2   -2.168583659658848E-2   -4.701157284718379E-2    4.517823311724081E-1   -2.478611163973053E-1
 6.529892260800000E9     5.426239036891962E-1   -1.350065737990890E-1   -2.082887941341701E-2   -4.772529769006046E-2   -2.180026386913705E-2   -4.723220707765382E-2    4.508729737327050E-1   -2.490185018259438E-1
 6.529902730250000E9     5.423897659404902E-1   -1.360055956686191E-1   -2.106221179024930E-2   -4.798603882792114E-2   -2.226196006554107E-2   -4.768562151373438E-2    4.501910385080993E-1   -2.500825234384413E-1
 6.529913199700000E9     5.420905991755454E-1   -1.368879942777712E-1   -2.135925303657478E-2   -4.852132735080503E-2   -2.251678202827838E-2   -4.797388749245096E-2    4.493319871641399E-1   -2.514851719597577E-1
 6.529923669150000E9     5.417702723549634E-1   -1.378308287195849E-1   -2.166176902559186E-2   -4.867459557161673E-2   -2.284605674577141E-2   -4.833481446876467E-2    4.484479608717774E-1   -2.528499585390804E-1
 6.529934138600000E9     5.414315042144130E-1   -1.388312933248795E-1   -2.217503930513222E-2   -4.911996700796247E-2   -2.318303813547257E-2   -4.867397368000688E-2    4.475733075384321E-1   -2.539594458357155E-1
 6.529944608050000E9     5.412193575679843E-1   -1.398143431895726E-1   -2.235403909421081E-2   -4.951520676996357E-2   -2.361193129371013E-2   -4.907780802090497E-2    4.467059111267981E-1   -2.549654962833619E-1
 6.529955077500000E9     5.408979211800007E-1   -1.407786055629130E-1   -2.256311787454957E-2   -4.978068517001191E-2   -2.386225366978921E-2   -4.943062238568215E-2    4.456562413167887E-1   -2.563204571073518E-1
