#  HZ   S   RI   R     50.00 
! Rohde & Schwarz Vector Network Analyzer 
! Rohde-Schwarz,ZNB20-2Port,1311601062101988,3.16
! Created: UTC 3/21/2024, 1:11:19 AM
! freq[Hz]                re:S11                  im:S11                  re:S21                  im:S21                  re:S12                  im:S12                  re:S22                  im:S22
 6.529021441000000E9     5.576284414405891E-1   -6.166295637319220E-2   -7.183073139630130E-3   -2.994780610896662E-2   -7.641457173962976E-3   -2.984954314204878E-2    4.932663147030182E-1   -1.651933402021832E-1
 6.529031898100000E9     5.575154772486333E-1   -6.247965125009083E-2   -7.228269752867551E-3   -3.000536587804994E-2   -7.822862296362965E-3   -3.013462859421943E-2    4.929957526564799E-1   -1.661148044124110E-1
 6.529042355200000E9     5.573514406292103E-1   -6.331230309324096E-2   -7.354051387983129E-3   -3.010554460871477E-2   -7.906248141806640E-3   -3.012506561063942E-2    4.924537176904336E-1   -1.667396739197148E-1
 6.529052812300000E9     5.574115707381914E-1   -6.399819111311060E-2   -7.181144400957408E-3   -3.031248608821896E-2   -7.999999079228579E-3   -3.023918196665538E-2    4.920881707271806E-1   -1.678451148669922E-1
 6.529063269400000E9     5.572190025229279E-1   -6.501425715535973E-2   -7.359732495432124E-3   -3.051693435100412E-2   -8.203201600644063E-3   -3.038007201873701E-2    4.918314742427317E-1   -1.688291632928530E-1
 6.529073726500000E9     5.571630035484193E-1   -6.569093236116696E-2   -7.617477669456131E-3   -3.069837785843236E-2   -8.151382040054098E-3   -3.057029244156171E-2    4.916073438884702E-1   -1.696741967399517E-1
 6.529084183600000E9     5.569384466087509E-1   -6.660090677639895E-2   -7.630814620151086E-3   -3.084185355167927E-2   -8.377147985996664E-3   -3.070531151683969E-2    4.911492980981640E-1   -1.704275460248852E-1
 6.529094640700000E9     5.568326817617451E-1   -6.744956505130760E-2   -7.808500626969175E-3   -3.084646513275159E-2   -8.336330491628957E-3   -3.092658422650638E-2    4.909405647268518E-1   -1.714744033475060E-1
 6.529105097800000E9     5.566977938253956E-1   -6.821149313418533E-2   -7.856066060937318E-3   -3.098524794620225E-2   -8.413628079384488E-3   -3.101279948667324E-2    4.904452754131322E-1   -1.722936847528656E-1
 6.529115554900000E9     5.566586189662019E-1   -6.910756649107121E-2   -7.998973838911272E-3   -3.112508994183234E-2   -8.520589182866951E-3   -3.111636027937668E-2    4.902453689898304E-1   -1.731587301320753E-1
 6.529126012000000E9     5.566644606764806E-1   -6.995515704986653E-2   -8.069718418452115E-3   -3.127227231568709E-2   -8.757524642003349E-3   -3.126747735806409E-2    4.898451461740496E-1   -1.740213849399697E-1
 6.529136469100000E9     5.564726350247602E-1   -7.063107937213735E-2   -8.009320468869392E-3   -3.138044025785561E-2   -8.729333358130276E-3   -3.147583796091702E-2    4.895886253695046E-1   -1.749873561398931E-1
 6.529146926200000E9     5.563406454477630E-1   -7.165228322589638E-2   -8.313684755899100E-3   -3.157664389186852E-2   -8.929509256896440E-3   -3.163446100152362E-2    4.890857390833012E-1   -1.757594117687365E-1
 6.529157383300000E9     5.561679999412407E-1   -7.241879371365666E-2   -8.386872313949890E-3   -3.187221025295921E-2   -8.985524302318321E-3   -3.167811919105055E-2    4.888846198423760E-1   -1.766944398550251E-1
 6.529167840400000E9     5.560681792001556E-1   -7.337888153323863E-2   -8.527982733753527E-3   -3.202877931881271E-2   -9.040053412071198E-3   -3.175598190684229E-2    4.883089154423047E-1   -1.776810519247142E-1
 6.529178297500000E9     5.559115354471694E-1   -7.410722531431921E-2   -8.514836082820040E-3   -3.212500021285078E-2   -9.246706679373246E-3   -3.188331018838467E-2    4.881264149077700E-1   -1.787557560296891E-1
 6.529188754600000E9     5.559244335829248E-1   -7.509767702884371E-2   -8.668357594182857E-3   -3.228520176822599E-2   -9.311770373285688E-3   -3.203727622763428E-2    4.877247564640798E-1   -1.794640173285550E-1
 6.529199211700000E9     5.557407200289324E-1   -7.590521744252732E-2   -8.509017000516695E-3   -3.242783713458920E-2   -9.420018635053842E-3   -3.229306359913434E-2    4.873334022113066E-1   -1.805526838505399E-1
 6.529209668800000E9     5.556351453335087E-1   -7.664104039781294E-2   -8.705650765051235E-3   -3.253912528923122E-2   -9.563222022279414E-3   -3.241319002649363E-2    4.869189118216575E-1   -1.813139224491205E-1
 6.529220125900000E9     5.555756887745851E-1   -7.759410032329357E-2   -8.903938250633025E-3   -3.261996383244801E-2   -9.664465284390201E-3   -3.260609159367331E-2    4.864393217643796E-1   -1.823170186386331E-1
 6.529230583000000E9     5.553702224574556E-1   -7.840200122268035E-2   -9.089006759819919E-3   -3.298675130487042E-2   -9.729860310549050E-3   -3.276903827930518E-2    4.860959852289562E-1   -1.832206977615040E-1
 6.529241040100000E9     5.552344833085571E-1   -7.915533085996576E-2   -9.071779598240567E-3   -3.304074174056901E-2   -9.871488926296900E-3   -3.279463999853556E-2    4.857707813302743E-1   -1.841187133510387E-1
 6.529251497200000E9     5.551420326641485E-1   -8.007209850867415E-2   -9.232772371698761E-3   -3.319466659968723E-2   -1.002062181410786E-2   -3.304952457270762E-2    4.852390837096530E-1   -1.850321968524733E-1
 6.529261954300000E9     5.549276744193867E-1   -8.102615086004523E-2   -9.415984726735311E-3   -3.333190597667145E-2   -1.007037446310729E-2   -3.318359829219875E-2    4.849274498937197E-1   -1.860741389677758E-1
 6.529272411400000E9     5.547741574424998E-1   -8.188211663636460E-2   -9.574358218670184E-3   -3.345236662386242E-2   -1.018179807763505E-2   -3.336447762080424E-2    4.844454092447511E-1   -1.869936558219567E-1
 6.529282868500000E9     5.546963413214783E-1   -8.259789350013143E-2   -9.617393121528007E-3   -3.368033615176685E-2   -1.036438299297933E-2   -3.365747588572483E-2    4.842265808273633E-1   -1.877386446669000E-1
 6.529293325600000E9     5.545097240776756E-1   -8.354779014539357E-2   -9.795302701287121E-3   -3.378878567962153E-2   -1.046309208019811E-2   -3.368030788195897E-2    4.837602806460580E-1   -1.888604867807934E-1
 6.529303782700000E9     5.544632014276616E-1   -8.434501100746140E-2   -9.944622287042910E-3   -3.400871460634088E-2   -1.053744376959752E-2   -3.386592039818104E-2    4.832556333248410E-1   -1.898360292840975E-1
 6.529314239800000E9     5.542296615917149E-1   -8.526565508752980E-2   -9.994836504396910E-3   -3.427845441389888E-2   -1.078285708328191E-2   -3.409470141774192E-2    4.830799061630474E-1   -1.906419542497797E-1
 6.529324696900000E9     5.541014259986965E-1   -8.605280106331607E-2   -1.009895904540696E-2   -3.430691585789211E-2   -1.095823316071384E-2   -3.422770062982907E-2    4.825073255444917E-1   -1.915621217333634E-1
 6.529335154000000E9     5.538901549582435E-1   -8.691884681911284E-2   -1.015050554670172E-2   -3.440773382260727E-2   -1.096045241835627E-2   -3.437202769201877E-2    4.817716699684887E-1   -1.925330796860704E-1
 6.529345611100000E9     5.538793514215441E-1   -8.774845413733885E-2   -1.048102799720902E-2   -3.477837134898269E-2   -1.112827746767650E-2   -3.452808912925168E-2    4.816289640535639E-1   -1.934729836776341E-1
 6.529356068200000E9     5.536434858491437E-1   -8.864673882104393E-2   -1.055464276094000E-2   -3.490725427746209E-2   -1.127993369274348E-2   -3.490455568166010E-2    4.811238768708170E-1   -1.944571196832627E-1
 6.529366525300000E9     5.535960538927880E-1   -8.947439437249181E-2   -1.061339953681297E-2   -3.508981530341353E-2   -1.136939265481882E-2   -3.489162855778454E-2    4.807583356628735E-1   -1.954976718652414E-1
 6.529376982400000E9     5.533045191374920E-1   -9.047302553090364E-2   -1.079033299259235E-2   -3.533272680887732E-2   -1.150231925686099E-2   -3.516150124003102E-2    4.803996334566259E-1   -1.964605353219950E-1
 6.529387439500000E9     5.531810614699186E-1   -9.124860512633307E-2   -1.086212659181113E-2   -3.551613440990460E-2   -1.160934631750992E-2   -3.531450453835350E-2    4.799793731431146E-1   -1.975056560566973E-1
 6.529397896600000E9     5.531365031449610E-1   -9.209770260508582E-2   -1.115385449117710E-2   -3.563432001919205E-2   -1.170810499866054E-2   -3.549172904072264E-2    4.793832826597905E-1   -1.982473545765022E-1
 6.529408353700000E9     5.527941900694683E-1   -9.306181049808243E-2   -1.116196577097011E-2   -3.586545013967050E-2   -1.203681185010065E-2   -3.564972897342820E-2    4.791252973239541E-1   -1.993065082159813E-1
 6.529418810800000E9     5.526509806512470E-1   -9.380456279575171E-2   -1.126161863302754E-2   -3.611248882671090E-2   -1.201326110374011E-2   -3.582904342015565E-2    4.785006889474933E-1   -2.003974501861229E-1
 6.529429267900000E9     5.525882335988251E-1   -9.462447452374605E-2   -1.153020367179910E-2   -3.614275549764150E-2   -1.226645627761173E-2   -3.601854601186267E-2    4.779563907482629E-1   -2.013670967784991E-1
 6.529439725000000E9     5.523816064490057E-1   -9.555332274646335E-2   -1.155296836245572E-2   -3.649004936115049E-2   -1.246225319272473E-2   -3.619735546917246E-2    4.774723229651817E-1   -2.022569787344191E-1
 6.529450182100000E9     5.523061897635394E-1   -9.641536411184388E-2   -1.182976461099160E-2   -3.664228638408977E-2   -1.254681829759525E-2   -3.649645227665779E-2    4.771104808974343E-1   -2.032019664577648E-1
 6.529460639200000E9     5.520419835686835E-1   -9.727545238892127E-2   -1.198486652935213E-2   -3.703365051481422E-2   -1.272714833470047E-2   -3.659246699297943E-2    4.767238001578598E-1   -2.040795200524402E-1
 6.529471096300000E9     5.518629752526331E-1   -9.820000343460804E-2   -1.197623851391879E-2   -3.688078856579838E-2   -1.281558190539698E-2   -3.682617696478561E-2    4.761169840993523E-1   -2.053070587065617E-1
 6.529481553400000E9     5.518460363107568E-1   -9.906835340351283E-2   -1.221630579381755E-2   -3.716401221440173E-2   -1.296050523271650E-2   -3.700474425076882E-2    4.756016194431275E-1   -2.062654447333157E-1
 6.529492010500000E9     5.515526113630037E-1   -9.983080720809595E-2   -1.223163578381443E-2   -3.738387477089800E-2   -1.323712037680559E-2   -3.718425706123201E-2    4.751971035504513E-1   -2.073134323083520E-1
 6.529502467600000E9     5.515008076796620E-1   -1.008597123985669E-1   -1.261798741423604E-2   -3.761008451628403E-2   -1.334626232640039E-2   -3.750103619380607E-2    4.747300193727997E-1   -2.083274175045165E-1
 6.529512924700000E9     5.511991404668010E-1   -1.016482807285741E-1   -1.260133196145898E-2   -3.795730325453406E-2   -1.344585161985960E-2   -3.771015008684896E-2    4.740170052219004E-1   -2.092432599073544E-1
 6.529523381800000E9     5.509229233632735E-1   -1.026029365295805E-1   -1.288050107650446E-2   -3.800330548990472E-2   -1.362213923366367E-2   -3.784510775460299E-2    4.735235040497153E-1   -2.103473005363073E-1
 6.529533838900000E9     5.508608168660301E-1   -1.035497927104844E-1   -1.301385487312258E-2   -3.824245329188480E-2   -1.386703593955446E-2   -3.803603357082069E-2    4.731446175820255E-1   -2.112295966997889E-1
 6.529544296000000E9     5.506679768817921E-1   -1.043988484520003E-1   -1.315269717284760E-2   -3.854540200085966E-2   -1.406337353781478E-2   -3.830806584191394E-2    4.727487313551611E-1   -2.122277413463084E-1
 6.529554753100000E9     5.504189298144817E-1   -1.052788405038438E-1   -1.343672254971640E-2   -3.861718235533712E-2   -1.409142278519442E-2   -3.848084218798114E-2    4.719871886315756E-1   -2.132725988633767E-1
 6.529565210200000E9     5.503414760551897E-1   -1.062334309942636E-1   -1.356939839650823E-2   -3.885785475308036E-2   -1.440517236883861E-2   -3.881893694879598E-2    4.714667872596136E-1   -2.142363757888544E-1
 6.529575667300000E9     5.500488452408483E-1   -1.070428568361130E-1   -1.375459111908733E-2   -3.913799196808388E-2   -1.460727035692704E-2   -3.895426391573664E-2    4.710755502576252E-1   -2.153867378460926E-1
 6.529586124400000E9     5.498328122037065E-1   -1.078733246077227E-1   -1.388834845532023E-2   -3.939722195571648E-2   -1.474415592807757E-2   -3.928655209624900E-2    4.704335877487038E-1   -2.164171584451333E-1
 6.529596581500000E9     5.496818072747874E-1   -1.088123385558114E-1   -1.407661550364246E-2   -3.956430879347780E-2   -1.480624545383557E-2   -3.939761119664484E-2    4.699452789405947E-1   -2.174128193614235E-1
 6.529607038600000E9     5.494345677040118E-1   -1.096162232592221E-1   -1.419361305737185E-2   -3.996087531572908E-2   -1.501413133749182E-2   -3.964141753414125E-2    4.692345534655797E-1   -2.184471656513485E-1
 6.529617495700000E9     5.491854365676937E-1   -1.104978006636507E-1   -1.446475081173615E-2   -4.009038438897253E-2   -1.530194740756642E-2   -3.985924291063465E-2    4.688295793262242E-1   -2.193319248318833E-1
 6.529627952800000E9     5.491128855338181E-1   -1.114400232956938E-1   -1.461567121092296E-2   -4.030523771228824E-2   -1.552516257024265E-2   -4.013489732707772E-2    4.681711099388026E-1   -2.204862430679616E-1
 6.529638409900000E9     5.489132321052376E-1   -1.123922076005385E-1   -1.473048987538429E-2   -4.063927009031937E-2   -1.563350386554903E-2   -4.033440257414239E-2    4.676838472399128E-1   -2.215337402036910E-1
 6.529648867000000E9     5.486404134429577E-1   -1.132353459297918E-1   -1.505455197298426E-2   -4.078542533991608E-2   -1.604580555757663E-2   -4.058466004540470E-2    4.670194847191604E-1   -2.227055215872472E-1
 6.529659324100000E9     5.483619799889364E-1   -1.140796443550140E-1   -1.515732110898353E-2   -4.120594508199912E-2   -1.612612698848788E-2   -4.082915580417071E-2    4.664249819298089E-1   -2.236000339113781E-1
 6.529669781200000E9     5.481246754803495E-1   -1.150012753370047E-1   -1.536501187480080E-2   -4.142615071859714E-2   -1.633358718827787E-2   -4.111317499457189E-2    4.657284306256973E-1   -2.248152398400354E-1
 6.529680238300000E9     5.479674136959285E-1   -1.160044910401816E-1   -1.556477241949880E-2   -4.156070745007573E-2   -1.636347878509672E-2   -4.128218823361661E-2    4.652881832769157E-1   -2.257387895382436E-1
 6.529690695400000E9     5.476034316635284E-1   -1.169280701066793E-1   -1.579922525900769E-2   -4.173188526929215E-2   -1.676620159768757E-2   -4.162866897412995E-2    4.648497324129351E-1   -2.269182540105912E-1
 6.529701152500000E9     5.475267254454742E-1   -1.176510056371377E-1   -1.595327080681496E-2   -4.207963522398091E-2   -1.700989718870884E-2   -4.190052182583312E-2    4.639928748478741E-1   -2.278477663651046E-1
 6.529711609600000E9     5.472601064369338E-1   -1.185848007615861E-1   -1.626338411483503E-2   -4.230263485999861E-2   -1.719490456980156E-2   -4.208252499043929E-2    4.632115496345056E-1   -2.290795649600367E-1
 6.529722066700000E9     5.470601018444459E-1   -1.196098217383944E-1   -1.650207324975994E-2   -4.267838925296657E-2   -1.747754273698222E-2   -4.234254700376740E-2    4.627468287248496E-1   -2.300251405579785E-1
 6.529732523800000E9     5.468495809941201E-1   -1.204525996101874E-1   -1.664798662815889E-2   -4.309244199905670E-2   -1.759284000753434E-2   -4.263217143128691E-2    4.619984259138586E-1   -2.312880631403511E-1
 6.529742980900000E9     5.466746953169693E-1   -1.214356866782514E-1   -1.700098753849072E-2   -4.310177024803769E-2   -1.785845097750017E-2   -4.290373779495130E-2    4.612639853359017E-1   -2.324070866524303E-1
 6.529753438000000E9     5.461856859546081E-1   -1.222367810898560E-1   -1.710202805116470E-2   -4.342536647481101E-2   -1.808645283180173E-2   -4.320295518698664E-2    4.609358423122506E-1   -2.335228738301867E-1
 6.529763895100000E9     5.460915916166995E-1   -1.232371949623583E-1   -1.735131393080763E-2   -4.380051131198957E-2   -1.838505745106550E-2   -4.353228259548597E-2    4.600422207916528E-1   -2.345326213720941E-1
 6.529774352200000E9     5.458620702791821E-1   -1.241062329209892E-1   -1.753620941498729E-2   -4.394736170998564E-2   -1.858717222306718E-2   -4.372899385557526E-2    4.593402644875704E-1   -2.357595195558029E-1
 6.529784809300000E9     5.456195617943121E-1   -1.251037649406838E-1   -1.788654665232199E-2   -4.441578834201036E-2   -1.883372029367866E-2   -4.401998966393833E-2    4.587990359016328E-1   -2.366430384689663E-1
 6.529795266400000E9     5.452763160865851E-1   -1.260573271687690E-1   -1.797553362131422E-2   -4.453283891782875E-2   -1.916647476860053E-2   -4.421974849006458E-2    4.580624311830841E-1   -2.379975244735407E-1
 6.529805723500000E9     5.450879541430729E-1   -1.269910582695050E-1   -1.833116952958062E-2   -4.504241079719353E-2   -1.943655924546583E-2   -4.463704914469618E-2    4.573667018937239E-1   -2.391250985668188E-1
 6.529816180600000E9     5.447972421121005E-1   -1.279336916923186E-1   -1.859005022115445E-2   -4.520924374802042E-2   -1.958993741519367E-2   -4.482994003052793E-2    4.565825002109390E-1   -2.402536239639499E-1
 6.529826637700000E9     5.445769768544484E-1   -1.288671484960677E-1   -1.884332926350683E-2   -4.567068529832341E-2   -1.988563419680770E-2   -4.528373491360034E-2    4.558324818582834E-1   -2.413830235086709E-1
 6.529837094800000E9     5.442688267991282E-1   -1.297850005881944E-1   -1.911705553507203E-2   -4.590128192736165E-2   -2.013034266462205E-2   -4.554550346845546E-2    4.550146090004166E-1   -2.425310724970481E-1
 6.529847551900000E9     5.438637479341685E-1   -1.306046115451004E-1   -1.941950025345377E-2   -4.615013477793922E-2   -2.039402835428251E-2   -4.581411161967913E-2    4.543190409993919E-1   -2.436786791978142E-1
 6.529858009000000E9     5.436890529164924E-1   -1.316380750109369E-1   -1.972422202631624E-2   -4.643146636574991E-2   -2.066562913511532E-2   -4.598872017804720E-2    4.535481433987822E-1   -2.447388744305853E-1
 6.529868466100000E9     5.434636000901213E-1   -1.325475933206615E-1   -1.997162783324541E-2   -4.680223211690684E-2   -2.107647215346033E-2   -4.647429206052819E-2    4.529506798283672E-1   -2.458662203398015E-1
 6.529878923200000E9     5.431663198018938E-1   -1.334696407587904E-1   -2.015308578838592E-2   -4.700744964685884E-2   -2.137475892189662E-2   -4.679582493199008E-2    4.520251525330538E-1   -2.471758008363631E-1
 6.529889380300000E9     5.428291714981144E-1   -1.344898811673040E-1   -2.053659325555834E-2   -4.736144133218433E-2   -2.155641354517002E-2   -4.691189343483376E-2    4.513003613921264E-1   -2.483565474524757E-1
 6.529899837400000E9     5.425356415612841E-1   -1.353560707812125E-1   -2.083417352996647E-2   -4.774806725268566E-2   -2.202425445801930E-2   -4.735227868591902E-2    4.504192529153903E-1   -2.495470230644501E-1
 6.529910294500000E9     5.423111634903713E-1   -1.364103528945909E-1   -2.102723639082163E-2   -4.820847393402879E-2   -2.231001265698322E-2   -4.767032928882405E-2    4.498063077620443E-1   -2.507915272694060E-1
 6.529920751600000E9     5.419324654356994E-1   -1.372960474958760E-1   -2.152796157032084E-2   -4.843870434438290E-2   -2.262389734242218E-2   -4.800971552230614E-2    4.487055781048817E-1   -2.519367666311658E-1
 6.529931208700000E9     5.415491865070384E-1   -1.384030411859580E-1   -2.183242005067775E-2   -4.870406581224224E-2   -2.299757814322738E-2   -4.840801082790212E-2    4.479971604844482E-1   -2.531794730740006E-1
 6.529941665800000E9     5.413437626731173E-1   -1.392799433391601E-1   -2.207596202741304E-2   -4.924371178504781E-2   -2.320497463377687E-2   -4.874185425001901E-2    4.471077595705356E-1   -2.543243262147049E-1
 6.529952122900000E9     5.409988783212440E-1   -1.403383827292223E-1   -2.240569503361852E-2   -4.950364583696576E-2   -2.364323750802926E-2   -4.913507859398206E-2    4.462438883617019E-1   -2.555973883521846E-1
 6.529962580000000E9     5.405838427462182E-1   -1.410851239629445E-1   -2.265865830329348E-2   -4.997117093611370E-2   -2.388264583226452E-2   -4.946857385383962E-2    4.452220174533402E-1   -2.569989717164528E-1
