#  HZ   S   RI   R     50.00 
! Rohde & Schwarz Vector Network Analyzer 
! Rohde-Schwarz,ZNB20-2Port,1311601062101988,3.16
! Created: UTC 3/21/2024, 1:11:24 AM
! freq[Hz]                re:S11                  im:S11                  re:S21                  im:S21                  re:S12                  im:S12                  re:S22                  im:S22
 6.529029093000000E9     5.575825318835357E-1   -6.215621603182321E-2   -7.017319899160961E-3   -3.012719704332175E-2   -7.771943145313645E-3   -2.988235977531952E-2    4.929420442625803E-1   -1.657049691142626E-1
 6.529039526650000E9     5.574646864581027E-1   -6.292006386163339E-2   -7.142282999075155E-3   -3.039377326977656E-2   -7.821677602720959E-3   -3.002704187748596E-2    4.924577699886867E-1   -1.666221150504352E-1
 6.529049960300000E9     5.572818944289438E-1   -6.378590726404743E-2   -7.160644709307034E-3   -3.027760782965781E-2   -7.838014642623759E-3   -3.017795792455990E-2    4.922571145802396E-1   -1.673606993331334E-1
 6.529060393950000E9     5.572211121613375E-1   -6.466081099798653E-2   -7.431463430946902E-3   -3.044477984477821E-2   -8.004700782313212E-3   -3.033361972687202E-2    4.918024924772286E-1   -1.683990389241584E-1
 6.529070827600000E9     5.570695696367476E-1   -6.547528667005011E-2   -7.510873302074033E-3   -3.057045909954880E-2   -8.127912964513718E-3   -3.041978970447899E-2    4.915575041854351E-1   -1.691997264683134E-1
 6.529081261250000E9     5.569344211773939E-1   -6.628710516194647E-2   -7.541048806563824E-3   -3.094259656122025E-2   -8.234278002807566E-3   -3.053844265966108E-2    4.911551374089383E-1   -1.701595758630077E-1
 6.529091694900000E9     5.568394008440770E-1   -6.709944807257175E-2   -7.671940541082743E-3   -3.089663716869239E-2   -8.317735104211601E-3   -3.064380331470044E-2    4.909064023097026E-1   -1.711406894524878E-1
 6.529102128550000E9     5.568281688426981E-1   -6.797375883042223E-2   -7.661653086256203E-3   -3.093353619406548E-2   -8.461871610834597E-3   -3.089962802196558E-2    4.906534024952385E-1   -1.718635899822544E-1
 6.529112562200000E9     5.567219312625199E-1   -6.872931281812708E-2   -7.904864057866412E-3   -3.124213727332180E-2   -8.506951709981706E-3   -3.096596746596366E-2    4.900858860115433E-1   -1.729190685585080E-1
 6.529122995850000E9     5.565574826773997E-1   -6.964439942357054E-2   -7.914185147799931E-3   -3.116259347462046E-2   -8.663275323791355E-3   -3.110049135597099E-2    4.898676518535181E-1   -1.738174741626198E-1
 6.529133429500000E9     5.565169813917568E-1   -7.046656686394924E-2   -8.207871193957397E-3   -3.135636405722526E-2   -8.712924130514105E-3   -3.126718906929149E-2    4.894559097215351E-1   -1.746532602220571E-1
 6.529143863150000E9     5.563977747420001E-1   -7.128954718812185E-2   -8.259461235062550E-3   -3.147416889734791E-2   -8.805325625722782E-3   -3.146070855913591E-2    4.891783885568597E-1   -1.756329153282617E-1
 6.529154296800000E9     5.562789895295418E-1   -7.207184238234288E-2   -8.286202413633530E-3   -3.165527120807219E-2   -8.945539836484087E-3   -3.161165599855516E-2    4.886534483804166E-1   -1.763174926380550E-1
 6.529164730450000E9     5.561290317253894E-1   -7.295922002558400E-2   -8.429496102194234E-3   -3.178816518048643E-2   -9.035240931555496E-3   -3.174496460061668E-2    4.884679305578079E-1   -1.773385254663541E-1
 6.529175164100000E9     5.560446212640701E-1   -7.390335293181866E-2   -8.520315116241364E-3   -3.191843013303123E-2   -9.176762061735799E-3   -3.191257650219536E-2    4.880806592676044E-1   -1.781822584694578E-1
 6.529185597750000E9     5.559535343519979E-1   -7.454593447351068E-2   -8.691680717271907E-3   -3.205761312348972E-2   -9.259172326560117E-3   -3.199717051856037E-2    4.877866038363814E-1   -1.791806413997068E-1
 6.529196031400000E9     5.557632427711082E-1   -7.560890140111269E-2   -8.845863492976419E-3   -3.234451144119889E-2   -9.402440166749355E-3   -3.217110222958299E-2    4.872003210114133E-1   -1.802136653229321E-1
 6.529206465050000E9     5.555842919897698E-1   -7.632689208316118E-2   -8.861075612082221E-3   -3.235271998291407E-2   -9.454874999247279E-3   -3.234412519506494E-2    4.870318205336751E-1   -1.809999033100085E-1
 6.529216898700000E9     5.555229260163203E-1   -7.721468010770922E-2   -8.931778598162386E-3   -3.258936707160811E-2   -9.570488550875262E-3   -3.249122010694443E-2    4.864759699674109E-1   -1.819393428319160E-1
 6.529227332350000E9     5.554814026876230E-1   -7.807386401065718E-2   -9.112632691291414E-3   -3.272227400774303E-2   -9.625435314305809E-3   -3.271067704717140E-2    4.862190224007851E-1   -1.829298482977329E-1
 6.529237766000000E9     5.552631665511882E-1   -7.894501498819165E-2   -9.026371272746934E-3   -3.292245350087060E-2   -9.749907460808808E-3   -3.277642468031499E-2    4.857697801967652E-1   -1.837639511988006E-1
 6.529248199650000E9     5.550178803236727E-1   -7.970992207928183E-2   -9.206143610435499E-3   -3.302288970373367E-2   -9.887359368393489E-3   -3.303508889718679E-2    4.853617239079034E-1   -1.844942315614059E-1
 6.529258633300000E9     5.550463551036404E-1   -8.048813708071166E-2   -9.248200417997879E-3   -3.338675620520044E-2   -9.998283523227401E-3   -3.298393239104817E-2    4.850111231869212E-1   -1.855851619871655E-1
 6.529269066950000E9     5.548442494932242E-1   -8.152289680954634E-2   -9.454281397067617E-3   -3.333039639631771E-2   -1.021441175388536E-2   -3.329318072883658E-2    4.846019225609927E-1   -1.866056090504361E-1
 6.529279500600000E9     5.546502258496521E-1   -8.230908807644029E-2   -9.538979846931833E-3   -3.351878189764780E-2   -1.026129972252821E-2   -3.351025034947649E-2    4.842014976320539E-1   -1.874820740674812E-1
 6.529289934250000E9     5.545549257224247E-1   -8.312513236616755E-2   -9.655439255514112E-3   -3.374216322729483E-2   -1.039388259177595E-2   -3.354288489311485E-2    4.839125942568691E-1   -1.883994563513131E-1
 6.529300367900000E9     5.545333547129335E-1   -8.401125752687566E-2   -9.908948877656493E-3   -3.410256428774806E-2   -1.056947905736683E-2   -3.382983766083796E-2    4.833010508096499E-1   -1.893032531956164E-1
 6.529310801550000E9     5.543064475044551E-1   -8.479638400637661E-2   -9.989529638418119E-3   -3.402778653773026E-2   -1.066567021548827E-2   -3.399627051153752E-2    4.829649725381087E-1   -1.902380881077876E-1
 6.529321235200000E9     5.541383150803388E-1   -8.576442090780385E-2   -1.013195749994820E-2   -3.429375298001661E-2   -1.078390580802247E-2   -3.407563764434681E-2    4.825456610649673E-1   -1.913501180240642E-1
 6.529331668850000E9     5.540178545600806E-1   -8.653302210452768E-2   -1.004151160203421E-2   -3.451616809589342E-2   -1.098826661649721E-2   -3.431909891896477E-2    4.821485846164026E-1   -1.923405808674949E-1
 6.529342102500000E9     5.539152745994123E-1   -8.742981482834725E-2   -1.036836153447446E-2   -3.471600792556067E-2   -1.103477430808681E-2   -3.447411121753201E-2    4.817560101796766E-1   -1.932722347877032E-1
 6.529352536150000E9     5.537868960100765E-1   -8.832279737807956E-2   -1.034031256737815E-2   -3.474509070975038E-2   -1.112263338759531E-2   -3.472089203280884E-2    4.813987531810928E-1   -1.940749199292215E-1
 6.529362969800000E9     5.535916534514499E-1   -8.919985336653094E-2   -1.055774008061281E-2   -3.494327863910855E-2   -1.127838880681189E-2   -3.486304786916907E-2    4.807918021221657E-1   -1.948734956323693E-1
 6.529373403450000E9     5.533973212744054E-1   -9.003780454495469E-2   -1.079810038156637E-2   -3.519510713019831E-2   -1.145178596734055E-2   -3.493525550229454E-2    4.803727281250794E-1   -1.960738939760548E-1
 6.529383837100000E9     5.532556114138504E-1   -9.086023306626829E-2   -1.096541535987409E-2   -3.537288917005885E-2   -1.152699173041239E-2   -3.519021047475802E-2    4.800983520002587E-1   -1.969222626419070E-1
 6.529394270750000E9     5.531287423952215E-1   -9.156675546517562E-2   -1.095452034055296E-2   -3.555157232289245E-2   -1.182580616670788E-2   -3.536032107442021E-2    4.794586736370069E-1   -1.978406012007943E-1
 6.529404704400000E9     5.530138656683733E-1   -9.268827600455451E-2   -1.104557696263599E-2   -3.578710758522848E-2   -1.190120891120921E-2   -3.551660582530363E-2    4.791805670327504E-1   -1.989444703339297E-1
 6.529415138050000E9     5.527677877816971E-1   -9.343014083847687E-2   -1.130858722191656E-2   -3.581053251897358E-2   -1.203975685270678E-2   -3.560960879980266E-2    4.786422285440787E-1   -1.998694271074191E-1
 6.529425571700000E9     5.526754810163607E-1   -9.435618331855927E-2   -1.149828654601857E-2   -3.626075983560450E-2   -1.214078523826237E-2   -3.591735642199776E-2    4.783130652985225E-1   -2.008408980385204E-1
 6.529436005350000E9     5.524544114678853E-1   -9.510164979653377E-2   -1.155923447111925E-2   -3.636183866859232E-2   -1.237062479741207E-2   -3.610106037458834E-2    4.777541396221168E-1   -2.017403999795753E-1
 6.529446439000000E9     5.523718658392930E-1   -9.602223479020532E-2   -1.175251108706503E-2   -3.660600029507456E-2   -1.259871502809279E-2   -3.621092960998681E-2    4.770916013879892E-1   -2.026580356972268E-1
 6.529456872650000E9     5.522350364967306E-1   -9.689611324893019E-2   -1.185099993050637E-2   -3.674886924014049E-2   -1.260624157127684E-2   -3.646050453025367E-2    4.767358082681219E-1   -2.038427504575785E-1
 6.529467306300000E9     5.518554530841460E-1   -9.782854934097472E-2   -1.199347514518933E-2   -3.692684488557892E-2   -1.271697160872600E-2   -3.670272037674964E-2    4.761354998954903E-1   -2.046544307109375E-1
 6.529477739950000E9     5.517468938806799E-1   -9.859809446266052E-2   -1.213451268114754E-2   -3.713882222902659E-2   -1.285950448909772E-2   -3.689890207446275E-2    4.758107051620501E-1   -2.056799526890047E-1
 6.529488173600000E9     5.516137949713530E-1   -9.945012567965708E-2   -1.220886951948813E-2   -3.732272447498711E-2   -1.313248758539614E-2   -3.707911951120079E-2    4.752165697058773E-1   -2.066834135161776E-1
 6.529498607250000E9     5.514872371701846E-1   -1.004514394258590E-1   -1.248998591956845E-2   -3.750601665336178E-2   -1.314421644620954E-2   -3.726544061155689E-2    4.747909698976967E-1   -2.076724388604455E-1
 6.529509040900000E9     5.512503338119045E-1   -1.012913527951103E-1   -1.264584359202029E-2   -3.760915913968191E-2   -1.342304831576086E-2   -3.747173549137159E-2    4.742693232617790E-1   -2.087846682377804E-1
 6.529519474550000E9     5.511151270426876E-1   -1.020776622383610E-1   -1.274752418241417E-2   -3.793273556302872E-2   -1.348955983952687E-2   -3.767937287013279E-2    4.737870065760655E-1   -2.097398561751889E-1
 6.529529908200000E9     5.509902233172614E-1   -1.030593206021828E-1   -1.279405358935707E-2   -3.813484051074776E-2   -1.373253194334252E-2   -3.797034030813871E-2    4.733486897261696E-1   -2.108759062072412E-1
 6.529540341850000E9     5.507849048732130E-1   -1.038554480677763E-1   -1.301144310610572E-2   -3.834386945130001E-2   -1.387529107254552E-2   -3.802871398736406E-2    4.727896708948923E-1   -2.117631495030912E-1
 6.529550775500000E9     5.505234477093007E-1   -1.047340056294052E-1   -1.305302795370273E-2   -3.868633203765150E-2   -1.415617289102949E-2   -3.833053032231858E-2    4.722312975012111E-1   -2.127966323099775E-1
 6.529561209150000E9     5.503434473910546E-1   -1.056405651935697E-1   -1.351802969102479E-2   -3.881261695143181E-2   -1.419957643360963E-2   -3.859609612683051E-2    4.715481100926192E-1   -2.138309394095754E-1
 6.529571642800000E9     5.501166680110189E-1   -1.064242349861351E-1   -1.352466694384029E-2   -3.901776641136416E-2   -1.436583992806046E-2   -3.878187249459610E-2    4.711971636044768E-1   -2.148286077512232E-1
 6.529582076450000E9     5.499305595452688E-1   -1.075244028286347E-1   -1.371664312733091E-2   -3.928198995104793E-2   -1.453604984430433E-2   -3.894544493806497E-2    4.705681742330247E-1   -2.157921009117570E-1
 6.529592510100000E9     5.498261216243739E-1   -1.082323975868017E-1   -1.382637769539603E-2   -3.946154074479031E-2   -1.474710134557182E-2   -3.920664871826561E-2    4.701777199244683E-1   -2.167625600848442E-1
 6.529602943750000E9     5.495874606634467E-1   -1.092259653179016E-1   -1.415690680854244E-2   -3.968202490204685E-2   -1.499173400395770E-2   -3.950816443065487E-2    4.695009110819201E-1   -2.177392488991633E-1
 6.529613377400000E9     5.492693632629069E-1   -1.101040216805317E-1   -1.425220916015012E-2   -4.007970774995830E-2   -1.524392028659435E-2   -3.969895505273318E-2    4.688027897487656E-1   -2.189236064607509E-1
 6.529623811050000E9     5.490577489980832E-1   -1.109188810072831E-1   -1.453732081991596E-2   -4.014048449141084E-2   -1.542347717551152E-2   -3.994284511886959E-2    4.684787521841948E-1   -2.199689683501702E-1
 6.529634244700000E9     5.488221728988197E-1   -1.118980944797859E-1   -1.466217439993185E-2   -4.037555484783425E-2   -1.559752131948635E-2   -4.014273071392239E-2    4.677444485252194E-1   -2.210067847602980E-1
 6.529644678350000E9     5.487658308812264E-1   -1.127614773012540E-1   -1.491837584160898E-2   -4.068595611508249E-2   -1.565869980072497E-2   -4.049209292915233E-2    4.674048139382605E-1   -2.222910404658399E-1
 6.529655112000000E9     5.484086189948503E-1   -1.135725182281153E-1   -1.509131446930085E-2   -4.082190215109856E-2   -1.599549194091524E-2   -4.063870887910953E-2    4.666271101197214E-1   -2.230797364722849E-1
 6.529665545650000E9     5.482604238759822E-1   -1.146110761470622E-1   -1.531602029183330E-2   -4.096458642091631E-2   -1.619261469980236E-2   -4.090495025506098E-2    4.660798980408974E-1   -2.241738103780374E-1
 6.529675979300000E9     5.481452272414546E-1   -1.154637096240659E-1   -1.548119327619335E-2   -4.147055502441097E-2   -1.636416232697651E-2   -4.112485345255795E-2    4.654745623293815E-1   -2.252839005377518E-1
 6.529686412950000E9     5.478425706584709E-1   -1.164068984576467E-1   -1.579501694737611E-2   -4.155413351997047E-2   -1.655081433933571E-2   -4.133206217990755E-2    4.647546543253183E-1   -2.262897153920569E-1
 6.529696846600000E9     5.476219036049903E-1   -1.173024400762359E-1   -1.581015404393017E-2   -4.191001907819043E-2   -1.689353949624942E-2   -4.165209524545934E-2    4.643093585192878E-1   -2.273955572291544E-1
 6.529707280250000E9     5.474324908674414E-1   -1.182787936146881E-1   -1.618016017559666E-2   -4.215010811656383E-2   -1.700349880801065E-2   -4.191017626424505E-2    4.635899504209657E-1   -2.283278180527486E-1
 6.529717713900000E9     5.472273717519307E-1   -1.190620438895022E-1   -1.622358051225549E-2   -4.248780763311518E-2   -1.717493268579711E-2   -4.214912516320933E-2    4.630646601731759E-1   -2.295862062255450E-1
 6.529728147550000E9     5.469172634661689E-1   -1.200786194440123E-1   -1.646606023159895E-2   -4.259709357605819E-2   -1.738856894304136E-2   -4.238396549017279E-2    4.623411546862737E-1   -2.305727837296394E-1
 6.529738581200000E9     5.467399117660697E-1   -1.208897721878701E-1   -1.671395620311214E-2   -4.294562322578696E-2   -1.771493387966085E-2   -4.262502604069597E-2    4.617482912331539E-1   -2.316416041505496E-1
 6.529749014850000E9     5.464386077675514E-1   -1.216155864013832E-1   -1.707328558690720E-2   -4.316159688976762E-2   -1.806647653850844E-2   -4.293618341287888E-2    4.610177870732947E-1   -2.329024437265381E-1
 6.529759448500000E9     5.462338181717220E-1   -1.226491488071558E-1   -1.725920348554123E-2   -4.361193504385222E-2   -1.812336283542023E-2   -4.323606006189200E-2    4.603052279833983E-1   -2.341461668698733E-1
 6.529769882150000E9     5.459904697106528E-1   -1.236908457988813E-1   -1.747482301871531E-2   -4.384390998557378E-2   -1.847443011047325E-2   -4.344814867563190E-2    4.595992496329423E-1   -2.352018116220516E-1
 6.529780315800000E9     5.456342150449447E-1   -1.246578559401771E-1   -1.758734931832148E-2   -4.423053531426500E-2   -1.877555590405430E-2   -4.383724201034074E-2    4.589669757686951E-1   -2.362473935463157E-1
 6.529790749450000E9     5.455006178663506E-1   -1.255022214611844E-1   -1.795856770248441E-2   -4.445453576108124E-2   -1.895953997477829E-2   -4.412387813121621E-2    4.583290362208580E-1   -2.373043586862240E-1
 6.529801183100000E9     5.452270274184061E-1   -1.265018734605014E-1   -1.819165626181696E-2   -4.478020124857165E-2   -1.918358156995017E-2   -4.424729528432227E-2    4.576460142196279E-1   -2.384077255438616E-1
 6.529811616750000E9     5.448254641574019E-1   -1.273558012051260E-1   -1.852257065244389E-2   -4.502282439784630E-2   -1.948663727220466E-2   -4.465553477032753E-2    4.570105544042860E-1   -2.394480745750482E-1
 6.529822050400000E9     5.447277313300725E-1   -1.282376838472279E-1   -1.867440268098532E-2   -4.528473205405447E-2   -1.981410343398726E-2   -4.496486142706790E-2    4.563618984162200E-1   -2.406259345035736E-1
 6.529832484050000E9     5.443967383450181E-1   -1.292431246798461E-1   -1.891534391147261E-2   -4.557513796506834E-2   -1.999789224828638E-2   -4.529160858227218E-2    4.554071307764585E-1   -2.418938929610875E-1
 6.529842917700000E9     5.440086255413185E-1   -1.302070541039193E-1   -1.919628566466602E-2   -4.589519356965863E-2   -2.028228071190983E-2   -4.558028579757316E-2    4.546222527464510E-1   -2.427813595215155E-1
 6.529853351350000E9     5.437959162088750E-1   -1.310779565745095E-1   -1.943491026591613E-2   -4.622639074690652E-2   -2.062467202116743E-2   -4.582041964725717E-2    4.538755036081378E-1   -2.440967385999155E-1
 6.529863785000000E9     5.436473195234631E-1   -1.320540396477659E-1   -1.972110145024797E-2   -4.652678509024801E-2   -2.074180952607744E-2   -4.617136915676502E-2    4.532648104085506E-1   -2.453666594545426E-1
 6.529874218650000E9     5.434041229586778E-1   -1.329150074805970E-1   -2.008660659485057E-2   -4.686633144606204E-2   -2.115445977369589E-2   -4.643662362164214E-2    4.524816960952487E-1   -2.464567478581914E-1
 6.529884652300000E9     5.430288764561365E-1   -1.338263387841934E-1   -2.034808838130832E-2   -4.718939312408449E-2   -2.140523747943975E-2   -4.675244198640316E-2    4.517465409147385E-1   -2.476577080954207E-1
 6.529895085950000E9     5.425811377646571E-1   -1.349541693508855E-1   -2.051140183423260E-2   -4.741349025794862E-2   -2.178535782017728E-2   -4.719198724621421E-2    4.509820996233542E-1   -2.488197337025599E-1
 6.529905519600000E9     5.423358437051453E-1   -1.359320535795936E-1   -2.092635365332397E-2   -4.780602129874943E-2   -2.200500224604405E-2   -4.746803798026303E-2    4.500057139819729E-1   -2.499795398132145E-1
 6.529915953250000E9     5.420837313082644E-1   -1.367671754787413E-1   -2.109875965730412E-2   -4.809378309068637E-2   -2.239675501999175E-2   -4.789090376715055E-2    4.490947240388498E-1   -2.513074509204246E-1
 6.529926386900000E9     5.419076761944738E-1   -1.377345963681958E-1   -2.152109983474495E-2   -4.853363700613331E-2   -2.262367363715584E-2   -4.812590798522911E-2    4.482734487854313E-1   -2.522805935598858E-1
 6.529936820550000E9     5.415083625163056E-1   -1.386200044929330E-1   -2.187296833086593E-2   -4.896047702489382E-2   -2.308918958729533E-2   -4.854900715151574E-2    4.474396400025172E-1   -2.537400868569342E-1
 6.529947254200000E9     5.410859720846101E-1   -1.395981570095714E-1   -2.224553690097680E-2   -4.935289316515314E-2   -2.342208059996505E-2   -4.882142449458582E-2    4.465124646459194E-1   -2.549211622853165E-1
 6.529957687850000E9     5.408716631396129E-1   -1.406758907753077E-1   -2.254215439635755E-2   -4.966191902444964E-2   -2.367764924560825E-2   -4.927224565203466E-2    4.458469357880794E-1   -2.561039892610098E-1
 6.529968121500000E9     5.404325760561209E-1   -1.415559849583215E-1   -2.286047704888867E-2   -4.993421203311559E-2   -2.406672092048409E-2   -4.955386050808211E-2    4.449291290283027E-1   -2.572829763886097E-1
