#  HZ   S   RI   R     50.00 
! Rohde & Schwarz Vector Network Analyzer 
! Rohde-Schwarz,ZNB20-2Port,1311601062101988,3.16
! Created: UTC 3/21/2024, 1:11:45 AM
! freq[Hz]                re:S11                  im:S11                  re:S21                  im:S21                  re:S12                  im:S12                  re:S22                  im:S22
 6.529047547000000E9     5.573961589321634E-1   -6.331805406170772E-2   -7.289597258470091E-3   -3.009444987336584E-2   -7.814735694335127E-3   -2.991319866357411E-2    4.917008091502409E-1   -1.668436322815622E-1
 6.529057953525000E9     5.572531785318271E-1   -6.410857375593315E-2   -7.229858778584728E-3   -3.015644990224660E-2   -7.957452185382696E-3   -3.020024967818428E-2    4.914742056353937E-1   -1.678891765759992E-1
 6.529068360050000E9     5.572695456961486E-1   -6.495870179960751E-2   -7.474023215696460E-3   -3.035677396291062E-2   -7.985542703066395E-3   -3.025717944958945E-2    4.911191986277267E-1   -1.687459164014983E-1
 6.529078766575000E9     5.571399412672744E-1   -6.576878487347369E-2   -7.582084559089593E-3   -3.062955431891170E-2   -7.983615319914464E-3   -3.028083429823879E-2    4.908307385319673E-1   -1.695025272245349E-1
 6.529089173100000E9     5.569659371693892E-1   -6.657366354540621E-2   -7.597246410740577E-3   -3.054405375788734E-2   -8.194140071440766E-3   -3.047015840847899E-2    4.905516621584081E-1   -1.705630611550788E-1
 6.529099579625000E9     5.568417751918717E-1   -6.759467601651799E-2   -7.716441112825650E-3   -3.057972441366729E-2   -8.326502187811618E-3   -3.064485897157512E-2    4.900370588979465E-1   -1.712505233927151E-1
 6.529109986150000E9     5.567266764484220E-1   -6.831838132979003E-2   -7.898704100486768E-3   -3.087517458730424E-2   -8.396275511539585E-3   -3.082844788028803E-2    4.897735813576151E-1   -1.723878999030827E-1
 6.529120392675000E9     5.565964278583645E-1   -6.919773978895409E-2   -7.843203593083818E-3   -3.104546762547765E-2   -8.512665331756996E-3   -3.095544606033198E-2    4.893860384307204E-1   -1.731901264690617E-1
 6.529130799200000E9     5.564658850522511E-1   -6.991686869792839E-2   -8.141483904998666E-3   -3.119571482569897E-2   -8.499673624874610E-3   -3.108168839500185E-2    4.889855929009814E-1   -1.740054150870941E-1
 6.529141205725000E9     5.565241098795310E-1   -7.085237242384596E-2   -8.135877428683880E-3   -3.130059016553836E-2   -8.713825647509738E-3   -3.119479607797639E-2    4.886822903021070E-1   -1.749376087536648E-1
 6.529151612250000E9     5.563453281516200E-1   -7.160581808167724E-2   -8.183348972381609E-3   -3.153596054362219E-2   -8.849221818830478E-3   -3.132027286663083E-2    4.884327857247674E-1   -1.758489895326004E-1
 6.529162018775000E9     5.561610115742968E-1   -7.255721172337302E-2   -8.331712999511057E-3   -3.160444813354763E-2   -8.858373988427539E-3   -3.155180697915518E-2    4.880307173313621E-1   -1.767252990994344E-1
 6.529172425300000E9     5.561221815867743E-1   -7.325739009084728E-2   -8.297146900377219E-3   -3.168458047399007E-2   -9.032499469025053E-3   -3.177301986644775E-2    4.877416431233663E-1   -1.777306260446521E-1
 6.529182831825000E9     5.559192434596945E-1   -7.415011089239404E-2   -8.401209067098540E-3   -3.181231394532973E-2   -9.118523731772221E-3   -3.179363775582009E-2    4.874903550988131E-1   -1.785122781228781E-1
 6.529193238350000E9     5.559545571561061E-1   -7.499756516210879E-2   -8.580926352591519E-3   -3.195336506022572E-2   -9.234410885446576E-3   -3.186111859111735E-2    4.869504733036330E-1   -1.795412207917654E-1
 6.529203644875000E9     5.556691370606099E-1   -7.584306808779558E-2   -8.820345111551612E-3   -3.226273817809552E-2   -9.388975501459387E-3   -3.197825730972299E-2    4.867007217248555E-1   -1.806191571789373E-1
 6.529214051400000E9     5.555823110748097E-1   -7.667507777465786E-2   -8.725598268474823E-3   -3.232376136976893E-2   -9.424300680907093E-3   -3.219764909059853E-2    4.861736556701707E-1   -1.814424932257860E-1
 6.529224457925000E9     5.556003348938470E-1   -7.743848920439558E-2   -8.819894324837482E-3   -3.251452163901516E-2   -9.611164183532443E-3   -3.238295824808665E-2    4.858685550740313E-1   -1.822654828268123E-1
 6.529234864450000E9     5.553891922758836E-1   -7.837102495281414E-2   -8.975990926753299E-3   -3.255759082627884E-2   -9.626636518921910E-3   -3.251435899456520E-2    4.854214797159626E-1   -1.831926330244963E-1
 6.529245270975000E9     5.551660169627161E-1   -7.920590596231912E-2   -8.974156684293803E-3   -3.267268938483692E-2   -9.746512448274571E-3   -3.271868108717042E-2    4.850524657674208E-1   -1.838991909129579E-1
 6.529255677500000E9     5.550713211326956E-1   -8.011313838204406E-2   -9.277386535037208E-3   -3.311456798726151E-2   -9.899387658012388E-3   -3.281401872054528E-2    4.846552753912742E-1   -1.849217383432960E-1
 6.529266084025000E9     5.549441689854565E-1   -8.085157114979835E-2   -9.259675229466108E-3   -3.314437740606307E-2   -9.982448190468791E-3   -3.301271037776934E-2    4.842201941640138E-1   -1.859264415519643E-1
 6.529276490550000E9     5.548887188325360E-1   -8.165090099661777E-2   -9.511657498323851E-3   -3.332409706319117E-2   -1.017872870658092E-2   -3.310100520543723E-2    4.839911449405931E-1   -1.868880595531832E-1
 6.529286897075000E9     5.546588579666657E-1   -8.247781163215004E-2   -9.674282017403000E-3   -3.342995334618963E-2   -1.034464916836473E-2   -3.342598531125829E-2    4.833880530626361E-1   -1.877697566489573E-1
 6.529297303600000E9     5.546385628281314E-1   -8.350249949076899E-2   -9.539452329873148E-3   -3.361882988060663E-2   -1.034635500189359E-2   -3.342158671271774E-2    4.829915746818074E-1   -1.887169510183473E-1
 6.529307710125000E9     5.544861783983512E-1   -8.428352080316960E-2   -9.914871950213285E-3   -3.374816089437975E-2   -1.053210481043614E-2   -3.367361788107484E-2    4.827936303939158E-1   -1.895987360059078E-1
 6.529318116650000E9     5.543766912962665E-1   -8.525369263044470E-2   -9.784589485622400E-3   -3.399645340757310E-2   -1.067758097449466E-2   -3.376877459095479E-2    4.822909176588274E-1   -1.906438400195702E-1
 6.529328523175000E9     5.542475018199904E-1   -8.593434873189428E-2   -9.957157232330972E-3   -3.417014981416624E-2   -1.079150010006810E-2   -3.405423313704373E-2    4.819222180244558E-1   -1.914431449510278E-1
 6.529338929700000E9     5.539589112742274E-1   -8.685436097638005E-2   -1.010559094867650E-2   -3.435304264714848E-2   -1.084889874625100E-2   -3.413695934502928E-2    4.813773283479169E-1   -1.924244110851611E-1
 6.529349336225000E9     5.537345423709922E-1   -8.768398253426347E-2   -1.034093722778098E-2   -3.451442233208712E-2   -1.106008442382808E-2   -3.425177510966920E-2    4.808939779904920E-1   -1.931799319658734E-1
 6.529359742750000E9     5.537573609044301E-1   -8.858396841772030E-2   -1.046724552460414E-2   -3.469259277514999E-2   -1.119806091926221E-2   -3.452162199022061E-2    4.806539218102375E-1   -1.943335586838064E-1
 6.529370149275000E9     5.535906669667219E-1   -8.944639186501219E-2   -1.051737734752728E-2   -3.476043999294798E-2   -1.128647524727426E-2   -3.470886886571513E-2    4.800933958072773E-1   -1.952173298546944E-1
 6.529380555800000E9     5.533950169374160E-1   -9.026878094768551E-2   -1.066721709874460E-2   -3.501097235715644E-2   -1.139166099505946E-2   -3.487870968374574E-2    4.798055122270776E-1   -1.961488305092521E-1
 6.529390962325000E9     5.532406600031567E-1   -9.105282350162744E-2   -1.088480619406411E-2   -3.531680021711808E-2   -1.152264400771157E-2   -3.504159822207186E-2    4.792213748457987E-1   -1.972618232247294E-1
 6.529401368850000E9     5.531237894465052E-1   -9.188948280339503E-2   -1.090350994701814E-2   -3.532111382595084E-2   -1.169178196024438E-2   -3.530633390761462E-2    4.788324096722214E-1   -1.981365117646160E-1
 6.529411775375000E9     5.528675319604152E-1   -9.276435980493443E-2   -1.114492900376095E-2   -3.547010761134173E-2   -1.185750022964383E-2   -3.545065902292385E-2    4.782922737064171E-1   -1.991141439892355E-1
 6.529422181900000E9     5.528191925125391E-1   -9.373326030789132E-2   -1.130519797176320E-2   -3.570449303237955E-2   -1.196869271825579E-2   -3.561243055203680E-2    4.779399902564455E-1   -2.000002756945831E-1
 6.529432588425000E9     5.525505815115007E-1   -9.453002689912623E-2   -1.129539014304717E-2   -3.607037578810054E-2   -1.209408130179118E-2   -3.578697946131342E-2    4.774382850154817E-1   -2.009522329622206E-1
 6.529442994950000E9     5.523502607622308E-1   -9.541333295168025E-2   -1.141276208269893E-2   -3.607379732541249E-2   -1.228162417135019E-2   -3.584072314632426E-2    4.769401057267806E-1   -2.018734282727173E-1
 6.529453401475000E9     5.522581124487536E-1   -9.623906878975470E-2   -1.162359943856528E-2   -3.632013476859317E-2   -1.241270166015939E-2   -3.618303606467810E-2    4.766204033258191E-1   -2.030641053136893E-1
 6.529463808000000E9     5.521506010819868E-1   -9.720164675575023E-2   -1.189861390231063E-2   -3.634975555003921E-2   -1.254134965298807E-2   -3.641633178013074E-2    4.759806090035596E-1   -2.039462655163126E-1
 6.529474214525000E9     5.518546651967150E-1   -9.796838998518557E-2   -1.193385302546541E-2   -3.662524570861254E-2   -1.262873095435496E-2   -3.653021557320528E-2    4.754913333489994E-1   -2.049202069991524E-1
 6.529484621050000E9     5.517635891997588E-1   -9.889364066005489E-2   -1.207312151970442E-2   -3.695905181788037E-2   -1.297332346156734E-2   -3.680075513797719E-2    4.751287191101350E-1   -2.057386359937667E-1
 6.529495027575000E9     5.515512543582866E-1   -9.974092798064975E-2   -1.229345496751076E-2   -3.711172771141277E-2   -1.292280430952887E-2   -3.695745285984700E-2    4.745688661611769E-1   -2.068358984177837E-1
 6.529505434100000E9     5.513700669001631E-1   -1.005511585485743E-1   -1.234149261436007E-2   -3.736865404567928E-2   -1.316841468918069E-2   -3.715619624273626E-2    4.740452181100401E-1   -2.078069511602771E-1
 6.529515840625000E9     5.512075815991314E-1   -1.014655516013980E-1   -1.260125471341747E-2   -3.749336526092557E-2   -1.332807829129765E-2   -3.727098205871487E-2    4.737286037225379E-1   -2.089063813912599E-1
 6.529526247150000E9     5.509556394908601E-1   -1.023699551933906E-1   -1.265636500831296E-2   -3.776319212329991E-2   -1.349597447805133E-2   -3.760561663136999E-2    4.731415236240625E-1   -2.097655396228124E-1
 6.529536653675000E9     5.509223148256398E-1   -1.031733804153342E-1   -1.276585710877609E-2   -3.797251543693204E-2   -1.358594548284216E-2   -3.776549042480835E-2    4.725395538530103E-1   -2.107489223079296E-1
 6.529547060200000E9     5.507141327517876E-1   -1.039902648413828E-1   -1.292302337307281E-2   -3.811676951752489E-2   -1.377566063198507E-2   -3.798523522040188E-2    4.721071652168893E-1   -2.116049723718880E-1
 6.529557466725000E9     5.505013917138755E-1   -1.049640914423255E-1   -1.330134399915104E-2   -3.848954096451895E-2   -1.403401385084403E-2   -3.820235543026190E-2    4.715485463611189E-1   -2.127792293702568E-1
 6.529567873250000E9     5.502445199451587E-1   -1.058536868248660E-1   -1.332342094719512E-2   -3.853667990389918E-2   -1.407956400780374E-2   -3.830175792881580E-2    4.711248903885140E-1   -2.138476660137261E-1
 6.529578279775000E9     5.500777247251171E-1   -1.066321004675326E-1   -1.348041878344421E-2   -3.884101534321816E-2   -1.445544912569712E-2   -3.862488125889346E-2    4.704579339047414E-1   -2.148852188997994E-1
 6.529588686300000E9     5.500270030749912E-1   -1.076076023910101E-1   -1.365141560829867E-2   -3.895383024398838E-2   -1.461451605789970E-2   -3.883461805701142E-2    4.698562361476105E-1   -2.159393800180653E-1
 6.529599092825000E9     5.495920800596505E-1   -1.084855510299344E-1   -1.393318038592629E-2   -3.935177586268766E-2   -1.463944954087385E-2   -3.902189188331044E-2    4.694126721759037E-1   -2.169934133637930E-1
 6.529609499350000E9     5.493671517769150E-1   -1.094202303072768E-1   -1.405155587215957E-2   -3.962195463652739E-2   -1.490150014017150E-2   -3.921177785812772E-2    4.688986154980849E-1   -2.179968134724628E-1
 6.529619905875000E9     5.493086785860216E-1   -1.103408409504749E-1   -1.414393801455568E-2   -3.976956488453138E-2   -1.511232814144762E-2   -3.953692464651895E-2    4.683010138063959E-1   -2.188554384804526E-1
 6.529630312400000E9     5.491661913639349E-1   -1.111001772644985E-1   -1.435775082490065E-2   -3.991861777501935E-2   -1.533073443962758E-2   -3.965820475200750E-2    4.676301538674521E-1   -2.199664343474241E-1
 6.529640718925000E9     5.490281384669301E-1   -1.121691533625784E-1   -1.463411955610291E-2   -4.028736699478176E-2   -1.549447322654150E-2   -3.997591607016988E-2    4.672128233887986E-1   -2.210797520477589E-1
 6.529651125450000E9     5.486156178363775E-1   -1.128352341752987E-1   -1.485609970162505E-2   -4.049507147787109E-2   -1.567890487455833E-2   -4.019190125400805E-2    4.666348059378758E-1   -2.220854075341127E-1
 6.529661531975000E9     5.485475504354971E-1   -1.137634504381810E-1   -1.494237072646477E-2   -4.073854788348633E-2   -1.586403790796921E-2   -4.039978315359549E-2    4.660609345788337E-1   -2.230595442283854E-1
 6.529671938500000E9     5.481364889605554E-1   -1.146439614464803E-1   -1.525096872068165E-2   -4.101774882936839E-2   -1.606065785394933E-2   -4.069205985070572E-2    4.655266254520870E-1   -2.241998199757868E-1
 6.529682345025000E9     5.480269246848123E-1   -1.156868787438663E-1   -1.540680138958246E-2   -4.126207721841018E-2   -1.630982805906386E-2   -4.091769395622147E-2    4.648439392148328E-1   -2.251480166483231E-1
 6.529692751550000E9     5.479129447725424E-1   -1.164764848288958E-1   -1.552789664194291E-2   -4.150027041556122E-2   -1.652019998381074E-2   -4.124613244343656E-2    4.642853691368417E-1   -2.262253407509386E-1
 6.529703158075000E9     5.475815825836702E-1   -1.174105931805775E-1   -1.581713131204821E-2   -4.182069164113607E-2   -1.664969791730758E-2   -4.138757845626825E-2    4.638050620496796E-1   -2.272872688294641E-1
 6.529713564600000E9     5.474380164587241E-1   -1.183350910852308E-1   -1.597632052804766E-2   -4.187549894966680E-2   -1.692156278537355E-2   -4.166063029412117E-2    4.629381662313624E-1   -2.285667614514344E-1
 6.529723971125000E9     5.470938260514743E-1   -1.192506234771187E-1   -1.633911231865150E-2   -4.244184450207517E-2   -1.718190402076475E-2   -4.196947218468759E-2    4.623538547991074E-1   -2.294823516684522E-1
 6.529734377650000E9     5.469185718799523E-1   -1.201741590996130E-1   -1.639509495292890E-2   -4.254553478911453E-2   -1.740100196870521E-2   -4.215224301428423E-2    4.616787573412630E-1   -2.307484152065070E-1
 6.529744784175000E9     5.467299520881715E-1   -1.210714728777716E-1   -1.656768519351746E-2   -4.277069630015467E-2   -1.753724609310735E-2   -4.243174090225395E-2    4.609846575261697E-1   -2.317288047611726E-1
 6.529755190700000E9     5.464150442441209E-1   -1.219752692856863E-1   -1.688791921911597E-2   -4.299779182205554E-2   -1.783647230328922E-2   -4.280674145960746E-2    4.605367507122600E-1   -2.327388261213435E-1
 6.529765597225000E9     5.461183844559456E-1   -1.228130042296694E-1   -1.698555852268784E-2   -4.339644905394017E-2   -1.802403484699454E-2   -4.291443592951917E-2    4.598330717843686E-1   -2.338187555588766E-1
 6.529776003750000E9     5.460098316964250E-1   -1.237898831327579E-1   -1.733339949718999E-2   -4.362308934165699E-2   -1.832646150328854E-2   -4.330883760088143E-2    4.590833108896054E-1   -2.349457883523180E-1
 6.529786410275000E9     5.456395448840623E-1   -1.247007434421408E-1   -1.752728059712164E-2   -4.387708828248391E-2   -1.853787128949527E-2   -4.345655478344515E-2    4.584182656360395E-1   -2.360164540159867E-1
 6.529796816800000E9     5.453865150254876E-1   -1.257049861039390E-1   -1.791970056168503E-2   -4.418294242328236E-2   -1.885190736227579E-2   -4.392020710616415E-2    4.577314586353068E-1   -2.372772030476178E-1
 6.529807223325000E9     5.451957118289539E-1   -1.265622416499359E-1   -1.805317160036692E-2   -4.450982668869636E-2   -1.907758693400932E-2   -4.417714643759466E-2    4.572418820681109E-1   -2.383718895783501E-1
 6.529817629850000E9     5.448767696446427E-1   -1.274956089969901E-1   -1.827530101548541E-2   -4.491596911085930E-2   -1.933839203459395E-2   -4.440635856348592E-2    4.564135044078373E-1   -2.394164969283588E-1
 6.529828036375000E9     5.445852752765188E-1   -1.284064658042460E-1   -1.848250256111454E-2   -4.503481740618921E-2   -1.962597695494291E-2   -4.473216240688275E-2    4.555251622926783E-1   -2.405213882351517E-1
 6.529838442900000E9     5.444019157774934E-1   -1.292825917580511E-1   -1.877894413247484E-2   -4.559580136775700E-2   -1.982617718041902E-2   -4.512595730812884E-2    4.549549589023885E-1   -2.417290754887050E-1
 6.529848849425000E9     5.441979433324604E-1   -1.302712771492724E-1   -1.892405648525758E-2   -4.576483641584141E-2   -2.011621636941022E-2   -4.540253469305087E-2    4.541065434974965E-1   -2.428734100887998E-1
 6.529859255950000E9     5.438181536951124E-1   -1.310714109739152E-1   -1.936038442294376E-2   -4.596360886084531E-2   -2.037024963004293E-2   -4.560372359038246E-2    4.534659979535685E-1   -2.439950905052735E-1
 6.529869662475000E9     5.435145674937171E-1   -1.320575805041757E-1   -1.961874672867070E-2   -4.632902973532321E-2   -2.067085620639574E-2   -4.596321926154281E-2    4.527006779714693E-1   -2.450920058815722E-1
 6.529880069000000E9     5.433178560135594E-1   -1.330008071224969E-1   -1.991957125631418E-2   -4.650337625788026E-2   -2.098643550050571E-2   -4.621272821010857E-2    4.519837622112913E-1   -2.462741362986179E-1
 6.529890475525000E9     5.429671248315020E-1   -1.340262769924027E-1   -2.014615913075669E-2   -4.701637955964749E-2   -2.131180724438218E-2   -4.648354633081935E-2    4.508981358627344E-1   -2.475802913618085E-1
 6.529900882050000E9     5.426141876607677E-1   -1.349771998195195E-1   -2.055343268827840E-2   -4.729935705621867E-2   -2.159318202092252E-2   -4.688425814743351E-2    4.502803653196237E-1   -2.486772199134047E-1
 6.529911288575000E9     5.422955753006438E-1   -1.359334219385843E-1   -2.068852910064294E-2   -4.758342646805269E-2   -2.187224728650449E-2   -4.717964934840149E-2    4.496942688866163E-1   -2.499565812038210E-1
 6.529921695100000E9     5.421147489514753E-1   -1.368546336905440E-1   -2.117333486012734E-2   -4.792298291846992E-2   -2.215053648895795E-2   -4.757005929820048E-2    4.487120430594560E-1   -2.509620384501271E-1
 6.529932101625000E9     5.419435500482233E-1   -1.378124983969613E-1   -2.131186451846450E-2   -4.816069002493816E-2   -2.250899533821004E-2   -4.790927897792757E-2    4.478738383973409E-1   -2.521815568329658E-1
 6.529942508150000E9     5.415019488420443E-1   -1.387571377618219E-1   -2.163783565712771E-2   -4.865737674620731E-2   -2.286280663991765E-2   -4.817353892859904E-2    4.470124524672155E-1   -2.533251196585648E-1
 6.529952914675000E9     5.411947951258581E-1   -1.396961423433908E-1   -2.194550354167411E-2   -4.886554993807434E-2   -2.317149293062489E-2   -4.859859206927445E-2    4.461637217937672E-1   -2.546566507805494E-1
 6.529963321200000E9     5.409864691581961E-1   -1.405932921626117E-1   -2.242438224452615E-2   -4.937097089589937E-2   -2.351077999342856E-2   -4.886905408482490E-2    4.451977416301792E-1   -2.558248673515918E-1
 6.529973727725000E9     5.405890152252214E-1   -1.415975701971426E-1   -2.266253531087317E-2   -4.970998332152670E-2   -2.397398391703483E-2   -4.924211140283214E-2    4.444090565978501E-1   -2.570425617344025E-1
 6.529984134250000E9     5.402979276523677E-1   -1.425816207207869E-1   -2.291640597467037E-2   -5.003239245703462E-2   -2.414726959340650E-2   -4.958880604059341E-2    4.435184146080317E-1   -2.581734816266452E-1
