#  HZ   S   RI   R     50.00 
! Rohde & Schwarz Vector Network Analyzer 
! Rohde-Schwarz,ZNB20-2Port,1311601062101988,3.16
! Created: UTC 3/21/2024, 1:11:47 AM
! freq[Hz]                re:S11                  im:S11                  re:S21                  im:S21                  re:S12                  im:S12                  re:S22                  im:S22
 6.529050339000000E9     5.572786066927186E-1   -6.344778398289823E-2   -7.281939422972261E-3   -3.017077418573954E-2   -7.890980901629662E-3   -2.999310052527467E-2    4.916864370122110E-1   -1.670850999512224E-1
 6.529060739800000E9     5.571914667127025E-1   -6.436862789971247E-2   -7.365693612601140E-3   -3.025776830857524E-2   -7.876855533708526E-3   -3.007640056961129E-2    4.910955119345490E-1   -1.680037128678146E-1
 6.529071140600000E9     5.570729879602025E-1   -6.517079909048878E-2   -7.579832390337023E-3   -3.018556499817422E-2   -8.027288034264037E-3   -3.027703413942664E-2    4.910561636208816E-1   -1.688010997145950E-1
 6.529081541400000E9     5.571497672328708E-1   -6.593652965775011E-2   -7.428829404743422E-3   -3.037650424297765E-2   -8.172883502845729E-3   -3.035836897762812E-2    4.906559269244212E-1   -1.698493769787360E-1
 6.529091942200000E9     5.570166945615165E-1   -6.680166692750576E-2   -7.559769528816905E-3   -3.067881169536721E-2   -8.246017998375370E-3   -3.060394622777013E-2    4.903173246542571E-1   -1.707725954968798E-1
 6.529102343000000E9     5.568835746125206E-1   -6.762019228985515E-2   -7.735142162628886E-3   -3.082117446317559E-2   -8.328736040763163E-3   -3.064830865661115E-2    4.900485176201670E-1   -1.716151452235631E-1
 6.529112743800000E9     5.567067129861175E-1   -6.842238897244191E-2   -7.830121788601584E-3   -3.086169555442176E-2   -8.499061235167353E-3   -3.079435687811350E-2    4.896467099146132E-1   -1.723575268770204E-1
 6.529123144600000E9     5.567548818572903E-1   -6.934672023683006E-2   -7.891021753526481E-3   -3.094646935242001E-2   -8.553032062164220E-3   -3.091932768345551E-2    4.892850947304546E-1   -1.734095800333408E-1
 6.529133545400000E9     5.565514576577283E-1   -7.014585766882753E-2   -7.901976961538536E-3   -3.105533830558878E-2   -8.614489529436692E-3   -3.111938787531847E-2    4.890370408412922E-1   -1.743362226636723E-1
 6.529143946200000E9     5.563645779587321E-1   -7.104865380413034E-2   -8.020304855553427E-3   -3.131042451673587E-2   -8.671025304197819E-3   -3.119369870238214E-2    4.885772442588385E-1   -1.753547415660487E-1
 6.529154347000000E9     5.561715472301298E-1   -7.175126329168292E-2   -8.226312095762555E-3   -3.132781220771810E-2   -8.845862667744562E-3   -3.140227669502608E-2    4.881609058862781E-1   -1.761540388897749E-1
 6.529164747800000E9     5.560395713220516E-1   -7.271500600960303E-2   -8.209116663677372E-3   -3.154953123975500E-2   -8.915576380915391E-3   -3.154721158743851E-2    4.879410795551897E-1   -1.769115324248702E-1
 6.529175148600000E9     5.561048313883289E-1   -7.345892968553072E-2   -8.369740948583339E-3   -3.179186300603020E-2   -9.056804160432875E-3   -3.159630801862971E-2    4.874848285297431E-1   -1.779314046579763E-1
 6.529185549400000E9     5.558859856459573E-1   -7.422269269220279E-2   -8.558767642672431E-3   -3.179876452438736E-2   -9.070566602159512E-3   -3.184425633347668E-2    4.871935515108550E-1   -1.787844676046632E-1
 6.529195950200000E9     5.558682854323316E-1   -7.520623045439163E-2   -8.533922650415056E-3   -3.208519911112820E-2   -9.168806989269815E-3   -3.205243979398619E-2    4.868715217923470E-1   -1.795879912346865E-1
 6.529206351000000E9     5.556240946122202E-1   -7.603276578953334E-2   -8.545023289436614E-3   -3.220616743995620E-2   -9.270162249526202E-3   -3.213004127066988E-2    4.864059558185750E-1   -1.804538536909292E-1
 6.529216751800000E9     5.555451525417923E-1   -7.689538789456023E-2   -8.818790796650348E-3   -3.231491132809880E-2   -9.484560265335933E-3   -3.226685751011722E-2    4.862020279378640E-1   -1.813552215189367E-1
 6.529227152600000E9     5.554701429933387E-1   -7.774590493095179E-2   -8.992258407650701E-3   -3.249007108552237E-2   -9.672191443802360E-3   -3.240996836799558E-2    4.856293207052683E-1   -1.824027078356202E-1
 6.529237553400000E9     5.552547682670115E-1   -7.855157980901560E-2   -9.170254605530588E-3   -3.259189174769256E-2   -9.717937999786300E-3   -3.249286282311600E-2    4.852390905147472E-1   -1.833710909182241E-1
 6.529247954200000E9     5.551226069673126E-1   -7.934851186027915E-2   -9.214472699583290E-3   -3.282417761009877E-2   -9.767849639327178E-3   -3.264723249858194E-2    4.848619841798309E-1   -1.842046407498726E-1
 6.529258355000000E9     5.551182552926188E-1   -8.015259832224340E-2   -9.202678607721967E-3   -3.301529825755308E-2   -9.918836075868138E-3   -3.290539201085709E-2    4.845398760268581E-1   -1.851983757326449E-1
 6.529268755800000E9     5.548869611898464E-1   -8.107512425309150E-2   -9.373103326291076E-3   -3.316508793526007E-2   -1.005298872611139E-2   -3.305513503824085E-2    4.840767352204027E-1   -1.860532438720219E-1
 6.529279156600000E9     5.548347406927228E-1   -8.196179998671392E-2   -9.438927408205761E-3   -3.337655177392610E-2   -1.015518632504290E-2   -3.316328027326551E-2    4.837424577540400E-1   -1.870720790594699E-1
 6.529289557400000E9     5.547699072623988E-1   -8.277432871554349E-2   -9.649188396901917E-3   -3.342985421033260E-2   -1.031384326466958E-2   -3.334312449328764E-2    4.832770226394005E-1   -1.880831533614399E-1
 6.529299958200000E9     5.546076148580108E-1   -8.354840722713924E-2   -9.740719886214052E-3   -3.365464163714384E-2   -1.042789017047048E-2   -3.352516918053008E-2    4.829780499130404E-1   -1.888227290051797E-1
 6.529310359000000E9     5.544468592932472E-1   -8.443479891765937E-2   -9.751683538963022E-3   -3.378715700280159E-2   -1.043044967654284E-2   -3.364954586885714E-2    4.826079140476748E-1   -1.897364992858348E-1
 6.529320759800000E9     5.543083305888202E-1   -8.532089038796975E-2   -9.911792641607907E-3   -3.393107859772367E-2   -1.057038302130993E-2   -3.388253136332927E-2    4.819229575416070E-1   -1.906394391260562E-1
 6.529331160600000E9     5.541591459961200E-1   -8.617648635939855E-2   -1.002746089046460E-2   -3.424266658956826E-2   -1.077826411192037E-2   -3.400768056112011E-2    4.815569548783724E-1   -1.916929985408669E-1
 6.529341561400000E9     5.539910274459912E-1   -8.712145288729409E-2   -1.025337218408553E-2   -3.434619457167127E-2   -1.082187929740295E-2   -3.421654002388580E-2    4.812686985748745E-1   -1.926050945722201E-1
 6.529351962200000E9     5.538730099009891E-1   -8.795702892373784E-2   -1.033732352815918E-2   -3.445499621993214E-2   -1.103797993337036E-2   -3.435157796637309E-2    4.809377892823687E-1   -1.934804921797831E-1
 6.529362363000000E9     5.536984109667482E-1   -8.869474041490231E-2   -1.040853374817577E-2   -3.475524996134637E-2   -1.111476844878758E-2   -3.445768434953032E-2    4.805295572460109E-1   -1.945101505850475E-1
 6.529372763800000E9     5.534271102925981E-1   -8.949501225999446E-2   -1.057375719561479E-2   -3.498264936253838E-2   -1.122118225457543E-2   -3.470991269958222E-2    4.799923100769721E-1   -1.953464793966984E-1
 6.529383164600000E9     5.533730682460746E-1   -9.052972308093446E-2   -1.049607724679671E-2   -3.502625062529177E-2   -1.149612764047762E-2   -3.484924546295873E-2    4.795160724391034E-1   -1.964045412980676E-1
 6.529393565400000E9     5.531836803631645E-1   -9.127353792874082E-2   -1.083808191192177E-2   -3.524854558771644E-2   -1.154264268357645E-2   -3.501451694276465E-2    4.790586048982075E-1   -1.974302775691575E-1
 6.529403966200000E9     5.531409429816988E-1   -9.219286151821418E-2   -1.095916810725669E-2   -3.532637376427128E-2   -1.167282916034119E-2   -3.520018799154272E-2    4.787132560810866E-1   -1.982164796248395E-1
 6.529414367000000E9     5.529472268244299E-1   -9.292644785115672E-2   -1.107253389546054E-2   -3.562635798312084E-2   -1.186061504260325E-2   -3.544525799865912E-2    4.783101070326365E-1   -1.992781722933248E-1
 6.529424767800000E9     5.527217951663707E-1   -9.391920982983511E-2   -1.115482138937377E-2   -3.577535983818653E-2   -1.201799352393276E-2   -3.558563830487736E-2    4.778462281891389E-1   -2.003841634846017E-1
 6.529435168600000E9     5.525041746596545E-1   -9.470961880467986E-2   -1.137278241321538E-2   -3.602322049075719E-2   -1.211741708974142E-2   -3.579754887455194E-2    4.773333027486283E-1   -2.011745217800926E-1
 6.529445569400000E9     5.524070165754039E-1   -9.559977367497709E-2   -1.167889810510744E-2   -3.609595383089505E-2   -1.229478760688208E-2   -3.597882420974329E-2    4.768735152293080E-1   -2.021630483058251E-1
 6.529455970200000E9     5.522707650880010E-1   -9.649687308448197E-2   -1.163604982155428E-2   -3.641849140463049E-2   -1.237998687814250E-2   -3.614942001938757E-2    4.762907317241492E-1   -2.031687325570249E-1
 6.529466371000000E9     5.521206448884348E-1   -9.740535102887514E-2   -1.183821858440033E-2   -3.661354473532791E-2   -1.256799733534952E-2   -3.645587990213849E-2    4.757094187763227E-1   -2.040821074770734E-1
 6.529476771800000E9     5.518834556914364E-1   -9.805979919079995E-2   -1.204736682078504E-2   -3.684170592386915E-2   -1.266718040844548E-2   -3.654358935235273E-2    4.752826637650672E-1   -2.049549972689640E-1
 6.529487172600000E9     5.517243432059663E-1   -9.898295028154946E-2   -1.216663167381216E-2   -3.690050706466873E-2   -1.289856792389912E-2   -3.674633079121414E-2    4.749613243663252E-1   -2.060074623969547E-1
 6.529497573400000E9     5.515950584292932E-1   -9.997009439859314E-2   -1.215027954403428E-2   -3.702443339914838E-2   -1.296681463011824E-2   -3.682261829374481E-2    4.745111275193973E-1   -2.072146207455211E-1
 6.529507974200000E9     5.514136558383587E-1   -1.008575809207979E-1   -1.238788832901241E-2   -3.739266929548393E-2   -1.322210990524816E-2   -3.718049095812755E-2    4.739402627646667E-1   -2.079974828774343E-1
 6.529518375000000E9     5.512497961350681E-1   -1.016492112815912E-1   -1.254196092317940E-2   -3.769719335045820E-2   -1.337571662813164E-2   -3.729746490171235E-2    4.734582887896037E-1   -2.089186354193724E-1
 6.529528775800000E9     5.509750203862668E-1   -1.026018047846444E-1   -1.265132894635190E-2   -3.787588564287730E-2   -1.344469377281395E-2   -3.760201847683845E-2    4.729604858357672E-1   -2.100602745578265E-1
 6.529539176600000E9     5.508453108876686E-1   -1.034965513830064E-1   -1.290093065518094E-2   -3.800157270275967E-2   -1.361209374081168E-2   -3.779724421244963E-2    4.723943358864718E-1   -2.110820659256691E-1
 6.529549577400000E9     5.506291890089628E-1   -1.043153641076922E-1   -1.308270249858897E-2   -3.817882067145788E-2   -1.392263460027983E-2   -3.803572377734574E-2    4.719708907306621E-1   -2.119010189130941E-1
 6.529559978200000E9     5.504945012132262E-1   -1.050830673563433E-1   -1.310310781178765E-2   -3.846250336362986E-2   -1.403090226610206E-2   -3.815499784798351E-2    4.713107702111284E-1   -2.129113351256334E-1
 6.529570379000000E9     5.502804302020826E-1   -1.059429093598656E-1   -1.326956171192495E-2   -3.871894247935173E-2   -1.415478612937428E-2   -3.845660329820892E-2    4.709213476228517E-1   -2.139576275178731E-1
 6.529580779800000E9     5.500925561815924E-1   -1.070151587154797E-1   -1.351662582032010E-2   -3.881980716252704E-2   -1.438221832663437E-2   -3.865161049067655E-2    4.704325984375752E-1   -2.150862583793946E-1
 6.529591180600000E9     5.499107613269750E-1   -1.077741666420149E-1   -1.372374375408182E-2   -3.909865384963578E-2   -1.457679868589525E-2   -3.895022769062834E-2    4.698507148517395E-1   -2.160132675493465E-1
 6.529601581400000E9     5.496169796118023E-1   -1.087643970813250E-1   -1.389237437834533E-2   -3.942886204498110E-2   -1.483321481242051E-2   -3.905922360085983E-2    4.691434276757905E-1   -2.171184947152175E-1
 6.529611982200000E9     5.494804169629234E-1   -1.095890909497245E-1   -1.394728151876885E-2   -3.946953192997394E-2   -1.499194687095356E-2   -3.929174236291118E-2    4.687645231524479E-1   -2.180971925194324E-1
 6.529622383000000E9     5.493668471154837E-1   -1.104757260229103E-1   -1.422008534020600E-2   -3.977717272087295E-2   -1.515118915057765E-2   -3.962800146066547E-2    4.681945560716163E-1   -2.190317528309048E-1
 6.529632783800000E9     5.490856631399054E-1   -1.113911843208530E-1   -1.439067538820852E-2   -4.005634680763699E-2   -1.529567570679536E-2   -3.974643933361967E-2    4.675329180911409E-1   -2.201937585748470E-1
 6.529643184600000E9     5.490099461236226E-1   -1.122031145176724E-1   -1.467332687073174E-2   -4.039988676068435E-2   -1.548401905242558E-2   -3.999982662866165E-2    4.670770554857181E-1   -2.212070088157557E-1
 6.529653585400000E9     5.486825658507872E-1   -1.131827128481427E-1   -1.477578687371732E-2   -4.050143468866994E-2   -1.564572096985480E-2   -4.020883409698237E-2    4.663634527484605E-1   -2.221680734013587E-1
 6.529663986200000E9     5.484596994421835E-1   -1.139606420780173E-1   -1.500820213611366E-2   -4.087076527138474E-2   -1.595578125860536E-2   -4.043904814605024E-2    4.659107373721652E-1   -2.232825849437801E-1
 6.529674387000000E9     5.482006666852569E-1   -1.149832084925255E-1   -1.504744845589725E-2   -4.099586002777549E-2   -1.608830676382219E-2   -4.055643638466139E-2    4.653071756236983E-1   -2.244873391956814E-1
 6.529684787800000E9     5.479621218799346E-1   -1.157834143360549E-1   -1.529308457764311E-2   -4.115639301313380E-2   -1.634319902599219E-2   -4.103823963021407E-2    4.646211469079305E-1   -2.254558997999660E-1
 6.529695188600000E9     5.478166554552633E-1   -1.166804246459735E-1   -1.561358827471084E-2   -4.165880827799034E-2   -1.646595765113209E-2   -4.117602365501827E-2    4.642033672934667E-1   -2.264354997963974E-1
 6.529705589400000E9     5.476755968134088E-1   -1.176018225436752E-1   -1.580071534113217E-2   -4.177827949726156E-2   -1.667995556680457E-2   -4.147324957770343E-2    4.633699921459089E-1   -2.274631948790288E-1
 6.529715990200000E9     5.474602471998932E-1   -1.185069089312917E-1   -1.598516217789744E-2   -4.189636185450603E-2   -1.693902406714416E-2   -4.171828388139703E-2    4.626994196724597E-1   -2.286257124493244E-1
 6.529726391000000E9     5.471401707341643E-1   -1.194526764041558E-1   -1.618121618336086E-2   -4.222615161409365E-2   -1.721638961974621E-2   -4.202756699428829E-2    4.621482900010508E-1   -2.296391263706240E-1
 6.529736791800000E9     5.468118447111940E-1   -1.203157331044654E-1   -1.639688335993858E-2   -4.260793798228382E-2   -1.741231839477815E-2   -4.223085613799753E-2    4.616333191375352E-1   -2.307226163978224E-1
 6.529747192600000E9     5.466623675288619E-1   -1.211159527736275E-1   -1.648893389821914E-2   -4.268763820996134E-2   -1.764424113865491E-2   -4.239489383217943E-2    4.609058493466581E-1   -2.318941369791062E-1
 6.529757593400000E9     5.464302554845686E-1   -1.221385374679774E-1   -1.696329828007767E-2   -4.297834684081381E-2   -1.787124650798528E-2   -4.275048032466083E-2    4.602655158045285E-1   -2.328643018150819E-1
 6.529767994200000E9     5.460934760277083E-1   -1.230607608705823E-1   -1.704039772376563E-2   -4.337337332927967E-2   -1.803302746414925E-2   -4.302678951599956E-2    4.597963260508370E-1   -2.338095560325901E-1
 6.529778395000000E9     5.458593403393905E-1   -1.239878144333501E-1   -1.727927558348946E-2   -4.361363626146945E-2   -1.837870597799931E-2   -4.333182648381108E-2    4.591140490289366E-1   -2.350990406919930E-1
 6.529788795800000E9     5.457100584420616E-1   -1.249212666189161E-1   -1.766024151601121E-2   -4.400247368176850E-2   -1.861860232839767E-2   -4.370825448094012E-2    4.583605056522496E-1   -2.362278133473407E-1
 6.529799196600000E9     5.453840837902837E-1   -1.258006931343501E-1   -1.776438938270732E-2   -4.416687434853245E-2   -1.878991330874647E-2   -4.381762527143289E-2    4.576244435986586E-1   -2.373814364554158E-1
 6.529809597400000E9     5.451485457180770E-1   -1.267449673438062E-1   -1.808678904836958E-2   -4.452864111146708E-2   -1.912828032184685E-2   -4.410200419723155E-2    4.569837389165183E-1   -2.384980915701103E-1
 6.529819998200000E9     5.449257015147184E-1   -1.276373322634109E-1   -1.834856336074592E-2   -4.480701045994678E-2   -1.941797645141283E-2   -4.446645927124065E-2    4.561341014707300E-1   -2.395276590000546E-1
 6.529830399000000E9     5.445097358705062E-1   -1.285402201958155E-1   -1.861231374325259E-2   -4.503094273984549E-2   -1.960444151096992E-2   -4.475420716798708E-2    4.555047104726525E-1   -2.408117886536960E-1
 6.529840799800000E9     5.443569807617294E-1   -1.295596973287150E-1   -1.872747669922392E-2   -4.534887319215329E-2   -1.980263392207291E-2   -4.490439262473785E-2    4.548326907579671E-1   -2.419529386406300E-1
 6.529851200600000E9     5.441166063417359E-1   -1.304542564707681E-1   -1.888274098241304E-2   -4.557420692697450E-2   -2.015319231946824E-2   -4.529563341636258E-2    4.539830491284067E-1   -2.430848062438078E-1
 6.529861601400000E9     5.438184550695762E-1   -1.313003222710561E-1   -1.931739953189918E-2   -4.596447617069344E-2   -2.037768803965925E-2   -4.561017513399564E-2    4.533707327702626E-1   -2.441937192229084E-1
 6.529872002200000E9     5.435693037147515E-1   -1.323167922859651E-1   -1.978033150519020E-2   -4.634270702126130E-2   -2.074100762238780E-2   -4.585008242066294E-2    4.525007472104041E-1   -2.453774535738857E-1
 6.529882403000000E9     5.432270856131173E-1   -1.332311440737829E-1   -1.999062552356398E-2   -4.662423929364718E-2   -2.103321481902946E-2   -4.620611941482242E-2    4.517336335541451E-1   -2.465313095436023E-1
 6.529892803800000E9     5.430090775151303E-1   -1.341485176244886E-1   -2.012574887736837E-2   -4.692886901099455E-2   -2.127399116097416E-2   -4.648781060566644E-2    4.509711754105306E-1   -2.477009343427562E-1
 6.529903204600000E9     5.426956647963069E-1   -1.351842347120035E-1   -2.035962524221070E-2   -4.731674675903166E-2   -2.156648969755525E-2   -4.686175041130721E-2    4.501679106446452E-1   -2.487931854177460E-1
 6.529913605400000E9     5.423527660914550E-1   -1.360788085343637E-1   -2.081855511899423E-2   -4.769335541929252E-2   -2.186769711238989E-2   -4.709393713790213E-2    4.492371750159732E-1   -2.500848206186200E-1
 6.529924006200000E9     5.420036627317213E-1   -1.368373192680214E-1   -2.102147156487423E-2   -4.780099273186120E-2   -2.223829005027491E-2   -4.745204315405511E-2    4.484806679936990E-1   -2.511676538600508E-1
 6.529934407000000E9     5.417065989993785E-1   -1.379645865851546E-1   -2.145184368203757E-2   -4.828169141102446E-2   -2.253336663794232E-2   -4.788030204679653E-2    4.476687488433490E-1   -2.524176768744649E-1
 6.529944807800000E9     5.413924183037009E-1   -1.389467150031734E-1   -2.180890088110234E-2   -4.873260304235599E-2   -2.284138922477191E-2   -4.820845094168454E-2    4.469889949142869E-1   -2.535337594450662E-1
 6.529955208600000E9     5.410281311426753E-1   -1.398311079978987E-1   -2.206657761470413E-2   -4.892691944766942E-2   -2.320696085248356E-2   -4.851009552835551E-2    4.461350664619566E-1   -2.546646573543615E-1
 6.529965609400000E9     5.408643941620979E-1   -1.408676092030049E-1   -2.233535890914224E-2   -4.951596327346149E-2   -2.354960398179656E-2   -4.883397618317070E-2    4.452726521005675E-1   -2.559466190354018E-1
 6.529976010200000E9     5.405707026068369E-1   -1.417954113039602E-1   -2.270122522328566E-2   -4.967820504352695E-2   -2.392598962039481E-2   -4.925279016655656E-2    4.442262409939748E-1   -2.572803264399381E-1
 6.529986411000000E9     5.402717903645780E-1   -1.428076851110019E-1   -2.301623856159209E-2   -5.008847613406069E-2   -2.419961427475794E-2   -4.958544389264635E-2    4.434227352106999E-1   -2.585772414110147E-1
