#  HZ   S   RI   R     50.00 
! Rohde & Schwarz Vector Network Analyzer 
! Rohde-Schwarz,ZNB20-2Port,1311601062101988,3.16
! Created: UTC 3/21/2024, 1:11:57 AM
! freq[Hz]                re:S11                  im:S11                  re:S21                  im:S21                  re:S12                  im:S12                  re:S22                  im:S22
 6.529061045000000E9     5.573203760355107E-1   -6.419510407899269E-2   -7.286395899062767E-3   -3.038650828136131E-2   -7.853501498128726E-3   -3.000638834476123E-2    4.910861413018004E-1   -1.678432549956915E-1
 6.529071421850000E9     5.571541831865323E-1   -6.501917713498674E-2   -7.454282362230907E-3   -3.029414595663583E-2   -8.040743731208749E-3   -3.015441783099744E-2    4.906499056971358E-1   -1.688035700191534E-1
 6.529081798700000E9     5.570452855927159E-1   -6.592099855187943E-2   -7.596849465936729E-3   -3.037808335249504E-2   -8.032882731135112E-3   -3.025179919985987E-2    4.904619451506935E-1   -1.696304963349433E-1
 6.529092175550000E9     5.570358419606383E-1   -6.671789289527633E-2   -7.521921711213886E-3   -3.055770691028141E-2   -8.214579929560489E-3   -3.035965317641671E-2    4.901020543637858E-1   -1.704602297071410E-1
 6.529102552400000E9     5.569362574180667E-1   -6.762494140047309E-2   -7.635802537733030E-3   -3.082820344037566E-2   -8.283783217850752E-3   -3.055430195548861E-2    4.897770986947594E-1   -1.714207360027996E-1
 6.529112929250000E9     5.567521153454917E-1   -6.842337747284653E-2   -7.649917911812205E-3   -3.089756724900367E-2   -8.396785639416459E-3   -3.069893996198645E-2    4.894153850613222E-1   -1.723436266867825E-1
 6.529123306100000E9     5.566309737145804E-1   -6.929276300672399E-2   -7.903397316894566E-3   -3.089242403919825E-2   -8.550137030751507E-3   -3.076382643826122E-2    4.890947710231137E-1   -1.734048791723395E-1
 6.529133682950000E9     5.564674306938038E-1   -7.003964174504428E-2   -8.008719734002440E-3   -3.119557668841126E-2   -8.664133323585052E-3   -3.098243581225495E-2    4.886838106283113E-1   -1.739456788269214E-1
 6.529144059800000E9     5.563650485428311E-1   -7.092519124762996E-2   -8.008670621306101E-3   -3.118803906852751E-2   -8.686614659552739E-3   -3.108762241115080E-2    4.882444763737289E-1   -1.750428122672520E-1
 6.529154436650000E9     5.563891181557730E-1   -7.162378102710122E-2   -8.267592034714057E-3   -3.139192085813644E-2   -8.848714975386553E-3   -3.126269726773466E-2    4.881017026528973E-1   -1.758314989279575E-1
 6.529164813500000E9     5.561886673046617E-1   -7.250738182714554E-2   -8.128593904085261E-3   -3.149118526035490E-2   -8.860211974957290E-3   -3.138352534899169E-2    4.876587648117059E-1   -1.768783405919001E-1
 6.529175190350000E9     5.561277225128112E-1   -7.347167594601281E-2   -8.359985789402542E-3   -3.169450985123734E-2   -8.915475030874349E-3   -3.159026871484038E-2    4.873600116448245E-1   -1.777432589078828E-1
 6.529185567200000E9     5.559402975672092E-1   -7.420488787343180E-2   -8.515520951059051E-3   -3.199002216803783E-2   -9.153824782963201E-3   -3.173726244770973E-2    4.869657448294764E-1   -1.786483125233090E-1
 6.529195944050000E9     5.559021088848691E-1   -7.504751668730997E-2   -8.510422188920614E-3   -3.192311686849158E-2   -9.104671424142632E-3   -3.180911308059031E-2    4.867312661234922E-1   -1.796721295106062E-1
 6.529206320900000E9     5.557559448927850E-1   -7.588286987809470E-2   -8.641753426826085E-3   -3.211563376781866E-2   -9.246919162559146E-3   -3.201425368410116E-2    4.863363768169934E-1   -1.803353332967117E-1
 6.529216697750000E9     5.556469876418857E-1   -7.684389018223883E-2   -8.706300199152040E-3   -3.220579950756431E-2   -9.449479781118712E-3   -3.219049564574538E-2    4.858741845812833E-1   -1.813783709818488E-1
 6.529227074600000E9     5.554701718679996E-1   -7.762087331647016E-2   -8.855945033582542E-3   -3.239395215145815E-2   -9.440722863566588E-3   -3.223333549021412E-2    4.857163005200927E-1   -1.822539040430596E-1
 6.529237451450000E9     5.553956716347479E-1   -7.842833632884562E-2   -8.869784464740746E-3   -3.257180640197205E-2   -9.599933249600222E-3   -3.245914299962792E-2    4.850358097055162E-1   -1.831590709086478E-1
 6.529247828300000E9     5.551175770886626E-1   -7.916895587364001E-2   -9.075976252384294E-3   -3.277872499199598E-2   -9.776949233191366E-3   -3.266213147119319E-2    4.847791446459925E-1   -1.841007406995386E-1
 6.529258205150000E9     5.550708350181273E-1   -8.015776430781794E-2   -9.168302278111828E-3   -3.280949840729819E-2   -9.809477493891997E-3   -3.282986345073191E-2    4.843153448428588E-1   -1.849535814657733E-1
 6.529268582000000E9     5.549385154672578E-1   -8.090127826622304E-2   -9.288848100420572E-3   -3.295793587141676E-2   -9.915668305238197E-3   -3.291533180713745E-2    4.839661495351652E-1   -1.859242858816706E-1
 6.529278958850000E9     5.548731183616097E-1   -8.178048887352671E-2   -9.407512530787143E-3   -3.318757118354083E-2   -1.005252461218400E-2   -3.300866962624870E-2    4.837219124938528E-1   -1.870125477260541E-1
 6.529289335700000E9     5.547572889669723E-1   -8.270268791026908E-2   -9.487774067975109E-3   -3.341092350435926E-2   -1.023076839365765E-2   -3.323632445044302E-2    4.832025951047066E-1   -1.878346978885395E-1
 6.529299712550000E9     5.545264690633439E-1   -8.336795187402751E-2   -9.607091105645570E-3   -3.350781112372166E-2   -1.024785890263228E-2   -3.333547110349872E-2    4.827044939430234E-1   -1.887910746428499E-1
 6.529310089400000E9     5.544434191581245E-1   -8.421996731270112E-2   -9.701378986546331E-3   -3.368854907458525E-2   -1.041531620231623E-2   -3.354760297512460E-2    4.824364002596356E-1   -1.895976231280723E-1
 6.529320466250000E9     5.543011797538878E-1   -8.520329108726284E-2   -9.833891738458323E-3   -3.398570599268882E-2   -1.064273255712412E-2   -3.370057904188062E-2    4.820519145614323E-1   -1.904948859509621E-1
 6.529330843100000E9     5.541023687930789E-1   -8.611581579099641E-2   -1.005654996740921E-2   -3.402141275464148E-2   -1.061759736882151E-2   -3.386528285019439E-2    4.814457731951942E-1   -1.914087088799134E-1
 6.529341219950000E9     5.540311411243174E-1   -8.688942731707790E-2   -1.026538458494424E-2   -3.411854100714887E-2   -1.087318219888570E-2   -3.403310894965240E-2    4.811198528503439E-1   -1.922848239225561E-1
 6.529351596800000E9     5.538959240118699E-1   -8.771597097506238E-2   -1.021830306186997E-2   -3.424108524206811E-2   -1.093779353766591E-2   -3.420631465194886E-2    4.807291298963512E-1   -1.932457090019957E-1
 6.529361973650000E9     5.537061880575915E-1   -8.854850927858855E-2   -1.034209953248716E-2   -3.465574874983220E-2   -1.109442765347747E-2   -3.433810816148250E-2    4.801963649112687E-1   -1.941064155168092E-1
 6.529372350500000E9     5.535302522642881E-1   -8.942448842966089E-2   -1.051303923300100E-2   -3.483501713480058E-2   -1.119433588628748E-2   -3.453780625969898E-2    4.797377384329930E-1   -1.952090825042201E-1
 6.529382727350000E9     5.533762084182827E-1   -9.031362118548296E-2   -1.060578479505393E-2   -3.495906767225786E-2   -1.133128086833604E-2   -3.474463931287418E-2    4.793461338253766E-1   -1.959543922813129E-1
 6.529393104200000E9     5.532121445181761E-1   -9.108724786979136E-2   -1.082424509253077E-2   -3.509900576189376E-2   -1.146580809404233E-2   -3.496266957016724E-2    4.788697391540890E-1   -1.969773028673437E-1
 6.529403481050000E9     5.531500944780396E-1   -9.199277268318706E-2   -1.077976338286166E-2   -3.531474830316973E-2   -1.174792797958587E-2   -3.503009802375898E-2    4.784109519466750E-1   -1.981052300826554E-1
 6.529413857900000E9     5.528961185585598E-1   -9.275036823280425E-2   -1.097640607528482E-2   -3.552559970285234E-2   -1.173937979179380E-2   -3.528484299966591E-2    4.781779302079547E-1   -1.991133083939451E-1
 6.529424234750000E9     5.528315653268858E-1   -9.376960636513013E-2   -1.111029524418756E-2   -3.552257076317066E-2   -1.198600782952663E-2   -3.550249746539689E-2    4.777320489716712E-1   -1.999664374174930E-1
 6.529434611600000E9     5.525986073348493E-1   -9.461848022295222E-2   -1.146196476526909E-2   -3.575645362052920E-2   -1.206819905110179E-2   -3.576601858331429E-2    4.771984390583422E-1   -2.008720778087470E-1
 6.529444988450000E9     5.524411124677767E-1   -9.557958213534702E-2   -1.152046436175687E-2   -3.597947063627172E-2   -1.229355558173899E-2   -3.582178605500663E-2    4.767013829607356E-1   -2.019100418565793E-1
 6.529455365300000E9     5.522429565759286E-1   -9.636204044968336E-2   -1.151669066924955E-2   -3.624247741535938E-2   -1.227966179596019E-2   -3.613056824227365E-2    4.761873820487041E-1   -2.027146617729700E-1
 6.529465742150000E9     5.521152745557196E-1   -9.710916756932716E-2   -1.161573232871278E-2   -3.638010751102302E-2   -1.247423349806227E-2   -3.616965871726067E-2    4.757994317763997E-1   -2.038618448993063E-1
 6.529476119000000E9     5.519467367759292E-1   -9.801566628514187E-2   -1.183653283156477E-2   -3.664361883422262E-2   -1.263001394902893E-2   -3.635302696819881E-2    4.751814065316137E-1   -2.047794144362867E-1
 6.529486495850000E9     5.516890471551036E-1   -9.882181820077210E-2   -1.200783450159633E-2   -3.675927785499197E-2   -1.284056223357944E-2   -3.667672300716543E-2    4.747868863401385E-1   -2.058528088613766E-1
 6.529496872700000E9     5.516519065497897E-1   -9.968694966738044E-2   -1.224208075098362E-2   -3.704177108335849E-2   -1.293452222761641E-2   -3.684822125751718E-2    4.742722796613340E-1   -2.066898789905923E-1
 6.529507249550000E9     5.515369899861607E-1   -1.005357713390130E-1   -1.232478422048936E-2   -3.728120876079376E-2   -1.306635059675559E-2   -3.701745705778780E-2    4.736863281911558E-1   -2.077152612512930E-1
 6.529517626400000E9     5.512581018864491E-1   -1.014525429748778E-1   -1.240236900030813E-2   -3.730855137855946E-2   -1.322808468866189E-2   -3.733889130302986E-2    4.733223463877249E-1   -2.085694246357625E-1
 6.529528003250000E9     5.510044307429841E-1   -1.024180375102746E-1   -1.259693320563189E-2   -3.767410676152413E-2   -1.345584988679139E-2   -3.738749262882795E-2    4.728589697821922E-1   -2.096702294397561E-1
 6.529538380100000E9     5.509765574696225E-1   -1.032241014199513E-1   -1.291383347997937E-2   -3.781247151738653E-2   -1.360126552519022E-2   -3.762137051384416E-2    4.724154795191328E-1   -2.106465986897650E-1
 6.529548756950000E9     5.506837227361202E-1   -1.040498840761494E-1   -1.295429781674782E-2   -3.810026583455153E-2   -1.373211834911898E-2   -3.778804657076308E-2    4.717901951954083E-1   -2.117106867611126E-1
 6.529559133800000E9     5.504510225435348E-1   -1.050167629436937E-1   -1.323197575176566E-2   -3.827026955831429E-2   -1.386537629339536E-2   -3.804738701383326E-2    4.712491790692040E-1   -2.126140260085038E-1
 6.529569510650000E9     5.502760815038956E-1   -1.057748380220483E-1   -1.321624793486597E-2   -3.851193603245689E-2   -1.416586494863965E-2   -3.826145614852756E-2    4.708934063157170E-1   -2.137271957313714E-1
 6.529579887500000E9     5.501556615489376E-1   -1.068089293803269E-1   -1.350927066724545E-2   -3.863750854243000E-2   -1.420780430721271E-2   -3.840477131856310E-2    4.701966626121024E-1   -2.148247024225219E-1
 6.529590264350000E9     5.498835157861295E-1   -1.075555590823902E-1   -1.372464908855823E-2   -3.896338683416511E-2   -1.448751318174918E-2   -3.865769143190124E-2    4.696779004767561E-1   -2.156234467853214E-1
 6.529600641200000E9     5.497172705238277E-1   -1.084680395534337E-1   -1.378002046444169E-2   -3.925540942183547E-2   -1.467035212875780E-2   -3.890528046162949E-2    4.691619165117826E-1   -2.167758205386270E-1
 6.529611018050000E9     5.494744429329275E-1   -1.093866509081665E-1   -1.407404216495063E-2   -3.936048207429539E-2   -1.474999675898060E-2   -3.918925151468514E-2    4.687303965039435E-1   -2.176860576265902E-1
 6.529621394900000E9     5.494325567100532E-1   -1.101516627210078E-1   -1.414160225232748E-2   -3.956674719038177E-2   -1.496596897166202E-2   -3.939893357787799E-2    4.679515349501357E-1   -2.188181295440350E-1
 6.529631771750000E9     5.490784916611244E-1   -1.111157739249293E-1   -1.441581443510729E-2   -3.978023430650583E-2   -1.514402021402823E-2   -3.957205886181844E-2    4.676155936753081E-1   -2.197819407504575E-1
 6.529642148600000E9     5.489131956501050E-1   -1.120900962016209E-1   -1.461434212945051E-2   -4.000626598599609E-2   -1.539989492983377E-2   -3.969957902751500E-2    4.670920445130927E-1   -2.207746586089887E-1
 6.529652525450000E9     5.487283415997600E-1   -1.128446918428738E-1   -1.476656713339444E-2   -4.044974376972983E-2   -1.551306486270440E-2   -4.004361046562664E-2    4.665197338290607E-1   -2.218247539260012E-1
 6.529662902300000E9     5.484909778931524E-1   -1.138101349782442E-1   -1.482896901366488E-2   -4.061410723279294E-2   -1.579230066882190E-2   -4.032484380648377E-2    4.658930961655973E-1   -2.230945924486030E-1
 6.529673279150000E9     5.482996741497203E-1   -1.147340079929341E-1   -1.517981857696552E-2   -4.082605971887324E-2   -1.595220683776070E-2   -4.056390325487304E-2    4.652032149243490E-1   -2.239817298033403E-1
 6.529683656000000E9     5.481414900829213E-1   -1.156522077811951E-1   -1.517454982796920E-2   -4.092915268083035E-2   -1.614854259646613E-2   -4.085865011276128E-2    4.646709161117903E-1   -2.250101935023204E-1
 6.529694032850000E9     5.479033756026933E-1   -1.165288146229535E-1   -1.539643383564909E-2   -4.121312165057855E-2   -1.634422919406570E-2   -4.102175642239598E-2    4.641246357893324E-1   -2.260247420771526E-1
 6.529704409700000E9     5.475889147030791E-1   -1.173360086315547E-1   -1.567377933365958E-2   -4.153682414363839E-2   -1.662498089481130E-2   -4.123136935709692E-2    4.634893358116601E-1   -2.271097673732971E-1
 6.529714786550000E9     5.474471987781345E-1   -1.181652731614900E-1   -1.584517034216788E-2   -4.186557146863507E-2   -1.679028595632384E-2   -4.153342693017041E-2    4.628130237533148E-1   -2.279909606484757E-1
 6.529725163400000E9     5.471578154811177E-1   -1.191614254987413E-1   -1.602816906378408E-2   -4.209805012558415E-2   -1.702909320352285E-2   -4.175232212228642E-2    4.622572661860739E-1   -2.291966300126864E-1
 6.529735540250000E9     5.469865219630444E-1   -1.200199110048121E-1   -1.636211075925987E-2   -4.236594470555471E-2   -1.719258492734062E-2   -4.209814795464817E-2    4.616010820452812E-1   -2.302582912118727E-1
 6.529745917100000E9     5.467041396735156E-1   -1.209172536877567E-1   -1.636340516236330E-2   -4.241470441597654E-2   -1.745503729084330E-2   -4.227632156753788E-2    4.608608919674873E-1   -2.313182033381753E-1
 6.529756293950000E9     5.464971271108360E-1   -1.218148512038972E-1   -1.671537376365770E-2   -4.278837212999473E-2   -1.766629879717308E-2   -4.249144387969131E-2    4.603002887482506E-1   -2.325119323250019E-1
 6.529766670800000E9     5.462199429137161E-1   -1.228249191791227E-1   -1.708005603178884E-2   -4.319892941014661E-2   -1.801107900586568E-2   -4.284323554189384E-2    4.595588978698666E-1   -2.335284628518815E-1
 6.529777047650000E9     5.460338927427124E-1   -1.235980524701032E-1   -1.717742484379976E-2   -4.347261446207791E-2   -1.819378825222989E-2   -4.308288558783491E-2    4.590264352797681E-1   -2.347405584530219E-1
 6.529787424500000E9     5.456751041620087E-1   -1.246112503187400E-1   -1.738675677660539E-2   -4.368273466551396E-2   -1.843579080098979E-2   -4.332971899044494E-2    4.582827501499273E-1   -2.357933239017488E-1
 6.529797801350000E9     5.453897962869368E-1   -1.255553830353356E-1   -1.768795123420370E-2   -4.409207816181612E-2   -1.862690462503625E-2   -4.363583087019627E-2    4.575685750023305E-1   -2.367722294725738E-1
 6.529808178200000E9     5.451915378015245E-1   -1.264299149084658E-1   -1.780377583023366E-2   -4.421015854906934E-2   -1.892830503296944E-2   -4.380319921044275E-2    4.568938590040889E-1   -2.379052347916742E-1
 6.529818555050000E9     5.449515301370944E-1   -1.273158776948568E-1   -1.816716047019579E-2   -4.456250001180238E-2   -1.916409126459022E-2   -4.430051864943418E-2    4.563473819634055E-1   -2.392014980572239E-1
 6.529828931900000E9     5.446424327750933E-1   -1.282736649759556E-1   -1.847480621606594E-2   -4.496283469636721E-2   -1.948435623507318E-2   -4.454119621186214E-2    4.554305271050594E-1   -2.401934325329504E-1
 6.529839308750000E9     5.443459050920639E-1   -1.292203381463044E-1   -1.857725248776448E-2   -4.508344190089578E-2   -1.971285989866225E-2   -4.487089063020024E-2    4.548866075256960E-1   -2.413756832421829E-1
 6.529849685600000E9     5.441743439116701E-1   -1.300709320715150E-1   -1.895513016070536E-2   -4.546440576138915E-2   -1.989197088818890E-2   -4.499010842173800E-2    4.539925593210499E-1   -2.424656861759310E-1
 6.529860062450000E9     5.439670846188107E-1   -1.310634310967624E-1   -1.910181303176752E-2   -4.579398430713175E-2   -2.021155608149471E-2   -4.530453007686223E-2    4.534056811968464E-1   -2.436156785787704E-1
 6.529870439300000E9     5.436431549743999E-1   -1.318865258236398E-1   -1.946019162349933E-2   -4.599621332488000E-2   -2.056146689808146E-2   -4.569765250520703E-2    4.526518333875604E-1   -2.447757920226170E-1
 6.529880816150000E9     5.434245834814386E-1   -1.328836958320508E-1   -1.976074326137044E-2   -4.636101321609456E-2   -2.074501520252573E-2   -4.605423242971229E-2    4.519067657440128E-1   -2.457760801307255E-1
 6.529891193000000E9     5.431040423266826E-1   -1.338698250734756E-1   -1.985775636821179E-2   -4.664771285865807E-2   -2.110717059372132E-2   -4.626310485229555E-2    4.511289266771562E-1   -2.469674808977270E-1
 6.529901569850000E9     5.427738096221462E-1   -1.347640881301205E-1   -2.039493315758548E-2   -4.702357585532031E-2   -2.132997532688382E-2   -4.663939742340891E-2    4.503840225993167E-1   -2.482974313791795E-1
 6.529911946700000E9     5.425202464630700E-1   -1.355431665285724E-1   -2.054409257925898E-2   -4.749810556941590E-2   -2.163141851898584E-2   -4.685599017725055E-2    4.494964536804137E-1   -2.494942611140639E-1
 6.529922323550000E9     5.422687762316554E-1   -1.367098743868085E-1   -2.091700100915553E-2   -4.781205430892517E-2   -2.190494539708786E-2   -4.724135930823589E-2    4.487638897683396E-1   -2.505033912558285E-1
 6.529932700400000E9     5.418162494277001E-1   -1.376431419756727E-1   -2.123752704159239E-2   -4.805941877040457E-2   -2.230348794429782E-2   -4.754719148576426E-2    4.480067811844349E-1   -2.517635751342611E-1
 6.529943077250000E9     5.415827493379791E-1   -1.386450780444879E-1   -2.145948876230001E-2   -4.837153050265112E-2   -2.268153303990791E-2   -4.799093428252634E-2    4.470892978552297E-1   -2.529189259365160E-1
 6.529953454100000E9     5.412924542090658E-1   -1.395096681885176E-1   -2.169646255260342E-2   -4.862993505199193E-2   -2.285494635678005E-2   -4.832144468414343E-2    4.463503645501097E-1   -2.543343031456685E-1
 6.529963830950000E9     5.410986429697785E-1   -1.404685726699631E-1   -2.205580256379067E-2   -4.897368510011423E-2   -2.325263031472095E-2   -4.862091299330692E-2    4.453189344610198E-1   -2.553513950042229E-1
 6.529974207800000E9     5.405598310007957E-1   -1.414591126305051E-1   -2.239881442407765E-2   -4.933777982456001E-2   -2.362209541643829E-2   -4.889621297174731E-2    4.444297204816041E-1   -2.565958707611035E-1
 6.529984584650000E9     5.403616127158791E-1   -1.424542668919285E-1   -2.266049608504815E-2   -4.969656646387410E-2   -2.394859413295288E-2   -4.927066943502346E-2    4.436523689674415E-1   -2.577882162314708E-1
 6.529994961500000E9     5.400307289700312E-1   -1.433553255206422E-1   -2.307725701028621E-2   -5.017794822068835E-2   -2.438077276013349E-2   -4.973327231981667E-2    4.428690437893787E-1   -2.590418807032252E-1
