#  HZ   S   RI   R     50.00 
! Rohde & Schwarz Vector Network Analyzer 
! Rohde-Schwarz,ZNB20-2Port,1311601062101988,3.16
! Created: UTC 3/21/2024, 1:12:19 AM
! freq[Hz]                re:S11                  im:S11                  re:S21                  im:S21                  re:S12                  im:S12                  re:S22                  im:S22
 6.529079228000000E9     5.570186634888752E-1   -6.522889792005085E-2   -7.318005596978677E-3   -3.012411833758310E-2   -7.986343001124286E-3   -3.009692549654046E-2    4.900807694577909E-1   -1.690976766987678E-1
 6.529089580575000E9     5.570213423229814E-1   -6.619492960121250E-2   -7.558680965785812E-3   -3.040054003472330E-2   -8.179763258468260E-3   -3.014906216482445E-2    4.897647056493655E-1   -1.700379139027072E-1
 6.529099933150000E9     5.569522095249657E-1   -6.695364928448887E-2   -7.638305979327092E-3   -3.041100889105297E-2   -8.145637567670377E-3   -3.036809824556097E-2    4.894126973458459E-1   -1.709219173911296E-1
 6.529110285725000E9     5.568533308206783E-1   -6.777664564246477E-2   -7.661616646641778E-3   -3.055186303471011E-2   -8.297028605628202E-3   -3.046218448437284E-2    4.890699125090162E-1   -1.717089400372557E-1
 6.529120638300000E9     5.566945796742159E-1   -6.863966670280341E-2   -7.676110671616921E-3   -3.069168314896788E-2   -8.403816055521022E-3   -3.057611068291927E-2    4.886855621516188E-1   -1.725727350708369E-1
 6.529130990875000E9     5.566527503810851E-1   -6.938912398467664E-2   -7.871006151902553E-3   -3.082342490027417E-2   -8.427766195560210E-3   -3.077663251509252E-2    4.882835752352818E-1   -1.734373979231125E-1
 6.529141343450000E9     5.564590013658688E-1   -7.027029270056868E-2   -7.786053704282454E-3   -3.114144734678352E-2   -8.516448545796217E-3   -3.098505889856084E-2    4.879247856302281E-1   -1.743653485514311E-1
 6.529151696025000E9     5.564400216313288E-1   -7.115178145557423E-2   -7.999813860558721E-3   -3.118328022698192E-2   -8.612596206683558E-3   -3.101676814575312E-2    4.877592126694653E-1   -1.753280284859449E-1
 6.529162048600000E9     5.562861494981278E-1   -7.191924959915784E-2   -8.198682021822308E-3   -3.135197315416759E-2   -8.784686672536906E-3   -3.113585142445952E-2    4.873366648226007E-1   -1.762675745795327E-1
 6.529172401175000E9     5.561019168514749E-1   -7.282749775343549E-2   -8.326181046833782E-3   -3.133892579849475E-2   -8.875574940987304E-3   -3.125852129973627E-2    4.869729640674896E-1   -1.770609838363809E-1
 6.529182753750000E9     5.561215987188420E-1   -7.356645699714144E-2   -8.164375667285393E-3   -3.150373011212066E-2   -9.000556652765220E-3   -3.146073951802621E-2    4.865955771553781E-1   -1.778882715519763E-1
 6.529193106325000E9     5.560955800793148E-1   -7.440104426649374E-2   -8.400869092323061E-3   -3.180937570181257E-2   -9.010916601891033E-3   -3.159509473810686E-2    4.862188120257412E-1   -1.786792301782325E-1
 6.529203458900000E9     5.557817705495433E-1   -7.529995494068335E-2   -8.547827680232446E-3   -3.177083515288574E-2   -9.221522032379694E-3   -3.177557150546507E-2    4.858811497885056E-1   -1.798454168055665E-1
 6.529213811475000E9     5.556526180497070E-1   -7.611031058472564E-2   -8.575478376708938E-3   -3.185231314150909E-2   -9.292671813469811E-3   -3.187956486254837E-2    4.854501810462999E-1   -1.806712196861670E-1
 6.529224164050000E9     5.555261060030683E-1   -7.694619123538171E-2   -8.683185379349864E-3   -3.229136598266884E-2   -9.337601056120177E-3   -3.197302949254142E-2    4.851110891557480E-1   -1.814491593101952E-1
 6.529234516625000E9     5.553808171723286E-1   -7.777806480930548E-2   -8.758512793407107E-3   -3.234050130500670E-2   -9.583065851867207E-3   -3.216034216575752E-2    4.847691004761810E-1   -1.824902610145617E-1
 6.529244869200000E9     5.551848261118575E-1   -7.859321293328009E-2   -9.010495653061359E-3   -3.237082015731588E-2   -9.697448380532270E-3   -3.236604891410001E-2    4.844660527373427E-1   -1.834117918045861E-1
 6.529255221775000E9     5.552408324568128E-1   -7.946216118451087E-2   -9.023061610207963E-3   -3.265079891239919E-2   -9.721599495230776E-3   -3.253503361657484E-2    4.840694868639401E-1   -1.841905377905392E-1
 6.529265574350000E9     5.551027240655344E-1   -8.024357261402687E-2   -9.069204291573247E-3   -3.274582605635248E-2   -9.894900992016287E-3   -3.267158948464680E-2    4.837495887915602E-1   -1.852322635036076E-1
 6.529275926925000E9     5.548770754113316E-1   -8.116133793958376E-2   -9.274114910094175E-3   -3.291925618287957E-2   -9.894349479471185E-3   -3.278983297191461E-2    4.832809307226662E-1   -1.860648990110928E-1
 6.529286279500000E9     5.547207683272691E-1   -8.193441750343304E-2   -9.526188235243736E-3   -3.303709334870110E-2   -1.007447952592343E-2   -3.290442360380735E-2    4.828554811428813E-1   -1.870221607944043E-1
 6.529296632075000E9     5.544757886021578E-1   -8.279262530049662E-2   -9.317344642039664E-3   -3.320483714307637E-2   -1.003184348090366E-2   -3.316747677963125E-2    4.824302013896150E-1   -1.879078871433932E-1
 6.529306984650000E9     5.544998674761670E-1   -8.363124897238162E-2   -9.503642327343995E-3   -3.352359549058666E-2   -1.027535243996262E-2   -3.333490672934231E-2    4.820669804517317E-1   -1.888114222751319E-1
 6.529317337225000E9     5.542780180330742E-1   -8.451691562716586E-2   -9.772449666692610E-3   -3.369650254896499E-2   -1.039148442228421E-2   -3.339376609086270E-2    4.816995526911030E-1   -1.898660577801080E-1
 6.529327689800000E9     5.544043344425928E-1   -8.535651890465648E-2   -9.858465709971504E-3   -3.376264958633843E-2   -1.050395440279537E-2   -3.358588292809938E-2    4.813132442330232E-1   -1.907522913507830E-1
 6.529338042375000E9     5.539875442361684E-1   -8.633973629929048E-2   -1.004181270076288E-2   -3.395864121650845E-2   -1.068298621361455E-2   -3.372332623265952E-2    4.809554109890852E-1   -1.916236439063516E-1
 6.529348394950000E9     5.539060867192777E-1   -8.703103400213767E-2   -1.006817926257677E-2   -3.400974493190773E-2   -1.087162333183007E-2   -3.393483278584551E-2    4.803593559740995E-1   -1.926747340925004E-1
 6.529358747525000E9     5.538476773115398E-1   -8.775095500659906E-2   -1.018614740022871E-2   -3.433856436197816E-2   -1.088201285490644E-2   -3.406577712328985E-2    4.800557830735210E-1   -1.935357835909925E-1
 6.529369100100000E9     5.536636558311155E-1   -8.875847913480484E-2   -1.033509832988491E-2   -3.446403412391632E-2   -1.101185146961011E-2   -3.431472123940248E-2    4.796622022358915E-1   -1.944145371643881E-1
 6.529379452675000E9     5.535402320161927E-1   -8.962379415029113E-2   -1.042587449099478E-2   -3.455685216765413E-2   -1.113017818359931E-2   -3.438826620296866E-2    4.792842182502671E-1   -1.953679429027510E-1
 6.529389805250000E9     5.533350567355716E-1   -9.051145344550433E-2   -1.055852408059011E-2   -3.473857892855359E-2   -1.131945829179644E-2   -3.470430437671752E-2    4.788105390439601E-1   -1.963288835781436E-1
 6.529400157825000E9     5.532470130603510E-1   -9.126471628015763E-2   -1.074592509410216E-2   -3.496110360163725E-2   -1.142555674900960E-2   -3.487957419168452E-2    4.782900819429612E-1   -1.972369439942927E-1
 6.529410510400000E9     5.530786809934299E-1   -9.218511895632343E-2   -1.068032779858349E-2   -3.522696461720222E-2   -1.151836811501888E-2   -3.494740237470309E-2    4.777934992235370E-1   -1.981645587420585E-1
 6.529420862975000E9     5.528423227721680E-1   -9.291926429156105E-2   -1.093383144340088E-2   -3.537184192197495E-2   -1.166732243533402E-2   -3.515261889887852E-2    4.773664618082550E-1   -1.990435657290722E-1
 6.529431215550000E9     5.526751551621979E-1   -9.391598967146848E-2   -1.109905017119067E-2   -3.553213783499877E-2   -1.179557881518894E-2   -3.542257151681197E-2    4.769601115846176E-1   -2.001358359431249E-1
 6.529441568125000E9     5.526100157017109E-1   -9.480231655133357E-2   -1.117689650907111E-2   -3.575231730876058E-2   -1.201865351254947E-2   -3.544046679989928E-2    4.764466175040486E-1   -2.011887330183517E-1
 6.529451920700000E9     5.524163282366739E-1   -9.567521831848945E-2   -1.125966609667886E-2   -3.581107769882489E-2   -1.210926578285960E-2   -3.573135115226895E-2    4.759862482994617E-1   -2.018797027762247E-1
 6.529462273275000E9     5.523164626591411E-1   -9.639929382547956E-2   -1.154825383337095E-2   -3.618021172904221E-2   -1.241484850575817E-2   -3.592780335413104E-2    4.756273102986363E-1   -2.028864432111943E-1
 6.529472625850000E9     5.521431482939826E-1   -9.733234290730819E-2   -1.168309681577384E-2   -3.632051455588554E-2   -1.233901130263301E-2   -3.607750166014524E-2    4.752073668583248E-1   -2.040391357509297E-1
 6.529482978425000E9     5.520536282053036E-1   -9.815619098955283E-2   -1.193261735569917E-2   -3.661516761565353E-2   -1.259669330510052E-2   -3.612974776815091E-2    4.748595995729009E-1   -2.048098393561933E-1
 6.529493331000000E9     5.516762542801136E-1   -9.912039001480634E-2   -1.199461359822545E-2   -3.671858279107994E-2   -1.276739617676617E-2   -3.650244533080531E-2    4.742556221711999E-1   -2.058548176896499E-1
 6.529503683575000E9     5.515693092068877E-1   -9.986421429063411E-2   -1.211641643113678E-2   -3.681346651390101E-2   -1.299566067780286E-2   -3.670636611039860E-2    4.737089521095048E-1   -2.068141937240556E-1
 6.529514036150000E9     5.513326409902654E-1   -1.008579208881122E-1   -1.217528917490729E-2   -3.707710760058961E-2   -1.310040719697955E-2   -3.696661995127004E-2    4.732364908352228E-1   -2.076841048815558E-1
 6.529524388725000E9     5.512553768252432E-1   -1.015685704886778E-1   -1.237417961709351E-2   -3.733730555310800E-2   -1.316274695503934E-2   -3.705916024057578E-2    4.727418813825221E-1   -2.088861154062857E-1
 6.529534741300000E9     5.510305032065861E-1   -1.024992046753870E-1   -1.256739826322068E-2   -3.763037032229205E-2   -1.335112222275098E-2   -3.732073734782580E-2    4.722961451245528E-1   -2.097413616244698E-1
 6.529545093875000E9     5.508497264040778E-1   -1.033956281406961E-1   -1.270363988290850E-2   -3.765910072670525E-2   -1.349005453911272E-2   -3.748667267322247E-2    4.717484050050169E-1   -2.107720032938936E-1
 6.529555446450000E9     5.506990690354185E-1   -1.042591820855645E-1   -1.291687130916516E-2   -3.771355540921839E-2   -1.366207368648454E-2   -3.772308414353751E-2    4.714051387136881E-1   -2.118600890585319E-1
 6.529565799025000E9     5.504173537949426E-1   -1.049817328927875E-1   -1.292503429845851E-2   -3.815576831610184E-2   -1.382292421763304E-2   -3.779723791937899E-2    4.708608113668507E-1   -2.128161465966039E-1
 6.529576151600000E9     5.502495367904020E-1   -1.058565083610916E-1   -1.325784530041548E-2   -3.824363623611700E-2   -1.405801809254513E-2   -3.804735479200534E-2    4.701299278244887E-1   -2.136740159212105E-1
 6.529586504175000E9     5.500709887237889E-1   -1.068713923627457E-1   -1.336539064805737E-2   -3.845061079808736E-2   -1.423717233655481E-2   -3.836069834847956E-2    4.698399303196355E-1   -2.148659283701893E-1
 6.529596856750000E9     5.499155954776780E-1   -1.076806720987758E-1   -1.348126565322188E-2   -3.882552414782928E-2   -1.443304740981795E-2   -3.846436939490067E-2    4.691097158145304E-1   -2.157062865396027E-1
 6.529607209325000E9     5.497759122710925E-1   -1.086149542404152E-1   -1.376436138064660E-2   -3.895912727985108E-2   -1.457902673106000E-2   -3.870281135643202E-2    4.686405726903320E-1   -2.167385347084464E-1
 6.529617561900000E9     5.495107432385828E-1   -1.094761178343665E-1   -1.394146607160576E-2   -3.918750512025385E-2   -1.474178786824686E-2   -3.906322336701868E-2    4.682871239194369E-1   -2.178439709025191E-1
 6.529627914475000E9     5.493846933382426E-1   -1.102809157106722E-1   -1.407830481502898E-2   -3.951410716316497E-2   -1.486714434960818E-2   -3.916670674105318E-2    4.675922184209250E-1   -2.186662316020509E-1
 6.529638267050000E9     5.492051488521534E-1   -1.113433982267848E-1   -1.424236465883835E-2   -3.965218730797251E-2   -1.516061206563397E-2   -3.938196148309892E-2    4.670146872599493E-1   -2.197894333656709E-1
 6.529648619625000E9     5.489245391312915E-1   -1.121354644410689E-1   -1.445239698268357E-2   -3.992949893765176E-2   -1.519974516171706E-2   -3.972176006533430E-2    4.664933998223724E-1   -2.208468416277563E-1
 6.529658972200000E9     5.487864732652663E-1   -1.130893842336954E-1   -1.456187496554430E-2   -4.010658736533363E-2   -1.552839653175586E-2   -3.991833407529299E-2    4.660064964186136E-1   -2.220294491299608E-1
 6.529669324775000E9     5.484473019269588E-1   -1.139496522184411E-1   -1.487213964638935E-2   -4.043863635859704E-2   -1.573510810785091E-2   -4.003147945178619E-2    4.653195536413799E-1   -2.229593232124791E-1
 6.529679677350000E9     5.483333738084478E-1   -1.146835096879022E-1   -1.498624811204625E-2   -4.059376017005559E-2   -1.591334294315103E-2   -4.043183311366008E-2    4.646409643406838E-1   -2.240494660786410E-1
 6.529690029925000E9     5.480649195030104E-1   -1.156834838473285E-1   -1.508473475599928E-2   -4.072930503077048E-2   -1.613095538853558E-2   -4.066555840850120E-2    4.641087522951437E-1   -2.249382002830501E-1
 6.529700382500000E9     5.479453390399056E-1   -1.165566574268086E-1   -1.543619536366235E-2   -4.115605103340918E-2   -1.631066320287793E-2   -4.075460551058845E-2    4.634750715807180E-1   -2.261229913509895E-1
 6.529710735075000E9     5.476619925558402E-1   -1.175034113611192E-1   -1.555050736370982E-2   -4.131349816629771E-2   -1.643200894007511E-2   -4.105440566996097E-2    4.630182863969150E-1   -2.270655462576613E-1
 6.529721087650000E9     5.474534478544942E-1   -1.183103766202090E-1   -1.591055485573506E-2   -4.169495605538055E-2   -1.672255396331994E-2   -4.130873912602971E-2    4.621868505587923E-1   -2.281492531386447E-1
 6.529731440225000E9     5.471131140188402E-1   -1.192695478878719E-1   -1.604454828197884E-2   -4.171879319446482E-2   -1.688570735877829E-2   -4.153545930112466E-2    4.615195377688325E-1   -2.292530788057945E-1
 6.529741792800000E9     5.468355503110646E-1   -1.201994979184296E-1   -1.625913532724052E-2   -4.214439381478376E-2   -1.709640766413591E-2   -4.171728864521787E-2    4.610506730785653E-1   -2.302216020913999E-1
 6.529752145375000E9     5.466905172924618E-1   -1.211744249123736E-1   -1.647963881239133E-2   -4.233880178492337E-2   -1.726182163326025E-2   -4.207584398135829E-2    4.604590500574560E-1   -2.313257060462781E-1
 6.529762497950000E9     5.463680366727444E-1   -1.220108684151012E-1   -1.666843232104365E-2   -4.277213480309219E-2   -1.747023641026399E-2   -4.229061613996152E-2    4.598519640573329E-1   -2.323936854467221E-1
 6.529772850525000E9     5.461962271129319E-1   -1.228741316864361E-1   -1.679944362604048E-2   -4.299763335300404E-2   -1.781107771258565E-2   -4.264539771046410E-2    4.591974965909706E-1   -2.333409008786368E-1
 6.529783203100000E9     5.459006063208046E-1   -1.237299202004494E-1   -1.710323561509413E-2   -4.325827212428822E-2   -1.807890910790918E-2   -4.284878161497686E-2    4.585370113134617E-1   -2.345198718137679E-1
 6.529793555675000E9     5.458147343292813E-1   -1.246092774714215E-1   -1.741714939410179E-2   -4.330292376571018E-2   -1.829325266755929E-2   -4.316737072842072E-2    4.578121543016825E-1   -2.356779183236095E-1
 6.529803908250000E9     5.455259337545999E-1   -1.255864365378489E-1   -1.772368841723580E-2   -4.373093448353495E-2   -1.860874070485129E-2   -4.348151474940197E-2    4.571492543942826E-1   -2.366567757560352E-1
 6.529814260825000E9     5.453318229413049E-1   -1.264040401915916E-1   -1.769379656211207E-2   -4.412330483588262E-2   -1.875120480257705E-2   -4.367813778372138E-2    4.565842996787818E-1   -2.378622174588639E-1
 6.529824613400000E9     5.450522805649696E-1   -1.274001128764863E-1   -1.795563060259478E-2   -4.442991913780500E-2   -1.908097300004064E-2   -4.404753343973014E-2    4.558209097131050E-1   -2.387722010145980E-1
 6.529834965975000E9     5.446419385436037E-1   -1.282961568375396E-1   -1.821764048423901E-2   -4.457848020100771E-2   -1.929507962852856E-2   -4.431015608922269E-2    4.550572827108209E-1   -2.400447319391565E-1
 6.529845318550000E9     5.444874609972045E-1   -1.292224655279513E-1   -1.862143254947789E-2   -4.493395068956902E-2   -1.956182494256791E-2   -4.456459849225191E-2    4.544171961800577E-1   -2.412332802841188E-1
 6.529855671125000E9     5.442843221096563E-1   -1.301916022456486E-1   -1.870959976385078E-2   -4.533480635911862E-2   -1.976065006793956E-2   -4.481948956824035E-2    4.537046831114291E-1   -2.422749714694845E-1
 6.529866023700000E9     5.440011715518601E-1   -1.311169347235182E-1   -1.901541024196803E-2   -4.544140461224629E-2   -2.009924390097581E-2   -4.512800533934534E-2    4.530365170099774E-1   -2.433779447087623E-1
 6.529876376275000E9     5.437122538518410E-1   -1.321436076792982E-1   -1.932774328261615E-2   -4.589599838944791E-2   -2.039933024987873E-2   -4.537986560732452E-2    4.521614011165533E-1   -2.446463096684494E-1
 6.529886728850000E9     5.434282736764505E-1   -1.329374296248834E-1   -1.955205333727347E-2   -4.611292085447114E-2   -2.060013144542695E-2   -4.577959685552294E-2    4.514934629486997E-1   -2.458703044782473E-1
 6.529897081425000E9     5.431212417668977E-1   -1.339576784076275E-1   -1.980591623512873E-2   -4.634273212595012E-2   -2.085094042872762E-2   -4.609272659873651E-2    4.507119266803161E-1   -2.469096193938261E-1
 6.529907434000000E9     5.427082802827655E-1   -1.348187660283426E-1   -2.008660431335488E-2   -4.676345617776571E-2   -2.129812353999436E-2   -4.638718456039022E-2    4.499983535526788E-1   -2.481236852449134E-1
 6.529917786575000E9     5.425353712781932E-1   -1.358287356610585E-1   -2.035287927982005E-2   -4.703212079108545E-2   -2.145857117938140E-2   -4.673082413616511E-2    4.489099269853415E-1   -2.491874017123502E-1
 6.529928139150000E9     5.423010067085818E-1   -1.367652908153711E-1   -2.073285890617550E-2   -4.732008117183432E-2   -2.178599950887594E-2   -4.706412053401164E-2    4.483270503054126E-1   -2.503751815449848E-1
 6.529938491725000E9     5.420400554562028E-1   -1.376510648856280E-1   -2.101966899688824E-2   -4.769126169782167E-2   -2.206745233233892E-2   -4.732347545582239E-2    4.476527844899902E-1   -2.515924286257360E-1
 6.529948844300000E9     5.416516745177113E-1   -1.385740779332085E-1   -2.123344299938794E-2   -4.807535056637359E-2   -2.238303208546008E-2   -4.765739633493742E-2    4.466698962734156E-1   -2.527020542147170E-1
 6.529959196875000E9     5.413348782449994E-1   -1.393874332070826E-1   -2.162223068491511E-2   -4.832606772761074E-2   -2.279610439971164E-2   -4.801062100771938E-2    4.457647840240778E-1   -2.540523817539098E-1
 6.529969549450000E9     5.411002706722262E-1   -1.403759819367527E-1   -2.189435735751933E-2   -4.885269893925308E-2   -2.311638464330455E-2   -4.839151599331705E-2    4.450255361585722E-1   -2.551036374929659E-1
 6.529979902025000E9     5.408140385871241E-1   -1.413160203480786E-1   -2.218222975718639E-2   -4.916300184977113E-2   -2.342117248592910E-2   -4.869578778645282E-2    4.441278803351453E-1   -2.562809691971343E-1
 6.529990254600000E9     5.403756338066038E-1   -1.424162235444167E-1   -2.256555148609196E-2   -4.946374764045907E-2   -2.373583807249419E-2   -4.905974079377391E-2    4.432570339990894E-1   -2.576080246005003E-1
 6.530000607175000E9     5.401036817433346E-1   -1.433574058586599E-1   -2.288362403170517E-2   -4.978389939827931E-2   -2.403159673108356E-2   -4.939254664558648E-2    4.424801863162131E-1   -2.588758424027701E-1
 6.530010959750000E9     5.397593077171501E-1   -1.443770106668156E-1   -2.305133671413457E-2   -5.015403981021373E-2   -2.435232709268907E-2   -4.980544736439878E-2    4.415353887127427E-1   -2.599794787432151E-1
