#  HZ   S   RI   R     50.00 
! Rohde & Schwarz Vector Network Analyzer 
! Rohde-Schwarz,ZNB20-2Port,1311601062101988,3.16
! Created: UTC 3/21/2024, 1:12:21 AM
! freq[Hz]                re:S11                  im:S11                  re:S21                  im:S21                  re:S12                  im:S12                  re:S22                  im:S22
 6.529084106000000E9     5.569801709246501E-1   -6.571138706279614E-2   -7.464529815538923E-3   -3.025102029805594E-2   -8.018308949361804E-3   -3.005546321142273E-2    4.897452915717533E-1   -1.694233177218935E-1
 6.529094441850000E9     5.568433440158765E-1   -6.661130056344348E-2   -7.423766865072377E-3   -3.026965575901563E-2   -8.091928153451835E-3   -3.020508660313750E-2    4.894513005157886E-1   -1.702300488399727E-1
 6.529104777700000E9     5.568337480440516E-1   -6.744163157477352E-2   -7.502371976969910E-3   -3.041020484779012E-2   -8.299570720201028E-3   -3.026940101600114E-2    4.893632840407020E-1   -1.712143691074306E-1
 6.529115113550000E9     5.567832748248471E-1   -6.807558417337982E-2   -7.663073368957592E-3   -3.069412577850302E-2   -8.309735070325697E-3   -3.044351094314815E-2    4.888450484742701E-1   -1.721737633673422E-1
 6.529125449400000E9     5.565811220352126E-1   -6.902532938018806E-2   -7.933291366135634E-3   -3.078580197057349E-2   -8.409920095656540E-3   -3.061524175124384E-2    4.883286216153547E-1   -1.729894611752243E-1
 6.529135785250000E9     5.565077035878775E-1   -6.971730338999549E-2   -7.874169078733742E-3   -3.094867905939958E-2   -8.503005737951526E-3   -3.072016530610227E-2    4.882645536445319E-1   -1.739036845314837E-1
 6.529146121100000E9     5.563931795099072E-1   -7.057273991643230E-2   -8.151402529913032E-3   -3.107727211194250E-2   -8.499444348139340E-3   -3.100549793372094E-2    4.876721105355417E-1   -1.747389656803592E-1
 6.529156456950000E9     5.563194400821706E-1   -7.132723165505425E-2   -8.136742367148862E-3   -3.108232735879460E-2   -8.760291944931971E-3   -3.115317487403769E-2    4.875541775766657E-1   -1.756298028492340E-1
 6.529166792800000E9     5.562320972896205E-1   -7.225171019517440E-2   -8.147795659725858E-3   -3.127693435995756E-2   -8.727721171704823E-3   -3.119707877229946E-2    4.871220191593997E-1   -1.765581613964680E-1
 6.529177128650000E9     5.561673653212991E-1   -7.321644409010071E-2   -8.194153657121546E-3   -3.144732063294001E-2   -8.920821611264729E-3   -3.139752734099671E-2    4.866849006296106E-1   -1.774455642505194E-1
 6.529187464500000E9     5.558551289860759E-1   -7.399499912345424E-2   -8.206715774631883E-3   -3.165863126174769E-2   -8.918170698698149E-3   -3.145925866133228E-2    4.864155223224995E-1   -1.784356922061905E-1
 6.529197800350000E9     5.558349500038459E-1   -7.482015008646685E-2   -8.408211761654901E-3   -3.174307324191770E-2   -9.140911340962749E-3   -3.157631395297402E-2    4.860729545994184E-1   -1.792753016792448E-1
 6.529208136200000E9     5.557219012350674E-1   -7.562315815812067E-2   -8.579993500352299E-3   -3.178248213388747E-2   -9.287603153191997E-3   -3.182067252526944E-2    4.857595703348591E-1   -1.802532977261967E-1
 6.529218472050000E9     5.556528851109265E-1   -7.652726967308364E-2   -8.677676515533793E-3   -3.192766033578591E-2   -9.328551692171318E-3   -3.194053931135848E-2    4.853352682818414E-1   -1.809644337451370E-1
 6.529228807900000E9     5.555785247926804E-1   -7.741543325687585E-2   -8.627553715288087E-3   -3.217484318288620E-2   -9.458737724463987E-3   -3.204560241760675E-2    4.849767225963043E-1   -1.820224842857895E-1
 6.529239143750000E9     5.553684599346492E-1   -7.808859385242335E-2   -8.953599247428572E-3   -3.234942559917690E-2   -9.466789847226561E-3   -3.225128326850428E-2    4.846220683593671E-1   -1.827239181802186E-1
 6.529249479600000E9     5.552965997719163E-1   -7.899356217307141E-2   -8.984531745299139E-3   -3.249789092035631E-2   -9.629695647782840E-3   -3.231677953927795E-2    4.843145329829473E-1   -1.836390645483087E-1
 6.529259815450000E9     5.551377522899614E-1   -7.983362854352741E-2   -9.141726650310171E-3   -3.256276078210219E-2   -9.717950013330366E-3   -3.257755905600793E-2    4.837784547640009E-1   -1.845197076996951E-1
 6.529270151300000E9     5.550233658119825E-1   -8.066371784758750E-2   -9.161902086444287E-3   -3.277954815036485E-2   -9.833490757647820E-3   -3.261263208128685E-2    4.835516965922876E-1   -1.855743694285081E-1
 6.529280487150000E9     5.548125374464126E-1   -8.153297034737308E-2   -9.302003606721523E-3   -3.299329540224834E-2   -1.003121043824102E-2   -3.287076418577724E-2    4.830351330500202E-1   -1.864709506134085E-1
 6.529290823000000E9     5.546649275139817E-1   -8.232815487495616E-2   -9.487228006986634E-3   -3.302020079293651E-2   -1.005745181703600E-2   -3.291913719012573E-2    4.826384106214980E-1   -1.874531424037649E-1
 6.529301158850000E9     5.546635469115826E-1   -8.318621877216710E-2   -9.422071724185395E-3   -3.324642854703636E-2   -1.016491262449331E-2   -3.313757734359327E-2    4.822280436253453E-1   -1.882472924462756E-1
 6.529311494700000E9     5.544484519020431E-1   -8.400805862515093E-2   -9.702725785697098E-3   -3.346139037949162E-2   -1.029244416163778E-2   -3.336757463507372E-2    4.818634862738611E-1   -1.891563355679896E-1
 6.529321830550000E9     5.542902154150180E-1   -8.491373105117596E-2   -9.719405952267010E-3   -3.364088574556014E-2   -1.049534149662627E-2   -3.346790022675660E-2    4.815580782560374E-1   -1.900551159715825E-1
 6.529332166400000E9     5.541641082610722E-1   -8.565859068336507E-2   -9.930515413219669E-3   -3.388227261941408E-2   -1.054014188347719E-2   -3.360698839218248E-2    4.808954456342416E-1   -1.910145592729032E-1
 6.529342502250000E9     5.539875151260328E-1   -8.654232904841150E-2   -9.941202988158293E-3   -3.387109775007498E-2   -1.076492555371044E-2   -3.376380023775173E-2    4.806085291185618E-1   -1.919876868745903E-1
 6.529352838100000E9     5.539395481753421E-1   -8.740167756364567E-2   -1.009304649167477E-2   -3.404244899614604E-2   -1.091388827555097E-2   -3.394546193204281E-2    4.802530837958706E-1   -1.928740072517518E-1
 6.529363173950000E9     5.537446144763808E-1   -8.834195430420291E-2   -1.019677336418099E-2   -3.419523870498610E-2   -1.088714704213999E-2   -3.409393361813871E-2    4.797678689066210E-1   -1.938473463904480E-1
 6.529373509800000E9     5.536142912970641E-1   -8.898640912434717E-2   -1.046583133214359E-2   -3.449977168768163E-2   -1.095220795525351E-2   -3.434077165822268E-2    4.793573137465053E-1   -1.947731595243052E-1
 6.529383845650000E9     5.534008344094650E-1   -9.000262415334512E-2   -1.052755734291754E-2   -3.461991954159210E-2   -1.126627584909006E-2   -3.445906162781266E-2    4.790901189111424E-1   -1.957723901792535E-1
 6.529394181500000E9     5.532024053220944E-1   -9.071910880008963E-2   -1.063939757917635E-2   -3.487240387047646E-2   -1.131307936829682E-2   -3.460653016032887E-2    4.785904306071063E-1   -1.965802926952079E-1
 6.529404517350000E9     5.532931000040177E-1   -9.166802563930171E-2   -1.076789498618894E-2   -3.501065589438731E-2   -1.144741365056904E-2   -3.489364072816711E-2    4.779678280854978E-1   -1.974937231163139E-1
 6.529414853200000E9     5.530876113981429E-1   -9.248834831758751E-2   -1.089519182675883E-2   -3.512904926171468E-2   -1.156520555477701E-2   -3.493496224656368E-2    4.776420015764565E-1   -1.985570869847025E-1
 6.529425189050000E9     5.528112382126716E-1   -9.324712061155392E-2   -1.100595402402993E-2   -3.536381887328378E-2   -1.172350526434004E-2   -3.511701856959683E-2    4.769962609557589E-1   -1.993865993178872E-1
 6.529435524900000E9     5.525786106115180E-1   -9.417035700515472E-2   -1.110931402655303E-2   -3.552840576061111E-2   -1.196963014235159E-2   -3.537997043081005E-2    4.767543875593448E-1   -2.004203685786803E-1
 6.529445860750000E9     5.525626998384366E-1   -9.503895349632593E-2   -1.125381908760916E-2   -3.570568901385002E-2   -1.205596130537777E-2   -3.554440467364234E-2    4.761954890919228E-1   -2.013176758145164E-1
 6.529456196600000E9     5.523060510308019E-1   -9.583701433471203E-2   -1.124937627549113E-2   -3.583857840980622E-2   -1.223936123969551E-2   -3.570444919800832E-2    4.759305994297399E-1   -2.023235919469345E-1
 6.529466532450000E9     5.521775279865855E-1   -9.670395012277729E-2   -1.146048391810705E-2   -3.615733341017588E-2   -1.239849742256120E-2   -3.596760185830580E-2    4.755382680968378E-1   -2.033416664616045E-1
 6.529476868300000E9     5.519843926535882E-1   -9.761414152294400E-2   -1.161983752571005E-2   -3.626646570100003E-2   -1.255955061965590E-2   -3.619348038778307E-2    4.749657703768982E-1   -2.042048967045240E-1
 6.529487204150000E9     5.519438039580146E-1   -9.850385028533033E-2   -1.179517387193937E-2   -3.647854775625592E-2   -1.258355973509051E-2   -3.631888519364731E-2    4.745189764174839E-1   -2.052918208298884E-1
 6.529497540000000E9     5.518054298078267E-1   -9.934040825695140E-2   -1.204997837045045E-2   -3.681469927283327E-2   -1.282368563554044E-2   -3.643047848369835E-2    4.739094557873809E-1   -2.062580547920880E-1
 6.529507875850000E9     5.515674517539040E-1   -1.001902070856322E-1   -1.212895010479531E-2   -3.696615519622100E-2   -1.296757215911075E-2   -3.662997825335047E-2    4.736130589370372E-1   -2.071787821427379E-1
 6.529518211700000E9     5.513711650352212E-1   -1.011521834725653E-1   -1.230047286437632E-2   -3.704256353775499E-2   -1.311967588210382E-2   -3.697348230661238E-2    4.729342990575578E-1   -2.081652171640740E-1
 6.529528547550000E9     5.512137455887157E-1   -1.019873200466011E-1   -1.248387254386576E-2   -3.715363056600669E-2   -1.321294052922486E-2   -3.713482176328179E-2    4.726539465411572E-1   -2.088450646940096E-1
 6.529538883400000E9     5.509088363893243E-1   -1.027913266100187E-1   -1.268310037602833E-2   -3.749176608779883E-2   -1.343536064844559E-2   -3.730693402458380E-2    4.720576703080860E-1   -2.099911418326905E-1
 6.529549219250000E9     5.507985378377620E-1   -1.037127813193388E-1   -1.256085993771349E-2   -3.769666051212089E-2   -1.350881379091491E-2   -3.750357500670645E-2    4.715472248708290E-1   -2.110606636183570E-1
 6.529559555100000E9     5.506499257814544E-1   -1.044772433651457E-1   -1.302919750698386E-2   -3.784619553137580E-2   -1.371932448805941E-2   -3.777576668970944E-2    4.711105742405513E-1   -2.120308008760860E-1
 6.529569890950000E9     5.504398705911826E-1   -1.053701920837615E-1   -1.297172894069583E-2   -3.805050264828611E-2   -1.388600169566174E-2   -3.794874275213890E-2    4.706465772637339E-1   -2.129243474711116E-1
 6.529580226800000E9     5.502268997680844E-1   -1.062765087472413E-1   -1.326387174379799E-2   -3.836136825309747E-2   -1.415563008327409E-2   -3.812134944375795E-2    4.700924578509219E-1   -2.140993729591405E-1
 6.529590562650000E9     5.500140451719907E-1   -1.071394443004931E-1   -1.334106679110350E-2   -3.854844289804386E-2   -1.424725797540214E-2   -3.846333807395450E-2    4.695325447332501E-1   -2.149602747310903E-1
 6.529600898500000E9     5.498349012222402E-1   -1.081223849028202E-1   -1.363569340387607E-2   -3.878174788694452E-2   -1.439600424317086E-2   -3.861387586041874E-2    4.689538725425983E-1   -2.161162470260699E-1
 6.529611234350000E9     5.496827055970746E-1   -1.089030349330917E-1   -1.376570694243762E-2   -3.896456254486957E-2   -1.460184262966355E-2   -3.886121124093943E-2    4.683605692191903E-1   -2.170619710310144E-1
 6.529621570200000E9     5.495562738527427E-1   -1.097632339182911E-1   -1.390993629962665E-2   -3.930403743561312E-2   -1.476516818373434E-2   -3.897658999241337E-2    4.678653617223558E-1   -2.180630600548951E-1
 6.529631906050000E9     5.492770555896777E-1   -1.106816069974426E-1   -1.410007328183733E-2   -3.951140112493671E-2   -1.497814537661348E-2   -3.921245875031882E-2    4.672578493393214E-1   -2.191023835213378E-1
 6.529642241900000E9     5.489477043507787E-1   -1.115195448711387E-1   -1.435958964565477E-2   -3.977898498847758E-2   -1.519420653499467E-2   -3.942335459767609E-2    4.666642830956008E-1   -2.201059565306608E-1
 6.529652577750000E9     5.489492892540738E-1   -1.124713883902447E-1   -1.446170721045115E-2   -3.986180203658390E-2   -1.537510185118369E-2   -3.971593102566832E-2    4.661639431022435E-1   -2.213539164114483E-1
 6.529662913600000E9     5.486345536297997E-1   -1.133863088870004E-1   -1.452913108657999E-2   -4.021670997386126E-2   -1.550369233222775E-2   -3.997551880656539E-2    4.656253896760646E-1   -2.221176861025592E-1
 6.529673249450000E9     5.485006071089664E-1   -1.142045101248135E-1   -1.477901862645994E-2   -4.045361336387505E-2   -1.580021633048024E-2   -4.016993402539653E-2    4.650762800288138E-1   -2.231966753611662E-1
 6.529683585300000E9     5.482357480241545E-1   -1.150826242803890E-1   -1.504593924008163E-2   -4.052626745851472E-2   -1.589383408351768E-2   -4.041612395239051E-2    4.644203676789156E-1   -2.243188891255120E-1
 6.529693921150000E9     5.479733597989433E-1   -1.159723521837820E-1   -1.536436651482462E-2   -4.092713823822452E-2   -1.614779343737865E-2   -4.066672408223321E-2    4.638639297085929E-1   -2.252680132835938E-1
 6.529704257000000E9     5.477207671446228E-1   -1.169449313863720E-1   -1.543648320490945E-2   -4.111795756331527E-2   -1.627467526043386E-2   -4.088914109272066E-2    4.633356021381291E-1   -2.262838159077981E-1
 6.529714592850000E9     5.475135606760216E-1   -1.177067244564376E-1   -1.550540771083454E-2   -4.135934605910725E-2   -1.656386597736691E-2   -4.110134586804380E-2    4.628690560833931E-1   -2.275371182178289E-1
 6.529724928700000E9     5.473911891368626E-1   -1.185696479132981E-1   -1.572620135827951E-2   -4.150752358677824E-2   -1.682235408321264E-2   -4.134748326066254E-2    4.621230093131324E-1   -2.284578721382731E-1
 6.529735264550000E9     5.472229644568096E-1   -1.196032053546100E-1   -1.605597827978428E-2   -4.209795054201396E-2   -1.700717549835837E-2   -4.161446029496423E-2    4.614122775073239E-1   -2.293929100289062E-1
 6.529745600400000E9     5.468870401629502E-1   -1.203992362810107E-1   -1.628202213324472E-2   -4.228715401290151E-2   -1.720004466703210E-2   -4.177707989573116E-2    4.608610624389233E-1   -2.306394054844057E-1
 6.529755936250000E9     5.466276483200949E-1   -1.213092799907548E-1   -1.637138936702512E-2   -4.248882575219165E-2   -1.747807985413426E-2   -4.214388662817915E-2    4.602831614834182E-1   -2.317018477726235E-1
 6.529766272100000E9     5.464181256439719E-1   -1.222439128034890E-1   -1.657297110672929E-2   -4.266799813981418E-2   -1.762291863088387E-2   -4.247718739130175E-2    4.595185299571833E-1   -2.327417659470220E-1
 6.529776607950000E9     5.461993896193220E-1   -1.230594873963626E-1   -1.692843436250037E-2   -4.284988840456195E-2   -1.781306370032102E-2   -4.278270352227954E-2    4.588638337173205E-1   -2.338870631041622E-1
 6.529786943800000E9     5.459677352988846E-1   -1.241285901413773E-1   -1.704354166033803E-2   -4.328679026984313E-2   -1.800475207240999E-2   -4.288043890913645E-2    4.583807188513970E-1   -2.348289922646046E-1
 6.529797279650000E9     5.457230666295486E-1   -1.248359628770443E-1   -1.747501780398309E-2   -4.353294746505398E-2   -1.835569874045548E-2   -4.322455141992069E-2    4.575888349577191E-1   -2.359553475999900E-1
 6.529807615500000E9     5.454328563071594E-1   -1.259534465527660E-1   -1.763424339464257E-2   -4.383635853431968E-2   -1.861091393559841E-2   -4.354320807721769E-2    4.569234394799198E-1   -2.370515108843548E-1
 6.529817951350000E9     5.450114976986909E-1   -1.267306078074613E-1   -1.783494297141174E-2   -4.403678218971718E-2   -1.884318655269588E-2   -4.371439025500820E-2    4.561633187810475E-1   -2.380829588184565E-1
 6.529828287200000E9     5.450088237846767E-1   -1.276420827175388E-1   -1.808211107202018E-2   -4.427001026564781E-2   -1.904050617683900E-2   -4.413671060714655E-2    4.555748130405409E-1   -2.392568712298684E-1
 6.529838623050000E9     5.446566798495968E-1   -1.286079058428898E-1   -1.828200420620243E-2   -4.451845164345521E-2   -1.935467601170985E-2   -4.435620398877077E-2    4.548182102944568E-1   -2.403264924894153E-1
 6.529848958900000E9     5.443571349540790E-1   -1.294683120673615E-1   -1.854307464008200E-2   -4.491641314529120E-2   -1.959171541713984E-2   -4.460371493762245E-2    4.541504999938905E-1   -2.414868856818867E-1
 6.529859294750000E9     5.441106171297093E-1   -1.303943759617485E-1   -1.878231803541457E-2   -4.529785231282646E-2   -1.980639565093904E-2   -4.484053816224279E-2    4.533510870618499E-1   -2.426679024968314E-1
 6.529869630600000E9     5.438684880015221E-1   -1.313362350394303E-1   -1.899694242502186E-2   -4.544897474637911E-2   -2.018188653360248E-2   -4.519465318727732E-2    4.528258370235440E-1   -2.436770334567293E-1
 6.529879966450000E9     5.435570152181927E-1   -1.322720642192763E-1   -1.926526881838058E-2   -4.588678707685589E-2   -2.042561364579611E-2   -4.545532613886330E-2    4.519831540373843E-1   -2.448459291833578E-1
 6.529890302300000E9     5.433903037251272E-1   -1.332815327792101E-1   -1.970245878047959E-2   -4.614296397823977E-2   -2.065146717476777E-2   -4.577453942180709E-2    4.513312248480801E-1   -2.460531848872009E-1
 6.529900638150000E9     5.431511176841779E-1   -1.341747378690024E-1   -1.985763581916851E-2   -4.654652682087898E-2   -2.102449717160022E-2   -4.612381525563641E-2    4.504350028694838E-1   -2.472073926489836E-1
 6.529910974000000E9     5.427659801021625E-1   -1.351169477266782E-1   -2.015294629440357E-2   -4.687241496997997E-2   -2.133359488397525E-2   -4.646501511643745E-2    4.496852781324047E-1   -2.484062389068855E-1
 6.529921309850000E9     5.425429755597566E-1   -1.360079133202617E-1   -2.057894287238754E-2   -4.725009098785111E-2   -2.152836022228337E-2   -4.683066016641765E-2    4.489043872719124E-1   -2.494550456179596E-1
 6.529931645700000E9     5.420987120419237E-1   -1.370065769356749E-1   -2.062006601555020E-2   -4.738355694336809E-2   -2.183040339113475E-2   -4.702600676112736E-2    4.480867984649680E-1   -2.506391270767875E-1
 6.529941981550000E9     5.418922228515424E-1   -1.379282641335013E-1   -2.103271433537342E-2   -4.784883402323164E-2   -2.213976680808213E-2   -4.741888354770220E-2    4.471879540402363E-1   -2.518039850128996E-1
 6.529952317400000E9     5.416016514117795E-1   -1.387757418820338E-1   -2.138575745868334E-2   -4.808192468107480E-2   -2.240473782813576E-2   -4.771406208399651E-2    4.465867535631616E-1   -2.529810240301431E-1
 6.529962653250000E9     5.413380787870175E-1   -1.397973286125713E-1   -2.172735981134364E-2   -4.842720817231906E-2   -2.280248616277395E-2   -4.807903663136419E-2    4.455930071728093E-1   -2.540422652136359E-1
 6.529972989100000E9     5.409503054735475E-1   -1.407322279008363E-1   -2.212885292352282E-2   -4.881911145986792E-2   -2.317861071937548E-2   -4.839963340241329E-2    4.448987041381700E-1   -2.555288952462466E-1
 6.529983324950000E9     5.406190224520209E-1   -1.417575892976197E-1   -2.226390667995137E-2   -4.921451096211475E-2   -2.349412053210110E-2   -4.866548489569131E-2    4.440914938950409E-1   -2.566640586669791E-1
 6.529993660800000E9     5.403773136140807E-1   -1.426126809534326E-1   -2.265807884651802E-2   -4.953719487151331E-2   -2.387398243335464E-2   -4.917885806606619E-2    4.430489898950603E-1   -2.577581751944940E-1
 6.530003996650000E9     5.400337380948664E-1   -1.436517385023932E-1   -2.292911343178030E-2   -4.989054208106297E-2   -2.411643325441407E-2   -4.939939236088463E-2    4.422219576603845E-1   -2.590146253914625E-1
 6.530014332500000E9     5.396403960937417E-1   -1.445171338263923E-1   -2.339708150587981E-2   -5.018508326643035E-2   -2.442537444094789E-2   -4.980239414089070E-2    4.412394066376763E-1   -2.603666548189337E-1
