#  HZ   S   RI   R     50.00 
! Rohde & Schwarz Vector Network Analyzer 
! Rohde-Schwarz,ZNB20-2Port,1311601062101988,3.16
! Created: UTC 3/21/2024, 1:12:37 AM
! freq[Hz]                re:S11                  im:S11                  re:S21                  im:S21                  re:S12                  im:S12                  re:S22                  im:S22
 6.529101285000000E9     5.567649424820498E-1   -6.706088003394270E-2   -7.490869819050849E-3   -3.026597935937889E-2   -8.059735484686749E-3   -3.019864628237962E-2    4.889842629187527E-1   -1.707151087781943E-1
 6.529111583575000E9     5.566395621576771E-1   -6.781205873873555E-2   -7.475034880676468E-3   -3.038420986061135E-2   -8.169878011605821E-3   -3.030638526041559E-2    4.886996959937644E-1   -1.714875311025465E-1
 6.529121882150000E9     5.565825738787682E-1   -6.866040625211921E-2   -7.740234017609373E-3   -3.049188966226199E-2   -8.328708200135681E-3   -3.044218125852379E-2    4.882970986417837E-1   -1.724361632737919E-1
 6.529132180725000E9     5.565031916765435E-1   -6.951024813367840E-2   -7.828755652319313E-3   -3.065835020071301E-2   -8.423490226637936E-3   -3.058549387207173E-2    4.880176455022424E-1   -1.733756481087715E-1
 6.529142479300000E9     5.564277695317043E-1   -7.028959350104648E-2   -7.722493388088747E-3   -3.078098663993364E-2   -8.427901785515375E-3   -3.075723786775207E-2    4.875479679369809E-1   -1.742525532182146E-1
 6.529152777875000E9     5.562367071529910E-1   -7.109760521953139E-2   -7.988472916792826E-3   -3.082966503884380E-2   -8.560579914454820E-3   -3.083780927814682E-2    4.874914591111915E-1   -1.750230497095142E-1
 6.529163076450000E9     5.561895088751383E-1   -7.200523862152070E-2   -8.076847424620939E-3   -3.116461014314631E-2   -8.676856147729756E-3   -3.099256624114552E-2    4.867619899342425E-1   -1.760368153681752E-1
 6.529173375025000E9     5.560794973565808E-1   -7.282931841826792E-2   -8.149271188651188E-3   -3.113507982007127E-2   -8.730146654641271E-3   -3.114660393541907E-2    4.865701259191652E-1   -1.769055992642956E-1
 6.529183673600000E9     5.557976849671596E-1   -7.364761942913960E-2   -8.326436202311171E-3   -3.134884863264752E-2   -8.820785941196929E-3   -3.130569289547033E-2    4.862242719364707E-1   -1.779363705802005E-1
 6.529193972175000E9     5.557347667764950E-1   -7.437215232269753E-2   -8.176055412654044E-3   -3.159304903199207E-2   -9.035283485080184E-3   -3.147205377698408E-2    4.859544386598108E-1   -1.785824405770632E-1
 6.529204270750000E9     5.557118582007620E-1   -7.521933805101290E-2   -8.522515132228537E-3   -3.155435038755673E-2   -9.011225081199498E-3   -3.156785051420020E-2    4.855013865309092E-1   -1.795484140433803E-1
 6.529214569325000E9     5.555197315706104E-1   -7.605942155574305E-2   -8.483898520705052E-3   -3.179687648426924E-2   -9.235089121792226E-3   -3.176178984355237E-2    4.850681564090089E-1   -1.804977445318064E-1
 6.529224867900000E9     5.555105809799253E-1   -7.691155082722383E-2   -8.771528751726933E-3   -3.179387755672686E-2   -9.278755817591406E-3   -3.179674403465136E-2    4.847270485433136E-1   -1.813482343122826E-1
 6.529235166475000E9     5.552621831082079E-1   -7.772172715968677E-2   -8.695464092492111E-3   -3.226855657687783E-2   -9.403528899520175E-3   -3.203599713990509E-2    4.844409435293561E-1   -1.821896001786951E-1
 6.529245465050000E9     5.552956431182495E-1   -7.863753722845966E-2   -8.941404445610470E-3   -3.217815828594062E-2   -9.521021332709314E-3   -3.206400723997616E-2    4.840330364466019E-1   -1.831281140845454E-1
 6.529255763625000E9     5.550722922645738E-1   -7.946456598546722E-2   -8.990264294542420E-3   -3.238471145411881E-2   -9.599257820625793E-3   -3.233576565826827E-2    4.836664831503391E-1   -1.839101982612440E-1
 6.529266062200000E9     5.550167349543227E-1   -8.028199462290439E-2   -9.225846218378362E-3   -3.254484669164285E-2   -9.730727561841937E-3   -3.247513468522276E-2    4.833615555056205E-1   -1.849671217260358E-1
 6.529276360775000E9     5.548956404850410E-1   -8.104730783402742E-2   -9.243011416758984E-3   -3.287086115527292E-2   -9.799540537661905E-3   -3.256702895543197E-2    4.827921023219175E-1   -1.858154195953945E-1
 6.529286659350000E9     5.546655217932075E-1   -8.187649223921312E-2   -9.349993669084599E-3   -3.288778654091088E-2   -9.999786744499591E-3   -3.273772783011080E-2    4.824949679432674E-1   -1.865933810371838E-1
 6.529296957925000E9     5.545192868664863E-1   -8.274324534433132E-2   -9.513816157989567E-3   -3.292625636990702E-2   -1.007310735722027E-2   -3.291781339019154E-2    4.820928760230847E-1   -1.875602911789745E-1
 6.529307256500000E9     5.543695564250942E-1   -8.365335633562138E-2   -9.564876978410006E-3   -3.320886176063783E-2   -1.026339909687908E-2   -3.305621499087018E-2    4.816130257762384E-1   -1.884775682559539E-1
 6.529317555075000E9     5.543653625958361E-1   -8.452166371847153E-2   -9.672233163158090E-3   -3.337757240295720E-2   -1.031608466203891E-2   -3.330016446447065E-2    4.813362437589763E-1   -1.895669125406787E-1
 6.529327853650000E9     5.541153417094458E-1   -8.531620119067088E-2   -9.850636000848664E-3   -3.353533278292319E-2   -1.043889551152812E-2   -3.337781559541617E-2    4.808923432225876E-1   -1.905099458448892E-1
 6.529338152225000E9     5.539947227528259E-1   -8.600868330789765E-2   -9.896132171557331E-3   -3.385631178743632E-2   -1.063243323070499E-2   -3.360900255617254E-2    4.806888501260910E-1   -1.911617616243736E-1
 6.529348450800000E9     5.538631062210948E-1   -8.702098619293092E-2   -1.000526494754913E-2   -3.405354408468136E-2   -1.071680043620396E-2   -3.370952887207520E-2    4.801794140764823E-1   -1.920545194645925E-1
 6.529358749375000E9     5.536814781590031E-1   -8.782601527885382E-2   -1.009479406476959E-2   -3.403110582763661E-2   -1.078867557831886E-2   -3.386506762922291E-2    4.797461511670787E-1   -1.931198721248807E-1
 6.529369047950000E9     5.535464548639882E-1   -8.860230594626985E-2   -1.019167453041044E-2   -3.416757803719508E-2   -1.104514796300790E-2   -3.405960368749527E-2    4.792020636063444E-1   -1.940367976766211E-1
 6.529379346525000E9     5.533648072799801E-1   -8.933484509570559E-2   -1.042617976180212E-2   -3.447736832032765E-2   -1.103377302621377E-2   -3.424857956316703E-2    4.789372809097410E-1   -1.948873812038494E-1
 6.529389645100000E9     5.532774592296026E-1   -9.028973818327782E-2   -1.057142029523424E-2   -3.455011579240638E-2   -1.126858016597749E-2   -3.437575769094551E-2    4.785594690487679E-1   -1.959467779473016E-1
 6.529399943675000E9     5.531441006765969E-1   -9.115729712198098E-2   -1.054927154659926E-2   -3.476560778126063E-2   -1.137915519774983E-2   -3.457008543770652E-2    4.781073217524855E-1   -1.969138824378756E-1
 6.529410242250000E9     5.529605709534525E-1   -9.200181875370422E-2   -1.085690569452328E-2   -3.490856000704232E-2   -1.139439045612278E-2   -3.477529636027236E-2    4.775388184959279E-1   -1.978447902561589E-1
 6.529420540825000E9     5.528482034980968E-1   -9.289239923197190E-2   -1.085051572870563E-2   -3.511699898337799E-2   -1.155527398247163E-2   -3.498367775431092E-2    4.771824837927663E-1   -1.986443212503340E-1
 6.529430839400000E9     5.527328695595307E-1   -9.371065849072453E-2   -1.096315703805203E-2   -3.509211769478990E-2   -1.170240371187524E-2   -3.516968055604016E-2    4.767340139658103E-1   -1.996553716739622E-1
 6.529441137975000E9     5.525985430295376E-1   -9.461734829291409E-2   -1.121278566139725E-2   -3.546030903039361E-2   -1.190342892926757E-2   -3.520035295250432E-2    4.762157560189073E-1   -2.006269360054536E-1
 6.529451436550000E9     5.523798247401088E-1   -9.543004521000981E-2   -1.127283529044825E-2   -3.558314699183958E-2   -1.199470573398393E-2   -3.554000775177729E-2    4.758814159663343E-1   -2.015342768578430E-1
 6.529461735125000E9     5.522102253264352E-1   -9.626551228243281E-2   -1.132419749121969E-2   -3.584668148312158E-2   -1.216993652243980E-2   -3.564113833543917E-2    4.754280965047417E-1   -2.025125469781686E-1
 6.529472033700000E9     5.520195365984403E-1   -9.710877546843619E-2   -1.156644391152366E-2   -3.601785128982782E-2   -1.233099824898369E-2   -3.583791969789888E-2    4.748602708270596E-1   -2.034093623840044E-1
 6.529482332275000E9     5.519014314910524E-1   -9.790884559927164E-2   -1.179536478506376E-2   -3.620473605489809E-2   -1.240088081004177E-2   -3.606791988344780E-2    4.746093351870604E-1   -2.043654474931445E-1
 6.529492630850000E9     5.516930815453948E-1   -9.883025164717162E-2   -1.196460639944242E-2   -3.640397737973223E-2   -1.260536539684954E-2   -3.614408760149868E-2    4.739772963928466E-1   -2.053651028898331E-1
 6.529502929425000E9     5.516241095993898E-1   -9.959276142449480E-2   -1.201909434960991E-2   -3.660100005829372E-2   -1.278555217452547E-2   -3.638836155094650E-2    4.732941400979516E-1   -2.065081292942526E-1
 6.529513228000000E9     5.513377082943544E-1   -1.004453566194966E-1   -1.213254453507855E-2   -3.673014584722737E-2   -1.287630772354031E-2   -3.655581995486653E-2    4.729328390243440E-1   -2.073509646970835E-1
 6.529523526575000E9     5.512320999512572E-1   -1.013828561556275E-1   -1.230654170981063E-2   -3.707197786018598E-2   -1.301445714383753E-2   -3.683961547601391E-2    4.724382453413697E-1   -2.083618183979626E-1
 6.529533825150000E9     5.509718822993034E-1   -1.022338489844591E-1   -1.242904611695806E-2   -3.725116709717037E-2   -1.320795380092601E-2   -3.696954889497010E-2    4.720279247529349E-1   -2.093072459080671E-1
 6.529544123725000E9     5.508814332794311E-1   -1.031160578430246E-1   -1.261374612887682E-2   -3.757977194733324E-2   -1.341173294451947E-2   -3.713702080778863E-2    4.714113166585779E-1   -2.101649544711317E-1
 6.529554422300000E9     5.507977395418537E-1   -1.038446534382024E-1   -1.269702424572071E-2   -3.761057230084863E-2   -1.349910487929386E-2   -3.743187650698419E-2    4.709621085201112E-1   -2.111787928746378E-1
 6.529564720875000E9     5.504955139115578E-1   -1.047275742853684E-1   -1.303371364857924E-2   -3.766532041011452E-2   -1.367736054935264E-2   -3.753468375617508E-2    4.704093776370423E-1   -2.122726721524575E-1
 6.529575019450000E9     5.502511012598179E-1   -1.057182196143786E-1   -1.301941161795167E-2   -3.802972925242089E-2   -1.387935522473554E-2   -3.786562998000065E-2    4.701004673523870E-1   -2.131956258514997E-1
 6.529585318025000E9     5.500660886228262E-1   -1.065881371454931E-1   -1.335568199107778E-2   -3.830870023668285E-2   -1.412170067179153E-2   -3.805195921713948E-2    4.695172740073003E-1   -2.141610449885211E-1
 6.529595616600000E9     5.498986584061372E-1   -1.075520340415319E-1   -1.340385713411408E-2   -3.847226442173303E-2   -1.409497677674489E-2   -3.833069828474358E-2    4.689856420216293E-1   -2.151610287280490E-1
 6.529605915175000E9     5.496352924702133E-1   -1.082571763041060E-1   -1.350053185464679E-2   -3.867714467961647E-2   -1.434292361491389E-2   -3.840767670819414E-2    4.686661321551805E-1   -2.160207773579158E-1
 6.529616213750000E9     5.495400839588002E-1   -1.091463734054782E-1   -1.386522575821752E-2   -3.886470030389787E-2   -1.449506328542685E-2   -3.866253701827937E-2    4.678629939735293E-1   -2.171881331948606E-1
 6.529626512325000E9     5.493234716041291E-1   -1.099177516071334E-1   -1.389894469452540E-2   -3.900758451253671E-2   -1.471522953403698E-2   -3.877944111044335E-2    4.674088495023541E-1   -2.181048852326195E-1
 6.529636810900000E9     5.491330754400817E-1   -1.109710356560472E-1   -1.401105953853624E-2   -3.916736279184315E-2   -1.489432846585424E-2   -3.904578857990930E-2    4.666921346927512E-1   -2.191638656216973E-1
 6.529647109475000E9     5.488874556948076E-1   -1.117997600226934E-1   -1.413887587927915E-2   -3.951216281904869E-2   -1.516292828695791E-2   -3.927850083047859E-2    4.663738386593992E-1   -2.200843552834003E-1
 6.529657408050000E9     5.486782761687794E-1   -1.126309966745924E-1   -1.443612374482509E-2   -3.980797098336633E-2   -1.528587174711002E-2   -3.954546711102090E-2    4.657036462726691E-1   -2.212887275432450E-1
 6.529667706625000E9     5.486746700625684E-1   -1.135323157182599E-1   -1.450170123336036E-2   -4.002616152084700E-2   -1.549848856593242E-2   -3.983197157529911E-2    4.651834514629560E-1   -2.223208649686759E-1
 6.529678005200000E9     5.483014214161704E-1   -1.144661859042390E-1   -1.480040636429792E-2   -4.038213142613119E-2   -1.564315773015005E-2   -4.001695314533435E-2    4.646058976442085E-1   -2.234270872783519E-1
 6.529688303775000E9     5.480559183349007E-1   -1.153655862528006E-1   -1.502722401551232E-2   -4.058345853555907E-2   -1.578402998754059E-2   -4.024130570378617E-2    4.639898180236215E-1   -2.241914523662888E-1
 6.529698602350000E9     5.479117838482230E-1   -1.161765712164113E-1   -1.510681133233725E-2   -4.067313778680830E-2   -1.606851348438457E-2   -4.045730724772534E-2    4.633863452766800E-1   -2.253085393998540E-1
 6.529708900925000E9     5.477309747491924E-1   -1.170059491507219E-1   -1.546162128704271E-2   -4.095867016736099E-2   -1.626469142861891E-2   -4.077848957291447E-2    4.629552881316750E-1   -2.264200761883389E-1
 6.529719199500000E9     5.474168569144946E-1   -1.179823339843312E-1   -1.560173637721322E-2   -4.117785474831634E-2   -1.652102965090504E-2   -4.100377213904823E-2    4.623578681309766E-1   -2.273892146391812E-1
 6.529729498075000E9     5.471561193752988E-1   -1.188217553645836E-1   -1.574936263925568E-2   -4.155104987200187E-2   -1.670063798221828E-2   -4.131132479853822E-2    4.616079261191710E-1   -2.284796680836480E-1
 6.529739796650000E9     5.470726180649518E-1   -1.197514858178743E-1   -1.602681031974977E-2   -4.171266084453609E-2   -1.694155767507045E-2   -4.147271539509223E-2    4.611230098735291E-1   -2.294180993118409E-1
 6.529750095225000E9     5.467795761355521E-1   -1.205157451721862E-1   -1.616330843604473E-2   -4.208083168751179E-2   -1.708007642001140E-2   -4.172697992016166E-2    4.604483831800030E-1   -2.306222598483467E-1
 6.529760393800000E9     5.464728405770347E-1   -1.215186873624809E-1   -1.646970183040849E-2   -4.224230419153873E-2   -1.735623019400918E-2   -4.189495488533610E-2    4.598918217271448E-1   -2.316153596799824E-1
 6.529770692375000E9     5.463219457226632E-1   -1.223433107206973E-1   -1.662620292764857E-2   -4.263100377983862E-2   -1.756034679054096E-2   -4.227866058639036E-2    4.590355837039661E-1   -2.328076473180064E-1
 6.529780990950000E9     5.460072516515471E-1   -1.232518184157987E-1   -1.672151413998491E-2   -4.274501962708377E-2   -1.781905170895545E-2   -4.245914690867399E-2    4.584634725459859E-1   -2.338031720946593E-1
 6.529791289525000E9     5.458429967111783E-1   -1.242616450673977E-1   -1.697604925281480E-2   -4.309280025701040E-2   -1.803048190241863E-2   -4.279508554251851E-2    4.578736507699754E-1   -2.349120070694835E-1
 6.529801588100000E9     5.455576904003709E-1   -1.251370601747537E-1   -1.732518733524009E-2   -4.339291490967008E-2   -1.823894310783956E-2   -4.301639566816755E-2    4.571410269690416E-1   -2.358574664634365E-1
 6.529811886675000E9     5.453614538819622E-1   -1.261224454146185E-1   -1.743260550400237E-2   -4.372529087143833E-2   -1.852520381134031E-2   -4.334767876040890E-2    4.565945665795476E-1   -2.371563004483482E-1
 6.529822185250000E9     5.449832856360788E-1   -1.268317485191160E-1   -1.776875968326525E-2   -4.388940805973445E-2   -1.877191767059486E-2   -4.369030375777003E-2    4.557817570403750E-1   -2.382186619299702E-1
 6.529832483825000E9     5.448753096916302E-1   -1.277404177149234E-1   -1.799395056105351E-2   -4.413623797219730E-2   -1.896056585100981E-2   -4.402405544053360E-2    4.551807892053894E-1   -2.392568569867420E-1
 6.529842782400000E9     5.445712174298235E-1   -1.288418934411706E-1   -1.828120545326688E-2   -4.436585642149051E-2   -1.924215372525491E-2   -4.411088120073714E-2    4.544821287061153E-1   -2.403597574021816E-1
 6.529853080975000E9     5.442822562802917E-1   -1.297474725591841E-1   -1.851947381783295E-2   -4.467677313217475E-2   -1.953332573576999E-2   -4.442229383431270E-2    4.537280177343670E-1   -2.413486540128895E-1
 6.529863379550000E9     5.440291338038896E-1   -1.305015780696457E-1   -1.880746971662669E-2   -4.502244996973598E-2   -1.975904393926255E-2   -4.471182683648355E-2    4.530243096651785E-1   -2.426977120279291E-1
 6.529873678125000E9     5.438029352514558E-1   -1.315559995285801E-1   -1.892644855268130E-2   -4.527353027809900E-2   -1.998895806165664E-2   -4.498357095294098E-2    4.524138386385163E-1   -2.436158151148420E-1
 6.529883976700000E9     5.434952301940995E-1   -1.324262459124437E-1   -1.923372520867818E-2   -4.553208948883131E-2   -2.031844078266022E-2   -4.539282543662527E-2    4.515668621488746E-1   -2.448819392626607E-1
 6.529894275275000E9     5.432881045366007E-1   -1.333448226882694E-1   -1.947121265180158E-2   -4.589614201949202E-2   -2.053223176795373E-2   -4.558392787766375E-2    4.507757025107965E-1   -2.459530334480456E-1
 6.529904573850000E9     5.428032841523268E-1   -1.342729518289308E-1   -1.978320908425063E-2   -4.622999465691136E-2   -2.073303390514670E-2   -4.587642024747731E-2    4.502820530581306E-1   -2.469311267167729E-1
 6.529914872425000E9     5.425665771097448E-1   -1.351980028075773E-1   -2.010779350850276E-2   -4.657669666355561E-2   -2.107869608138897E-2   -4.621839691965529E-2    4.494426654948578E-1   -2.480690317281644E-1
 6.529925171000000E9     5.424188209617170E-1   -1.360422751153383E-1   -2.034321156566576E-2   -4.679779978043929E-2   -2.144552346715310E-2   -4.648809447659868E-2    4.484694698373333E-1   -2.492809280760491E-1
 6.529935469575000E9     5.421189286938793E-1   -1.370990791202335E-1   -2.061298199018691E-2   -4.720186714016500E-2   -2.177054385096718E-2   -4.684260631935856E-2    4.477947726201993E-1   -2.506126649001912E-1
 6.529945768150000E9     5.417701039468003E-1   -1.380580515631596E-1   -2.090201521259017E-2   -4.760258073753627E-2   -2.202862637400503E-2   -4.713373002967056E-2    4.469186363959723E-1   -2.515283581593701E-1
 6.529956066725000E9     5.414540810340270E-1   -1.388565876505216E-1   -2.123467183437820E-2   -4.792827807459808E-2   -2.236314438925840E-2   -4.757634838658581E-2    4.462633616551496E-1   -2.528978934614730E-1
 6.529966365300000E9     5.411994256760402E-1   -1.398744496869687E-1   -2.149671906362480E-2   -4.826053638881455E-2   -2.261029603608398E-2   -4.784659932888376E-2    4.452668814148312E-1   -2.541696997986700E-1
 6.529976663875000E9     5.409501075992510E-1   -1.408486705613906E-1   -2.184191956197691E-2   -4.851741303386468E-2   -2.303572658289877E-2   -4.820671414008394E-2    4.446055785311886E-1   -2.552508162376722E-1
 6.529986962450000E9     5.406204097508416E-1   -1.418787421992039E-1   -2.202990804364952E-2   -4.903232225703991E-2   -2.330377116499252E-2   -4.844572974154858E-2    4.436775193231535E-1   -2.562829324116283E-1
 6.529997261025000E9     5.402226383704867E-1   -1.427749367547641E-1   -2.260791527447564E-2   -4.928177794186729E-2   -2.360909506247274E-2   -4.880017416199117E-2    4.428972595524545E-1   -2.576052489465847E-1
 6.530007559600000E9     5.399663340019993E-1   -1.436037873938514E-1   -2.274746997423753E-2   -4.965193906419375E-2   -2.409166701666016E-2   -4.919863254996019E-2    4.419066179727370E-1   -2.589087548153033E-1
 6.530017858175000E9     5.396269114245891E-1   -1.447219828864554E-1   -2.303101638380061E-2   -5.000601173645334E-2   -2.429690194956408E-2   -4.960443513702720E-2    4.410739692592291E-1   -2.600502652355472E-1
 6.530028156750000E9     5.392096042955452E-1   -1.455251218173197E-1   -2.344784789779930E-2   -5.026413446967557E-2   -2.471415714090275E-2   -4.996240205203671E-2    4.401674769344728E-1   -2.613787335171882E-1
